# Hz S RI R 50
! CMT, C1220, 16058040, 17.2.0/1
! Date: 15/08/2018 12:38:30
! Data: Format (Calibration Info)
! Freq                      S11: Re/Im (F2)                       S21: Re/Im (F2)                       S12: Re/Im (F2)                       S22: Re/Im (F2)            
4.00000000000E+09 +6.54735010977E-01 -3.58041932468E-01 +1.12201226430E-03 -1.11228525183E-03 +1.19986866381E-03 -1.10786209002E-03 +7.85265868152E-01 -3.14169007963E-01
4.00500000000E+09 +6.46551656302E-01 -3.63545805205E-01 +8.55107504891E-04 -1.29808845180E-03 +9.23485541928E-04 -1.36131274873E-03 +7.77025131697E-01 -3.25404303510E-01
4.01000000000E+09 +6.37792237486E-01 -3.69266284306E-01 +5.83763901204E-04 -1.53243206842E-03 +6.36429322429E-04 -1.43493667425E-03 +7.68680362185E-01 -3.37206757212E-01
4.01500000000E+09 +6.27856917760E-01 -3.75561723276E-01 +2.15438028717E-04 -1.31237603137E-03 +2.53777914803E-04 -1.29368310073E-03 +7.60251915715E-01 -3.48412235701E-01
4.02000000000E+09 +6.18097167045E-01 -3.82773379007E-01 +2.79267417521E-04 -1.17558571308E-03 +3.50416322958E-04 -1.20346084532E-03 +7.51540188423E-01 -3.59289731217E-01
4.02500000000E+09 +6.07782526406E-01 -3.91783836061E-01 +2.79878043360E-04 -1.28613755459E-03 +2.94612758803E-04 -1.27807423013E-03 +7.42134181824E-01 -3.69903211279E-01
4.03000000000E+09 +5.97093168375E-01 -4.02068742345E-01 +1.22808594825E-04 -1.33237606064E-03 +1.98975309184E-04 -1.39384590214E-03 +7.31971065829E-01 -3.80530609295E-01
4.03500000000E+09 +5.85640559215E-01 -4.12477308573E-01 +1.49043570250E-05 -1.34071019579E-03 +6.21676879855E-05 -1.37087069539E-03 +7.21084434865E-01 -3.91592035375E-01
4.04000000000E+09 +5.74438421703E-01 -4.22384706548E-01 -1.17895648758E-04 -1.28389029352E-03 -7.53459560177E-05 -1.37325427150E-03 +7.10115762465E-01 -4.02863317910E-01
4.04500000000E+09 +5.63583227187E-01 -4.31922434045E-01 -1.72216846035E-04 -1.37080945239E-03 -1.17548920605E-04 -1.39553416751E-03 +6.99211658691E-01 -4.13949172118E-01
4.05000000000E+09 +5.52003257566E-01 -4.39530877858E-01 -3.66044100101E-04 -1.49111912324E-03 -3.07393160696E-04 -1.52632486278E-03 +6.88693776868E-01 -4.24715545551E-01
4.05500000000E+09 +5.40590192977E-01 -4.45495780068E-01 -4.52424089031E-04 -1.40770628140E-03 -4.36370169016E-04 -1.47978095036E-03 +6.77320867584E-01 -4.34720066486E-01
4.06000000000E+09 +5.29038096999E-01 -4.50665220840E-01 -6.96835893292E-04 -1.40590554459E-03 -7.01764502905E-04 -1.46764570556E-03 +6.66032671663E-01 -4.44252628009E-01
4.06500000000E+09 +5.15741081966E-01 -4.54602369681E-01 -8.32566508540E-04 -1.19211876071E-03 -8.61561587879E-04 -1.23707104883E-03 +6.53626280787E-01 -4.54018076592E-01
4.07000000000E+09 +5.02439610939E-01 -4.58392428309E-01 -7.82820053390E-04 -1.08205176844E-03 -7.26127839178E-04 -1.13014342054E-03 +6.40266693568E-01 -4.64024696562E-01
4.07500000000E+09 +4.87921740610E-01 -4.63141440006E-01 -9.21375171173E-04 -1.30218434885E-03 -8.86146935814E-04 -1.36825930165E-03 +6.26614483684E-01 -4.74457077972E-01
4.08000000000E+09 +4.72432907096E-01 -4.68244902113E-01 -1.22830879064E-03 -1.15843659619E-03 -1.21949736484E-03 -1.27263743722E-03 +6.12941211424E-01 -4.84400025680E-01
4.08500000000E+09 +4.56436801881E-01 -4.74657351189E-01 -1.31187818956E-03 -9.44661593171E-04 -1.31666531572E-03 -1.03219361602E-03 +5.99526148310E-01 -4.94328929492E-01
4.09000000000E+09 +4.39698594802E-01 -4.81432548077E-01 -1.60368202237E-03 -9.51883334625E-04 -1.63948432396E-03 -1.03514450084E-03 +5.85582665161E-01 -5.03029999328E-01
4.09500000000E+09 +4.23239659615E-01 -4.87978257392E-01 -1.74285211057E-03 -4.68006333568E-04 -1.83915958710E-03 -5.12683977232E-04 +5.71357338989E-01 -5.11272788952E-01
4.10000000000E+09 +4.06442389929E-01 -4.94025894332E-01 -1.53169454727E-03 -1.67021229509E-04 -1.57445339304E-03 -1.56297390155E-04 +5.55859486037E-01 -5.19010672877E-01
4.10500000000E+09 +3.89824413124E-01 -4.98339187833E-01 -1.42010492726E-03 -2.96422956212E-04 -1.46126793669E-03 -3.03321501972E-04 +5.40426828959E-01 -5.27100130702E-01
4.11000000000E+09 +3.73699861572E-01 -5.00280640345E-01 -1.71886796515E-03 -4.42189257175E-05 -1.77400694435E-03 -1.64629393442E-04 +5.23956591644E-01 -5.35645803709E-01
4.11500000000E+09 +3.58792818751E-01 -5.01798761847E-01 -1.50268264589E-03 +2.54604305662E-04 -1.56809099941E-03 +1.56426198374E-04 +5.07908873070E-01 -5.43694482572E-01
4.12000000000E+09 +3.43036227254E-01 -5.02641633382E-01 -1.42300781443E-03 +2.86910857596E-04 -1.50650055455E-03 +2.53261000587E-04 +4.91561249633E-01 -5.51789685273E-01
4.12500000000E+09 +3.26425149997E-01 -5.03492632052E-01 -1.35925262753E-03 +3.19189675433E-04 -1.40909906095E-03 +2.57102758301E-04 +4.74244264105E-01 -5.58649812305E-01
4.13000000000E+09 +3.08942769277E-01 -5.04634361885E-01 -1.50366421355E-03 +5.07946765837E-04 -1.51601120359E-03 +4.86937410173E-04 +4.56906282351E-01 -5.64990541139E-01
4.13500000000E+09 +2.90083734981E-01 -5.07047547284E-01 -1.01172166453E-03 +8.06143598687E-04 -1.11575932137E-03 +7.72259444007E-04 +4.38367540623E-01 -5.70776842941E-01
4.14000000000E+09 +2.70078884426E-01 -5.09791017627E-01 -1.05665321570E-03 +3.48085879766E-04 -1.05237973464E-03 +3.33214649869E-04 +4.19794096267E-01 -5.76681287193E-01
4.14500000000E+09 +2.50364336054E-01 -5.12480792433E-01 -1.40167441114E-03 +5.08252920373E-04 -1.44232231371E-03 +4.98884794287E-04 +4.00304479182E-01 -5.82741487562E-01
4.15000000000E+09 +2.30875575239E-01 -5.16451555255E-01 -1.20700088095E-03 +8.57059980094E-04 -1.26773999041E-03 +8.33940196625E-04 +3.81844565128E-01 -5.87768400905E-01
4.15500000000E+09 +2.11008590671E-01 -5.19310366281E-01 -1.15260377394E-03 +9.07218230601E-04 -1.18183938590E-03 +9.04963764930E-04 +3.63336740252E-01 -5.92748654448E-01
4.16000000000E+09 +1.92893912064E-01 -5.19779788900E-01 -1.13414822342E-03 +1.01367124963E-03 -1.17749144771E-03 +1.05994078382E-03 +3.44082355205E-01 -5.96128543098E-01
4.16500000000E+09 +1.76227386039E-01 -5.20051309590E-01 -9.05119235378E-04 +1.05417667837E-03 -9.91825923111E-04 +1.07964208079E-03 +3.24591689924E-01 -5.98917581789E-01
4.17000000000E+09 +1.59517115786E-01 -5.18022710758E-01 -8.51529972037E-04 +1.23055014894E-03 -8.69633420116E-04 +1.26281648340E-03 +3.03599348860E-01 -6.01083477680E-01
4.17500000000E+09 +1.43691248574E-01 -5.14201795549E-01 -6.42392664012E-04 +1.03145701975E-03 -7.03686286676E-04 +1.01935307429E-03 +2.82232622829E-01 -6.02458389930E-01
4.18000000000E+09 +1.26970468233E-01 -5.09785106360E-01 -8.07632500602E-04 +1.34333994507E-03 -8.79585841074E-04 +1.33121869372E-03 +2.61388566272E-01 -6.03456355813E-01
4.18500000000E+09 +1.10311491736E-01 -5.04003661676E-01 -4.62312903629E-04 +1.24841368636E-03 -4.47142445633E-04 +1.22634580779E-03 +2.40692928216E-01 -6.05113043629E-01
4.19000000000E+09 +9.21331204975E-02 -4.99103888188E-01 -6.91673470867E-04 +1.14356874533E-03 -7.31236427504E-04 +1.16433994222E-03 +2.19133740210E-01 -6.05250636075E-01
4.19500000000E+09 +7.32484018555E-02 -4.93533224859E-01 -7.58701091702E-04 +1.50569294772E-03 -8.20849740000E-04 +1.50272448010E-03 +1.98096131220E-01 -6.03728453041E-01
4.20000000000E+09 +5.46065796529E-02 -4.89111433569E-01 -3.41366416738E-04 +1.91215230901E-03 -3.90375333185E-04 +1.96160406313E-03 +1.76495715016E-01 -6.01981254383E-01
4.20500000000E+09 +3.53915517769E-02 -4.85369942545E-01 +6.40800721149E-05 +1.68406027991E-03 +5.51186607095E-05 +1.73533119492E-03 +1.54636127609E-01 -5.99121258389E-01
4.21000000000E+09 +1.67525562309E-02 -4.81169161425E-01 -3.22950579080E-05 +1.33632338401E-03 -7.78189949173E-05 +1.35053417603E-03 +1.32365445308E-01 -5.97550304373E-01
4.21500000000E+09 -1.33477571828E-03 -4.75781083074E-01 +8.79166986565E-06 +1.73786685044E-03 -1.61978915420E-05 +1.78712752148E-03 +1.08926957652E-01 -5.95216132720E-01
4.22000000000E+09 -1.75753820461E-02 -4.68386572254E-01 +3.94444728852E-04 +1.67725365175E-03 +3.79255743395E-04 +1.71636077833E-03 +8.62953722556E-02 -5.91184987841E-01
4.22500000000E+09 -3.24321995153E-02 -4.59732775412E-01 +3.36897926155E-04 +1.35084018407E-03 +3.57785399869E-04 +1.41188073651E-03 +6.44624919515E-02 -5.86349175950E-01
4.23000000000E+09 -4.68061865734E-02 -4.49043668111E-01 +3.48918862666E-04 +1.54696459637E-03 +3.33802369107E-04 +1.55163086099E-03 +4.27304942944E-02 -5.79758819681E-01
4.23500000000E+09 -6.09397523902E-02 -4.37729336440E-01 +4.43468447247E-04 +1.55112417433E-03 +4.02778467069E-04 +1.62333411360E-03 +2.09458540596E-02 -5.72553287852E-01
4.24000000000E+09 -7.67882058338E-02 -4.25759802266E-01 +5.46869965994E-04 +1.64468494346E-03 +5.92058847146E-04 +1.75940260155E-03 -1.30953409562E-03 -5.63845684992E-01
4.24500000000E+09 -9.46240107171E-02 -4.12783939182E-01 +9.39098138052E-04 +1.72390369525E-03 +9.54207706223E-04 +1.80097966754E-03 -2.31115010005E-02 -5.55271416369E-01
4.25000000000E+09 -1.13946243294E-01 -3.99373879774E-01 +9.92411298521E-04 +1.70874676739E-03 +9.87116138605E-04 +1.80437683386E-03 -4.52642775598E-02 -5.46287130964E-01
4.25500000000E+09 -1.33857132908E-01 -3.86493981052E-01 +1.54995924439E-03 +1.63738658112E-03 +1.64698768578E-03 +1.70163884398E-03 -6.60988223405E-02 -5.36583475917E-01
4.26000000000E+09 -1.54958279398E-01 -3.74469764603E-01 +1.67330020751E-03 +1.00856003110E-03 +1.66971579454E-03 +1.08268113324E-03 -8.71620829180E-02 -5.25901721166E-01
4.26500000000E+09 -1.74549307862E-01 -3.61590460126E-01 +1.06892603733E-03 +1.10700680664E-03 +1.09414412016E-03 +1.15692487519E-03 -1.07412351138E-01 -5.14062758918E-01
4.27000000000E+09 -1.91936274244E-01 -3.49742821378E-01 +1.62170575123E-03 +1.25096904421E-03 +1.62520988021E-03 +1.30904813592E-03 -1.28555677936E-01 -5.00861989522E-01
4.27500000000E+09 -2.07838825127E-01 -3.37675015912E-01 +1.64013983332E-03 +9.90366243754E-04 +1.75994388672E-03 +9.75426527118E-04 -1.49321505199E-01 -4.86694668000E-01
4.28000000000E+09 -2.21207625835E-01 -3.24881270354E-01 +1.77821348301E-03 +1.19310689007E-03 +1.83348194308E-03 +1.19584739366E-03 -1.69876073544E-01 -4.72925658582E-01
4.28500000000E+09 -2.33616094305E-01 -3.10237016893E-01 +2.28219776601E-03 +9.94181297513E-04 +2.31528696791E-03 +1.02343886666E-03 -1.90963668317E-01 -4.57964133744E-01
4.29000000000E+09 -2.44196688134E-01 -2.94156983773E-01 +2.57672859328E-03 +2.56007938127E-04 +2.59325929392E-03 +2.15708589273E-04 -2.09618136236E-01 -4.42270697978E-01
4.29500000000E+09 -2.56002032173E-01 -2.76511662241E-01 +1.92258045890E-03 +1.31066735844E-05 +2.01016172218E-03 -4.85410661623E-05 -2.28067592872E-01 -4.26427770234E-01
4.30000000000E+09 -2.67535105432E-01 -2.55867808290E-01 +2.17379842453E-03 +1.06346123885E-04 +2.19250412954E-03 +1.17316186202E-04 -2.44631435289E-01 -4.09489518147E-01
4.30500000000E+09 -2.78912519961E-01 -2.35467294461E-01 +2.24869785749E-03 -3.40865340224E-04 +2.30339506210E-03 -4.01876554532E-04 -2.62576112749E-01 -3.92289228167E-01
4.31000000000E+09 -2.91503704173E-01 -2.15543130784E-01 +1.67191692973E-03 -1.18910127599E-05 +1.59121030453E-03 -3.50588465153E-05 -2.79592030083E-01 -3.72790833264E-01
4.31500000000E+09 -3.04848443385E-01 -1.96637136662E-01 +2.47206384563E-03 +3.70203843903E-04 +2.55875183526E-03 +4.07826045433E-04 -2.96244213583E-01 -3.53391993692E-01
4.32000000000E+09 -3.18440971155E-01 -1.78726778210E-01 +3.15966290211E-03 -6.92068432167E-04 +3.22731752438E-03 -6.93520717151E-04 -3.12376708179E-01 -3.32830655080E-01
4.32500000000E+09 -3.30367838971E-01 -1.61378727254E-01 +2.40546496898E-03 -1.34921469426E-03 +2.45751832374E-03 -1.36637844865E-03 -3.26612629654E-01 -3.11007903965E-01
4.33000000000E+09 -3.39989087154E-01 -1.45377417637E-01 +2.59043090254E-03 -1.11344809655E-03 +2.66462596000E-03 -1.18713394766E-03 -3.39057585961E-01 -2.89256089111E-01
4.33500000000E+09 -3.47026433212E-01 -1.28777362852E-01 +2.60712655096E-03 -1.88023973874E-03 +2.72348140267E-03 -1.98198891393E-03 -3.51192142373E-01 -2.66626619105E-01
4.34000000000E+09 -3.50274449730E-01 -1.12708977999E-01 +2.04125169437E-03 -2.52165249544E-03 +1.98997819258E-03 -2.56170549441E-03 -3.62877719172E-01 -2.44085070468E-01
4.34500000000E+09 -3.52334975007E-01 -9.59458403495E-02 +1.30313491726E-03 -2.14729788348E-03 +1.35532537259E-03 -2.09633001280E-03 -3.74650793007E-01 -2.20292832943E-01
4.35000000000E+09 -3.53011762434E-01 -7.69962818865E-02 +1.71414874355E-03 -1.93350832855E-03 +1.70195924116E-03 -1.97758611457E-03 -3.84971641811E-01 -1.97413894466E-01
4.35500000000E+09 -3.53993747389E-01 -5.67272338769E-02 +1.67357672011E-03 -2.39109071579E-03 +1.70345462844E-03 -2.42126478795E-03 -3.95033573678E-01 -1.74970779077E-01
4.36000000000E+09 -3.55506791710E-01 -3.41055435010E-02 +1.43326906614E-03 -2.46191985921E-03 +1.42937670916E-03 -2.53797624152E-03 -4.04466417273E-01 -1.51761463301E-01
4.36500000000E+09 -3.58587743148E-01 -1.09318676403E-02 +1.63882328748E-03 -2.81076871930E-03 +1.65080765797E-03 -2.86279787631E-03 -4.11869428123E-01 -1.27143558963E-01
4.37000000000E+09 -3.62907511994E-01 +1.34712663187E-02 +1.24008721387E-03 -3.43615152905E-03 +1.18194714764E-03 -3.51890884261E-03 -4.17485560636E-01 -1.02768716572E-01
4.37500000000E+09 -3.66658332268E-01 +3.69097903821E-02 +6.88779205428E-04 -3.96425774270E-03 +6.27362870449E-04 -4.06148059519E-03 -4.22809648356E-01 -7.76160556683E-02
4.38000000000E+09 -3.70849897459E-01 +5.68036296244E-02 -1.95064336663E-04 -3.91635736135E-03 -2.83678511445E-04 -4.00979182339E-03 -4.26793021097E-01 -5.25895184016E-02
4.38500000000E+09 -3.74847395739E-01 +7.52614466299E-02 -8.35760829026E-04 -3.57440672528E-03 -8.67161589332E-04 -3.61891523844E-03 -4.30287354590E-01 -2.83028002116E-02
4.39000000000E+09 -3.77250700581E-01 +9.12957164217E-02 -1.07082383865E-03 -3.47411795871E-03 -1.13138296584E-03 -3.51049796488E-03 -4.33768084199E-01 -3.07787112151E-03
4.39500000000E+09 -3.78094534168E-01 +1.05656146150E-01 -1.32006440878E-03 -2.95959290336E-03 -1.39470522895E-03 -2.96098636112E-03 -4.34553575489E-01 +2.09777196599E-02
4.40000000000E+09 -3.76479813764E-01 +1.21085167112E-01 -1.22922348735E-03 -3.29249055801E-03 -1.26477695202E-03 -3.24525242128E-03 -4.35517031525E-01 +4.56223408820E-02
4.40500000000E+09 -3.72389526179E-01 +1.37002603634E-01 -2.21970810174E-03 -3.30868178056E-03 -2.25278874936E-03 -3.30355389478E-03 -4.34889769008E-01 +7.08319926650E-02
4.41000000000E+09 -3.66228054181E-01 +1.53976454522E-01 -2.15564079551E-03 -2.69515576521E-03 -2.18222274312E-03 -2.70457847805E-03 -4.32847787739E-01 +9.60235171615E-02
4.41500000000E+09 -3.59911583704E-01 +1.72498561809E-01 -2.71968021338E-03 -2.90496731158E-03 -2.77705200652E-03 -2.92445333034E-03 -4.30110341744E-01 +1.20054304656E-01
4.42000000000E+09 -3.53931043756E-01 +1.93038091940E-01 -3.06351137464E-03 -2.25562338862E-03 -3.11764643962E-03 -2.24921070124E-03 -4.27718708702E-01 +1.44265072155E-01
4.42500000000E+09 -3.48694793005E-01 +2.15080206259E-01 -3.20629249074E-03 -2.18352869540E-03 -3.26241846795E-03 -2.15656422585E-03 -4.22418270391E-01 +1.68954018380E-01
4.43000000000E+09 -3.44000498860E-01 +2.35792126040E-01 -3.79278937622E-03 -2.05969445084E-03 -3.82698353789E-03 -1.92596630227E-03 -4.17237764806E-01 +1.91038322555E-01
4.43500000000E+09 -3.42059266829E-01 +2.56243222414E-01 -4.09419731467E-03 -7.74962242459E-04 -4.05533161555E-03 -7.20099409345E-04 -4.10808033766E-01 +2.14653172226E-01
4.44000000000E+09 -3.39340534157E-01 +2.75627063024E-01 -3.64124686473E-03 -7.73563522467E-04 -3.62729740120E-03 -7.94782343290E-04 -4.03469939575E-01 +2.36444370731E-01
4.44500000000E+09 -3.35975328026E-01 +2.90951194755E-01 -3.86125905893E-03 -2.05349860274E-04 -3.85300542736E-03 -1.35580100769E-04 -3.96395057507E-01 +2.57845067772E-01
4.45000000000E+09 -3.33112116996E-01 +3.04429097080E-01 -3.56637378169E-03 -6.67903520305E-05 -3.55757663733E-03 +4.44408822584E-05 -3.88893638947E-01 +2.78819048866E-01
4.45500000000E+09 -3.28080807295E-01 +3.16747173179E-01 -3.86368808876E-03 +2.65072925466E-05 -3.84424802787E-03 +1.68626530513E-04 -3.81435715423E-01 +2.99363650295E-01
4.46000000000E+09 -3.21491512654E-01 +3.28307796176E-01 -4.13316900075E-03 +7.38066407871E-04 -4.13304827032E-03 +7.88622387843E-04 -3.71710248954E-01 +3.19388011777E-01
4.46500000000E+09 -3.12182382226E-01 +3.40898224006E-01 -3.76438092430E-03 +1.40272542741E-03 -3.70817867075E-03 +1.41826186275E-03 -3.62052756925E-01 +3.38662773014E-01
4.47000000000E+09 -3.01241827574E-01 +3.53880626543E-01 -3.53071428699E-03 +1.51393272026E-03 -3.47730340241E-03 +1.56981503884E-03 -3.49665769980E-01 +3.58513498195E-01
4.47500000000E+09 -2.89571789777E-01 +3.69890806890E-01 -3.72556910585E-03 +1.89426075023E-03 -3.64359456726E-03 +1.97615921826E-03 -3.37988883005E-01 +3.76163698082E-01
4.48000000000E+09 -2.76573829455E-01 +3.85136254382E-01 -3.58179840324E-03 +2.47151361448E-03 -3.41500854201E-03 +2.50396408688E-03 -3.26386988892E-01 +3.94858654504E-01
4.48500000000E+09 -2.66940898873E-01 +4.01682638696E-01 -3.11839551124E-03 +2.95018221088E-03 -3.01907753767E-03 +2.91997866138E-03 -3.14557322888E-01 +4.11530027878E-01
4.49000000000E+09 -2.57517266306E-01 +4.18903534559E-01 -2.83524803147E-03 +3.43490739624E-03 -2.78264153072E-03 +3.34975705224E-03 -3.03101481779E-01 +4.27877782414E-01
4.49500000000E+09 -2.49327404650E-01 +4.34171309769E-01 -2.30081988846E-03 +3.54353777830E-03 -2.24020011714E-03 +3.52893034391E-03 -2.91336484569E-01 +4.43564707806E-01
4.50000000000E+09 -2.42899603469E-01 +4.47780348058E-01 -1.97315108630E-03 +3.82153059705E-03 -1.88008920424E-03 +3.85242269669E-03 -2.78418775280E-01 +4.58999086392E-01
4.50500000000E+09 -2.36870420197E-01 +4.59050636997E-01 -1.54442617802E-03 +3.92305500247E-03 -1.49220290864E-03 +3.92687861553E-03 -2.64322057928E-01 +4.74248474834E-01
4.51000000000E+09 -2.30131273589E-01 +4.68516296004E-01 -1.37551910098E-03 +4.30826749653E-03 -1.31045190592E-03 +4.30699951403E-03 -2.50065262372E-01 +4.88201105729E-01
4.51500000000E+09 -2.21497092071E-01 +4.76169958850E-01 -5.22755710460E-04 +4.81838944267E-03 -4.22226354425E-04 +4.79730817089E-03 -2.36578231961E-01 +5.02267309552E-01
4.52000000000E+09 -2.11224109563E-01 +4.82456614977E-01 +2.93504616302E-04 +4.38344018318E-03 +3.53779880082E-04 +4.25649820481E-03 -2.22504990111E-01 +5.15527259355E-01
4.52500000000E+09 -1.99003148744E-01 +4.89450253969E-01 +4.76057394570E-04 +4.37042261265E-03 +5.49524114362E-04 +4.27289822144E-03 -2.08285597906E-01 +5.27014244006E-01
4.53000000000E+09 -1.84915693451E-01 +4.97361110250E-01 +1.17437414259E-03 +4.34697811626E-03 +1.22264531684E-03 +4.23469115844E-03 -1.94163477463E-01 +5.37797209597E-01
4.53500000000E+09 -1.69371698822E-01 +5.06808355628E-01 +1.55262704844E-03 +3.81913473118E-03 +1.58836713306E-03 +3.68938222759E-03 -1.79455954182E-01 +5.48171503042E-01
4.54000000000E+09 -1.53413946376E-01 +5.17129470586E-01 +1.83070341359E-03 +3.91558379963E-03 +1.86621289604E-03 +3.85772557853E-03 -1.64619657914E-01 +5.58826674659E-01
4.54500000000E+09 -1.38671090964E-01 +5.27828694004E-01 +2.65599300415E-03 +3.50129636246E-03 +2.67281514657E-03 +3.37359170516E-03 -1.49646833653E-01 +5.69411784310E-01
4.55000000000E+09 -1.25757973455E-01 +5.38155387252E-01 +2.56145251836E-03 +3.05233723053E-03 +2.59020879996E-03 +2.93155021458E-03 -1.34527111031E-01 +5.79790620665E-01
4.55500000000E+09 -1.15724012650E-01 +5.47850535839E-01 +3.10793752330E-03 +2.75561863975E-03 +3.04984799859E-03 +2.64187919088E-03 -1.19865624894E-01 +5.89283869280E-01
4.56000000000E+09 -1.07259150006E-01 +5.57508966236E-01 +3.14166749774E-03 +2.16692864919E-03 +3.11437793083E-03 +2.09171580935E-03 -1.05513966524E-01 +5.97751803572E-01
4.56500000000E+09 -9.91330154341E-02 +5.65480188861E-01 +3.20002878316E-03 +1.95541312580E-03 +3.21562256358E-03 +1.82743024663E-03 -9.05255657764E-02 +6.06366772046E-01
4.57000000000E+09 -8.98897831207E-02 +5.71631322891E-01 +3.32292238462E-03 +1.80623979200E-03 +3.30548349613E-03 +1.67432797196E-03 -7.50807111578E-02 +6.13539968939E-01
