# Hz S RI R 50
! CMT, C1220, 16058040, 17.2.0/1
! Date: 15/08/2018 12:37:38
! Data: Format (Calibration Info)
! Freq                      S11: Re/Im (F2)                       S21: Re/Im (F2)                       S12: Re/Im (F2)                       S22: Re/Im (F2)            
4.00000000000E+09 +6.51572121008E-01 -3.62269280745E-01 +1.32425117488E-03 -1.18315602012E-03 +1.44613767877E-03 -1.18420835261E-03 +7.84824210739E-01 -3.15128117785E-01
4.00500000000E+09 +6.43234406087E-01 -3.67485096056E-01 +1.04062726147E-03 -1.56700466674E-03 +1.21806330250E-03 -1.61595284839E-03 +7.76419545268E-01 -3.26184660498E-01
4.01000000000E+09 +6.34366603604E-01 -3.72824073991E-01 +6.12764954118E-04 -1.80511471081E-03 +7.61154658856E-04 -1.84255803598E-03 +7.67943839303E-01 -3.38052606504E-01
4.01500000000E+09 +6.24745224861E-01 -3.78898542483E-01 +1.67737011124E-04 -1.55959689458E-03 +2.65075149336E-04 -1.57326432611E-03 +7.59610000544E-01 -3.49114497904E-01
4.02000000000E+09 +6.15105496457E-01 -3.86045616687E-01 +1.79525348410E-04 -1.33918405709E-03 +2.20753575972E-04 -1.46907745559E-03 +7.50788605333E-01 -3.59976604665E-01
4.02500000000E+09 +6.04745533934E-01 -3.95189271973E-01 +1.17206528918E-04 -1.34243294709E-03 +1.69550135466E-04 -1.41611514011E-03 +7.41472824080E-01 -3.70674677039E-01
4.03000000000E+09 +5.93820518620E-01 -4.05651144920E-01 +1.02519824682E-04 -1.27738987334E-03 +9.97592398378E-05 -1.36731266619E-03 +7.31140039097E-01 -3.81373400478E-01
4.03500000000E+09 +5.82074980847E-01 -4.15825692412E-01 +2.17411526852E-05 -1.31597809143E-03 -1.03109342003E-06 -1.41085645563E-03 +7.19907352172E-01 -3.92339919534E-01
4.04000000000E+09 +5.70917737237E-01 -4.25350719316E-01 -4.31343207422E-05 -1.29021186003E-03 -1.78583795932E-05 -1.38056965660E-03 +7.08744905104E-01 -4.03715712292E-01
4.04500000000E+09 +5.59978405752E-01 -4.34622205455E-01 -1.59312086647E-04 -1.38282465895E-03 -1.47953665810E-04 -1.41685653009E-03 +6.97615852212E-01 -4.14513171711E-01
4.05000000000E+09 +5.48427838035E-01 -4.42145087709E-01 -2.99036851695E-04 -1.41882661930E-03 -3.09226864445E-04 -1.49555301982E-03 +6.87046874605E-01 -4.25080257230E-01
4.05500000000E+09 +5.36863984453E-01 -4.47728873913E-01 -3.16913655103E-04 -1.34116142135E-03 -3.16810512631E-04 -1.39723260617E-03 +6.75612285044E-01 -4.34734691983E-01
4.06000000000E+09 +5.25123367245E-01 -4.52324112755E-01 -5.88335819428E-04 -1.44902015186E-03 -6.32655548158E-04 -1.46609037884E-03 +6.64523965601E-01 -4.44041381586E-01
4.06500000000E+09 +5.12217572274E-01 -4.56005037562E-01 -6.66749126678E-04 -1.17573307089E-03 -7.58958386914E-04 -1.13391223363E-03 +6.52098783612E-01 -4.53714371527E-01
4.07000000000E+09 +4.98976822862E-01 -4.59995525308E-01 -5.70751605211E-04 -1.03125860616E-03 -5.29265194361E-04 -9.96413388078E-04 +6.38967158662E-01 -4.63591075342E-01
4.07500000000E+09 +4.84216516938E-01 -4.64456427042E-01 -4.98404349009E-04 -1.33833751723E-03 -4.14238499612E-04 -1.33112197277E-03 +6.25264525304E-01 -4.74082754120E-01
4.08000000000E+09 +4.68718229970E-01 -4.69492893986E-01 -8.37898818673E-04 -1.46696204768E-03 -7.62552212246E-04 -1.48784084866E-03 +6.11587968682E-01 -4.83970707618E-01
4.08500000000E+09 +4.52384441901E-01 -4.75780245290E-01 -9.18235678524E-04 -1.37653032531E-03 -8.57311981835E-04 -1.44745510262E-03 +5.98245470039E-01 -4.93700767884E-01
4.09000000000E+09 +4.35530436200E-01 -4.81956821124E-01 -1.43987865105E-03 -1.56487715135E-03 -1.39092215398E-03 -1.60800224633E-03 +5.84469507820E-01 -5.02358830266E-01
4.09500000000E+09 +4.19002777913E-01 -4.88168299354E-01 -1.86759553112E-03 -9.69836395038E-04 -1.87835227262E-03 -1.06163605088E-03 +5.70305123521E-01 -5.10569834439E-01
4.10000000000E+09 +4.02447609314E-01 -4.93944454575E-01 -1.68889742695E-03 -4.87160140401E-04 -1.62137827740E-03 -5.82562392821E-04 +5.54765281440E-01 -5.18156344304E-01
4.10500000000E+09 +3.85838041458E-01 -4.98124030332E-01 -1.54454353168E-03 -5.52618487086E-04 -1.54962871997E-03 -6.68946211466E-04 +5.39394405803E-01 -5.26134854210E-01
4.11000000000E+09 +3.69564083059E-01 -4.99847605927E-01 -1.81678103218E-03 -3.70965506491E-04 -1.78143649513E-03 -4.94668854508E-04 +5.23135907434E-01 -5.34852449700E-01
4.11500000000E+09 +3.54757321581E-01 -5.00883546329E-01 -1.49933500020E-03 -1.24105244094E-04 -1.52481639704E-03 -2.89806306861E-04 +5.06819845296E-01 -5.42918566627E-01
4.12000000000E+09 +3.39134825316E-01 -5.01622419640E-01 -1.64482507875E-03 -2.64569621260E-04 -1.71260101990E-03 -4.20268920049E-04 +4.90477919608E-01 -5.51022140224E-01
4.12500000000E+09 +3.22535781180E-01 -5.02585991994E-01 -1.76751966561E-03 +8.50207721553E-05 -1.85931679654E-03 -1.03809531079E-04 +4.73217419061E-01 -5.57740552539E-01
4.13000000000E+09 +3.05248582919E-01 -5.03111052272E-01 -1.69065410563E-03 +3.59066473706E-04 -1.83016225644E-03 +2.84875462117E-04 +4.55823934345E-01 -5.63715024945E-01
4.13500000000E+09 +2.86764553341E-01 -5.05562013300E-01 -1.26367170894E-03 +5.05005387307E-04 -1.42373409722E-03 +4.28440233410E-04 +4.37521059488E-01 -5.69134825696E-01
4.14000000000E+09 +2.66869077394E-01 -5.08284232918E-01 -1.39292036474E-03 +1.21865450005E-04 -1.55071781463E-03 +5.02824488135E-05 +4.19260901506E-01 -5.75189161586E-01
4.14500000000E+09 +2.47066245736E-01 -5.11068161279E-01 -1.70734842171E-03 +4.20612788546E-04 -1.90096335599E-03 +4.18372897561E-04 +3.99827528935E-01 -5.81354268191E-01
4.15000000000E+09 +2.27661581856E-01 -5.14550762602E-01 -1.40750011300E-03 +7.66524889429E-04 -1.59523389375E-03 +8.07312948571E-04 +3.81648304632E-01 -5.86384572741E-01
4.15500000000E+09 +2.08164320055E-01 -5.17345693311E-01 -1.26608478625E-03 +8.06659582043E-04 -1.40707627849E-03 +9.14468322604E-04 +3.63343895074E-01 -5.91419734443E-01
4.16000000000E+09 +1.89737858996E-01 -5.17748953340E-01 -1.14776855056E-03 +7.52369232522E-04 -1.22894381292E-03 +8.76728927501E-04 +3.44244280226E-01 -5.94931319453E-01
4.16500000000E+09 +1.73138434654E-01 -5.17389633897E-01 -1.10034129468E-03 +7.31228326810E-04 -1.13144177745E-03 +8.17687481079E-04 +3.24631517053E-01 -5.97737636570E-01
4.17000000000E+09 +1.56873351957E-01 -5.15021536064E-01 -1.23586337335E-03 +7.72329659339E-04 -1.20716114460E-03 +8.35507954532E-04 +3.03985911357E-01 -5.99898399162E-01
4.17500000000E+09 +1.41254839052E-01 -5.10933876668E-01 -1.21079509702E-03 +6.23282727254E-04 -1.21561051988E-03 +7.65609778617E-04 +2.82653810842E-01 -6.01521321047E-01
4.18000000000E+09 +1.25372854225E-01 -5.06275378041E-01 -1.39145234015E-03 +1.08934678906E-03 -1.33944733626E-03 +1.16027052099E-03 +2.61696829441E-01 -6.02993124865E-01
4.18500000000E+09 +1.08681158461E-01 -5.01320161481E-01 -1.10464768791E-03 +1.09419571333E-03 -1.01191069753E-03 +1.07596233740E-03 +2.40826928668E-01 -6.04513506820E-01
4.19000000000E+09 +9.07724963066E-02 -4.95987882290E-01 -1.36813483263E-03 +1.12363644277E-03 -1.29649073284E-03 +1.07630693362E-03 +2.19515729893E-01 -6.04587708607E-01
4.19500000000E+09 +7.22479100228E-02 -4.90610522893E-01 -1.45718786866E-03 +1.45183669523E-03 -1.41374194592E-03 +1.32274221308E-03 +1.98671773823E-01 -6.03374855629E-01
4.20000000000E+09 +5.36850408413E-02 -4.86422076847E-01 -1.18292360815E-03 +1.94820747884E-03 -1.14639325646E-03 +1.89308473890E-03 +1.76834093992E-01 -6.01491484167E-01
4.20500000000E+09 +3.46759417978E-02 -4.81950421770E-01 -7.18378824643E-04 +1.91018689618E-03 -6.99526126628E-04 +1.83052574059E-03 +1.55302633525E-01 -5.98786657146E-01
4.21000000000E+09 +1.67469440392E-02 -4.77399940825E-01 -8.62700750758E-04 +1.70301135857E-03 -8.85594327944E-04 +1.60166185974E-03 +1.32866986927E-01 -5.97545424891E-01
4.21500000000E+09 -5.80635256017E-04 -4.71456213436E-01 -7.49892836924E-04 +2.18552349900E-03 -7.82637144561E-04 +2.13832772996E-03 +1.09294908964E-01 -5.95161248705E-01
4.22000000000E+09 -1.61525480367E-02 -4.64248917812E-01 -3.23063076262E-04 +2.11714511917E-03 -3.73325620856E-04 +2.07108408797E-03 +8.65334652878E-02 -5.91388087045E-01
4.22500000000E+09 -3.10168674026E-02 -4.55519424307E-01 -4.73936322320E-04 +2.09185092200E-03 -6.46872560767E-04 +2.06158746627E-03 +6.46950578068E-02 -5.86575696441E-01
4.23000000000E+09 -4.52512630790E-02 -4.44240536686E-01 -2.14336544882E-04 +2.63183284870E-03 -3.98213110787E-04 +2.69291507769E-03 +4.30033173188E-02 -5.79995845134E-01
4.23500000000E+09 -5.89166939710E-02 -4.32957402874E-01 +2.05282672354E-04 +2.64228575488E-03 +8.82827509940E-05 +2.70941250807E-03 +2.12360837143E-02 -5.73015786054E-01
4.24000000000E+09 -7.50054768023E-02 -4.20937471312E-01 +6.15555955202E-04 +2.68436857836E-03 +5.09844730665E-04 +2.81307454782E-03 -1.12747317386E-03 -5.64579456137E-01
4.24500000000E+09 -9.26633007533E-02 -4.07733100569E-01 +9.83172212147E-04 +2.38770564380E-03 +9.16130963376E-04 +2.50626351477E-03 -2.32739886182E-02 -5.56159027482E-01
4.25000000000E+09 -1.11658645889E-01 -3.94633446103E-01 +8.23714050538E-04 +2.39981116803E-03 +7.72165042113E-04 +2.54197686960E-03 -4.56569850007E-02 -5.47074173729E-01
4.25500000000E+09 -1.31408647602E-01 -3.82207649590E-01 +1.39984889593E-03 +2.54004742513E-03 +1.46018259329E-03 +2.71429467086E-03 -6.66925326526E-02 -5.37601251485E-01
4.26000000000E+09 -1.52395794480E-01 -3.70161173052E-01 +1.80237169070E-03 +2.10913789734E-03 +1.87723648363E-03 +2.22432029004E-03 -8.78603275082E-02 -5.27242108448E-01
4.26500000000E+09 -1.71444990269E-01 -3.57371127206E-01 +1.60186001949E-03 +2.08637689760E-03 +1.74081506475E-03 +2.24230739338E-03 -1.08548410959E-01 -5.15278479926E-01
4.27000000000E+09 -1.88228224671E-01 -3.45918162085E-01 +2.12924040461E-03 +1.98234348591E-03 +2.35041355737E-03 +2.03101042228E-03 -1.29859126948E-01 -5.01814878017E-01
4.27500000000E+09 -2.04021185513E-01 -3.34402433949E-01 +2.22478159086E-03 +1.43692732421E-03 +2.34691338355E-03 +1.51654310944E-03 -1.50910367900E-01 -4.87634887349E-01
4.28000000000E+09 -2.17269575170E-01 -3.21087352057E-01 +2.07566456097E-03 +1.54431058728E-03 +2.29733908153E-03 +1.54003964305E-03 -1.71893004391E-01 -4.73261023874E-01
4.28500000000E+09 -2.28564734935E-01 -3.06767513995E-01 +2.53180627074E-03 +1.64302096829E-03 +2.65123200260E-03 +1.60462460398E-03 -1.92570001827E-01 -4.58273367961E-01
4.29000000000E+09 -2.39449654176E-01 -2.91027864011E-01 +2.85081939687E-03 +9.37513835873E-04 +3.02371088112E-03 +8.61610664392E-04 -2.11267234532E-01 -4.43165768243E-01
4.29500000000E+09 -2.50797900090E-01 -2.73348378814E-01 +2.46441560997E-03 +8.68925423586E-04 +2.58166829587E-03 +7.17402736546E-04 -2.30379206807E-01 -4.27291217448E-01
4.30000000000E+09 -2.61979396345E-01 -2.53521391241E-01 +2.80852899947E-03 +7.96499201677E-04 +2.93938898265E-03 +6.76085885767E-04 -2.47166008201E-01 -4.09968171512E-01
4.30500000000E+09 -2.73683768506E-01 -2.33549269825E-01 +2.98401676998E-03 +3.76551866594E-04 +2.99921054492E-03 +2.46129468100E-04 -2.65294101031E-01 -3.92481383687E-01
4.31000000000E+09 -2.86668046427E-01 -2.14042172072E-01 +2.71473879874E-03 +6.04399919036E-04 +2.68360031825E-03 +4.77611904136E-04 -2.82528913910E-01 -3.72677827805E-01
4.31500000000E+09 -2.99790787149E-01 -1.95079934349E-01 +3.61711259991E-03 +5.60509751712E-04 +3.55756880901E-03 +4.90073097529E-04 -2.99394762512E-01 -3.52950034471E-01
4.32000000000E+09 -3.12761211086E-01 -1.77849475190E-01 +3.91194283947E-03 -4.66169150754E-04 +3.91619112381E-03 -5.18005006849E-04 -3.15464875141E-01 -3.32306814604E-01
4.32500000000E+09 -3.24293594554E-01 -1.61239708914E-01 +3.48129125489E-03 -1.07064035303E-03 +3.44110729561E-03 -1.14889431325E-03 -3.29944933380E-01 -3.10550566343E-01
4.33000000000E+09 -3.33776755497E-01 -1.45881295929E-01 +3.42179348356E-03 -1.06028191591E-03 +3.38261764444E-03 -1.05173765892E-03 -3.42842427799E-01 -2.88466743540E-01
4.33500000000E+09 -3.40405855066E-01 -1.29635316255E-01 +3.67037009205E-03 -1.45624654986E-03 +3.61709478898E-03 -1.47603259377E-03 -3.55143213912E-01 -2.65374161578E-01
4.34000000000E+09 -3.43461288082E-01 -1.14046540043E-01 +3.58799823816E-03 -2.35217467836E-03 +3.47697506253E-03 -2.30619439706E-03 -3.67255698200E-01 -2.42240462812E-01
4.34500000000E+09 -3.45547619023E-01 -9.73221013730E-02 +3.12432503553E-03 -2.43047956562E-03 +3.06480203543E-03 -2.42579345850E-03 -3.78741382693E-01 -2.17220495071E-01
4.35000000000E+09 -3.45928860500E-01 -7.85510946752E-02 +3.08517908763E-03 -2.97866516792E-03 +3.07590646711E-03 -2.89106401953E-03 -3.88629233673E-01 -1.93955490325E-01
4.35500000000E+09 -3.47108917588E-01 -5.83665455721E-02 +2.55796601131E-03 -3.37512130128E-03 +2.52653822619E-03 -3.36268514682E-03 -3.98193146484E-01 -1.71160215641E-01
4.36000000000E+09 -3.48772432615E-01 -3.60173237345E-02 +2.10746693865E-03 -3.39953830562E-03 +2.17275369691E-03 -3.38530253106E-03 -4.07330403418E-01 -1.47881653523E-01
4.36500000000E+09 -3.51973786686E-01 -1.28625638646E-02 +2.23601128563E-03 -3.57973336452E-03 +2.33589000268E-03 -3.64043416096E-03 -4.14394247197E-01 -1.23041511943E-01
4.37000000000E+09 -3.56385214528E-01 +1.10332303377E-02 +2.02687920761E-03 -4.15110323671E-03 +2.15051360318E-03 -4.21563215292E-03 -4.19736789250E-01 -9.85796798019E-02
4.37500000000E+09 -3.60434721053E-01 +3.34248765034E-02 +1.49654676313E-03 -5.16202198388E-03 +1.53542100149E-03 -5.25448967857E-03 -4.25060723532E-01 -7.28521563918E-02
4.38000000000E+09 -3.65620947933E-01 +5.31282013080E-02 +3.62953940438E-04 -5.13312328692E-03 +3.93883017843E-04 -5.25117208265E-03 -4.28457190895E-01 -4.72295084436E-02
4.38500000000E+09 -3.69647633367E-01 +7.13113312355E-02 -3.33521510010E-04 -5.01845343467E-03 -2.74536120955E-04 -5.17106226870E-03 -4.31058432132E-01 -2.26626025693E-02
4.39000000000E+09 -3.72593640610E-01 +8.67978531676E-02 -9.50185054330E-04 -4.91928756825E-03 -9.82154948119E-04 -5.07145590145E-03 -4.33809739934E-01 +2.14422469088E-03
4.39500000000E+09 -3.73527009273E-01 +1.01219877520E-01 -1.66306989570E-03 -4.40934106209E-03 -1.75933881080E-03 -4.50400146734E-03 -4.34369663441E-01 +2.57668675107E-02
4.40000000000E+09 -3.72108246256E-01 +1.16073847363E-01 -1.67690308493E-03 -4.25902643216E-03 -1.82263217449E-03 -4.31406598055E-03 -4.35030948711E-01 +5.03918682921E-02
4.40500000000E+09 -3.68350932048E-01 +1.32131840420E-01 -2.27214636517E-03 -4.17443688127E-03 -2.38782856005E-03 -4.22794672745E-03 -4.33984235809E-01 +7.51413928934E-02
4.41000000000E+09 -3.62180591196E-01 +1.48680778310E-01 -2.47397136880E-03 -3.79493330929E-03 -2.61801043280E-03 -3.84201205534E-03 -4.32336560061E-01 +1.00168498965E-01
4.41500000000E+09 -3.56992782212E-01 +1.66865854570E-01 -3.02689674832E-03 -3.76302754318E-03 -3.23900684722E-03 -3.78773451534E-03 -4.29338767334E-01 +1.24962675618E-01
4.42000000000E+09 -3.51684279938E-01 +1.88051054249E-01 -3.26509182498E-03 -3.39293743791E-03 -3.36807102930E-03 -3.35291523312E-03 -4.26435767840E-01 +1.49176020141E-01
4.42500000000E+09 -3.46899636902E-01 +2.09952547007E-01 -3.71047918768E-03 -3.57087909479E-03 -3.90642440635E-03 -3.49253176192E-03 -4.20792135985E-01 +1.73734846303E-01
4.43000000000E+09 -3.42874848592E-01 +2.31469062593E-01 -4.79197575240E-03 -3.12914730764E-03 -4.90121669542E-03 -2.92406469333E-03 -4.14822244947E-01 +1.95551498604E-01
4.43500000000E+09 -3.40466896809E-01 +2.51862596820E-01 -5.03821388173E-03 -1.70042249926E-03 -5.05198072489E-03 -1.50030117369E-03 -4.08194986624E-01 +2.18416916616E-01
4.44000000000E+09 -3.38097044310E-01 +2.70649454326E-01 -4.77137512138E-03 -1.39584605502E-03 -4.82407853887E-03 -1.27188661126E-03 -4.00673567518E-01 +2.40253891214E-01
4.44500000000E+09 -3.35235078348E-01 +2.86265162757E-01 -4.72461630245E-03 -6.56259097216E-04 -4.70797713775E-03 -4.90911447850E-04 -3.93375139596E-01 +2.61171048421E-01
4.45000000000E+09 -3.32246358458E-01 +2.99532474059E-01 -4.48952811811E-03 -6.30807536964E-04 -4.54102010241E-03 -4.97535412693E-04 -3.86001428851E-01 +2.82201624763E-01
4.45500000000E+09 -3.27632484424E-01 +3.12137524023E-01 -4.79768129722E-03 -5.32393606868E-04 -4.78642813021E-03 -3.19423513381E-04 -3.78074552426E-01 +3.02601871925E-01
4.46000000000E+09 -3.20965285505E-01 +3.24224146641E-01 -5.20673152488E-03 +8.49976479616E-05 -5.08962472070E-03 +2.72633227878E-04 -3.68022348084E-01 +3.22388982745E-01
4.46500000000E+09 -3.11557408735E-01 +3.37409513870E-01 -5.28367102067E-03 +7.42218595731E-04 -5.09012672162E-03 +9.06657226129E-04 -3.57975282825E-01 +3.40934411750E-01
4.47000000000E+09 -3.00497129236E-01 +3.50979566123E-01 -5.36730191235E-03 +1.35056575579E-03 -5.18382349471E-03 +1.51787149440E-03 -3.45638866776E-01 +3.59937589471E-01
4.47500000000E+09 -2.88439518055E-01 +3.66942198303E-01 -5.30609170923E-03 +2.12027036361E-03 -5.15187212857E-03 +2.21537992253E-03 -3.34323724580E-01 +3.77065938120E-01
4.48000000000E+09 -2.76350092386E-01 +3.82716870390E-01 -4.95069249879E-03 +2.99640606199E-03 -4.76483620408E-03 +3.02080549413E-03 -3.22888787561E-01 +3.95263322266E-01
4.48500000000E+09 -2.66421202242E-01 +3.99849597452E-01 -4.34956295276E-03 +3.47263404174E-03 -4.15463227946E-03 +3.46739108326E-03 -3.11600858240E-01 +4.12008645640E-01
4.49000000000E+09 -2.57128115766E-01 +4.16756198695E-01 -3.92413585669E-03 +4.05073218138E-03 -3.75372082706E-03 +3.96827286861E-03 -3.00192571573E-01 +4.28481195876E-01
4.49500000000E+09 -2.49429781929E-01 +4.32118537002E-01 -3.39663314447E-03 +4.36542485014E-03 -3.29585143224E-03 +4.20518103957E-03 -2.88548425685E-01 +4.43925623927E-01
4.50000000000E+09 -2.43255082006E-01 +4.45703435671E-01 -2.89204478530E-03 +4.61006781733E-03 -2.86571747440E-03 +4.53936316401E-03 -2.75829896078E-01 +4.59034831919E-01
4.50500000000E+09 -2.37497191895E-01 +4.57056497298E-01 -2.48831066385E-03 +4.77167240405E-03 -2.48668941850E-03 +4.71486356222E-03 -2.61973266280E-01 +4.74118428239E-01
4.51000000000E+09 -2.30530823817E-01 +4.66705603334E-01 -2.17104513623E-03 +5.40105050283E-03 -2.14507381866E-03 +5.30361555049E-03 -2.47833494029E-01 +4.87958967174E-01
4.51500000000E+09 -2.21658928225E-01 +4.74132403548E-01 -1.16544682597E-03 +5.80368866926E-03 -1.08978732085E-03 +5.74681813475E-03 -2.34457067325E-01 +5.01905392897E-01
4.52000000000E+09 -2.11118570688E-01 +4.80682139356E-01 -2.87589841484E-04 +5.65154417048E-03 -2.36322948592E-04 +5.50130734016E-03 -2.20570821618E-01 +5.14998937216E-01
4.52500000000E+09 -1.98251067087E-01 +4.87721930081E-01 +1.21705325221E-04 +5.52614741447E-03 +1.55541078094E-04 +5.45769262307E-03 -2.06782809089E-01 +5.26818073045E-01
4.53000000000E+09 -1.84246790027E-01 +4.95512137836E-01 +9.10777198505E-04 +5.53246959374E-03 +9.86884779963E-04 +5.43114914294E-03 -1.92581228649E-01 +5.37884289877E-01
4.53500000000E+09 -1.68440430991E-01 +5.05714465032E-01 +1.52739653797E-03 +5.08044349829E-03 +1.51867651538E-03 +4.97472248610E-03 -1.77804274326E-01 +5.48062741979E-01
4.54000000000E+09 -1.52112782775E-01 +5.15930914013E-01 +2.03174708573E-03 +4.95113779011E-03 +2.09607694209E-03 +4.82720945628E-03 -1.63234309650E-01 +5.58527064235E-01
4.54500000000E+09 -1.37503096835E-01 +5.26889385864E-01 +2.68305085533E-03 +4.47606283585E-03 +2.68676808387E-03 +4.35711746689E-03 -1.48050968247E-01 +5.69104103536E-01
4.55000000000E+09 -1.24392415476E-01 +5.37274774251E-01 +2.62879513364E-03 +4.04224647634E-03 +2.66642941640E-03 +3.94753211420E-03 -1.33000089019E-01 +5.79261787122E-01
4.55500000000E+09 -1.14675537162E-01 +5.46855626461E-01 +3.24597755824E-03 +3.94550356396E-03 +3.26283054334E-03 +3.84247634543E-03 -1.18494894882E-01 +5.88581898823E-01
4.56000000000E+09 -1.06270815168E-01 +5.56698310499E-01 +3.60128826631E-03 +3.51908038410E-03 +3.51588685213E-03 +3.41426656033E-03 -1.04475374648E-01 +5.97141358065E-01
4.56500000000E+09 -9.80205603804E-02 +5.64566724090E-01 +4.04884788491E-03 +2.99027607519E-03 +4.03336245277E-03 +2.88121574762E-03 -8.97836618057E-02 +6.05868807529E-01
4.57000000000E+09 -8.85969387759E-02 +5.70532026552E-01 +4.14214759359E-03 +2.67562175604E-03 +4.08786704817E-03 +2.55617575376E-03 -7.45132299353E-02 +6.13153068007E-01
