# Hz S RI R 50
! CMT, C1220, 16058040, 17.2.0/1
! Date: 15/08/2018 12:40:40
! Data: Format (Calibration Info)
! Freq                      S11: Re/Im (F2)                       S21: Re/Im (F2)                       S12: Re/Im (F2)                       S22: Re/Im (F2)            
4.00000000000E+09 +6.55792881690E-01 -3.58975481754E-01 +8.33825467413E-04 -1.04389653168E-03 +9.25641788182E-04 -1.04394541500E-03 +7.86878660357E-01 -3.13551585765E-01
4.00500000000E+09 +6.47335794014E-01 -3.64395980005E-01 +7.37065647108E-04 -1.23129969961E-03 +7.65295386024E-04 -1.17595526865E-03 +7.78529287055E-01 -3.25013004609E-01
4.01000000000E+09 +6.38408479119E-01 -3.69869121093E-01 +4.56484853465E-04 -1.44257483351E-03 +5.58493364824E-04 -1.44494868805E-03 +7.70033317244E-01 -3.36980823691E-01
4.01500000000E+09 +6.28487383122E-01 -3.76209162296E-01 +1.20379623967E-04 -1.29651011406E-03 +1.80826232852E-04 -1.32661909435E-03 +7.61399644309E-01 -3.48108341475E-01
4.02000000000E+09 +6.18540500239E-01 -3.83436039267E-01 +1.60085092217E-04 -1.34382244673E-03 +2.46905537305E-04 -1.31985210417E-03 +7.52572666409E-01 -3.58994147711E-01
4.02500000000E+09 +6.08119023512E-01 -3.92340560102E-01 -7.49342660202E-06 -1.29031112878E-03 +7.13596864857E-05 -1.33613234554E-03 +7.43289367378E-01 -3.69831483566E-01
4.03000000000E+09 +5.97149886966E-01 -4.02719607703E-01 -1.25224102371E-04 -1.21687865302E-03 -9.85837177797E-05 -1.31036881096E-03 +7.32923742966E-01 -3.80563909579E-01
4.03500000000E+09 +5.85356613032E-01 -4.13147869499E-01 -2.39067326559E-04 -1.27482972252E-03 -2.21662318751E-04 -1.31745617231E-03 +7.21766372552E-01 -3.91555101412E-01
4.04000000000E+09 +5.74102747198E-01 -4.22748234831E-01 -3.71800325780E-04 -1.13302041417E-03 -3.03176089206E-04 -1.21496292419E-03 +7.10648443765E-01 -4.02903936149E-01
4.04500000000E+09 +5.63493975470E-01 -4.32213062054E-01 -3.83253131978E-04 -1.08064120974E-03 -3.52708530132E-04 -1.14879164195E-03 +6.99474564196E-01 -4.13879228914E-01
4.05000000000E+09 +5.51981965749E-01 -4.40385501089E-01 -4.37385562603E-04 -1.18435525192E-03 -3.93857199993E-04 -1.24752937289E-03 +6.88806760189E-01 -4.24521582191E-01
4.05500000000E+09 +5.40042907819E-01 -4.46346930803E-01 -4.51325969929E-04 -1.12749649025E-03 -4.49644888309E-04 -1.15439084653E-03 +6.77298475158E-01 -4.34264194277E-01
4.06000000000E+09 +5.28173208216E-01 -4.51124138589E-01 -7.05220596325E-04 -1.31409777883E-03 -7.09213040135E-04 -1.37481517057E-03 +6.66000014846E-01 -4.43392680538E-01
4.06500000000E+09 +5.15044654564E-01 -4.54877079658E-01 -9.89030419528E-04 -1.02981749766E-03 -1.02796302943E-03 -1.12860168246E-03 +6.53674475476E-01 -4.52922036782E-01
4.07000000000E+09 +5.01934257322E-01 -4.58511909600E-01 -9.92297527764E-04 -7.65566983070E-04 -1.00444592956E-03 -7.94409323409E-04 +6.40416925597E-01 -4.62752525978E-01
4.07500000000E+09 +4.87704219658E-01 -4.63164223368E-01 -9.12342633732E-04 -8.34306033764E-04 -9.10402274557E-04 -9.36019590587E-04 +6.26970319314E-01 -4.73308487334E-01
4.08000000000E+09 +4.72396337044E-01 -4.68320088476E-01 -1.20171359473E-03 -7.34149139637E-04 -1.20171708568E-03 -7.86775313164E-04 +6.13429665070E-01 -4.83114089687E-01
4.08500000000E+09 +4.56340342642E-01 -4.74735066236E-01 -9.60222332812E-04 -5.69220148606E-04 -9.73149466270E-04 -5.98028848717E-04 +6.00126063568E-01 -4.93078807959E-01
4.09000000000E+09 +4.39467934391E-01 -4.81310966846E-01 -1.15633037758E-03 -8.51667515550E-04 -1.18600821087E-03 -8.73124868146E-04 +5.86327929901E-01 -5.01872535914E-01
4.09500000000E+09 +4.22818624359E-01 -4.87540838728E-01 -1.51014925557E-03 -5.33440030370E-04 -1.57581439297E-03 -5.95583362094E-04 +5.71895110027E-01 -5.10031238699E-01
4.10000000000E+09 +4.06375678290E-01 -4.93147249472E-01 -1.40729482350E-03 -1.24450728188E-04 -1.49458608293E-03 -1.46207960334E-04 +5.56421587512E-01 -5.17711137079E-01
4.10500000000E+09 +3.90045983987E-01 -4.97631345692E-01 -1.39438074659E-03 -1.80923808442E-04 -1.46384865454E-03 -1.98489826761E-04 +5.41003277089E-01 -5.25636192607E-01
4.11000000000E+09 +3.73796379496E-01 -4.99541391537E-01 -1.56661796393E-03 +1.03289927706E-04 -1.63872438634E-03 +9.41439185008E-05 +5.24700180279E-01 -5.34056471602E-01
4.11500000000E+09 +3.59123685904E-01 -5.00897241589E-01 -1.24408471970E-03 +3.40198092836E-04 -1.23482290713E-03 +3.81237729182E-04 +5.08514150569E-01 -5.42185543174E-01
4.12000000000E+09 +3.43487430683E-01 -5.01838710040E-01 -1.19552378789E-03 +2.00049612949E-04 -1.16632916821E-03 +2.24981835024E-04 +4.92106721461E-01 -5.50376351345E-01
4.12500000000E+09 +3.26847734320E-01 -5.02834378007E-01 -1.22864106867E-03 +3.50106370816E-04 -1.21807589789E-03 +3.25968462671E-04 +4.74851624339E-01 -5.56994929585E-01
4.13000000000E+09 +3.09507428880E-01 -5.03838556741E-01 -1.13649016228E-03 +5.24785435549E-04 -1.11429044687E-03 +5.25730407641E-04 +4.57365823529E-01 -5.63071630928E-01
4.13500000000E+09 +2.91008968485E-01 -5.06352060594E-01 -7.20442839068E-04 +4.78647906276E-04 -7.89399795086E-04 +5.04105060740E-04 +4.38972916332E-01 -5.68287573192E-01
4.14000000000E+09 +2.71013099219E-01 -5.09016576122E-01 -1.03459382751E-03 +3.23066686811E-05 -1.04349039046E-03 +2.18901142505E-05 +4.20861842656E-01 -5.74043352295E-01
4.14500000000E+09 +2.51326930887E-01 -5.11417969737E-01 -1.53788943764E-03 +3.25905816197E-04 -1.59728245378E-03 +3.17026148870E-04 +4.01587808709E-01 -5.80007037644E-01
4.15000000000E+09 +2.32370407793E-01 -5.14987942151E-01 -1.39044399614E-03 +9.41123244909E-04 -1.40253346017E-03 +9.57585251840E-04 +3.83496630751E-01 -5.84820011678E-01
4.15500000000E+09 +2.12923648653E-01 -5.18095759397E-01 -1.05284653526E-03 +1.04918307863E-03 -1.12841330377E-03 +1.07457207291E-03 +3.65403082562E-01 -5.89784717055E-01
4.16000000000E+09 +1.94724669787E-01 -5.18879698233E-01 -8.47683408330E-04 +1.17106833881E-03 -9.08053465141E-04 +1.12927587708E-03 +3.46653166721E-01 -5.93166351525E-01
4.16500000000E+09 +1.78058651397E-01 -5.19282333312E-01 -6.00353136526E-04 +9.49447940742E-04 -6.04667170382E-04 +9.64047381549E-04 +3.27511922580E-01 -5.95967208204E-01
4.17000000000E+09 +1.61015186123E-01 -5.17362343291E-01 -6.64481950635E-04 +9.37803472519E-04 -6.63175714770E-04 +9.17838001600E-04 +3.07275619677E-01 -5.98424629304E-01
4.17500000000E+09 +1.44627598453E-01 -5.13271405455E-01 -6.99006545978E-04 +6.89709004790E-04 -7.46299645473E-04 +6.55037342455E-04 +2.86162460470E-01 -6.00256447293E-01
4.18000000000E+09 +1.28455374745E-01 -5.08193295595E-01 -1.02411937250E-03 +1.21343201953E-03 -1.01219378795E-03 +1.19658206673E-03 +2.65304494781E-01 -6.01863863295E-01
4.18500000000E+09 +1.12274333566E-01 -5.03160716701E-01 -6.41095460736E-04 +1.27669713916E-03 -6.96468050952E-04 +1.21111538748E-03 +2.44476520400E-01 -6.03552888838E-01
4.19000000000E+09 +9.39634458723E-02 -4.98377118144E-01 -7.35303110472E-04 +1.43382436641E-03 -7.93423571571E-04 +1.46146070575E-03 +2.23178953068E-01 -6.03814566722E-01
4.19500000000E+09 +7.53484035633E-02 -4.93039319233E-01 -5.42847135819E-04 +1.57196697787E-03 -5.94320760564E-04 +1.62183691514E-03 +2.02316356697E-01 -6.02637829019E-01
4.20000000000E+09 +5.67188571605E-02 -4.89224367567E-01 -1.50631435488E-04 +1.90780417579E-03 -1.86531482271E-04 +1.94485341273E-03 +1.80626046200E-01 -6.01030263945E-01
4.20500000000E+09 +3.70663908993E-02 -4.85398688908E-01 +3.29382457721E-04 +1.58865382434E-03 +3.21433454789E-04 +1.63798576550E-03 +1.59196944660E-01 -5.98244357483E-01
4.21000000000E+09 +1.88234657063E-02 -4.80902681479E-01 +8.60970273367E-05 +1.00641416226E-03 +9.95605527098E-05 +1.08439657504E-03 +1.36980709109E-01 -5.97005284144E-01
4.21500000000E+09 +1.11018355808E-03 -4.75466651522E-01 -6.65872971869E-06 +1.46577930694E-03 -3.93368785422E-05 +1.55295768552E-03 +1.13578489291E-01 -5.94652762644E-01
4.22000000000E+09 -1.47096630883E-02 -4.68460558681E-01 +3.18303037600E-04 +1.45867628806E-03 +3.35751533026E-04 +1.49512969964E-03 +9.11157221956E-02 -5.90956310818E-01
4.22500000000E+09 -2.98477318821E-02 -4.60116885249E-01 +7.90331498899E-05 +1.21420037138E-03 +1.40513965605E-04 +1.28661865810E-03 +6.92175326926E-02 -5.86276155756E-01
4.23000000000E+09 -4.42229415831E-02 -4.49162714598E-01 +2.36431462246E-04 +1.74502961766E-03 +2.31499359106E-04 +1.77730212466E-03 +4.76638911679E-02 -5.79633455961E-01
4.23500000000E+09 -5.77704202198E-02 -4.38075556452E-01 +6.73471876908E-04 +1.58005655394E-03 +6.70128295688E-04 +1.60943778865E-03 +2.61750066362E-02 -5.72438906798E-01
4.24000000000E+09 -7.38846320336E-02 -4.26507592471E-01 +7.13772509366E-04 +1.59621462934E-03 +7.81866608937E-04 +1.62706278240E-03 +4.61389621161E-03 -5.64123390121E-01
4.24500000000E+09 -9.16803172590E-02 -4.13468011562E-01 +1.14630712462E-03 +1.29177330578E-03 +1.21030936191E-03 +1.31588590333E-03 -1.67051981673E-02 -5.56150820095E-01
4.25000000000E+09 -1.10926639410E-01 -4.00492989422E-01 +7.38724888108E-04 +1.08803121894E-03 +8.55567143659E-04 +1.09491008635E-03 -3.85069085837E-02 -5.47926042491E-01
4.25500000000E+09 -1.30969763969E-01 -3.87799974261E-01 +8.69392274452E-04 +1.44473530783E-03 +9.62347102453E-04 +1.42690413788E-03 -5.94375632911E-02 -5.39417279590E-01
4.26000000000E+09 -1.51786023798E-01 -3.75557488208E-01 +1.23216504938E-03 +1.28341655550E-03 +1.19854055769E-03 +1.23664238527E-03 -8.08177799207E-02 -5.29693857361E-01
4.26500000000E+09 -1.70761538643E-01 -3.63293605134E-01 +9.29162891876E-04 +1.47936800379E-03 +9.61046170566E-04 +1.45494236931E-03 -1.01969914493E-01 -5.18373133585E-01
4.27000000000E+09 -1.88066121711E-01 -3.52222598375E-01 +1.77528021260E-03 +1.52127288688E-03 +1.82506365893E-03 +1.58857627179E-03 -1.23587632343E-01 -5.05206673902E-01
4.27500000000E+09 -2.04406619503E-01 -3.40935381934E-01 +1.92228283983E-03 +9.52430591401E-04 +1.95747275342E-03 +9.65170355477E-04 -1.44651692317E-01 -4.91396896046E-01
4.28000000000E+09 -2.18164314289E-01 -3.27761519988E-01 +1.79999226517E-03 +9.67513468373E-04 +1.84223529752E-03 +9.46889339765E-04 -1.65809281787E-01 -4.77555792325E-01
4.28500000000E+09 -2.30204946664E-01 -3.13460632853E-01 +2.22426106923E-03 +1.01639570314E-03 +2.21924412542E-03 +9.81639818198E-04 -1.86566356491E-01 -4.62902332675E-01
4.29000000000E+09 -2.40977307591E-01 -2.97485519282E-01 +2.42727112533E-03 +8.60347932286E-05 +2.44278621011E-03 +9.74385718411E-05 -2.05602563794E-01 -4.48208840054E-01
4.29500000000E+09 -2.52519458076E-01 -2.79744141155E-01 +1.76072949546E-03 +6.70702413774E-05 +1.81437347628E-03 +9.07019731930E-05 -2.24993214496E-01 -4.32661900996E-01
4.30000000000E+09 -2.63659672105E-01 -2.59642384221E-01 +2.15920510783E-03 +3.30390631291E-04 +2.20621434956E-03 +3.46859057935E-04 -2.42526617566E-01 -4.15320014219E-01
4.30500000000E+09 -2.75158870462E-01 -2.39895287122E-01 +2.32220231205E-03 -2.41590357364E-04 +2.45935382197E-03 -2.34791211534E-04 -2.60800835712E-01 -3.97660767969E-01
4.31000000000E+09 -2.88594520455E-01 -2.20265105939E-01 +1.84338484489E-03 +2.63447432853E-05 +1.91162111124E-03 +3.97104379351E-05 -2.77967519087E-01 -3.77971884753E-01
4.31500000000E+09 -3.02010146838E-01 -2.00996951222E-01 +2.78750582701E-03 -5.35698467882E-05 +2.84745639006E-03 -4.03553434902E-05 -2.94678259636E-01 -3.58370690221E-01
4.32000000000E+09 -3.15525115972E-01 -1.83292492269E-01 +2.99664464687E-03 -1.04262190571E-03 +3.09599152684E-03 -1.05704882390E-03 -3.10465477939E-01 -3.38163292678E-01
4.32500000000E+09 -3.27670620347E-01 -1.66469770318E-01 +2.18474472559E-03 -1.55081920312E-03 +2.28318905321E-03 -1.53952092304E-03 -3.24871941708E-01 -3.17006916935E-01
4.33000000000E+09 -3.38028120856E-01 -1.50872563934E-01 +2.24546589271E-03 -1.30738309583E-03 +2.30018332339E-03 -1.32148019393E-03 -3.37853693021E-01 -2.95443032823E-01
4.33500000000E+09 -3.45581338282E-01 -1.33980213760E-01 +2.22161303981E-03 -1.77011981381E-03 +2.27287995062E-03 -1.84874854148E-03 -3.50453900583E-01 -2.73163815991E-01
4.34000000000E+09 -3.49187155884E-01 -1.17844316168E-01 +1.86033948775E-03 -2.32378623180E-03 +1.84752094523E-03 -2.35765498631E-03 -3.62925797290E-01 -2.50775196861E-01
4.34500000000E+09 -3.51412143339E-01 -1.01352860022E-01 +1.35892878064E-03 -1.93219297402E-03 +1.36961706763E-03 -1.90015697978E-03 -3.75555911068E-01 -2.26605884763E-01
4.35000000000E+09 -3.52420007592E-01 -8.27151290492E-02 +1.77633862814E-03 -2.12923260682E-03 +1.86451183495E-03 -2.18969814823E-03 -3.86391560573E-01 -2.03404317896E-01
4.35500000000E+09 -3.53802776112E-01 -6.29674534930E-02 +1.31312779696E-03 -2.64595658076E-03 +1.40783147669E-03 -2.75113540311E-03 -3.96648548939E-01 -1.80627281663E-01
4.36000000000E+09 -3.56257686414E-01 -4.08032208112E-02 +9.51732129794E-04 -2.40097197349E-03 +9.29965956284E-04 -2.52660437295E-03 -4.06454333460E-01 -1.57223885206E-01
4.36500000000E+09 -3.59711716860E-01 -1.71679894752E-02 +1.19519272802E-03 -2.56262996459E-03 +1.14719447538E-03 -2.65676217431E-03 -4.14206629100E-01 -1.32355670471E-01
4.37000000000E+09 -3.63918453172E-01 +7.22028225570E-03 +9.84520682472E-04 -2.97758131722E-03 +8.93278557760E-04 -3.02970970923E-03 -4.20225267844E-01 -1.07666610176E-01
4.37500000000E+09 -3.67558117093E-01 +2.99773594745E-02 +6.36786859216E-04 -3.57682453411E-03 +5.50614789859E-04 -3.69171622781E-03 -4.25971716245E-01 -8.17596170664E-02
4.38000000000E+09 -3.72336678355E-01 +4.97299337822E-02 -2.30333597487E-04 -3.45427860225E-03 -2.73174056186E-04 -3.50263490330E-03 -4.30066238867E-01 -5.60948970945E-02
4.38500000000E+09 -3.76963468819E-01 +6.83154666248E-02 -5.23987661402E-04 -3.18894971857E-03 -6.41310898714E-04 -3.26321884733E-03 -4.33424332086E-01 -3.07781379758E-02
4.39000000000E+09 -3.79965644048E-01 +8.46564346636E-02 -7.98242000489E-04 -3.23132373653E-03 -9.67614434865E-04 -3.25906367435E-03 -4.36347572727E-01 -5.37453731981E-03
4.39500000000E+09 -3.81009042513E-01 +9.96609327031E-02 -1.26285950934E-03 -2.89579919156E-03 -1.34658697581E-03 -2.86312103161E-03 -4.36997018035E-01 +1.90856077098E-02
4.40000000000E+09 -3.79853702470E-01 +1.15160847859E-01 -1.13354803166E-03 -3.01713012044E-03 -1.28767763337E-03 -2.99023196995E-03 -4.37255832836E-01 +4.39094667440E-02
4.40500000000E+09 -3.75938334854E-01 +1.31614204156E-01 -1.86944655553E-03 -2.97505438980E-03 -2.00990400063E-03 -2.88543535642E-03 -4.36169288160E-01 +6.84123183911E-02
4.41000000000E+09 -3.70037602449E-01 +1.48370012368E-01 -1.89857314417E-03 -2.62499534940E-03 -1.94679494400E-03 -2.56018424468E-03 -4.34544287341E-01 +9.34330662673E-02
4.41500000000E+09 -3.64482416268E-01 +1.66904704472E-01 -2.51030621334E-03 -2.62018739045E-03 -2.55035450396E-03 -2.58502449996E-03 -4.31699668426E-01 +1.17845757378E-01
4.42000000000E+09 -3.59065291808E-01 +1.87895508052E-01 -2.49529736941E-03 -2.25833999185E-03 -2.53942660803E-03 -2.19267093246E-03 -4.29144904193E-01 +1.41892968200E-01
4.42500000000E+09 -3.54293567138E-01 +2.10071401013E-01 -2.89050398160E-03 -2.49669352769E-03 -2.91621016661E-03 -2.46066661628E-03 -4.24060226312E-01 +1.66579301354E-01
4.43000000000E+09 -3.50077685465E-01 +2.31412847806E-01 -3.74215002189E-03 -2.28338121674E-03 -3.76234119398E-03 -2.19332975614E-03 -4.18823284550E-01 +1.88688985341E-01
4.43500000000E+09 -3.48066375285E-01 +2.52095423490E-01 -4.12664339309E-03 -9.95106744120E-04 -4.08556717681E-03 -9.23133203618E-04 -4.12591571113E-01 +2.12097324943E-01
4.44000000000E+09 -3.45601987604E-01 +2.71519037557E-01 -3.81124635611E-03 -7.78059154757E-04 -3.72418588709E-03 -7.17453856652E-04 -4.05531478443E-01 +2.34314753875E-01
4.44500000000E+09 -3.42642101056E-01 +2.87529438750E-01 -3.77344538114E-03 -1.48373053166E-04 -3.79441728106E-03 -1.36645804523E-04 -3.98325073692E-01 +2.55705131821E-01
4.45000000000E+09 -3.39678347612E-01 +3.01512997539E-01 -3.58360681295E-03 -1.18632859762E-04 -3.62769126900E-03 -2.55721005597E-05 -3.91068317501E-01 +2.77084370947E-01
4.45500000000E+09 -3.34558325464E-01 +3.14087250187E-01 -3.89854610955E-03 +9.48200624670E-05 -3.86403834321E-03 +1.26201029842E-04 -3.83240322538E-01 +2.97916392215E-01
4.46000000000E+09 -3.28425072888E-01 +3.25724973199E-01 -3.96879704871E-03 +7.90966554228E-04 -3.93446457160E-03 +8.15082527648E-04 -3.73263432781E-01 +3.18121199803E-01
4.46500000000E+09 -3.19648900996E-01 +3.39089106023E-01 -3.65846913861E-03 +1.15574699020E-03 -3.65688896041E-03 +1.22612119675E-03 -3.63340866355E-01 +3.37397381668E-01
4.47000000000E+09 -3.08847174965E-01 +3.52965236787E-01 -3.74278144386E-03 +1.35177120657E-03 -3.73900218313E-03 +1.43818820411E-03 -3.50818581671E-01 +3.57083354315E-01
4.47500000000E+09 -2.96945229493E-01 +3.69255276293E-01 -3.90231499400E-03 +2.05946749542E-03 -3.85641599173E-03 +2.09791507229E-03 -3.39050243642E-01 +3.74813411279E-01
4.48000000000E+09 -2.84288262503E-01 +3.85201462133E-01 -3.42235620960E-03 +2.68318139175E-03 -3.33672385920E-03 +2.71463417596E-03 -3.27145665967E-01 +3.93419893791E-01
4.48500000000E+09 -2.73912960251E-01 +4.02340997561E-01 -3.03705769515E-03 +3.02398492230E-03 -2.94303293091E-03 +3.05073898400E-03 -3.15100158600E-01 +4.09791769706E-01
4.49000000000E+09 -2.64158122935E-01 +4.19308179089E-01 -2.57367911069E-03 +3.52064415782E-03 -2.51169625965E-03 +3.55892602041E-03 -3.03560256943E-01 +4.25939656914E-01
4.49500000000E+09 -2.56348748846E-01 +4.34867358257E-01 -2.09137102696E-03 +3.63930118827E-03 -2.02762688960E-03 +3.55748892498E-03 -2.91466363517E-01 +4.41297150623E-01
4.50000000000E+09 -2.49863239288E-01 +4.49027302581E-01 -1.62777335540E-03 +3.83459538949E-03 -1.58165873582E-03 +3.78688842208E-03 -2.78722187145E-01 +4.56181221700E-01
4.50500000000E+09 -2.43584173966E-01 +4.60838065379E-01 -1.30043189781E-03 +3.63185113032E-03 -1.25929959594E-03 +3.63629811972E-03 -2.65025189517E-01 +4.71182591536E-01
4.51000000000E+09 -2.36575023553E-01 +4.70642059981E-01 -1.31625033488E-03 +4.11869090694E-03 -1.19355272474E-03 +4.12366712231E-03 -2.51028920456E-01 +4.85081034197E-01
4.51500000000E+09 -2.27558171105E-01 +4.78376985522E-01 -3.99206646703E-04 +4.56743462001E-03 -2.98847745044E-04 +4.49872841816E-03 -2.37731986066E-01 +4.98965917578E-01
4.52000000000E+09 -2.17150018918E-01 +4.85120479766E-01 +2.81610467051E-04 +4.14355723175E-03 +2.99108084031E-04 +4.11404773054E-03 -2.24027251182E-01 +5.11924694272E-01
4.52500000000E+09 -2.04681193071E-01 +4.92174723766E-01 +4.66433268338E-04 +4.27272447051E-03 +5.37678974055E-04 +4.22949334054E-03 -2.10412277534E-01 +5.23815997005E-01
4.53000000000E+09 -1.90594637905E-01 +5.00155598103E-01 +1.17448616351E-03 +4.15933439902E-03 +1.23643928960E-03 +4.04071090410E-03 -1.96156842475E-01 +5.34936029160E-01
4.53500000000E+09 -1.74850653321E-01 +5.10188752853E-01 +1.60698048419E-03 +3.68366186168E-03 +1.64284376759E-03 +3.54463384150E-03 -1.81307725557E-01 +5.45220514653E-01
4.54000000000E+09 -1.58555583591E-01 +5.20418232689E-01 +1.91583103306E-03 +3.63098025956E-03 +1.97542164257E-03 +3.47735079482E-03 -1.66769715216E-01 +5.55655460480E-01
4.54500000000E+09 -1.43726183171E-01 +5.31474574494E-01 +2.50514025297E-03 +3.18304104233E-03 +2.55365915001E-03 +3.05699857054E-03 -1.51940921367E-01 +5.66529323151E-01
4.55000000000E+09 -1.30459426074E-01 +5.42090915140E-01 +2.25033385059E-03 +2.79549146699E-03 +2.30157563740E-03 +2.70121793096E-03 -1.36889626541E-01 +5.76935536515E-01
4.55500000000E+09 -1.20046928795E-01 +5.51953216460E-01 +2.73197933731E-03 +2.75857733987E-03 +2.69453272706E-03 +2.59103365266E-03 -1.22237484429E-01 +5.86441468080E-01
4.56000000000E+09 -1.11351701734E-01 +5.61750906889E-01 +2.91357170638E-03 +2.43527697319E-03 +2.82032114781E-03 +2.28973067892E-03 -1.08019915674E-01 +5.95006809566E-01
4.56500000000E+09 -1.02910051268E-01 +5.69744454770E-01 +3.18815773555E-03 +2.14872611121E-03 +3.18536580640E-03 +1.99511668588E-03 -9.30687920535E-02 +6.03649610446E-01
4.57000000000E+09 -9.35718843619E-02 +5.75809668629E-01 +3.30736345922E-03 +1.86376728302E-03 +3.27199765628E-03 +1.70220391261E-03 -7.75412639734E-02 +6.10720618708E-01
