# Hz S RI R 50
! CMT, C1220, 16058040, 17.2.0/1
! Date: 15/08/2018 12:39:10
! Data: Format (Calibration Info)
! Freq                      S11: Re/Im (F2)                       S21: Re/Im (F2)                       S12: Re/Im (F2)                       S22: Re/Im (F2)            
4.00000000000E+09 +6.57946510755E-01 -3.58619228342E-01 +1.35782648858E-03 -9.66933992426E-04 +1.45929251643E-03 -9.59764827937E-04 +7.86170490595E-01 -3.15055304586E-01
4.00500000000E+09 +6.49565986552E-01 -3.64512829789E-01 +1.07903587982E-03 -1.26095165646E-03 +1.18813727742E-03 -1.29934302521E-03 +7.77827617272E-01 -3.26616579864E-01
4.01000000000E+09 +6.40532923954E-01 -3.70125669992E-01 +7.73142298243E-04 -1.44761102438E-03 +8.67986333013E-04 -1.50933562034E-03 +7.69204360015E-01 -3.38534249971E-01
4.01500000000E+09 +6.30693828615E-01 -3.76495925036E-01 +5.17543841324E-04 -1.28449438023E-03 +6.05164086319E-04 -1.30438900240E-03 +7.60681348478E-01 -3.49765600466E-01
4.02000000000E+09 +6.21092954700E-01 -3.83741609220E-01 +5.72246895882E-04 -1.30271187538E-03 +6.32051006980E-04 -1.37546927901E-03 +7.51560772084E-01 -3.60667371826E-01
4.02500000000E+09 +6.10843882575E-01 -3.92956735705E-01 +4.80748247783E-04 -1.36729397616E-03 +5.61916294658E-04 -1.42878461784E-03 +7.42107223506E-01 -3.71166992617E-01
4.03000000000E+09 +5.99828957718E-01 -4.03756994250E-01 +3.55921865818E-04 -1.37000173340E-03 +4.09250357524E-04 -1.46918732301E-03 +7.31775937893E-01 -3.81786262571E-01
4.03500000000E+09 +5.88201001039E-01 -4.14247300757E-01 +2.82471354655E-04 -1.44249618042E-03 +3.48633593518E-04 -1.45869659428E-03 +7.21006235020E-01 -3.92641638102E-01
4.04000000000E+09 +5.77045287073E-01 -4.24361397051E-01 +1.21123402638E-04 -1.47661186807E-03 +2.31961299365E-04 -1.50552726307E-03 +7.09839916257E-01 -4.03892517160E-01
4.04500000000E+09 +5.66042111947E-01 -4.34167028817E-01 +9.27509696633E-05 -1.44195613907E-03 +1.31061843890E-04 -1.43275028021E-03 +6.98874139199E-01 -4.14958817078E-01
4.05000000000E+09 +5.54402176855E-01 -4.41961311846E-01 +2.95481451554E-05 -1.52690388486E-03 +1.00494165926E-04 -1.55047595397E-03 +6.88136849644E-01 -4.25681235561E-01
4.05500000000E+09 +5.43004697238E-01 -4.48103039633E-01 -9.65827211816E-05 -1.62397906100E-03 +2.07126175865E-05 -1.73495187652E-03 +6.76704145274E-01 -4.35624336046E-01
4.06000000000E+09 +5.31003289581E-01 -4.53226018293E-01 -4.35129997117E-04 -1.78874743401E-03 -3.49836005099E-04 -1.86714669980E-03 +6.65245848096E-01 -4.44943715479E-01
4.06500000000E+09 +5.17860113275E-01 -4.57460270188E-01 -6.69196126972E-04 -1.59515270181E-03 -5.91819160677E-04 -1.56236543752E-03 +6.52782991458E-01 -4.54556207222E-01
4.07000000000E+09 +5.04340294846E-01 -4.61665218816E-01 -5.66895057698E-04 -1.31754340132E-03 -5.06807453260E-04 -1.35062599191E-03 +6.39464504467E-01 -4.64417863448E-01
4.07500000000E+09 +4.89640058060E-01 -4.66532128658E-01 -6.50436652605E-04 -1.55787592375E-03 -5.58437325441E-04 -1.68236805912E-03 +6.25707734498E-01 -4.74871238264E-01
4.08000000000E+09 +4.73892322752E-01 -4.71761354543E-01 -9.54134420244E-04 -1.43557637034E-03 -9.41070883882E-04 -1.58779227403E-03 +6.12122396056E-01 -4.84682180363E-01
4.08500000000E+09 +4.57569327965E-01 -4.78478861412E-01 -9.18958906475E-04 -1.34162392856E-03 -9.35114450764E-04 -1.46918898727E-03 +5.98629387735E-01 -4.94479425324E-01
4.09000000000E+09 +4.40434800109E-01 -4.85027976081E-01 -1.26578934970E-03 -1.48439289832E-03 -1.27174615405E-03 -1.60110277787E-03 +5.84846134130E-01 -5.03156740765E-01
4.09500000000E+09 +4.24013752315E-01 -4.91561183546E-01 -1.63744744047E-03 -1.08156529042E-03 -1.64940599524E-03 -1.18515351647E-03 +5.70328886315E-01 -5.11391137247E-01
4.10000000000E+09 +4.07045888269E-01 -4.97715333292E-01 -1.43012789873E-03 -6.67987728999E-04 -1.56352322803E-03 -7.30510623607E-04 +5.54660727880E-01 -5.18801802997E-01
4.10500000000E+09 +3.90480878438E-01 -5.02097471165E-01 -1.35188383567E-03 -8.34468598181E-04 -1.43305147999E-03 -9.03060922122E-04 +5.39323463545E-01 -5.26406751148E-01
4.11000000000E+09 +3.74117095667E-01 -5.04488026832E-01 -1.72042636093E-03 -7.16589190271E-04 -1.80132118335E-03 -7.42829796975E-04 +5.22980393315E-01 -5.35036422489E-01
4.11500000000E+09 +3.58658912844E-01 -5.05895587610E-01 -1.48314199226E-03 -3.63414916781E-04 -1.56704129707E-03 -3.74596353224E-04 +5.06787553229E-01 -5.42865928845E-01
4.12000000000E+09 +3.42760291228E-01 -5.06684228592E-01 -1.56718212765E-03 -4.97390029537E-04 -1.62013381271E-03 -4.97707664455E-04 +4.90781526019E-01 -5.50889378058E-01
4.12500000000E+09 +3.25927986311E-01 -5.07564488588E-01 -1.60197829883E-03 -3.61719003175E-04 -1.70136081495E-03 -3.54782938334E-04 +4.73504385512E-01 -5.57662057679E-01
4.13000000000E+09 +3.08063653468E-01 -5.08496977350E-01 -1.62906070937E-03 -4.91269982262E-05 -1.65650626818E-03 -9.37384444698E-05 +4.56278975033E-01 -5.63683391141E-01
4.13500000000E+09 +2.89417709855E-01 -5.10853428644E-01 -1.37684844203E-03 +2.26823729982E-05 -1.41117349931E-03 +6.88506301764E-05 +4.37855486366E-01 -5.69372936397E-01
4.14000000000E+09 +2.69057085228E-01 -5.13735321302E-01 -1.55034296989E-03 -3.75593901449E-04 -1.53152472948E-03 -4.17927982249E-04 +4.19431129947E-01 -5.75208659364E-01
4.14500000000E+09 +2.49022346146E-01 -5.16611595861E-01 -2.08467092825E-03 -1.55676131279E-04 -2.08805360122E-03 -1.19666419880E-04 +4.00163096264E-01 -5.81067304596E-01
4.15000000000E+09 +2.29091624755E-01 -5.20397565016E-01 -1.97712633427E-03 +3.64742669478E-04 -1.94211414937E-03 +4.05851917944E-04 +3.81890161857E-01 -5.85951890173E-01
4.15500000000E+09 +2.09144850158E-01 -5.23273729104E-01 -1.84602031585E-03 +5.41122056705E-04 -1.84504975280E-03 +5.13920623137E-04 +3.63583476304E-01 -5.90844961161E-01
4.16000000000E+09 +1.90365760234E-01 -5.23817775637E-01 -1.84433728566E-03 +6.52202362682E-04 -1.81643086432E-03 +6.53695918329E-04 +3.44699308444E-01 -5.94307400951E-01
4.16500000000E+09 +1.73405283895E-01 -5.23665813456E-01 -1.72617042869E-03 +7.20520639513E-04 -1.72272704238E-03 +6.68985268212E-04 +3.25307374400E-01 -5.97020203523E-01
4.17000000000E+09 +1.56612630070E-01 -5.21423174879E-01 -1.88409606426E-03 +9.95842512883E-04 -1.88803768055E-03 +9.26323532396E-04 +3.04746865509E-01 -5.99275720648E-01
4.17500000000E+09 +1.40738495720E-01 -5.17556992683E-01 -1.58392231966E-03 +9.78780659525E-04 -1.67786656053E-03 +8.95485018469E-04 +2.83447074588E-01 -6.00720352628E-01
4.18000000000E+09 +1.23682529358E-01 -5.13192667872E-01 -1.85864079652E-03 +1.31162055959E-03 -1.90030776848E-03 +1.23786502960E-03 +2.62601157610E-01 -6.01851795827E-01
4.18500000000E+09 +1.06313678801E-01 -5.07226839943E-01 -1.48380024225E-03 +1.56242512471E-03 -1.58772472459E-03 +1.51651860406E-03 +2.42010067664E-01 -6.03401082479E-01
4.19000000000E+09 +8.81165371456E-02 -5.01686260575E-01 -1.57618773461E-03 +1.51211094244E-03 -1.66989901686E-03 +1.42141849700E-03 +2.20835511886E-01 -6.03483270755E-01
4.19500000000E+09 +6.88915790783E-02 -4.96101816396E-01 -1.69731971231E-03 +1.89022637569E-03 -1.81896344530E-03 +1.81366172968E-03 +2.00057035352E-01 -6.02113215575E-01
4.20000000000E+09 +5.00742481807E-02 -4.90982421183E-01 -1.26968663089E-03 +2.51532971615E-03 -1.48168529642E-03 +2.49552930592E-03 +1.78773963729E-01 -6.00292507705E-01
4.20500000000E+09 +3.11122498071E-02 -4.87028273365E-01 -6.97136704768E-04 +2.37267620677E-03 -8.40638850745E-04 +2.45369408225E-03 +1.57441884537E-01 -5.97532004585E-01
4.21000000000E+09 +1.22849531634E-02 -4.82797395163E-01 -6.10209227457E-04 +2.05516095689E-03 -7.70439573421E-04 +2.18686035818E-03 +1.35392718707E-01 -5.96622086992E-01
4.21500000000E+09 -5.92849753449E-03 -4.77089710740E-01 -4.25900601566E-04 +2.39935176054E-03 -5.43205818361E-04 +2.59186968473E-03 +1.12005121004E-01 -5.94367047635E-01
4.22000000000E+09 -2.22770148176E-02 -4.69549863289E-01 -9.20544833481E-05 +2.23569835752E-03 -1.69049445854E-04 +2.38424099088E-03 +8.95298312843E-02 -5.90827987085E-01
4.22500000000E+09 -3.73983957004E-02 -4.60563232824E-01 -2.97337585798E-04 +2.06684386297E-03 -3.52447622221E-04 +2.16847796832E-03 +6.76915707533E-02 -5.86297481788E-01
4.23000000000E+09 -5.20127406610E-02 -4.49555140407E-01 -2.37402903252E-04 +2.47991699794E-03 -2.65411861914E-04 +2.65228418932E-03 +4.57723159290E-02 -5.79892509113E-01
4.23500000000E+09 -6.59621015381E-02 -4.37834408588E-01 +8.01571677347E-05 +2.58177783862E-03 +1.06511756066E-04 +2.76414392922E-03 +2.42949808382E-02 -5.72599461548E-01
4.24000000000E+09 -8.16406762336E-02 -4.25432454854E-01 +3.54614325380E-04 +2.69213019675E-03 +4.49503734360E-04 +2.88456295673E-03 +2.18163823159E-03 -5.64449085729E-01
4.24500000000E+09 -9.95199627602E-02 -4.12426525848E-01 +8.59350292135E-04 +2.70006349857E-03 +9.18422139015E-04 +2.81533004036E-03 -1.94439341216E-02 -5.56043730820E-01
4.25000000000E+09 -1.18991700535E-01 -3.98550205567E-01 +8.00319891431E-04 +2.56714893736E-03 +9.35079538209E-04 +2.66425019366E-03 -4.13417765576E-02 -5.47650125685E-01
4.25500000000E+09 -1.38765484718E-01 -3.85200147093E-01 +1.44496499037E-03 +2.62924488545E-03 +1.63057338144E-03 +2.71430812848E-03 -6.25726992348E-02 -5.38689436050E-01
4.26000000000E+09 -1.59461684412E-01 -3.72654070829E-01 +1.52782562685E-03 +2.14680032112E-03 +1.63962464697E-03 +2.10825553682E-03 -8.39675351264E-02 -5.28361605062E-01
4.26500000000E+09 -1.79058565388E-01 -3.59644520035E-01 +1.24765775857E-03 +2.47184215692E-03 +1.35571167887E-03 +2.43421597995E-03 -1.04589902722E-01 -5.16611566252E-01
4.27000000000E+09 -1.96070022723E-01 -3.47215362943E-01 +2.11377061958E-03 +2.50374345669E-03 +2.20488549353E-03 +2.40523714244E-03 -1.26123381211E-01 -5.03553372970E-01
4.27500000000E+09 -2.11543179445E-01 -3.34999021231E-01 +2.12020272674E-03 +2.08508226069E-03 +2.15771739607E-03 +1.93113700071E-03 -1.46888874478E-01 -4.89161603921E-01
4.28000000000E+09 -2.24915714216E-01 -3.21899320748E-01 +2.37378823313E-03 +2.36248535372E-03 +2.39005946005E-03 +2.24019186366E-03 -1.67244193846E-01 -4.75567298349E-01
4.28500000000E+09 -2.36633318049E-01 -3.06986545166E-01 +3.02692826548E-03 +2.19789683725E-03 +2.97233114802E-03 +2.06059181647E-03 -1.88295038305E-01 -4.61022040920E-01
4.29000000000E+09 -2.47177355316E-01 -2.91096885285E-01 +3.51433491143E-03 +1.33566339676E-03 +3.43926426813E-03 +1.32011103385E-03 -2.07264160887E-01 -4.46181108868E-01
4.29500000000E+09 -2.58772574980E-01 -2.72880896240E-01 +3.16830169110E-03 +1.03512808862E-03 +3.09592504409E-03 +1.04901917914E-03 -2.26323278562E-01 -4.30550191214E-01
4.30000000000E+09 -2.69739560039E-01 -2.52150201194E-01 +3.56135126596E-03 +7.46481751280E-04 +3.53811657614E-03 +8.20822900686E-04 -2.43359740739E-01 -4.13693922301E-01
4.30500000000E+09 -2.80936213520E-01 -2.31723751570E-01 +3.54728701760E-03 +1.75570817450E-04 +3.47422629843E-03 +2.58635488789E-04 -2.61805267946E-01 -3.96540073743E-01
4.31000000000E+09 -2.93172692491E-01 -2.11779965250E-01 +3.11732528389E-03 +4.64576533606E-04 +3.02359503367E-03 +5.65315145770E-04 -2.79282472240E-01 -3.76837944153E-01
4.31500000000E+09 -3.06328188205E-01 -1.92865682760E-01 +3.98869988842E-03 +5.43909574373E-04 +3.91218063300E-03 +6.63659407576E-04 -2.96170235798E-01 -3.57407184340E-01
4.32000000000E+09 -3.19558381500E-01 -1.74764619693E-01 +4.62279760712E-03 -4.94553482424E-04 +4.70292631196E-03 -4.08188060556E-04 -3.12654653077E-01 -3.37162606464E-01
4.32500000000E+09 -3.30824384450E-01 -1.57298434020E-01 +4.02891682048E-03 -1.43907608148E-03 +4.09112682807E-03 -1.33754296874E-03 -3.27454334962E-01 -3.15303187980E-01
4.33000000000E+09 -3.40321204688E-01 -1.41815264033E-01 +4.05887527444E-03 -1.47151183811E-03 +4.16969464899E-03 -1.44441864658E-03 -3.40360169562E-01 -2.93306990092E-01
4.33500000000E+09 -3.47442633716E-01 -1.25039224209E-01 +3.94509833911E-03 -2.33046157618E-03 +4.03560084107E-03 -2.37305378885E-03 -3.52843540656E-01 -2.70617056405E-01
4.34000000000E+09 -3.50125935195E-01 -1.08734443092E-01 +3.38571495492E-03 -2.92718745574E-03 +3.44894046964E-03 -2.91582639811E-03 -3.65035303578E-01 -2.47703597468E-01
4.34500000000E+09 -3.51868155239E-01 -9.22619736626E-02 +2.87840329641E-03 -2.70071615794E-03 +3.04817041790E-03 -2.66694166938E-03 -3.77067420398E-01 -2.23447394088E-01
4.35000000000E+09 -3.52359794464E-01 -7.32908718109E-02 +3.05369672376E-03 -3.07568326216E-03 +3.26646070639E-03 -3.12633987778E-03 -3.87641611151E-01 -2.00126625837E-01
4.35500000000E+09 -3.53114254398E-01 -5.31761069766E-02 +2.66753176486E-03 -3.51791301692E-03 +2.86316547819E-03 -3.71969944914E-03 -3.97757067392E-01 -1.77260795074E-01
4.36000000000E+09 -3.54322761294E-01 -3.07043901101E-02 +2.27419032502E-03 -3.71547981257E-03 +2.36822500928E-03 -3.87241379601E-03 -4.07091898243E-01 -1.53642339935E-01
4.36500000000E+09 -3.57149836708E-01 -7.45723410145E-03 +2.35895156392E-03 -3.98837506315E-03 +2.37851524800E-03 -4.18551017590E-03 -4.14472740143E-01 -1.28869086841E-01
4.37000000000E+09 -3.60702173345E-01 +1.66313406934E-02 +2.00513429675E-03 -4.61706869840E-03 +1.97499280657E-03 -4.82120029488E-03 -4.20239975609E-01 -1.04328059009E-01
4.37500000000E+09 -3.64216399462E-01 +3.92915300633E-02 +1.30146357860E-03 -5.37221094599E-03 +1.18698840456E-03 -5.58699332018E-03 -4.25772893017E-01 -7.85552286811E-02
4.38000000000E+09 -3.68587636479E-01 +5.88704138380E-02 +3.05105519738E-04 -5.28639343054E-03 +1.65528191802E-04 -5.50824823244E-03 -4.29517937452E-01 -5.29391988050E-02
4.38500000000E+09 -3.72340423611E-01 +7.73030779428E-02 -2.95690045253E-04 -5.15296505426E-03 -4.94591765687E-04 -5.32354339688E-03 -4.32547193399E-01 -2.86507746865E-02
4.39000000000E+09 -3.74796038232E-01 +9.28391010267E-02 -9.54160081366E-04 -5.21841315953E-03 -1.25256999637E-03 -5.32067649178E-03 -4.36104038418E-01 -3.35573334451E-03
4.39500000000E+09 -3.75408852559E-01 +1.07396943591E-01 -1.62458668868E-03 -4.59559013383E-03 -1.85531518536E-03 -4.63594982702E-03 -4.36922364249E-01 +2.09331176516E-02
4.40000000000E+09 -3.73651543455E-01 +1.21993834735E-01 -1.56028976109E-03 -4.76181814701E-03 -1.76566130318E-03 -4.71896397403E-03 -4.37822684782E-01 +4.58645319719E-02
4.40500000000E+09 -3.69519425995E-01 +1.37961654923E-01 -2.57240631066E-03 -4.73611856325E-03 -2.81577350081E-03 -4.61124772937E-03 -4.36998813138E-01 +7.12793038018E-02
4.41000000000E+09 -3.63191645520E-01 +1.54282631013E-01 -2.80290290313E-03 -4.10697147190E-03 -2.99171152530E-03 -3.93665294432E-03 -4.34741225470E-01 +9.66975882602E-02
4.41500000000E+09 -3.57349274287E-01 +1.72350759908E-01 -3.37872361409E-03 -4.12008422875E-03 -3.49508683756E-03 -3.89193028642E-03 -4.31745916917E-01 +1.20950088318E-01
4.42000000000E+09 -3.51444925787E-01 +1.92873212767E-01 -3.66272028328E-03 -3.68089288477E-03 -3.76935979643E-03 -3.49652025787E-03 -4.29159468768E-01 +1.45314785842E-01
4.42500000000E+09 -3.46331924334E-01 +2.14476600635E-01 -4.23493151198E-03 -3.76232292021E-03 -4.23289792378E-03 -3.50805665010E-03 -4.23698257440E-01 +1.70094964747E-01
4.43000000000E+09 -3.42188578311E-01 +2.35331829836E-01 -5.26202150680E-03 -3.22940587858E-03 -5.16229814915E-03 -2.95048227083E-03 -4.18094167248E-01 +1.92352166826E-01
4.43500000000E+09 -3.39870401596E-01 +2.55819552112E-01 -5.53344810348E-03 -1.70661394984E-03 -5.43923433321E-03 -1.55796203166E-03 -4.11442879167E-01 +2.15760530134E-01
4.44000000000E+09 -3.37202118995E-01 +2.74919453134E-01 -5.31743530856E-03 -1.48619089960E-03 -5.16472580485E-03 -1.39181454516E-03 -4.03848725152E-01 +2.37920655586E-01
4.44500000000E+09 -3.33894957816E-01 +2.89956457145E-01 -5.49555544946E-03 -5.10735005927E-04 -5.33624668317E-03 -4.55143403577E-04 -3.96245926474E-01 +2.59042879689E-01
4.45000000000E+09 -3.31103640870E-01 +3.03048086843E-01 -5.08156670220E-03 -2.15028226791E-04 -4.96927905275E-03 -1.41177769799E-04 -3.88498686815E-01 +2.79945835238E-01
4.45500000000E+09 -3.26781891102E-01 +3.15138979124E-01 -5.27665211255E-03 -5.72506454713E-05 -5.14202713444E-03 -2.71357407807E-05 -3.80683997920E-01 +3.00203567470E-01
4.46000000000E+09 -3.20371501949E-01 +3.26920341460E-01 -5.61696112785E-03 +7.00481213128E-04 -5.53335884694E-03 +6.51017108522E-04 -3.70874944876E-01 +3.20096161592E-01
4.46500000000E+09 -3.11292432730E-01 +3.39665514366E-01 -5.36480639875E-03 +1.45387412465E-03 -5.28836996356E-03 +1.44356711699E-03 -3.61053093939E-01 +3.38873559802E-01
4.47000000000E+09 -3.00361835708E-01 +3.52948668660E-01 -5.37193764255E-03 +1.87834403672E-03 -5.32102808209E-03 +1.87881358744E-03 -3.48907762378E-01 +3.58451277331E-01
4.47500000000E+09 -2.88176533276E-01 +3.68649267390E-01 -5.25578600628E-03 +2.75254966018E-03 -5.23496689656E-03 +2.77863512620E-03 -3.37303559718E-01 +3.76168204235E-01
4.48000000000E+09 -2.75465063275E-01 +3.83335849977E-01 -4.78088987149E-03 +3.59786495196E-03 -4.70596542169E-03 +3.63839438047E-03 -3.25734534424E-01 +3.94695572162E-01
4.48500000000E+09 -2.66320521896E-01 +3.99897532645E-01 -3.86990339240E-03 +4.03914948597E-03 -3.86109516019E-03 +4.04788739264E-03 -3.13718791553E-01 +4.11537037948E-01
4.49000000000E+09 -2.57176981674E-01 +4.17182263966E-01 -3.48845363227E-03 +4.24716016229E-03 -3.48328980903E-03 +4.28761201920E-03 -3.02112037339E-01 +4.27427706003E-01
4.49500000000E+09 -2.49107848706E-01 +4.32798269209E-01 -2.93323513982E-03 +4.52064442414E-03 -2.97759502340E-03 +4.52290624462E-03 -2.90496694570E-01 +4.43125149090E-01
4.50000000000E+09 -2.42514000149E-01 +4.46371831515E-01 -2.49818961850E-03 +4.77378204516E-03 -2.50524276306E-03 +4.82588615392E-03 -2.77398654045E-01 +4.58409611825E-01
4.50500000000E+09 -2.36624301851E-01 +4.57658456178E-01 -2.02571822472E-03 +4.92973987621E-03 -1.97700795722E-03 +4.96643100121E-03 -2.63455720430E-01 +4.73413003142E-01
4.51000000000E+09 -2.29864012703E-01 +4.67097062431E-01 -1.69091873378E-03 +5.26396175414E-03 -1.61532956837E-03 +5.36754147585E-03 -2.49279421019E-01 +4.87413840648E-01
4.51500000000E+09 -2.21311832829E-01 +4.74545848967E-01 -8.21931503925E-04 +5.61930148861E-03 -6.78053985208E-04 +5.64559885236E-03 -2.35783143668E-01 +5.01269547287E-01
4.52000000000E+09 -2.11315562618E-01 +4.80938373912E-01 +9.11144647801E-05 +5.32487535655E-03 +2.10052897031E-04 +5.35102111954E-03 -2.21769508675E-01 +5.14405223562E-01
4.52500000000E+09 -1.98957339662E-01 +4.87948326957E-01 +2.33670757654E-04 +5.22865263347E-03 +4.15628678481E-04 +5.24166302293E-03 -2.07507902887E-01 +5.25874687486E-01
4.53000000000E+09 -1.85209246309E-01 +4.95612648671E-01 +1.05859328197E-03 +5.27959078748E-03 +1.25408811392E-03 +5.21943620120E-03 -1.93176790673E-01 +5.36396111266E-01
4.53500000000E+09 -1.69778302775E-01 +5.05331350318E-01 +1.57912796435E-03 +4.71534130539E-03 +1.75438562077E-03 +4.60926118318E-03 -1.78744419411E-01 +5.46386937116E-01
4.54000000000E+09 -1.53892784250E-01 +5.15445587228E-01 +1.87186634715E-03 +4.72476277803E-03 +2.07300836383E-03 +4.54835178729E-03 -1.64220469760E-01 +5.57027908667E-01
4.54500000000E+09 -1.39320329579E-01 +5.26426787460E-01 +2.58206321718E-03 +4.33926221043E-03 +2.69380237720E-03 +4.11730602303E-03 -1.49242172298E-01 +5.67415149500E-01
4.55000000000E+09 -1.26406759232E-01 +5.36586493837E-01 +2.61547312587E-03 +3.98396226828E-03 +2.64333710165E-03 +3.73563898780E-03 -1.34386581149E-01 +5.77778423507E-01
4.55500000000E+09 -1.16608896483E-01 +5.46323254992E-01 +3.24695411504E-03 +3.71361354923E-03 +3.21582181909E-03 +3.46849049570E-03 -1.19893716866E-01 +5.87127798082E-01
4.56000000000E+09 -1.08287695155E-01 +5.56295513640E-01 +3.46477756936E-03 +3.38389623344E-03 +3.40388500538E-03 +3.13237601020E-03 -1.05853919847E-01 +5.95788670616E-01
4.56500000000E+09 -1.00124795523E-01 +5.64252071535E-01 +3.86003167739E-03 +2.82992746491E-03 +3.78411824152E-03 +2.61834486150E-03 -9.08471353534E-02 +6.04411940568E-01
4.57000000000E+09 -9.09432789731E-02 +5.70644118239E-01 +3.86091824819E-03 +2.64121440624E-03 +3.76202505822E-03 +2.38889284650E-03 -7.55620744824E-02 +6.11431483392E-01
