# Hz S RI R 50
! CMT, C1220, 16058040, 17.2.0/1
! Date: 15/08/2018 12:41:08
! Data: Format (Calibration Info)
! Freq                      S11: Re/Im (F2)                       S21: Re/Im (F2)                       S12: Re/Im (F2)                       S22: Re/Im (F2)            
4.00000000000E+09 +6.56641389774E-01 -3.59896402992E-01 +7.86164309537E-04 -9.36939214675E-04 +8.01515935606E-04 -9.27073125482E-04 +7.86086510145E-01 -3.12785794715E-01
4.00500000000E+09 +6.47962749312E-01 -3.65559389520E-01 +5.06003190249E-04 -1.11313908483E-03 +5.72248731329E-04 -1.13398854804E-03 +7.77814962345E-01 -3.23944647527E-01
4.01000000000E+09 +6.39133793248E-01 -3.70908570750E-01 +2.38786675455E-04 -1.20603135032E-03 +3.25406651677E-04 -1.21862973748E-03 +7.69296007079E-01 -3.35837171896E-01
4.01500000000E+09 +6.29094115877E-01 -3.77431361526E-01 -4.37932634199E-05 -1.00561004680E-03 +1.59250652647E-05 -1.04592075896E-03 +7.60909039910E-01 -3.46805383510E-01
4.02000000000E+09 +6.19243576139E-01 -3.84538272811E-01 +8.42523176204E-05 -9.22424673752E-04 +8.96862293449E-05 -9.99294915751E-04 +7.52240958858E-01 -3.57595797261E-01
4.02500000000E+09 +6.08603664366E-01 -3.93704735484E-01 +7.86530225160E-06 -9.34316090205E-04 +4.38043104607E-05 -9.61611369047E-04 +7.43046666675E-01 -3.68362070750E-01
4.03000000000E+09 +5.97574773984E-01 -4.03972003559E-01 -1.46745388053E-04 -9.59538858547E-04 -8.90180001721E-05 -1.02501297979E-03 +7.32655749716E-01 -3.78920672419E-01
4.03500000000E+09 +5.85841705784E-01 -4.14409570562E-01 -2.05007288465E-04 -9.28914077209E-04 -2.24427377499E-04 -9.94891494852E-04 +7.21818045803E-01 -3.89860882287E-01
4.04000000000E+09 +5.74348180224E-01 -4.24276836810E-01 -3.05945320637E-04 -8.72515862086E-04 -3.21151175346E-04 -8.93209361414E-04 +7.10764748835E-01 -4.01112314195E-01
4.04500000000E+09 +5.63616332969E-01 -4.33625908693E-01 -3.13521076868E-04 -8.61774910422E-04 -3.86855700814E-04 -8.60358380340E-04 +6.99845012667E-01 -4.11905497228E-01
4.05000000000E+09 +5.51993099115E-01 -4.41722597396E-01 -3.59597191352E-04 -8.14097629478E-04 -3.39834068094E-04 -8.51362059341E-04 +6.89564967949E-01 -4.22615317633E-01
4.05500000000E+09 +5.39975719101E-01 -4.47791364769E-01 -2.91860798253E-04 -7.54218163718E-04 -3.11488844605E-04 -8.17614703188E-04 +6.78365472938E-01 -4.32529699811E-01
4.06000000000E+09 +5.28125565883E-01 -4.52622074928E-01 -4.90055844085E-04 -9.13720555339E-04 -5.44982527950E-04 -9.43452479231E-04 +6.67345031260E-01 -4.41942865562E-01
4.06500000000E+09 +5.14969937723E-01 -4.56644823427E-01 -6.11526449420E-04 -6.99408016914E-04 -6.06757408779E-04 -6.82208278598E-04 +6.54864970086E-01 -4.51825751413E-01
4.07000000000E+09 +5.01458163896E-01 -4.60343150679E-01 -4.85599937099E-04 -6.23036202754E-04 -4.46417229971E-04 -6.22935480178E-04 +6.41769443405E-01 -4.61910679781E-01
4.07500000000E+09 +4.86999607343E-01 -4.64986685773E-01 -5.31628336294E-04 -8.78424505411E-04 -4.79263950437E-04 -8.54794971309E-04 +6.28117587418E-01 -4.72575233533E-01
4.08000000000E+09 +4.71422488247E-01 -4.70176095756E-01 -8.25039706489E-04 -7.90840549839E-04 -8.36598589448E-04 -8.52130512792E-04 +6.14562557709E-01 -4.82472182424E-01
4.08500000000E+09 +4.55247984162E-01 -4.76529946301E-01 -7.97441517711E-04 -6.57022940805E-04 -7.72878829120E-04 -6.61364487435E-04 +6.01256386120E-01 -4.92351287932E-01
4.09000000000E+09 +4.38352178991E-01 -4.82977811866E-01 -1.03375948488E-03 -8.48827652671E-04 -9.68157948211E-04 -9.02086333803E-04 +5.87399904299E-01 -5.01105443479E-01
4.09500000000E+09 +4.21697346084E-01 -4.89164034856E-01 -1.33487504995E-03 -4.35190447694E-04 -1.37437255966E-03 -4.85655393103E-04 +5.73101885470E-01 -5.09389673807E-01
4.10000000000E+09 +4.05061585493E-01 -4.94935176205E-01 -1.10428713065E-03 -1.21577251864E-04 -1.09786732576E-03 -1.22803847358E-04 +5.57773481504E-01 -5.16959450430E-01
4.10500000000E+09 +3.88477625994E-01 -4.99277705268E-01 -9.81977978837E-04 -2.65905593432E-04 -9.82377454653E-04 -3.36449521660E-04 +5.42439067023E-01 -5.25132698263E-01
4.11000000000E+09 +3.72115036610E-01 -5.01198309280E-01 -1.24152087060E-03 -8.35445736921E-05 -1.28535441994E-03 -2.29523568227E-04 +5.26008314668E-01 -5.33662783214E-01
4.11500000000E+09 +3.57104396210E-01 -5.02373627122E-01 -9.93604518572E-04 +4.49107472235E-05 -1.02659565902E-03 +7.01969816477E-05 +5.09913845003E-01 -5.41661655173E-01
4.12000000000E+09 +3.41294204729E-01 -5.03183917856E-01 -1.15647039680E-03 +5.74249699972E-05 -1.17939945428E-03 -4.74673542935E-05 +4.93817886396E-01 -5.49875434140E-01
4.12500000000E+09 +3.24505361354E-01 -5.03934368655E-01 -1.08121303510E-03 +2.65225305889E-04 -1.15278081711E-03 +2.40154677621E-04 +4.76740957180E-01 -5.56684348322E-01
4.13000000000E+09 +3.07307472276E-01 -5.04538330121E-01 -9.71639786514E-04 +3.87742352184E-04 -1.13012601134E-03 +3.19296589114E-04 +4.59403033777E-01 -5.62920084641E-01
4.13500000000E+09 +2.88751306888E-01 -5.07050055251E-01 -6.87597138950E-04 +4.88067231663E-04 -7.34747845508E-04 +5.01922773185E-04 +4.41256452327E-01 -5.68533590919E-01
4.14000000000E+09 +2.68627545483E-01 -5.09660482567E-01 -7.43424467784E-04 +3.38690551617E-05 -8.52409132463E-04 +7.93633428558E-05 +4.23162945224E-01 -5.74657994463E-01
4.14500000000E+09 +2.48804329213E-01 -5.11896260063E-01 -1.11815074940E-03 +2.10676119077E-04 -1.21040754530E-03 +2.72964403643E-04 +4.03760322587E-01 -5.81093921975E-01
4.15000000000E+09 +2.29892231168E-01 -5.15368845824E-01 -1.00442627760E-03 +5.67467618360E-04 -1.11674585027E-03 +6.41077761779E-04 +3.85525654193E-01 -5.86370224801E-01
4.15500000000E+09 +2.10232868098E-01 -5.18478594745E-01 -9.08202916473E-04 +6.49063614994E-04 -8.84095931971E-04 +7.68137589137E-04 +3.67065755802E-01 -5.91716022487E-01
4.16000000000E+09 +1.91652731590E-01 -5.18903166406E-01 -7.79494842281E-04 +6.94590203308E-04 -8.16529224974E-04 +7.26988685332E-04 +3.47801838565E-01 -5.95391492880E-01
4.16500000000E+09 +1.75087004306E-01 -5.18866557550E-01 -6.47878974825E-04 +6.44753882979E-04 -6.30593505092E-04 +6.62222006522E-04 +3.28162972520E-01 -5.98114671971E-01
4.17000000000E+09 +1.58314884107E-01 -5.16701653963E-01 -7.21124008756E-04 +6.48964378783E-04 -6.77294202671E-04 +6.68103399381E-04 +3.07450962040E-01 -6.00380858229E-01
4.17500000000E+09 +1.42146706002E-01 -5.12692913835E-01 -7.49603400316E-04 +3.44072975264E-04 -6.47220073554E-04 +3.85856900098E-04 +2.85999896504E-01 -6.01893789131E-01
4.18000000000E+09 +1.25687553007E-01 -5.07863466378E-01 -1.12011479356E-03 +7.87696250348E-04 -1.06789500650E-03 +7.76072528416E-04 +2.65049397083E-01 -6.03185715815E-01
4.18500000000E+09 +1.09186885974E-01 -5.02278919788E-01 -7.46263817988E-04 +9.19735203812E-04 -7.44534250103E-04 +8.87624807583E-04 +2.44188320642E-01 -6.04731778218E-01
4.19000000000E+09 +9.11502576799E-02 -4.97507369980E-01 -9.09341531265E-04 +9.39350067509E-04 -8.81595629571E-04 +9.40990290280E-04 +2.22916647291E-01 -6.04815169457E-01
4.19500000000E+09 +7.21319730960E-02 -4.91804686009E-01 -1.01226764072E-03 +1.10261883734E-03 -1.01359590017E-03 +1.10376248321E-03 +2.02058343183E-01 -6.03688168057E-01
4.20000000000E+09 +5.37317062612E-02 -4.87413064703E-01 -7.84064896844E-04 +1.64677839943E-03 -7.63298842031E-04 +1.55600027558E-03 +1.80474339714E-01 -6.01786730261E-01
4.20500000000E+09 +3.46262999261E-02 -4.83515123605E-01 -3.55952803198E-04 +1.56453275649E-03 -4.13300332061E-04 +1.50205645939E-03 +1.59038280764E-01 -5.98987141522E-01
4.21000000000E+09 +1.62887624232E-02 -4.78933996073E-01 -4.43420486391E-04 +1.30052080383E-03 -5.35757298124E-04 +1.19718750434E-03 +1.37067731718E-01 -5.97739324856E-01
4.21500000000E+09 -1.25864266180E-03 -4.73518778369E-01 -4.00985767412E-04 +1.73564025280E-03 -5.36792563708E-04 +1.76134372925E-03 +1.13711690857E-01 -5.95524076457E-01
4.22000000000E+09 -1.71708579229E-02 -4.66333985509E-01 +1.43851526189E-05 +1.79092022411E-03 -9.04828666341E-05 +1.82395120820E-03 +9.13637085476E-02 -5.92062917035E-01
4.22500000000E+09 -3.21839072899E-02 -4.57749381364E-01 -5.38446791156E-05 +1.53695151915E-03 -1.57798062883E-04 +1.56826921136E-03 +6.93644709111E-02 -5.87748020041E-01
4.23000000000E+09 -4.65476766989E-02 -4.46570407540E-01 +4.11270215228E-05 +1.94680501259E-03 -5.18652103004E-06 +1.98275107424E-03 +4.75642770472E-02 -5.81260323886E-01
4.23500000000E+09 -6.00544357509E-02 -4.35162063905E-01 +5.28215332243E-04 +1.95524869204E-03 +3.78506671047E-04 +2.07527611923E-03 +2.56435690444E-02 -5.74657632651E-01
4.24000000000E+09 -7.56995739088E-02 -4.23215539158E-01 +7.51330314386E-04 +1.87414436295E-03 +7.30228716714E-04 +2.05113072238E-03 +3.15874349867E-03 -5.66229970886E-01
4.24500000000E+09 -9.32821198512E-02 -4.10222785223E-01 +1.13682367459E-03 +1.68934399717E-03 +1.11665597063E-03 +1.81254494609E-03 -1.88065082428E-02 -5.57694734877E-01
4.25000000000E+09 -1.12230610819E-01 -3.97005168276E-01 +8.76030592534E-04 +1.52130809835E-03 +9.07212984444E-04 +1.71411063659E-03 -4.08785056485E-02 -5.49022938555E-01
4.25500000000E+09 -1.31908538681E-01 -3.84374548619E-01 +1.36742172765E-03 +1.65996779002E-03 +1.42767989112E-03 +1.81989901323E-03 -6.20302392111E-02 -5.39803053005E-01
4.26000000000E+09 -1.52568957178E-01 -3.72265620142E-01 +1.59049120518E-03 +1.28135115851E-03 +1.74968759848E-03 +1.38369495553E-03 -8.33427640344E-02 -5.29544822438E-01
4.26500000000E+09 -1.71625171667E-01 -3.59853300279E-01 +1.29561656790E-03 +1.27129643328E-03 +1.40612728451E-03 +1.37370465027E-03 -1.04404562222E-01 -5.17725084088E-01
4.27000000000E+09 -1.88730214306E-01 -3.48557504420E-01 +1.78756811309E-03 +1.42917320973E-03 +1.95625277336E-03 +1.36576779917E-03 -1.25721406707E-01 -5.04088881237E-01
4.27500000000E+09 -2.04749907312E-01 -3.37194740829E-01 +1.92054521129E-03 +9.74034432122E-04 +2.11373688784E-03 +9.66542245873E-04 -1.46395224579E-01 -4.90029204245E-01
4.28000000000E+09 -2.18094157143E-01 -3.24017285900E-01 +1.84452357420E-03 +9.36581199701E-04 +2.05352734727E-03 +8.78857528059E-04 -1.67108396483E-01 -4.75754213491E-01
4.28500000000E+09 -2.29796529825E-01 -3.09726746289E-01 +2.21564714885E-03 +1.06547239336E-03 +2.26293207601E-03 +9.21974991951E-04 -1.87342333431E-01 -4.61103269250E-01
4.29000000000E+09 -2.40414698721E-01 -2.93853974509E-01 +2.65330248030E-03 +3.12118320726E-04 +2.64326734172E-03 +1.58426868550E-04 -2.06258945667E-01 -4.46543512001E-01
4.29500000000E+09 -2.51698113237E-01 -2.76292096829E-01 +2.05931401062E-03 +2.97442410581E-05 +2.04090368138E-03 -1.49257009659E-04 -2.25374699678E-01 -4.30835160366E-01
4.30000000000E+09 -2.63041964252E-01 -2.56375461031E-01 +2.15609116086E-03 +1.99613034402E-04 +2.16617352039E-03 +6.02225117026E-05 -2.42302161878E-01 -4.13743427171E-01
4.30500000000E+09 -2.74269880043E-01 -2.36080042312E-01 +2.44109296378E-03 -1.25730493867E-04 +2.42167598710E-03 -2.48779443288E-04 -2.60504649092E-01 -3.96433769679E-01
4.31000000000E+09 -2.87072039053E-01 -2.16455113163E-01 +2.12393873887E-03 +1.33893696532E-05 +2.03537109576E-03 -4.58563972722E-05 -2.77596727020E-01 -3.77018130107E-01
4.31500000000E+09 -3.00177877788E-01 -1.97305130937E-01 +2.92004821760E-03 -6.08977997089E-05 +2.84262301702E-03 +6.01082281225E-06 -2.94477151235E-01 -3.57776051164E-01
4.32000000000E+09 -3.13292043124E-01 -1.79616542793E-01 +3.39508542810E-03 -1.07593393881E-03 +3.30746166607E-03 -1.06318034546E-03 -3.10625021140E-01 -3.37626046226E-01
4.32500000000E+09 -3.25002596347E-01 -1.63020452129E-01 +2.40408879455E-03 -1.77577923099E-03 +2.39368322654E-03 -1.74503827796E-03 -3.25385572288E-01 -3.16152924587E-01
4.33000000000E+09 -3.35121826568E-01 -1.47691555360E-01 +2.48332731577E-03 -1.50625240082E-03 +2.47027243762E-03 -1.40555037488E-03 -3.38594711504E-01 -2.94157645691E-01
4.33500000000E+09 -3.42554768110E-01 -1.31152308588E-01 +2.57579624172E-03 -2.12824479466E-03 +2.63586195384E-03 -2.03679175431E-03 -3.51001545273E-01 -2.71293034704E-01
4.34000000000E+09 -3.45935037083E-01 -1.15345703432E-01 +2.12109931276E-03 -2.74953855703E-03 +2.11285211476E-03 -2.67565979498E-03 -3.63029889463E-01 -2.48274838678E-01
4.34500000000E+09 -3.48303461833E-01 -9.90362956317E-02 +1.52890543081E-03 -2.60612431963E-03 +1.59478172906E-03 -2.55928737359E-03 -3.74737410370E-01 -2.23722436305E-01
4.35000000000E+09 -3.48921321883E-01 -8.03962714362E-02 +1.49348244500E-03 -2.74040183038E-03 +1.66824434982E-03 -2.71435137637E-03 -3.84851802970E-01 -2.00827898947E-01
4.35500000000E+09 -3.49864432420E-01 -6.10657470379E-02 +1.19407645900E-03 -3.06383520210E-03 +1.34187331446E-03 -3.08217139206E-03 -3.94691716596E-01 -1.78522443922E-01
4.36000000000E+09 -3.52248546117E-01 -3.93935813134E-02 +7.97332796406E-04 -2.95867571077E-03 +7.87492298747E-04 -3.09676086503E-03 -4.04148227860E-01 -1.55248082285E-01
4.36500000000E+09 -3.55398611765E-01 -1.63207834242E-02 +8.29960082494E-04 -3.16584949849E-03 +9.30332877984E-04 -3.32278623135E-03 -4.11481478192E-01 -1.30734529522E-01
4.37000000000E+09 -3.59880695981E-01 +7.49986848786E-03 +4.33938152772E-04 -3.65072938250E-03 +4.46991093847E-04 -3.76631186438E-03 -4.17127117777E-01 -1.06597128965E-01
4.37500000000E+09 -3.63828063029E-01 +3.03081085112E-02 -2.90217144246E-04 -4.03154972148E-03 -2.83982209214E-04 -4.20051939291E-03 -4.22667017506E-01 -8.09183381598E-02
4.38000000000E+09 -3.68221426726E-01 +5.00004877776E-02 -1.04845402316E-03 -3.61152279520E-03 -1.12889683159E-03 -3.85156440015E-03 -4.26249826038E-01 -5.60422054119E-02
4.38500000000E+09 -3.72693867511E-01 +6.79834039166E-02 -1.42276664577E-03 -3.30648178189E-03 -1.48134741484E-03 -3.43684316187E-03 -4.29773328844E-01 -3.17936735483E-02
4.39000000000E+09 -3.75755363808E-01 +8.39884141465E-02 -1.69418079838E-03 -3.19988724374E-03 -1.82230902191E-03 -3.32930592380E-03 -4.33003101311E-01 -6.88211907897E-03
4.39500000000E+09 -3.76783531990E-01 +9.84556650244E-02 -2.24024541440E-03 -2.60866496085E-03 -2.44912440151E-03 -2.72757622387E-03 -4.34264371342E-01 +1.68246955501E-02
4.40000000000E+09 -3.75997765078E-01 +1.13737146723E-01 -1.88806108400E-03 -2.46238690269E-03 -2.11509295998E-03 -2.50544723597E-03 -4.35389898636E-01 +4.14303071202E-02
4.40500000000E+09 -3.71943805739E-01 +1.29886861315E-01 -2.54943016536E-03 -2.57124383073E-03 -2.74388820785E-03 -2.51926286057E-03 -4.34946584008E-01 +6.62000254910E-02
4.41000000000E+09 -3.66440485638E-01 +1.46100131921E-01 -2.53028233935E-03 -1.93646660196E-03 -2.69847879926E-03 -1.86440173364E-03 -4.33556457760E-01 +9.14793947762E-02
4.41500000000E+09 -3.61075397533E-01 +1.64725548774E-01 -2.90364908000E-03 -1.94326445033E-03 -2.97020495915E-03 -1.81968885456E-03 -4.30832586824E-01 +1.16046196872E-01
4.42000000000E+09 -3.55665745780E-01 +1.85286428146E-01 -2.92437651175E-03 -1.54838752882E-03 -3.03305429123E-03 -1.44598937709E-03 -4.28461713823E-01 +1.40377171770E-01
4.42500000000E+09 -3.51117114879E-01 +2.07166375949E-01 -3.27676479523E-03 -1.78100849648E-03 -3.24562062131E-03 -1.58828636452E-03 -4.23164571239E-01 +1.65377840137E-01
4.43000000000E+09 -3.47028080839E-01 +2.28103872929E-01 -4.00706551489E-03 -1.39795061665E-03 -3.95781707860E-03 -1.21871895749E-03 -4.17584454807E-01 +1.87246254015E-01
4.43500000000E+09 -3.45444321991E-01 +2.48398699319E-01 -4.05003881504E-03 +3.09520130937E-05 -3.94925336304E-03 +1.64316621892E-04 -4.11504093532E-01 +2.10507508641E-01
4.44000000000E+09 -3.43512808192E-01 +2.67768556823E-01 -3.48208415185E-03 -6.75383641870E-05 -3.35689640310E-03 +2.91985778311E-05 -4.04228094980E-01 +2.32348941917E-01
4.44500000000E+09 -3.40768686363E-01 +2.83605489250E-01 -3.66076264900E-03 +4.00598027201E-04 -3.53423031561E-03 +4.57554058175E-04 -3.97291259701E-01 +2.53565439348E-01
4.45000000000E+09 -3.38453309031E-01 +2.97371091444E-01 -3.41351217245E-03 +5.93181264126E-04 -3.32475557878E-03 +6.43028115617E-04 -3.89975404780E-01 +2.74831872809E-01
4.45500000000E+09 -3.33645770282E-01 +3.10227081356E-01 -3.64564351520E-03 +7.70689168917E-04 -3.49853571300E-03 +8.13053025949E-04 -3.82261841219E-01 +2.95367947083E-01
4.46000000000E+09 -3.27538028268E-01 +3.21713940049E-01 -3.68066550410E-03 +1.42541295071E-03 -3.55085405285E-03 +1.41019661404E-03 -3.72565456160E-01 +3.15280667089E-01
4.46500000000E+09 -3.19024569079E-01 +3.34879256772E-01 -3.33852651884E-03 +1.87604847205E-03 -3.23561585152E-03 +1.90429026825E-03 -3.62796341631E-01 +3.34217035944E-01
4.47000000000E+09 -3.08592531436E-01 +3.48524580938E-01 -3.24812406949E-03 +2.13900591860E-03 -3.12940787438E-03 +2.15063681621E-03 -3.50907317495E-01 +3.53492584623E-01
4.47500000000E+09 -2.97286861839E-01 +3.64811846028E-01 -3.12709257012E-03 +2.61386265276E-03 -3.07568690368E-03 +2.57853650344E-03 -3.39855004118E-01 +3.71123729499E-01
4.48000000000E+09 -2.84940216247E-01 +3.80742549952E-01 -2.71090349044E-03 +3.21140133882E-03 -2.69464080440E-03 +3.17630946877E-03 -3.28649647483E-01 +3.89928418142E-01
4.48500000000E+09 -2.75040840598E-01 +3.97869823820E-01 -2.20085134093E-03 +3.47229721672E-03 -2.16788474461E-03 +3.40857400890E-03 -3.17148764421E-01 +4.06733697853E-01
4.49000000000E+09 -2.65825534584E-01 +4.15288322481E-01 -1.64659678769E-03 +3.83812915609E-03 -1.61915368582E-03 +3.76159768635E-03 -3.06025483414E-01 +4.23334337231E-01
4.49500000000E+09 -2.57995743404E-01 +4.30905835987E-01 -1.07490947914E-03 +3.72384811203E-03 -1.09777736792E-03 +3.63876062053E-03 -2.94129509327E-01 +4.39349938769E-01
4.50000000000E+09 -2.52004856086E-01 +4.45309083982E-01 -7.89255617517E-04 +3.76716246664E-03 -8.02431007121E-04 +3.73704154868E-03 -2.81475766360E-01 +4.54689717089E-01
4.50500000000E+09 -2.45777324045E-01 +4.57421232016E-01 -4.43329743766E-04 +3.63508189154E-03 -4.37375992857E-04 +3.69139586084E-03 -2.67722455208E-01 +4.70200557634E-01
4.51000000000E+09 -2.38903134633E-01 +4.67215306931E-01 -3.31031622135E-04 +3.86261126175E-03 -2.80552011677E-04 +3.93272459693E-03 -2.53389428347E-01 +4.84417571125E-01
4.51500000000E+09 -2.30466059741E-01 +4.75309191295E-01 +4.37875005895E-04 +4.33517830794E-03 +5.16281674247E-04 +4.32499214552E-03 -2.40048771318E-01 +4.98505220081E-01
4.52000000000E+09 -2.20230920640E-01 +4.82166598755E-01 +1.28659480621E-03 +3.71208300870E-03 +1.34402242032E-03 +3.68516173118E-03 -2.26126360869E-01 +5.11818576674E-01
4.52500000000E+09 -2.08045104883E-01 +4.89509012690E-01 +1.20316899713E-03 +3.59387728960E-03 +1.25062426202E-03 +3.54866760976E-03 -2.12097307384E-01 +5.23638637956E-01
4.53000000000E+09 -1.94150350001E-01 +4.97956329162E-01 +1.89689369952E-03 +3.48026499625E-03 +1.92548870431E-03 +3.46910472173E-03 -1.97948223093E-01 +5.34597664189E-01
4.53500000000E+09 -1.78430815482E-01 +5.08111695962E-01 +2.18232441974E-03 +2.88009507228E-03 +2.27416587681E-03 +2.80786649488E-03 -1.83120007803E-01 +5.45062246133E-01
4.54000000000E+09 -1.62372434177E-01 +5.18760730955E-01 +2.40161828609E-03 +2.79250408772E-03 +2.39953365183E-03 +2.67265914377E-03 -1.68473063017E-01 +5.55674079722E-01
4.54500000000E+09 -1.47384316846E-01 +5.30005550274E-01 +2.78907225703E-03 +2.33252494618E-03 +2.79464950940E-03 +2.15132117499E-03 -1.53357974896E-01 +5.66340136144E-01
4.55000000000E+09 -1.34318297038E-01 +5.40658289211E-01 +2.48697855234E-03 +1.99415643932E-03 +2.52524106522E-03 +1.82303107902E-03 -1.38491086465E-01 +5.76731576174E-01
4.55500000000E+09 -1.24070917059E-01 +5.51087590446E-01 +2.87677552526E-03 +1.99191686960E-03 +2.83917038990E-03 +1.83994047295E-03 -1.23936132375E-01 +5.86245323715E-01
4.56000000000E+09 -1.15336937964E-01 +5.61174758627E-01 +3.17287139961E-03 +1.59018809328E-03 +3.11805528239E-03 +1.45888475664E-03 -1.10049215637E-01 +5.94839667712E-01
4.56500000000E+09 -1.06838804450E-01 +5.69566980183E-01 +3.23660205686E-03 +1.07046297703E-03 +3.26479631834E-03 +9.58448692338E-04 -9.52832961917E-02 +6.03820223344E-01
4.57000000000E+09 -9.72835990069E-02 +5.75872997906E-01 +3.24454747808E-03 +8.14340758337E-04 +3.17581109695E-03 +6.95496471720E-04 -7.97821045749E-02 +6.11305578025E-01
