# Hz S RI R 50
! CMT, C1220, 16058040, 17.2.0/1
! Date: 15/08/2018 12:39:00
! Data: Format (Calibration Info)
! Freq                      S11: Re/Im (F2)                       S21: Re/Im (F2)                       S12: Re/Im (F2)                       S22: Re/Im (F2)            
4.00000000000E+09 +6.57738362317E-01 -3.60448180567E-01 +1.35329281057E-03 -1.02891663156E-03 +1.41984539172E-03 -9.93834105978E-04 +7.85383010928E-01 -3.15239325720E-01
4.00500000000E+09 +6.49350526279E-01 -3.66191912733E-01 +1.08229853221E-03 -1.26838362614E-03 +1.11705104674E-03 -1.28924995365E-03 +7.77061516779E-01 -3.26585628735E-01
4.01000000000E+09 +6.40230932774E-01 -3.71916947048E-01 +8.54906453845E-04 -1.48300324334E-03 +9.16092744802E-04 -1.45384969299E-03 +7.68502587385E-01 -3.38451661273E-01
4.01500000000E+09 +6.30241062590E-01 -3.78220589037E-01 +5.73834100060E-04 -1.35754977279E-03 +6.03885386946E-04 -1.29489550849E-03 +7.59897743281E-01 -3.49629957815E-01
4.02000000000E+09 +6.20541917717E-01 -3.85351134236E-01 +5.22623735620E-04 -1.39309385854E-03 +5.78267986636E-04 -1.38314815882E-03 +7.50914444249E-01 -3.60514312185E-01
4.02500000000E+09 +6.10170213025E-01 -3.94615673202E-01 +4.61908105604E-04 -1.43434972126E-03 +4.88262484493E-04 -1.41294579713E-03 +7.41569183217E-01 -3.70934821382E-01
4.03000000000E+09 +5.99087432514E-01 -4.05344578976E-01 +2.66820917402E-04 -1.37812936209E-03 +3.44097340173E-04 -1.43604477219E-03 +7.31387117515E-01 -3.81417230398E-01
4.03500000000E+09 +5.87389182222E-01 -4.15983080388E-01 +1.56332681625E-04 -1.47265891452E-03 +1.93670539274E-04 -1.45197309833E-03 +7.20304899653E-01 -3.92351575465E-01
4.04000000000E+09 +5.75945319651E-01 -4.26133894055E-01 -3.07192503666E-06 -1.42034029151E-03 +8.42028572674E-05 -1.43536401003E-03 +7.09200284644E-01 -4.03525469948E-01
4.04500000000E+09 +5.64778317743E-01 -4.35797589469E-01 -4.89298236455E-05 -1.39821851956E-03 -1.55520817202E-06 -1.44597389369E-03 +6.98226579021E-01 -4.14567496666E-01
4.05000000000E+09 +5.53128278192E-01 -4.43630038139E-01 -8.85712316991E-05 -1.49814959699E-03 -4.56694785469E-05 -1.52381394291E-03 +6.87618367079E-01 -4.25253363621E-01
4.05500000000E+09 +5.41330225234E-01 -4.49646715927E-01 -2.10743910339E-04 -1.44439109495E-03 -1.53500410151E-04 -1.55796016892E-03 +6.76360486314E-01 -4.35077588105E-01
4.06000000000E+09 +5.29340285310E-01 -4.54761701070E-01 -5.18750798723E-04 -1.56416961945E-03 -4.45779062221E-04 -1.67002843361E-03 +6.65055720998E-01 -4.44405427533E-01
4.06500000000E+09 +5.16168528374E-01 -4.58879756686E-01 -7.15232354998E-04 -1.31168276205E-03 -6.61233860524E-04 -1.33804867049E-03 +6.52566452443E-01 -4.53995229618E-01
4.07000000000E+09 +5.02531952445E-01 -4.62977601918E-01 -4.65746218374E-04 -1.18757264077E-03 -4.60993939972E-04 -1.19132733306E-03 +6.39437381454E-01 -4.63942892964E-01
4.07500000000E+09 +4.87689973739E-01 -4.67730797240E-01 -6.43101324607E-04 -1.48034977528E-03 -5.72118369986E-04 -1.56578768734E-03 +6.25717123679E-01 -4.74449239986E-01
4.08000000000E+09 +4.71981797585E-01 -4.72932623166E-01 -9.05984388031E-04 -1.38617567650E-03 -8.69512342882E-04 -1.49668983086E-03 +6.12124905234E-01 -4.84374472325E-01
4.08500000000E+09 +4.55492644888E-01 -4.79516220595E-01 -8.78769585772E-04 -1.32670414024E-03 -8.47626319653E-04 -1.46553971355E-03 +5.98667221662E-01 -4.94168009801E-01
4.09000000000E+09 +4.38206416713E-01 -4.85890282649E-01 -1.24581160673E-03 -1.54835867503E-03 -1.27537932739E-03 -1.61459679754E-03 +5.84700297306E-01 -5.02885247763E-01
4.09500000000E+09 +4.21600117184E-01 -4.92269906830E-01 -1.65238027619E-03 -1.10671025430E-03 -1.67354575055E-03 -1.15818805768E-03 +5.70310853676E-01 -5.11003464217E-01
4.10000000000E+09 +4.04650065317E-01 -4.98160903033E-01 -1.51202500498E-03 -6.64898698413E-04 -1.58638610416E-03 -7.82140053648E-04 +5.54713326281E-01 -5.18557488461E-01
4.10500000000E+09 +3.87944994166E-01 -5.02585226178E-01 -1.41873616857E-03 -8.29353816497E-04 -1.46066961401E-03 -8.68099461899E-04 +5.39339120930E-01 -5.26207986816E-01
4.11000000000E+09 +3.71553133156E-01 -5.04785685987E-01 -1.81528346390E-03 -7.75022408915E-04 -1.86980651692E-03 -7.60624975117E-04 +5.22950820891E-01 -5.34665754776E-01
4.11500000000E+09 +3.55921939277E-01 -5.06047496312E-01 -1.64647368052E-03 -3.13810119480E-04 -1.71988090608E-03 -3.39041260049E-04 +5.06948891211E-01 -5.42295317077E-01
4.12000000000E+09 +3.40025092968E-01 -5.06660166415E-01 -1.74158857418E-03 -3.50220367154E-04 -1.76344508531E-03 -3.96508516772E-04 +4.90959553916E-01 -5.50427641876E-01
4.12500000000E+09 +3.22948684600E-01 -5.07626268651E-01 -1.82753092289E-03 -1.06429007204E-04 -1.87390055574E-03 -2.15901395819E-04 +4.73838149093E-01 -5.57312152298E-01
4.13000000000E+09 +3.04949327524E-01 -5.07940392171E-01 -1.84379397244E-03 +5.29297758445E-05 -1.91428495845E-03 +6.90077958329E-05 +4.56612495563E-01 -5.63477553691E-01
4.13500000000E+09 +2.86552647763E-01 -5.10198507146E-01 -1.56349558777E-03 +3.33716853795E-04 -1.52468419797E-03 +3.60015070787E-04 +4.38306358970E-01 -5.69075929341E-01
4.14000000000E+09 +2.66347586420E-01 -5.13235006776E-01 -1.62818486143E-03 +5.89961072244E-06 -1.64642036127E-03 -3.76586723015E-05 +4.19888196974E-01 -5.74934932497E-01
4.14500000000E+09 +2.46030206481E-01 -5.16061901805E-01 -2.04557971193E-03 +2.79599680033E-04 -2.10069958831E-03 +2.20318099258E-04 +4.00782703823E-01 -5.80859139278E-01
4.15000000000E+09 +2.26163168610E-01 -5.19529707084E-01 -1.83308995289E-03 +8.15595164086E-04 -1.88093089681E-03 +7.88375027640E-04 +3.82638083855E-01 -5.85965384695E-01
4.15500000000E+09 +2.06173353373E-01 -5.22210433495E-01 -1.64137638832E-03 +9.25734328863E-04 -1.63723418408E-03 +8.74970676885E-04 +3.64396464132E-01 -5.91057917963E-01
4.16000000000E+09 +1.87406188556E-01 -5.22403767968E-01 -1.54947536436E-03 +1.03487252031E-03 -1.59580520474E-03 +9.32250082394E-04 +3.45476460716E-01 -5.94805067839E-01
4.16500000000E+09 +1.70673689054E-01 -5.22016645886E-01 -1.37712117145E-03 +1.02735733439E-03 -1.43241304187E-03 +9.88577962912E-04 +3.26043826917E-01 -5.97639044953E-01
4.17000000000E+09 +1.54097223755E-01 -5.19692733963E-01 -1.39922149154E-03 +1.18854761610E-03 -1.50947850342E-03 +1.18853036287E-03 +3.05224030648E-01 -6.00051181323E-01
4.17500000000E+09 +1.38093980825E-01 -5.15901513251E-01 -1.14228160903E-03 +1.00618549360E-03 -1.18483304597E-03 +9.88105205190E-04 +2.83795834812E-01 -6.01494107430E-01
4.18000000000E+09 +1.20954520049E-01 -5.11123329429E-01 -1.49296314231E-03 +1.23993770976E-03 -1.55705350040E-03 +1.20044134052E-03 +2.62846666314E-01 -6.02736827960E-01
4.18500000000E+09 +1.03828656184E-01 -5.04784166948E-01 -1.12708287937E-03 +1.49577792341E-03 -1.18971296796E-03 +1.51464133410E-03 +2.42159068419E-01 -6.04271142973E-01
4.19000000000E+09 +8.58661149111E-02 -4.99323413662E-01 -1.16131715388E-03 +1.37190499900E-03 -1.24257118062E-03 +1.39906726482E-03 +2.20848344466E-01 -6.04384446429E-01
4.19500000000E+09 +6.64734272833E-02 -4.93616197381E-01 -1.30060264061E-03 +1.62012563596E-03 -1.39765940676E-03 +1.66094818102E-03 +2.00023956177E-01 -6.02979273804E-01
4.20000000000E+09 +4.77660597817E-02 -4.88299121968E-01 -9.79649188142E-04 +2.20974685183E-03 -1.09193522786E-03 +2.27637680118E-03 +1.78595712526E-01 -6.01122677913E-01
4.20500000000E+09 +2.87441721672E-02 -4.84229090518E-01 -4.94025672671E-04 +2.03293127438E-03 -5.43226111816E-04 +2.12014995132E-03 +1.57253466019E-01 -5.98511868037E-01
4.21000000000E+09 +9.86708149163E-03 -4.79567383566E-01 -6.07744789239E-04 +1.78761048660E-03 -6.37354607698E-04 +1.85492686801E-03 +1.35061780938E-01 -5.97367024907E-01
4.21500000000E+09 -7.88961968318E-03 -4.73489600028E-01 -4.51677202286E-04 +2.22683930087E-03 -4.72636464816E-04 +2.25653641635E-03 +1.11684018811E-01 -5.95200582348E-01
4.22000000000E+09 -2.37531254600E-02 -4.65992530188E-01 -6.83985765935E-05 +2.17591033593E-03 -1.18051609414E-04 +2.21087921286E-03 +8.90118997439E-02 -5.91528163987E-01
4.22500000000E+09 -3.88370479783E-02 -4.57174083038E-01 -1.79553975749E-04 +1.93389318715E-03 -1.40772755369E-04 +2.01606816188E-03 +6.71550993231E-02 -5.86980342491E-01
4.23000000000E+09 -5.36042146594E-02 -4.45874203585E-01 -1.52214474462E-04 +2.39960749324E-03 -1.75055355575E-04 +2.42321124146E-03 +4.54226974861E-02 -5.80559609824E-01
4.23500000000E+09 -6.71462064217E-02 -4.33620648206E-01 +2.12801355049E-04 +2.50859050085E-03 +2.55048901957E-04 +2.58708638873E-03 +2.38289011574E-02 -5.73532183887E-01
4.24000000000E+09 -8.25170107919E-02 -4.21116391830E-01 +5.50118452885E-04 +2.60699283789E-03 +5.84557658818E-04 +2.58792447738E-03 +1.50098221325E-03 -5.65389508572E-01
4.24500000000E+09 -1.00151885425E-01 -4.08010071653E-01 +1.04891178980E-03 +2.50247275048E-03 +1.10813280096E-03 +2.54236005150E-03 -2.03832413414E-02 -5.57069310724E-01
4.25000000000E+09 -1.18985388972E-01 -3.94027756476E-01 +9.26550512828E-04 +2.42572301289E-03 +9.96901702717E-04 +2.45308454383E-03 -4.25388257178E-02 -5.48482939214E-01
4.25500000000E+09 -1.38558002795E-01 -3.80914949916E-01 +1.75437574944E-03 +2.45651736185E-03 +1.77876356568E-03 +2.45388458214E-03 -6.37634532645E-02 -5.39402526533E-01
4.26000000000E+09 -1.59261449067E-01 -3.68441706984E-01 +1.83131921684E-03 +1.83521777160E-03 +1.79754151801E-03 +1.87142577009E-03 -8.54972287067E-02 -5.29131065972E-01
4.26500000000E+09 -1.78649209899E-01 -3.55180642973E-01 +1.51364496159E-03 +2.06110078713E-03 +1.50922571962E-03 +2.11873796708E-03 -1.06142709421E-01 -5.17129946024E-01
4.27000000000E+09 -1.95354116668E-01 -3.42831708616E-01 +2.25019836814E-03 +1.96921375438E-03 +2.29808119549E-03 +2.06741139990E-03 -1.27885817829E-01 -5.03911368397E-01
4.27500000000E+09 -2.10530142348E-01 -3.30928549745E-01 +2.28665066586E-03 +1.50432408563E-03 +2.31355013998E-03 +1.52950146637E-03 -1.48751496763E-01 -4.89276980674E-01
4.28000000000E+09 -2.24087192325E-01 -3.17877373904E-01 +2.38008887327E-03 +1.62501195974E-03 +2.44544846303E-03 +1.69339579259E-03 -1.69354413619E-01 -4.75378285686E-01
4.28500000000E+09 -2.35447643952E-01 -3.02721949719E-01 +2.81170104664E-03 +1.42843943580E-03 +2.81553007164E-03 +1.45050011456E-03 -1.90293978983E-01 -4.60542551963E-01
4.29000000000E+09 -2.45699380498E-01 -2.86922961155E-01 +3.16271098073E-03 +7.56756416928E-04 +3.20769266202E-03 +7.78071978020E-04 -2.09100572982E-01 -4.45456951052E-01
4.29500000000E+09 -2.57085668467E-01 -2.68933294873E-01 +2.79132559856E-03 +4.78759460068E-04 +2.85970304032E-03 +4.81543824990E-04 -2.28053304116E-01 -4.29473198905E-01
4.30000000000E+09 -2.67709665298E-01 -2.48349517473E-01 +2.88825191024E-03 +2.43855817239E-04 +2.94909785773E-03 +2.64415945249E-04 -2.44916922918E-01 -4.12635889606E-01
4.30500000000E+09 -2.78774953218E-01 -2.28073628434E-01 +2.83949836176E-03 -7.85328436984E-05 +2.91135669679E-03 -8.26643757442E-05 -2.63256625896E-01 -3.95142752025E-01
4.31000000000E+09 -2.90901194881E-01 -2.08274156010E-01 +2.47672555836E-03 +1.91631789859E-04 +2.52790862692E-03 +1.73672885867E-04 -2.80351347459E-01 -3.75277502504E-01
4.31500000000E+09 -3.03858668492E-01 -1.89294618164E-01 +3.26056487938E-03 +4.60539670659E-04 +3.32033251302E-03 +4.13621291061E-04 -2.97072184929E-01 -3.55899398985E-01
4.32000000000E+09 -3.16796267354E-01 -1.71276159225E-01 +3.96002832876E-03 -6.33871997625E-04 +4.06943755656E-03 -6.67025358987E-04 -3.13362225602E-01 -3.35540949547E-01
4.32500000000E+09 -3.27776549473E-01 -1.54137479447E-01 +3.11255372000E-03 -1.42276582635E-03 +3.18484332678E-03 -1.50836349356E-03 -3.27960010396E-01 -3.13771123177E-01
4.33000000000E+09 -3.37035377334E-01 -1.38770835828E-01 +3.15056836756E-03 -1.18234027922E-03 +3.20299468689E-03 -1.25289292581E-03 -3.40841591528E-01 -2.92010900511E-01
4.33500000000E+09 -3.43950423817E-01 -1.22046931558E-01 +3.28591650103E-03 -1.78729714740E-03 +3.25067809959E-03 -1.78675473988E-03 -3.53396845217E-01 -2.69172872699E-01
4.34000000000E+09 -3.46274256386E-01 -1.06138752564E-01 +3.04131460367E-03 -2.42901121112E-03 +3.01268884596E-03 -2.46003671060E-03 -3.65359003352E-01 -2.46157469284E-01
4.34500000000E+09 -3.48179286659E-01 -9.00337563801E-02 +2.55339171818E-03 -2.32762354637E-03 +2.57394713395E-03 -2.34902896362E-03 -3.77399398498E-01 -2.21981128010E-01
4.35000000000E+09 -3.48453955273E-01 -7.10086951870E-02 +2.67768337333E-03 -2.66670762296E-03 +2.76095379383E-03 -2.69438822327E-03 -3.88021926389E-01 -1.98523897459E-01
4.35500000000E+09 -3.48813113836E-01 -5.10223030993E-02 +2.42096673184E-03 -3.12717617967E-03 +2.43544692289E-03 -3.19288531745E-03 -3.98030792730E-01 -1.75494481825E-01
4.36000000000E+09 -3.49921637937E-01 -2.91507692758E-02 +2.03054838405E-03 -3.20606044163E-03 +2.04269925415E-03 -3.28079609863E-03 -4.07040215333E-01 -1.51914579638E-01
4.36500000000E+09 -3.52685143668E-01 -6.10627641275E-03 +2.17049081156E-03 -3.46432702942E-03 +2.16456370935E-03 -3.54085286426E-03 -4.14323033476E-01 -1.27119084492E-01
4.37000000000E+09 -3.56356599335E-01 +1.74324680250E-02 +1.94951321530E-03 -4.12294472554E-03 +1.86003190246E-03 -4.16595086497E-03 -4.19971722691E-01 -1.02604520981E-01
4.37500000000E+09 -3.60014817496E-01 +3.99800967721E-02 +1.25886256339E-03 -4.87229776287E-03 +1.25333697389E-03 -5.04854965090E-03 -4.25276611057E-01 -7.68157739028E-02
4.38000000000E+09 -3.64200474032E-01 +5.93193547790E-02 +2.95285668872E-04 -4.84371804002E-03 +2.23469365043E-04 -4.88521704224E-03 -4.28868630834E-01 -5.12589162910E-02
4.38500000000E+09 -3.68047426012E-01 +7.72166608995E-02 -2.74756342000E-04 -4.78341316856E-03 -3.57522260082E-04 -4.83981710982E-03 -4.31792304589E-01 -2.70354634528E-02
4.39000000000E+09 -3.70712467429E-01 +9.23455924818E-02 -1.00055033727E-03 -4.80987310414E-03 -1.07759796514E-03 -4.88759871673E-03 -4.35033253747E-01 -1.77688574826E-03
4.39500000000E+09 -3.71612422029E-01 +1.06712230981E-01 -1.60077303235E-03 -4.21498080839E-03 -1.70487330137E-03 -4.27809304809E-03 -4.35424682065E-01 +2.23201228170E-02
4.40000000000E+09 -3.70237453702E-01 +1.21359542852E-01 -1.56296560380E-03 -4.29338698925E-03 -1.64185298725E-03 -4.24749647546E-03 -4.36329920548E-01 +4.68934032489E-02
4.40500000000E+09 -3.65799583400E-01 +1.37434673300E-01 -2.50019886648E-03 -4.27722034682E-03 -2.57692446720E-03 -4.21842437943E-03 -4.35374806819E-01 +7.21599658421E-02
4.41000000000E+09 -3.59415949964E-01 +1.53047893771E-01 -2.72615039186E-03 -3.58667685530E-03 -2.76809231967E-03 -3.58101607952E-03 -4.33066893476E-01 +9.73259357125E-02
4.41500000000E+09 -3.53844609134E-01 +1.71029191766E-01 -3.07161375457E-03 -3.55698697934E-03 -3.18225358191E-03 -3.52611394688E-03 -4.30174834386E-01 +1.21036947472E-01
4.42000000000E+09 -3.48273397152E-01 +1.91408475231E-01 -3.32110552169E-03 -3.35913116305E-03 -3.42836598670E-03 -3.23290514168E-03 -4.27868676003E-01 +1.45388602230E-01
4.42500000000E+09 -3.43126760328E-01 +2.13234303740E-01 -3.96424346591E-03 -3.33986037799E-03 -4.02221466211E-03 -3.23612430490E-03 -4.22495712922E-01 +1.70156302220E-01
4.43000000000E+09 -3.38809948847E-01 +2.33903662078E-01 -4.85605573275E-03 -2.76549852175E-03 -4.80869897605E-03 -2.65133227345E-03 -4.17014785528E-01 +1.92318293707E-01
4.43500000000E+09 -3.36594893342E-01 +2.54107322912E-01 -5.07086697339E-03 -1.42304222478E-03 -5.03156075628E-03 -1.32835406097E-03 -4.10376467537E-01 +2.15728865962E-01
4.44000000000E+09 -3.34101936605E-01 +2.72932931421E-01 -4.78942275002E-03 -1.19807306263E-03 -4.72313182705E-03 -1.14037170044E-03 -4.02884238882E-01 +2.37668603103E-01
4.44500000000E+09 -3.31092889935E-01 +2.87653914330E-01 -4.88211798495E-03 -2.90225643380E-04 -4.87648238549E-03 -2.74395538711E-04 -3.95509846389E-01 +2.58818186222E-01
4.45000000000E+09 -3.28761654317E-01 +3.00477789422E-01 -4.36508634193E-03 -7.48630138109E-05 -4.36779544796E-03 +4.29966915547E-06 -3.87906369356E-01 +2.79739251237E-01
4.45500000000E+09 -3.24543130041E-01 +3.13004766378E-01 -4.52576716665E-03 -1.12651383710E-04 -4.55935923258E-03 -4.39198999010E-05 -3.80146194454E-01 +3.00154205542E-01
4.46000000000E+09 -3.18030105237E-01 +3.24419423452E-01 -5.03553397549E-03 +5.66205987120E-04 -4.99795063755E-03 +6.43390827683E-04 -3.70236487313E-01 +3.20024206635E-01
4.46500000000E+09 -3.09044979334E-01 +3.36924445208E-01 -4.72626014194E-03 +1.25926927459E-03 -4.64274273405E-03 +1.41113003935E-03 -3.60409508933E-01 +3.38899993472E-01
4.47000000000E+09 -2.98525954193E-01 +3.49878173572E-01 -4.71466411168E-03 +1.56538917162E-03 -4.67768662526E-03 +1.60564006101E-03 -3.48129758428E-01 +3.58471015856E-01
4.47500000000E+09 -2.86730371264E-01 +3.65629841275E-01 -4.71778691027E-03 +2.22680769717E-03 -4.66438461548E-03 +2.35115624308E-03 -3.36373693000E-01 +3.76073808953E-01
4.48000000000E+09 -2.74386022104E-01 +3.80347036569E-01 -4.38755643802E-03 +3.07284789131E-03 -4.30034621006E-03 +3.14314999300E-03 -3.24674339198E-01 +3.94500218803E-01
4.48500000000E+09 -2.65356520785E-01 +3.97098124050E-01 -3.63307164358E-03 +3.52957158548E-03 -3.48807157623E-03 +3.51212767933E-03 -3.12691618390E-01 +4.11005715209E-01
4.49000000000E+09 -2.56239023083E-01 +4.14476705841E-01 -3.29896732671E-03 +3.75424814080E-03 -3.20649684268E-03 +3.71527004772E-03 -3.01409637635E-01 +4.26858115716E-01
4.49500000000E+09 -2.48207109462E-01 +4.29805406426E-01 -2.85326552368E-03 +3.94386017986E-03 -2.73369829033E-03 +3.93496906814E-03 -2.89924999446E-01 +4.42432659769E-01
4.50000000000E+09 -2.42308801926E-01 +4.43355437232E-01 -2.56408694247E-03 +4.14756410489E-03 -2.52239221904E-03 +4.11145792855E-03 -2.76954331879E-01 +4.57608572335E-01
4.50500000000E+09 -2.36606480013E-01 +4.55014589889E-01 -2.18836594225E-03 +4.45511078427E-03 -2.14074510164E-03 +4.43691046732E-03 -2.63050640032E-01 +4.72577486967E-01
4.51000000000E+09 -2.29951147528E-01 +4.64269950341E-01 -1.91500923458E-03 +4.93822067701E-03 -1.77603514824E-03 +4.89781973634E-03 -2.49042143631E-01 +4.86395139691E-01
4.51500000000E+09 -2.21623249818E-01 +4.71863345600E-01 -1.06947029789E-03 +5.35288315313E-03 -9.23446633985E-04 +5.36670280755E-03 -2.35702511548E-01 +5.00300864799E-01
4.52000000000E+09 -2.11689066402E-01 +4.78231711690E-01 -8.91424717047E-05 +5.16113277700E-03 +7.97841177755E-06 +5.13702707466E-03 -2.21913384963E-01 +5.13521570805E-01
4.52500000000E+09 -1.99631489539E-01 +4.85001226697E-01 +5.06862930282E-05 +5.02095732869E-03 +1.41677518791E-04 +4.93395930476E-03 -2.07963460270E-01 +5.25162654138E-01
4.53000000000E+09 -1.86184465354E-01 +4.92903840877E-01 +8.05508429805E-04 +5.18996480836E-03 +9.61263929465E-04 +5.12555985929E-03 -1.93687925924E-01 +5.35859836601E-01
4.53500000000E+09 -1.70809974536E-01 +5.02962504703E-01 +1.43197280604E-03 +4.69395927432E-03 +1.45700036537E-03 +4.57168697525E-03 -1.79372426074E-01 +5.46084690667E-01
4.54000000000E+09 -1.54791921154E-01 +5.13313239429E-01 +1.82035485506E-03 +4.79522956118E-03 +1.89267678800E-03 +4.61457609235E-03 -1.64670912840E-01 +5.56941970319E-01
4.54500000000E+09 -1.40167787412E-01 +5.24045013304E-01 +2.60489104525E-03 +4.36243676216E-03 +2.61854047647E-03 +4.15787545500E-03 -1.49707273365E-01 +5.67371741102E-01
4.55000000000E+09 -1.27565629045E-01 +5.34258718238E-01 +2.70588113391E-03 +3.91405763054E-03 +2.69589670073E-03 +3.79562228184E-03 -1.34821909133E-01 +5.77860647414E-01
4.55500000000E+09 -1.18190986694E-01 +5.44171933016E-01 +3.29373088540E-03 +3.56521264851E-03 +3.25902452589E-03 +3.42819315445E-03 -1.20303936840E-01 +5.87295989762E-01
4.56000000000E+09 -1.09970406865E-01 +5.54581922493E-01 +3.58098068735E-03 +3.14110703924E-03 +3.56197372230E-03 +3.03768295904E-03 -1.06130754880E-01 +5.95999636494E-01
4.56500000000E+09 -1.01760352911E-01 +5.62976547248E-01 +3.82982543561E-03 +2.55478371660E-03 +3.80002302934E-03 +2.40472910123E-03 -9.11121574454E-02 +6.04653766792E-01
4.57000000000E+09 -9.23742633213E-02 +5.69426380860E-01 +3.74252460768E-03 +2.28014769344E-03 +3.68361361381E-03 +2.13160597887E-03 -7.58004640746E-02 +6.11625863039E-01
