# Hz S RI R 50
! CMT, C1220, 16058040, 17.2.0/1
! Date: 15/08/2018 12:42:38
! Data: Format (Calibration Info)
! Freq                      S11: Re/Im (F2)                       S21: Re/Im (F2)                       S12: Re/Im (F2)                       S22: Re/Im (F2)            
4.00000000000E+09 +6.59011371939E-01 -3.57279570899E-01 +1.70436919061E-03 -8.95659016964E-04 +1.74638134832E-03 -8.37870366336E-04 +7.86817811456E-01 -3.10985156023E-01
4.00500000000E+09 +6.50620735954E-01 -3.63035716928E-01 +1.46463040801E-03 -1.20112407698E-03 +1.52536537561E-03 -1.14813827933E-03 +7.78472078089E-01 -3.22254998927E-01
4.01000000000E+09 +6.41665202209E-01 -3.68713877296E-01 +1.21831342301E-03 -1.46035580401E-03 +1.24077440657E-03 -1.42341533497E-03 +7.70005203251E-01 -3.34024536820E-01
4.01500000000E+09 +6.31849768963E-01 -3.75168449916E-01 +8.73248265236E-04 -1.28994861433E-03 +9.79181126148E-04 -1.24710674014E-03 +7.61647283225E-01 -3.45349634903E-01
4.02000000000E+09 +6.21822274486E-01 -3.82592252189E-01 +9.74698527432E-04 -1.41855699014E-03 +1.07269206244E-03 -1.34370077203E-03 +7.52731674820E-01 -3.56088929769E-01
4.02500000000E+09 +6.11326874006E-01 -3.91891825437E-01 +8.76373059482E-04 -1.52073027742E-03 +9.45355177032E-04 -1.48775862478E-03 +7.43585221515E-01 -3.66702109156E-01
4.03000000000E+09 +6.00109673601E-01 -4.02497920575E-01 +7.25751311498E-04 -1.54661155449E-03 +8.10975347896E-04 -1.58003455546E-03 +7.33421672319E-01 -3.77402085187E-01
4.03500000000E+09 +5.88326781854E-01 -4.12852222484E-01 +6.02780466347E-04 -1.67665567708E-03 +7.47846880415E-04 -1.64998915895E-03 +7.22442249718E-01 -3.88437401224E-01
4.04000000000E+09 +5.77150935208E-01 -4.22689082443E-01 +3.79917602749E-04 -1.74047270224E-03 +4.98108258402E-04 -1.73018534334E-03 +7.11430945342E-01 -3.99810267354E-01
4.04500000000E+09 +5.66244732943E-01 -4.32485223139E-01 +3.04434523387E-04 -1.66996281234E-03 +4.02857155031E-04 -1.72196679845E-03 +7.00353259414E-01 -4.10796922809E-01
4.05000000000E+09 +5.54573525379E-01 -4.40419684887E-01 +2.20566576873E-04 -1.76633294388E-03 +3.24185355897E-04 -1.86127316526E-03 +6.89690079263E-01 -4.21324131624E-01
4.05500000000E+09 +5.43064614123E-01 -4.46666951200E-01 +1.23259838485E-04 -1.92895322506E-03 +2.47604440488E-04 -2.00823019900E-03 +6.78305623695E-01 -4.31014200949E-01
4.06000000000E+09 +5.31077738144E-01 -4.51993131476E-01 -2.53488903708E-04 -2.06323335266E-03 -2.04081329540E-04 -2.26343055045E-03 +6.67204496892E-01 -4.40055840700E-01
4.06500000000E+09 +5.17826896270E-01 -4.55916026337E-01 -5.13555339865E-04 -1.84867167345E-03 -4.20910649229E-04 -1.98344397876E-03 +6.55057257532E-01 -4.49648388811E-01
4.07000000000E+09 +5.04644052326E-01 -4.59945036228E-01 -4.97328204858E-04 -1.68535248766E-03 -4.90504725896E-04 -1.79711586365E-03 +6.42112715307E-01 -4.59490066236E-01
4.07500000000E+09 +4.90076003556E-01 -4.64922901102E-01 -5.93818307662E-04 -1.84311537247E-03 -6.08254426541E-04 -1.95874755270E-03 +6.28683269996E-01 -4.70218264380E-01
4.08000000000E+09 +4.74476123700E-01 -4.70032141028E-01 -8.88689916330E-04 -1.75704332121E-03 -8.77135474757E-04 -1.83980687521E-03 +6.15226506997E-01 -4.80057126603E-01
4.08500000000E+09 +4.58382256138E-01 -4.76496735577E-01 -8.92441231242E-04 -1.76183725824E-03 -8.62452758034E-04 -1.90940158187E-03 +6.02150529385E-01 -4.90065444554E-01
4.09000000000E+09 +4.41577351959E-01 -4.83129119834E-01 -1.24571208973E-03 -1.91766298820E-03 -1.30556026296E-03 -2.02366240066E-03 +5.88324122219E-01 -4.98758373437E-01
4.09500000000E+09 +4.25272568143E-01 -4.89598823735E-01 -1.61650958390E-03 -1.55082429321E-03 -1.68848277665E-03 -1.64253974792E-03 +5.74222555230E-01 -5.06974357281E-01
4.10000000000E+09 +4.08493076171E-01 -4.95883236061E-01 -1.48888864393E-03 -1.24716845756E-03 -1.57772693646E-03 -1.34632980479E-03 +5.58867491492E-01 -5.14711061687E-01
4.10500000000E+09 +3.91758164351E-01 -5.00428111528E-01 -1.53266554352E-03 -1.44436913936E-03 -1.58215500543E-03 -1.46368916218E-03 +5.43811708739E-01 -5.22758563427E-01
4.11000000000E+09 +3.75294644524E-01 -5.02645892626E-01 -2.06486383084E-03 -1.18383930512E-03 -2.08858919177E-03 -1.22408034716E-03 +5.27646595894E-01 -5.31589248359E-01
4.11500000000E+09 +3.60235229294E-01 -5.03933786084E-01 -1.86015195496E-03 -8.11520366764E-04 -1.90857757623E-03 -8.50245688893E-04 +5.11560108325E-01 -5.39819942081E-01
4.12000000000E+09 +3.44514117411E-01 -5.04789045587E-01 -1.96350881171E-03 -7.71329012213E-04 -1.96389019471E-03 -7.67076126198E-04 +4.95488175795E-01 -5.48258015589E-01
4.12500000000E+09 +3.27849931728E-01 -5.05764459759E-01 -1.96862544137E-03 -6.31697148024E-04 -1.94040849708E-03 -6.57889412745E-04 +4.78199972913E-01 -5.54957374376E-01
4.13000000000E+09 +3.10551413300E-01 -5.06717460550E-01 -1.97152921691E-03 -4.65967214503E-04 -1.94385212796E-03 -4.82001804226E-04 +4.61004307692E-01 -5.61123595997E-01
4.13500000000E+09 +2.91856239872E-01 -5.09360054403E-01 -1.74974958439E-03 -4.75353187969E-04 -1.71530819911E-03 -4.97750708900E-04 +4.42580883407E-01 -5.66753624181E-01
4.14000000000E+09 +2.71476410600E-01 -5.11936225599E-01 -2.19502303610E-03 -8.82659222429E-04 -2.17096205424E-03 -9.51097781401E-04 +4.24493266456E-01 -5.72654660097E-01
4.14500000000E+09 +2.51854035127E-01 -5.14551268876E-01 -2.89642336278E-03 -4.61871393636E-04 -2.93784801221E-03 -5.44596323958E-04 +4.05472642165E-01 -5.78955541994E-01
4.15000000000E+09 +2.32458046114E-01 -5.18223274668E-01 -2.87287697736E-03 +3.30164270092E-04 -2.98420079293E-03 +2.65660426307E-04 +3.87182856208E-01 -5.84172615703E-01
4.15500000000E+09 +2.12800912390E-01 -5.21151626341E-01 -2.62512634401E-03 +6.49705921074E-04 -2.79170388154E-03 +6.25218634595E-04 +3.69115776505E-01 -5.89157963182E-01
4.16000000000E+09 +1.94296142892E-01 -5.21906616007E-01 -2.44545352580E-03 +9.41977171845E-04 -2.51274628168E-03 +9.02002137942E-04 +3.50359187148E-01 -5.93021918629E-01
4.16500000000E+09 +1.77501441017E-01 -5.22130612223E-01 -2.24614661664E-03 +9.54952140894E-04 -2.27752499743E-03 +9.05567859826E-04 +3.30983282394E-01 -5.96026012066E-01
4.17000000000E+09 +1.60361666070E-01 -5.20191469397E-01 -2.33495325872E-03 +1.10108241553E-03 -2.42456526515E-03 +1.01261421104E-03 +3.10511133179E-01 -5.98500477934E-01
4.17500000000E+09 +1.44161563635E-01 -5.16233241436E-01 -2.37295962982E-03 +9.98373297662E-04 -2.48076589804E-03 +8.94682919602E-04 +2.89405014587E-01 -6.00242358922E-01
4.18000000000E+09 +1.27284203869E-01 -5.11930631474E-01 -2.63138988430E-03 +1.68129518501E-03 -2.85257513749E-03 +1.69047872771E-03 +2.68726708519E-01 -6.01990770925E-01
4.18500000000E+09 +1.10005259209E-01 -5.06403389455E-01 -2.07296438994E-03 +2.01717633743E-03 -2.24018418387E-03 +2.06846276885E-03 +2.47891388490E-01 -6.03974410394E-01
4.19000000000E+09 +9.16541997541E-02 -5.01158867183E-01 -2.17045536950E-03 +2.05934680190E-03 -2.32828561103E-03 +2.08942907489E-03 +2.26417473582E-01 -6.04636464956E-01
4.19500000000E+09 +7.26438836304E-02 -4.95573276734E-01 -2.23359110490E-03 +2.67098429918E-03 -2.40123900154E-03 +2.69255940483E-03 +2.05385346347E-01 -6.03597461266E-01
4.20000000000E+09 +5.39217658620E-02 -4.91177701458E-01 -1.32762717441E-03 +3.28883554697E-03 -1.56554483407E-03 +3.45173169673E-03 +1.83720851316E-01 -6.01992069695E-01
4.20500000000E+09 +3.45762141516E-02 -4.87378949273E-01 -6.90686530715E-04 +2.91715572773E-03 -8.12690784444E-04 +3.06063491908E-03 +1.62103250464E-01 -5.99442021285E-01
4.21000000000E+09 +1.59595762167E-02 -4.83158268359E-01 -9.08246295919E-04 +2.37493430252E-03 -9.58485710599E-04 +2.56650988680E-03 +1.39829069436E-01 -5.98504656166E-01
4.21500000000E+09 -2.14026191180E-03 -4.77836767620E-01 -8.92671294375E-04 +2.85317528188E-03 -9.26050111032E-04 +3.00162412395E-03 +1.16133178815E-01 -5.96366758534E-01
4.22000000000E+09 -1.86958341787E-02 -4.70464921204E-01 -6.36707583469E-04 +2.91854361345E-03 -6.10295903987E-04 +3.07473549451E-03 +9.32521602134E-02 -5.92627690767E-01
4.22500000000E+09 -3.39520586452E-02 -4.61589472850E-01 -7.02225527023E-04 +3.05044901137E-03 -6.73681645180E-04 +3.14534562590E-03 +7.12791943785E-02 -5.88099808292E-01
4.23000000000E+09 -4.83501778157E-02 -4.50479536156E-01 -2.76445038221E-04 +3.65840447034E-03 -2.38451463571E-04 +3.80069350793E-03 +4.94583360076E-02 -5.81270161852E-01
4.23500000000E+09 -6.21362059199E-02 -4.39203670649E-01 +2.97886104473E-04 +3.58571642528E-03 +3.53274401157E-04 +3.74272508410E-03 +2.80824024925E-02 -5.74468041297E-01
4.24000000000E+09 -7.81476772574E-02 -4.27148014661E-01 +6.62985650755E-04 +3.65420213108E-03 +7.72215294936E-04 +3.73764887128E-03 +5.89692575423E-03 -5.66247781317E-01
4.24500000000E+09 -9.59523497172E-02 -4.14188739913E-01 +1.18851529414E-03 +3.48696043497E-03 +1.25190612970E-03 +3.53034011105E-03 -1.57221174591E-02 -5.58041771468E-01
4.25000000000E+09 -1.15365467891E-01 -4.00895602534E-01 +1.17130290389E-03 +3.49707761639E-03 +1.28346897383E-03 +3.45267497784E-03 -3.75924600023E-02 -5.49824572422E-01
4.25500000000E+09 -1.35276056011E-01 -3.87915053064E-01 +1.81120051252E-03 +3.54507428001E-03 +1.91383849086E-03 +3.56270709560E-03 -5.90570923032E-02 -5.41070257111E-01
4.26000000000E+09 -1.55988341032E-01 -3.75740955963E-01 +2.17050691142E-03 +3.24228022810E-03 +2.22109904036E-03 +3.27460867117E-03 -8.04455743850E-02 -5.30836483806E-01
4.26500000000E+09 -1.75603436703E-01 -3.63122761468E-01 +2.11774009248E-03 +3.38741866325E-03 +2.17045671541E-03 +3.30281390503E-03 -1.01228582734E-01 -5.19570712105E-01
4.27000000000E+09 -1.92749422382E-01 -3.51454481016E-01 +3.12639600921E-03 +3.38353147708E-03 +3.13807186987E-03 +3.35803102474E-03 -1.23228934772E-01 -5.06422350590E-01
4.27500000000E+09 -2.08851053391E-01 -3.39783509651E-01 +3.48564967122E-03 +2.80984894653E-03 +3.44824309987E-03 +2.72730578001E-03 -1.44122065353E-01 -4.92433527070E-01
4.28000000000E+09 -2.22201179427E-01 -3.26580446095E-01 +3.75101045439E-03 +2.60159922894E-03 +3.72210976878E-03 +2.59796848443E-03 -1.65074358199E-01 -4.78681506925E-01
4.28500000000E+09 -2.33961444145E-01 -3.12293513687E-01 +4.38202547744E-03 +2.32678844704E-03 +4.26961049455E-03 +2.34905389219E-03 -1.86237453089E-01 -4.64062945513E-01
4.29000000000E+09 -2.45010476670E-01 -2.96578870703E-01 +4.86960164018E-03 +1.15875689001E-03 +4.87032720045E-03 +1.21949858300E-03 -2.05559523031E-01 -4.49207968828E-01
4.29500000000E+09 -2.56704213968E-01 -2.78568674752E-01 +4.23338627226E-03 +7.48529897141E-04 +4.19742664878E-03 +8.04974744468E-04 -2.24827132659E-01 -4.33184807604E-01
4.30000000000E+09 -2.67849261802E-01 -2.58036078558E-01 +4.61739631672E-03 +6.61526219660E-04 +4.63953611754E-03 +8.01628961701E-04 -2.42203372132E-01 -4.16020537211E-01
4.30500000000E+09 -2.79408353618E-01 -2.37566227686E-01 +4.85178557332E-03 -6.79193321155E-05 +4.96518751419E-03 +4.41800574513E-05 -2.60687058528E-01 -3.98259047981E-01
4.31000000000E+09 -2.91812345051E-01 -2.17357100969E-01 +4.43156777015E-03 -1.32698338986E-04 +4.56887872598E-03 -3.50180210686E-05 -2.77703809484E-01 -3.78251616855E-01
4.31500000000E+09 -3.05034556122E-01 -1.98394203998E-01 +5.28469253907E-03 -4.63403206074E-04 +5.47101153377E-03 -3.52635083659E-04 -2.94266165870E-01 -3.58697010859E-01
4.32000000000E+09 -3.18482540905E-01 -1.80322548990E-01 +5.53124302256E-03 -1.89287599921E-03 +5.67990600285E-03 -1.77225775357E-03 -3.10178387345E-01 -3.38377139662E-01
4.32500000000E+09 -3.30245472166E-01 -1.63283400118E-01 +4.53671558647E-03 -2.68600182676E-03 +4.73411146309E-03 -2.65570152848E-03 -3.24484870030E-01 -3.16778219049E-01
4.33000000000E+09 -3.40683460005E-01 -1.47462154444E-01 +4.36182324267E-03 -2.60271710236E-03 +4.54753870761E-03 -2.68829265219E-03 -3.37314602933E-01 -2.95298831539E-01
4.33500000000E+09 -3.47967360458E-01 -1.30419118769E-01 +4.27809398810E-03 -3.24967565433E-03 +4.43540220406E-03 -3.37608592286E-03 -3.49557427090E-01 -2.72730439537E-01
4.34000000000E+09 -3.51247039449E-01 -1.14213271104E-01 +3.71842517078E-03 -4.05964543387E-03 +3.81888484384E-03 -4.21170736516E-03 -3.61707981327E-01 -2.50343980202E-01
4.34500000000E+09 -3.53318833878E-01 -9.75281746327E-02 +2.97170094543E-03 -3.99779313115E-03 +3.07635675975E-03 -4.14175661319E-03 -3.73845768915E-01 -2.26225166680E-01
4.35000000000E+09 -3.53926035663E-01 -7.87068213363E-02 +3.05401455520E-03 -4.26222245794E-03 +3.06978641006E-03 -4.42637791183E-03 -3.84244091397E-01 -2.03108565483E-01
4.35500000000E+09 -3.54938955780E-01 -5.89270454974E-02 +2.45999664864E-03 -4.79265451257E-03 +2.47193123976E-03 -4.96557541069E-03 -3.94123333924E-01 -1.80901341176E-01
4.36000000000E+09 -3.56569159441E-01 -3.66688774200E-02 +1.82503990494E-03 -4.80329473189E-03 +1.76610669577E-03 -5.02783133337E-03 -4.04087362178E-01 -1.57876663371E-01
4.36500000000E+09 -3.59515129023E-01 -1.36259072476E-02 +1.85457577457E-03 -4.88620059867E-03 +1.72792039051E-03 -5.11507729988E-03 -4.11680781528E-01 -1.33340792298E-01
4.37000000000E+09 -3.63660776920E-01 +1.04595796004E-02 +1.46482441156E-03 -5.51798670267E-03 +1.28470512973E-03 -5.66899268380E-03 -4.18017571301E-01 -1.09063388333E-01
4.37500000000E+09 -3.67300184996E-01 +3.34103919801E-02 +7.07970585870E-04 -6.13594096340E-03 +4.62186216028E-04 -6.20736513036E-03 -4.23794277860E-01 -8.30664383394E-02
4.38000000000E+09 -3.71687838238E-01 +5.31147148209E-02 -2.43547617352E-04 -5.97693308067E-03 -4.80132006486E-04 -6.08988305316E-03 -4.27516189258E-01 -5.74830788449E-02
4.38500000000E+09 -3.76007287469E-01 +7.16834894975E-02 -1.01851748043E-03 -6.00041590900E-03 -1.19063475302E-03 -5.95045452800E-03 -4.30967810500E-01 -3.30259836126E-02
4.39000000000E+09 -3.78653530435E-01 +8.79175809585E-02 -1.76783373230E-03 -5.87292898856E-03 -1.98756995104E-03 -5.80433309159E-03 -4.34289042960E-01 -7.49910847479E-03
4.39500000000E+09 -3.79368035900E-01 +1.02446796647E-01 -2.54671753666E-03 -5.31717166702E-03 -2.74547543268E-03 -5.08158653710E-03 -4.34973033991E-01 +1.64501071512E-02
4.40000000000E+09 -3.77946665626E-01 +1.17333595801E-01 -2.66264373235E-03 -5.24089254537E-03 -2.73851577657E-03 -4.98955426930E-03 -4.35983013354E-01 +4.13960703969E-02
4.40500000000E+09 -3.74426580793E-01 +1.33156619328E-01 -3.64121522747E-03 -4.97479535762E-03 -3.65229173858E-03 -4.77771194267E-03 -4.34601575878E-01 +6.64436342235E-02
4.41000000000E+09 -3.68791338058E-01 +1.50208200784E-01 -3.81173409851E-03 -4.21370648188E-03 -3.77924197332E-03 -4.07122548798E-03 -4.32327247717E-01 +9.09366414676E-02
4.41500000000E+09 -3.63119149610E-01 +1.68522788210E-01 -4.30035598680E-03 -4.17716094297E-03 -4.25267281962E-03 -4.02456650738E-03 -4.30052982018E-01 +1.14785677949E-01
4.42000000000E+09 -3.57315150954E-01 +1.89230094165E-01 -4.73458478558E-03 -3.77489143772E-03 -4.63734694697E-03 -3.70467426015E-03 -4.27480875612E-01 +1.39074223817E-01
4.42500000000E+09 -3.52472714653E-01 +2.10797481449E-01 -5.44217112071E-03 -3.67852510181E-03 -5.35296588301E-03 -3.53945115117E-03 -4.22304919931E-01 +1.63403398079E-01
4.43000000000E+09 -3.48404339648E-01 +2.31885825036E-01 -6.34531273635E-03 -2.92128955663E-03 -6.24957688703E-03 -2.82950377570E-03 -4.17052445999E-01 +1.85452724294E-01
4.43500000000E+09 -3.46490558783E-01 +2.52358458386E-01 -6.58024676135E-03 -1.30384364909E-03 -6.52340821842E-03 -1.32930407897E-03 -4.10999250685E-01 +2.08074495607E-01
4.44000000000E+09 -3.44163114367E-01 +2.71845237674E-01 -6.38278888321E-03 -8.01591272748E-04 -6.26157928543E-03 -8.30581816262E-04 -4.04329475174E-01 +2.29920892567E-01
4.44500000000E+09 -3.41202603131E-01 +2.87755300016E-01 -6.17177323320E-03 +3.68006818210E-04 -6.17775183330E-03 +2.73850221034E-04 -3.97549768743E-01 +2.50948479607E-01
4.45000000000E+09 -3.38269264580E-01 +3.01322508505E-01 -5.64496033652E-03 +5.76416770620E-04 -5.67072665192E-03 +5.61974454443E-04 -3.90783080078E-01 +2.72059326451E-01
4.45500000000E+09 -3.33648486107E-01 +3.13690554316E-01 -5.79764062981E-03 +8.43289505499E-04 -5.84084827698E-03 +8.11493510396E-04 -3.83360958575E-01 +2.92875099249E-01
4.46000000000E+09 -3.27691551215E-01 +3.25459517966E-01 -5.79168586534E-03 +1.65927974654E-03 -5.90641614831E-03 +1.64562044329E-03 -3.73965536802E-01 +3.13048709324E-01
4.46500000000E+09 -3.18816146581E-01 +3.38565057198E-01 -5.52207505181E-03 +2.17906528734E-03 -5.59798623795E-03 +2.22925700667E-03 -3.64585513273E-01 +3.32527369277E-01
4.47000000000E+09 -3.08303478131E-01 +3.51974217675E-01 -5.46430529567E-03 +2.61471987714E-03 -5.51781791172E-03 +2.77317507921E-03 -3.52289098436E-01 +3.52539194072E-01
4.47500000000E+09 -2.96429084164E-01 +3.68069435784E-01 -5.41743986131E-03 +3.39660434022E-03 -5.42041077999E-03 +3.63074573057E-03 -3.40821200183E-01 +3.70166562851E-01
4.48000000000E+09 -2.83940565520E-01 +3.83353826368E-01 -4.80388114786E-03 +4.33175199082E-03 -4.70611194966E-03 +4.49323357066E-03 -3.29248163416E-01 +3.88968962270E-01
4.48500000000E+09 -2.74167612829E-01 +4.00154577207E-01 -3.88538178249E-03 +4.75922597079E-03 -3.78680132924E-03 +4.91131703187E-03 -3.17506151548E-01 +4.05491516518E-01
4.49000000000E+09 -2.64737380593E-01 +4.17330692735E-01 -3.27019803985E-03 +5.14189726745E-03 -3.13978078569E-03 +5.17466970168E-03 -3.06318637250E-01 +4.21747227535E-01
4.49500000000E+09 -2.56930383610E-01 +4.32854479621E-01 -2.52098843204E-03 +5.02725569773E-03 -2.42467781009E-03 +5.09701561263E-03 -2.94509252208E-01 +4.37753304674E-01
4.50000000000E+09 -2.50417343447E-01 +4.47102152954E-01 -2.28171792929E-03 +5.21677115575E-03 -2.14424966505E-03 +5.27392905586E-03 -2.81411567951E-01 +4.52696945999E-01
4.50500000000E+09 -2.44138030826E-01 +4.58683116198E-01 -1.74241142721E-03 +5.23261523607E-03 -1.61796959188E-03 +5.26317419515E-03 -2.68015879099E-01 +4.67731013553E-01
4.51000000000E+09 -2.37450735553E-01 +4.68409112290E-01 -1.58212244404E-03 +5.61840024405E-03 -1.34771519663E-03 +5.65352752800E-03 -2.54011097448E-01 +4.81667573576E-01
4.51500000000E+09 -2.28814516489E-01 +4.76288019087E-01 -7.46984770070E-04 +6.11777983586E-03 -4.91665243792E-04 +6.10445398205E-03 -2.41113011343E-01 +4.95425295910E-01
4.52000000000E+09 -2.18757191572E-01 +4.82971267916E-01 +2.22826093546E-04 +5.87895624808E-03 +4.48780767060E-04 +5.77670893169E-03 -2.27591002910E-01 +5.08744513496E-01
4.52500000000E+09 -2.06587279489E-01 +4.90381678079E-01 +4.88820890064E-04 +5.94492454580E-03 +7.09883551684E-04 +5.67502626294E-03 -2.13966796272E-01 +5.20635647502E-01
4.53000000000E+09 -1.92761540335E-01 +4.98378246795E-01 +1.49545566521E-03 +5.89917328825E-03 +1.66918624996E-03 +5.62747342152E-03 -2.00159596767E-01 +5.31708839731E-01
4.53500000000E+09 -1.77208409015E-01 +5.08366749315E-01 +2.07417592199E-03 +5.22612973316E-03 +2.21537250584E-03 +4.97797874903E-03 -1.85975911192E-01 +5.42482856088E-01
4.54000000000E+09 -1.61145181403E-01 +5.18913492451E-01 +2.47857166555E-03 +5.14766372022E-03 +2.51356795463E-03 +4.85233007105E-03 -1.71331282537E-01 +5.53456996501E-01
4.54500000000E+09 -1.46396181179E-01 +5.29952244015E-01 +3.16593748173E-03 +4.61379591310E-03 +3.15209275135E-03 +4.35333613329E-03 -1.56553255451E-01 +5.64379224180E-01
4.55000000000E+09 -1.33293415467E-01 +5.40536476613E-01 +3.10175425848E-03 +4.25111817959E-03 +3.00900356925E-03 +4.03717746575E-03 -1.41688616183E-01 +5.75114235658E-01
4.55500000000E+09 -1.23142208374E-01 +5.50690344499E-01 +3.82175166167E-03 +4.12997741112E-03 +3.65804202308E-03 +3.87540567870E-03 -1.27194984439E-01 +5.84995771712E-01
4.56000000000E+09 -1.14383333766E-01 +5.60836287092E-01 +4.26337594279E-03 +3.59638010893E-03 +4.08170887060E-03 +3.48078042721E-03 -1.13084536620E-01 +5.93914302240E-01
4.56500000000E+09 -1.06020949240E-01 +5.69136573766E-01 +4.67008122189E-03 +2.97500199355E-03 +4.45570385186E-03 +2.82981765633E-03 -9.80556457644E-02 +6.03076667892E-01
4.57000000000E+09 -9.66474610210E-02 +5.75599069782E-01 +4.70650658558E-03 +2.63713664533E-03 +4.49195685178E-03 +2.51538619476E-03 -8.24562089009E-02 +6.10541343426E-01
