# Hz S RI R 50
! CMT, C1220, 16058040, 17.2.0/1
! Date: 15/08/2018 12:38:07
! Data: Format (Calibration Info)
! Freq                      S11: Re/Im (F2)                       S21: Re/Im (F2)                       S12: Re/Im (F2)                       S22: Re/Im (F2)            
4.00000000000E+09 +6.56547103373E-01 -3.60680106576E-01 +1.21898411675E-03 -7.96897191780E-04 +1.28416090425E-03 -7.74923458721E-04 +7.85666015349E-01 -3.13992789520E-01
4.00500000000E+09 +6.48166579605E-01 -3.66503495905E-01 +1.04507624683E-03 -1.20754818889E-03 +1.11777063279E-03 -1.15555328456E-03 +7.77521179698E-01 -3.25302731894E-01
4.01000000000E+09 +6.39184376143E-01 -3.72181646972E-01 +7.11645895276E-04 -1.36009192444E-03 +7.48486970572E-04 -1.37763783794E-03 +7.69200428473E-01 -3.37311563301E-01
4.01500000000E+09 +6.29252636421E-01 -3.78786819776E-01 +3.57439383126E-04 -1.27286318296E-03 +3.88733331593E-04 -1.27123158808E-03 +7.60719795049E-01 -3.48510943716E-01
4.02000000000E+09 +6.19216480671E-01 -3.86104298957E-01 +4.02779606033E-04 -1.24530019209E-03 +4.99451762816E-04 -1.27176830909E-03 +7.51987095482E-01 -3.59544264170E-01
4.02500000000E+09 +6.08782529005E-01 -3.95198846221E-01 +2.35051553361E-04 -1.20285065613E-03 +3.45491093862E-04 -1.24246327143E-03 +7.42505067099E-01 -3.70353568258E-01
4.03000000000E+09 +5.97763349646E-01 -4.05579206506E-01 +1.69051110449E-04 -1.26965363546E-03 +2.45080490143E-04 -1.23509413464E-03 +7.32183749737E-01 -3.80838109096E-01
4.03500000000E+09 +5.86385207745E-01 -4.15905647395E-01 +2.65142173101E-05 -1.24900343481E-03 +5.27647343203E-05 -1.30241966891E-03 +7.21114602722E-01 -3.91924065110E-01
4.04000000000E+09 +5.75257411341E-01 -4.26117465974E-01 -8.87605764542E-05 -1.15381928844E-03 -2.23487163157E-05 -1.20046473771E-03 +7.10056202507E-01 -4.03104684465E-01
4.04500000000E+09 +5.64221618264E-01 -4.35893497633E-01 -2.98288856040E-05 -1.17574301160E-03 +6.87606746422E-05 -1.23604989084E-03 +6.99232842768E-01 -4.14124800554E-01
4.05000000000E+09 +5.52486404721E-01 -4.43804280078E-01 -1.78726081016E-04 -1.40147509199E-03 -1.34076101979E-04 -1.46937601555E-03 +6.88633522986E-01 -4.24946114110E-01
4.05500000000E+09 +5.40565640354E-01 -4.49842745633E-01 -2.96612706932E-04 -1.33529759299E-03 -2.60371994992E-04 -1.39791631015E-03 +6.77380753132E-01 -4.34773115077E-01
4.06000000000E+09 +5.28368495328E-01 -4.54706866620E-01 -5.94710511424E-04 -1.48903701547E-03 -5.70247157395E-04 -1.51598591600E-03 +6.66178763359E-01 -4.44226767175E-01
4.06500000000E+09 +5.15029304318E-01 -4.58387052941E-01 -8.40160656565E-04 -1.05057449530E-03 -7.92397254280E-04 -1.09223601969E-03 +6.53656926985E-01 -4.54189266379E-01
4.07000000000E+09 +5.01727301202E-01 -4.62327083319E-01 -5.86837492813E-04 -9.44521111206E-04 -6.08906725129E-04 -9.69629625828E-04 +6.40271875500E-01 -4.64148430802E-01
4.07500000000E+09 +4.86885607294E-01 -4.67334360716E-01 -6.72937632802E-04 -1.23378972265E-03 -6.53289259480E-04 -1.32497687688E-03 +6.26638174239E-01 -4.74647144153E-01
4.08000000000E+09 +4.70958226312E-01 -4.72436809846E-01 -9.89755413154E-04 -1.11325098558E-03 -9.12765822394E-04 -1.16266901311E-03 +6.13211784272E-01 -4.84659443939E-01
4.08500000000E+09 +4.54710618258E-01 -4.79142986187E-01 -9.49463979302E-04 -1.11313827620E-03 -9.48791916140E-04 -1.14820204490E-03 +5.99730290547E-01 -4.94664620665E-01
4.09000000000E+09 +4.37232097715E-01 -4.85946756926E-01 -1.31159552814E-03 -1.21812949099E-03 -1.32841254266E-03 -1.25256799706E-03 +5.85783260231E-01 -5.03377804840E-01
4.09500000000E+09 +4.20241317232E-01 -4.92343216861E-01 -1.71293284299E-03 -7.46486489458E-04 -1.70261302992E-03 -8.04309918752E-04 +5.71487409809E-01 -5.11722834150E-01
4.10000000000E+09 +4.03120205705E-01 -4.97999941700E-01 -1.41701602592E-03 -4.07168049249E-04 -1.41242958434E-03 -4.50775986765E-04 +5.55845810011E-01 -5.19724221282E-01
4.10500000000E+09 +3.86332988798E-01 -5.02081206888E-01 -1.50651317773E-03 -4.80645447505E-04 -1.55476557911E-03 -4.76947890253E-04 +5.40241229550E-01 -5.27821053146E-01
4.11000000000E+09 +3.70063617641E-01 -5.03952735615E-01 -1.65597985196E-03 -2.41524888506E-04 -1.71584146060E-03 -3.03917576061E-04 +5.23499344897E-01 -5.36469363895E-01
4.11500000000E+09 +3.54887573735E-01 -5.05082230919E-01 -1.43541914241E-03 +9.79923735079E-05 -1.54443138155E-03 +4.94770702070E-05 +5.07002006375E-01 -5.44389928800E-01
4.12000000000E+09 +3.39183820016E-01 -5.05819566285E-01 -1.36950473164E-03 +7.53716928785E-05 -1.37863257069E-03 -1.27269775154E-05 +4.90677973980E-01 -5.52289004719E-01
4.12500000000E+09 +3.22394832084E-01 -5.06797486984E-01 -1.40916164393E-03 +5.69018913186E-05 -1.47310356428E-03 +3.64856058596E-05 +4.73573335769E-01 -5.58938472300E-01
4.13000000000E+09 +3.04194800726E-01 -5.07558451667E-01 -1.46666443697E-03 +3.07192689883E-04 -1.50446646330E-03 +2.39296892772E-04 +4.55951833266E-01 -5.65205592638E-01
4.13500000000E+09 +2.85126169458E-01 -5.09563788355E-01 -1.20513305488E-03 +5.21130068545E-04 -1.25468722104E-03 +4.66011479192E-04 +4.37617258600E-01 -5.70622101932E-01
4.14000000000E+09 +2.64979138597E-01 -5.11739123178E-01 -1.28768344606E-03 +2.16338809522E-04 -1.35982072037E-03 +1.55361757612E-04 +4.19112593201E-01 -5.76693065850E-01
4.14500000000E+09 +2.45009368971E-01 -5.14187659206E-01 -1.68329622459E-03 +4.90137780978E-04 -1.69111897821E-03 +4.54665349996E-04 +3.99488808482E-01 -5.82793436107E-01
4.15000000000E+09 +2.25540189895E-01 -5.17634509086E-01 -1.35279862405E-03 +9.59225955775E-04 -1.43927946320E-03 +9.75657052440E-04 +3.81249447666E-01 -5.87729079436E-01
4.15500000000E+09 +2.05707923430E-01 -5.20332403850E-01 -1.12930668527E-03 +8.64203166196E-04 -1.15119877491E-03 +9.73115158724E-04 +3.62562804270E-01 -5.92845442796E-01
4.16000000000E+09 +1.87054990305E-01 -5.20843575736E-01 -1.08637638074E-03 +9.10772012130E-04 -1.16606379656E-03 +9.44752421372E-04 +3.43316140873E-01 -5.96020854951E-01
4.16500000000E+09 +1.69940683749E-01 -5.20710247260E-01 -9.63372289499E-04 +8.83426706597E-04 -9.77314030487E-04 +9.09877262355E-04 +3.23705645927E-01 -5.98654288073E-01
4.17000000000E+09 +1.52962977259E-01 -5.18075656151E-01 -1.00555089929E-03 +1.07891616929E-03 -1.00213110321E-03 +1.11049752134E-03 +3.03061425939E-01 -6.00771056083E-01
4.17500000000E+09 +1.37166937339E-01 -5.13635384384E-01 -8.26420832649E-04 +8.77318560821E-04 -7.99030334028E-04 +9.07706558152E-04 +2.81594705076E-01 -6.02210212377E-01
4.18000000000E+09 +1.20515141328E-01 -5.08800387478E-01 -1.07088027444E-03 +1.16981367751E-03 -1.11584899149E-03 +1.18342483528E-03 +2.60565410126E-01 -6.03477883431E-01
4.18500000000E+09 +1.03944846386E-01 -5.02582922406E-01 -7.15963349654E-04 +1.34276018650E-03 -7.50842027852E-04 +1.33689525535E-03 +2.39491674764E-01 -6.05039649176E-01
4.19000000000E+09 +8.62317781172E-02 -4.97307563779E-01 -8.68254919616E-04 +1.18587240119E-03 -9.37423387215E-04 +1.14811633728E-03 +2.17891062443E-01 -6.05062370542E-01
4.19500000000E+09 +6.72636756981E-02 -4.91727886176E-01 -9.64443150477E-04 +1.63500569684E-03 -1.10309229028E-03 +1.62671128097E-03 +1.96825787898E-01 -6.03143207460E-01
4.20000000000E+09 +4.87103082892E-02 -4.86845656731E-01 -4.86696888341E-04 +2.04030359969E-03 -5.31654884477E-04 +2.05106254070E-03 +1.75272641582E-01 -6.00980977318E-01
4.20500000000E+09 +2.93463811833E-02 -4.82563683829E-01 -9.83869130291E-05 +1.82131322458E-03 -6.35262258406E-05 +1.80479420143E-03 +1.53813474251E-01 -5.97856178048E-01
4.21000000000E+09 +1.09395611285E-02 -4.77587050439E-01 -2.18987680379E-04 +1.49699361579E-03 -3.14527911669E-04 +1.49317944535E-03 +1.31697132535E-01 -5.96394068907E-01
4.21500000000E+09 -6.81605293099E-03 -4.71477503772E-01 -9.49306960969E-05 +1.98175608157E-03 -1.56568437524E-04 +1.97545633260E-03 +1.08356580677E-01 -5.94004803137E-01
4.22000000000E+09 -2.23120928732E-02 -4.63424745597E-01 +4.13862924612E-04 +1.84550483111E-03 +3.32873753237E-04 +1.94870475349E-03 +8.57476882207E-02 -5.89964692022E-01
4.22500000000E+09 -3.67778728964E-02 -4.54549431927E-01 +3.27300798564E-04 +1.49766028812E-03 +3.03870289941E-04 +1.57194290825E-03 +6.40405448980E-02 -5.85120329902E-01
4.23000000000E+09 -5.08801194158E-02 -4.43655393646E-01 +4.38448920547E-04 +1.71927153246E-03 +4.17652152519E-04 +1.83193944387E-03 +4.26394933015E-02 -5.78294668654E-01
4.23500000000E+09 -6.46573731222E-02 -4.32203368260E-01 +4.97727591138E-04 +1.63321090736E-03 +5.23113156843E-04 +1.73405682202E-03 +2.10003640454E-02 -5.71084074298E-01
4.24000000000E+09 -8.03996099596E-02 -4.19937266899E-01 +5.97616410050E-04 +1.75993243891E-03 +5.93939318082E-04 +1.83648710541E-03 -9.88987184405E-04 -5.62536295436E-01
4.24500000000E+09 -9.83124194679E-02 -4.06696865895E-01 +1.03944595171E-03 +1.68304891350E-03 +1.12083018656E-03 +1.76530398567E-03 -2.27264752196E-02 -5.54155315045E-01
4.25000000000E+09 -1.17357068404E-01 -3.92575763561E-01 +8.27215403826E-04 +1.60632290363E-03 +9.32784433484E-04 +1.70030024160E-03 -4.48632512695E-02 -5.45332418494E-01
4.25500000000E+09 -1.36513573079E-01 -3.79215526966E-01 +1.45271820106E-03 +1.75254849156E-03 +1.56730561745E-03 +1.83412252657E-03 -6.56820658559E-02 -5.35657898414E-01
4.26000000000E+09 -1.56609083940E-01 -3.67096559459E-01 +1.58716323889E-03 +1.08484060086E-03 +1.71469414872E-03 +1.09756687538E-03 -8.64345295420E-02 -5.25439346271E-01
4.26500000000E+09 -1.75805077140E-01 -3.54376606177E-01 +1.08806299385E-03 +1.25125198960E-03 +1.12211581076E-03 +1.27656810547E-03 -1.06969585932E-01 -5.13613802418E-01
4.27000000000E+09 -1.92376385257E-01 -3.42334537105E-01 +1.67596626625E-03 +1.46509598177E-03 +1.70686213019E-03 +1.39630904421E-03 -1.28136368353E-01 -5.00477755844E-01
4.27500000000E+09 -2.07900775125E-01 -3.30871752763E-01 +1.63585165324E-03 +1.17791118180E-03 +1.69051478501E-03 +1.11265288649E-03 -1.49159641736E-01 -4.86402368646E-01
4.28000000000E+09 -2.21139490175E-01 -3.17677641355E-01 +1.93853632354E-03 +1.43264366282E-03 +1.97664972074E-03 +1.36726036834E-03 -1.69938600738E-01 -4.72242720353E-01
4.28500000000E+09 -2.32640445592E-01 -3.02703786018E-01 +2.42021722201E-03 +1.17812498422E-03 +2.50574574185E-03 +1.09686870451E-03 -1.90718354228E-01 -4.57235916018E-01
4.29000000000E+09 -2.42873562684E-01 -2.86660773556E-01 +2.62833552029E-03 +3.70951285352E-04 +2.66439322632E-03 +3.59793834376E-04 -2.09283436451E-01 -4.41794481034E-01
4.29500000000E+09 -2.53796924192E-01 -2.68692019962E-01 +2.10967810544E-03 +3.10180924321E-04 +2.08720766301E-03 +2.59146999442E-04 -2.27649428582E-01 -4.25940432289E-01
4.30000000000E+09 -2.64464932172E-01 -2.48748300296E-01 +2.51842260106E-03 +1.36113915851E-04 +2.52315118680E-03 +1.76769317889E-04 -2.44044836463E-01 -4.09136224179E-01
4.30500000000E+09 -2.75661933711E-01 -2.28551603508E-01 +2.42127510158E-03 -2.53269883526E-04 +2.42743168449E-03 -2.85518380623E-04 -2.62163891768E-01 -3.91916764469E-01
4.31000000000E+09 -2.87803408011E-01 -2.09057140634E-01 +2.07537806921E-03 +1.11954915923E-04 +2.06833026354E-03 +1.29616101219E-04 -2.79182057921E-01 -3.72299440262E-01
4.31500000000E+09 -3.01009053821E-01 -1.90316325133E-01 +2.92506899083E-03 +1.60514179769E-04 +2.95249598917E-03 +2.06268962276E-04 -2.95803139581E-01 -3.53003946488E-01
4.32000000000E+09 -3.13984603115E-01 -1.72486252816E-01 +3.27863065038E-03 -9.17525251415E-04 +3.37667950864E-03 -9.57240391863E-04 -3.11898392012E-01 -3.32737891834E-01
4.32500000000E+09 -3.25176337125E-01 -1.55626083760E-01 +2.58811761589E-03 -1.37829641824E-03 +2.60093585237E-03 -1.36295515186E-03 -3.26231840347E-01 -3.11099395751E-01
4.33000000000E+09 -3.34690001859E-01 -1.40288592754E-01 +2.90124014369E-03 -1.39201699074E-03 +2.94554560251E-03 -1.41425121189E-03 -3.38950090958E-01 -2.89464479287E-01
4.33500000000E+09 -3.41357380637E-01 -1.23576287593E-01 +2.64421550697E-03 -2.19152027916E-03 +2.67354139861E-03 -2.15122464348E-03 -3.50957477345E-01 -2.66859651998E-01
4.34000000000E+09 -3.43554983343E-01 -1.08066642710E-01 +2.04493898239E-03 -2.68397221313E-03 +2.09996155566E-03 -2.70573101978E-03 -3.62770501108E-01 -2.44186429467E-01
4.34500000000E+09 -3.45550110974E-01 -9.24888296559E-02 +1.48078156847E-03 -2.28792497124E-03 +1.52965106836E-03 -2.31426239941E-03 -3.74517622626E-01 -2.20317976817E-01
4.35000000000E+09 -3.46165620823E-01 -7.36766282434E-02 +1.69605330914E-03 -2.31860881308E-03 +1.72649442241E-03 -2.41637519717E-03 -3.84960681840E-01 -1.97592165062E-01
4.35500000000E+09 -3.46859321731E-01 -5.39327640842E-02 +1.50230029545E-03 -2.64260538274E-03 +1.61409163894E-03 -2.67217299715E-03 -3.95265598330E-01 -1.75227217841E-01
4.36000000000E+09 -3.48199274838E-01 -3.17333722206E-02 +1.36219411185E-03 -2.69178907700E-03 +1.37728478440E-03 -2.80573797005E-03 -4.04938217232E-01 -1.51926419188E-01
4.36500000000E+09 -3.50875739403E-01 -8.61989308093E-03 +1.50712305459E-03 -2.98135698823E-03 +1.49980972566E-03 -3.15674752903E-03 -4.12250382282E-01 -1.27211718352E-01
4.37000000000E+09 -3.54700732622E-01 +1.49504345224E-02 +1.02406778452E-03 -3.67146608175E-03 +9.62199950322E-04 -3.76832973495E-03 -4.17851487071E-01 -1.02960596998E-01
4.37500000000E+09 -3.58211235799E-01 +3.74994244304E-02 +3.58303497483E-04 -4.08337765903E-03 +3.27675739701E-04 -4.20861670966E-03 -4.23325172844E-01 -7.72880434195E-02
4.38000000000E+09 -3.62515010440E-01 +5.64887278876E-02 -3.93956826032E-04 -3.83086108131E-03 -5.23757952317E-04 -3.96879292855E-03 -4.26973721755E-01 -5.23322792246E-02
4.38500000000E+09 -3.66797993506E-01 +7.43416622110E-02 -8.51009365314E-04 -3.51806879778E-03 -9.94501415991E-04 -3.55479747086E-03 -4.30563295474E-01 -2.79526358430E-02
4.39000000000E+09 -3.69542259973E-01 +8.98498516904E-02 -1.07974829517E-03 -3.48106783797E-03 -1.23103110790E-03 -3.55016590631E-03 -4.33968797039E-01 -3.12709400825E-03
4.39500000000E+09 -3.70289671057E-01 +1.03834723487E-01 -1.51954580751E-03 -3.08600778773E-03 -1.58883533334E-03 -3.08644199139E-03 -4.35127317259E-01 +2.08702322954E-02
4.40000000000E+09 -3.69307109447E-01 +1.18308174188E-01 -1.44292811120E-03 -3.21231740973E-03 -1.50406442595E-03 -3.15198351316E-03 -4.36176083949E-01 +4.57133213449E-02
4.40500000000E+09 -3.65268882870E-01 +1.34156660231E-01 -2.17153974001E-03 -3.27322723914E-03 -2.21392010228E-03 -3.18004063693E-03 -4.35435982673E-01 +7.10805264113E-02
4.41000000000E+09 -3.59345123757E-01 +1.50297693067E-01 -2.30032447286E-03 -2.81390255782E-03 -2.37784533529E-03 -2.73450820422E-03 -4.33434191190E-01 +9.61652587571E-02
4.41500000000E+09 -3.53383086270E-01 +1.68255105391E-01 -2.76681297451E-03 -2.72656574416E-03 -2.80391441254E-03 -2.65700698948E-03 -4.30719220382E-01 +1.20762880525E-01
4.42000000000E+09 -3.47959563178E-01 +1.88075722333E-01 -3.04512932721E-03 -2.39433730723E-03 -3.07148598933E-03 -2.34140199063E-03 -4.28184812822E-01 +1.44843324565E-01
4.42500000000E+09 -3.43312665294E-01 +2.09762962165E-01 -3.43362189748E-03 -2.39407519991E-03 -3.43100065588E-03 -2.24630708936E-03 -4.22969962352E-01 +1.69318434673E-01
4.43000000000E+09 -3.39212377772E-01 +2.30241605730E-01 -4.03298542696E-03 -2.04185516953E-03 -3.98267756095E-03 -1.89448064154E-03 -4.17913822190E-01 +1.91284459035E-01
4.43500000000E+09 -3.37789758678E-01 +2.50536043663E-01 -4.21681870301E-03 -8.60878233108E-04 -4.16744294793E-03 -8.02277179999E-04 -4.11801272108E-01 +2.14762980574E-01
4.44000000000E+09 -3.35363595889E-01 +2.69919287377E-01 -3.94892482248E-03 -7.62860297041E-04 -3.90987125181E-03 -6.76731843727E-04 -4.04719482134E-01 +2.37196852685E-01
4.44500000000E+09 -3.32163354952E-01 +2.85177592689E-01 -4.13904117406E-03 -1.88971909476E-04 -4.08762573758E-03 -1.38648422088E-04 -3.97486060704E-01 +2.58834612963E-01
4.45000000000E+09 -3.29405083395E-01 +2.97987222882E-01 -3.96134881155E-03 +1.78723227511E-04 -3.98375727940E-03 +2.21273293230E-04 -3.89940716045E-01 +2.80148648868E-01
4.45500000000E+09 -3.25254504089E-01 +3.10107165800E-01 -4.07930031266E-03 +4.65302100328E-04 -4.01362311506E-03 +5.01025651351E-04 -3.82045265103E-01 +3.01011044068E-01
4.46000000000E+09 -3.19307969544E-01 +3.21572068262E-01 -4.19203650017E-03 +1.05678229945E-03 -4.18208876029E-03 +1.15943390657E-03 -3.72062056603E-01 +3.21006097919E-01
4.46500000000E+09 -3.10744595337E-01 +3.34554880385E-01 -3.77410894834E-03 +1.60184096318E-03 -3.81427220217E-03 +1.65642510941E-03 -3.62305669899E-01 +3.40077311059E-01
4.47000000000E+09 -3.00017667918E-01 +3.48008243911E-01 -3.75543280715E-03 +1.83820524619E-03 -3.72784821186E-03 +1.93718579528E-03 -3.49917455449E-01 +3.59714703072E-01
4.47500000000E+09 -2.88268607882E-01 +3.63864580724E-01 -3.66991256564E-03 +2.41887241741E-03 -3.67645821945E-03 +2.49359322756E-03 -3.38390907108E-01 +3.77398877809E-01
4.48000000000E+09 -2.76095052371E-01 +3.78909224611E-01 -3.25394285571E-03 +2.91658156205E-03 -3.17144435665E-03 +2.92311751682E-03 -3.26814835924E-01 +3.96219945274E-01
4.48500000000E+09 -2.66784053703E-01 +3.95611935256E-01 -2.82849051621E-03 +3.16840351165E-03 -2.79067123923E-03 +3.17293836978E-03 -3.14790972407E-01 +4.13473024692E-01
4.49000000000E+09 -2.57917623594E-01 +4.12878570240E-01 -2.43167549690E-03 +3.65966843815E-03 -2.37603690591E-03 +3.64900967285E-03 -3.02809436669E-01 +4.29971394314E-01
4.49500000000E+09 -2.50232842506E-01 +4.28215891786E-01 -1.95467532751E-03 +3.68556493352E-03 -1.87921199547E-03 +3.68651620051E-03 -2.90731350705E-01 +4.45320499370E-01
4.50000000000E+09 -2.44198067638E-01 +4.42082208609E-01 -1.57289593003E-03 +3.97356993336E-03 -1.53382715324E-03 +4.01606179911E-03 -2.77803923270E-01 +4.60482409896E-01
4.50500000000E+09 -2.38666173756E-01 +4.53555326779E-01 -9.66318127887E-04 +3.98463483419E-03 -9.11121245054E-04 +3.97493688513E-03 -2.63729578079E-01 +4.75570092166E-01
4.51000000000E+09 -2.32123109410E-01 +4.63232291782E-01 -8.34107982048E-04 +4.07271061246E-03 -7.79520161295E-04 +4.12038319171E-03 -2.49498790995E-01 +4.89359634372E-01
4.51500000000E+09 -2.23662786098E-01 +4.71086209283E-01 -1.45855481891E-04 +4.39022696940E-03 -7.47821080080E-05 +4.37953411257E-03 -2.36015606242E-01 +5.03472842119E-01
4.52000000000E+09 -2.13649404057E-01 +4.77609646772E-01 +5.04144502997E-04 +4.00640754784E-03 +6.14946591032E-04 +3.97218188548E-03 -2.21918864392E-01 +5.16830858938E-01
4.52500000000E+09 -2.01310541577E-01 +4.84853567183E-01 +4.46940930321E-04 +3.98804014412E-03 +5.80583521410E-04 +3.90393537983E-03 -2.07532062369E-01 +5.28560602723E-01
4.53000000000E+09 -1.87492454358E-01 +4.92722326421E-01 +1.14103376012E-03 +4.12101493447E-03 +1.22488558499E-03 +3.99678764963E-03 -1.93236435038E-01 +5.39252410940E-01
4.53500000000E+09 -1.72298224692E-01 +5.02414713173E-01 +1.55372731017E-03 +3.70575197062E-03 +1.66940602734E-03 +3.58889419609E-03 -1.78362515741E-01 +5.49607949891E-01
4.54000000000E+09 -1.56755291764E-01 +5.13129291830E-01 +1.95355033202E-03 +3.64125957178E-03 +1.99181546961E-03 +3.56754711058E-03 -1.63505736327E-01 +5.59936918176E-01
4.54500000000E+09 -1.42120372485E-01 +5.24434591652E-01 +2.50231789989E-03 +3.17869149874E-03 +2.54111269551E-03 +3.02949555235E-03 -1.48351292804E-01 +5.70328662147E-01
4.55000000000E+09 -1.29346837468E-01 +5.34928947511E-01 +2.50998106113E-03 +2.89407685261E-03 +2.44276083126E-03 +2.74458077962E-03 -1.33318270006E-01 +5.80599925224E-01
4.55500000000E+09 -1.19491693351E-01 +5.45107580880E-01 +2.93909929652E-03 +2.58817157521E-03 +2.84246129879E-03 +2.45482870122E-03 -1.18648153632E-01 +5.90035949802E-01
4.56000000000E+09 -1.11072172917E-01 +5.54907621003E-01 +3.07183127892E-03 +2.17837516692E-03 +3.05686832369E-03 +2.05745243289E-03 -1.04349506833E-01 +5.98549876873E-01
4.56500000000E+09 -1.03134386942E-01 +5.63011719148E-01 +3.14088782928E-03 +1.85831777327E-03 +3.11054269259E-03 +1.73096972251E-03 -8.90605596248E-02 +6.07311737448E-01
4.57000000000E+09 -9.40996411006E-02 +5.69411279705E-01 +3.25996777967E-03 +1.80035185587E-03 +3.18262919304E-03 +1.65565428304E-03 -7.34833359611E-02 +6.14170199729E-01
