# Hz S RI R 50
! CMT, C1220, 16058040, 17.2.0/1
! Date: 15/08/2018 12:41:38
! Data: Format (Calibration Info)
! Freq                      S11: Re/Im (F2)                       S21: Re/Im (F2)                       S12: Re/Im (F2)                       S22: Re/Im (F2)            
4.00000000000E+09 +6.59326649012E-01 -3.58659990192E-01 +9.79187004130E-04 -1.14562437499E-03 +1.09216658740E-03 -1.16659461960E-03 +7.87234132836E-01 -3.12216586577E-01
4.00500000000E+09 +6.50899944127E-01 -3.64416818662E-01 +7.12838800937E-04 -1.35055990801E-03 +7.48207579289E-04 -1.34754290221E-03 +7.79102026816E-01 -3.23647432401E-01
4.01000000000E+09 +6.41859559178E-01 -3.70196157945E-01 +3.93079943602E-04 -1.51835613418E-03 +4.56881450813E-04 -1.51643376069E-03 +7.70717752171E-01 -3.35632458468E-01
4.01500000000E+09 +6.31951427615E-01 -3.76744480739E-01 +7.73941712123E-05 -1.28821892889E-03 +1.49882189402E-04 -1.34255217538E-03 +7.62266972847E-01 -3.46996385285E-01
4.02000000000E+09 +6.22066835093E-01 -3.83978114843E-01 +1.53449749795E-04 -1.31000870275E-03 +1.88977157868E-04 -1.30136244013E-03 +7.53426055510E-01 -3.57984615424E-01
4.02500000000E+09 +6.11699305999E-01 -3.93160916550E-01 +4.79982050194E-05 -1.26550934734E-03 +4.03701968353E-05 -1.26559502368E-03 +7.43978831977E-01 -3.68665974006E-01
4.03000000000E+09 +6.00661583773E-01 -4.03741776356E-01 -4.55403034240E-05 -1.31553432908E-03 -1.25128289139E-05 -1.28099988901E-03 +7.33844256606E-01 -3.79253709844E-01
4.03500000000E+09 +5.89103547835E-01 -4.14453757306E-01 -2.11444479176E-04 -1.38596262488E-03 -1.75246784925E-04 -1.37181690598E-03 +7.22859016476E-01 -3.90469691510E-01
4.04000000000E+09 +5.77778579457E-01 -4.24560670382E-01 -3.15723198242E-04 -1.27607644404E-03 -2.97206301665E-04 -1.31489085125E-03 +7.11927847711E-01 -4.01912504789E-01
4.04500000000E+09 +5.66658883092E-01 -4.34171233277E-01 -4.61744746860E-04 -1.23978356494E-03 -3.51849886396E-04 -1.33040987876E-03 +7.00920892448E-01 -4.13059349703E-01
4.05000000000E+09 +5.55016518872E-01 -4.42204954875E-01 -5.68072628923E-04 -1.33612992036E-03 -5.91307634952E-04 -1.41536523592E-03 +6.90203467635E-01 -4.23837649478E-01
4.05500000000E+09 +5.43188414331E-01 -4.48428524329E-01 -6.75912352914E-04 -1.17733859553E-03 -6.80143351946E-04 -1.23475646558E-03 +6.78817375009E-01 -4.33622291352E-01
4.06000000000E+09 +5.31325317602E-01 -4.53552341916E-01 -9.33878281433E-04 -1.26159237998E-03 -8.95821952666E-04 -1.30178455812E-03 +6.67554597311E-01 -4.43106086400E-01
4.06500000000E+09 +5.18266908288E-01 -4.57839896508E-01 -1.12867355260E-03 -9.75784903961E-04 -1.04725453251E-03 -1.02630201800E-03 +6.55132578081E-01 -4.52874840433E-01
4.07000000000E+09 +5.04686965231E-01 -4.61932319991E-01 -1.00265922351E-03 -7.60054253058E-04 -9.45221321804E-04 -8.55798220157E-04 +6.41782613541E-01 -4.62851163220E-01
4.07500000000E+09 +4.90024642555E-01 -4.66884587601E-01 -1.05494930831E-03 -9.45968279473E-04 -1.01817300487E-03 -1.00171850489E-03 +6.28048053281E-01 -4.73483667883E-01
4.08000000000E+09 +4.74510791257E-01 -4.72094600811E-01 -1.32036949956E-03 -7.21337555577E-04 -1.32057623402E-03 -8.28212716660E-04 +6.14534899054E-01 -4.83402080513E-01
4.08500000000E+09 +4.58255697762E-01 -4.78878132071E-01 -1.23761799690E-03 -5.66574451356E-04 -1.23601404192E-03 -6.64854655552E-04 +6.01138449150E-01 -4.93335486064E-01
4.09000000000E+09 +4.41085048916E-01 -4.85440666520E-01 -1.47384925007E-03 -6.69364563723E-04 -1.50134880350E-03 -7.67791826272E-04 +5.87277335694E-01 -5.02035025091E-01
4.09500000000E+09 +4.24463196396E-01 -4.91952828395E-01 -1.74031358630E-03 -2.28710671964E-04 -1.84242785235E-03 -2.23143014938E-04 +5.72953664132E-01 -5.10409874830E-01
4.10000000000E+09 +4.07658271241E-01 -4.97932335009E-01 -1.47132169476E-03 +1.86337017585E-04 -1.52709387450E-03 +1.22896334163E-04 +5.57221896720E-01 -5.18199510321E-01
4.10500000000E+09 +3.90857278585E-01 -5.02440365901E-01 -1.32808340855E-03 +1.40636710675E-04 -1.38305172400E-03 +1.17564939115E-04 +5.41613310985E-01 -5.26151507786E-01
4.11000000000E+09 +3.74337867824E-01 -5.04662686663E-01 -1.40196301732E-03 +2.31156268977E-04 -1.43776812342E-03 +2.29010600860E-04 +5.25181560680E-01 -5.34657697668E-01
4.11500000000E+09 +3.58965521638E-01 -5.06061010522E-01 -1.16314522067E-03 +4.05771884376E-04 -1.21174024982E-03 +3.93685683568E-04 +5.08984894765E-01 -5.42558747445E-01
4.12000000000E+09 +3.43005032985E-01 -5.06969927775E-01 -1.16650965706E-03 +3.31955990089E-04 -1.22122035999E-03 +3.55259790347E-04 +4.92844997357E-01 -5.50633240123E-01
4.12500000000E+09 +3.26001305207E-01 -5.07989128497E-01 -1.18052252475E-03 +4.33470438172E-04 -1.19832228199E-03 +4.36328632123E-04 +4.75525365683E-01 -5.57428763765E-01
4.13000000000E+09 +3.07999378668E-01 -5.08690223974E-01 -1.15465679780E-03 +5.90237485240E-04 -1.26229261162E-03 +5.85768170683E-04 +4.58084055638E-01 -5.63583064648E-01
4.13500000000E+09 +2.89498861493E-01 -5.10849740760E-01 -8.05682215862E-04 +7.90167220425E-04 -8.91981114672E-04 +7.93410442584E-04 +4.39591453774E-01 -5.69069472235E-01
4.14000000000E+09 +2.69439513505E-01 -5.13732529547E-01 -9.41039313005E-04 +4.02727317426E-04 -9.03833305147E-04 +4.00614690603E-04 +4.21146681737E-01 -5.74880923602E-01
4.14500000000E+09 +2.49258248298E-01 -5.16466806040E-01 -1.31242065521E-03 +6.53471926180E-04 -1.32681607044E-03 +6.18597988756E-04 +4.01726435885E-01 -5.80726371152E-01
4.15000000000E+09 +2.29833261122E-01 -5.20013707244E-01 -9.84122254347E-04 +1.06572628511E-03 -9.69750049557E-04 +1.10515316618E-03 +3.83557254598E-01 -5.85574745383E-01
4.15500000000E+09 +2.09910280384E-01 -5.23012278287E-01 -8.56230864924E-04 +9.91822777795E-04 -8.36304012302E-04 +9.55590187987E-04 +3.65314511220E-01 -5.90531649181E-01
4.16000000000E+09 +1.90868489389E-01 -5.23466969427E-01 -7.64238690027E-04 +1.00713739057E-03 -7.24504364259E-04 +1.00956340704E-03 +3.46424788889E-01 -5.93722084456E-01
4.16500000000E+09 +1.74006190115E-01 -5.23167170740E-01 -7.01684178795E-04 +9.67061265575E-04 -6.76626675070E-04 +8.96963400812E-04 +3.27161570417E-01 -5.96604206009E-01
4.17000000000E+09 +1.57315430489E-01 -5.20830742793E-01 -8.48895985284E-04 +1.15905305825E-03 -8.00553200508E-04 +1.10224708073E-03 +3.06674008450E-01 -5.98756134412E-01
4.17500000000E+09 +1.41054398150E-01 -5.17132062514E-01 -5.63676272157E-04 +1.10227844355E-03 -5.26479224528E-04 +1.04450894491E-03 +2.85615421605E-01 -6.00422441415E-01
4.18000000000E+09 +1.23946298212E-01 -5.12529370343E-01 -6.89205847178E-04 +1.35226438549E-03 -7.28997527353E-04 +1.25671047508E-03 +2.64765606607E-01 -6.01765808486E-01
4.18500000000E+09 +1.06828883052E-01 -5.06457708163E-01 -2.37523271567E-04 +1.45640539109E-03 -2.92637722552E-04 +1.46745335914E-03 +2.44038483777E-01 -6.03474105876E-01
4.19000000000E+09 +8.87797575446E-02 -5.01407983982E-01 -2.63407346013E-04 +1.27392602025E-03 -3.47521836565E-04 +1.30863888686E-03 +2.22666929107E-01 -6.03441106549E-01
4.19500000000E+09 +6.94805247068E-02 -4.96026463710E-01 -2.65112042986E-04 +1.45224544934E-03 -4.16807291671E-04 +1.51467296928E-03 +2.01833401994E-01 -6.02115679491E-01
4.20000000000E+09 +5.05692143986E-02 -4.91177060634E-01 +4.62433509691E-05 +1.78391744709E-03 -3.41909033561E-05 +1.82901522824E-03 +1.80670587867E-01 -6.00504330565E-01
4.20500000000E+09 +3.12743905028E-02 -4.87115959473E-01 +5.54086842578E-04 +1.47477209731E-03 +4.64015460698E-04 +1.58530620350E-03 +1.59177056374E-01 -5.97681774635E-01
4.21000000000E+09 +1.25650772533E-02 -4.82485223514E-01 +3.27863901100E-04 +1.01069622484E-03 +3.06784753372E-04 +1.12042377560E-03 +1.37154942786E-01 -5.96476344146E-01
4.21500000000E+09 -5.08078323299E-03 -4.76614842261E-01 +3.65250756342E-04 +1.40871309799E-03 +3.25237135232E-04 +1.50341150891E-03 +1.13774855664E-01 -5.94185481315E-01
4.22000000000E+09 -2.11232009847E-02 -4.69241102810E-01 +7.32973561057E-04 +1.27046807714E-03 +7.12491397265E-04 +1.37746723047E-03 +9.12688889701E-02 -5.90456584881E-01
4.22500000000E+09 -3.62084297764E-02 -4.60628505491E-01 +5.72780354113E-04 +8.82498406629E-04 +5.93236268418E-04 +1.01056398612E-03 +6.94815419108E-02 -5.85822147806E-01
4.23000000000E+09 -5.11064553857E-02 -4.49603200359E-01 +6.00312847625E-04 +1.08542622747E-03 +6.33524876772E-04 +1.18658527020E-03 +4.79365309638E-02 -5.79222703117E-01
4.23500000000E+09 -6.52467273180E-02 -4.37634433105E-01 +5.85687348560E-04 +1.02578687059E-03 +7.16383118484E-04 +1.05484684835E-03 +2.65154704804E-02 -5.72165228932E-01
4.24000000000E+09 -8.09236049256E-02 -4.25069670898E-01 +6.34766706159E-04 +1.04862563641E-03 +7.08282178371E-04 +1.02406449368E-03 +4.71395444971E-03 -5.63855882852E-01
4.24500000000E+09 -9.86594115580E-02 -4.11902406032E-01 +7.84868558021E-04 +9.82205704105E-04 +8.83177409525E-04 +1.02077403362E-03 -1.67678577174E-02 -5.55652035553E-01
4.25000000000E+09 -1.17654814578E-01 -3.98005359031E-01 +5.55409287804E-04 +1.10950793422E-03 +6.79838721731E-04 +1.01094193061E-03 -3.84813187882E-02 -5.47250169275E-01
4.25500000000E+09 -1.37142266354E-01 -3.85191089053E-01 +1.06635422504E-03 +1.26322092616E-03 +1.15869888170E-03 +1.21384783287E-03 -5.92252323906E-02 -5.38360908018E-01
4.26000000000E+09 -1.57884983503E-01 -3.73030615288E-01 +1.13360316951E-03 +8.26880078118E-04 +1.16747444679E-03 +7.48840732287E-04 -8.04658201668E-02 -5.28643257769E-01
4.26500000000E+09 -1.77257838474E-01 -3.60223389209E-01 +7.48647023621E-04 +1.04733417179E-03 +7.56991895054E-04 +1.01892881799E-03 -1.01380133757E-01 -5.17299079014E-01
4.27000000000E+09 -1.94380467878E-01 -3.48271220339E-01 +1.37422127422E-03 +1.28843177367E-03 +1.36771102786E-03 +1.14540897886E-03 -1.22806267073E-01 -5.04183951395E-01
4.27500000000E+09 -2.10169055950E-01 -3.36464121592E-01 +1.53858317141E-03 +8.17346735587E-04 +1.49196018442E-03 +7.34175543021E-04 -1.43646098108E-01 -4.90418677149E-01
4.28000000000E+09 -2.23407007486E-01 -3.23235474225E-01 +1.45713766657E-03 +9.22991861236E-04 +1.40852081496E-03 +9.50103603960E-04 -1.64417636700E-01 -4.76762382173E-01
4.28500000000E+09 -2.35203829613E-01 -3.08444411845E-01 +1.99458278516E-03 +8.97709761885E-04 +1.92904246892E-03 +9.22931598003E-04 -1.85343753116E-01 -4.62156417801E-01
4.29000000000E+09 -2.45521970541E-01 -2.92469967195E-01 +2.26297048860E-03 +2.31041196213E-04 +2.21546752186E-03 +2.04752103658E-04 -2.04181474866E-01 -4.47344178559E-01
4.29500000000E+09 -2.56890263052E-01 -2.74736485993E-01 +1.79334674883E-03 +5.77076450133E-05 +1.74891239950E-03 +1.36554256549E-04 -2.23073458290E-01 -4.31997865583E-01
4.30000000000E+09 -2.68104515937E-01 -2.54240926066E-01 +2.08656429983E-03 -3.12554042813E-05 +2.07136987549E-03 +5.84149857150E-05 -2.40447750456E-01 -4.15236556733E-01
4.30500000000E+09 -2.79384924781E-01 -2.33783848768E-01 +2.03739851371E-03 -4.19810078068E-04 +2.09764054983E-03 -3.48383042988E-04 -2.58884384904E-01 -3.97864098110E-01
4.31000000000E+09 -2.91900166482E-01 -2.13817483987E-01 +1.67720021572E-03 -1.84757735445E-04 +1.73956500493E-03 -9.22851699268E-05 -2.76175449148E-01 -3.78213871588E-01
4.31500000000E+09 -3.05140709365E-01 -1.94458884479E-01 +2.31169619839E-03 -1.47932726606E-04 +2.43522991152E-03 -7.48722260358E-05 -2.92792292349E-01 -3.58853643831E-01
4.32000000000E+09 -3.18228351967E-01 -1.76412749056E-01 +2.70300378097E-03 -9.78788772572E-04 +2.77811593931E-03 -9.45055954503E-04 -3.08790231760E-01 -3.38823713694E-01
4.32500000000E+09 -3.29681259322E-01 -1.59127693864E-01 +1.89255738124E-03 -1.63128279575E-03 +2.04389556404E-03 -1.64048649512E-03 -3.23359193917E-01 -3.17565733577E-01
4.33000000000E+09 -3.39468244816E-01 -1.43598521088E-01 +1.83756407898E-03 -1.29769713409E-03 +1.94691099002E-03 -1.26783233894E-03 -3.36177843203E-01 -2.96059458956E-01
4.33500000000E+09 -3.46760734556E-01 -1.26834291530E-01 +1.91047021510E-03 -1.68097315434E-03 +2.00411162554E-03 -1.72405930794E-03 -3.48834473268E-01 -2.74057614150E-01
4.34000000000E+09 -3.49798438727E-01 -1.10729142345E-01 +1.55906289173E-03 -2.21254428588E-03 +1.57497072320E-03 -2.31968616753E-03 -3.61381718249E-01 -2.51588656831E-01
4.34500000000E+09 -3.52090807438E-01 -9.43086474834E-02 +1.00440639671E-03 -1.81622821090E-03 +1.02430499833E-03 -1.85224364865E-03 -3.73729821807E-01 -2.27639103279E-01
4.35000000000E+09 -3.52677162368E-01 -7.52699586829E-02 +1.25773346761E-03 -1.86941925397E-03 +1.31640420653E-03 -2.03344501847E-03 -3.84524653354E-01 -2.04534259362E-01
4.35500000000E+09 -3.53152171800E-01 -5.51829418645E-02 +1.05215914865E-03 -2.13172373117E-03 +1.01708570605E-03 -2.27665890606E-03 -3.94979695111E-01 -1.82085049784E-01
4.36000000000E+09 -3.54644271259E-01 -3.34543479717E-02 +8.74865416912E-04 -1.99520988541E-03 +8.50720665727E-04 -2.12553611563E-03 -4.04721976121E-01 -1.58917727224E-01
4.36500000000E+09 -3.57558659327E-01 -1.01567943438E-02 +1.22853738636E-03 -2.29513751957E-03 +1.16482067979E-03 -2.35964602238E-03 -4.12607042042E-01 -1.34371469625E-01
4.37000000000E+09 -3.61394144348E-01 +1.36840810927E-02 +9.12437276444E-04 -2.76559967326E-03 +8.44770595349E-04 -2.89979675688E-03 -4.18950711609E-01 -1.09906798119E-01
4.37500000000E+09 -3.64896621515E-01 +3.64784418531E-02 +4.77397448272E-04 -3.26088424615E-03 +3.27227407500E-04 -3.32862370604E-03 -4.24857686286E-01 -8.40218193379E-02
4.38000000000E+09 -3.69156199104E-01 +5.62279777179E-02 -2.30560898393E-04 -3.18437561094E-03 -3.59069161411E-04 -3.21869090713E-03 -4.29016382164E-01 -5.86012999694E-02
4.38500000000E+09 -3.73114468929E-01 +7.45222068099E-02 -5.81093243307E-04 -2.95632175861E-03 -7.34215543303E-04 -2.91670725683E-03 -4.32590773389E-01 -3.36478391053E-02
4.39000000000E+09 -3.75491812555E-01 +9.04602006800E-02 -7.50468355297E-04 -2.96426939953E-03 -8.74911459287E-04 -2.94290163364E-03 -4.36142647122E-01 -8.27552564242E-03
4.39500000000E+09 -3.76214061837E-01 +1.04867978606E-01 -1.20486650090E-03 -2.68237871873E-03 -1.31393749756E-03 -2.56619917940E-03 -4.37203254319E-01 +1.60790841478E-02
4.40000000000E+09 -3.74991961730E-01 +1.19917679510E-01 -1.12208393358E-03 -2.77158952581E-03 -1.14362510293E-03 -2.66326000812E-03 -4.38122454348E-01 +4.12307096147E-02
4.40500000000E+09 -3.70821629526E-01 +1.36364863116E-01 -1.85876130242E-03 -2.97193265833E-03 -1.88275649696E-03 -2.92404327404E-03 -4.37276505019E-01 +6.63617843012E-02
4.41000000000E+09 -3.64343182589E-01 +1.52480895503E-01 -2.01784532620E-03 -2.31956172768E-03 -2.00260875403E-03 -2.27548156466E-03 -4.35407940120E-01 +9.15094962434E-02
4.41500000000E+09 -3.58649983351E-01 +1.70577529239E-01 -2.26184410057E-03 -2.50179299397E-03 -2.18988165490E-03 -2.44033550903E-03 -4.32713582278E-01 +1.16043820890E-01
4.42000000000E+09 -3.52950793718E-01 +1.90917143280E-01 -2.54390878635E-03 -2.26324289625E-03 -2.51662329747E-03 -2.15337360838E-03 -4.30189766260E-01 +1.40272884129E-01
4.42500000000E+09 -3.47990895708E-01 +2.12728069014E-01 -3.07211080218E-03 -2.30274356779E-03 -3.00145688247E-03 -2.26067197286E-03 -4.25110809370E-01 +1.65079122916E-01
4.43000000000E+09 -3.43591918684E-01 +2.33411297544E-01 -3.76754776125E-03 -1.92043329600E-03 -3.76963208180E-03 -1.86541246278E-03 -4.19991620917E-01 +1.87375918267E-01
4.43500000000E+09 -3.41382504806E-01 +2.53674911490E-01 -4.03345869299E-03 -5.54008889045E-04 -3.96197672011E-03 -6.43600702812E-04 -4.13717364769E-01 +2.10926418109E-01
4.44000000000E+09 -3.38889320987E-01 +2.72577236172E-01 -3.55732054273E-03 -4.06142163054E-04 -3.47520603669E-03 -3.87828755488E-04 -4.06500781596E-01 +2.33139080643E-01
4.44500000000E+09 -3.35753058661E-01 +2.87744286393E-01 -3.54924140749E-03 +1.50315867817E-04 -3.58782225971E-03 +1.18502251234E-04 -3.99408667943E-01 +2.54750050863E-01
4.45000000000E+09 -3.33088913286E-01 +3.00858785118E-01 -3.19457533838E-03 +3.13519413261E-04 -3.22107078069E-03 +2.72518409554E-04 -3.91837640054E-01 +2.75974926004E-01
4.45500000000E+09 -3.28746122364E-01 +3.13327502544E-01 -3.41419234387E-03 +2.24560566454E-04 -3.46110277010E-03 +1.96755996241E-04 -3.84081184223E-01 +2.96681102886E-01
4.46000000000E+09 -3.22202030184E-01 +3.24959822204E-01 -3.69184713870E-03 +8.91693813526E-04 -3.72203970436E-03 +9.39374334463E-04 -3.74360970923E-01 +3.17017681281E-01
4.46500000000E+09 -3.13201674207E-01 +3.37337815785E-01 -3.36090098871E-03 +1.40421125445E-03 -3.34876400998E-03 +1.43406862231E-03 -3.64496380743E-01 +3.36371119027E-01
4.47000000000E+09 -3.02797693219E-01 +3.50303731206E-01 -3.19229394181E-03 +1.54072900868E-03 -3.27002979344E-03 +1.60501273260E-03 -3.52038252398E-01 +3.56068848355E-01
4.47500000000E+09 -2.91353383323E-01 +3.66172457298E-01 -3.28847324608E-03 +2.06167776240E-03 -3.27159242087E-03 +2.12538115119E-03 -3.40463716817E-01 +3.73832192935E-01
4.48000000000E+09 -2.79069912018E-01 +3.81488306510E-01 -2.92057615358E-03 +2.53738425409E-03 -2.89365582768E-03 +2.68305990961E-03 -3.28653662067E-01 +3.92685155084E-01
4.48500000000E+09 -2.69501746529E-01 +3.98189548491E-01 -2.52535031105E-03 +2.87606589217E-03 -2.39992424717E-03 +2.98948689207E-03 -3.16431317443E-01 +4.09599436650E-01
4.49000000000E+09 -2.60206597925E-01 +4.15280502517E-01 -2.06417858798E-03 +3.20702030720E-03 -2.00603223022E-03 +3.19849133856E-03 -3.04636136559E-01 +4.25583072875E-01
4.49500000000E+09 -2.52286790150E-01 +4.30541059644E-01 -1.72757639488E-03 +3.12597230611E-03 -1.64276844045E-03 +3.11684197806E-03 -2.92768692559E-01 +4.40923514734E-01
4.50000000000E+09 -2.46322678474E-01 +4.44251187652E-01 -1.45916774317E-03 +3.36470459214E-03 -1.43366108160E-03 +3.33865057213E-03 -2.79767594975E-01 +4.56041847744E-01
4.50500000000E+09 -2.40639593938E-01 +4.55975848531E-01 -1.21290634761E-03 +3.38643917916E-03 -1.12865966590E-03 +3.38066967622E-03 -2.66027672730E-01 +4.70903319731E-01
4.51000000000E+09 -2.33880956740E-01 +4.65614890542E-01 -1.11924952444E-03 +3.74475708608E-03 -9.63330837176E-04 +3.81397183027E-03 -2.52162619972E-01 +4.85028306158E-01
4.51500000000E+09 -2.25512401435E-01 +4.73399006639E-01 -3.68879221973E-04 +4.23762523805E-03 -2.34237934108E-04 +4.22495583569E-03 -2.38638998786E-01 +4.99105212966E-01
4.52000000000E+09 -2.15461661556E-01 +4.79946185874E-01 +3.20464426613E-04 +3.86350649159E-03 +4.79885449313E-04 +3.79566066777E-03 -2.24698340530E-01 +5.12238409573E-01
4.52500000000E+09 -2.03424031471E-01 +4.86844892623E-01 +4.49641584125E-04 +3.88125083180E-03 +5.46668504760E-04 +3.79092538713E-03 -2.10671964553E-01 +5.23735371274E-01
4.53000000000E+09 -1.89996307332E-01 +4.94829330102E-01 +1.15448156867E-03 +3.86836834754E-03 +1.26205737339E-03 +3.69093742521E-03 -1.96525191877E-01 +5.34592792427E-01
4.53500000000E+09 -1.74747954770E-01 +5.04885538225E-01 +1.41275801720E-03 +3.39105569463E-03 +1.46711626432E-03 +3.26471222950E-03 -1.81849357867E-01 +5.44745926995E-01
4.54000000000E+09 -1.59015801859E-01 +5.15411412094E-01 +1.75525563687E-03 +3.50662423864E-03 +1.80441877732E-03 +3.37196483918E-03 -1.67298551529E-01 +5.55251232035E-01
4.54500000000E+09 -1.44254675810E-01 +5.26568072847E-01 +2.37888424082E-03 +3.04692536497E-03 +2.40197868860E-03 +2.92205583040E-03 -1.52637794999E-01 +5.66004730474E-01
4.55000000000E+09 -1.31259616885E-01 +5.36895256155E-01 +2.29533939176E-03 +2.82895277813E-03 +2.30010960103E-03 +2.63062510898E-03 -1.37597955514E-01 +5.76480653084E-01
4.55500000000E+09 -1.21480970337E-01 +5.47084785738E-01 +2.82781949991E-03 +2.61616067118E-03 +2.75158328850E-03 +2.41884675588E-03 -1.23032250043E-01 +5.86051120278E-01
4.56000000000E+09 -1.13089876076E-01 +5.57024910899E-01 +3.00664297585E-03 +2.19304346253E-03 +2.88739357804E-03 +2.08347880693E-03 -1.08837701667E-01 +5.94755450622E-01
4.56500000000E+09 -1.05092754443E-01 +5.65332908151E-01 +3.23463297028E-03 +1.89640979679E-03 +3.15592121080E-03 +1.74951076839E-03 -9.36629460084E-02 +6.03279559946E-01
4.57000000000E+09 -9.58639051510E-02 +5.71887192544E-01 +3.26686422567E-03 +1.59007366664E-03 +3.17983185677E-03 +1.50384270840E-03 -7.83044620752E-02 +6.10202407193E-01
