# Hz S RI R 50
! CMT, C1220, 16058040, 17.2.0/1
! Date: 15/08/2018 12:40:19
! Data: Format (Calibration Info)
! Freq                      S11: Re/Im (F2)                       S21: Re/Im (F2)                       S12: Re/Im (F2)                       S22: Re/Im (F2)            
4.00000000000E+09 +6.55994000494E-01 -3.60741542745E-01 +1.29187191789E-03 -1.03142251358E-03 +1.38227562249E-03 -1.01403102382E-03 +7.87424845285E-01 -3.13527901864E-01
4.00500000000E+09 +6.47377250845E-01 -3.66388323510E-01 +1.06590126758E-03 -1.28955417484E-03 +1.18191867865E-03 -1.24779149415E-03 +7.79074508645E-01 -3.25047557133E-01
4.01000000000E+09 +6.38369504311E-01 -3.71991280866E-01 +8.54853693964E-04 -1.57583768395E-03 +9.07362446571E-04 -1.56971075154E-03 +7.70541786325E-01 -3.37282125066E-01
4.01500000000E+09 +6.28360207058E-01 -3.78359000452E-01 +4.69561946411E-04 -1.52396800272E-03 +5.31770461697E-04 -1.48600488054E-03 +7.61967730610E-01 -3.48501102167E-01
4.02000000000E+09 +6.18259130368E-01 -3.85381516662E-01 +3.90389041345E-04 -1.47666257122E-03 +5.33087224970E-04 -1.46634684152E-03 +7.53030074472E-01 -3.59462915452E-01
4.02500000000E+09 +6.07765255304E-01 -3.94415798709E-01 +2.49143444169E-04 -1.52368053447E-03 +3.04770135968E-04 -1.53288422362E-03 +7.43563108452E-01 -3.70226770346E-01
4.03000000000E+09 +5.96790583920E-01 -4.04794939845E-01 +4.54050739447E-05 -1.52846700273E-03 +1.56842140936E-04 -1.52973845150E-03 +7.33201140040E-01 -3.80818863905E-01
4.03500000000E+09 +5.84954218930E-01 -4.15400602301E-01 -8.70938153845E-05 -1.51731003794E-03 -7.77290311256E-06 -1.59466090974E-03 +7.22052354057E-01 -3.92009924079E-01
4.04000000000E+09 +5.73464789696E-01 -4.25175554623E-01 -1.81715421998E-04 -1.31004398524E-03 -1.11567497863E-04 -1.47640715046E-03 +7.10855482784E-01 -4.03160812612E-01
4.04500000000E+09 +5.62451344030E-01 -4.34617081903E-01 -2.15984130551E-04 -1.41028411459E-03 -1.13892309877E-04 -1.52525826104E-03 +6.99814360219E-01 -4.14085588532E-01
4.05000000000E+09 +5.50854095153E-01 -4.42518182885E-01 -4.07109079555E-04 -1.50729642420E-03 -3.23417469198E-04 -1.62707446323E-03 +6.89280975055E-01 -4.24679032977E-01
4.05500000000E+09 +5.38816656069E-01 -4.48706215067E-01 -4.34042073900E-04 -1.44582190311E-03 -4.54034038635E-04 -1.52525008473E-03 +6.77758139263E-01 -4.34525746562E-01
4.06000000000E+09 +5.26605669681E-01 -4.53294249218E-01 -8.25367881470E-04 -1.55930896896E-03 -7.96969683379E-04 -1.66592974707E-03 +6.66737965628E-01 -4.43835567851E-01
4.06500000000E+09 +5.13487082299E-01 -4.56847391788E-01 -1.01761893724E-03 -1.16492531444E-03 -1.08149793548E-03 -1.21471633516E-03 +6.54340934482E-01 -4.53546564392E-01
4.07000000000E+09 +5.00285505272E-01 -4.60678320935E-01 -9.38147669614E-04 -9.57316852991E-04 -9.72299516509E-04 -9.98392939760E-04 +6.41074143057E-01 -4.63692474794E-01
4.07500000000E+09 +4.85643456644E-01 -4.65263640102E-01 -8.54649884807E-04 -1.02929945618E-03 -8.42588186086E-04 -1.06831571601E-03 +6.27426154812E-01 -4.74206384050E-01
4.08000000000E+09 +4.70090107048E-01 -4.70240351435E-01 -1.05539985279E-03 -9.39591032671E-04 -1.08326868007E-03 -1.01371552458E-03 +6.13859338047E-01 -4.84136262267E-01
4.08500000000E+09 +4.53851500325E-01 -4.76539272108E-01 -9.19120621634E-04 -8.15236698521E-04 -9.47755490470E-04 -8.92083202123E-04 +6.00429282502E-01 -4.94274737240E-01
4.09000000000E+09 +4.36843910468E-01 -4.82778767710E-01 -1.05868313838E-03 -1.13526209515E-03 -1.09089696357E-03 -1.12791401086E-03 +5.86471079319E-01 -5.03094850280E-01
4.09500000000E+09 +4.20163540202E-01 -4.88950410471E-01 -1.49656012765E-03 -8.95019201266E-04 -1.56360048854E-03 -9.00407641051E-04 +5.72128966746E-01 -5.11459583984E-01
4.10000000000E+09 +4.03424492623E-01 -4.94350982460E-01 -1.42426145306E-03 -5.16649999782E-04 -1.44109314158E-03 -4.83925636581E-04 +5.56207535119E-01 -5.19135657481E-01
4.10500000000E+09 +3.86925409083E-01 -4.98593688948E-01 -1.41648887104E-03 -5.62873352107E-04 -1.42352223551E-03 -5.77830310030E-04 +5.40571908709E-01 -5.27167684910E-01
4.11000000000E+09 +3.70643613321E-01 -5.00414515752E-01 -1.65252258557E-03 -3.69835842316E-04 -1.66001597791E-03 -3.57566321467E-04 +5.23931678393E-01 -5.35445604349E-01
4.11500000000E+09 +3.55884839751E-01 -5.01371508939E-01 -1.41860049330E-03 +2.39834848220E-05 -1.40419628318E-03 -2.44464849860E-05 +5.07566422435E-01 -5.43375684397E-01
4.12000000000E+09 +3.40326570256E-01 -5.02323048606E-01 -1.28200340489E-03 -1.68075314627E-04 -1.26826681720E-03 -1.52672892481E-04 +4.91184538694E-01 -5.51213199948E-01
4.12500000000E+09 +3.23642797186E-01 -5.03388036225E-01 -1.42602537143E-03 -1.51264516345E-04 -1.43956830454E-03 -2.37799411783E-04 +4.74012448241E-01 -5.57720342350E-01
4.13000000000E+09 +3.05840371992E-01 -5.04043691587E-01 -1.54509352721E-03 +1.67333581808E-06 -1.58623952426E-03 -1.98303467160E-05 +4.56459473344E-01 -5.63678450320E-01
4.13500000000E+09 +2.87306326093E-01 -5.06152534172E-01 -1.29565860860E-03 +2.51047129891E-04 -1.34384042078E-03 +1.26464511357E-04 +4.38353904876E-01 -5.68879238709E-01
4.14000000000E+09 +2.67572321825E-01 -5.08483324636E-01 -1.56543647798E-03 -2.07583696651E-04 -1.55748865589E-03 -2.86027266312E-04 +4.20226787432E-01 -5.74665760089E-01
4.14500000000E+09 +2.47930687480E-01 -5.10949514738E-01 -2.14869606049E-03 +2.43947150315E-04 -2.16306150333E-03 +1.79112863398E-04 +4.00906441559E-01 -5.80666992773E-01
4.15000000000E+09 +2.28914012068E-01 -5.14321582118E-01 -1.90257873888E-03 +9.93673698496E-04 -2.00600052285E-03 +9.33188436298E-04 +3.83017616863E-01 -5.85694723806E-01
4.15500000000E+09 +2.09572378576E-01 -5.17196567432E-01 -1.57108638031E-03 +1.08384075500E-03 -1.63805435300E-03 +1.11905063905E-03 +3.64616485392E-01 -5.90722497532E-01
4.16000000000E+09 +1.91207027568E-01 -5.17786657092E-01 -1.31855608311E-03 +1.28190728359E-03 -1.42149961667E-03 +1.22651717668E-03 +3.45694141973E-01 -5.94057278404E-01
4.16500000000E+09 +1.74244367029E-01 -5.17654296488E-01 -9.54619767162E-04 +1.10957978213E-03 -1.06159671695E-03 +1.12579548856E-03 +3.26471969562E-01 -5.96997439700E-01
4.17000000000E+09 +1.57634805882E-01 -5.15161321871E-01 -1.04441368278E-03 +1.04110938071E-03 -1.10015600877E-03 +1.04049148301E-03 +3.05966771163E-01 -5.99250272915E-01
4.17500000000E+09 +1.41739680112E-01 -5.11072295287E-01 -1.14524390902E-03 +8.34141583923E-04 -1.14497465133E-03 +8.22270796461E-04 +2.84814733174E-01 -6.00954173045E-01
4.18000000000E+09 +1.25397648992E-01 -5.05884864540E-01 -1.40389395037E-03 +1.46230694361E-03 -1.52117832884E-03 +1.44064580277E-03 +2.63837400232E-01 -6.02576522758E-01
4.18500000000E+09 +1.09205748800E-01 -5.00394868079E-01 -9.21372957366E-04 +1.52719889718E-03 -9.70189098611E-04 +1.59389122360E-03 +2.42722187289E-01 -6.04232784033E-01
4.19000000000E+09 +9.10870085341E-02 -4.95462910311E-01 -1.01590022736E-03 +1.61658295270E-03 -1.15944052790E-03 +1.70211667206E-03 +2.21221781266E-01 -6.04083178269E-01
4.19500000000E+09 +7.26154249059E-02 -4.89713078170E-01 -7.17481538574E-04 +1.76077092393E-03 -7.74490897184E-04 +1.90006810436E-03 +2.00045823656E-01 -6.02540658933E-01
4.20000000000E+09 +5.44759741122E-02 -4.85736810812E-01 -4.02268720847E-04 +1.95060723855E-03 -4.20975516268E-04 +2.06534382799E-03 +1.78610969325E-01 -6.00355188893E-01
4.20500000000E+09 +3.49869237417E-02 -4.81716533434E-01 -4.37518342852E-05 +1.76430261140E-03 -6.71315253931E-05 +1.85193670518E-03 +1.57371615315E-01 -5.97185965016E-01
4.21000000000E+09 +1.69446417809E-02 -4.77095464197E-01 -2.33088364877E-04 +1.23955313282E-03 -2.11247645799E-04 +1.36250529908E-03 +1.35520200895E-01 -5.95861994748E-01
4.21500000000E+09 -6.38189152566E-04 -4.71370833723E-01 -3.86072847259E-04 +1.73957373450E-03 -3.72841509935E-04 +1.80631078329E-03 +1.12317857409E-01 -5.93495656830E-01
4.22000000000E+09 -1.57399804060E-02 -4.63958626839E-01 -8.40904294867E-05 +1.80647913107E-03 -2.82315223471E-05 +1.87349012739E-03 +9.00213564741E-02 -5.89514038427E-01
4.22500000000E+09 -3.02325072643E-02 -4.55771363259E-01 -1.80207397700E-04 +1.63217245536E-03 -1.72811098032E-04 +1.66225298379E-03 +6.85752351992E-02 -5.84985339647E-01
4.23000000000E+09 -4.44858120595E-02 -4.45133533592E-01 -9.24235445197E-05 +2.15536671806E-03 -9.03273652915E-05 +2.12525611392E-03 +4.73061086719E-02 -5.78624292987E-01
4.23500000000E+09 -5.81123521729E-02 -4.34019024696E-01 +2.75351377489E-04 +2.16900973270E-03 +2.60680226166E-04 +2.17788208726E-03 +2.57230554621E-02 -5.71703144449E-01
4.24000000000E+09 -7.39386023652E-02 -4.22471026504E-01 +4.67400245360E-04 +2.27076069313E-03 +4.61920151260E-04 +2.22528421041E-03 +4.01079466530E-03 -5.63431234753E-01
4.24500000000E+09 -9.18578648944E-02 -4.09115198991E-01 +9.29686486143E-04 +2.06110805914E-03 +9.69692697464E-04 +2.08010750995E-03 -1.73671696819E-02 -5.55449067189E-01
4.25000000000E+09 -1.10466428707E-01 -3.95727216176E-01 +7.06227027670E-04 +2.03304906961E-03 +6.59142276343E-04 +1.98952985159E-03 -3.92247175741E-02 -5.47238207072E-01
4.25500000000E+09 -1.29533746524E-01 -3.83312598187E-01 +1.06764616150E-03 +2.29841694023E-03 +1.04740724695E-03 +2.27806945704E-03 -6.01962257992E-02 -5.38429492997E-01
4.26000000000E+09 -1.50394090728E-01 -3.71916111316E-01 +1.40648676560E-03 +2.14334463659E-03 +1.44806725903E-03 +2.14216406874E-03 -8.15148667852E-02 -5.28691518381E-01
4.26500000000E+09 -1.69735334832E-01 -3.59313266347E-01 +1.35992517880E-03 +2.28735635929E-03 +1.32559231740E-03 +2.29704380750E-03 -1.02725030696E-01 -5.17296741133E-01
4.27000000000E+09 -1.86374356907E-01 -3.48113924245E-01 +2.25881365105E-03 +2.28323450350E-03 +2.25956234283E-03 +2.30843185311E-03 -1.24251203451E-01 -5.04032445131E-01
4.27500000000E+09 -2.02382284165E-01 -3.37085526656E-01 +2.57042114880E-03 +1.71752683139E-03 +2.58579387990E-03 +1.80804225756E-03 -1.45435129725E-01 -4.90040435363E-01
4.28000000000E+09 -2.15961861484E-01 -3.24202566406E-01 +2.67611319302E-03 +1.47577599986E-03 +2.68614330855E-03 +1.54243720574E-03 -1.66335939409E-01 -4.75788075769E-01
4.28500000000E+09 -2.27864610987E-01 -3.09995525564E-01 +2.94214987426E-03 +1.33872715035E-03 +3.01101444854E-03 +1.37485290086E-03 -1.86844381020E-01 -4.60912773307E-01
4.29000000000E+09 -2.38518135783E-01 -2.94174279747E-01 +3.37393036059E-03 +5.37176691021E-04 +3.40063420288E-03 +5.58561919375E-04 -2.05436383534E-01 -4.46082221392E-01
4.29500000000E+09 -2.49739068443E-01 -2.76465428209E-01 +2.73077222173E-03 +1.97816747414E-04 +2.78417714530E-03 +2.30371589853E-04 -2.24311447473E-01 -4.30473932526E-01
4.30000000000E+09 -2.60627850143E-01 -2.56602792686E-01 +2.94877055406E-03 +2.03257112861E-04 +3.00980773028E-03 +2.46564546889E-04 -2.41227701638E-01 -4.13640579225E-01
4.30500000000E+09 -2.71804874096E-01 -2.36872473658E-01 +3.09718111133E-03 -2.31118257118E-04 +3.15664776251E-03 -2.59273978699E-04 -2.59380566158E-01 -3.96361176816E-01
4.31000000000E+09 -2.84833697368E-01 -2.17922597736E-01 +2.72855977878E-03 -1.26724224420E-04 +2.85675298405E-03 -1.12567726972E-04 -2.76287915140E-01 -3.76931645394E-01
4.31500000000E+09 -2.98555604487E-01 -1.98702023534E-01 +3.49871309598E-03 -1.87712153111E-04 +3.62014947844E-03 -2.91311217357E-04 -2.92962402864E-01 -3.57903063419E-01
4.32000000000E+09 -3.11699053596E-01 -1.81091575983E-01 +3.59736110559E-03 -1.36959549866E-03 +3.66473554810E-03 -1.46711305576E-03 -3.08951899104E-01 -3.38004366242E-01
4.32500000000E+09 -3.23635702811E-01 -1.64405486065E-01 +2.75987257238E-03 -1.76439564252E-03 +2.79089398597E-03 -1.87167394174E-03 -3.23583290100E-01 -3.17041883134E-01
4.33000000000E+09 -3.33756846879E-01 -1.48897150275E-01 +2.88400533924E-03 -1.70368444538E-03 +2.89056061330E-03 -1.75810727958E-03 -3.36902097363E-01 -2.95784053483E-01
4.33500000000E+09 -3.40783501913E-01 -1.32421619550E-01 +2.65970760545E-03 -2.19404751034E-03 +2.67136265194E-03 -2.19714454711E-03 -3.49644992917E-01 -2.73453670707E-01
4.34000000000E+09 -3.44401062714E-01 -1.17264596662E-01 +2.35580425027E-03 -2.64830532153E-03 +2.31788036880E-03 -2.66764750099E-03 -3.62328830543E-01 -2.51027641586E-01
4.34500000000E+09 -3.47147168291E-01 -1.01043604385E-01 +1.78914110006E-03 -2.27177753921E-03 +1.78777929579E-03 -2.35823488737E-03 -3.74902276244E-01 -2.26940641103E-01
4.35000000000E+09 -3.48283321544E-01 -8.23524371055E-02 +2.26399848287E-03 -2.52126440844E-03 +2.25191565925E-03 -2.56396849030E-03 -3.85843570713E-01 -2.03650211828E-01
4.35500000000E+09 -3.49789433712E-01 -6.24962082962E-02 +1.97541318428E-03 -3.06221084379E-03 +1.90097960150E-03 -3.18020859180E-03 -3.96458754992E-01 -1.80868265759E-01
4.36000000000E+09 -3.51576865508E-01 -4.06023579637E-02 +1.43844248691E-03 -3.23281822331E-03 +1.38018347064E-03 -3.22562073441E-03 -4.06250848150E-01 -1.57254699560E-01
4.36500000000E+09 -3.55043427027E-01 -1.77248462505E-02 +1.53943925077E-03 -3.32914913371E-03 +1.49199147457E-03 -3.35971919412E-03 -4.13883057394E-01 -1.32236020042E-01
4.37000000000E+09 -3.59501425846E-01 +6.13714119112E-03 +1.24411732655E-03 -3.75888987484E-03 +1.17923736521E-03 -3.82724211327E-03 -4.19666690387E-01 -1.07521974432E-01
4.37500000000E+09 -3.63305174817E-01 +2.87142636182E-02 +8.77700863510E-04 -4.50956203072E-03 +8.17175734197E-04 -4.58422742461E-03 -4.25174348034E-01 -8.17489422162E-02
4.38000000000E+09 -3.68432032532E-01 +4.80933972435E-02 -2.05505446339E-04 -4.48466891739E-03 -2.84509348146E-04 -4.49619744965E-03 -4.29186951996E-01 -5.63706517933E-02
4.38500000000E+09 -3.72997696994E-01 +6.66257498259E-02 -7.58142745886E-04 -4.16369376653E-03 -8.24127834642E-04 -4.20059911317E-03 -4.32471571899E-01 -3.15025148234E-02
4.39000000000E+09 -3.76016725515E-01 +8.26883833869E-02 -1.15711125748E-03 -4.16377947384E-03 -1.22419897869E-03 -4.18486278581E-03 -4.35670522208E-01 -6.39533458770E-03
4.39500000000E+09 -3.77179999742E-01 +9.73697918104E-02 -1.81305042900E-03 -3.68638179351E-03 -1.81248476089E-03 -3.69850747488E-03 -4.36685723306E-01 +1.78021563450E-02
4.40000000000E+09 -3.76158655364E-01 +1.12504109770E-01 -1.68325675765E-03 -3.61280821052E-03 -1.76832212268E-03 -3.60284334397E-03 -4.37559362449E-01 +4.26982521550E-02
4.40500000000E+09 -3.72573813889E-01 +1.28888282001E-01 -2.44285005365E-03 -3.62485963584E-03 -2.49285005879E-03 -3.58285336653E-03 -4.36648603792E-01 +6.75294022391E-02
4.41000000000E+09 -3.66582263910E-01 +1.45711224091E-01 -2.58090293666E-03 -3.15394138423E-03 -2.65031844264E-03 -3.11997226275E-03 -4.35061996017E-01 +9.25759876990E-02
4.41500000000E+09 -3.61248284168E-01 +1.63622743827E-01 -3.14625823951E-03 -3.02460656486E-03 -3.19947081193E-03 -2.98904968618E-03 -4.32477408745E-01 +1.17024940427E-01
4.42000000000E+09 -3.56439600870E-01 +1.84439479680E-01 -3.27275057963E-03 -2.43844827143E-03 -3.33142483634E-03 -2.39246659776E-03 -4.30117856998E-01 +1.41363183374E-01
4.42500000000E+09 -3.51773722061E-01 +2.06567747133E-01 -3.52048360450E-03 -2.57590954552E-03 -3.58744175346E-03 -2.49179285251E-03 -4.25230630076E-01 +1.66308180299E-01
4.43000000000E+09 -3.48239234464E-01 +2.27722810310E-01 -4.31889950394E-03 -2.28884304964E-03 -4.36457901203E-03 -2.17974743817E-03 -4.19987017610E-01 +1.88814933337E-01
4.43500000000E+09 -3.46390336082E-01 +2.48842758061E-01 -4.49479361188E-03 -9.81237142612E-04 -4.45300705186E-03 -9.07233288786E-04 -4.13630788311E-01 +2.12358377416E-01
4.44000000000E+09 -3.43787250013E-01 +2.68204022818E-01 -4.35108881114E-03 -8.96045857451E-04 -4.29365935072E-03 -8.46193525436E-04 -4.06602028386E-01 +2.34697622014E-01
4.44500000000E+09 -3.40887650389E-01 +2.83779618332E-01 -4.35404625127E-03 -5.95282928629E-05 -4.31389927757E-03 +5.14762137301E-05 -3.99180355761E-01 +2.56370181987E-01
4.45000000000E+09 -3.38272440806E-01 +2.97190608109E-01 -3.96112221889E-03 +1.00374741780E-04 -3.99230631403E-03 +1.26922277192E-04 -3.91751943720E-01 +2.77830437349E-01
4.45500000000E+09 -3.34021298159E-01 +3.09846963345E-01 -4.06879034922E-03 +7.16376258722E-05 -4.00232097251E-03 +1.69193509926E-04 -3.83735361283E-01 +2.98834184763E-01
4.46000000000E+09 -3.27908714408E-01 +3.22003369431E-01 -4.30955116117E-03 +6.41667760103E-04 -4.30174226431E-03 +7.23973199076E-04 -3.73423767012E-01 +3.18924063568E-01
4.46500000000E+09 -3.19178655682E-01 +3.35350323987E-01 -4.17113637790E-03 +1.11873693465E-03 -4.14005300639E-03 +1.20886744139E-03 -3.63447132430E-01 +3.38089120171E-01
4.47000000000E+09 -3.08538947470E-01 +3.49181051752E-01 -4.17693512348E-03 +1.44555732493E-03 -4.14216322062E-03 +1.57052845214E-03 -3.50793730584E-01 +3.57822805730E-01
4.47500000000E+09 -2.96610093863E-01 +3.65400574130E-01 -4.28172126410E-03 +2.09437797299E-03 -4.17928542528E-03 +2.17563167098E-03 -3.38928649169E-01 +3.75273483534E-01
4.48000000000E+09 -2.84573355653E-01 +3.81157950419E-01 -3.82028222949E-03 +2.76901763475E-03 -3.74350461030E-03 +2.87349733716E-03 -3.27363882148E-01 +3.93682462785E-01
4.48500000000E+09 -2.74661124967E-01 +3.98440909019E-01 -3.41916905145E-03 +3.02567143367E-03 -3.25172475246E-03 +3.05819463726E-03 -3.15525094434E-01 +4.10193762711E-01
4.49000000000E+09 -2.65104578673E-01 +4.15842294434E-01 -3.10052771341E-03 +3.63347530189E-03 -3.02417654285E-03 +3.65513744674E-03 -3.03955273662E-01 +4.26651504218E-01
4.49500000000E+09 -2.57371993542E-01 +4.31289714332E-01 -2.54630484620E-03 +3.77651292795E-03 -2.49044056549E-03 +3.72852901240E-03 -2.92038424028E-01 +4.42119994086E-01
4.50000000000E+09 -2.51165650679E-01 +4.45368173219E-01 -2.17576063138E-03 +4.13655637256E-03 -2.07758020588E-03 +4.02671472387E-03 -2.78939768887E-01 +4.57176174732E-01
4.50500000000E+09 -2.45443037379E-01 +4.57306652885E-01 -1.72257130188E-03 +3.96007493247E-03 -1.65924271622E-03 +3.91880449533E-03 -2.65141043982E-01 +4.72042716723E-01
4.51000000000E+09 -2.38430038567E-01 +4.67435263595E-01 -1.74134006292E-03 +4.46551505773E-03 -1.66256977073E-03 +4.38036156400E-03 -2.51179446464E-01 +4.86068915663E-01
4.51500000000E+09 -2.29675268089E-01 +4.75206919442E-01 -8.47926896499E-04 +4.97145529182E-03 -7.67563704168E-04 +4.87696502470E-03 -2.37835925817E-01 +5.00086875929E-01
4.52000000000E+09 -2.19539969626E-01 +4.82002446622E-01 -2.52300413417E-04 +4.64022076890E-03 -1.08869708018E-04 +4.57027041677E-03 -2.24045523485E-01 +5.13177408077E-01
4.52500000000E+09 -2.07053711231E-01 +4.89320615713E-01 +5.26697230261E-05 +4.89847291164E-03 +1.40441797978E-04 +4.86729067277E-03 -2.10103110706E-01 +5.25066899649E-01
4.53000000000E+09 -1.93174106152E-01 +4.97150438308E-01 +9.61276569103E-04 +4.85244693057E-03 +1.06581745837E-03 +4.75110694020E-03 -1.95653072090E-01 +5.36197453976E-01
4.53500000000E+09 -1.77997341913E-01 +5.07462748176E-01 +1.45457438848E-03 +4.32748167650E-03 +1.49467386650E-03 +4.19057395418E-03 -1.80565479573E-01 +5.46490275531E-01
4.54000000000E+09 -1.61728109774E-01 +5.18341701272E-01 +1.80609523695E-03 +4.25845283526E-03 +1.88151454516E-03 +4.18388639121E-03 -1.65826309196E-01 +5.56711018080E-01
4.54500000000E+09 -1.46940203350E-01 +5.29692485958E-01 +2.46408150599E-03 +3.86098165513E-03 +2.48525040099E-03 +3.74506618451E-03 -1.50967626265E-01 +5.67329485420E-01
4.55000000000E+09 -1.33604757095E-01 +5.40535584573E-01 +2.40399582938E-03 +3.45970178312E-03 +2.39711641705E-03 +3.38934444650E-03 -1.35975608024E-01 +5.77642282884E-01
4.55500000000E+09 -1.23106285700E-01 +5.50550535124E-01 +2.83328540178E-03 +3.33821765628E-03 +2.88162131129E-03 +3.18035014095E-03 -1.21259337364E-01 +5.87035120034E-01
4.56000000000E+09 -1.14652014410E-01 +5.60485958212E-01 +3.10000541025E-03 +2.97635169280E-03 +3.05913832506E-03 +2.84328218188E-03 -1.07268120060E-01 +5.95442353199E-01
4.56500000000E+09 -1.06438172507E-01 +5.68937517057E-01 +3.45330453577E-03 +2.65148520813E-03 +3.36655316560E-03 +2.57866605743E-03 -9.21854172068E-02 +6.04117191615E-01
4.57000000000E+09 -9.70055352120E-02 +5.75525227198E-01 +3.59891056566E-03 +2.41366243854E-03 +3.57555866969E-03 +2.29671846047E-03 -7.66689791960E-02 +6.11063709496E-01
