# Hz S RI R 50
! CMT, C1220, 16058040, 17.2.0/1
! Date: 15/08/2018 12:38:40
! Data: Format (Calibration Info)
! Freq                      S11: Re/Im (F2)                       S21: Re/Im (F2)                       S12: Re/Im (F2)                       S22: Re/Im (F2)            
4.00000000000E+09 +6.53869920329E-01 -3.60099332871E-01 +1.26915906708E-03 -1.02496082964E-03 +1.32019063807E-03 -9.76923561834E-04 +7.85430729766E-01 -3.14308866378E-01
4.00500000000E+09 +6.45428088415E-01 -3.65452123725E-01 +9.39412120850E-04 -1.26980386780E-03 +1.01530584533E-03 -1.28671201470E-03 +7.77229414546E-01 -3.25455396988E-01
4.01000000000E+09 +6.36632351731E-01 -3.70871781873E-01 +6.10167211332E-04 -1.44603256286E-03 +6.78013840536E-04 -1.49401825060E-03 +7.68790640297E-01 -3.37524228086E-01
4.01500000000E+09 +6.26604354217E-01 -3.77255544031E-01 +2.81073684666E-04 -1.29503059823E-03 +2.98507326161E-04 -1.32564459104E-03 +7.60326204785E-01 -3.48747851812E-01
4.02000000000E+09 +6.16747742416E-01 -3.84274141896E-01 +3.52386562070E-04 -1.19680135968E-03 +4.06257122366E-04 -1.18247921231E-03 +7.51442989388E-01 -3.59688248671E-01
4.02500000000E+09 +6.06333088734E-01 -3.93379496003E-01 +3.59518455616E-04 -1.24179175625E-03 +4.33651139471E-04 -1.28067392130E-03 +7.42047725002E-01 -3.70312455360E-01
4.03000000000E+09 +5.95370074629E-01 -4.03758674353E-01 +2.06966121728E-04 -1.35167471961E-03 +2.78501131926E-04 -1.40267748853E-03 +7.31827876075E-01 -3.80887996721E-01
4.03500000000E+09 +5.83686039494E-01 -4.14157679616E-01 +8.92914632323E-05 -1.44315146349E-03 +1.98103278924E-04 -1.45588514714E-03 +7.20762066484E-01 -3.91845115756E-01
4.04000000000E+09 +5.72277110110E-01 -4.23792564952E-01 -1.45212743122E-04 -1.39309100317E-03 -8.61006627954E-05 -1.47389838174E-03 +7.09683638410E-01 -4.03034582670E-01
4.04500000000E+09 +5.61484501640E-01 -4.33152981752E-01 -1.80424681010E-04 -1.42442825288E-03 -9.89241546627E-05 -1.45157718075E-03 +6.98639045700E-01 -4.13991942524E-01
4.05000000000E+09 +5.49725492997E-01 -4.41075299638E-01 -3.10767058155E-04 -1.42175343226E-03 -2.85765930387E-04 -1.49088126951E-03 +6.88171445221E-01 -4.24647626940E-01
4.05500000000E+09 +5.38025458323E-01 -4.46757570122E-01 -3.97631081607E-04 -1.40113002232E-03 -3.49949949323E-04 -1.52029730649E-03 +6.76890124244E-01 -4.34478761463E-01
4.06000000000E+09 +5.26172181001E-01 -4.51553552859E-01 -7.20379632139E-04 -1.47895895828E-03 -7.35673985477E-04 -1.53452900152E-03 +6.65760040337E-01 -4.43879375555E-01
4.06500000000E+09 +5.12921022508E-01 -4.55319451389E-01 -8.24407199623E-04 -1.15001940583E-03 -8.56496685502E-04 -1.17101348654E-03 +6.53410981038E-01 -4.53510224995E-01
4.07000000000E+09 +4.99577470697E-01 -4.58976644282E-01 -7.30923429644E-04 -1.05874321764E-03 -7.14228862711E-04 -1.11663592309E-03 +6.40242107656E-01 -4.63450411771E-01
4.07500000000E+09 +4.84955820855E-01 -4.63558278276E-01 -8.70538919712E-04 -1.18993920128E-03 -8.72625317043E-04 -1.26777225495E-03 +6.26685698041E-01 -4.74033745010E-01
4.08000000000E+09 +4.69341293611E-01 -4.68654790193E-01 -1.06793503676E-03 -1.15843266377E-03 -1.05644927928E-03 -1.18815894865E-03 +6.13109410426E-01 -4.83992238913E-01
4.08500000000E+09 +4.52992558196E-01 -4.74948822574E-01 -1.08336669223E-03 -1.14740290884E-03 -1.14156091044E-03 -1.16791038763E-03 +5.99837914701E-01 -4.94031266169E-01
4.09000000000E+09 +4.36106346120E-01 -4.81130795007E-01 -1.51264724695E-03 -1.17998739859E-03 -1.55232842324E-03 -1.24842319577E-03 +5.85745268685E-01 -5.02823344977E-01
4.09500000000E+09 +4.19768389792E-01 -4.87135131616E-01 -1.76100725727E-03 -5.95601858032E-04 -1.80112470496E-03 -6.30282905891E-04 +5.71516565379E-01 -5.11258953535E-01
4.10000000000E+09 +4.03360996628E-01 -4.93111604139E-01 -1.51613967213E-03 -2.34882923992E-04 -1.56031909953E-03 -2.26096103213E-04 +5.55946031891E-01 -5.18957717054E-01
4.10500000000E+09 +3.86694227219E-01 -4.97445978497E-01 -1.29682013128E-03 -3.77759479433E-04 -1.32104912578E-03 -4.24750093451E-04 +5.40442082363E-01 -5.26852602558E-01
4.11000000000E+09 +3.70391373998E-01 -4.99253996516E-01 -1.68556096231E-03 -3.34315753562E-04 -1.73194540669E-03 -3.93120502960E-04 +5.23909890227E-01 -5.35453595800E-01
4.11500000000E+09 +3.55421889377E-01 -5.00273908084E-01 -1.53567173060E-03 -1.91153007319E-05 -1.58604398879E-03 -4.93416233467E-05 +5.07720462273E-01 -5.43453923590E-01
4.12000000000E+09 +3.39799266237E-01 -5.00979895930E-01 -1.56257057606E-03 +5.62354958515E-05 -1.60454011480E-03 +5.73868744266E-05 +4.91484793099E-01 -5.51520269630E-01
4.12500000000E+09 +3.23046068673E-01 -5.01583344510E-01 -1.50233511714E-03 +1.68456336239E-04 -1.54600167275E-03 +1.25266464054E-04 +4.74215143082E-01 -5.58416062087E-01
4.13000000000E+09 +3.05840960012E-01 -5.02157972362E-01 -1.60303966670E-03 +4.14312410304E-04 -1.61729088084E-03 +3.50773537669E-04 +4.56716467154E-01 -5.64608364589E-01
4.13500000000E+09 +2.87404210020E-01 -5.04636065762E-01 -1.14321669125E-03 +6.99010097830E-04 -1.15466187920E-03 +6.47341765142E-04 +4.38330346369E-01 -5.70124832177E-01
4.14000000000E+09 +2.67087224060E-01 -5.07363389454E-01 -1.25938717709E-03 +2.14640828879E-04 -1.29788849470E-03 +1.69068696838E-04 +4.20034619480E-01 -5.75963532089E-01
4.14500000000E+09 +2.47365859922E-01 -5.09478303154E-01 -1.69224791526E-03 +4.68611223263E-04 -1.78546561660E-03 +4.52905260235E-04 +4.00860648984E-01 -5.81956302974E-01
4.15000000000E+09 +2.28334344877E-01 -5.13255144777E-01 -1.44588558785E-03 +9.09927327611E-04 -1.50190042096E-03 +8.70563643346E-04 +3.82554203425E-01 -5.87101901902E-01
4.15500000000E+09 +2.08619774664E-01 -5.16077032962E-01 -1.34061299721E-03 +1.03690793961E-03 -1.42311513640E-03 +1.03197092422E-03 +3.64229963870E-01 -5.92235707458E-01
4.16000000000E+09 +1.90518609658E-01 -5.16118768714E-01 -1.22278351510E-03 +1.16455559243E-03 -1.27966048690E-03 +1.18201015470E-03 +3.45091027982E-01 -5.95940630168E-01
4.16500000000E+09 +1.74126167080E-01 -5.16303960648E-01 -1.02570790407E-03 +1.16480530608E-03 -1.05629688321E-03 +1.16128505921E-03 +3.25605402291E-01 -5.98823512759E-01
4.17000000000E+09 +1.57622857004E-01 -5.14080155078E-01 -9.68273383988E-04 +1.35888523752E-03 -1.02006296059E-03 +1.36197468275E-03 +3.04626243033E-01 -6.01190917246E-01
4.17500000000E+09 +1.42050134332E-01 -5.09781215490E-01 -7.67937336581E-04 +1.00082674252E-03 -7.79039042964E-04 +1.03197611741E-03 +2.83143900545E-01 -6.02694809698E-01
4.18000000000E+09 +1.25857591173E-01 -5.05196929217E-01 -9.84627972384E-04 +1.42502961790E-03 -1.02541803191E-03 +1.51012120868E-03 +2.62102746058E-01 -6.03962471350E-01
4.18500000000E+09 +1.09605602726E-01 -4.99575251433E-01 -4.10696771860E-04 +1.40935266048E-03 -4.15281880621E-04 +1.45212055262E-03 +2.41244743145E-01 -6.05593443464E-01
4.19000000000E+09 +9.14723265977E-02 -4.94816206672E-01 -6.15498457585E-04 +1.27735014399E-03 -6.78803913846E-04 +1.23969575468E-03 +2.19583082231E-01 -6.05684426589E-01
4.19500000000E+09 +7.26414422260E-02 -4.88760102481E-01 -8.18561858495E-04 +1.55121147383E-03 -8.79260944413E-04 +1.60943599615E-03 +1.98490067640E-01 -6.04166324381E-01
4.20000000000E+09 +5.45631237755E-02 -4.84292179647E-01 -3.25012294325E-04 +1.99853215213E-03 -3.54548796684E-04 +2.01487159627E-03 +1.76798786455E-01 -6.02359898922E-01
4.20500000000E+09 +3.56969768324E-02 -4.80511568529E-01 +1.01405150443E-04 +1.68595617536E-03 +7.50298669049E-05 +1.77295117785E-03 +1.55032338379E-01 -5.99352312603E-01
4.21000000000E+09 +1.74138114360E-02 -4.76123294111E-01 -9.49323214270E-05 +1.29353031630E-03 -1.00040031184E-04 +1.38021136502E-03 +1.32684735209E-01 -5.97969354162E-01
4.21500000000E+09 +3.66538267685E-05 -4.70935930267E-01 -5.96339384417E-05 +1.75533295687E-03 -7.87886063341E-05 +1.85097497191E-03 +1.09110043417E-01 -5.95325279017E-01
4.22000000000E+09 -1.60029224788E-02 -4.64023732655E-01 +4.44341473525E-04 +1.66037929993E-03 +3.77385442677E-04 +1.67398334526E-03 +8.64213368176E-02 -5.91241612454E-01
4.22500000000E+09 -3.09984480841E-02 -4.55388076961E-01 +2.08074734963E-04 +1.37059789834E-03 +2.20124289903E-04 +1.36158970929E-03 +6.49804129256E-02 -5.86278924093E-01
4.23000000000E+09 -4.49490655552E-02 -4.44366137457E-01 +2.61345361667E-04 +1.71480919439E-03 +2.37769097805E-04 +1.70580977976E-03 +4.33414508443E-02 -5.79736127210E-01
4.23500000000E+09 -5.83720869255E-02 -4.33308812038E-01 +3.95585855447E-04 +1.64972941402E-03 +4.26564297648E-04 +1.65105713733E-03 +2.18156721781E-02 -5.72635720196E-01
4.24000000000E+09 -7.39399656112E-02 -4.21528001108E-01 +5.08774185607E-04 +1.74356315461E-03 +4.71381701081E-04 +1.75153729910E-03 -4.78734547787E-04 -5.64303247111E-01
4.24500000000E+09 -9.14873267769E-02 -4.08694668272E-01 +7.47989303737E-04 +1.81219629319E-03 +7.46768039699E-04 +1.86594561805E-03 -2.24212063999E-02 -5.55677189288E-01
4.25000000000E+09 -1.10405416935E-01 -3.95636181571E-01 +7.83705504632E-04 +1.97490173510E-03 +8.31458744657E-04 +2.03940824846E-03 -4.44556629099E-02 -5.46867732900E-01
4.25500000000E+09 -1.30053983609E-01 -3.83076150731E-01 +1.57774904852E-03 +1.89594328969E-03 +1.62421232766E-03 +1.97952123214E-03 -6.54386225962E-02 -5.37445772112E-01
4.26000000000E+09 -1.50840954155E-01 -3.71009551526E-01 +1.69909007167E-03 +1.25861871327E-03 +1.70852502408E-03 +1.34284029615E-03 -8.66009193310E-02 -5.26933757121E-01
4.26500000000E+09 -1.70099013250E-01 -3.58507018877E-01 +1.26767453293E-03 +1.34188687180E-03 +1.26113650781E-03 +1.38438151978E-03 -1.07110313079E-01 -5.15243325391E-01
4.27000000000E+09 -1.87021149395E-01 -3.47133497678E-01 +1.74447364927E-03 +1.45754304140E-03 +1.77560516132E-03 +1.47279636568E-03 -1.28546139031E-01 -5.01994334573E-01
4.27500000000E+09 -2.03269507693E-01 -3.35673023883E-01 +1.78687829583E-03 +1.24401265313E-03 +1.78919096633E-03 +1.22504326384E-03 -1.49411462242E-01 -4.87698420535E-01
4.28000000000E+09 -2.16311069452E-01 -3.22545179957E-01 +2.04045865395E-03 +1.46388863771E-03 +2.05321571587E-03 +1.49138760376E-03 -1.70258007485E-01 -4.73793192777E-01
4.28500000000E+09 -2.28041464435E-01 -3.08614458961E-01 +2.59985940804E-03 +1.19426726346E-03 +2.65493953470E-03 +1.24627278376E-03 -1.91251968767E-01 -4.58475109226E-01
4.29000000000E+09 -2.38798351071E-01 -2.93061591571E-01 +2.94327606739E-03 +2.35003007153E-04 +3.00865767229E-03 +2.46965924051E-04 -2.09807573695E-01 -4.42945291872E-01
4.29500000000E+09 -2.50381440338E-01 -2.75749292248E-01 +2.26697403583E-03 -1.03385835000E-04 +2.28102586062E-03 -7.12337653837E-05 -2.28303638408E-01 -4.27001991523E-01
4.30000000000E+09 -2.61977784075E-01 -2.55749203128E-01 +2.27076407817E-03 +4.05486225892E-05 +2.33551707846E-03 +4.80826798285E-05 -2.45026648597E-01 -4.09914238483E-01
4.30500000000E+09 -2.73384728618E-01 -2.35566189316E-01 +2.41113460301E-03 -2.61667925960E-04 +2.51120749844E-03 -2.99455882064E-04 -2.62881142327E-01 -3.92557559973E-01
4.31000000000E+09 -2.86003066691E-01 -2.15969898214E-01 +1.94181416877E-03 -1.83050209630E-04 +1.97130010721E-03 -1.90954230406E-04 -2.79809270649E-01 -3.72843992153E-01
4.31500000000E+09 -2.99196090835E-01 -1.97424498981E-01 +2.62244321442E-03 +1.10126432914E-04 +2.67156268422E-03 +6.25970325891E-05 -2.96182915175E-01 -3.53536695526E-01
4.32000000000E+09 -3.12638776424E-01 -1.80121995351E-01 +3.08223056917E-03 -8.45330543622E-04 +3.20969781224E-03 -9.24935555100E-04 -3.12194179499E-01 -3.33114002026E-01
4.32500000000E+09 -3.24844429217E-01 -1.63575757983E-01 +2.34850627342E-03 -1.40971935960E-03 +2.39814901653E-03 -1.52101811209E-03 -3.26370449159E-01 -3.11578512266E-01
4.33000000000E+09 -3.34844404557E-01 -1.47879802681E-01 +2.52629856347E-03 -1.10135477506E-03 +2.50457520433E-03 -1.15139146894E-03 -3.38916115582E-01 -2.90000244581E-01
4.33500000000E+09 -3.42051656247E-01 -1.31410881732E-01 +2.80997376449E-03 -1.81009505820E-03 +2.81237052676E-03 -1.88375938526E-03 -3.51234148366E-01 -2.67633911776E-01
4.34000000000E+09 -3.45349724279E-01 -1.15863627924E-01 +2.12434061833E-03 -2.63040655359E-03 +2.07138515939E-03 -2.59825533023E-03 -3.63116442918E-01 -2.45065251805E-01
4.34500000000E+09 -3.47861575201E-01 -9.93750627450E-02 +1.45368942511E-03 -2.16008880093E-03 +1.36041399714E-03 -2.17731265287E-03 -3.75068527266E-01 -2.21146717680E-01
4.35000000000E+09 -3.48484740270E-01 -8.08422844845E-02 +1.72115747256E-03 -1.90823535167E-03 +1.68829640678E-03 -1.94207491975E-03 -3.85658819448E-01 -1.98171057958E-01
4.35500000000E+09 -3.49962466002E-01 -6.10561345665E-02 +1.82825685564E-03 -2.35118775302E-03 +1.79656737376E-03 -2.33012374201E-03 -3.95711377088E-01 -1.75606831370E-01
4.36000000000E+09 -3.52003231152E-01 -3.87652231174E-02 +1.64002187662E-03 -2.46292003026E-03 +1.63518469827E-03 -2.50953276588E-03 -4.05311411618E-01 -1.52319482392E-01
4.36500000000E+09 -3.55284860337E-01 -1.55970027428E-02 +1.88343842203E-03 -2.93852747907E-03 +1.82892861298E-03 -2.97093806219E-03 -4.12796592789E-01 -1.27614543808E-01
4.37000000000E+09 -3.59884171938E-01 +8.31165837404E-03 +1.47338280917E-03 -3.61773845396E-03 +1.40953451546E-03 -3.60919387481E-03 -4.18620090544E-01 -1.02824242235E-01
4.37500000000E+09 -3.64134937909E-01 +3.14528253819E-02 +7.98285405347E-04 -4.18199677399E-03 +7.54096849528E-04 -4.20100687465E-03 -4.23673490487E-01 -7.73409213642E-02
4.38000000000E+09 -3.68679185008E-01 +5.10286805571E-02 -1.20658813831E-04 -4.10219637642E-03 -1.74743770521E-04 -4.13179049502E-03 -4.27608298653E-01 -5.22192479015E-02
4.38500000000E+09 -3.73302821132E-01 +6.94540037923E-02 -6.39576095085E-04 -3.88681056091E-03 -6.67944869391E-04 -3.90384515092E-03 -4.30871843624E-01 -2.77166331834E-02
4.39000000000E+09 -3.76293487891E-01 +8.54232796172E-02 -9.95368994207E-04 -3.84969221401E-03 -1.03307744249E-03 -3.88725318864E-03 -4.34137874023E-01 -2.29655676589E-03
4.39500000000E+09 -3.77376172806E-01 +9.98938057255E-02 -1.52495585401E-03 -3.30490613544E-03 -1.61198928564E-03 -3.33268925103E-03 -4.34627188526E-01 +2.17174767756E-02
4.40000000000E+09 -3.76247244596E-01 +1.15181140921E-01 -1.36218569840E-03 -3.40446988057E-03 -1.36823968007E-03 -3.39385082083E-03 -4.35453167694E-01 +4.62625291109E-02
4.40500000000E+09 -3.72092595882E-01 +1.30822116455E-01 -2.29544975932E-03 -3.52046798135E-03 -2.36265838362E-03 -3.59972440192E-03 -4.34538582476E-01 +7.13180020657E-02
4.41000000000E+09 -3.66955655588E-01 +1.47398880360E-01 -2.32795832768E-03 -2.79510685606E-03 -2.35532790670E-03 -2.79992529291E-03 -4.32339206732E-01 +9.61532854866E-02
4.41500000000E+09 -3.61409575263E-01 +1.66262855563E-01 -2.62836597124E-03 -3.06861217295E-03 -2.71275000053E-03 -3.10337405693E-03 -4.29732917993E-01 +1.20115751203E-01
4.42000000000E+09 -3.55784663216E-01 +1.87160030450E-01 -3.23742754863E-03 -2.55694553779E-03 -3.31127356844E-03 -2.53140334288E-03 -4.27330642752E-01 +1.44164541846E-01
4.42500000000E+09 -3.50981061636E-01 +2.09166983230E-01 -3.53385186291E-03 -2.31047583457E-03 -3.60836321226E-03 -2.26394655100E-03 -4.22239600807E-01 +1.68682672810E-01
4.43000000000E+09 -3.46712922878E-01 +2.30361220464E-01 -3.96327181281E-03 -2.05754121722E-03 -4.01006163452E-03 -1.96515482539E-03 -4.17160706385E-01 +1.90774903667E-01
4.43500000000E+09 -3.44872484889E-01 +2.50791375203E-01 -4.29185263638E-03 -8.61093655505E-04 -4.31432737246E-03 -7.70936988761E-04 -4.10881393431E-01 +2.14419901973E-01
4.44000000000E+09 -3.42760166498E-01 +2.70196388625E-01 -3.81747110019E-03 -7.40359755255E-04 -3.87392726619E-03 -7.01249676792E-04 -4.03585060230E-01 +2.36290634167E-01
4.44500000000E+09 -3.40024338921E-01 +2.86049585078E-01 -4.00744124974E-03 -1.30797398144E-04 -4.03528657083E-03 -3.73722782240E-05 -3.96603435232E-01 +2.57707324938E-01
4.45000000000E+09 -3.37557183293E-01 +2.99783347684E-01 -3.59319544011E-03 +4.97511586829E-05 -3.60533147268E-03 +1.14626473373E-04 -3.89099676278E-01 +2.78785502877E-01
4.45500000000E+09 -3.32833814774E-01 +3.12740071421E-01 -3.91594726379E-03 -8.89092040642E-05 -3.91993028992E-03 +6.88204936239E-05 -3.81611238321E-01 +2.99573492355E-01
4.46000000000E+09 -3.26407428714E-01 +3.24650268338E-01 -4.22371781532E-03 +7.41073031290E-04 -4.17165171827E-03 +8.59885067142E-04 -3.71904895661E-01 +3.19758258363E-01
4.46500000000E+09 -3.17372107484E-01 +3.37582524777E-01 -3.89909089026E-03 +1.24939315569E-03 -3.80867915388E-03 +1.39845811667E-03 -3.61952963618E-01 +3.39159685270E-01
4.47000000000E+09 -3.06693361687E-01 +3.51208528782E-01 -3.77257694166E-03 +1.44161154990E-03 -3.72706577668E-03 +1.59665190915E-03 -3.49290220942E-01 +3.59038101869E-01
4.47500000000E+09 -2.95030011965E-01 +3.67382986617E-01 -3.98348104246E-03 +1.94009393598E-03 -3.87641739064E-03 +2.10885088905E-03 -3.37425183893E-01 +3.76603250976E-01
4.48000000000E+09 -2.82413473726E-01 +3.83223954292E-01 -3.63272285899E-03 +2.67124566574E-03 -3.55677601039E-03 +2.72297411994E-03 -3.25631530394E-01 +3.95138238752E-01
4.48500000000E+09 -2.72521470226E-01 +4.00245686203E-01 -3.12692568683E-03 +3.01108888337E-03 -2.95920397788E-03 +3.04212153232E-03 -3.13487136133E-01 +4.11534509227E-01
4.49000000000E+09 -2.63158608459E-01 +4.17663686652E-01 -2.82621779879E-03 +3.36424405452E-03 -2.71808317523E-03 +3.32732151926E-03 -3.02111740984E-01 +4.27547688871E-01
4.49500000000E+09 -2.55188239822E-01 +4.33383004935E-01 -2.38035723369E-03 +3.46927365481E-03 -2.26086732520E-03 +3.44974919417E-03 -2.90585281576E-01 +4.43000097056E-01
4.50000000000E+09 -2.48712640341E-01 +4.47707571057E-01 -2.19171594779E-03 +3.86825308173E-03 -2.04803423604E-03 +3.78031001798E-03 -2.77668308587E-01 +4.58392663982E-01
4.50500000000E+09 -2.42399210712E-01 +4.59419984891E-01 -1.67681311004E-03 +4.03209064708E-03 -1.58571353077E-03 +3.96698674670E-03 -2.63667273054E-01 +4.73359311407E-01
4.51000000000E+09 -2.35568595875E-01 +4.69127532166E-01 -1.51575317126E-03 +4.38268278381E-03 -1.43865928721E-03 +4.32917951387E-03 -2.49634109716E-01 +4.87256471188E-01
4.51500000000E+09 -2.26790932631E-01 +4.76909119098E-01 -6.94578693457E-04 +4.92864969494E-03 -6.08403492462E-04 +4.85591825972E-03 -2.36217428094E-01 +5.01230559276E-01
4.52000000000E+09 -2.16680386299E-01 +4.83351337199E-01 +2.29777651757E-04 +4.52327216364E-03 +3.00599479273E-04 +4.39357426486E-03 -2.22450413520E-01 +5.14376647399E-01
4.52500000000E+09 -2.04477615229E-01 +4.90859526029E-01 +2.60455189603E-04 +4.56986167299E-03 +2.87973468317E-04 +4.44036094797E-03 -2.08491751219E-01 +5.26064809901E-01
4.53000000000E+09 -1.90390724674E-01 +4.99132223882E-01 +1.10940108936E-03 +4.57456847710E-03 +1.17364545333E-03 +4.46694866218E-03 -1.94424269878E-01 +5.36947643220E-01
4.53500000000E+09 -1.74552764747E-01 +5.09222862214E-01 +1.55347534053E-03 +3.96311439527E-03 +1.52972477495E-03 +3.87347801326E-03 -1.79996718269E-01 +5.47434197924E-01
4.54000000000E+09 -1.58074919902E-01 +5.19682797957E-01 +1.74914286377E-03 +4.04600926228E-03 +1.84495391059E-03 +3.94818833995E-03 -1.64988305953E-01 +5.58396535581E-01
4.54500000000E+09 -1.43251251990E-01 +5.30350645114E-01 +2.63180692123E-03 +3.70365944549E-03 +2.68301957733E-03 +3.59073141820E-03 -1.49878464270E-01 +5.68948484342E-01
4.55000000000E+09 -1.30441475601E-01 +5.41085314005E-01 +2.60493438696E-03 +3.18595728658E-03 +2.59689272242E-03 +3.05088204088E-03 -1.34780359339E-01 +5.79380616170E-01
4.55500000000E+09 -1.19975736480E-01 +5.51343597348E-01 +3.09786460624E-03 +3.00428995682E-03 +3.04659504104E-03 +2.89955152927E-03 -1.19915946391E-01 +5.88822316463E-01
4.56000000000E+09 -1.11326706829E-01 +5.61115703166E-01 +3.25806951707E-03 +2.42268116941E-03 +3.22296097140E-03 +2.37247585866E-03 -1.05714739585E-01 +5.97275312851E-01
4.56500000000E+09 -1.02817799357E-01 +5.69460004335E-01 +3.40462301136E-03 +2.04861625980E-03 +3.38754552942E-03 +1.98289078736E-03 -9.05439616405E-02 +6.05808489249E-01
4.57000000000E+09 -9.31708215902E-02 +5.75697688989E-01 +3.45573903104E-03 +1.86779267104E-03 +3.43656667168E-03 +1.77199911955E-03 -7.51276501558E-02 +6.12896575474E-01
