# Hz S RI R 50
! CMT, C1220, 16058040, 17.2.0/1
! Date: 15/08/2018 12:41:50
! Data: Format (Calibration Info)
! Freq                      S11: Re/Im (F2)                       S21: Re/Im (F2)                       S12: Re/Im (F2)                       S22: Re/Im (F2)            
4.00000000000E+09 +6.59192183356E-01 -3.57425495577E-01 +9.47908233224E-04 -1.09633638921E-03 +1.01676694802E-03 -1.07273209482E-03 +7.87258012407E-01 -3.13094161391E-01
4.00500000000E+09 +6.50933615088E-01 -3.63289310672E-01 +7.28484111262E-04 -1.37830087007E-03 +8.08902853681E-04 -1.34593714689E-03 +7.78979270982E-01 -3.24508023193E-01
4.01000000000E+09 +6.41995851532E-01 -3.69049869108E-01 +3.92010413941E-04 -1.49552295996E-03 +4.80577212102E-04 -1.58747918280E-03 +7.70439950249E-01 -3.36586493451E-01
4.01500000000E+09 +6.32100881446E-01 -3.75505901231E-01 +5.27633261175E-05 -1.26437097560E-03 +1.03572483484E-04 -1.30652966404E-03 +7.61749090237E-01 -3.47677143635E-01
4.02000000000E+09 +6.22277901429E-01 -3.82742904245E-01 +1.39942676373E-04 -1.27596706743E-03 +1.58184955106E-04 -1.33347100122E-03 +7.52663987098E-01 -3.58649040959E-01
4.02500000000E+09 +6.11935610509E-01 -3.91959977024E-01 +1.53659668199E-05 -1.20946304176E-03 +6.22130746320E-05 -1.23614053365E-03 +7.43233277163E-01 -3.69245168046E-01
4.03000000000E+09 +6.00942972328E-01 -4.02698423106E-01 -2.58981018728E-05 -1.24247115763E-03 -2.87565915849E-05 -1.30674194079E-03 +7.32893411118E-01 -3.79694491558E-01
4.03500000000E+09 +5.89404678384E-01 -4.13153254680E-01 -1.77525500902E-04 -1.24795024773E-03 -1.31975962998E-04 -1.31436989910E-03 +7.21956313038E-01 -3.90765047982E-01
4.04000000000E+09 +5.78288900674E-01 -4.23324237296E-01 -2.30906227659E-04 -1.21256348974E-03 -2.40994900662E-04 -1.24997473489E-03 +7.11071655251E-01 -4.01870805731E-01
4.04500000000E+09 +5.67226819362E-01 -4.33172490688E-01 -3.19145852813E-04 -1.20713316562E-03 -3.19196158878E-04 -1.26201726860E-03 +7.00184769909E-01 -4.13038991929E-01
4.05000000000E+09 +5.55517812454E-01 -4.41264477997E-01 -5.13907293501E-04 -1.24664187477E-03 -4.64795126309E-04 -1.29604869632E-03 +6.89496262689E-01 -4.23773081802E-01
4.05500000000E+09 +5.43828499066E-01 -4.47395639565E-01 -5.24577083644E-04 -1.17091521217E-03 -5.87193949234E-04 -1.22532520462E-03 +6.78038711733E-01 -4.33586296322E-01
4.06000000000E+09 +5.32040324175E-01 -4.52514461896E-01 -7.89328795743E-04 -1.23607360539E-03 -7.93028740821E-04 -1.33851932184E-03 +6.66909882760E-01 -4.42932790114E-01
4.06500000000E+09 +5.18968984009E-01 -4.56810799653E-01 -9.73872763323E-04 -9.18322677105E-04 -1.02593558773E-03 -9.83030689844E-04 +6.54442519623E-01 -4.52683029152E-01
4.07000000000E+09 +5.05544892736E-01 -4.61039432890E-01 -8.37373494114E-04 -7.41801136381E-04 -8.25713483964E-04 -7.60448593329E-04 +6.41234498665E-01 -4.62570338435E-01
4.07500000000E+09 +4.90812804578E-01 -4.66061443881E-01 -8.42776225949E-04 -1.08248534434E-03 -8.02940009527E-04 -1.07867486805E-03 +6.27686888040E-01 -4.73250095037E-01
4.08000000000E+09 +4.75205797378E-01 -4.71288558278E-01 -1.18733990270E-03 -9.18098560595E-04 -1.14400732817E-03 -9.61718376416E-04 +6.14118379325E-01 -4.83264340021E-01
4.08500000000E+09 +4.59030716055E-01 -4.77909614079E-01 -1.09332226289E-03 -8.19983671362E-04 -1.11206482444E-03 -8.60041595323E-04 +6.00536513104E-01 -4.93279096975E-01
4.09000000000E+09 +4.41935759604E-01 -4.84480016026E-01 -1.49883434062E-03 -8.65826040364E-04 -1.44297924290E-03 -9.31643763759E-04 +5.86456527863E-01 -5.01986052357E-01
4.09500000000E+09 +4.25454248966E-01 -4.90959060634E-01 -1.73195924363E-03 -3.92591937302E-04 -1.78774694600E-03 -4.42997762037E-04 +5.72086318126E-01 -5.10145809956E-01
4.10000000000E+09 +4.08733444953E-01 -4.97088860584E-01 -1.45465413815E-03 -6.99907610697E-05 -1.50508646166E-03 -3.55627821368E-05 +5.56319221791E-01 -5.17690736564E-01
4.10500000000E+09 +3.91982951639E-01 -5.01720149769E-01 -1.42252903483E-03 -1.04874770503E-04 -1.39792972892E-03 -1.25749006000E-04 +5.40782865988E-01 -5.25464587479E-01
4.11000000000E+09 +3.75584880320E-01 -5.03859477478E-01 -1.60249152670E-03 +1.03942506750E-04 -1.59142446647E-03 +6.18017146305E-06 +5.24368622112E-01 -5.33720870303E-01
4.11500000000E+09 +3.60373815086E-01 -5.05463555489E-01 -1.16724945436E-03 +4.05057706831E-04 -1.24802151317E-03 +3.87600356800E-04 +5.08691646018E-01 -5.41322144161E-01
4.12000000000E+09 +3.44462422858E-01 -5.06425477788E-01 -1.16993365280E-03 +2.07441241109E-04 -1.22276904295E-03 +2.63937267005E-04 +4.92657979769E-01 -5.49424994740E-01
4.12500000000E+09 +3.27530715959E-01 -5.07452444755E-01 -1.19667181631E-03 +3.16934239094E-04 -1.26214109563E-03 +3.31347818713E-04 +4.75595348656E-01 -5.56184626377E-01
4.13000000000E+09 +3.09788411482E-01 -5.08355654634E-01 -1.19185071135E-03 +4.86422621285E-04 -1.20802864305E-03 +5.45685352076E-04 +4.58239851829E-01 -5.62364817084E-01
4.13500000000E+09 +2.91068975024E-01 -5.10576800481E-01 -8.80395439812E-04 +6.74547244564E-04 -9.89279894465E-04 +6.77737494054E-04 +4.39939665288E-01 -5.67949378553E-01
4.14000000000E+09 +2.71108806421E-01 -5.13643285239E-01 -1.01070753607E-03 +2.83879451569E-04 -1.05919726794E-03 +3.13277714337E-04 +4.21569019344E-01 -5.73621905226E-01
4.14500000000E+09 +2.51091930407E-01 -5.16342765899E-01 -1.40020111290E-03 +5.93740951564E-04 -1.39365958872E-03 +6.37574974246E-04 +4.02304660031E-01 -5.79608005053E-01
4.15000000000E+09 +2.31660478975E-01 -5.20123368739E-01 -1.06494019755E-03 +1.03082008657E-03 -1.09224375433E-03 +1.04472679065E-03 +3.84291413317E-01 -5.84746264043E-01
4.15500000000E+09 +2.11747021333E-01 -5.23239451345E-01 -9.12383441376E-04 +9.57554433180E-04 -8.85214633157E-04 +1.02337970920E-03 +3.66089717948E-01 -5.89763447310E-01
4.16000000000E+09 +1.92842524016E-01 -5.23906697235E-01 -8.48525784854E-04 +9.60377855190E-04 -7.77440218998E-04 +1.04218534692E-03 +3.47227495207E-01 -5.93155808939E-01
4.16500000000E+09 +1.75757748825E-01 -5.23744842774E-01 -7.07863872597E-04 +9.00481295029E-04 -6.93244755000E-04 +8.93813300791E-04 +3.27995902064E-01 -5.96125346993E-01
4.17000000000E+09 +1.58942568034E-01 -5.21452607105E-01 -8.37587120941E-04 +1.03458923538E-03 -7.78600664704E-04 +1.00587402669E-03 +3.07371913068E-01 -5.98401901837E-01
4.17500000000E+09 +1.42914046561E-01 -5.17671004832E-01 -6.35612259355E-04 +9.68270640522E-04 -6.81876461670E-04 +9.11121743446E-04 +2.86203681803E-01 -5.99906087950E-01
4.18000000000E+09 +1.25906739706E-01 -5.13339660665E-01 -7.99392518684E-04 +1.21097080496E-03 -8.08533349095E-04 +1.16955985635E-03 +2.65322509966E-01 -6.01206652969E-01
4.18500000000E+09 +1.08591688524E-01 -5.07676952506E-01 -4.33378502341E-04 +1.34641666748E-03 -3.88556123676E-04 +1.29460523118E-03 +2.44566216232E-01 -6.02803220759E-01
4.19000000000E+09 +9.02641729117E-02 -5.02412943622E-01 -4.47398109443E-04 +1.26903395433E-03 -5.13141065209E-04 +1.24438072274E-03 +2.23402740695E-01 -6.02719748858E-01
4.19500000000E+09 +7.10663137071E-02 -4.97100300757E-01 -4.94225734505E-04 +1.43692393914E-03 -5.36972320179E-04 +1.38826193689E-03 +2.02997282661E-01 -6.01280492153E-01
4.20000000000E+09 +5.21817895243E-02 -4.92465076199E-01 -1.44456996095E-04 +1.67458736957E-03 -2.04612119765E-04 +1.68051896682E-03 +1.81893011809E-01 -5.99740178983E-01
4.20500000000E+09 +3.28292231053E-02 -4.88413914829E-01 +2.19594584101E-04 +1.48695306580E-03 +1.79822019271E-04 +1.47301878951E-03 +1.60764673558E-01 -5.97245323450E-01
4.21000000000E+09 +1.41249276776E-02 -4.83935774798E-01 +1.56752794547E-05 +1.14178854587E-03 -1.24521233768E-04 +1.14940079462E-03 +1.38707679230E-01 -5.96433871836E-01
4.21500000000E+09 -3.61366537863E-03 -4.78273256134E-01 +7.54045640773E-05 +1.60518649483E-03 -2.42172394836E-05 +1.65578047771E-03 +1.15204214415E-01 -5.94294229032E-01
4.22000000000E+09 -1.98260376324E-02 -4.71143823391E-01 +4.92200215286E-04 +1.51685098820E-03 +4.47629075895E-04 +1.65235680282E-03 +9.28601507438E-02 -5.90663291111E-01
4.22500000000E+09 -3.50445025576E-02 -4.62547021111E-01 +4.07423363089E-04 +1.18463210347E-03 +3.79325997701E-04 +1.30502833956E-03 +7.12186848257E-02 -5.86222643199E-01
4.23000000000E+09 -4.97668446252E-02 -4.51699958452E-01 +5.60324367524E-04 +1.40680950934E-03 +4.73324375040E-04 +1.57374797762E-03 +4.96513613795E-02 -5.79970838712E-01
4.23500000000E+09 -6.40536788007E-02 -4.40092636895E-01 +5.94862198441E-04 +1.27299834451E-03 +6.16559706263E-04 +1.38394849842E-03 +2.81159478666E-02 -5.73368615302E-01
4.24000000000E+09 -8.01241498581E-02 -4.27680077764E-01 +6.48049800810E-04 +1.30568516234E-03 +6.71724281780E-04 +1.43595796862E-03 +5.98826121081E-03 -5.65426923115E-01
4.24500000000E+09 -9.79550744406E-02 -4.14539395604E-01 +8.99648758408E-04 +1.34574778839E-03 +9.51231649754E-04 +1.44940808239E-03 -1.58705641720E-02 -5.57504868542E-01
4.25000000000E+09 -1.17216911396E-01 -4.00885786088E-01 +7.39698857267E-04 +1.29756181908E-03 +8.68476888594E-04 +1.42950019730E-03 -3.80081855809E-02 -5.49137034654E-01
4.25500000000E+09 -1.37030319398E-01 -3.88012770598E-01 +1.33096680046E-03 +1.43734860704E-03 +1.47404092745E-03 +1.50432176789E-03 -5.92334066746E-02 -5.40081139137E-01
4.26000000000E+09 -1.57919587092E-01 -3.75829290844E-01 +1.35589693640E-03 +9.52978632197E-04 +1.48996969810E-03 +9.58959018546E-04 -8.06440313357E-02 -5.30137177636E-01
4.26500000000E+09 -1.77591673767E-01 -3.63105150491E-01 +9.08607154367E-04 +1.02406434687E-03 +1.00545478508E-03 +1.01073282275E-03 -1.01765836968E-01 -5.18461579656E-01
4.27000000000E+09 -1.94988478079E-01 -3.51176492433E-01 +1.51767924223E-03 +1.24533602911E-03 +1.66273796432E-03 +1.19023879241E-03 -1.23110979758E-01 -5.05174560607E-01
4.27500000000E+09 -2.11034131876E-01 -3.39133689970E-01 +1.67037949238E-03 +7.62873660048E-04 +1.79097813804E-03 +7.02884368219E-04 -1.43866164411E-01 -4.91212148347E-01
4.28000000000E+09 -2.24393570965E-01 -3.25871714282E-01 +1.56390553264E-03 +8.96741553187E-04 +1.65804017916E-03 +8.35216263665E-04 -1.64503545526E-01 -4.77685003147E-01
4.28500000000E+09 -2.36317140818E-01 -3.11024013318E-01 +1.98505223279E-03 +8.24576538919E-04 +2.00788875588E-03 +7.31534948645E-04 -1.85417186493E-01 -4.63074935630E-01
4.29000000000E+09 -2.46896331270E-01 -2.94940196734E-01 +2.18047623893E-03 +2.04765179913E-04 +2.17214781842E-03 +8.69390227148E-05 -2.04270773788E-01 -4.48200107668E-01
4.29500000000E+09 -2.58471487961E-01 -2.77026755284E-01 +1.71409947796E-03 +1.19848781933E-04 +1.69127117999E-03 +5.78415971618E-05 -2.23210695604E-01 -4.33041598849E-01
4.30000000000E+09 -2.69742529485E-01 -2.56367981902E-01 +2.09116873408E-03 +2.49635874419E-04 +1.99614532067E-03 +1.35047125458E-04 -2.40616817792E-01 -4.16278055496E-01
4.30500000000E+09 -2.81196756635E-01 -2.35758422646E-01 +2.23073161639E-03 -2.06292560024E-04 +2.16168582719E-03 -2.34433230967E-04 -2.58997465015E-01 -3.99102610992E-01
4.31000000000E+09 -2.93624234015E-01 -2.15615338885E-01 +1.81050919971E-03 +1.97302607937E-06 +1.69325372680E-03 -2.64059510211E-05 -2.76365491191E-01 -3.79768801622E-01
4.31500000000E+09 -3.06965858351E-01 -1.96287328062E-01 +2.46499056520E-03 +4.36050671215E-05 +2.37275381995E-03 +7.74533847940E-05 -2.93356646294E-01 -3.60699543857E-01
4.32000000000E+09 -3.20153676174E-01 -1.78199019679E-01 +2.91772326595E-03 -8.06066703230E-04 +2.87951665862E-03 -7.37873666406E-04 -3.09972036895E-01 -3.40642284351E-01
4.32500000000E+09 -3.31823775129E-01 -1.60887450807E-01 +2.19003295519E-03 -1.39981783876E-03 +2.14288387347E-03 -1.34657801092E-03 -3.24946708437E-01 -3.19216096580E-01
4.33000000000E+09 -3.41649739466E-01 -1.45185215546E-01 +2.15753486768E-03 -1.15437628090E-03 +2.19097538866E-03 -1.08500365371E-03 -3.38158635414E-01 -2.97442173598E-01
4.33500000000E+09 -3.49043754277E-01 -1.28360043015E-01 +2.37502717376E-03 -1.71052127053E-03 +2.38358122209E-03 -1.61220129286E-03 -3.51232736194E-01 -2.75000653022E-01
4.34000000000E+09 -3.52307758908E-01 -1.12151541295E-01 +1.87541715338E-03 -2.33770928261E-03 +1.92247105124E-03 -2.21801561458E-03 -3.63818054469E-01 -2.51868073416E-01
4.34500000000E+09 -3.54525531869E-01 -9.55228979537E-02 +1.34196200491E-03 -1.92007203942E-03 +1.36023710676E-03 -1.83387694920E-03 -3.76304943685E-01 -2.27478993458E-01
4.35000000000E+09 -3.55301341690E-01 -7.64168568054E-02 +1.71852672339E-03 -2.22297476468E-03 +1.83692544772E-03 -2.13979516963E-03 -3.87042055635E-01 -2.03951424242E-01
4.35500000000E+09 -3.55976833770E-01 -5.61802244023E-02 +1.28204880083E-03 -2.46770425297E-03 +1.41429623237E-03 -2.51248433652E-03 -3.97285826036E-01 -1.80964802112E-01
4.36000000000E+09 -3.57469905514E-01 -3.40625153142E-02 +1.04305255513E-03 -2.38829197886E-03 +1.16001547273E-03 -2.40696228214E-03 -4.06672311099E-01 -1.57191288671E-01
4.36500000000E+09 -3.60372961648E-01 -1.07282054027E-02 +1.28407702112E-03 -2.63881907169E-03 +1.38363508540E-03 -2.77738509525E-03 -4.13999541538E-01 -1.32448488325E-01
4.37000000000E+09 -3.64346310621E-01 +1.33023559301E-02 +9.49948762666E-04 -3.15864051981E-03 +9.74564838567E-04 -3.30227870532E-03 -4.19635864687E-01 -1.07992946889E-01
4.37500000000E+09 -3.67885645033E-01 +3.64430057331E-02 +4.13397806179E-04 -3.67841715963E-03 +3.97077004179E-04 -3.85990744745E-03 -4.25280606522E-01 -8.24013726050E-02
4.38000000000E+09 -3.72022724435E-01 +5.62838215805E-02 -3.78920248902E-04 -3.45675143743E-03 -4.98077588712E-04 -3.64819186505E-03 -4.29447774827E-01 -5.70475847279E-02
4.38500000000E+09 -3.76053617049E-01 +7.49358826779E-02 -7.55133215407E-04 -3.17591730198E-03 -8.55337198568E-04 -3.35452656715E-03 -4.32809048737E-01 -3.21592524690E-02
4.39000000000E+09 -3.78283474480E-01 +9.09515938265E-02 -9.71635191184E-04 -3.16596354074E-03 -1.12271535887E-03 -3.33374463391E-03 -4.36021095380E-01 -6.74231928414E-03
4.39500000000E+09 -3.79011718418E-01 +1.05536788108E-01 -1.50862915450E-03 -2.74909430363E-03 -1.65359576647E-03 -2.88579000699E-03 -4.36843374429E-01 +1.73456560065E-02
4.40000000000E+09 -3.77542026773E-01 +1.20716762311E-01 -1.37631728436E-03 -2.73309767988E-03 -1.58680259221E-03 -2.78276393664E-03 -4.37789537694E-01 +4.20354877618E-02
4.40500000000E+09 -3.73386311008E-01 +1.37080574666E-01 -2.07691717226E-03 -2.78163173124E-03 -2.26580890161E-03 -2.80552976869E-03 -4.37032534244E-01 +6.71279053891E-02
4.41000000000E+09 -3.66984454756E-01 +1.53531500864E-01 -2.02272093656E-03 -2.14531343183E-03 -2.15849470637E-03 -2.07105785041E-03 -4.35439952568E-01 +9.22862604560E-02
4.41500000000E+09 -3.61088731769E-01 +1.71746769001E-01 -2.12953870628E-03 -2.46175642251E-03 -2.31201515387E-03 -2.34196663521E-03 -4.32904585394E-01 +1.17001356030E-01
4.42000000000E+09 -3.55326238364E-01 +1.92284792039E-01 -2.48219371753E-03 -2.23405967747E-03 -2.52880636171E-03 -2.05451157693E-03 -4.30273871064E-01 +1.41574107811E-01
4.42500000000E+09 -3.50250306168E-01 +2.14097867724E-01 -2.79209809093E-03 -2.27401609195E-03 -2.85444575695E-03 -2.12437857955E-03 -4.25165612147E-01 +1.66586617757E-01
4.43000000000E+09 -3.45830926027E-01 +2.34996189221E-01 -3.56933104419E-03 -2.15117746117E-03 -3.61417280230E-03 -1.98759853093E-03 -4.19588902237E-01 +1.89096364384E-01
4.43500000000E+09 -3.43649725410E-01 +2.55228766405E-01 -3.98232553117E-03 -8.69323816949E-04 -3.92251756764E-03 -6.85095589730E-04 -4.12975033622E-01 +2.12733582107E-01
4.44000000000E+09 -3.41123478366E-01 +2.74378709800E-01 -3.59784067355E-03 -6.16673756092E-04 -3.47400884354E-03 -5.18744727910E-04 -4.05260357684E-01 +2.34918590699E-01
4.44500000000E+09 -3.37903316777E-01 +2.89850495458E-01 -3.56074073478E-03 -1.13645617973E-05 -3.42725313321E-03 +1.37675194391E-05 -3.97662561786E-01 +2.56237798094E-01
4.45000000000E+09 -3.34878129551E-01 +3.03108521372E-01 -3.21572461710E-03 +2.94124994827E-05 -3.07283310718E-03 +1.55975755055E-04 -3.89804114244E-01 +2.77123126340E-01
4.45500000000E+09 -3.30367260540E-01 +3.15460839849E-01 -3.40137767243E-03 -1.06685621094E-04 -3.31713497796E-03 -1.00419815552E-04 -3.81942267118E-01 +2.97460381643E-01
4.46000000000E+09 -3.23828616050E-01 +3.27112884636E-01 -3.86456232044E-03 +5.08738255937E-04 -3.72506597462E-03 +5.05806666869E-04 -3.72225020972E-01 +3.17186100275E-01
4.46500000000E+09 -3.14738405768E-01 +3.39744788071E-01 -3.66597807333E-03 +9.99351553797E-04 -3.54387286405E-03 +1.04316603363E-03 -3.62319139137E-01 +3.36387970031E-01
4.47000000000E+09 -3.04131083288E-01 +3.52990962093E-01 -3.74112735390E-03 +1.26065647433E-03 -3.65738228106E-03 +1.23057427642E-03 -3.49764823438E-01 +3.55848113173E-01
4.47500000000E+09 -2.92488151928E-01 +3.68944913235E-01 -3.83066164376E-03 +1.98893576438E-03 -3.75445988138E-03 +1.92120757999E-03 -3.38140777464E-01 +3.73062779302E-01
4.48000000000E+09 -2.79787582895E-01 +3.84369153751E-01 -3.44268462303E-03 +2.74120399606E-03 -3.46268677937E-03 +2.66340412053E-03 -3.26758640925E-01 +3.91401896873E-01
4.48500000000E+09 -2.69958411816E-01 +4.00878724996E-01 -2.90529392809E-03 +3.14163646393E-03 -2.86675461100E-03 +3.05128620072E-03 -3.14880350357E-01 +4.07991062781E-01
4.49000000000E+09 -2.60594067540E-01 +4.17898716085E-01 -2.38512619462E-03 +3.43319167783E-03 -2.39190286759E-03 +3.33758303130E-03 -3.03475440450E-01 +4.23810530267E-01
4.49500000000E+09 -2.52671093546E-01 +4.33305921808E-01 -1.95984588750E-03 +3.43092022692E-03 -1.98164911038E-03 +3.31740579103E-03 -2.92180869647E-01 +4.39325191932E-01
4.50000000000E+09 -2.46285998691E-01 +4.47027777286E-01 -1.68867903241E-03 +3.62075032767E-03 -1.71537699222E-03 +3.53086215736E-03 -2.79440440896E-01 +4.54646463248E-01
4.50500000000E+09 -2.40417641017E-01 +4.58667339431E-01 -1.44149083686E-03 +3.69778105338E-03 -1.53085641544E-03 +3.71333464846E-03 -2.65846698990E-01 +4.69662497907E-01
4.51000000000E+09 -2.33517586121E-01 +4.68178163700E-01 -1.17531429801E-03 +4.10679905970E-03 -1.18706113123E-03 +4.21621469333E-03 -2.51932212191E-01 +4.83876064582E-01
4.51500000000E+09 -2.25071753671E-01 +4.75939235112E-01 -3.79793537137E-04 +4.48403917852E-03 -2.52323711837E-04 +4.51126850659E-03 -2.38358321213E-01 +4.97972130610E-01
4.52000000000E+09 -2.14845984286E-01 +4.82416563977E-01 +4.01622365950E-04 +4.08801413173E-03 +4.51023633841E-04 +4.09581930635E-03 -2.24373528863E-01 +5.11072968681E-01
4.52500000000E+09 -2.02529765085E-01 +4.89380362928E-01 +6.00180598417E-04 +4.08549089827E-03 +6.26985291299E-04 +4.06972314719E-03 -2.10377664568E-01 +5.22553759677E-01
4.53000000000E+09 -1.88904191000E-01 +4.97100890820E-01 +1.27832364261E-03 +3.88858381917E-03 +1.33460030537E-03 +3.90369413646E-03 -1.96360416828E-01 +5.33360667246E-01
4.53500000000E+09 -1.73643516295E-01 +5.07023671372E-01 +1.51412199224E-03 +3.40966814434E-03 +1.63479370870E-03 +3.37402432870E-03 -1.81733093305E-01 +5.43374746873E-01
4.54000000000E+09 -1.57613403587E-01 +5.17442200633E-01 +1.73211259066E-03 +3.50754711383E-03 +1.87051229138E-03 +3.42734380105E-03 -1.67314670710E-01 +5.54024769812E-01
4.54500000000E+09 -1.42910975015E-01 +5.28469250321E-01 +2.34539563243E-03 +3.09266718872E-03 +2.46650706842E-03 +2.96726708269E-03 -1.52563246586E-01 +5.64570091825E-01
4.55000000000E+09 -1.29974288406E-01 +5.38715391658E-01 +2.25483896185E-03 +2.81078749166E-03 +2.36633535980E-03 +2.66502478853E-03 -1.37842522734E-01 +5.75031465720E-01
4.55500000000E+09 -1.19947125910E-01 +5.48666377138E-01 +2.67953946421E-03 +2.58906033006E-03 +2.74080423676E-03 +2.47505559437E-03 -1.23379746036E-01 +5.84529162573E-01
4.56000000000E+09 -1.11572079565E-01 +5.58544006312E-01 +2.83285396787E-03 +2.30198497376E-03 +2.88257620922E-03 +2.11480115472E-03 -1.09355079610E-01 +5.93088013138E-01
4.56500000000E+09 -1.03379748500E-01 +5.66749309483E-01 +3.14094463411E-03 +1.95239090748E-03 +3.13618249369E-03 +1.78568154187E-03 -9.46026716642E-02 +6.01664615074E-01
4.57000000000E+09 -9.42139237040E-02 +5.73135581067E-01 +3.15757463494E-03 +1.73111609455E-03 +3.10711029990E-03 +1.55653471976E-03 -7.95676685026E-02 +6.08655393683E-01
