# Hz S RI R 50
! CMT, C1220, 16058040, 17.2.0/1
! Date: 15/08/2018 12:38:50
! Data: Format (Calibration Info)
! Freq                      S11: Re/Im (F2)                       S21: Re/Im (F2)                       S12: Re/Im (F2)                       S22: Re/Im (F2)            
4.00000000000E+09 +6.56210911873E-01 -3.61834363024E-01 +1.29872093041E-03 -8.50118946827E-04 +1.32896238398E-03 -8.23569269100E-04 +7.85133272333E-01 -3.14940393283E-01
4.00500000000E+09 +6.47513810824E-01 -3.67400710658E-01 +1.08590172184E-03 -1.18718063065E-03 +1.12522727231E-03 -1.15495424928E-03 +7.76802233589E-01 -3.26031263826E-01
4.01000000000E+09 +6.38440014364E-01 -3.73039426707E-01 +8.07263086151E-04 -1.39626665104E-03 +8.49013341158E-04 -1.39856094708E-03 +7.68478103882E-01 -3.37854137885E-01
4.01500000000E+09 +6.28418890709E-01 -3.79428084444E-01 +4.86689988248E-04 -1.29990615809E-03 +5.12584517080E-04 -1.27737703690E-03 +7.60052661365E-01 -3.49101569304E-01
4.02000000000E+09 +6.18577331597E-01 -3.86534534704E-01 +4.77090063913E-04 -1.21590037699E-03 +5.05516925135E-04 -1.22899185659E-03 +7.51097540047E-01 -3.59979120013E-01
4.02500000000E+09 +6.07980048338E-01 -3.95761977333E-01 +4.80910289178E-04 -1.29602467941E-03 +5.13559601188E-04 -1.27195313788E-03 +7.41672073021E-01 -3.70424410987E-01
4.03000000000E+09 +5.96908417409E-01 -4.06187700322E-01 +3.70169065632E-04 -1.38305983177E-03 +4.08877324481E-04 -1.41414459097E-03 +7.31596731894E-01 -3.81033250457E-01
4.03500000000E+09 +5.85123879069E-01 -4.16813152096E-01 +2.18816795565E-04 -1.45469327968E-03 +3.10786036737E-04 -1.44876668515E-03 +7.20559527030E-01 -3.92020429010E-01
4.04000000000E+09 +5.73531328924E-01 -4.26687496670E-01 +1.87443153030E-05 -1.48537847617E-03 +1.40858377997E-04 -1.48304759099E-03 +7.09494113069E-01 -4.03284656046E-01
4.04500000000E+09 +5.62528316328E-01 -4.35946634088E-01 -7.27575696910E-05 -1.43021976370E-03 -6.11004170858E-06 -1.53125711990E-03 +6.98607125209E-01 -4.14355814246E-01
4.05000000000E+09 +5.50767137634E-01 -4.43935867923E-01 -2.30488801524E-04 -1.48426440113E-03 -1.89055718788E-04 -1.54008963123E-03 +6.88008168350E-01 -4.25010115344E-01
4.05500000000E+09 +5.38784778125E-01 -4.49854851911E-01 -2.63361871915E-04 -1.49815066581E-03 -2.45039190043E-04 -1.60113273241E-03 +6.76656034274E-01 -4.34870936760E-01
4.06000000000E+09 +5.26789948065E-01 -4.54608036315E-01 -6.16904915123E-04 -1.61206603123E-03 -6.13505843071E-04 -1.70716294143E-03 +6.65310729074E-01 -4.44197149364E-01
4.06500000000E+09 +5.13378130181E-01 -4.58720825812E-01 -8.23004247934E-04 -1.25378227756E-03 -8.00990745067E-04 -1.34560561514E-03 +6.53017191934E-01 -4.53898115697E-01
4.07000000000E+09 +4.99628640007E-01 -4.62472238745E-01 -6.15217930806E-04 -1.12345007993E-03 -5.63881698274E-04 -1.17826321261E-03 +6.39737098021E-01 -4.63775010013E-01
4.07500000000E+09 +4.84845942031E-01 -4.67027126898E-01 -7.74038993831E-04 -1.40882180704E-03 -7.54901348963E-04 -1.45686598039E-03 +6.26146513452E-01 -4.74259579144E-01
4.08000000000E+09 +4.69016420852E-01 -4.72102801350E-01 -9.83100595992E-04 -1.22654982973E-03 -9.59049164226E-04 -1.30650383252E-03 +6.12566913134E-01 -4.84203166344E-01
4.08500000000E+09 +4.52511427253E-01 -4.78448971663E-01 -9.97738731260E-04 -1.22316405919E-03 -1.00183974583E-03 -1.29511380913E-03 +5.99062537353E-01 -4.94103321358E-01
4.09000000000E+09 +4.35282010397E-01 -4.84702415381E-01 -1.40398126160E-03 -1.36260474898E-03 -1.41676295231E-03 -1.43665826753E-03 +5.85147812629E-01 -5.02869063096E-01
4.09500000000E+09 +4.18623520137E-01 -4.90820293809E-01 -1.69749505339E-03 -8.64967315138E-04 -1.75324452353E-03 -8.65462469022E-04 +5.70853812744E-01 -5.11063046416E-01
4.10000000000E+09 +4.01992661199E-01 -4.96500985021E-01 -1.46811579865E-03 -4.46024087530E-04 -1.48545708258E-03 -4.60081202651E-04 +5.55395524458E-01 -5.18540758900E-01
4.10500000000E+09 +3.85259227889E-01 -5.00799427718E-01 -1.35197244013E-03 -6.14269720673E-04 -1.37313467346E-03 -6.43673003993E-04 +5.40027326249E-01 -5.26394929354E-01
4.11000000000E+09 +3.68727758230E-01 -5.02857759494E-01 -1.76413108478E-03 -5.86935796323E-04 -1.75405783282E-03 -6.12893440290E-04 +5.23744009589E-01 -5.34977596386E-01
4.11500000000E+09 +3.53394845612E-01 -5.03748042116E-01 -1.56173305391E-03 -1.46545396014E-04 -1.61918485018E-03 -1.88069575676E-04 +5.07675217403E-01 -5.42970490021E-01
4.12000000000E+09 +3.37489138262E-01 -5.04126848350E-01 -1.62556378787E-03 -2.22044950059E-04 -1.65373615192E-03 -2.36031351518E-04 +4.91508840710E-01 -5.51152403244E-01
4.12500000000E+09 +3.20513662434E-01 -5.04711667103E-01 -1.67595808855E-03 -6.35480021376E-05 -1.65986863203E-03 -7.40070800085E-05 +4.74232224163E-01 -5.58007777209E-01
4.13000000000E+09 +3.03004448176E-01 -5.04930401430E-01 -1.79406655335E-03 +1.83841553111E-04 -1.79299017301E-03 +1.05971308276E-04 +4.56874715047E-01 -5.64253231031E-01
4.13500000000E+09 +2.84603441371E-01 -5.07242717434E-01 -1.45520105068E-03 +5.35841683837E-04 -1.44631368410E-03 +4.08209857135E-04 +4.38396522347E-01 -5.69916397265E-01
4.14000000000E+09 +2.64149192176E-01 -5.10185421698E-01 -1.48236716663E-03 +3.79069373458E-05 -1.52728344657E-03 +3.84204103312E-05 +4.19919790883E-01 -5.75742206720E-01
4.14500000000E+09 +2.43835056847E-01 -5.12219240999E-01 -1.95813310789E-03 +3.62339521835E-04 -2.05675084099E-03 +3.21219866528E-04 +4.00737911676E-01 -5.81687431047E-01
4.15000000000E+09 +2.24578023649E-01 -5.15376751652E-01 -1.72929785137E-03 +8.79955950212E-04 -1.79325711244E-03 +8.40673249070E-04 +3.82527957626E-01 -5.86774178888E-01
4.15500000000E+09 +2.04761144452E-01 -5.18022546655E-01 -1.59476785036E-03 +1.00733602826E-03 -1.61268047029E-03 +1.00338977040E-03 +3.64130493942E-01 -5.91800941346E-01
4.16000000000E+09 +1.86270385605E-01 -5.18077241875E-01 -1.44446671917E-03 +1.10501302170E-03 -1.52489570034E-03 +1.06693958480E-03 +3.45182899809E-01 -5.95427671128E-01
4.16500000000E+09 +1.69914687303E-01 -5.17794986363E-01 -1.27903169685E-03 +1.13591400017E-03 -1.29627779339E-03 +1.14739886628E-03 +3.25586826421E-01 -5.98441786951E-01
4.17000000000E+09 +1.53450449742E-01 -5.15426887721E-01 -1.20647600053E-03 +1.41548780483E-03 -1.30571417242E-03 +1.38038595394E-03 +3.04714003679E-01 -6.00717628269E-01
4.17500000000E+09 +1.37316814393E-01 -5.11259389544E-01 -8.74750555543E-04 +1.10531710059E-03 -9.68388965414E-04 +1.10626841670E-03 +2.83446622034E-01 -6.02130250074E-01
4.18000000000E+09 +1.20814878964E-01 -5.05976524730E-01 -1.23813541075E-03 +1.44875091974E-03 -1.34443192051E-03 +1.43499138125E-03 +2.62380732879E-01 -6.03262514669E-01
4.18500000000E+09 +1.04590090778E-01 -4.99778257025E-01 -7.03976621982E-04 +1.63735777809E-03 -7.76128572189E-04 +1.67721425066E-03 +2.41771699949E-01 -6.04791019521E-01
4.19000000000E+09 +8.67627650177E-02 -4.94751960989E-01 -8.16699186218E-04 +1.37437579130E-03 -8.44420551704E-04 +1.37400550022E-03 +2.20350475342E-01 -6.05074301948E-01
4.19500000000E+09 +6.75378902376E-02 -4.88716437508E-01 -9.82173124443E-04 +1.59228421342E-03 -1.03583136948E-03 +1.62123108014E-03 +1.99439792044E-01 -6.03714324842E-01
4.20000000000E+09 +4.94160759643E-02 -4.83506050489E-01 -6.12750667332E-04 +2.13557347612E-03 -6.82477717745E-04 +2.22677379487E-03 +1.77844865804E-01 -6.01933215484E-01
4.20500000000E+09 +3.05233311515E-02 -4.79526796808E-01 -1.16980652953E-04 +1.89996934240E-03 -1.09852817527E-04 +1.95479361933E-03 +1.56249079807E-01 -5.99246119734E-01
4.21000000000E+09 +1.21458748955E-02 -4.74646498911E-01 -2.85754349379E-04 +1.58785220598E-03 -3.06591565306E-04 +1.58854169817E-03 +1.33797398583E-01 -5.97984019077E-01
4.21500000000E+09 -4.98073801620E-03 -4.68855040300E-01 -1.85811923823E-04 +2.02307921084E-03 -2.12520822527E-04 +2.10312770082E-03 +1.10331046255E-01 -5.95627184257E-01
4.22000000000E+09 -2.07054813625E-02 -4.61713760553E-01 +2.12168617957E-04 +1.93738402054E-03 +2.17582481243E-04 +1.98080587362E-03 +8.76769329443E-02 -5.91786004069E-01
4.22500000000E+09 -3.57144277484E-02 -4.53026562589E-01 +7.97996957538E-05 +1.66016153682E-03 +5.62837430386E-05 +1.64605237737E-03 +6.58951712891E-02 -5.87093851676E-01
4.23000000000E+09 -5.00969361951E-02 -4.41454520261E-01 +5.00928445665E-05 +2.07052875329E-03 +3.22817073897E-05 +2.07372496869E-03 +4.40445246639E-02 -5.80590049330E-01
4.23500000000E+09 -6.30746877166E-02 -4.29555445067E-01 +3.86809303312E-04 +2.14236189704E-03 +3.73154197100E-04 +2.14574116486E-03 +2.24675810338E-02 -5.73415154092E-01
4.24000000000E+09 -7.82219217936E-02 -4.17454954964E-01 +5.89133953313E-04 +2.17517815693E-03 +5.49257481040E-04 +2.23729715695E-03 +1.83283238440E-04 -5.65096850887E-01
4.24500000000E+09 -9.56695158404E-02 -4.04470411354E-01 +1.02759006773E-03 +2.14876383613E-03 +9.63877787298E-04 +2.22543146278E-03 -2.18077907227E-02 -5.56591862623E-01
4.25000000000E+09 -1.14172978535E-01 -3.90890210571E-01 +9.96446083592E-04 +2.20857441349E-03 +9.74264558846E-04 +2.31399542991E-03 -4.39268428505E-02 -5.47840946376E-01
4.25500000000E+09 -1.33462691350E-01 -3.78040569409E-01 +1.83163635853E-03 +2.13365345818E-03 +1.82255230285E-03 +2.21660731764E-03 -6.50825868709E-02 -5.38535433001E-01
4.26000000000E+09 -1.53779012748E-01 -3.65804784757E-01 +1.90196756190E-03 +1.55574854992E-03 +1.90817998298E-03 +1.65137112650E-03 -8.64733478474E-02 -5.27938278659E-01
4.26500000000E+09 -1.72691565028E-01 -3.53011101730E-01 +1.55550638775E-03 +1.60081983845E-03 +1.55387113050E-03 +1.65336430121E-03 -1.07018401472E-01 -5.16032607798E-01
4.27000000000E+09 -1.89054832438E-01 -3.41207196622E-01 +2.17860401892E-03 +1.49833010780E-03 +2.22136650622E-03 +1.56588069038E-03 -1.28476064431E-01 -5.02723933473E-01
4.27500000000E+09 -2.04346969935E-01 -3.30010028901E-01 +2.03717246071E-03 +1.14466925303E-03 +2.11187444214E-03 +1.15686708160E-03 -1.49268592596E-01 -4.88310366888E-01
4.28000000000E+09 -2.17758337537E-01 -3.16946279637E-01 +2.16079829951E-03 +1.30805367488E-03 +2.22428175690E-03 +1.36088892501E-03 -1.69836741406E-01 -4.74565986431E-01
4.28500000000E+09 -2.28893027517E-01 -3.02556288116E-01 +2.66294837044E-03 +1.23281414668E-03 +2.73486438617E-03 +1.19652555507E-03 -1.90904082831E-01 -4.59611977617E-01
4.29000000000E+09 -2.39183846749E-01 -2.87076503483E-01 +3.05341573344E-03 +3.81661879255E-04 +3.16757971092E-03 +4.01884326796E-04 -2.09679256475E-01 -4.44246056861E-01
4.29500000000E+09 -2.50483711294E-01 -2.69558501635E-01 +2.47019152746E-03 -4.61495038991E-05 +2.58592489254E-03 -6.18340584758E-05 -2.28395573523E-01 -4.28376171295E-01
4.30000000000E+09 -2.61291889458E-01 -2.49681721381E-01 +2.37482360944E-03 -5.55968874323E-05 +2.44584588698E-03 -1.05862469500E-04 -2.45293899068E-01 -4.11290121763E-01
4.30500000000E+09 -2.72471464167E-01 -2.29517824727E-01 +2.40642504858E-03 -2.43776618375E-04 +2.44317011674E-03 -2.69065820072E-04 -2.63400474090E-01 -3.93830117569E-01
4.31000000000E+09 -2.84661130597E-01 -2.10090295613E-01 +2.13791807531E-03 +1.66550903625E-05 +2.10907625188E-03 +2.48464994739E-05 -2.80466215112E-01 -3.74169257897E-01
4.31500000000E+09 -2.97599292549E-01 -1.91462026098E-01 +2.87670876511E-03 +2.79296938056E-04 +2.88011583903E-03 +2.67935297246E-04 -2.97171326247E-01 -3.54689907295E-01
4.32000000000E+09 -3.10548660812E-01 -1.74034580399E-01 +3.56737556166E-03 -7.72834789635E-04 +3.55330294961E-03 -8.52514069998E-04 -3.13378399543E-01 -3.34126661237E-01
4.32500000000E+09 -3.21820046232E-01 -1.57653972764E-01 +2.65840627130E-03 -1.49384554867E-03 +2.63651124700E-03 -1.55444561873E-03 -3.27722514176E-01 -3.12432759274E-01
4.33000000000E+09 -3.31728196214E-01 -1.42514905805E-01 +2.72324613485E-03 -1.09284810399E-03 +2.68209037232E-03 -1.24330464226E-03 -3.40442798039E-01 -2.90612415656E-01
4.33500000000E+09 -3.38475064734E-01 -1.26022725329E-01 +2.97787125830E-03 -1.62802276096E-03 +2.94368623835E-03 -1.69509262736E-03 -3.52771968387E-01 -2.67902542225E-01
4.34000000000E+09 -3.41167530655E-01 -1.10827091076E-01 +2.63024965823E-03 -2.50078117630E-03 +2.53239327474E-03 -2.57216558900E-03 -3.64688905424E-01 -2.45043354100E-01
4.34500000000E+09 -3.43489880611E-01 -9.48308995290E-02 +1.99943568483E-03 -2.26183072566E-03 +1.96425826641E-03 -2.26930409070E-03 -3.76550317979E-01 -2.20964226995E-01
4.35000000000E+09 -3.43786460561E-01 -7.65430507466E-02 +2.15424679571E-03 -2.36990438437E-03 +2.14961004281E-03 -2.36724045008E-03 -3.87088923287E-01 -1.97655646200E-01
4.35500000000E+09 -3.44735496753E-01 -5.72677152662E-02 +2.08781152697E-03 -2.78301421192E-03 +2.07429178425E-03 -2.72293399423E-03 -3.96864252386E-01 -1.74774298378E-01
4.36000000000E+09 -3.46846711338E-01 -3.56475532293E-02 +1.82302793297E-03 -2.97540141852E-03 +1.83497479333E-03 -2.94893503598E-03 -4.06118234300E-01 -1.51477141415E-01
4.36500000000E+09 -3.49921989238E-01 -1.25143571595E-02 +1.87213628996E-03 -3.33254221467E-03 +1.89348148791E-03 -3.34292892869E-03 -4.13382954987E-01 -1.26770263963E-01
4.37000000000E+09 -3.54157685155E-01 +1.09175724174E-02 +1.45599554642E-03 -3.95809519908E-03 +1.48645753410E-03 -4.04184262158E-03 -4.19086503425E-01 -1.02290747718E-01
4.37500000000E+09 -3.58035782796E-01 +3.34486720699E-02 +7.22977188006E-04 -4.55407561136E-03 +7.34222038154E-04 -4.60402275336E-03 -4.24258865711E-01 -7.66903831119E-02
4.38000000000E+09 -3.62519001900E-01 +5.25688020014E-02 -2.12933624820E-04 -4.37745826059E-03 -2.11541479577E-04 -4.40997111954E-03 -4.28074403553E-01 -5.13998843661E-02
4.38500000000E+09 -3.67246024862E-01 +7.02654322823E-02 -6.70362201456E-04 -4.11264479666E-03 -6.84225069869E-04 -4.17955545403E-03 -4.31097275364E-01 -2.70097137522E-02
4.39000000000E+09 -3.70510643482E-01 +8.59312959442E-02 -1.08543351599E-03 -4.08769944565E-03 -1.15653050392E-03 -4.20315472039E-03 -4.34499045507E-01 -1.66249900830E-03
4.39500000000E+09 -3.71425403680E-01 +1.00337354807E-01 -1.75138075303E-03 -3.64318037149E-03 -1.84445849605E-03 -3.69129111467E-03 -4.34937425224E-01 +2.24309802938E-02
4.40000000000E+09 -3.70435578576E-01 +1.15258191770E-01 -1.63965585714E-03 -3.61150342666E-03 -1.75949812520E-03 -3.67875271448E-03 -4.35594695076E-01 +4.69367134035E-02
4.40500000000E+09 -3.65920721020E-01 +1.30914884342E-01 -2.49616479027E-03 -3.52732268939E-03 -2.57332411675E-03 -3.58622329232E-03 -4.34729467346E-01 +7.19787750588E-02
4.41000000000E+09 -3.60504624308E-01 +1.46350893108E-01 -2.55075674697E-03 -2.80731793322E-03 -2.64809460254E-03 -2.81976961653E-03 -4.32470342601E-01 +9.70916619262E-02
4.41500000000E+09 -3.55395444582E-01 +1.64594121898E-01 -2.72094591822E-03 -2.95199050394E-03 -2.84871531827E-03 -2.93364569864E-03 -4.29851623204E-01 +1.20888971423E-01
4.42000000000E+09 -3.50228032861E-01 +1.85125468802E-01 -3.13748649835E-03 -2.74856716449E-03 -3.24244224409E-03 -2.64582978382E-03 -4.27506184140E-01 +1.45253128222E-01
4.42500000000E+09 -3.45403740890E-01 +2.06943056989E-01 -3.62071501167E-03 -2.61384340457E-03 -3.66063296323E-03 -2.47555757265E-03 -4.22045509250E-01 +1.70013421105E-01
4.43000000000E+09 -3.41474964267E-01 +2.27806276348E-01 -4.13998211458E-03 -2.12589648944E-03 -4.15122300620E-03 -2.01999524497E-03 -4.16643287657E-01 +1.92029573153E-01
4.43500000000E+09 -3.39506874729E-01 +2.48044620839E-01 -4.29304423568E-03 -1.04056449645E-03 -4.34142211781E-03 -9.24491444159E-04 -4.09991381720E-01 +2.15468503005E-01
4.44000000000E+09 -3.37548511661E-01 +2.66845631264E-01 -4.06218956887E-03 -9.28813451093E-04 -4.02040081696E-03 -8.84945568899E-04 -4.02517987287E-01 +2.37205661348E-01
4.44500000000E+09 -3.35195746294E-01 +2.82050436070E-01 -4.09998431755E-03 -2.03747102962E-04 -4.08310445656E-03 -1.77724516511E-04 -3.95236914512E-01 +2.58516650782E-01
4.45000000000E+09 -3.33172859528E-01 +2.95461176132E-01 -3.68625651530E-03 -1.94662663677E-04 -3.66069703105E-03 -7.69298358824E-05 -3.87734882085E-01 +2.79285545002E-01
4.45500000000E+09 -3.28848149913E-01 +3.08351551601E-01 -4.03327815873E-03 -2.78666428444E-04 -3.99278831167E-03 -1.78281610311E-04 -3.80120071006E-01 +2.99763231919E-01
4.46000000000E+09 -3.22681968703E-01 +3.19892758449E-01 -4.48997845187E-03 +4.63352609364E-04 -4.45567760392E-03 +6.19123831699E-04 -3.70406318306E-01 +3.19591190282E-01
4.46500000000E+09 -3.14087685257E-01 +3.32437604057E-01 -4.07900487114E-03 +1.02530406958E-03 -4.02433321930E-03 +1.15251258366E-03 -3.60660112344E-01 +3.38713224697E-01
4.47000000000E+09 -3.04050399773E-01 +3.45916432731E-01 -4.24892673469E-03 +1.24048026429E-03 -4.19547943801E-03 +1.31273704844E-03 -3.48298337768E-01 +3.58329331245E-01
4.47500000000E+09 -2.92616121528E-01 +3.62185775043E-01 -4.37494624279E-03 +1.80746598741E-03 -4.30052447484E-03 +1.89349342384E-03 -3.36563140916E-01 +3.75877196074E-01
4.48000000000E+09 -2.80653238134E-01 +3.77757790424E-01 -4.23830133556E-03 +2.67641565275E-03 -4.07736040504E-03 +2.69718170562E-03 -3.24919549874E-01 +3.94399573068E-01
4.48500000000E+09 -2.71119258900E-01 +3.94909354166E-01 -3.58776009242E-03 +3.20335611738E-03 -3.42176231177E-03 +3.18413881336E-03 -3.12971204590E-01 +4.10962347398E-01
4.49000000000E+09 -2.61934981208E-01 +4.12359577056E-01 -3.20129488315E-03 +3.56970747979E-03 -3.11503201636E-03 +3.50420417041E-03 -3.01645252099E-01 +4.26860381469E-01
4.49500000000E+09 -2.54206039087E-01 +4.27833342026E-01 -2.68679007721E-03 +3.81976575599E-03 -2.60630975602E-03 +3.74611050267E-03 -2.90105129653E-01 +4.42388683825E-01
4.50000000000E+09 -2.48452689288E-01 +4.42082872460E-01 -2.45632623825E-03 +4.06801051385E-03 -2.44266575360E-03 +4.05491423930E-03 -2.77289609111E-01 +4.57670025763E-01
4.50500000000E+09 -2.42418208818E-01 +4.54214596886E-01 -1.98480479721E-03 +4.32098320438E-03 -1.94870248537E-03 +4.30373370817E-03 -2.63360854577E-01 +4.72758654884E-01
4.51000000000E+09 -2.35767030577E-01 +4.63776528624E-01 -1.63186810192E-03 +4.69980941509E-03 -1.62215329724E-03 +4.60514789022E-03 -2.49308267740E-01 +4.86679377704E-01
4.51500000000E+09 -2.27229899849E-01 +4.71816673275E-01 -8.37751190621E-04 +5.18626491583E-03 -7.78072973930E-04 +5.20161839161E-03 -2.35826383029E-01 +5.00633739994E-01
4.52000000000E+09 -2.17271218729E-01 +4.78347107153E-01 +1.66211394720E-04 +4.92808269470E-03 +2.13611173720E-04 +4.84022276226E-03 -2.22004636979E-01 +5.13779120366E-01
4.52500000000E+09 -2.05398069139E-01 +4.85678860368E-01 +2.24502623328E-04 +4.78257079500E-03 +3.00819452060E-04 +4.71699063651E-03 -2.07956300036E-01 +5.25296447601E-01
4.53000000000E+09 -1.91788585793E-01 +4.93896898487E-01 +1.15400001337E-03 +4.84221773815E-03 +1.26437015575E-03 +4.77390914606E-03 -1.93855669819E-01 +5.36004288281E-01
4.53500000000E+09 -1.76428920899E-01 +5.04196187488E-01 +1.56138097758E-03 +4.17328404986E-03 +1.66442290106E-03 +4.13276652149E-03 -1.79545614225E-01 +5.46304181638E-01
4.54000000000E+09 -1.60310867128E-01 +5.14997437493E-01 +1.85818863133E-03 +4.21251747252E-03 +1.89022398756E-03 +4.10080572715E-03 -1.64877373651E-01 +5.57140295978E-01
4.54500000000E+09 -1.45517005584E-01 +5.25823576890E-01 +2.62725459627E-03 +3.92307045616E-03 +2.63248339393E-03 +3.76586631322E-03 -1.49917093681E-01 +5.67656833299E-01
4.55000000000E+09 -1.33028232419E-01 +5.36400596339E-01 +2.66175033458E-03 +3.36616656778E-03 +2.66170385218E-03 +3.26224636673E-03 -1.35046813127E-01 +5.78144436471E-01
4.55500000000E+09 -1.23237874303E-01 +5.46995594136E-01 +3.12379518882E-03 +3.15887021336E-03 +3.06135190323E-03 +3.06981325270E-03 -1.20364711955E-01 +5.87510205273E-01
4.56000000000E+09 -1.14673384738E-01 +5.57134735574E-01 +3.33803104532E-03 +2.66341309336E-03 +3.34771039303E-03 +2.61158797412E-03 -1.06348283340E-01 +5.96165131025E-01
4.56500000000E+09 -1.06432685595E-01 +5.65626881190E-01 +3.49034541228E-03 +2.20127654189E-03 +3.46685696056E-03 +2.09423126565E-03 -9.13329686451E-02 +6.04917048685E-01
4.57000000000E+09 -9.68259138331E-02 +5.72137508580E-01 +3.40725668612E-03 +2.10216338575E-03 +3.40724190930E-03 +1.95067037648E-03 -7.61272803187E-02 +6.12070707654E-01
