# Hz S RI R 50
! CMT, C1220, 16058040, 17.2.0/1
! Date: 15/08/2018 12:42:01
! Data: Format (Calibration Info)
! Freq                      S11: Re/Im (F2)                       S21: Re/Im (F2)                       S12: Re/Im (F2)                       S22: Re/Im (F2)            
4.00000000000E+09 +6.58869598065E-01 -3.57497820093E-01 +1.02185826474E-03 -1.03979201875E-03 +1.10485102407E-03 -1.02565226248E-03 +7.86765368416E-01 -3.13088942083E-01
4.00500000000E+09 +6.50614437824E-01 -3.63236421858E-01 +7.48968803826E-04 -1.28635754510E-03 +8.31752490026E-04 -1.27757401460E-03 +7.78451846444E-01 -3.24473845939E-01
4.01000000000E+09 +6.41674167036E-01 -3.68916089163E-01 +4.46069716763E-04 -1.35646702811E-03 +4.93362636003E-04 -1.41512846474E-03 +7.69904175175E-01 -3.36281091307E-01
4.01500000000E+09 +6.31732007850E-01 -3.75419639765E-01 +1.62143323403E-04 -1.11150685451E-03 +1.82014180195E-04 -1.17876573587E-03 +7.61367675054E-01 -3.47417167216E-01
4.02000000000E+09 +6.21797436012E-01 -3.82612383747E-01 +2.94411745944E-04 -1.12231330801E-03 +2.90699526197E-04 -1.18415974219E-03 +7.52411022487E-01 -3.58284339685E-01
4.02500000000E+09 +6.11519183877E-01 -3.91646655258E-01 +2.85047467689E-04 -1.18584346363E-03 +2.65902375217E-04 -1.13851140424E-03 +7.43124878084E-01 -3.68906859187E-01
4.03000000000E+09 +6.00538387287E-01 -4.02349764911E-01 +1.04260650933E-04 -1.25868451624E-03 +1.52546794448E-04 -1.25468775487E-03 +7.32817814583E-01 -3.79465338653E-01
4.03500000000E+09 +5.88891534760E-01 -4.12907499670E-01 +1.69660438405E-05 -1.31195359907E-03 +9.44314286018E-05 -1.33255750432E-03 +7.21982762518E-01 -3.90716215200E-01
4.04000000000E+09 +5.77801686969E-01 -4.23000638283E-01 -5.60015326963E-05 -1.26878748426E-03 +1.66313395154E-05 -1.30605110004E-03 +7.10888549644E-01 -4.02001485788E-01
4.04500000000E+09 +5.66882523916E-01 -4.32710031600E-01 -1.42508582573E-04 -1.41083077015E-03 -8.39788970290E-05 -1.39307728145E-03 +6.99945707714E-01 -4.13023561566E-01
4.05000000000E+09 +5.55204142087E-01 -4.40741393453E-01 -3.68298574314E-04 -1.45504742322E-03 -2.21159380131E-04 -1.48406732062E-03 +6.89170013603E-01 -4.23720819052E-01
4.05500000000E+09 +5.43680003943E-01 -4.46768987661E-01 -3.82946125093E-04 -1.44028119290E-03 -3.13095499787E-04 -1.43020663542E-03 +6.77632220909E-01 -4.33625609296E-01
4.06000000000E+09 +5.31885888224E-01 -4.52023308816E-01 -6.83468144491E-04 -1.53200318354E-03 -6.29697665077E-04 -1.56927714865E-03 +6.66254714949E-01 -4.42700679895E-01
4.06500000000E+09 +5.18865662883E-01 -4.56227587248E-01 -9.39885540646E-04 -1.22564651685E-03 -9.35258882877E-04 -1.29677983559E-03 +6.53782149596E-01 -4.52335713374E-01
4.07000000000E+09 +5.05569100448E-01 -4.60376065108E-01 -8.80613543226E-04 -1.03945015893E-03 -8.57587254634E-04 -1.13033362870E-03 +6.40547784937E-01 -4.62052158773E-01
4.07500000000E+09 +4.90886199915E-01 -4.65310977335E-01 -9.53215630649E-04 -1.27474345484E-03 -9.05954837407E-04 -1.31050874031E-03 +6.27093510517E-01 -4.72556414283E-01
4.08000000000E+09 +4.75327987766E-01 -4.70682881906E-01 -1.32591008467E-03 -1.04432804500E-03 -1.26732702988E-03 -1.14669016037E-03 +6.13553731298E-01 -4.82428873396E-01
4.08500000000E+09 +4.59170135343E-01 -4.77269721998E-01 -1.18272305581E-03 -9.09259288566E-04 -1.19593797986E-03 -1.05764988839E-03 +6.00173062031E-01 -4.92236516485E-01
4.09000000000E+09 +4.42080463718E-01 -4.83944073696E-01 -1.54939984154E-03 -9.57144364051E-04 -1.58744467729E-03 -1.09234515728E-03 +5.86342395427E-01 -5.00841761040E-01
4.09500000000E+09 +4.25582243931E-01 -4.90375121269E-01 -1.78113658934E-03 -4.27365492548E-04 -1.88526799075E-03 -5.37901719535E-04 +5.72004579640E-01 -5.08872840764E-01
4.10000000000E+09 +4.08904543185E-01 -4.96579267579E-01 -1.50739279906E-03 -9.01625870289E-05 -1.60282788218E-03 -1.41607885642E-04 +5.56514771567E-01 -5.16494754380E-01
4.10500000000E+09 +3.92012178778E-01 -5.01176188907E-01 -1.39949099763E-03 -2.12576520821E-04 -1.47706334397E-03 -2.54455084636E-04 +5.41215120602E-01 -5.24281902897E-01
4.11000000000E+09 +3.75815976951E-01 -5.03242639830E-01 -1.67611978653E-03 -2.61834889853E-05 -1.76758415318E-03 -4.59888117065E-05 +5.24968156964E-01 -5.32821340918E-01
4.11500000000E+09 +3.60628685089E-01 -5.04951907091E-01 -1.30308689293E-03 +3.49351278288E-04 -1.38151795245E-03 +3.73257356003E-04 +5.09136509166E-01 -5.40794676390E-01
4.12000000000E+09 +3.44717396159E-01 -5.05901343210E-01 -1.27597074223E-03 +1.44133272790E-04 -1.33418897004E-03 +1.56341820085E-04 +4.93006156995E-01 -5.48989902701E-01
4.12500000000E+09 +3.27941270532E-01 -5.06897069532E-01 -1.29860318475E-03 +2.89439216192E-04 -1.32941611454E-03 +2.90149216896E-04 +4.75859548743E-01 -5.55690305297E-01
4.13000000000E+09 +3.10356963791E-01 -5.07805651363E-01 -1.27896654467E-03 +4.51158218262E-04 -1.31221235727E-03 +5.01675760970E-04 +4.58568325599E-01 -5.61804160291E-01
4.13500000000E+09 +2.91685726050E-01 -5.10188452406E-01 -9.62966560079E-04 +4.56472563196E-04 -9.96087993202E-04 +5.80995071039E-04 +4.40141601348E-01 -5.67333386574E-01
4.14000000000E+09 +2.71695751754E-01 -5.13167230475E-01 -1.12363754074E-03 +1.12168962342E-04 -1.17033264881E-03 +1.40809822802E-04 +4.21733917744E-01 -5.73127380791E-01
4.14500000000E+09 +2.51836202886E-01 -5.15929849136E-01 -1.55195313419E-03 +4.23171306756E-04 -1.60019458375E-03 +4.27143382683E-04 +4.02649809836E-01 -5.78881343057E-01
4.15000000000E+09 +2.32407389329E-01 -5.19817908227E-01 -1.32253297423E-03 +8.49529367645E-04 -1.34389237325E-03 +8.38776028343E-04 +3.84730080507E-01 -5.83862633184E-01
4.15500000000E+09 +2.12484152136E-01 -5.22937091201E-01 -1.18937059127E-03 +9.57036300366E-04 -1.22466920224E-03 +9.64647362629E-04 +3.66690718197E-01 -5.88802615064E-01
4.16000000000E+09 +1.93687691869E-01 -5.23662449352E-01 -1.09347305622E-03 +1.02228164212E-03 -1.07394748310E-03 +1.04524713558E-03 +3.48055574672E-01 -5.92217200749E-01
4.16500000000E+09 +1.76725028921E-01 -5.23614024062E-01 -9.20161256683E-04 +9.40356285726E-04 -9.47957521837E-04 +9.37866674810E-04 +3.28976735669E-01 -5.95228590559E-01
4.17000000000E+09 +1.59828413703E-01 -5.21522353149E-01 -9.64138279655E-04 +1.07708498486E-03 -9.70106848024E-04 +1.02918599426E-03 +3.08649847032E-01 -5.97699454275E-01
4.17500000000E+09 +1.43743405033E-01 -5.17665980424E-01 -9.16002157507E-04 +9.70566898231E-04 -9.47348545187E-04 +9.11610055557E-04 +2.87443670515E-01 -5.99274460774E-01
4.18000000000E+09 +1.26840539154E-01 -5.13483642371E-01 -1.07879750423E-03 +1.31291140963E-03 -1.17172088659E-03 +1.27885647703E-03 +2.66942323063E-01 -6.00775795021E-01
4.18500000000E+09 +1.09456075578E-01 -5.07840632027E-01 -7.28316973929E-04 +1.49914344566E-03 -7.98830605294E-04 +1.49614047343E-03 +2.46352844970E-01 -6.02851023752E-01
4.19000000000E+09 +9.11267210337E-02 -5.02665576485E-01 -6.38629728563E-04 +1.49258502014E-03 -7.88755082898E-04 +1.54616438916E-03 +2.25051024776E-01 -6.02985917761E-01
4.19500000000E+09 +7.19411391948E-02 -4.97301620537E-01 -6.03439053460E-04 +1.72897038610E-03 -7.60374871885E-04 +1.71070982946E-03 +2.04465138930E-01 -6.01882856629E-01
4.20000000000E+09 +5.28465093517E-02 -4.92703147134E-01 -1.61525471472E-04 +2.06282629104E-03 -2.79084231921E-04 +2.09000994083E-03 +1.83115965461E-01 -6.00686204214E-01
4.20500000000E+09 +3.35047449260E-02 -4.88531135936E-01 +3.06217503278E-04 +1.71020934063E-03 +2.46597510967E-04 +1.77217226661E-03 +1.61675200691E-01 -5.98175545165E-01
4.21000000000E+09 +1.47784359362E-02 -4.84142188321E-01 +3.31941630658E-05 +1.31885218042E-03 -2.23635312918E-05 +1.38752735452E-03 +1.39458187448E-01 -5.97344519263E-01
4.21500000000E+09 -3.08670907041E-03 -4.78575204812E-01 +1.50281732703E-04 +1.70565451225E-03 +7.17158131946E-05 +1.82270322719E-03 +1.15903292947E-01 -5.95319998292E-01
4.22000000000E+09 -1.94419234130E-02 -4.71395094330E-01 +4.70808817874E-04 +1.61307724087E-03 +4.26792138455E-04 +1.66483924912E-03 +9.33147240451E-02 -5.91663840891E-01
4.22500000000E+09 -3.46588037929E-02 -4.62678354019E-01 +3.64390363238E-04 +1.36288625738E-03 +3.30896726613E-04 +1.43970392037E-03 +7.14564059837E-02 -5.87236147448E-01
4.23000000000E+09 -4.93565573209E-02 -4.51808569058E-01 +5.26570888738E-04 +1.60510837755E-03 +5.42333939426E-04 +1.74689843267E-03 +4.97249786163E-02 -5.80792455406E-01
4.23500000000E+09 -6.35464026046E-02 -4.40203965168E-01 +6.19844914747E-04 +1.40779106664E-03 +6.51469457270E-04 +1.56142238724E-03 +2.82370109267E-02 -5.73943838878E-01
4.24000000000E+09 -7.95292569132E-02 -4.27842774686E-01 +6.74276186867E-04 +1.50555833913E-03 +7.61933787936E-04 +1.55364037836E-03 +6.20177048822E-03 -5.65963312581E-01
4.24500000000E+09 -9.72392692455E-02 -4.14811785408E-01 +9.85272921311E-04 +1.40121077673E-03 +1.03934062661E-03 +1.49739252592E-03 -1.54686591044E-02 -5.57961761991E-01
4.25000000000E+09 -1.16551327518E-01 -4.01205953183E-01 +7.87360233976E-04 +1.34699261632E-03 +8.93109590281E-04 +1.40792311969E-03 -3.74199584309E-02 -5.49660515345E-01
4.25500000000E+09 -1.36329193930E-01 -3.88376682348E-01 +1.21785695771E-03 +1.47203098025E-03 +1.35510694443E-03 +1.48272991865E-03 -5.86395068421E-02 -5.40825735172E-01
4.26000000000E+09 -1.57213772994E-01 -3.76163764919E-01 +1.27979222437E-03 +1.10217507778E-03 +1.41203782990E-03 +1.08690320624E-03 -8.01488304948E-02 -5.30926580060E-01
4.26500000000E+09 -1.76788997546E-01 -3.63518268420E-01 +9.42676005084E-04 +1.30797053487E-03 +1.00209937613E-03 +1.25081894798E-03 -1.01109350693E-01 -5.19632843773E-01
4.27000000000E+09 -1.94187252261E-01 -3.51718442258E-01 +1.58025891195E-03 +1.47234308150E-03 +1.59035995960E-03 +1.44640731586E-03 -1.22848471328E-01 -5.06650938542E-01
4.27500000000E+09 -2.10387328791E-01 -3.39731855924E-01 +1.80844579107E-03 +1.07755517595E-03 +1.75031445271E-03 +1.01171938685E-03 -1.43852878408E-01 -4.92744156364E-01
4.28000000000E+09 -2.23780145944E-01 -3.26512220740E-01 +1.79511103653E-03 +1.14369427412E-03 +1.74406785836E-03 +1.10890502306E-03 -1.64836869958E-01 -4.79424848289E-01
4.28500000000E+09 -2.35765397502E-01 -3.11690088839E-01 +2.20656846715E-03 +1.06638365827E-03 +2.20148751262E-03 +1.01157074174E-03 -1.86275867579E-01 -4.64686158824E-01
4.29000000000E+09 -2.46304229861E-01 -2.95717033870E-01 +2.35316737903E-03 +3.39479140407E-04 +2.36704891216E-03 +3.27928024464E-04 -2.05351583246E-01 -4.49804118225E-01
4.29500000000E+09 -2.57946057656E-01 -2.77916701108E-01 +1.93114066369E-03 +3.57049962606E-04 +1.90764553308E-03 +3.31358781917E-04 -2.24814748639E-01 -4.34171741067E-01
4.30000000000E+09 -2.69436835241E-01 -2.57399968967E-01 +2.39909747776E-03 +4.80288726927E-04 +2.36365182242E-03 +4.19895688189E-04 -2.42333202263E-01 -4.17079931927E-01
4.30500000000E+09 -2.80935172920E-01 -2.36770461542E-01 +2.59723082597E-03 -1.29539454979E-04 +2.56753307995E-03 -8.87234068983E-05 -2.60930777558E-01 -3.99503071224E-01
4.31000000000E+09 -2.93403254557E-01 -2.16509743341E-01 +2.20894031251E-03 -7.45253083482E-05 +2.19618060843E-03 +2.99147575533E-05 -2.78485988001E-01 -3.79584890384E-01
4.31500000000E+09 -3.06756523731E-01 -1.97210122298E-01 +2.84374693032E-03 -6.77952927021E-05 +2.89686102006E-03 -2.43520555183E-05 -2.95148814110E-01 -3.60051453655E-01
4.32000000000E+09 -3.20030202208E-01 -1.79137137643E-01 +3.19823672833E-03 -1.04689634562E-03 +3.21156103899E-03 -9.55961135106E-04 -3.11421730500E-01 -3.39752848841E-01
4.32500000000E+09 -3.31791251044E-01 -1.61706039488E-01 +2.34400743222E-03 -1.64731367798E-03 +2.42830919257E-03 -1.67021078588E-03 -3.25960848124E-01 -3.18083210766E-01
4.33000000000E+09 -3.41651926792E-01 -1.45874270409E-01 +2.34070543350E-03 -1.30521580875E-03 +2.40085855923E-03 -1.34455169248E-03 -3.39003204496E-01 -2.96298566347E-01
4.33500000000E+09 -3.49068723484E-01 -1.29030857926E-01 +2.51711183248E-03 -1.86272884185E-03 +2.55521174908E-03 -1.90144899006E-03 -3.51737787003E-01 -2.73800310565E-01
4.34000000000E+09 -3.52334990365E-01 -1.12717538267E-01 +2.01415128325E-03 -2.49219868128E-03 +2.04436709522E-03 -2.52165943108E-03 -3.64081637341E-01 -2.50895489178E-01
4.34500000000E+09 -3.54480978559E-01 -9.60941934773E-02 +1.30158409911E-03 -2.13011253484E-03 +1.40506867791E-03 -2.12181067396E-03 -3.76328153235E-01 -2.26613122082E-01
4.35000000000E+09 -3.55260085696E-01 -7.70783650086E-02 +1.71640494049E-03 -2.21749475450E-03 +1.77442461098E-03 -2.25884955387E-03 -3.86997618618E-01 -2.03196645357E-01
4.35500000000E+09 -3.56045634144E-01 -5.69063422308E-02 +1.38000230735E-03 -2.57814736145E-03 +1.46951129668E-03 -2.64671975951E-03 -3.97141256333E-01 -1.80381520714E-01
4.36000000000E+09 -3.57584252945E-01 -3.47054959704E-02 +1.13214187007E-03 -2.55011270561E-03 +1.11835225176E-03 -2.62401045445E-03 -4.06688746584E-01 -1.56945189790E-01
4.36500000000E+09 -3.60503672082E-01 -1.14659158344E-02 +1.30086497299E-03 -2.64754416522E-03 +1.20729592709E-03 -2.78258998369E-03 -4.14321217410E-01 -1.32004934567E-01
4.37000000000E+09 -3.64468165849E-01 +1.25766165738E-02 +1.08471217036E-03 -3.12854846315E-03 +1.06248686165E-03 -3.25794880344E-03 -4.20109601091E-01 -1.07451452671E-01
4.37500000000E+09 -3.68037844713E-01 +3.56008772281E-02 +5.93439535811E-04 -3.71810439385E-03 +4.35361806693E-04 -3.84392054264E-03 -4.25799877451E-01 -8.16193401044E-02
4.38000000000E+09 -3.72234968470E-01 +5.53447310228E-02 -2.37516292127E-04 -3.54620029619E-03 -2.68926145225E-04 -3.58930298643E-03 -4.29849257354E-01 -5.59382269322E-02
4.38500000000E+09 -3.76366002602E-01 +7.39751489068E-02 -4.49650187398E-04 -3.30978893568E-03 -4.96805785750E-04 -3.40165971373E-03 -4.33046548833E-01 -3.09839825406E-02
4.39000000000E+09 -3.78759996142E-01 +9.00559008722E-02 -7.77002655825E-04 -3.47527503319E-03 -9.11509190276E-04 -3.52870765189E-03 -4.36051921593E-01 -5.21051967012E-03
4.39500000000E+09 -3.79381616414E-01 +1.04678295123E-01 -1.29009740204E-03 -3.04774901193E-03 -1.41474680330E-03 -3.02665297122E-03 -4.36475904880E-01 +1.89198869211E-02
4.40000000000E+09 -3.77884842190E-01 +1.19929021231E-01 -1.23535637083E-03 -3.16155802702E-03 -1.33851857679E-03 -3.09390417215E-03 -4.37118240806E-01 +4.36699336532E-02
4.40500000000E+09 -3.73861408067E-01 +1.36093053141E-01 -2.00580430300E-03 -3.14925201015E-03 -2.08048382750E-03 -3.10862810174E-03 -4.35943655983E-01 +6.88279715186E-02
4.41000000000E+09 -3.67779639832E-01 +1.52683016133E-01 -2.06366417662E-03 -2.58507262565E-03 -2.08951128739E-03 -2.52027513519E-03 -4.33691752277E-01 +9.37177061362E-02
4.41500000000E+09 -3.61864158852E-01 +1.71092885609E-01 -2.30448692519E-03 -2.81809307355E-03 -2.33183122316E-03 -2.75953225192E-03 -4.30891027557E-01 +1.17807030242E-01
4.42000000000E+09 -3.56241723310E-01 +1.91656297442E-01 -2.58734330185E-03 -2.57580042731E-03 -2.61376183606E-03 -2.43138446806E-03 -4.28233458064E-01 +1.41975789624E-01
4.42500000000E+09 -3.51179632660E-01 +2.13553709328E-01 -3.02727114352E-03 -2.64322205350E-03 -3.08326564208E-03 -2.59110022706E-03 -4.22916827601E-01 +1.66702515081E-01
4.43000000000E+09 -3.46693260281E-01 +2.34457580516E-01 -3.94959431558E-03 -2.42352881067E-03 -3.88178708036E-03 -2.34621451933E-03 -4.17508859481E-01 +1.88716993893E-01
4.43500000000E+09 -3.44654340293E-01 +2.54872772567E-01 -4.28942250204E-03 -1.08584428613E-03 -4.17970130467E-03 -1.02597613825E-03 -4.10901668493E-01 +2.11975569009E-01
4.44000000000E+09 -3.42096753801E-01 +2.74162697638E-01 -3.99652934390E-03 -8.42968004078E-04 -3.94594537932E-03 -8.09382643873E-04 -4.03648685182E-01 +2.33680390100E-01
4.44500000000E+09 -3.38921172515E-01 +2.89728428844E-01 -3.94666239442E-03 -8.60464008126E-05 -3.93626000258E-03 -2.91574831436E-05 -3.96414915775E-01 +2.54816872336E-01
4.45000000000E+09 -3.35874004239E-01 +3.03086802542E-01 -3.60576288202E-03 +7.39703334588E-06 -3.54973875188E-03 +2.72023489793E-05 -3.88987805292E-01 +2.75618172022E-01
4.45500000000E+09 -3.31201515152E-01 +3.15460220086E-01 -3.79076386585E-03 -6.25262288862E-05 -3.78587733919E-03 -2.21286174941E-05 -3.81353603343E-01 +2.96061894332E-01
4.46000000000E+09 -3.24780006546E-01 +3.27224029332E-01 -4.10070489115E-03 +5.73847084831E-04 -4.10002743874E-03 +6.47725356829E-04 -3.71841111879E-01 +3.15970002684E-01
4.46500000000E+09 -3.15663191886E-01 +3.39950534829E-01 -3.92293622111E-03 +1.07629319893E-03 -3.92057083398E-03 +1.09659801881E-03 -3.62145004128E-01 +3.35114796501E-01
4.47000000000E+09 -3.04997526269E-01 +3.53068977143E-01 -3.89871282213E-03 +1.39864263076E-03 -3.92646606983E-03 +1.45685380619E-03 -3.49749047103E-01 +3.54767509596E-01
4.47500000000E+09 -2.93347009680E-01 +3.69167003219E-01 -4.01753588251E-03 +2.08387149777E-03 -3.98363276842E-03 +2.16285421943E-03 -3.38097066186E-01 +3.72202955611E-01
4.48000000000E+09 -2.80634804223E-01 +3.84635671990E-01 -3.68256476568E-03 +2.77639518440E-03 -3.61060166964E-03 +2.81479415371E-03 -3.26461439897E-01 +3.90595893647E-01
4.48500000000E+09 -2.70697369641E-01 +4.01159386189E-01 -3.00376884296E-03 +3.19135217614E-03 -2.94850673824E-03 +3.22266580172E-03 -3.14650688424E-01 +4.07009811931E-01
4.49000000000E+09 -2.61303064952E-01 +4.18321730978E-01 -2.66643200947E-03 +3.45278368276E-03 -2.59989495033E-03 +3.50776060054E-03 -3.03165459276E-01 +4.22952431204E-01
4.49500000000E+09 -2.53339408258E-01 +4.33706250416E-01 -2.10169548267E-03 +3.51958897387E-03 -2.05633960068E-03 +3.55199193163E-03 -2.91739578641E-01 +4.38282390183E-01
4.50000000000E+09 -2.46988778404E-01 +4.47475415365E-01 -1.92032081753E-03 +3.65652755890E-03 -1.84436901081E-03 +3.67664647124E-03 -2.79049959708E-01 +4.53318990536E-01
4.50500000000E+09 -2.41065675468E-01 +4.59091607380E-01 -1.67731853453E-03 +3.77175306493E-03 -1.60120136069E-03 +3.77461163393E-03 -2.65469966761E-01 +4.68279641697E-01
4.51000000000E+09 -2.34195852574E-01 +4.68718484052E-01 -1.38746144735E-03 +4.31794149670E-03 -1.30957830450E-03 +4.31076793845E-03 -2.51772581869E-01 +4.82186363779E-01
4.51500000000E+09 -2.25647326307E-01 +4.76387509837E-01 -5.63170397221E-04 +4.66301565239E-03 -4.74101975488E-04 +4.63299999484E-03 -2.38680246303E-01 +4.96217816758E-01
4.52000000000E+09 -2.15478779173E-01 +4.82793673437E-01 +1.17285276627E-04 +4.36547548224E-03 +2.71297870632E-04 +4.30047307719E-03 -2.25000321663E-01 +5.09205141145E-01
4.52500000000E+09 -2.03226938152E-01 +4.89960999465E-01 +3.51313901860E-04 +4.35003748993E-03 +4.30624121312E-04 +4.27274352599E-03 -2.11415038535E-01 +5.20866062374E-01
4.53000000000E+09 -1.89408946591E-01 +4.97712951383E-01 +1.00295515244E-03 +4.35745055982E-03 +1.10096627394E-03 +4.24701188023E-03 -1.97478703185E-01 +5.31802597783E-01
4.53500000000E+09 -1.74037542379E-01 +5.07621035809E-01 +1.49747849666E-03 +3.85219634328E-03 +1.55182706857E-03 +3.70151443158E-03 -1.83118867733E-01 +5.42049210475E-01
4.54000000000E+09 -1.57932483817E-01 +5.17976642856E-01 +1.71123104139E-03 +3.92125844729E-03 +1.78339365837E-03 +3.76040919363E-03 -1.69079734228E-01 +5.52889273523E-01
4.54500000000E+09 -1.43176408450E-01 +5.28890311551E-01 +2.42825589170E-03 +3.51169151407E-03 +2.46051018607E-03 +3.33877277325E-03 -1.54245855162E-01 +5.63782941696E-01
4.55000000000E+09 -1.30141189466E-01 +5.39205525401E-01 +2.37291085285E-03 +3.17100240616E-03 +2.35293525321E-03 +3.03046014173E-03 -1.39525214117E-01 +5.74448749705E-01
4.55500000000E+09 -1.20015744956E-01 +5.49230010629E-01 +2.88056609644E-03 +2.92494186614E-03 +2.88295822041E-03 +2.77689987992E-03 -1.25134522220E-01 +5.84204718464E-01
4.56000000000E+09 -1.11610922384E-01 +5.59188215647E-01 +3.04311980391E-03 +2.59172629597E-03 +3.00145923235E-03 +2.46832286036E-03 -1.11051081744E-01 +5.92967218615E-01
4.56500000000E+09 -1.03460578932E-01 +5.67280882985E-01 +3.38878761681E-03 +2.20405693256E-03 +3.37925883380E-03 +2.05797750254E-03 -9.62604337663E-02 +6.01793094896E-01
4.57000000000E+09 -9.41596750473E-02 +5.73817820175E-01 +3.39822123475E-03 +1.86039947842E-03 +3.38873273127E-03 +1.81726757335E-03 -8.10532265291E-02 +6.09140519095E-01
