# Hz S RI R 50
! CMT, C1220, 16058040, 17.2.0/1
! Date: 15/08/2018 12:39:19
! Data: Format (Calibration Info)
! Freq                      S11: Re/Im (F2)                       S21: Re/Im (F2)                       S12: Re/Im (F2)                       S22: Re/Im (F2)            
4.00000000000E+09 +6.57504223502E-01 -3.58091874566E-01 +1.40384176052E-03 -8.82494878018E-04 +1.44085069188E-03 -8.78915698315E-04 +7.86442090545E-01 -3.14570473057E-01
4.00500000000E+09 +6.49281923238E-01 -3.63839479867E-01 +1.15763861336E-03 -1.14535124973E-03 +1.23459132344E-03 -1.14064437128E-03 +7.78148855436E-01 -3.26052152859E-01
4.01000000000E+09 +6.40318524508E-01 -3.69609887308E-01 +9.04176720969E-04 -1.34136557810E-03 +9.88987463876E-04 -1.32800780508E-03 +7.69679240380E-01 -3.37968276704E-01
4.01500000000E+09 +6.30560133381E-01 -3.75938969294E-01 +6.44338843623E-04 -1.13893931500E-03 +6.87965928188E-04 -1.11375706384E-03 +7.61187799891E-01 -3.49271508839E-01
4.02000000000E+09 +6.20824682185E-01 -3.83275372255E-01 +7.42887851176E-04 -1.19932016783E-03 +7.87299593153E-04 -1.19446049933E-03 +7.52190930301E-01 -3.60374405079E-01
4.02500000000E+09 +6.10674492894E-01 -3.92441954800E-01 +6.76117766195E-04 -1.32861352326E-03 +7.56022189346E-04 -1.35632074923E-03 +7.42794558862E-01 -3.71006546193E-01
4.03000000000E+09 +5.99539356278E-01 -4.03181923564E-01 +4.97968247082E-04 -1.37137079141E-03 +5.51604596271E-04 -1.36022279083E-03 +7.32604257755E-01 -3.81607898803E-01
4.03500000000E+09 +5.87847681401E-01 -4.13641034254E-01 +3.45898761911E-04 -1.36870226105E-03 +4.09427214032E-04 -1.41104278862E-03 +7.21340353276E-01 -3.92862933100E-01
4.04000000000E+09 +5.76864593817E-01 -4.23595157445E-01 +2.56027265662E-04 -1.38276866586E-03 +3.14388990650E-04 -1.42742124449E-03 +7.10124959849E-01 -4.04039953826E-01
4.04500000000E+09 +5.65941973415E-01 -4.33365451443E-01 +1.42971072250E-04 -1.34474045269E-03 +2.77734305331E-04 -1.41303917367E-03 +6.99136128904E-01 -4.15143127699E-01
4.05000000000E+09 +5.54366024258E-01 -4.41154098962E-01 +2.20893706679E-04 -1.41631608176E-03 +3.02668342855E-04 -1.48379701747E-03 +6.88324722286E-01 -4.25827477866E-01
4.05500000000E+09 +5.42983862246E-01 -4.47262064191E-01 +1.62651687800E-04 -1.56211787607E-03 +2.49735216658E-04 -1.66686613133E-03 +6.76842347991E-01 -4.35683639224E-01
4.06000000000E+09 +5.30918007474E-01 -4.52579949774E-01 -1.55508340101E-04 -1.75867412874E-03 -9.88448825040E-05 -1.88682057288E-03 +6.65498918877E-01 -4.44845667888E-01
4.06500000000E+09 +5.17794904380E-01 -4.56527527485E-01 -4.30957088445E-04 -1.56549474806E-03 -4.35273526989E-04 -1.68699753167E-03 +6.53037987932E-01 -4.54481305327E-01
4.07000000000E+09 +5.04459844051E-01 -4.60705372559E-01 -4.14610399797E-04 -1.34217545211E-03 -4.05613788743E-04 -1.41161462003E-03 +6.39780356675E-01 -4.64371926468E-01
4.07500000000E+09 +4.89763776667E-01 -4.65788791179E-01 -4.24095286989E-04 -1.62047687043E-03 -3.90207707929E-04 -1.68777552962E-03 +6.26136658034E-01 -4.74904962699E-01
4.08000000000E+09 +4.74092059014E-01 -4.71010264182E-01 -7.32566910138E-04 -1.56873274502E-03 -7.11027827810E-04 -1.61624944830E-03 +6.12580666606E-01 -4.84623077265E-01
4.08500000000E+09 +4.57809756403E-01 -4.77642924811E-01 -7.03332520171E-04 -1.48435791646E-03 -6.54380773070E-04 -1.57915717091E-03 +5.99187506504E-01 -4.94740757808E-01
4.09000000000E+09 +4.40836655689E-01 -4.84170696912E-01 -1.02436771335E-03 -1.69265398134E-03 -1.03127512608E-03 -1.77866433576E-03 +5.85247703656E-01 -5.03455088137E-01
4.09500000000E+09 +4.24560307192E-01 -4.90805588506E-01 -1.40458784534E-03 -1.33857423066E-03 -1.43420034672E-03 -1.43766724340E-03 +5.70662337861E-01 -5.11832398456E-01
4.10000000000E+09 +4.07638092963E-01 -4.97082516980E-01 -1.25535696141E-03 -1.00393313154E-03 -1.31504193609E-03 -1.05445712417E-03 +5.54949188086E-01 -5.19347349466E-01
4.10500000000E+09 +3.90900526983E-01 -5.01471800583E-01 -1.24544051330E-03 -1.19195169891E-03 -1.25022912332E-03 -1.20960716152E-03 +5.39388356806E-01 -5.27184856558E-01
4.11000000000E+09 +3.74729731884E-01 -5.03835974962E-01 -1.72722609610E-03 -1.10571796282E-03 -1.73258287012E-03 -1.10228775676E-03 +5.22929969695E-01 -5.35707962986E-01
4.11500000000E+09 +3.59194849561E-01 -5.05309795248E-01 -1.53021558880E-03 -7.02917624056E-04 -1.56795583040E-03 -7.11620108018E-04 +5.06596598162E-01 -5.43456054120E-01
4.12000000000E+09 +3.43294176633E-01 -5.05997275767E-01 -1.60791737535E-03 -7.67755323490E-04 -1.57518848855E-03 -8.05392768741E-04 +4.90450159158E-01 -5.51387156347E-01
4.12500000000E+09 +3.26597661547E-01 -5.06839079949E-01 -1.66432138295E-03 -6.58258430917E-04 -1.70966774570E-03 -6.78577807125E-04 +4.73032193990E-01 -5.58067602589E-01
4.13000000000E+09 +3.08793035587E-01 -5.07862039936E-01 -1.66205400181E-03 -4.18306092856E-04 -1.71176774991E-03 -4.46367489503E-04 +4.55627394755E-01 -5.64024261907E-01
4.13500000000E+09 +2.90117909906E-01 -5.10411457655E-01 -1.48595916945E-03 -4.30737159646E-04 -1.49739965608E-03 -4.60729000158E-04 +4.37253084816E-01 -5.69352178907E-01
4.14000000000E+09 +2.69807703876E-01 -5.13257838565E-01 -1.87078114282E-03 -7.34629202284E-04 -1.82999561769E-03 -8.51539104720E-04 +4.18856549047E-01 -5.75069154473E-01
4.14500000000E+09 +2.49834139477E-01 -5.16124549104E-01 -2.42175653634E-03 -3.83391701040E-04 -2.48076885956E-03 -4.94884926173E-04 +3.99537767497E-01 -5.80877252572E-01
4.15000000000E+09 +2.30094105811E-01 -5.19859610603E-01 -2.37163551176E-03 +2.10503076913E-04 -2.42326244882E-03 +1.36041830727E-04 +3.81389559847E-01 -5.85601014496E-01
4.15500000000E+09 +2.10276803725E-01 -5.22825229405E-01 -2.19162612831E-03 +5.19929223007E-04 -2.24542127269E-03 +4.52602552586E-04 +3.63355184989E-01 -5.90382471331E-01
4.16000000000E+09 +1.91543854756E-01 -5.23492055158E-01 -2.07077145256E-03 +5.87320697721E-04 -2.12685496166E-03 +5.78134488646E-04 +3.44650276429E-01 -5.93914626558E-01
4.16500000000E+09 +1.74718709852E-01 -5.23578507848E-01 -2.00210791577E-03 +6.33942195928E-04 -2.08961603955E-03 +5.74008734747E-04 +3.25315885965E-01 -5.96599784903E-01
4.17000000000E+09 +1.57795877170E-01 -5.21482694134E-01 -2.14918587895E-03 +9.34403795280E-04 -2.19790312427E-03 +8.63662602782E-04 +3.04870534835E-01 -5.98973015702E-01
4.17500000000E+09 +1.41835320841E-01 -5.17635032019E-01 -1.97878542578E-03 +8.56479151272E-04 -1.99324848216E-03 +8.36134277035E-04 +2.83717634968E-01 -6.00608680644E-01
4.18000000000E+09 +1.24913155587E-01 -5.13390372056E-01 -2.21100515062E-03 +1.28786170016E-03 -2.35625411001E-03 +1.26428461067E-03 +2.62844985230E-01 -6.01943156938E-01
4.18500000000E+09 +1.07516318682E-01 -5.07639662970E-01 -1.74400510756E-03 +1.54411623361E-03 -1.84129796065E-03 +1.55749656005E-03 +2.42033542778E-01 -6.03712339571E-01
4.19000000000E+09 +8.91894378162E-02 -5.02207579041E-01 -1.92617974047E-03 +1.46695709404E-03 -2.02661456310E-03 +1.47360114114E-03 +2.20647213126E-01 -6.03731544974E-01
4.19500000000E+09 +7.01030013679E-02 -4.96672881640E-01 -2.03994169495E-03 +2.11859824574E-03 -2.19571204813E-03 +2.10850237063E-03 +1.99537094984E-01 -6.02307149317E-01
4.20000000000E+09 +5.11531070053E-02 -4.91682871740E-01 -1.39402291328E-03 +2.58415290087E-03 -1.56840668675E-03 +2.70623194858E-03 +1.78099869059E-01 -6.00335085032E-01
4.20500000000E+09 +3.20970347060E-02 -4.87698474494E-01 -8.56803385062E-04 +2.40990723372E-03 -9.45382432592E-04 +2.51007161766E-03 +1.56773469653E-01 -5.97304071498E-01
4.21000000000E+09 +1.32958512546E-02 -4.83592279988E-01 -9.92604335297E-04 +2.04758102116E-03 -1.05686725755E-03 +2.20330126728E-03 +1.34923885585E-01 -5.96074464675E-01
4.21500000000E+09 -5.14264396422E-03 -4.78078968140E-01 -8.81176850735E-04 +2.49713918584E-03 -9.19421028638E-04 +2.61354889166E-03 +1.11556864586E-01 -5.93825178467E-01
4.22000000000E+09 -2.16746641050E-02 -4.70417255580E-01 -6.02551267670E-04 +2.43528057271E-03 -6.22085425761E-04 +2.47543342818E-03 +8.90171999374E-02 -5.90069087497E-01
4.22500000000E+09 -3.68696024682E-02 -4.61318383827E-01 -8.01143638899E-04 +2.36687878961E-03 -7.31010926235E-04 +2.42734864867E-03 +6.73104140400E-02 -5.85262038257E-01
4.23000000000E+09 -5.11851548563E-02 -4.50285858245E-01 -6.33498752732E-04 +2.96672583152E-03 -6.38698210396E-04 +3.06324809212E-03 +4.57867221309E-02 -5.78529671000E-01
4.23500000000E+09 -6.51335091121E-02 -4.38852672512E-01 -2.57068571882E-04 +3.07507187280E-03 -2.87329228567E-04 +3.21675565342E-03 +2.46957410906E-02 -5.71343419661E-01
4.24000000000E+09 -8.11373088403E-02 -4.26552947612E-01 +1.79959963082E-04 +3.25365448795E-03 +2.57771764172E-04 +3.35759448128E-03 +2.93252105620E-03 -5.63155540353E-01
4.24500000000E+09 -9.88679970588E-02 -4.13452099495E-01 +6.56179709693E-04 +3.25690327050E-03 +7.27045562051E-04 +3.28733030683E-03 -1.85363282371E-02 -5.55127977802E-01
4.25000000000E+09 -1.18444550829E-01 -3.99737809519E-01 +7.31204951111E-04 +3.28377540302E-03 +8.11540113916E-04 +3.30152610085E-03 -4.01813944935E-02 -5.46850051786E-01
4.25500000000E+09 -1.38154065925E-01 -3.86539871449E-01 +1.53891508491E-03 +3.33437005729E-03 +1.49530689180E-03 +3.32492224665E-03 -6.13958196518E-02 -5.38169211934E-01
4.26000000000E+09 -1.59020561489E-01 -3.74133621379E-01 +1.74628375458E-03 +2.82339001698E-03 +1.72001123313E-03 +2.82846626370E-03 -8.26241384243E-02 -5.28186761747E-01
4.26500000000E+09 -1.78737199707E-01 -3.61166399031E-01 +1.52183835228E-03 +3.10761199147E-03 +1.51229535526E-03 +3.19372770636E-03 -1.03348023061E-01 -5.16864131756E-01
4.27000000000E+09 -1.95902926289E-01 -3.48813323945E-01 +2.48045750876E-03 +3.11411417289E-03 +2.51203474515E-03 +3.15978896065E-03 -1.25164682389E-01 -5.03922710951E-01
4.27500000000E+09 -2.11673514033E-01 -3.36560185493E-01 +2.71301055622E-03 +2.64839961180E-03 +2.62508554228E-03 +2.60583087809E-03 -1.46221956437E-01 -4.89671268652E-01
4.28000000000E+09 -2.24929973234E-01 -3.23421932352E-01 +3.03617830854E-03 +2.81591246895E-03 +3.01972252207E-03 +2.87016616038E-03 -1.66893220152E-01 -4.75932040657E-01
4.28500000000E+09 -2.36792579315E-01 -3.08728817952E-01 +3.73161748217E-03 +2.43694233102E-03 +3.75179112818E-03 +2.46620804296E-03 -1.88082973428E-01 -4.61205130037E-01
4.29000000000E+09 -2.47720451544E-01 -2.92811028170E-01 +4.12427996059E-03 +1.44714474041E-03 +4.17251508424E-03 +1.47897927926E-03 -2.06855335657E-01 -4.46353458109E-01
4.29500000000E+09 -2.59355844936E-01 -2.74456481820E-01 +3.76046025889E-03 +1.06079599037E-03 +3.76597111455E-03 +1.13995216655E-03 -2.26076089085E-01 -4.30473790274E-01
4.30000000000E+09 -2.70482757483E-01 -2.53709085731E-01 +4.11970688025E-03 +7.87078371889E-04 +4.16485416448E-03 +8.62427389629E-04 -2.42932269130E-01 -4.13531696426E-01
4.30500000000E+09 -2.81738437664E-01 -2.33114596580E-01 +4.15626779290E-03 +1.15263949403E-04 +4.22283473450E-03 +1.60648827716E-04 -2.61452543224E-01 -3.96135735002E-01
4.31000000000E+09 -2.94020725004E-01 -2.12931395456E-01 +3.63874393894E-03 +2.50317821994E-04 +3.76650279490E-03 +2.56740421059E-04 -2.78611641230E-01 -3.76329550938E-01
4.31500000000E+09 -3.07057318427E-01 -1.93986142265E-01 +4.38065981167E-03 +2.34529439647E-04 +4.52252219753E-03 +2.59966130103E-04 -2.95098203669E-01 -3.56831512499E-01
4.32000000000E+09 -3.20427338814E-01 -1.75988617633E-01 +4.95822100970E-03 -8.62533882105E-04 +5.13010880842E-03 -8.52727721957E-04 -3.11296152495E-01 -3.36765690755E-01
4.32500000000E+09 -3.31836195537E-01 -1.58600108813E-01 +4.28328429146E-03 -1.71636015479E-03 +4.46719178092E-03 -1.77842446381E-03 -3.25783681457E-01 -3.15343066970E-01
4.33000000000E+09 -3.41550313955E-01 -1.42788571094E-01 +4.32869514921E-03 -1.68637215760E-03 +4.41928480025E-03 -1.80307999017E-03 -3.38481893421E-01 -2.93801962138E-01
4.33500000000E+09 -3.48623750454E-01 -1.25872489598E-01 +4.27256283752E-03 -2.64754412960E-03 +4.34815899779E-03 -2.75164729202E-03 -3.51161468308E-01 -2.71646224493E-01
4.34000000000E+09 -3.51386043001E-01 -1.09443202695E-01 +3.54299512537E-03 -3.27306391462E-03 +3.58053522828E-03 -3.44030220774E-03 -3.63646788514E-01 -2.49008285289E-01
4.34500000000E+09 -3.53113219414E-01 -9.29816012895E-02 +2.87914625434E-03 -2.94243545134E-03 +2.91528549165E-03 -3.10790969667E-03 -3.75949600393E-01 -2.24869814710E-01
4.35000000000E+09 -3.53638705632E-01 -7.41277873354E-02 +3.30039748774E-03 -3.15007086314E-03 +3.23035408680E-03 -3.23969444719E-03 -3.86704936301E-01 -2.01736325128E-01
4.35500000000E+09 -3.54482866014E-01 -5.39086237144E-02 +2.98057269909E-03 -3.78608065892E-03 +2.94471377202E-03 -3.92049731269E-03 -3.97225560281E-01 -1.79243679595E-01
4.36000000000E+09 -3.55792614784E-01 -3.12813277914E-02 +2.55281399200E-03 -4.05081831283E-03 +2.50282183276E-03 -4.14160477391E-03 -4.07116665742E-01 -1.55614475247E-01
4.36500000000E+09 -3.58608670528E-01 -8.07818355826E-03 +2.61801426310E-03 -4.30997944911E-03 +2.54390943944E-03 -4.43763137316E-03 -4.14832445501E-01 -1.30589896469E-01
4.37000000000E+09 -3.62188838226E-01 +1.61024726843E-02 +2.22519709087E-03 -5.03896089283E-03 +2.17850298356E-03 -5.12847403473E-03 -4.20988891071E-01 -1.05927788331E-01
4.37500000000E+09 -3.65741878384E-01 +3.88640733083E-02 +1.55019892060E-03 -5.83237196722E-03 +1.31597915898E-03 -5.90974789785E-03 -4.26665186686E-01 -7.96077286691E-02
4.38000000000E+09 -3.70114056646E-01 +5.84862853473E-02 +4.41757274895E-04 -5.89834310331E-03 +3.07627290724E-04 -5.87587619382E-03 -4.30302917932E-01 -5.36012402980E-02
4.38500000000E+09 -3.73931241452E-01 +7.70356800286E-02 -2.65275978147E-04 -5.75921370756E-03 -4.50479077144E-04 -5.77541483633E-03 -4.32999516494E-01 -2.91358329101E-02
4.39000000000E+09 -3.76327821719E-01 +9.27442582003E-02 -9.80985381900E-04 -5.85454918039E-03 -1.11869501010E-03 -5.79357494871E-03 -4.36613981771E-01 -3.85941716952E-03
4.39500000000E+09 -3.76831661478E-01 +1.07331967127E-01 -1.82135723454E-03 -5.28850899516E-03 -1.85643271412E-03 -5.20051376024E-03 -4.37221643532E-01 +2.05379171686E-02
4.40000000000E+09 -3.75085657563E-01 +1.21997331734E-01 -1.83681963274E-03 -5.41785280877E-03 -1.90841233797E-03 -5.32269566425E-03 -4.38063231102E-01 +4.56545388663E-02
4.40500000000E+09 -3.71147431926E-01 +1.37791690444E-01 -2.96309948018E-03 -5.30170728881E-03 -2.97452686211E-03 -5.27971227741E-03 -4.36846033709E-01 +7.09640605670E-02
4.41000000000E+09 -3.64963037490E-01 +1.54445456077E-01 -3.42891068659E-03 -4.61809361740E-03 -3.36087010524E-03 -4.63905559790E-03 -4.34457055276E-01 +9.61258214896E-02
4.41500000000E+09 -3.59002954807E-01 +1.72644097713E-01 -3.98968079281E-03 -4.52380205729E-03 -4.00812681092E-03 -4.47849716703E-03 -4.31388283924E-01 +1.20081389430E-01
4.42000000000E+09 -3.52937139734E-01 +1.93365105506E-01 -4.47950286538E-03 -3.98245184741E-03 -4.42621896604E-03 -3.89996146819E-03 -4.28994523255E-01 +1.44091219136E-01
4.42500000000E+09 -3.47736030825E-01 +2.14916917827E-01 -5.02307446804E-03 -3.76433784401E-03 -5.05859180554E-03 -3.74120723746E-03 -4.23965409918E-01 +1.68660641878E-01
4.43000000000E+09 -3.43572805908E-01 +2.35642170221E-01 -5.87851456781E-03 -3.00628893097E-03 -5.91285125914E-03 -2.98446301300E-03 -4.18659747816E-01 +1.90941287070E-01
4.43500000000E+09 -3.41565142260E-01 +2.56255205491E-01 -6.10524345995E-03 -1.63537692622E-03 -6.04262706217E-03 -1.58024451271E-03 -4.12381368523E-01 +2.14256114154E-01
4.44000000000E+09 -3.38857082367E-01 +2.75539745497E-01 -5.86332652320E-03 -1.23262781578E-03 -5.83808189284E-03 -1.25325027800E-03 -4.05351535093E-01 +2.36622669427E-01
4.44500000000E+09 -3.35645374769E-01 +2.90838919326E-01 -5.95840872918E-03 -1.95321080031E-04 -5.97012504830E-03 -1.49502175057E-04 -3.97971778127E-01 +2.58188095696E-01
4.45000000000E+09 -3.32668475359E-01 +3.04144061958E-01 -5.41571268478E-03 +1.91235168582E-04 -5.54323955531E-03 +2.34157678745E-04 -3.90382818394E-01 +2.79589384296E-01
4.45500000000E+09 -3.28091243067E-01 +3.16197371299E-01 -5.44074722214E-03 +4.25799246462E-04 -5.48916847161E-03 +5.23367754447E-04 -3.82389483670E-01 +3.00311066325E-01
4.46000000000E+09 -3.21877272691E-01 +3.28163149170E-01 -5.62058322818E-03 +1.03336360119E-03 -5.63730245689E-03 +1.19953525072E-03 -3.72450040108E-01 +3.20459069639E-01
4.46500000000E+09 -3.12585448554E-01 +3.40943488745E-01 -5.38236375893E-03 +1.62148256580E-03 -5.39116085566E-03 +1.81212439814E-03 -3.62464501189E-01 +3.39485372268E-01
4.47000000000E+09 -3.01720897076E-01 +3.54349862562E-01 -5.33913450556E-03 +2.03528896817E-03 -5.34979323690E-03 +2.24473802730E-03 -3.49979145017E-01 +3.59305664567E-01
4.47500000000E+09 -2.89386785719E-01 +3.70182533287E-01 -5.36760336954E-03 +2.79267395660E-03 -5.24427138973E-03 +3.02643579479E-03 -3.38120370880E-01 +3.77147926156E-01
4.48000000000E+09 -2.76608014910E-01 +3.85013124404E-01 -4.94019916821E-03 +3.73721351153E-03 -4.71597440900E-03 +3.83751151604E-03 -3.26124502776E-01 +3.95713675304E-01
4.48500000000E+09 -2.67035891903E-01 +4.01404093409E-01 -3.98456618525E-03 +4.17958925217E-03 -3.82377217686E-03 +4.25090846121E-03 -3.13835868431E-01 +4.12334353108E-01
4.49000000000E+09 -2.57851100276E-01 +4.18519223762E-01 -3.61103802879E-03 +4.37746820278E-03 -3.41448980459E-03 +4.35448192453E-03 -3.01941995081E-01 +4.28153345876E-01
4.49500000000E+09 -2.49970916852E-01 +4.34190865022E-01 -3.18808630360E-03 +4.66497755629E-03 -2.99820172096E-03 +4.64981071384E-03 -2.90295798151E-01 +4.43493067283E-01
4.50000000000E+09 -2.43188345686E-01 +4.48169485827E-01 -2.75784270790E-03 +5.06770866676E-03 -2.57287293310E-03 +5.04736450308E-03 -2.77122707965E-01 +4.58427699856E-01
4.50500000000E+09 -2.36994966476E-01 +4.59281538188E-01 -2.17967626089E-03 +5.13675968908E-03 -2.05749301917E-03 +5.09078646741E-03 -2.63415904607E-01 +4.73255451679E-01
4.51000000000E+09 -2.30136738403E-01 +4.68738401269E-01 -1.87101595577E-03 +5.69410888297E-03 -1.74319831106E-03 +5.58804408731E-03 -2.49377715942E-01 +4.87058269717E-01
4.51500000000E+09 -2.21546459131E-01 +4.76138116060E-01 -8.84294541241E-04 +6.01610903013E-03 -7.59473800087E-04 +5.95684584012E-03 -2.36031540112E-01 +5.00988660346E-01
4.52000000000E+09 -2.11593883205E-01 +4.82515308969E-01 +6.07818634699E-05 +5.76279479743E-03 +1.40343722053E-04 +5.61393848534E-03 -2.22249682644E-01 +5.14248350075E-01
4.52500000000E+09 -1.99260570081E-01 +4.89611475961E-01 +2.90001416152E-04 +5.70319818313E-03 +3.82268237798E-04 +5.53389381793E-03 -2.08042556707E-01 +5.25965091692E-01
4.53000000000E+09 -1.85342141850E-01 +4.97361149606E-01 +1.16561961143E-03 +5.75617916559E-03 +1.21914612512E-03 +5.58818646652E-03 -1.93729105631E-01 +5.36635864673E-01
4.53500000000E+09 -1.69866250408E-01 +5.07062917410E-01 +1.78535494766E-03 +5.23712719731E-03 +1.89048361470E-03 +5.02128432981E-03 -1.79268231733E-01 +5.46799980883E-01
4.54000000000E+09 -1.53719073126E-01 +5.17200191300E-01 +2.19794103437E-03 +5.06252666868E-03 +2.28418341644E-03 +4.86320007172E-03 -1.64601136428E-01 +5.57524394726E-01
4.54500000000E+09 -1.39215544951E-01 +5.28060989825E-01 +2.92604655425E-03 +4.57815378179E-03 +2.93716221023E-03 +4.36632342971E-03 -1.49460675666E-01 +5.68024166787E-01
4.55000000000E+09 -1.26359072817E-01 +5.38246829271E-01 +2.97900208530E-03 +4.24015679047E-03 +3.01232023003E-03 +4.06692380373E-03 -1.34458100958E-01 +5.78431729087E-01
4.55500000000E+09 -1.16318027178E-01 +5.48049973070E-01 +3.66821512042E-03 +3.79778870365E-03 +3.49981294473E-03 +3.65258575115E-03 -1.19770222393E-01 +5.87750607431E-01
4.56000000000E+09 -1.07865706598E-01 +5.57892994022E-01 +3.79098583151E-03 +3.36956013105E-03 +3.74728787596E-03 +3.27352415336E-03 -1.05579371812E-01 +5.96303247489E-01
4.56500000000E+09 -9.96351112674E-02 +5.65794382881E-01 +4.17402036512E-03 +2.89899835634E-03 +4.14339683651E-03 +2.78268830248E-03 -9.03843924082E-02 +6.04921779416E-01
4.57000000000E+09 -9.03870824847E-02 +5.72085356606E-01 +4.22246998664E-03 +2.55461543573E-03 +4.17201216374E-03 +2.42644540655E-03 -7.49490899211E-02 +6.11830481996E-01
