# Hz S RI R 50
! CMT, C1220, 16058040, 17.2.0/1
! Date: 15/08/2018 12:42:11
! Data: Format (Calibration Info)
! Freq                      S11: Re/Im (F2)                       S21: Re/Im (F2)                       S12: Re/Im (F2)                       S22: Re/Im (F2)            
4.00000000000E+09 +6.58367630815E-01 -3.57410944226E-01 +1.20465045398E-03 -1.03716239030E-03 +1.24263350697E-03 -1.04537773879E-03 +7.87438809982E-01 -3.12056461916E-01
4.00500000000E+09 +6.50158817360E-01 -3.63053930652E-01 +9.31906922463E-04 -1.38898142992E-03 +1.03698612962E-03 -1.37901947670E-03 +7.79248248641E-01 -3.23610614568E-01
4.01000000000E+09 +6.41268696545E-01 -3.68842912821E-01 +5.21681496402E-04 -1.51231572173E-03 +6.02461013693E-04 -1.45696614762E-03 +7.70850365098E-01 -3.35659573354E-01
4.01500000000E+09 +6.31275116724E-01 -3.75197885913E-01 +2.53810641458E-04 -1.21027799700E-03 +2.79211492326E-04 -1.24999259502E-03 +7.62215457537E-01 -3.46879414065E-01
4.02000000000E+09 +6.21384409195E-01 -3.82458435523E-01 +3.99533470857E-04 -1.20523904436E-03 +4.59865923209E-04 -1.25255258899E-03 +7.53275100579E-01 -3.57934062513E-01
4.02500000000E+09 +6.11063956398E-01 -3.91270080785E-01 +3.64327998237E-04 -1.29681872780E-03 +3.87271069688E-04 -1.29847409765E-03 +7.43793054002E-01 -3.68532939238E-01
4.03000000000E+09 +6.00204580827E-01 -4.01969145934E-01 +1.82425945042E-04 -1.39468333204E-03 +3.00576346176E-04 -1.41182770303E-03 +7.33601130416E-01 -3.79182856184E-01
4.03500000000E+09 +5.88479999252E-01 -4.12525757824E-01 +4.49992081431E-06 -1.42932227120E-03 +8.24740038886E-05 -1.42799647574E-03 +7.22454142811E-01 -3.90213153556E-01
4.04000000000E+09 +5.77333287156E-01 -4.22552626907E-01 -1.10612565601E-04 -1.33154526331E-03 -4.95945550059E-05 -1.30880485918E-03 +7.11444150319E-01 -4.01515968149E-01
4.04500000000E+09 +5.66456080791E-01 -4.32289121279E-01 -1.96259112002E-04 -1.32443586713E-03 -7.74800917098E-05 -1.38589916477E-03 +7.00431916088E-01 -4.12411293102E-01
4.05000000000E+09 +5.54704806322E-01 -4.40248607897E-01 -3.07614288985E-04 -1.32555626880E-03 -2.35547983625E-04 -1.40538752394E-03 +6.89952457324E-01 -4.23204854005E-01
4.05500000000E+09 +5.43170528497E-01 -4.46276784019E-01 -2.44420607823E-04 -1.36980491403E-03 -2.44247091902E-04 -1.43738083261E-03 +6.78546292623E-01 -4.33070988688E-01
4.06000000000E+09 +5.31460364992E-01 -4.51586000406E-01 -5.70208882747E-04 -1.47716939875E-03 -5.73841597961E-04 -1.55000486871E-03 +6.67257695230E-01 -4.42361178813E-01
4.06500000000E+09 +5.18405556286E-01 -4.55637566639E-01 -6.98278851108E-04 -1.27297922697E-03 -7.04428744549E-04 -1.34079914389E-03 +6.54884621264E-01 -4.52172857941E-01
4.07000000000E+09 +5.05240414892E-01 -4.59725814502E-01 -6.89619778426E-04 -1.18040511960E-03 -6.42484405283E-04 -1.20315393003E-03 +6.41550029182E-01 -4.62092669497E-01
4.07500000000E+09 +4.90676305535E-01 -4.64751928659E-01 -7.64210862292E-04 -1.34789253566E-03 -7.50421002106E-04 -1.38330594926E-03 +6.28003203194E-01 -4.72665277845E-01
4.08000000000E+09 +4.75052601151E-01 -4.70020896164E-01 -1.07999474742E-03 -1.26035454457E-03 -1.03833102636E-03 -1.33923819315E-03 +6.14527977570E-01 -4.82732863231E-01
4.08500000000E+09 +4.58967303236E-01 -4.76612069939E-01 -1.12047552707E-03 -1.11400383997E-03 -1.09137697803E-03 -1.18157320767E-03 +6.01035201426E-01 -4.92631106771E-01
4.09000000000E+09 +4.41979047355E-01 -4.83290874897E-01 -1.45501554335E-03 -1.22039831718E-03 -1.41771152548E-03 -1.28195060222E-03 +5.87077127344E-01 -5.01282476721E-01
4.09500000000E+09 +4.25432236449E-01 -4.89698688602E-01 -1.73824456855E-03 -7.94916746881E-04 -1.78727846233E-03 -8.74427793834E-04 +5.72564650917E-01 -5.09585968173E-01
4.10000000000E+09 +4.08769929834E-01 -4.95939919397E-01 -1.51673752147E-03 -3.67423638401E-04 -1.58022263083E-03 -4.31695294378E-04 +5.57032751758E-01 -5.17198762618E-01
4.10500000000E+09 +3.92012604615E-01 -5.00446025178E-01 -1.37427876413E-03 -5.81389961820E-04 -1.40671105056E-03 -5.69619408598E-04 +5.41513799100E-01 -5.24958564472E-01
4.11000000000E+09 +3.75716881671E-01 -5.02695468831E-01 -1.82975574568E-03 -4.05000271985E-04 -1.83405383085E-03 -4.89266245134E-04 +5.25087043845E-01 -5.33556187340E-01
4.11500000000E+09 +3.60514088345E-01 -5.04278864484E-01 -1.54509894274E-03 +3.09973647339E-06 -1.57847439510E-03 -2.98234630380E-05 +5.08907830826E-01 -5.41464051111E-01
4.12000000000E+09 +3.44613898947E-01 -5.05218065198E-01 -1.60830953581E-03 -6.46421232075E-05 -1.69708964176E-03 -5.66234356235E-05 +4.92813450657E-01 -5.49420336737E-01
4.12500000000E+09 +3.27893118886E-01 -5.06116450791E-01 -1.62505902561E-03 +1.37106206986E-04 -1.66886340331E-03 +1.20102606080E-04 +4.75629160667E-01 -5.55939216589E-01
4.13000000000E+09 +3.10336805707E-01 -5.07044451273E-01 -1.57188027918E-03 +3.63321045679E-04 -1.65508507605E-03 +3.28956166506E-04 +4.58306990048E-01 -5.61920833135E-01
4.13500000000E+09 +2.91743815789E-01 -5.09460448389E-01 -1.24384170350E-03 +4.89572425993E-04 -1.20371260287E-03 +4.47073828122E-04 +4.40214681286E-01 -5.67388565254E-01
4.14000000000E+09 +2.71751969426E-01 -5.12267860387E-01 -1.36520022716E-03 +1.36651821047E-04 -1.42565156969E-03 +1.43969721652E-04 +4.22014853847E-01 -5.73286829867E-01
4.14500000000E+09 +2.51985318172E-01 -5.14977520619E-01 -1.71922202228E-03 +4.02288398830E-04 -1.78903858792E-03 +3.99180685010E-04 +4.02728235451E-01 -5.79313474805E-01
4.15000000000E+09 +2.32611060968E-01 -5.18942550578E-01 -1.55906872217E-03 +8.25424585563E-04 -1.63200250752E-03 +8.31177950315E-04 +3.84697330616E-01 -5.84344011622E-01
4.15500000000E+09 +2.12659807721E-01 -5.21919697933E-01 -1.40664227533E-03 +1.06018867752E-03 -1.45420906148E-03 +1.07810666868E-03 +3.66539549038E-01 -5.89427604117E-01
4.16000000000E+09 +1.94082290081E-01 -5.22614628551E-01 -1.21216367139E-03 +1.11671904446E-03 -1.22222086810E-03 +1.17636215061E-03 +3.47652361488E-01 -5.92891612976E-01
4.16500000000E+09 +1.77160373454E-01 -5.22666876599E-01 -9.68010502131E-04 +1.03274114352E-03 -1.05837501803E-03 +1.00995679149E-03 +3.28448292535E-01 -5.95576390013E-01
4.17000000000E+09 +1.60227428160E-01 -5.20691121226E-01 -1.04620227558E-03 +1.06668759893E-03 -1.11470179447E-03 +1.16371377911E-03 +3.08007704238E-01 -5.97938552574E-01
4.17500000000E+09 +1.44235050106E-01 -5.16880493428E-01 -9.93987975670E-04 +9.46546472454E-04 -1.07713747484E-03 +9.37079459620E-04 +2.86828983113E-01 -5.99514868275E-01
4.18000000000E+09 +1.27342825919E-01 -5.12622732576E-01 -1.18988710272E-03 +1.29568071179E-03 -1.26132171725E-03 +1.35679019219E-03 +2.66325055863E-01 -6.00900634630E-01
4.18500000000E+09 +1.10166179639E-01 -5.07226810832E-01 -8.12553857822E-04 +1.42680335011E-03 -8.98934822054E-04 +1.48525901050E-03 +2.45598705250E-01 -6.03008727157E-01
4.19000000000E+09 +9.17483964791E-02 -5.02049802330E-01 -8.84215195534E-04 +1.40420533221E-03 -9.02577406593E-04 +1.40783016251E-03 +2.24031512621E-01 -6.03161446989E-01
4.19500000000E+09 +7.27114533614E-02 -4.96638157346E-01 -1.00767074981E-03 +1.65393510203E-03 -1.07711408693E-03 +1.68138108194E-03 +2.03254368604E-01 -6.01765511469E-01
4.20000000000E+09 +5.36815709732E-02 -4.92191568538E-01 -5.17635880766E-04 +2.15129573663E-03 -6.39349744360E-04 +2.18567424373E-03 +1.81774166149E-01 -5.99993011401E-01
4.20500000000E+09 +3.43117458349E-02 -4.88035243185E-01 -2.78427505010E-05 +1.86718581683E-03 -4.76299112522E-05 +1.93896199932E-03 +1.60583370438E-01 -5.97071293327E-01
4.21000000000E+09 +1.57478259330E-02 -4.83778470178E-01 -2.74817823188E-04 +1.51277776642E-03 -2.76762122084E-04 +1.55377269968E-03 +1.38681622053E-01 -5.95974859049E-01
4.21500000000E+09 -2.18481434148E-03 -4.78336275865E-01 -1.13975853512E-04 +1.93499820026E-03 -1.12067955078E-04 +1.96915651544E-03 +1.15535385447E-01 -5.93851552732E-01
4.22000000000E+09 -1.87018832563E-02 -4.71169005208E-01 +2.74581183518E-04 +1.78606201967E-03 +2.58482293126E-04 +1.82441191606E-03 +9.33867498443E-02 -5.90256129598E-01
4.22500000000E+09 -3.39338616995E-02 -4.62310554919E-01 +1.79555899176E-05 +1.59325378878E-03 +1.14241158462E-05 +1.67767941908E-03 +7.15839141159E-02 -5.86014459306E-01
4.23000000000E+09 -4.83802378435E-02 -4.51377479220E-01 +1.93643887205E-04 +1.95811773383E-03 +2.12791252843E-04 +2.06560492731E-03 +4.98571853978E-02 -5.79707224195E-01
4.23500000000E+09 -6.24926560052E-02 -4.39896616667E-01 +4.12730331303E-04 +1.97760029065E-03 +4.24695188395E-04 +2.04500213447E-03 +2.84087699832E-02 -5.72793860387E-01
4.24000000000E+09 -7.84106505943E-02 -4.27699255248E-01 +6.80519963639E-04 +2.06838738656E-03 +6.88946731187E-04 +2.15205615407E-03 +6.40214985493E-03 -5.64775271633E-01
4.24500000000E+09 -9.61370950016E-02 -4.14678050031E-01 +1.11029720889E-03 +1.98976360661E-03 +1.15728041253E-03 +2.00365725874E-03 -1.51207194460E-02 -5.56688273364E-01
4.25000000000E+09 -1.15429552631E-01 -4.01198823967E-01 +1.04878065251E-03 +1.81092368617E-03 +1.05380776682E-03 +1.92193294449E-03 -3.67945819064E-02 -5.48495839087E-01
4.25500000000E+09 -1.35240665608E-01 -3.88314436918E-01 +1.53304157057E-03 +1.90683692833E-03 +1.57719417986E-03 +1.92874750819E-03 -5.80568932476E-02 -5.40027878268E-01
4.26000000000E+09 -1.55945960721E-01 -3.76251404387E-01 +1.65273409452E-03 +1.33477911408E-03 +1.66515271272E-03 +1.40087940841E-03 -7.93938062643E-02 -5.30129306938E-01
4.26500000000E+09 -1.75578363889E-01 -3.63801515575E-01 +1.21619510403E-03 +1.56326399177E-03 +1.25168640103E-03 +1.57989856886E-03 -1.00483334211E-01 -5.18734720778E-01
4.27000000000E+09 -1.92987791995E-01 -3.52112366727E-01 +1.86166982928E-03 +1.65887616794E-03 +1.91957927229E-03 +1.66408452991E-03 -1.22245737095E-01 -5.05765163444E-01
4.27500000000E+09 -2.09277406738E-01 -3.40150484550E-01 +2.07482885346E-03 +1.28576964432E-03 +2.11966413891E-03 +1.32261143662E-03 -1.43163290898E-01 -4.91832895407E-01
4.28000000000E+09 -2.22570231213E-01 -3.27004212430E-01 +2.15894638471E-03 +1.26072826894E-03 +2.22921810632E-03 +1.27479920124E-03 -1.64085056671E-01 -4.78250778451E-01
4.28500000000E+09 -2.34580489065E-01 -3.12522470854E-01 +2.51227090064E-03 +1.06085554012E-03 +2.53267463074E-03 +1.10837031588E-03 -1.85193313361E-01 -4.63449262864E-01
4.29000000000E+09 -2.45096971102E-01 -2.96623698709E-01 +2.66474314449E-03 +3.65064720141E-04 +2.74798950804E-03 +3.45067044154E-04 -2.04034084634E-01 -4.48770087766E-01
4.29500000000E+09 -2.56980358668E-01 -2.79040812875E-01 +2.16281751313E-03 +3.03159820799E-04 +2.15230425778E-03 +3.03412026706E-04 -2.23198880689E-01 -4.32969577996E-01
4.30000000000E+09 -2.68386465297E-01 -2.58508738553E-01 +2.52755162080E-03 +3.96300911705E-04 +2.55925671236E-03 +3.58374062927E-04 -2.40273133617E-01 -4.16149912507E-01
4.30500000000E+09 -2.79920171365E-01 -2.37943397643E-01 +2.60524906898E-03 -1.81283626490E-04 +2.67029599307E-03 -1.79979358638E-04 -2.58639722700E-01 -3.99054696214E-01
4.31000000000E+09 -2.92481368163E-01 -2.17800835212E-01 +2.17534191084E-03 +7.48242144662E-05 +2.19191791532E-03 +5.35842805275E-05 -2.75943995743E-01 -3.79580210856E-01
4.31500000000E+09 -3.05787003707E-01 -1.98614964653E-01 +2.87356757399E-03 +2.11352509153E-04 +2.85585213653E-03 +2.06586602061E-04 -2.92729003961E-01 -3.60494737064E-01
4.32000000000E+09 -3.19243410131E-01 -1.80652342950E-01 +3.33398119221E-03 -6.25068343883E-04 +3.37866782205E-03 -6.30474710133E-04 -3.09321328243E-01 -3.40492466761E-01
4.32500000000E+09 -3.31187574365E-01 -1.63341353267E-01 +2.76615534216E-03 -1.33554607910E-03 +2.75049461577E-03 -1.29760291297E-03 -3.23985825562E-01 -3.19049928073E-01
4.33000000000E+09 -3.41259598959E-01 -1.47504286055E-01 +2.83412113325E-03 -1.10648888407E-03 +2.82344549290E-03 -1.14742537200E-03 -3.37193805498E-01 -2.97572356731E-01
4.33500000000E+09 -3.48740011455E-01 -1.30633061650E-01 +3.03081195951E-03 -1.81169060020E-03 +3.04295920362E-03 -1.83733685288E-03 -3.50012902969E-01 -2.75048151601E-01
4.34000000000E+09 -3.52133215485E-01 -1.14365662153E-01 +2.50972628476E-03 -2.45338281963E-03 +2.50769135785E-03 -2.53110088935E-03 -3.62418031182E-01 -2.52472038207E-01
4.34500000000E+09 -3.54394816703E-01 -9.77761094759E-02 +1.85670269511E-03 -2.15198801138E-03 +1.86762077145E-03 -2.15925887094E-03 -3.75016505802E-01 -2.28308995361E-01
4.35000000000E+09 -3.55265207869E-01 -7.88697528186E-02 +2.26425296591E-03 -2.33169670842E-03 +2.29922285843E-03 -2.27634354601E-03 -3.85807853315E-01 -2.05207067894E-01
4.35500000000E+09 -3.56218366901E-01 -5.87893785045E-02 +2.00332030988E-03 -2.70033000741E-03 +2.00965389778E-03 -2.75395351838E-03 -3.96572734191E-01 -1.82520636784E-01
4.36000000000E+09 -3.57964570737E-01 -3.65240086436E-02 +1.81144379032E-03 -2.86307047724E-03 +1.79540138414E-03 -2.86667703870E-03 -4.06539382345E-01 -1.58847020620E-01
4.36500000000E+09 -3.60865583256E-01 -1.33329280578E-02 +1.85668314889E-03 -3.19779163792E-03 +1.86491789347E-03 -3.24009446208E-03 -4.14193763361E-01 -1.33560402489E-01
4.37000000000E+09 -3.64981949493E-01 +1.07833778522E-02 +1.61344012243E-03 -3.79526990925E-03 +1.55189056096E-03 -3.89554465151E-03 -4.19964154149E-01 -1.08799072702E-01
4.37500000000E+09 -3.68691538951E-01 +3.39113737439E-02 +8.83555728127E-04 -4.48760264542E-03 +8.41039998269E-04 -4.60569132312E-03 -4.25486131448E-01 -8.30129697734E-02
4.38000000000E+09 -3.73090550248E-01 +5.36921647584E-02 -1.52584422844E-04 -4.22984864907E-03 -1.45990548553E-04 -4.29527611948E-03 -4.29317751672E-01 -5.72790026490E-02
4.38500000000E+09 -3.77331008082E-01 +7.23297371753E-02 -4.31847570809E-04 -4.07628209448E-03 -5.14475153469E-04 -4.12711039429E-03 -4.32633347399E-01 -3.28257037970E-02
4.39000000000E+09 -3.79903278964E-01 +8.85589063677E-02 -8.76419023933E-04 -4.17204760687E-03 -1.01448595889E-03 -4.22177383788E-03 -4.35956021414E-01 -7.30475262551E-03
4.39500000000E+09 -3.80732022938E-01 +1.03288192500E-01 -1.41804790985E-03 -3.73738242725E-03 -1.50804771192E-03 -3.71065951084E-03 -4.36530008633E-01 +1.67611531891E-02
4.40000000000E+09 -3.79412419950E-01 +1.18599293586E-01 -1.46570778054E-03 -3.78026538817E-03 -1.55043982721E-03 -3.76857169083E-03 -4.37603851628E-01 +4.15023476444E-02
4.40500000000E+09 -3.75538247327E-01 +1.34744333917E-01 -2.28161253368E-03 -3.71868373757E-03 -2.34933889478E-03 -3.74712788924E-03 -4.36781191161E-01 +6.67483019237E-02
4.41000000000E+09 -3.69621568299E-01 +1.51531812285E-01 -2.44863767671E-03 -3.23411330206E-03 -2.50421472552E-03 -3.19679603194E-03 -4.34615520490E-01 +9.16828338481E-02
4.41500000000E+09 -3.63748373931E-01 +1.69995958772E-01 -2.93237086840E-03 -3.25131015168E-03 -2.99082767464E-03 -3.23095106235E-03 -4.32109082359E-01 +1.15856621647E-01
4.42000000000E+09 -3.58115219157E-01 +1.90682838772E-01 -3.16882630170E-03 -2.72850381499E-03 -3.22208370284E-03 -2.66289113343E-03 -4.29775923686E-01 +1.40123514284E-01
4.42500000000E+09 -3.53038715690E-01 +2.12670966037E-01 -3.46652790303E-03 -2.81323169761E-03 -3.53145579067E-03 -2.74897091178E-03 -4.24842689814E-01 +1.65073589905E-01
4.43000000000E+09 -3.48635623345E-01 +2.33606060328E-01 -4.38122842175E-03 -2.53253568167E-03 -4.37976179299E-03 -2.44146321934E-03 -4.19484536062E-01 +1.87283686485E-01
4.43500000000E+09 -3.46650704039E-01 +2.54095316938E-01 -4.55630195782E-03 -1.23738365603E-03 -4.60529255707E-03 -1.10158896742E-03 -4.13364931411E-01 +2.10742335052E-01
4.44000000000E+09 -3.44166105171E-01 +2.73633343355E-01 -4.43998931948E-03 -1.04503591526E-03 -4.37366246739E-03 -9.78321323352E-04 -4.06265406500E-01 +2.33079114373E-01
4.44500000000E+09 -3.41070835806E-01 +2.89440549398E-01 -4.42314244882E-03 -2.03704884136E-04 -4.43973721667E-03 -1.04289561966E-04 -3.98851537301E-01 +2.54818363425E-01
4.45000000000E+09 -3.38036980613E-01 +3.03103197951E-01 -4.06154702951E-03 -8.51453885066E-05 -4.04320119703E-03 -4.33958937483E-07 -3.91276595064E-01 +2.75972642748E-01
4.45500000000E+09 -3.33258418003E-01 +3.15514721328E-01 -4.30487261045E-03 -2.83706713812E-06 -4.34750622069E-03 +1.05942694926E-04 -3.83332571109E-01 +2.96756382745E-01
4.46000000000E+09 -3.26981558614E-01 +3.27257404537E-01 -4.51079859777E-03 +6.69256551871E-04 -4.45021814434E-03 +7.88288055909E-04 -3.73233087976E-01 +3.16838776243E-01
4.46500000000E+09 -3.17879917850E-01 +3.40201641334E-01 -4.39075088642E-03 +1.19097303828E-03 -4.31787853922E-03 +1.28045991446E-03 -3.63184370655E-01 +3.35740085238E-01
4.47000000000E+09 -3.07169955549E-01 +3.53592390952E-01 -4.38941090738E-03 +1.55513205002E-03 -4.29376264631E-03 +1.64632702548E-03 -3.50820672952E-01 +3.55352519618E-01
4.47500000000E+09 -2.95456777960E-01 +3.69741216662E-01 -4.48130576855E-03 +2.10807426099E-03 -4.35884286600E-03 +2.26102887727E-03 -3.39117821280E-01 +3.72642156136E-01
4.48000000000E+09 -2.82590604135E-01 +3.85346914102E-01 -4.13215822020E-03 +2.98252386286E-03 -4.01316599311E-03 +3.01156277511E-03 -3.27631772690E-01 +3.91022383062E-01
4.48500000000E+09 -2.72542265849E-01 +4.02046512201E-01 -3.51885709304E-03 +3.53568276144E-03 -3.37166637618E-03 +3.46292640159E-03 -3.15986684459E-01 +4.07615693280E-01
4.49000000000E+09 -2.63159719713E-01 +4.19145094763E-01 -3.06930293548E-03 +3.82820208202E-03 -2.91136610669E-03 +3.78410369875E-03 -3.04366930090E-01 +4.23698518933E-01
4.49500000000E+09 -2.55097015372E-01 +4.34582622933E-01 -2.52514336905E-03 +4.06035580765E-03 -2.43918562922E-03 +3.94978886098E-03 -2.92839923211E-01 +4.39228142891E-01
4.50000000000E+09 -2.48678889046E-01 +4.48677677450E-01 -2.11473620861E-03 +4.27490749781E-03 -2.05512070551E-03 +4.22046018423E-03 -2.79932854090E-01 +4.54366538559E-01
4.50500000000E+09 -2.42474256351E-01 +4.60315049297E-01 -1.74902925692E-03 +4.31981293917E-03 -1.67943635977E-03 +4.26951285514E-03 -2.66318604624E-01 +4.69201063897E-01
4.51000000000E+09 -2.35658311524E-01 +4.70083488882E-01 -1.48300194629E-03 +4.80539143608E-03 -1.44646823396E-03 +4.76092691313E-03 -2.52583887452E-01 +4.83169011110E-01
4.51500000000E+09 -2.26950569522E-01 +4.77906066847E-01 -5.26628284277E-04 +5.11620379388E-03 -4.75005938158E-04 +5.07329888332E-03 -2.39545596798E-01 +4.97303161834E-01
4.52000000000E+09 -2.16758517770E-01 +4.84272267761E-01 +2.26760025336E-04 +4.76637993334E-03 +2.56206536716E-04 +4.68687111976E-03 -2.25785792577E-01 +5.10610516295E-01
4.52500000000E+09 -2.04425372242E-01 +4.91562618890E-01 +4.16238325288E-04 +4.83697072895E-03 +4.60946276660E-04 +4.71515777789E-03 -2.11784728913E-01 +5.22520038339E-01
4.53000000000E+09 -1.90446641787E-01 +4.99479381973E-01 +1.17665245838E-03 +4.85008825163E-03 +1.30712827640E-03 +4.75216584403E-03 -1.97636718155E-01 +5.33449924013E-01
4.53500000000E+09 -1.74911568671E-01 +5.09247988058E-01 +1.81211698398E-03 +4.25647764482E-03 +1.87004864400E-03 +4.22943370250E-03 -1.83047550318E-01 +5.43813714350E-01
4.54000000000E+09 -1.58619006048E-01 +5.19684341795E-01 +2.15835537392E-03 +4.17514548432E-03 +2.17268932318E-03 +4.08442710092E-03 -1.68339099298E-01 +5.54491756078E-01
4.54500000000E+09 -1.43824765611E-01 +5.30522418809E-01 +2.80791047684E-03 +3.64584149378E-03 +2.84272843828E-03 +3.52769386824E-03 -1.53410904027E-01 +5.65160561267E-01
4.55000000000E+09 -1.30753154129E-01 +5.40924532473E-01 +2.70252385808E-03 +3.23850191120E-03 +2.64379157478E-03 +3.12096043296E-03 -1.38504521183E-01 +5.75477318891E-01
4.55500000000E+09 -1.20598263327E-01 +5.51033571190E-01 +3.16116266612E-03 +2.98028637314E-03 +3.14900149531E-03 +2.94237301577E-03 -1.23975738108E-01 +5.84953383383E-01
4.56000000000E+09 -1.11932850619E-01 +5.61024672181E-01 +3.32494880264E-03 +2.64571895464E-03 +3.31344441666E-03 +2.53842932807E-03 -1.09985000153E-01 +5.93525614925E-01
4.56500000000E+09 -1.03545716611E-01 +5.69232045325E-01 +3.61948195143E-03 +2.22553249097E-03 +3.53811725639E-03 +2.14516649934E-03 -9.52694375521E-02 +6.02188144413E-01
4.57000000000E+09 -9.42615467279E-02 +5.75652698330E-01 +3.62550552364E-03 +1.96591686072E-03 +3.58692364855E-03 +1.86794947224E-03 -8.00180166780E-02 +6.09435434887E-01
