# Hz S RI R 50
! CMT, C1220, 16058040, 17.2.0/1
! Date: 15/08/2018 12:41:18
! Data: Format (Calibration Info)
! Freq                      S11: Re/Im (F2)                       S21: Re/Im (F2)                       S12: Re/Im (F2)                       S22: Re/Im (F2)            
4.00000000000E+09 +6.57692850201E-01 -3.60394999269E-01 +9.82830904059E-04 -9.06066407289E-04 +1.08457916948E-03 -8.93356904054E-04 +7.86410978790E-01 -3.12197495362E-01
4.00500000000E+09 +6.49155396544E-01 -3.66077972053E-01 +7.40910078285E-04 -1.11272326567E-03 +8.11346900437E-04 -1.10130805524E-03 +7.78292813656E-01 -3.23433545600E-01
4.01000000000E+09 +6.40016395991E-01 -3.71747195331E-01 +4.73621618123E-04 -1.32048379452E-03 +5.30845850486E-04 -1.25617889444E-03 +7.69902655239E-01 -3.35447276018E-01
4.01500000000E+09 +6.30094227597E-01 -3.78121391546E-01 +1.97571723411E-04 -1.16193620846E-03 +2.32017557798E-04 -1.14592548419E-03 +7.61398063834E-01 -3.46662850367E-01
4.02000000000E+09 +6.20129063385E-01 -3.85360661001E-01 +2.15464160237E-04 -1.12366610926E-03 +2.99537786417E-04 -1.10015631089E-03 +7.52750505940E-01 -3.57579890829E-01
4.02500000000E+09 +6.09509851734E-01 -3.94467956473E-01 +1.77262655914E-04 -1.14757114077E-03 +2.35255899350E-04 -1.16151350091E-03 +7.43333947928E-01 -3.68309544113E-01
4.03000000000E+09 +5.98421148555E-01 -4.04875096018E-01 +7.73352872870E-06 -1.19964825767E-03 +7.84372197519E-05 -1.23888777959E-03 +7.33138065045E-01 -3.78939540334E-01
4.03500000000E+09 +5.86686948535E-01 -4.15416214916E-01 -1.05111569402E-04 -1.26736522540E-03 -5.62406602960E-05 -1.26791460383E-03 +7.22150266088E-01 -3.90011518719E-01
4.04000000000E+09 +5.75209218863E-01 -4.25371595689E-01 -3.32826533678E-04 -1.09927598488E-03 -2.42315375091E-04 -1.22255757862E-03 +7.10948418299E-01 -4.01253614396E-01
4.04500000000E+09 +5.64232625563E-01 -4.34669531796E-01 -3.65847959455E-04 -1.07204165017E-03 -2.60330887742E-04 -1.20621323087E-03 +6.99968376100E-01 -4.11881308693E-01
4.05000000000E+09 +5.52616777348E-01 -4.42898089104E-01 -4.01218311497E-04 -1.13609627388E-03 -3.79491268540E-04 -1.21978640351E-03 +6.89689551018E-01 -4.22591916138E-01
4.05500000000E+09 +5.40543639126E-01 -4.48940621692E-01 -4.77098347105E-04 -1.09909061762E-03 -4.43076945789E-04 -1.16251323080E-03 +6.78549449899E-01 -4.32428793010E-01
4.06000000000E+09 +5.28594013633E-01 -4.53796042479E-01 -7.22071195429E-04 -1.12344710540E-03 -7.54390123798E-04 -1.24469485706E-03 +6.67461369501E-01 -4.41790944503E-01
4.06500000000E+09 +5.15417748968E-01 -4.58015686905E-01 -8.59560437794E-04 -8.48698686014E-04 -8.66132994280E-04 -9.36034686934E-04 +6.55241249251E-01 -4.51660726914E-01
4.07000000000E+09 +5.01815975034E-01 -4.61832734708E-01 -7.17140160795E-04 -6.48977035847E-04 -7.10989618858E-04 -7.26369461399E-04 +6.42060363875E-01 -4.61606627628E-01
4.07500000000E+09 +4.87261337129E-01 -4.66520335401E-01 -7.25777328603E-04 -9.00980117034E-04 -7.68906534032E-04 -9.37071781448E-04 +6.28550472560E-01 -4.72323267024E-01
4.08000000000E+09 +4.71548078652E-01 -4.71740749255E-01 -9.89741729717E-04 -8.05767496239E-04 -1.04078566691E-03 -8.64062759317E-04 +6.15165376639E-01 -4.82218410306E-01
4.08500000000E+09 +4.55340256728E-01 -4.78082313509E-01 -9.43400887043E-04 -6.56811370177E-04 -9.60082043604E-04 -7.02917462568E-04 +6.01866074725E-01 -4.92312031935E-01
4.09000000000E+09 +4.38210425843E-01 -4.84523239749E-01 -1.15882212760E-03 -8.19661911437E-04 -1.19097186824E-03 -7.84926416258E-04 +5.88118610179E-01 -5.01261702509E-01
4.09500000000E+09 +4.21393467305E-01 -4.90696026066E-01 -1.42052101353E-03 -4.21941616960E-04 -1.51494948978E-03 -4.37244774386E-04 +5.73831344933E-01 -5.09771948322E-01
4.10000000000E+09 +4.04724997060E-01 -4.96455428012E-01 -1.18679404671E-03 -7.89373345308E-05 -1.23459348608E-03 -1.07155377809E-04 +5.58358910354E-01 -5.17549578739E-01
4.10500000000E+09 +3.88022166194E-01 -5.00846945988E-01 -1.08349722523E-03 -2.11332831439E-04 -1.08492818476E-03 -2.52383396678E-04 +5.42798048967E-01 -5.25822511936E-01
4.11000000000E+09 +3.71512443707E-01 -5.02762888109E-01 -1.29119600883E-03 -2.11239748979E-04 -1.30873512714E-03 -1.79027353052E-04 +5.26240644609E-01 -5.34492265897E-01
4.11500000000E+09 +3.56353866086E-01 -5.03914597319E-01 -1.12030660648E-03 -3.52292463698E-05 -1.10203461947E-03 -3.40891195731E-05 +5.09894298824E-01 -5.42495908701E-01
4.12000000000E+09 +3.40536829588E-01 -5.04656417282E-01 -1.28923845949E-03 -5.95655797727E-05 -1.29418593486E-03 -9.28205945096E-05 +4.93497819742E-01 -5.50616898781E-01
4.12500000000E+09 +3.23643051117E-01 -5.05354416470E-01 -1.34416245785E-03 +1.56407426430E-04 -1.29348972735E-03 +1.08924252516E-04 +4.76420146722E-01 -5.57181019159E-01
4.13000000000E+09 +3.06125727055E-01 -5.05909906533E-01 -1.35925883656E-03 +3.91045683898E-04 -1.35044798317E-03 +2.95120862043E-04 +4.59059611138E-01 -5.63347579105E-01
4.13500000000E+09 +2.87607175886E-01 -5.08173012628E-01 -1.06285179603E-03 +5.51300310871E-04 -9.93916058750E-04 +4.41886559066E-04 +4.40658032533E-01 -5.68832371193E-01
4.14000000000E+09 +2.67501458966E-01 -5.10909849025E-01 -1.19578643667E-03 +1.69135100397E-04 -1.18915941660E-03 +4.20782679685E-05 +4.22508954151E-01 -5.74869534576E-01
4.14500000000E+09 +2.47433627239E-01 -5.13211215561E-01 -1.56274924676E-03 +4.51101033339E-04 -1.66755201054E-03 +3.50807697904E-04 +4.03158465209E-01 -5.80996787076E-01
4.15000000000E+09 +2.28331806136E-01 -5.16453329093E-01 -1.43499891373E-03 +9.19005986892E-04 -1.52362676783E-03 +8.57704434881E-04 +3.85009635965E-01 -5.86035486283E-01
4.15500000000E+09 +2.08702436104E-01 -5.19412725707E-01 -1.12061998984E-03 +1.17347799526E-03 -1.24902076069E-03 +1.11411412054E-03 +3.66895777469E-01 -5.91284752330E-01
4.16000000000E+09 +1.89983386614E-01 -5.19667166241E-01 -9.71113185659E-04 +1.19104877410E-03 -1.06923936859E-03 +1.13274676220E-03 +3.47820463451E-01 -5.94874063782E-01
4.16500000000E+09 +1.73377123000E-01 -5.19462274414E-01 -8.65890129976E-04 +1.12719843865E-03 -8.62788346701E-04 +1.10973535644E-03 +3.28447252039E-01 -5.97828435074E-01
4.17000000000E+09 +1.56594732695E-01 -5.17220946789E-01 -7.74292774787E-04 +1.32518187524E-03 -9.10455406319E-04 +1.36946399570E-03 +3.07793532937E-01 -6.00375484037E-01
4.17500000000E+09 +1.40501083142E-01 -5.13240384954E-01 -4.40835110695E-04 +1.04106692662E-03 -5.46368931605E-04 +1.13597836681E-03 +2.86356925456E-01 -6.02045831238E-01
4.18000000000E+09 +1.23719702980E-01 -5.08283548080E-01 -6.50133718523E-04 +1.31483432023E-03 -8.25580087531E-04 +1.41496673406E-03 +2.65391476832E-01 -6.03551130815E-01
4.18500000000E+09 +1.07224722382E-01 -5.02264494280E-01 -1.90122197001E-04 +1.43582417279E-03 -2.71394578631E-04 +1.57500882359E-03 +2.44313023415E-01 -6.05367766409E-01
4.19000000000E+09 +8.94467331772E-02 -4.97465180026E-01 -2.80070539176E-04 +1.18234790109E-03 -2.75614079785E-04 +1.28888873864E-03 +2.22801819506E-01 -6.05578234784E-01
4.19500000000E+09 +7.02140111056E-02 -4.91827118305E-01 -3.58909222350E-04 +1.20286929836E-03 -3.39100828900E-04 +1.38896208674E-03 +2.01459579817E-01 -6.04460676583E-01
4.20000000000E+09 +5.18210522390E-02 -4.87167022560E-01 -1.43835269341E-04 +1.62318350516E-03 -1.13886017462E-04 +1.70006111891E-03 +1.79621352833E-01 -6.02401403915E-01
4.20500000000E+09 +3.27256674602E-02 -4.83194423800E-01 +2.55572823932E-04 +1.33784657802E-03 +3.63884284888E-04 +1.46151563847E-03 +1.57904442454E-01 -5.99291806916E-01
4.21000000000E+09 +1.44165599341E-02 -4.78443311419E-01 +4.38660085506E-05 +9.66613565953E-04 +8.20030437341E-05 +1.01457781663E-03 +1.35742403459E-01 -5.97579256232E-01
4.21500000000E+09 -3.01189061238E-03 -4.72791281403E-01 +2.27340842202E-05 +1.36262107299E-03 +7.58821255653E-05 +1.38535182783E-03 +1.12551769877E-01 -5.95049353945E-01
4.22000000000E+09 -1.88417446860E-02 -4.65606537858E-01 +2.84393906701E-04 +1.33118717621E-03 +3.91403140754E-04 +1.28826233754E-03 +9.03503640779E-02 -5.91156049454E-01
4.22500000000E+09 -3.37941921975E-02 -4.57027174921E-01 +1.26761977748E-04 +1.18543418090E-03 +1.30428989371E-04 +1.11104360698E-03 +6.84505283596E-02 -5.86622233626E-01
4.23000000000E+09 -4.83389440006E-02 -4.45850210910E-01 +1.83817408487E-04 +1.46893590025E-03 +2.03722036811E-04 +1.40393521905E-03 +4.68974191796E-02 -5.80028785809E-01
4.23500000000E+09 -6.19372777394E-02 -4.34119199440E-01 +4.23158544207E-04 +1.63245585258E-03 +3.89449950305E-04 +1.56539937938E-03 +2.54806938087E-02 -5.73084302653E-01
4.24000000000E+09 -7.74194159925E-02 -4.21964180895E-01 +6.02254996257E-04 +1.59247032244E-03 +5.40466253351E-04 +1.55880238483E-03 +3.43517031596E-03 -5.64767599789E-01
4.24500000000E+09 -9.49187924893E-02 -4.08961533155E-01 +9.32164764157E-04 +1.51766433432E-03 +8.83190728607E-04 +1.52368722881E-03 -1.80619877686E-02 -5.56425963122E-01
4.25000000000E+09 -1.13667385039E-01 -3.95523604561E-01 +7.44463860937E-04 +1.60576346529E-03 +6.24292323822E-04 +1.63090520597E-03 -3.98679686995E-02 -5.48027800073E-01
4.25500000000E+09 -1.33137399708E-01 -3.82900643023E-01 +1.40915575657E-03 +1.79057104810E-03 +1.33793275796E-03 +1.74940776779E-03 -6.08600917472E-02 -5.39087162212E-01
4.26000000000E+09 -1.53806669489E-01 -3.70864217398E-01 +1.72279180845E-03 +1.24507273877E-03 +1.63656597771E-03 +1.31386076149E-03 -8.21763599804E-02 -5.29282270953E-01
4.26500000000E+09 -1.72871587667E-01 -3.58153887932E-01 +1.34822380911E-03 +1.21594378967E-03 +1.39784729513E-03 +1.34864579474E-03 -1.03381688228E-01 -5.17847440463E-01
4.27000000000E+09 -1.89720053577E-01 -3.46670291282E-01 +1.99696915494E-03 +1.30116471820E-03 +1.96431906473E-03 +1.41291174146E-03 -1.24995101864E-01 -5.04519503654E-01
4.27500000000E+09 -2.05478996645E-01 -3.35289376796E-01 +2.07814678470E-03 +7.85600571608E-04 +2.11313830381E-03 +8.79418196137E-04 -1.46146647765E-01 -4.90538097404E-01
4.28000000000E+09 -2.18773417051E-01 -3.22258541072E-01 +2.07396594804E-03 +7.03574531283E-04 +2.14569234452E-03 +8.41328651819E-04 -1.67184843705E-01 -4.76166291281E-01
4.28500000000E+09 -2.30431444903E-01 -3.07801358393E-01 +2.38052283233E-03 +6.38247606289E-04 +2.40550488922E-03 +6.75671044675E-04 -1.87802900850E-01 -4.61239213997E-01
4.29000000000E+09 -2.40714687606E-01 -2.91941483671E-01 +2.75312742844E-03 -1.53835392697E-04 +2.86743467330E-03 -7.70772210906E-05 -2.06695410999E-01 -4.46131304960E-01
4.29500000000E+09 -2.51905509244E-01 -2.74479587541E-01 +2.08634659100E-03 -5.45797147218E-04 +2.24668048518E-03 -5.55104642269E-04 -2.25557351786E-01 -4.30073523594E-01
4.30000000000E+09 -2.63152258305E-01 -2.54534945467E-01 +2.03080252659E-03 -5.17094338112E-04 +2.20934532356E-03 -4.58419222538E-04 -2.42330838781E-01 -4.12864222719E-01
4.30500000000E+09 -2.74409964830E-01 -2.34154041734E-01 +2.08420126215E-03 -7.38508439918E-04 +2.18728438180E-03 -8.43784571776E-04 -2.60347146343E-01 -3.95409658535E-01
4.31000000000E+09 -2.86922794192E-01 -2.14698658717E-01 +1.54978741338E-03 -5.20050794279E-04 +1.69333625192E-03 -6.41378724350E-04 -2.77010135435E-01 -3.75669311138E-01
4.31500000000E+09 -3.00204159633E-01 -1.95496079972E-01 +2.20047001450E-03 -4.36056568285E-04 +2.33267743235E-03 -5.11082025386E-04 -2.93238156394E-01 -3.56426566357E-01
4.32000000000E+09 -3.13237303780E-01 -1.77698177156E-01 +2.52904102455E-03 -1.23607469699E-03 +2.62458682332E-03 -1.34679458349E-03 -3.09078839068E-01 -3.36566737044E-01
4.32500000000E+09 -3.24647565528E-01 -1.60960051990E-01 +1.68628797113E-03 -1.78338566484E-03 +1.70218407892E-03 -1.92361021856E-03 -3.23488430351E-01 -3.15552814429E-01
4.33000000000E+09 -3.34699178471E-01 -1.45766646970E-01 +1.68310303355E-03 -1.27495620657E-03 +1.68987852578E-03 -1.37665013874E-03 -3.36371129141E-01 -2.94148662681E-01
4.33500000000E+09 -3.41970444101E-01 -1.29197851248E-01 +1.93738694166E-03 -1.68630327400E-03 +1.84204012591E-03 -1.85082791620E-03 -3.48776641989E-01 -2.71883688038E-01
4.34000000000E+09 -3.45188762878E-01 -1.13434328441E-01 +1.58582795661E-03 -2.23676924884E-03 +1.42778411309E-03 -2.30620357987E-03 -3.61172008243E-01 -2.49482077454E-01
4.34500000000E+09 -3.47541893999E-01 -9.72942719669E-02 +1.13358309740E-03 -2.02215579255E-03 +1.06215974246E-03 -2.08886483083E-03 -3.73206455341E-01 -2.25351674511E-01
4.35000000000E+09 -3.48061105382E-01 -7.85439574380E-02 +1.22652267351E-03 -2.02849164348E-03 +1.15650134423E-03 -2.04945869186E-03 -3.83677788984E-01 -2.02697555920E-01
4.35500000000E+09 -3.48817186113E-01 -5.91441837046E-02 +1.21394667720E-03 -2.27444650441E-03 +1.08663882761E-03 -2.29086360715E-03 -3.94071500786E-01 -1.80581481205E-01
4.36000000000E+09 -3.50914720192E-01 -3.77394360296E-02 +9.21047552379E-04 -2.36692377526E-03 +8.23644250260E-04 -2.29634657796E-03 -4.04214138577E-01 -1.57165153878E-01
4.36500000000E+09 -3.53959444651E-01 -1.46794956866E-02 +1.17004932130E-03 -2.63569512840E-03 +1.11766632226E-03 -2.51302951507E-03 -4.11954190595E-01 -1.32304217884E-01
4.37000000000E+09 -3.58261208832E-01 +8.86900337201E-03 +8.70407690000E-04 -3.22302109230E-03 +8.28362954460E-04 -3.14788732119E-03 -4.17934079053E-01 -1.07744369505E-01
4.37500000000E+09 -3.62241054465E-01 +3.15059296286E-02 +1.99959329891E-04 -3.80003012775E-03 +1.56666801572E-04 -3.74586328548E-03 -4.23437817804E-01 -8.16041647682E-02
4.38000000000E+09 -3.66575516508E-01 +5.10896932990E-02 -6.21130677190E-04 -3.51354937472E-03 -5.76599416298E-04 -3.48229902930E-03 -4.26875538228E-01 -5.63975365933E-02
4.38500000000E+09 -3.71028173330E-01 +6.90745658434E-02 -1.00725960324E-03 -3.28647094620E-03 -1.00815114089E-03 -3.30288190806E-03 -4.30175872730E-01 -3.19388778129E-02
4.39000000000E+09 -3.73879411657E-01 +8.49042301399E-02 -1.35081516838E-03 -3.29769133649E-03 -1.31116371843E-03 -3.29655652606E-03 -4.33193544477E-01 -7.11089673638E-03
4.39500000000E+09 -3.74948764629E-01 +9.92636745743E-02 -1.94628369864E-03 -2.76992144024E-03 -1.93019770283E-03 -2.79915973613E-03 -4.34300419800E-01 +1.66947997853E-02
4.40000000000E+09 -3.74115042386E-01 +1.14297690273E-01 -1.79995569525E-03 -2.72852872137E-03 -1.72997176450E-03 -2.77577753667E-03 -4.35188513876E-01 +4.12065348549E-02
4.40500000000E+09 -3.70040263392E-01 +1.30574399883E-01 -2.55218536318E-03 -2.74897242654E-03 -2.55538326738E-03 -2.81091146534E-03 -4.34468321409E-01 +6.59682301943E-02
4.41000000000E+09 -3.64411517753E-01 +1.46502105735E-01 -2.65650581419E-03 -2.07896219408E-03 -2.67775565621E-03 -2.10678176260E-03 -4.32854225931E-01 +9.07669166845E-02
4.41500000000E+09 -3.59138445973E-01 +1.64922235172E-01 -2.90867718762E-03 -1.97628922025E-03 -3.00324106011E-03 -2.00390391792E-03 -4.30213672448E-01 +1.14944960865E-01
4.42000000000E+09 -3.53719598004E-01 +1.85339536606E-01 -3.06798569872E-03 -1.57298871576E-03 -3.10972545177E-03 -1.58625032343E-03 -4.28114265849E-01 +1.38823979889E-01
4.42500000000E+09 -3.49144060563E-01 +2.07195357453E-01 -3.40713040007E-03 -1.55041712573E-03 -3.54314867136E-03 -1.59363255537E-03 -4.23351696344E-01 +1.63415683319E-01
4.43000000000E+09 -3.45006560231E-01 +2.27928894231E-01 -3.97031924409E-03 -1.03508455170E-03 -4.02944149664E-03 -1.02698985417E-03 -4.18508169858E-01 +1.85375531843E-01
4.43500000000E+09 -3.43361714672E-01 +2.48037719160E-01 -3.97656720819E-03 +2.88203027924E-04 -4.02997090806E-03 +2.84251542611E-04 -4.12721510119E-01 +2.08891999124E-01
4.44000000000E+09 -3.41409090358E-01 +2.67264677253E-01 -3.27825411815E-03 +1.97458964491E-04 -3.28391620791E-03 +2.57711057415E-04 -4.06016206763E-01 +2.31156599385E-01
4.44500000000E+09 -3.38849960472E-01 +2.82850241200E-01 -3.31854823595E-03 +6.13361326612E-04 -3.39131727215E-03 +6.95499565614E-04 -3.99259700202E-01 +2.52920549341E-01
4.45000000000E+09 -3.36568566213E-01 +2.96473769983E-01 -2.97941818442E-03 +7.19627503861E-04 -3.07806831913E-03 +8.20651609409E-04 -3.91876549695E-01 +2.74457576464E-01
4.45500000000E+09 -3.32015374117E-01 +3.09326847361E-01 -3.14192137420E-03 +7.88719913895E-04 -3.18385209824E-03 +9.39635704660E-04 -3.84253977451E-01 +2.95581450498E-01
4.46000000000E+09 -3.25849391536E-01 +3.20717026923E-01 -3.30189296170E-03 +1.30964780230E-03 -3.22819572852E-03 +1.50569283949E-03 -3.74184570054E-01 +3.15953429956E-01
4.46500000000E+09 -3.17484793901E-01 +3.33717569173E-01 -2.91665624061E-03 +1.78689593092E-03 -2.93028199678E-03 +1.91772212867E-03 -3.64217004989E-01 +3.35126175972E-01
4.47000000000E+09 -3.07112545445E-01 +3.47190941130E-01 -2.77465114544E-03 +1.86652387379E-03 -2.69211879866E-03 +1.98420225643E-03 -3.51945660695E-01 +3.54670650024E-01
4.47500000000E+09 -2.95952157768E-01 +3.63389437607E-01 -2.78651063722E-03 +2.16533161715E-03 -2.65912054590E-03 +2.27774576135E-03 -3.40520374085E-01 +3.72385223048E-01
4.48000000000E+09 -2.83758065054E-01 +3.79332301347E-01 -2.59933555087E-03 +2.70509147582E-03 -2.44524844604E-03 +2.75189702046E-03 -3.28971392821E-01 +3.91144966815E-01
4.48500000000E+09 -2.73966820224E-01 +3.96320803473E-01 -2.13949843168E-03 +3.00739928940E-03 -1.95481638171E-03 +3.02773502642E-03 -3.16988999290E-01 +4.07978016895E-01
4.49000000000E+09 -2.64801174850E-01 +4.13679753976E-01 -1.71268336814E-03 +3.35759291451E-03 -1.59341266475E-03 +3.27856385779E-03 -3.05576332332E-01 +4.24255276325E-01
4.49500000000E+09 -2.57016504879E-01 +4.29157676127E-01 -1.25081892381E-03 +3.27323017231E-03 -1.15943389891E-03 +3.20643111768E-03 -2.93603066841E-01 +4.39730772204E-01
4.50000000000E+09 -2.51209400930E-01 +4.43465440410E-01 -1.05136034627E-03 +3.47085465503E-03 -9.58404971937E-04 +3.40998805406E-03 -2.80972527482E-01 +4.54749005301E-01
4.50500000000E+09 -2.45265433312E-01 +4.55671455393E-01 -7.51143624320E-04 +3.41381655314E-03 -6.43815653119E-04 +3.28654445888E-03 -2.67443265955E-01 +4.69982887897E-01
4.51000000000E+09 -2.38466992350E-01 +4.65415773736E-01 -6.84886159535E-04 +3.72864083711E-03 -6.38703496259E-04 +3.64904898041E-03 -2.53484982614E-01 +4.84118457016E-01
4.51500000000E+09 -2.30063671620E-01 +4.73424335488E-01 +1.28053208950E-04 +4.22382631885E-03 +1.89249666225E-04 +4.08157221025E-03 -2.40390642658E-01 +4.98345285416E-01
4.52000000000E+09 -2.19944418054E-01 +4.80314700024E-01 +9.83500351505E-04 +3.70932947986E-03 +9.99352621671E-04 +3.57163781984E-03 -2.26615127504E-01 +5.11752542341E-01
4.52500000000E+09 -2.07882677426E-01 +4.87480303581E-01 +8.83422214441E-04 +3.58377506035E-03 +9.09930878534E-04 +3.46165165418E-03 -2.12624180181E-01 +5.23666907264E-01
4.53000000000E+09 -1.94182961321E-01 +4.95932958413E-01 +1.59535732159E-03 +3.61315684548E-03 +1.53210980761E-03 +3.51616234595E-03 -1.98411888042E-01 +5.34909011325E-01
4.53500000000E+09 -1.78785861729E-01 +5.06241281753E-01 +1.90777279649E-03 +3.06733829850E-03 +1.90294795411E-03 +2.97272254982E-03 -1.83693385690E-01 +5.45475533376E-01
4.54000000000E+09 -1.62827622970E-01 +5.16953112077E-01 +2.22332756151E-03 +2.98709209414E-03 +2.22574971814E-03 +2.90658324761E-03 -1.68841819132E-01 +5.56392252314E-01
4.54500000000E+09 -1.47851615015E-01 +5.28299129881E-01 +2.73615411229E-03 +2.47675232963E-03 +2.70271956018E-03 +2.44145947983E-03 -1.53706103713E-01 +5.67152637682E-01
4.55000000000E+09 -1.34867341620E-01 +5.38935600925E-01 +2.55915685461E-03 +2.12608021574E-03 +2.48504184663E-03 +2.04475862769E-03 -1.38560783682E-01 +5.77640791638E-01
4.55500000000E+09 -1.24820403732E-01 +5.49309723567E-01 +2.89016546246E-03 +1.98786558066E-03 +2.87068471879E-03 +1.93539426155E-03 -1.23818081872E-01 +5.87209940917E-01
4.56000000000E+09 -1.16214618977E-01 +5.59451592850E-01 +3.13357772266E-03 +1.62401933484E-03 +3.11198037040E-03 +1.54544831387E-03 -1.09520504662E-01 +5.95816975275E-01
4.56500000000E+09 -1.07915887543E-01 +5.68048742007E-01 +3.26305879409E-03 +1.11975234605E-03 +3.23736589402E-03 +1.04344956514E-03 -9.44593416905E-02 +6.04564756485E-01
4.57000000000E+09 -9.84284136937E-02 +5.74605215359E-01 +3.13223822146E-03 +8.15521777061E-04 +3.08379290724E-03 +7.51159982007E-04 -7.88788665097E-02 +6.11674026543E-01
