# Hz S RI R 50
! CMT, C1220, 16058040, 17.2.0/1
! Date: 15/08/2018 12:39:56
! Data: Format (Calibration Info)
! Freq                      S11: Re/Im (F2)                       S21: Re/Im (F2)                       S12: Re/Im (F2)                       S22: Re/Im (F2)            
4.00000000000E+09 +6.57747779630E-01 -3.60728068150E-01 +1.59597096873E-03 -9.88924613751E-04 +1.70068692965E-03 -9.45114362497E-04 +7.87017088788E-01 -3.13819818861E-01
4.00500000000E+09 +6.49397888526E-01 -3.66327541892E-01 +1.37757306588E-03 -1.33504010111E-03 +1.44276783854E-03 -1.32222071049E-03 +7.78629401977E-01 -3.25249092650E-01
4.01000000000E+09 +6.40614152586E-01 -3.71920795606E-01 +1.15308081275E-03 -1.52221247661E-03 +1.21832709697E-03 -1.51483559792E-03 +7.70232344807E-01 -3.37299256598E-01
4.01500000000E+09 +6.30871815203E-01 -3.78426738395E-01 +7.88541458092E-04 -1.49078548614E-03 +8.65623538366E-04 -1.47278429126E-03 +7.61669467959E-01 -3.48565778651E-01
4.02000000000E+09 +6.20836444022E-01 -3.85887340775E-01 +7.58366485841E-04 -1.53823900597E-03 +8.69043757909E-04 -1.53103094834E-03 +7.52738729659E-01 -3.59459166747E-01
4.02500000000E+09 +6.10345210186E-01 -3.94991416690E-01 +6.29187221857E-04 -1.55724253808E-03 +7.17391170971E-04 -1.56724583335E-03 +7.43329896185E-01 -3.70163288481E-01
4.03000000000E+09 +5.99215006697E-01 -4.05485886149E-01 +5.13305898975E-04 -1.60118115859E-03 +5.64737144401E-04 -1.64510886599E-03 +7.33185029404E-01 -3.80802220444E-01
4.03500000000E+09 +5.87567135538E-01 -4.15863485281E-01 +3.47278589253E-04 -1.66287282965E-03 +3.81654169523E-04 -1.65056382025E-03 +7.22076175246E-01 -3.91937721529E-01
4.04000000000E+09 +5.76586877635E-01 -4.26022431060E-01 +2.65725286208E-04 -1.58150765575E-03 +3.05560428290E-04 -1.62998718550E-03 +7.11083397999E-01 -4.03060323880E-01
4.04500000000E+09 +5.65454600029E-01 -4.35973530813E-01 +2.34539788397E-04 -1.70563563628E-03 +2.89841057934E-04 -1.72408469138E-03 +7.00209314496E-01 -4.14160359236E-01
4.05000000000E+09 +5.53806483600E-01 -4.44002525424E-01 +1.10124376701E-04 -1.76090084032E-03 +1.53414628436E-04 -1.86309866024E-03 +6.89737218664E-01 -4.24959061276E-01
4.05500000000E+09 +5.42003869149E-01 -4.50235319428E-01 +1.61449490237E-05 -1.89251645187E-03 -2.73975627727E-06 -1.97207666043E-03 +6.78342409976E-01 -4.34987491141E-01
4.06000000000E+09 +5.29731821508E-01 -4.55270084054E-01 -3.89907570215E-04 -2.10946290765E-03 -4.26615865895E-04 -2.21779150979E-03 +6.67099019518E-01 -4.44481074120E-01
4.06500000000E+09 +5.16577537132E-01 -4.59095214295E-01 -7.20839913457E-04 -1.81410835836E-03 -7.05834436723E-04 -1.80835144336E-03 +6.54677088441E-01 -4.54462739574E-01
4.07000000000E+09 +5.03220576607E-01 -4.63195668942E-01 -7.54390703585E-04 -1.67843895017E-03 -7.51648529857E-04 -1.69586896253E-03 +6.41273168647E-01 -4.64427322300E-01
4.07500000000E+09 +4.88512753571E-01 -4.67903449972E-01 -8.21081394387E-04 -1.78867730952E-03 -7.67169397602E-04 -1.79091740138E-03 +6.27517998994E-01 -4.75128948529E-01
4.08000000000E+09 +4.72840356206E-01 -4.73001500676E-01 -1.08160464433E-03 -1.60682851109E-03 -1.05452279715E-03 -1.63273639237E-03 +6.13889032736E-01 -4.85049352957E-01
4.08500000000E+09 +4.56562332727E-01 -4.79505492654E-01 -1.06048744533E-03 -1.55680153203E-03 -1.02754690900E-03 -1.64696655329E-03 +6.00239980206E-01 -4.95110945653E-01
4.09000000000E+09 +4.39348207635E-01 -4.86182789999E-01 -1.32157355672E-03 -1.74732825004E-03 -1.27387027595E-03 -1.82200979380E-03 +5.86172959874E-01 -5.03764409152E-01
4.09500000000E+09 +4.22606575069E-01 -4.92698774750E-01 -1.79732916322E-03 -1.53496352171E-03 -1.84800186364E-03 -1.58283542782E-03 +5.71726613566E-01 -5.12107519678E-01
4.10000000000E+09 +4.05319639365E-01 -4.98408815246E-01 -1.81258355619E-03 -1.09645775084E-03 -1.83796913922E-03 -1.16262243058E-03 +5.55905475351E-01 -5.19773040928E-01
4.10500000000E+09 +3.88549556066E-01 -5.02702066606E-01 -1.92126996058E-03 -1.10643603334E-03 -1.93216107546E-03 -1.15408086804E-03 +5.40204902027E-01 -5.27686964222E-01
4.11000000000E+09 +3.72153316777E-01 -5.04609846479E-01 -2.24523685874E-03 -8.02905262842E-04 -2.25995996727E-03 -9.09776402511E-04 +5.23667415798E-01 -5.36033928226E-01
4.11500000000E+09 +3.56955447829E-01 -5.05778390580E-01 -2.05121282735E-03 -2.46055274119E-04 -2.10584863113E-03 -3.90924093650E-04 +5.07331498766E-01 -5.43881685238E-01
4.12000000000E+09 +3.41317624463E-01 -5.06718375522E-01 -1.88679760583E-03 -2.57540655094E-04 -1.97112602711E-03 -3.82559204104E-04 +4.91048655190E-01 -5.51711323678E-01
4.12500000000E+09 +3.24658834100E-01 -5.07997352889E-01 -1.98581004150E-03 -2.55894745196E-04 -2.06548544745E-03 -3.33364504568E-04 +4.73854674159E-01 -5.58394275611E-01
4.13000000000E+09 +3.06694389609E-01 -5.09120666726E-01 -2.04410875926E-03 +5.02999969334E-05 -2.06697966602E-03 -3.68517511941E-05 +4.56403956511E-01 -5.64302637535E-01
4.13500000000E+09 +2.87551007000E-01 -5.11430664611E-01 -1.77397965160E-03 +1.54303951021E-04 -1.87235268951E-03 +5.30181434131E-05 +4.38241510770E-01 -5.69726560995E-01
4.14000000000E+09 +2.67220618424E-01 -5.13554723738E-01 -2.00316462847E-03 -1.28479777728E-04 -2.14561553071E-03 -2.57852191038E-04 +4.20031946695E-01 -5.75710142616E-01
4.14500000000E+09 +2.47528242430E-01 -5.16082508269E-01 -2.49381946128E-03 +2.89844366975E-04 -2.64081493082E-03 +2.11817268462E-04 +4.00618834452E-01 -5.81773940027E-01
4.15000000000E+09 +2.27974830459E-01 -5.19537713810E-01 -2.26862080456E-03 +8.98736690670E-04 -2.43547429421E-03 +9.39124023173E-04 +3.82238955064E-01 -5.86813270865E-01
4.15500000000E+09 +2.08311311766E-01 -5.22239363198E-01 -2.02889541110E-03 +1.16618053855E-03 -2.09118236777E-03 +1.22608812421E-03 +3.63880512850E-01 -5.91618418298E-01
4.16000000000E+09 +1.89766666618E-01 -5.22814285746E-01 -1.78862299091E-03 +1.21579415928E-03 -1.83242659270E-03 +1.30695587183E-03 +3.44953263524E-01 -5.95028008953E-01
4.16500000000E+09 +1.72478208086E-01 -5.22740171313E-01 -1.57871726016E-03 +1.11318733060E-03 -1.62824704026E-03 +1.16009449120E-03 +3.25521447344E-01 -5.97817570396E-01
4.17000000000E+09 +1.55400826602E-01 -5.20148640136E-01 -1.57194123855E-03 +1.32972716652E-03 -1.61769298877E-03 +1.33485970304E-03 +3.04858767704E-01 -5.99947437220E-01
4.17500000000E+09 +1.39540639427E-01 -5.15942770763E-01 -1.47109504613E-03 +1.04775603676E-03 -1.52408475166E-03 +1.04913399047E-03 +2.83532959154E-01 -6.01554912696E-01
4.18000000000E+09 +1.22559675763E-01 -5.11184888945E-01 -1.86328712141E-03 +1.51754757436E-03 -1.92514187929E-03 +1.61694578963E-03 +2.62547515276E-01 -6.02866729250E-01
4.18500000000E+09 +1.05739155521E-01 -5.05338864545E-01 -1.35290538733E-03 +1.74343533366E-03 -1.38973925811E-03 +1.80776391151E-03 +2.41523640630E-01 -6.04360709024E-01
4.19000000000E+09 +8.73762464224E-02 -5.00035868184E-01 -1.61064757642E-03 +1.79234312609E-03 -1.56369650499E-03 +1.81915184757E-03 +2.20122843578E-01 -6.04263798604E-01
4.19500000000E+09 +6.86475252912E-02 -4.94168591110E-01 -1.46765073266E-03 +2.33886273442E-03 -1.47848310308E-03 +2.36898329981E-03 +1.99024561862E-01 -6.02623030913E-01
4.20000000000E+09 +5.01213583721E-02 -4.89709939549E-01 -8.89684633068E-04 +2.63756762534E-03 -9.28354314136E-04 +2.67799950146E-03 +1.77633702226E-01 -6.00424287293E-01
4.20500000000E+09 +3.05622489361E-02 -4.85734252201E-01 -4.80012904222E-04 +2.43508930241E-03 -4.52053796292E-04 +2.42067286319E-03 +1.56264542617E-01 -5.97190450858E-01
4.21000000000E+09 +1.18261905453E-02 -4.80879524606E-01 -6.43286017915E-04 +2.18623265028E-03 -6.58534436839E-04 +2.15893420286E-03 +1.34645663933E-01 -5.95712313570E-01
4.21500000000E+09 -6.16062915940E-03 -4.74929413403E-01 -4.83864266946E-04 +2.66152515144E-03 -5.81274760872E-04 +2.61525022613E-03 +1.11583651534E-01 -5.93463220194E-01
4.22000000000E+09 -2.20178342292E-02 -4.66798020950E-01 -1.10396969709E-04 +2.65926548013E-03 -1.66487724934E-04 +2.63308921843E-03 +8.93305755138E-02 -5.89560242661E-01
4.22500000000E+09 -3.65791872677E-02 -4.57678776395E-01 -1.39058533607E-04 +2.58933689670E-03 -2.25550470002E-04 +2.59141162172E-03 +6.77743323606E-02 -5.85203856581E-01
4.23000000000E+09 -5.05401199617E-02 -4.46655095372E-01 +1.91443900867E-04 +3.07446146143E-03 +1.00882405783E-04 +3.12745896464E-03 +4.61135941106E-02 -5.78716681482E-01
4.23500000000E+09 -6.44132556991E-02 -4.35273043762E-01 +6.74897851695E-04 +2.97388759887E-03 +6.15535027648E-04 +3.02072932638E-03 +2.46998610817E-02 -5.71537715945E-01
4.24000000000E+09 -8.02758859218E-02 -4.23004416398E-01 +1.08103758160E-03 +2.90930785131E-03 +1.00113843517E-03 +3.05060291511E-03 +3.08909144393E-03 -5.63316751436E-01
4.24500000000E+09 -9.83995502168E-02 -4.09914832883E-01 +1.48653064604E-03 +2.65216669441E-03 +1.49524767289E-03 +2.80415474437E-03 -1.84932237780E-02 -5.55330970155E-01
4.25000000000E+09 -1.17654146957E-01 -3.95761960200E-01 +1.46936146647E-03 +2.60455531318E-03 +1.47214919265E-03 +2.75261668874E-03 -4.03620282845E-02 -5.46837728785E-01
4.25500000000E+09 -1.36955470829E-01 -3.82235412492E-01 +2.03449539770E-03 +2.51955467029E-03 +2.06680990454E-03 +2.67030432924E-03 -6.14731985945E-02 -5.38000446623E-01
4.26000000000E+09 -1.57204588319E-01 -3.70173246854E-01 +2.20765376050E-03 +2.04502316096E-03 +2.26929473207E-03 +2.20183195624E-03 -8.27012126500E-02 -5.28038606075E-01
4.26500000000E+09 -1.76572040863E-01 -3.57162433321E-01 +1.98839104243E-03 +2.17298060444E-03 +2.09639288107E-03 +2.30285753665E-03 -1.03581114580E-01 -5.16552768026E-01
4.27000000000E+09 -1.93082078814E-01 -3.45388278483E-01 +2.72612406071E-03 +2.01256184287E-03 +2.85415918907E-03 +2.07818227698E-03 -1.25265959339E-01 -5.03279434123E-01
4.27500000000E+09 -2.08684641929E-01 -3.33867897212E-01 +2.79229873133E-03 +1.57149225674E-03 +2.91085893965E-03 +1.59011766355E-03 -1.46319385718E-01 -4.89135994121E-01
4.28000000000E+09 -2.21957444921E-01 -3.20730983074E-01 +2.95854915059E-03 +1.52348419191E-03 +3.09244196845E-03 +1.54003137510E-03 -1.66929351735E-01 -4.75006087647E-01
4.28500000000E+09 -2.33801194958E-01 -3.06139570258E-01 +3.25947872289E-03 +1.22808877186E-03 +3.38438638121E-03 +1.20308443897E-03 -1.87761147811E-01 -4.60078379470E-01
4.29000000000E+09 -2.44371074828E-01 -2.89857139078E-01 +3.54412598339E-03 +4.31890544836E-04 +3.70718875220E-03 +3.62083448789E-04 -2.06114604906E-01 -4.45033469929E-01
4.29500000000E+09 -2.55190770228E-01 -2.71560788344E-01 +2.94284443063E-03 +2.29753374688E-04 +3.04878841257E-03 +1.27969595460E-04 -2.24840650861E-01 -4.29332504921E-01
4.30000000000E+09 -2.65704998252E-01 -2.51374160583E-01 +3.13677166058E-03 +2.05803066686E-04 +3.23717163847E-03 +8.03096909937E-05 -2.41599533818E-01 -4.12438476333E-01
4.30500000000E+09 -2.76713222476E-01 -2.31081797343E-01 +3.15690821322E-03 -2.53245650119E-04 +3.20678743284E-03 -3.31236627737E-04 -2.59623636759E-01 -3.95440385589E-01
4.31000000000E+09 -2.88865953152E-01 -2.11435878444E-01 +2.84585331298E-03 +6.58104073881E-05 +2.83331950897E-03 -5.10352874434E-05 -2.76584505064E-01 -3.76110599171E-01
4.31500000000E+09 -3.02229163599E-01 -1.92488140340E-01 +3.66827749931E-03 +1.56800122101E-05 +3.70645947725E-03 -1.17285358256E-04 -2.93321505864E-01 -3.56975010030E-01
4.32000000000E+09 -3.15105870711E-01 -1.74238669320E-01 +4.04982053380E-03 -1.01754754032E-03 +4.05308354057E-03 -1.15158377552E-03 -3.09270942343E-01 -3.37056552992E-01
4.32500000000E+09 -3.26463716214E-01 -1.57251067866E-01 +3.38514766455E-03 -1.51364266853E-03 +3.21824614714E-03 -1.57012812150E-03 -3.23780546312E-01 -3.15926333959E-01
4.33000000000E+09 -3.36256058938E-01 -1.41373132879E-01 +3.69940575284E-03 -1.55758209962E-03 +3.65172078576E-03 -1.60546404315E-03 -3.36852035090E-01 -2.94558634540E-01
4.33500000000E+09 -3.42647634839E-01 -1.24436811615E-01 +3.52605982862E-03 -2.37105923243E-03 +3.43615142269E-03 -2.37169367361E-03 -3.49344635918E-01 -2.72454657535E-01
4.34000000000E+09 -3.45190374425E-01 -1.09086749534E-01 +3.03260184489E-03 -3.07212811876E-03 +2.90726030802E-03 -3.05436765905E-03 -3.62130311670E-01 -2.50128113048E-01
4.34500000000E+09 -3.47318639918E-01 -9.30423087738E-02 +2.40562537362E-03 -2.79141716679E-03 +2.36861679101E-03 -2.71661298712E-03 -3.74654297698E-01 -2.25928010086E-01
4.35000000000E+09 -3.47945582504E-01 -7.44379459973E-02 +2.77352441918E-03 -3.02673443711E-03 +2.75133231778E-03 -2.94889578423E-03 -3.85602409434E-01 -2.02806013416E-01
4.35500000000E+09 -3.49051801355E-01 -5.45217604090E-02 +2.40350180795E-03 -3.56894148959E-03 +2.44651060028E-03 -3.48575346184E-03 -3.96105677231E-01 -1.80065679959E-01
4.36000000000E+09 -3.50029974500E-01 -3.20855052024E-02 +2.01894032250E-03 -3.90811774246E-03 +2.07209551080E-03 -3.81196187133E-03 -4.05779835917E-01 -1.56449232329E-01
4.36500000000E+09 -3.52532491172E-01 -9.40660799845E-03 +1.86887050292E-03 -4.11626127895E-03 +1.94577202341E-03 -4.14488406179E-03 -4.13412981580E-01 -1.31460235667E-01
4.37000000000E+09 -3.56167113491E-01 +1.41240781187E-02 +1.43185993864E-03 -4.65291546811E-03 +1.48457788494E-03 -4.65597292100E-03 -4.19322498917E-01 -1.06786120430E-01
4.37500000000E+09 -3.59432763664E-01 +3.64559953262E-02 +7.72292515576E-04 -5.40638038622E-03 +8.06625357834E-04 -5.47521472649E-03 -4.24809853935E-01 -8.11251051277E-02
4.38000000000E+09 -3.63933644355E-01 +5.53894206210E-02 -4.56697496006E-04 -5.20501025602E-03 -4.22635259777E-04 -5.29109258197E-03 -4.28525505819E-01 -5.55124410214E-02
4.38500000000E+09 -3.67972636975E-01 +7.35995704548E-02 -1.07363556472E-03 -4.73546517954E-03 -1.03076847058E-03 -4.87121900747E-03 -4.31645638127E-01 -3.09308055459E-02
4.39000000000E+09 -3.70428946066E-01 +8.91402736762E-02 -1.43601893874E-03 -4.62573744426E-03 -1.47837061830E-03 -4.72206167294E-03 -4.34940019169E-01 -6.10127564942E-03
4.39500000000E+09 -3.71253255341E-01 +1.03390763475E-01 -2.07141252625E-03 -4.07809410586E-03 -2.11154817298E-03 -4.16767219532E-03 -4.35837795210E-01 +1.79534298708E-02
4.40000000000E+09 -3.69729564151E-01 +1.18123333509E-01 -2.01591390567E-03 -4.03953420104E-03 -2.12736963148E-03 -4.21176462368E-03 -4.36902346454E-01 +4.27165985345E-02
4.40500000000E+09 -3.65966474104E-01 +1.33864867514E-01 -2.75906597127E-03 -3.96417856408E-03 -2.88187107621E-03 -4.08281691949E-03 -4.36144937616E-01 +6.76970180590E-02
4.41000000000E+09 -3.59851149057E-01 +1.50382020399E-01 -2.85359549364E-03 -3.31562534943E-03 -3.08272134099E-03 -3.43625224585E-03 -4.34316761641E-01 +9.26287201679E-02
4.41500000000E+09 -3.53849838966E-01 +1.68063917235E-01 -3.27849851898E-03 -3.19259137203E-03 -3.51051251380E-03 -3.21709659688E-03 -4.32017045564E-01 +1.16895994935E-01
4.42000000000E+09 -3.48472358516E-01 +1.87933792712E-01 -3.52241313040E-03 -2.83120615815E-03 -3.70758865337E-03 -2.78526603103E-03 -4.29709708988E-01 +1.41222165690E-01
4.42500000000E+09 -3.44049264200E-01 +2.09309339819E-01 -3.88162733975E-03 -2.87737707733E-03 -3.98789916608E-03 -2.79120334410E-03 -4.24890552313E-01 +1.66030070547E-01
4.43000000000E+09 -3.40127231179E-01 +2.30012291303E-01 -4.64252107393E-03 -2.56104572114E-03 -4.78177991144E-03 -2.39701536015E-03 -4.19864040250E-01 +1.88449261979E-01
4.43500000000E+09 -3.38556872822E-01 +2.50296169102E-01 -4.75385638895E-03 -1.26957586232E-03 -4.83533590098E-03 -1.08607453014E-03 -4.13675818673E-01 +2.12088401196E-01
4.44000000000E+09 -3.35997652054E-01 +2.69524232147E-01 -4.56403809317E-03 -1.22152120019E-03 -4.60122025447E-03 -1.11078175960E-03 -4.06745978045E-01 +2.34641597784E-01
4.44500000000E+09 -3.32916100557E-01 +2.84846920363E-01 -4.76715158709E-03 -4.83961631996E-04 -4.77928608120E-03 -2.78214099669E-04 -3.99332806521E-01 +2.56537322021E-01
4.45000000000E+09 -3.29872391389E-01 +2.97640907036E-01 -4.54363603718E-03 -2.54843470635E-04 -4.51891796912E-03 -6.24031852865E-05 -3.91795305705E-01 +2.77977079400E-01
4.45500000000E+09 -3.25767205680E-01 +3.09215893463E-01 -4.52795006104E-03 -8.08899502458E-05 -4.45389406560E-03 +1.10996125778E-04 -3.83741363608E-01 +2.98892236952E-01
4.46000000000E+09 -3.20078717382E-01 +3.20904635044E-01 -4.93281763877E-03 +4.32996962744E-04 -4.79230372906E-03 +6.10976319163E-04 -3.73607807635E-01 +3.19190353675E-01
4.46500000000E+09 -3.11408777659E-01 +3.33828180252E-01 -4.80299351933E-03 +8.79759120939E-04 -4.68754498389E-03 +1.14336515198E-03 -3.63414707719E-01 +3.38296046496E-01
4.47000000000E+09 -3.00835393097E-01 +3.47295317927E-01 -4.94439612354E-03 +1.42918578940E-03 -4.77826056003E-03 +1.54056539682E-03 -3.50801457433E-01 +3.57982433416E-01
4.47500000000E+09 -2.89050860029E-01 +3.62993612204E-01 -4.96350879917E-03 +2.18500988004E-03 -4.76721185264E-03 +2.30180310981E-03 -3.39001217975E-01 +3.75538907428E-01
4.48000000000E+09 -2.77245074761E-01 +3.78209964382E-01 -4.61045897044E-03 +2.95188169908E-03 -4.34923561403E-03 +2.96258289252E-03 -3.27237704404E-01 +3.93877199281E-01
4.48500000000E+09 -2.67623415852E-01 +3.94995915160E-01 -4.11386488932E-03 +3.40885706544E-03 -3.88071897722E-03 +3.31481116267E-03 -3.15560874378E-01 +4.10362750863E-01
4.49000000000E+09 -2.58770559219E-01 +4.11881477154E-01 -3.75120789985E-03 +3.97832998157E-03 -3.53172669097E-03 +3.84528827211E-03 -3.03914608697E-01 +4.26773669396E-01
4.49500000000E+09 -2.51391691951E-01 +4.27445371550E-01 -3.10927412789E-03 +4.25639178324E-03 -3.07907776999E-03 +4.11879815690E-03 -2.92113038210E-01 +4.42303955657E-01
4.50000000000E+09 -2.45259817910E-01 +4.41147733216E-01 -2.67427745403E-03 +4.68966991944E-03 -2.62046932638E-03 +4.58570040351E-03 -2.79104325810E-01 +4.57357225897E-01
4.50500000000E+09 -2.39809801285E-01 +4.52599276235E-01 -2.05786953493E-03 +4.65027032870E-03 -2.04859197380E-03 +4.55210208799E-03 -2.65279348119E-01 +4.72360380073E-01
4.51000000000E+09 -2.33357840501E-01 +4.62466183688E-01 -1.94199094356E-03 +5.08698358034E-03 -1.94120908566E-03 +4.98676305627E-03 -2.51422638031E-01 +4.86293815591E-01
4.51500000000E+09 -2.24887861478E-01 +4.69983426258E-01 -1.03194473131E-03 +5.52181465756E-03 -1.00990949717E-03 +5.42465658646E-03 -2.38211254312E-01 +5.00439719645E-01
4.52000000000E+09 -2.15174272211E-01 +4.76576147569E-01 -3.09465213569E-04 +5.21002877072E-03 -2.70151045797E-04 +5.14700310340E-03 -2.24464901655E-01 +5.13869517229E-01
4.52500000000E+09 -2.02939311553E-01 +4.83849687428E-01 -3.68676972249E-05 +5.49784623671E-03 -2.69729062646E-05 +5.49023684766E-03 -2.10262709944E-01 +5.25923121008E-01
4.53000000000E+09 -1.89185081946E-01 +4.91653637883E-01 +9.68860279210E-04 +5.55132327420E-03 +9.42678766917E-04 +5.47769390064E-03 -1.95848481666E-01 +5.37055000573E-01
4.53500000000E+09 -1.74322637187E-01 +5.01399276648E-01 +1.73476230786E-03 +4.92122252978E-03 +1.73541357992E-03 +4.94726322974E-03 -1.80772692585E-01 +5.47367920093E-01
4.54000000000E+09 -1.58533460743E-01 +5.12221256586E-01 +2.06286683667E-03 +4.67406148687E-03 +2.11222956047E-03 +4.64706846756E-03 -1.65864105722E-01 +5.57788313796E-01
4.54500000000E+09 -1.44081043606E-01 +5.23419185961E-01 +2.59651640665E-03 +4.13121562168E-03 +2.71275904749E-03 +4.06419181780E-03 -1.50812047157E-01 +5.68349348141E-01
4.55000000000E+09 -1.31311924247E-01 +5.34354104647E-01 +2.56604717313E-03 +3.85563844247E-03 +2.58532215643E-03 +3.77766187035E-03 -1.35642869091E-01 +5.78692214082E-01
4.55500000000E+09 -1.21200990703E-01 +5.44565125499E-01 +3.07195898319E-03 +3.69909924039E-03 +3.08379779868E-03 +3.63111100639E-03 -1.20862124538E-01 +5.88048167802E-01
4.56000000000E+09 -1.12878391984E-01 +5.54371543914E-01 +3.35630352675E-03 +3.28221155525E-03 +3.44700468791E-03 +3.20609079069E-03 -1.06792103839E-01 +5.96453217002E-01
4.56500000000E+09 -1.05022636108E-01 +5.62621149333E-01 +3.60332441738E-03 +2.82091795342E-03 +3.63585555645E-03 +2.77536306810E-03 -9.16503236420E-02 +6.05078565936E-01
4.57000000000E+09 -9.62217358504E-02 +5.69240185081E-01 +3.70389156180E-03 +2.74080171930E-03 +3.70955586797E-03 +2.56633005883E-03 -7.61070920124E-02 +6.12145504894E-01
