# Hz S RI R 50
! CMT, C1220, 16058040, 17.2.0/1
! Date: 15/08/2018 12:37:01
! Data: Format (Calibration Info)
! Freq                      S11: Re/Im (F2)                       S21: Re/Im (F2)                       S12: Re/Im (F2)                       S22: Re/Im (F2)            
4.00000000000E+09 +6.52720654322E-01 -3.60871905198E-01 +2.05670934639E-03 -7.65189192232E-04 +2.14113224573E-03 -6.92555133624E-04 +7.85504618791E-01 -3.16176845038E-01
4.00500000000E+09 +6.44379253470E-01 -3.66772074209E-01 +1.85362111895E-03 -1.15570512518E-03 +1.94482434804E-03 -1.11683082029E-03 +7.77085023462E-01 -3.27686115206E-01
4.01000000000E+09 +6.35772251623E-01 -3.72589985178E-01 +1.69770517180E-03 -1.51178628471E-03 +1.74299714487E-03 -1.46639207051E-03 +7.68517802886E-01 -3.39653017485E-01
4.01500000000E+09 +6.26436258164E-01 -3.79052298005E-01 +1.25688275896E-03 -1.51599889128E-03 +1.31826592507E-03 -1.46028746595E-03 +7.60194952923E-01 -3.50859712225E-01
4.02000000000E+09 +6.16932134940E-01 -3.86247426878E-01 +1.26523312368E-03 -1.56498181479E-03 +1.32996354860E-03 -1.50387249052E-03 +7.51179395229E-01 -3.61859023641E-01
4.02500000000E+09 +6.06832299410E-01 -3.94938728297E-01 +1.13080357993E-03 -1.63444619867E-03 +1.26956771172E-03 -1.56492674518E-03 +7.41831646687E-01 -3.72525708624E-01
4.03000000000E+09 +5.95954874158E-01 -4.04887196601E-01 +1.02487768658E-03 -1.67886845788E-03 +1.17049030127E-03 -1.69011369514E-03 +7.31383367398E-01 -3.83313260223E-01
4.03500000000E+09 +5.84436884624E-01 -4.14721340281E-01 +9.43947225147E-04 -1.86666164058E-03 +1.02159087816E-03 -1.84902753289E-03 +7.20187477827E-01 -3.94509926739E-01
4.04000000000E+09 +5.72923251658E-01 -4.24205467524E-01 +8.13420407318E-04 -1.91277032535E-03 +9.51749264179E-04 -1.89032212527E-03 +7.08948884738E-01 -4.05923873811E-01
4.04500000000E+09 +5.61239752540E-01 -4.33278173930E-01 +7.48305253337E-04 -2.07703879893E-03 +8.72895710930E-04 -2.16338415655E-03 +6.97760179774E-01 -4.17115391138E-01
4.05000000000E+09 +5.49223177419E-01 -4.40642891486E-01 +5.17881119418E-04 -2.32709034372E-03 +6.44480939735E-04 -2.41893031724E-03 +6.86769985336E-01 -4.27906210904E-01
4.05500000000E+09 +5.36991240488E-01 -4.46758883336E-01 +2.39017363132E-04 -2.42277349238E-03 +3.57859767187E-04 -2.55248733214E-03 +6.75181145279E-01 -4.37691939344E-01
4.06000000000E+09 +5.24500718208E-01 -4.51628797640E-01 -2.81105279876E-04 -2.54043557035E-03 -2.15699836659E-04 -2.71347332046E-03 +6.63662790952E-01 -4.46956290645E-01
4.06500000000E+09 +5.11322055551E-01 -4.55637014175E-01 -5.49875060656E-04 -2.19203835590E-03 -4.65176546067E-04 -2.29449931949E-03 +6.50974947340E-01 -4.56671817899E-01
4.07000000000E+09 +4.97759762760E-01 -4.59916383497E-01 -5.79162439282E-04 -2.09725225243E-03 -5.04168042235E-04 -2.17170260137E-03 +6.37382016423E-01 -4.66300426132E-01
4.07500000000E+09 +4.83141796789E-01 -4.64669446451E-01 -5.83094388856E-04 -2.13912365226E-03 -5.56169839567E-04 -2.25518167528E-03 +6.23531168696E-01 -4.76764257848E-01
4.08000000000E+09 +4.67787836984E-01 -4.69652256802E-01 -7.98458580636E-04 -2.14453537795E-03 -7.61826369500E-04 -2.27098976080E-03 +6.09992718003E-01 -4.86388224002E-01
4.08500000000E+09 +4.51887262790E-01 -4.75933027889E-01 -8.28552481760E-04 -2.16735243354E-03 -8.06877696057E-04 -2.29906468723E-03 +5.96401698936E-01 -4.96263805191E-01
4.09000000000E+09 +4.35234361759E-01 -4.82216074523E-01 -1.27982067167E-03 -2.39638333211E-03 -1.30235190141E-03 -2.56517881236E-03 +5.82581697478E-01 -5.04846110176E-01
4.09500000000E+09 +4.18660192895E-01 -4.88431886659E-01 -1.82032902831E-03 -2.10198008950E-03 -1.79025416504E-03 -2.20114302420E-03 +5.68015727883E-01 -5.13277554921E-01
4.10000000000E+09 +4.01664665610E-01 -4.93566873542E-01 -1.84296689899E-03 -1.64570506407E-03 -1.89637570151E-03 -1.69287519630E-03 +5.52240123271E-01 -5.20504529386E-01
4.10500000000E+09 +3.85142829042E-01 -4.97366689185E-01 -1.92022616259E-03 -1.60122277586E-03 -1.92891888525E-03 -1.63587853559E-03 +5.36733076067E-01 -5.28228456310E-01
4.11000000000E+09 +3.68653470254E-01 -4.99057540492E-01 -2.18667221339E-03 -1.32450402293E-03 -2.16574333832E-03 -1.33312921817E-03 +5.20239757773E-01 -5.36847592741E-01
4.11500000000E+09 +3.53580122922E-01 -4.99960392120E-01 -1.90780212440E-03 -9.76060414844E-04 -1.96908419746E-03 -1.04724454039E-03 +5.03774567902E-01 -5.44678962995E-01
4.12000000000E+09 +3.37997070236E-01 -5.00683009458E-01 -1.92962704412E-03 -1.20622244239E-03 -1.98464393282E-03 -1.24551591639E-03 +4.87500882109E-01 -5.52705063402E-01
4.12500000000E+09 +3.21381141038E-01 -5.01877563843E-01 -2.21996489774E-03 -1.08664920205E-03 -2.28098803309E-03 -1.15509702535E-03 +4.69877062907E-01 -5.59320586378E-01
4.13000000000E+09 +3.03891241393E-01 -5.02969634615E-01 -2.32428267686E-03 -8.50219935210E-04 -2.30793732184E-03 -8.90055325828E-04 +4.52467805295E-01 -5.65275134757E-01
4.13500000000E+09 +2.85188230511E-01 -5.05332446361E-01 -2.19315615178E-03 -7.46871822401E-04 -2.23342838945E-03 -7.93691857078E-04 +4.33854572313E-01 -5.70600879248E-01
4.14000000000E+09 +2.65566811751E-01 -5.07917711218E-01 -2.59909701607E-03 -1.07080636666E-03 -2.62469255590E-03 -1.12595414341E-03 +4.15328041176E-01 -5.76461549220E-01
4.14500000000E+09 +2.45950534270E-01 -5.10828005555E-01 -3.23258138250E-03 -5.78279297067E-04 -3.30334921876E-03 -6.79246849191E-04 +3.95850475266E-01 -5.82266499995E-01
4.15000000000E+09 +2.26560478920E-01 -5.13917556078E-01 -3.23230171445E-03 +2.59519282287E-05 -3.23687302467E-03 +3.75528287925E-05 +3.77253076570E-01 -5.86866944649E-01
4.15500000000E+09 +2.07320145722E-01 -5.16397932631E-01 -3.10235470110E-03 +4.54095634067E-04 -3.16695691933E-03 +4.20163224842E-04 +3.58758020116E-01 -5.91190090209E-01
4.16000000000E+09 +1.88911896670E-01 -5.16798228037E-01 -2.92190295720E-03 +7.80273699013E-04 -2.98570999258E-03 +7.58823562290E-04 +3.40025585223E-01 -5.94286801238E-01
4.16500000000E+09 +1.72048559846E-01 -5.16354441498E-01 -2.72873446402E-03 +7.52472296463E-04 -2.79010897569E-03 +7.22559545959E-04 +3.20673450764E-01 -5.96817965218E-01
4.17000000000E+09 +1.55232447055E-01 -5.13684666948E-01 -2.86105857558E-03 +9.94143572240E-04 -2.91853110719E-03 +9.51346743237E-04 +3.00294169780E-01 -5.98697428368E-01
4.17500000000E+09 +1.39464523430E-01 -5.09546789316E-01 -2.90321797007E-03 +9.51341755809E-04 -3.06921506912E-03 +8.70030453312E-04 +2.79091415850E-01 -6.00394662742E-01
4.18000000000E+09 +1.22691202769E-01 -5.04697095897E-01 -3.25759076301E-03 +1.79818220996E-03 -3.33860991336E-03 +1.68256850486E-03 +2.58030362132E-01 -6.01669871434E-01
4.18500000000E+09 +1.05833143665E-01 -4.98761653609E-01 -2.71071075013E-03 +2.05677069651E-03 -2.87136361258E-03 +2.07636137213E-03 +2.37138859238E-01 -6.02867197781E-01
4.19000000000E+09 +8.80125338582E-02 -4.93194115118E-01 -2.91410737062E-03 +2.39431149725E-03 -3.06710924112E-03 +2.41005587038E-03 +2.16026761921E-01 -6.02790179389E-01
4.19500000000E+09 +6.95577032714E-02 -4.87393436206E-01 -2.62009102913E-03 +2.96446515710E-03 -2.76137972133E-03 +3.05616427862E-03 +1.95234538308E-01 -6.00941134135E-01
4.20000000000E+09 +5.14430349776E-02 -4.82922195738E-01 -1.94243176980E-03 +3.42588920930E-03 -2.12524692611E-03 +3.49962988048E-03 +1.73819826524E-01 -5.99075707087E-01
4.20500000000E+09 +3.20663153735E-02 -4.78605283537E-01 -1.36511376685E-03 +3.34497228811E-03 -1.49376331018E-03 +3.42260951966E-03 +1.52571267019E-01 -5.96111801834E-01
4.21000000000E+09 +1.37980560110E-02 -4.73530858674E-01 -1.40689830862E-03 +3.02052444752E-03 -1.55809168367E-03 +3.08651417992E-03 +1.30364465593E-01 -5.95036173926E-01
4.21500000000E+09 -3.87741299689E-03 -4.67302639751E-01 -1.20143291779E-03 +3.58883472467E-03 -1.31591370253E-03 +3.69754500213E-03 +1.06788570895E-01 -5.92783507588E-01
4.22000000000E+09 -1.94297125236E-02 -4.59252699209E-01 -7.41187797893E-04 +3.50605912829E-03 -7.97647144099E-04 +3.63531286833E-03 +8.39525409140E-02 -5.88722575998E-01
4.22500000000E+09 -3.38644974980E-02 -4.50357571346E-01 -7.70614107771E-04 +3.44742597081E-03 -8.42132565780E-04 +3.55623389716E-03 +6.23922331081E-02 -5.83767413462E-01
4.23000000000E+09 -4.79433994478E-02 -4.39644870241E-01 -5.39091380758E-04 +4.05144074607E-03 -5.78428312526E-04 +4.17115009137E-03 +4.06774312233E-02 -5.76870807649E-01
4.23500000000E+09 -6.18825906715E-02 -4.28494313191E-01 -9.32097518791E-06 +4.27021915420E-03 -7.18849616369E-05 +4.34200758971E-03 +1.93757878155E-02 -5.69316966297E-01
4.24000000000E+09 -7.77096342259E-02 -4.16619724430E-01 +6.51552881072E-04 +4.33204621172E-03 +6.30822773739E-04 +4.48523577570E-03 -2.44128445009E-03 -5.60906739915E-01
4.24500000000E+09 -9.55357337321E-02 -4.03676668583E-01 +1.23585710789E-03 +4.00544686204E-03 +1.24098740859E-03 +4.16424652376E-03 -2.41973065124E-02 -5.52478551225E-01
4.25000000000E+09 -1.14498169275E-01 -3.90364331954E-01 +1.28517959745E-03 +3.97704092608E-03 +1.38437342407E-03 +4.03452766212E-03 -4.59195880250E-02 -5.43481923860E-01
4.25500000000E+09 -1.33493957498E-01 -3.77430148373E-01 +1.81749547908E-03 +3.87961325022E-03 +1.88911165986E-03 +3.96838181912E-03 -6.66460622356E-02 -5.34599807882E-01
4.26000000000E+09 -1.53911781854E-01 -3.65968189977E-01 +2.08912463787E-03 +3.73279645150E-03 +2.14821730521E-03 +3.77146954031E-03 -8.78709449944E-02 -5.24388090464E-01
4.26500000000E+09 -1.72997059247E-01 -3.52973744227E-01 +2.28856624837E-03 +3.95319692217E-03 +2.35990414072E-03 +4.02592458372E-03 -1.08366651796E-01 -5.12648905581E-01
4.27000000000E+09 -1.89159529369E-01 -3.41506035993E-01 +3.17674418043E-03 +3.69127731621E-03 +3.32727867850E-03 +3.76369075189E-03 -1.29751626817E-01 -4.99289709411E-01
4.27500000000E+09 -2.04685211339E-01 -3.30335106804E-01 +3.46433047962E-03 +3.44206736853E-03 +3.59923440520E-03 +3.35677277278E-03 -1.50496158144E-01 -4.84863823746E-01
4.28000000000E+09 -2.18137230326E-01 -3.17309496669E-01 +4.05068745542E-03 +3.17744308823E-03 +4.06423692295E-03 +3.15706142835E-03 -1.71104801983E-01 -4.70950834248E-01
4.28500000000E+09 -2.29806587923E-01 -3.03276780234E-01 +4.46611732426E-03 +2.81076049231E-03 +4.48950511517E-03 +2.78222055010E-03 -1.91688259496E-01 -4.56156979083E-01
4.29000000000E+09 -2.40919057041E-01 -2.87481118469E-01 +5.04904437513E-03 +1.92890348425E-03 +5.07222216051E-03 +1.89217362776E-03 -2.10341460747E-01 -4.41530563239E-01
4.29500000000E+09 -2.52072866571E-01 -2.69689150814E-01 +4.65469007297E-03 +1.41457636601E-03 +4.71443468883E-03 +1.44144863814E-03 -2.29464143144E-01 -4.26087028449E-01
4.30000000000E+09 -2.62709742028E-01 -2.49886193011E-01 +4.99648972265E-03 +1.07446794667E-03 +5.08099516115E-03 +1.11235498222E-03 -2.46800207046E-01 -4.09114452948E-01
4.30500000000E+09 -2.73721577969E-01 -2.30319146171E-01 +5.09222374573E-03 +5.45424476609E-04 +5.15602337305E-03 +5.73720916816E-04 -2.65033783970E-01 -3.91270345401E-01
4.31000000000E+09 -2.85832740621E-01 -2.11444620498E-01 +5.04248816723E-03 +6.63948390884E-04 +5.11830106513E-03 +6.83576779356E-04 -2.82282069479E-01 -3.71497807419E-01
4.31500000000E+09 -2.99150539559E-01 -1.92993420466E-01 +6.01553568869E-03 +1.85312552660E-04 +6.06318310989E-03 +1.90282588024E-04 -2.98952017962E-01 -3.51496531482E-01
4.32000000000E+09 -3.11661569601E-01 -1.75414769408E-01 +6.16103789399E-03 -1.35652583438E-03 +6.28902361999E-03 -1.41029892481E-03 -3.14739466813E-01 -3.31303942483E-01
4.32500000000E+09 -3.22733394688E-01 -1.58779455686E-01 +5.46237820691E-03 -2.15066452718E-03 +5.55546910645E-03 -2.15389929623E-03 -3.29279359213E-01 -3.09585023410E-01
4.33000000000E+09 -3.31987148503E-01 -1.43164892241E-01 +5.37910546046E-03 -2.51845425373E-03 +5.48695509646E-03 -2.57554163272E-03 -3.42102903719E-01 -2.87879313237E-01
4.33500000000E+09 -3.38123768506E-01 -1.26631587040E-01 +5.11023824670E-03 -3.13784092685E-03 +5.13854294894E-03 -3.20369305403E-03 -3.54447045944E-01 -2.65337460994E-01
4.34000000000E+09 -3.40873085666E-01 -1.11235074463E-01 +4.59480374802E-03 -4.01533010718E-03 +4.59273366450E-03 -4.13422483391E-03 -3.66908691939E-01 -2.42365809529E-01
4.34500000000E+09 -3.42944688180E-01 -9.47321536655E-02 +4.00339867083E-03 -3.92617101321E-03 +3.97728022509E-03 -3.92120663221E-03 -3.78760345616E-01 -2.17674707398E-01
4.35000000000E+09 -3.43454907171E-01 -7.58378131659E-02 +4.08462864940E-03 -4.47466685700E-03 +4.15665274211E-03 -4.50579814496E-03 -3.89157965982E-01 -1.94257635533E-01
4.35500000000E+09 -3.44575788753E-01 -5.56065107837E-02 +3.42748565017E-03 -5.06182013613E-03 +3.43115567273E-03 -5.12062444968E-03 -3.99129557444E-01 -1.71435200555E-01
4.36000000000E+09 -3.45671537989E-01 -3.34369015787E-02 +2.72451229543E-03 -5.20848315066E-03 +2.80844055620E-03 -5.34902398930E-03 -4.08317284034E-01 -1.48090335202E-01
4.36500000000E+09 -3.48828918472E-01 -1.06762281231E-02 +2.71018109329E-03 -5.32942933326E-03 +2.71713303326E-03 -5.48082808785E-03 -4.15769552326E-01 -1.23291304940E-01
4.37000000000E+09 -3.52958754317E-01 +1.27721188896E-02 +2.34184254953E-03 -5.96144757910E-03 +2.30849762813E-03 -6.06328268668E-03 -4.21433054263E-01 -9.87222166838E-02
4.37500000000E+09 -3.56973111923E-01 +3.50111954366E-02 +1.62457084858E-03 -7.00758771031E-03 +1.52054605691E-03 -7.18436374586E-03 -4.27329981466E-01 -7.29665888177E-02
4.38000000000E+09 -3.62117040577E-01 +5.45229755458E-02 +2.65194226038E-04 -6.93159725481E-03 +1.80535300977E-04 -7.01427343065E-03 -4.30930670483E-01 -4.68508172671E-02
4.38500000000E+09 -3.66029002854E-01 +7.26762010339E-02 -4.83460352190E-04 -6.62356028013E-03 -6.71492147974E-04 -6.78562647145E-03 -4.33740212918E-01 -2.22114001447E-02
4.39000000000E+09 -3.68762536132E-01 +8.78414719605E-02 -1.32552095985E-03 -6.60521554574E-03 -1.47113499729E-03 -6.70949837271E-03 -4.37094769132E-01 +3.27008638221E-03
4.39500000000E+09 -3.69838322426E-01 +1.01795990795E-01 -2.05851134773E-03 -6.01258671226E-03 -2.22273585767E-03 -5.98778006343E-03 -4.37523707581E-01 +2.76944360850E-02
4.40000000000E+09 -3.68891147599E-01 +1.16360156282E-01 -2.23666142308E-03 -6.03206314707E-03 -2.37652504269E-03 -6.05760828786E-03 -4.38108527875E-01 +5.28643416032E-02
4.40500000000E+09 -3.65416688262E-01 +1.32191780734E-01 -3.08912638707E-03 -5.79127538262E-03 -3.28592876716E-03 -5.73108067723E-03 -4.36861838085E-01 +7.79287028490E-02
4.41000000000E+09 -3.59263384811E-01 +1.48799900445E-01 -3.40478044015E-03 -5.36883884470E-03 -3.48613647013E-03 -5.35221680642E-03 -4.34855715563E-01 +1.03348285612E-01
4.41500000000E+09 -3.53540939461E-01 +1.66427174059E-01 -4.19634429782E-03 -5.26363099314E-03 -4.31375786969E-03 -5.17908088607E-03 -4.31499466238E-01 +1.28159127233E-01
4.42000000000E+09 -3.48247795593E-01 +1.86577816695E-01 -4.70766671986E-03 -4.73751168323E-03 -4.85018090431E-03 -4.59290773799E-03 -4.28538710197E-01 +1.52522915950E-01
4.42500000000E+09 -3.43881786311E-01 +2.08262659766E-01 -5.29279403658E-03 -4.64676042495E-03 -5.32663911595E-03 -4.49408759250E-03 -4.22892296073E-01 +1.77312020159E-01
4.43000000000E+09 -3.39869903432E-01 +2.29474344653E-01 -6.27812683031E-03 -4.04327102491E-03 -6.25414592471E-03 -3.86833884653E-03 -4.16772621684E-01 +1.99559651401E-01
4.43500000000E+09 -3.37709705521E-01 +2.49920312863E-01 -6.57918758122E-03 -2.56446989749E-03 -6.60395134839E-03 -2.42412412125E-03 -4.10093869229E-01 +2.22371184538E-01
4.44000000000E+09 -3.35359536593E-01 +2.68613711802E-01 -6.53744617977E-03 -2.10340010345E-03 -6.50787122050E-03 -1.97530545378E-03 -4.02671845823E-01 +2.44868221419E-01
4.44500000000E+09 -3.32865845466E-01 +2.83730694642E-01 -6.59806662878E-03 -1.01557481225E-03 -6.55881178388E-03 -9.39574593236E-04 -3.94823334037E-01 +2.66103828181E-01
4.45000000000E+09 -3.30550842611E-01 +2.96780191793E-01 -6.38014127958E-03 -7.07245630772E-04 -6.35091463588E-03 -5.96549164619E-04 -3.86944974930E-01 +2.87626622223E-01
4.45500000000E+09 -3.26838070057E-01 +3.09141118120E-01 -6.38836341420E-03 -5.72686515949E-04 -6.39117115940E-03 -4.39868759304E-04 -3.78481710099E-01 +3.07826890714E-01
4.46000000000E+09 -3.20742303790E-01 +3.21201585724E-01 -6.84569633309E-03 +2.93762003884E-04 -6.82041301129E-03 +4.48394578296E-04 -3.68234238865E-01 +3.27532860346E-01
4.46500000000E+09 -3.11784529706E-01 +3.33871146460E-01 -6.84656570651E-03 +9.55246070001E-04 -6.77484952710E-03 +1.07243469456E-03 -3.58256063714E-01 +3.46107727083E-01
4.47000000000E+09 -3.01100310461E-01 +3.46833714516E-01 -6.91623256137E-03 +1.73004712440E-03 -6.78472942687E-03 +1.97819592026E-03 -3.45693094691E-01 +3.65615952014E-01
4.47500000000E+09 -2.89287839048E-01 +3.62168952269E-01 -6.88182239783E-03 +2.66837575103E-03 -6.75776455809E-03 +2.77862304481E-03 -3.33597178172E-01 +3.83159726390E-01
4.48000000000E+09 -2.77533194473E-01 +3.77116026965E-01 -6.33525289403E-03 +3.69795260437E-03 -6.17015859751E-03 +3.80965270958E-03 -3.21644003697E-01 +4.01584117319E-01
4.48500000000E+09 -2.67686272914E-01 +3.94128936598E-01 -5.73305820335E-03 +4.16519298565E-03 -5.56377009888E-03 +4.20901832033E-03 -3.09498642814E-01 +4.18413942147E-01
4.49000000000E+09 -2.58241879154E-01 +4.11157203394E-01 -5.35364588192E-03 +4.95640834484E-03 -5.19936309474E-03 +4.97082776765E-03 -2.97366526827E-01 +4.34261229875E-01
4.49500000000E+09 -2.50076810650E-01 +4.26749657537E-01 -4.62678327442E-03 +5.37546551629E-03 -4.53572600968E-03 +5.28542499045E-03 -2.85467366299E-01 +4.49576006448E-01
4.50000000000E+09 -2.43649317604E-01 +4.40220768912E-01 -3.99789539771E-03 +6.01209215906E-03 -3.94242511189E-03 +5.87591605661E-03 -2.72017594067E-01 +4.64232275231E-01
4.50500000000E+09 -2.38212138549E-01 +4.51749599316E-01 -3.26532255121E-03 +5.96643478489E-03 -3.18771300706E-03 +5.90223298960E-03 -2.58239187442E-01 +4.78641437658E-01
4.51000000000E+09 -2.31466657742E-01 +4.61642708379E-01 -2.97864253305E-03 +6.49402725357E-03 -2.92390134434E-03 +6.46603022061E-03 -2.43927507759E-01 +4.92421861875E-01
4.51500000000E+09 -2.23391287861E-01 +4.69059035266E-01 -2.10123301507E-03 +6.91368811388E-03 -1.92465796455E-03 +6.87253395537E-03 -2.30358101746E-01 +5.06240096363E-01
4.52000000000E+09 -2.13927580520E-01 +4.75818264139E-01 -1.23766958121E-03 +6.95955228070E-03 -1.11351709232E-03 +6.83004261744E-03 -2.16096224393E-01 +5.19105333528E-01
4.52500000000E+09 -2.02011126004E-01 +4.82733766744E-01 -7.81304828873E-04 +7.32066904714E-03 -6.12310314499E-04 +7.23318334168E-03 -2.01892172061E-01 +5.30616036650E-01
4.53000000000E+09 -1.88600564114E-01 +4.90154750758E-01 +4.75358420535E-04 +7.50083242869E-03 +6.28571057179E-04 +7.34618330460E-03 -1.87394739650E-01 +5.41019084158E-01
4.53500000000E+09 -1.73960423082E-01 +4.99728376627E-01 +1.44884366404E-03 +6.83520274284E-03 +1.55098238614E-03 +6.68760065191E-03 -1.72672950331E-01 +5.50524351628E-01
4.54000000000E+09 -1.58037499724E-01 +5.09926500014E-01 +2.02713331153E-03 +6.67786247996E-03 +2.16982076914E-03 +6.52733627502E-03 -1.58417047601E-01 +5.60662158696E-01
4.54500000000E+09 -1.43327443504E-01 +5.20496552947E-01 +2.85988237001E-03 +6.10621445377E-03 +2.97736193056E-03 +5.98632089239E-03 -1.43376943554E-01 +5.71097425207E-01
4.55000000000E+09 -1.30100613922E-01 +5.30545281720E-01 +3.00953817963E-03 +5.71643633385E-03 +3.08363336961E-03 +5.51004474493E-03 -1.28286832586E-01 +5.81177389930E-01
4.55500000000E+09 -1.19777194276E-01 +5.40242151603E-01 +3.68811703783E-03 +5.38752598651E-03 +3.67973534990E-03 +5.23397968073E-03 -1.13837383065E-01 +5.90120746953E-01
4.56000000000E+09 -1.10908232642E-01 +5.50050528137E-01 +4.09957051161E-03 +5.01352743507E-03 +4.11829186472E-03 +4.86074184668E-03 -9.98550559599E-02 +5.98749500840E-01
4.56500000000E+09 -1.02278779552E-01 +5.58236942600E-01 +4.54111085945E-03 +4.45555097048E-03 +4.57547682311E-03 +4.30344466509E-03 -8.47869628251E-02 +6.07221318970E-01
4.57000000000E+09 -9.26586251403E-02 +5.64972400725E-01 +4.87430520308E-03 +4.30334405349E-03 +4.85974417624E-03 +4.12869728286E-03 -6.94621967613E-02 +6.14027631812E-01
