# Hz S RI R 50
! CMT, C1220, 16058040, 17.2.0/1
! Date: 15/08/2018 12:36:51
! Data: Format (Calibration Info)
! Freq                      S11: Re/Im (F2)                       S21: Re/Im (F2)                       S12: Re/Im (F2)                       S22: Re/Im (F2)            
4.00000000000E+09 +6.53513545131E-01 -3.59723017082E-01 +2.27805271820E-03 -9.52310974030E-04 +2.38608625342E-03 -8.68457406533E-04 +7.85733835229E-01 -3.16488928334E-01
4.00500000000E+09 +6.45167238753E-01 -3.65792064545E-01 +2.00707641411E-03 -1.34478175395E-03 +2.12299270122E-03 -1.25423870785E-03 +7.77231501720E-01 -3.28131311912E-01
4.01000000000E+09 +6.36795370215E-01 -3.71642956393E-01 +1.71800064012E-03 -1.67372108777E-03 +1.88461429243E-03 -1.60979638161E-03 +7.68600758573E-01 -3.40086632648E-01
4.01500000000E+09 +6.27516251154E-01 -3.78255506686E-01 +1.27700798083E-03 -1.61636461471E-03 +1.39922815120E-03 -1.61042511370E-03 +7.59915040345E-01 -3.51489409395E-01
4.02000000000E+09 +6.17957214515E-01 -3.85597034320E-01 +1.33799245683E-03 -1.69357742422E-03 +1.42013835967E-03 -1.63517351656E-03 +7.50826583265E-01 -3.62361712455E-01
4.02500000000E+09 +6.07941886301E-01 -3.94411447022E-01 +1.18483334161E-03 -1.77274678085E-03 +1.26888642665E-03 -1.76001981521E-03 +7.41245834989E-01 -3.72961652650E-01
4.03000000000E+09 +5.96890502591E-01 -4.04390085737E-01 +1.00002398153E-03 -1.85756407707E-03 +1.13355219757E-03 -1.83859159949E-03 +7.30823180123E-01 -3.83445386840E-01
4.03500000000E+09 +5.85358398003E-01 -4.14146861034E-01 +9.21995052732E-04 -1.88615170444E-03 +9.71917724569E-04 -1.93106461686E-03 +7.19451665126E-01 -3.94380269078E-01
4.04000000000E+09 +5.73718327610E-01 -4.23562286092E-01 +7.74742816494E-04 -1.94980512037E-03 +8.64104815049E-04 -1.96548511349E-03 +7.08385380930E-01 -4.05593741010E-01
4.04500000000E+09 +5.62141869741E-01 -4.32617985478E-01 +7.34672146019E-04 -2.08585621537E-03 +8.52347895941E-04 -2.15499499974E-03 +6.97454619532E-01 -4.16617255934E-01
4.05000000000E+09 +5.50032371397E-01 -4.40136216186E-01 +5.35156916989E-04 -2.26855296810E-03 +6.34931356223E-04 -2.37825079597E-03 +6.86748126707E-01 -4.27412836043E-01
4.05500000000E+09 +5.37854106200E-01 -4.46294474111E-01 +3.78758113368E-04 -2.41542268394E-03 +4.24809247008E-04 -2.54646869519E-03 +6.75365341113E-01 -4.37227956143E-01
4.06000000000E+09 +5.25235870680E-01 -4.51349589155E-01 -1.02104770283E-04 -2.61543159404E-03 -6.57113104089E-05 -2.67789606848E-03 +6.63989381153E-01 -4.46650510281E-01
4.06500000000E+09 +5.11962671389E-01 -4.55429074740E-01 -3.31397336392E-04 -2.26818117008E-03 -3.25553092567E-04 -2.30845071792E-03 +6.51444465447E-01 -4.56444657200E-01
4.07000000000E+09 +4.98556962557E-01 -4.59620466546E-01 -2.88650109390E-04 -2.24582343987E-03 -3.05902687572E-04 -2.25958633614E-03 +6.38046379838E-01 -4.66429634172E-01
4.07500000000E+09 +4.84182207377E-01 -4.64475134560E-01 -4.02476753236E-04 -2.43356106286E-03 -3.96911688991E-04 -2.47766115864E-03 +6.24095254456E-01 -4.77006964106E-01
4.08000000000E+09 +4.68836038474E-01 -4.69553513029E-01 -7.35416560719E-04 -2.42777134156E-03 -6.45623473244E-04 -2.47835674549E-03 +6.10373564279E-01 -4.86898511095E-01
4.08500000000E+09 +4.53154561701E-01 -4.75692436481E-01 -8.53001242342E-04 -2.51956624295E-03 -7.46641847986E-04 -2.55333544461E-03 +5.96649932000E-01 -4.97015476833E-01
4.09000000000E+09 +4.36685444370E-01 -4.82015622901E-01 -1.34313129037E-03 -2.71520045408E-03 -1.37221394921E-03 -2.80429612508E-03 +5.82492627766E-01 -5.05640308444E-01
4.09500000000E+09 +4.20188300541E-01 -4.88166474436E-01 -1.84968535832E-03 -2.33976080834E-03 -1.84169087516E-03 -2.44445403128E-03 +5.67683520955E-01 -5.14111036359E-01
4.10000000000E+09 +4.03031926398E-01 -4.93588165691E-01 -1.88284714030E-03 -1.97086289460E-03 -1.84781307663E-03 -2.02433784608E-03 +5.51656914735E-01 -5.21301862163E-01
4.10500000000E+09 +3.86279135823E-01 -4.97310276355E-01 -2.01912149506E-03 -2.04063263126E-03 -2.04009641739E-03 -2.09213373718E-03 +5.35806281625E-01 -5.28924655940E-01
4.11000000000E+09 +3.69739782578E-01 -4.99204537784E-01 -2.58099511898E-03 -1.74902424010E-03 -2.52098481767E-03 -1.85191037071E-03 +5.19190720154E-01 -5.37158514677E-01
4.11500000000E+09 +3.54365431738E-01 -5.00104164719E-01 -2.37778214267E-03 -1.23319256448E-03 -2.40864250471E-03 -1.35866806755E-03 +5.02782622258E-01 -5.44778007208E-01
4.12000000000E+09 +3.38763513659E-01 -5.01018298869E-01 -2.41913198186E-03 -1.30375303001E-03 -2.48476083425E-03 -1.39759129741E-03 +4.86592965227E-01 -5.52424374379E-01
4.12500000000E+09 +3.22232827668E-01 -5.02468597471E-01 -2.73387012109E-03 -1.10468789204E-03 -2.70162063572E-03 -1.23410826786E-03 +4.69212194154E-01 -5.58851877811E-01
4.13000000000E+09 +3.04560975773E-01 -5.03911343354E-01 -2.78638360912E-03 -7.77850321029E-04 -2.80256325963E-03 -9.01827720595E-04 +4.51937811641E-01 -5.64665323422E-01
4.13500000000E+09 +2.85783296205E-01 -5.06460622315E-01 -2.65807550418E-03 -5.88675312294E-04 -2.69611842903E-03 -6.70713206806E-04 +4.33665491469E-01 -5.69985299084E-01
4.14000000000E+09 +2.65942968994E-01 -5.09109372422E-01 -2.93827776760E-03 -7.48411844649E-04 -3.00796476355E-03 -9.18623237818E-04 +4.15319670011E-01 -5.75871591872E-01
4.14500000000E+09 +2.46420186899E-01 -5.11890117583E-01 -3.48841430313E-03 -3.47038350468E-04 -3.66424389235E-03 -5.09013081348E-04 +3.95981438153E-01 -5.81674775098E-01
4.15000000000E+09 +2.27109663946E-01 -5.15035246583E-01 -3.48342552258E-03 +4.28065723706E-04 -3.65551766056E-03 +3.46449366998E-04 +3.77746708189E-01 -5.86618858084E-01
4.15500000000E+09 +2.07850081005E-01 -5.17371762468E-01 -3.27533571819E-03 +8.37418883486E-04 -3.38266772312E-03 +8.36334945364E-04 +3.59399825756E-01 -5.91325735690E-01
4.16000000000E+09 +1.89622187283E-01 -5.17636523784E-01 -3.00081944925E-03 +1.13608309908E-03 -3.12394168361E-03 +1.15690320561E-03 +3.40517659132E-01 -5.94846692884E-01
4.16500000000E+09 +1.72654411585E-01 -5.17252216958E-01 -2.77864453242E-03 +1.14847082449E-03 -2.92358480289E-03 +1.11908513432E-03 +3.20862234467E-01 -5.97464832750E-01
4.17000000000E+09 +1.55644428554E-01 -5.14504408116E-01 -2.71090334570E-03 +1.45410761263E-03 -2.82933635093E-03 +1.46741232962E-03 +3.00155158843E-01 -5.99656588726E-01
4.17500000000E+09 +1.39721951186E-01 -5.10200115003E-01 -2.69014214295E-03 +1.17011556860E-03 -2.77864467839E-03 +1.21217415038E-03 +2.78674190129E-01 -6.01224575492E-01
4.18000000000E+09 +1.22882293090E-01 -5.05354493218E-01 -3.12249581577E-03 +1.94211494830E-03 -3.21899366637E-03 +1.92970873234E-03 +2.57349889169E-01 -6.02506794248E-01
4.18500000000E+09 +1.05966391897E-01 -4.99354011199E-01 -2.52797598728E-03 +2.21220095826E-03 -2.59960495782E-03 +2.24860450539E-03 +2.36151535698E-01 -6.03645916390E-01
4.19000000000E+09 +8.79740505398E-02 -4.93959687383E-01 -2.71763023388E-03 +2.29656165413E-03 -2.77869675911E-03 +2.43817616070E-03 +2.14730331758E-01 -6.03335760359E-01
4.19500000000E+09 +6.94668925208E-02 -4.88156514434E-01 -2.58607286210E-03 +2.95687520166E-03 -2.67436776443E-03 +3.01867394438E-03 +1.93714738596E-01 -6.01254482104E-01
4.20000000000E+09 +5.13273049502E-02 -4.83605542563E-01 -2.00960853506E-03 +3.46466502154E-03 -2.02689590072E-03 +3.53488726196E-03 +1.72246230041E-01 -5.99013393526E-01
4.20500000000E+09 +3.20972424885E-02 -4.79532600044E-01 -1.33448402605E-03 +3.41151646585E-03 -1.38627265856E-03 +3.49004080790E-03 +1.51110100947E-01 -5.95485446135E-01
4.21000000000E+09 +1.37063497238E-02 -4.74695614403E-01 -1.37748071890E-03 +3.09953111419E-03 -1.42448831941E-03 +3.11910514939E-03 +1.29212927438E-01 -5.94136037990E-01
4.21500000000E+09 -4.14290309262E-03 -4.68683267407E-01 -1.20765173022E-03 +3.59533229204E-03 -1.22575294150E-03 +3.65458009853E-03 +1.05932393071E-01 -5.91773892341E-01
4.22000000000E+09 -2.00401317660E-02 -4.60629992959E-01 -8.54198024177E-04 +3.54641008928E-03 -8.25171924887E-04 +3.56257648522E-03 +8.35819188153E-02 -5.87551640505E-01
4.22500000000E+09 -3.45940188229E-02 -4.51651919103E-01 -9.69321160059E-04 +3.66898494648E-03 -1.02487078038E-03 +3.70084128594E-03 +6.22320036062E-02 -5.82798862254E-01
4.23000000000E+09 -4.88106372872E-02 -4.40836354885E-01 -6.07041271972E-04 +4.36880995094E-03 -7.02173120185E-04 +4.44672914631E-03 +4.08794248555E-02 -5.76133796245E-01
4.23500000000E+09 -6.27758146839E-02 -4.29728172471E-01 +4.46713815674E-05 +4.53878822619E-03 -2.49109124167E-05 +4.60018862316E-03 +1.97097548493E-02 -5.68908413621E-01
4.24000000000E+09 -7.86292618749E-02 -4.17857450996E-01 +7.13509499965E-04 +4.64706745217E-03 +6.72896301538E-04 +4.73685792538E-03 -2.09373209898E-03 -5.60798243499E-01
4.24500000000E+09 -9.65570599889E-02 -4.05190558099E-01 +1.36374831887E-03 +4.46399228512E-03 +1.38135021038E-03 +4.56777498557E-03 -2.39888578865E-02 -5.52678846049E-01
4.25000000000E+09 -1.15887212415E-01 -3.91667996994E-01 +1.70129418787E-03 +4.38766442526E-03 +1.64120907591E-03 +4.44190627293E-03 -4.59485706777E-02 -5.44013386916E-01
4.25500000000E+09 -1.35156388032E-01 -3.78344141407E-01 +2.30811924544E-03 +4.15740315081E-03 +2.28851382404E-03 +4.24893837768E-03 -6.72379728181E-02 -5.35197194594E-01
4.26000000000E+09 -1.55394580306E-01 -3.66511232761E-01 +2.53329492815E-03 +3.81845505479E-03 +2.59462418693E-03 +3.94667258006E-03 -8.84892851717E-02 -5.24800850591E-01
4.26500000000E+09 -1.74599542136E-01 -3.53522966129E-01 +2.73268930675E-03 +3.96201465724E-03 +2.72246810548E-03 +4.11261082589E-03 -1.09214458937E-01 -5.13060241253E-01
4.27000000000E+09 -1.90904896048E-01 -3.41929638108E-01 +3.64408640922E-03 +3.60870459716E-03 +3.72045348393E-03 +3.75827903755E-03 -1.31069425141E-01 -4.99638146957E-01
4.27500000000E+09 -2.06540922254E-01 -3.30563505553E-01 +3.92439206482E-03 +3.25172037341E-03 +3.98058503994E-03 +3.33239818313E-03 -1.52050426485E-01 -4.84859881080E-01
4.28000000000E+09 -2.19985502960E-01 -3.17512235163E-01 +4.49891550016E-03 +2.99222777709E-03 +4.58963823314E-03 +3.08693297756E-03 -1.72775617384E-01 -4.70694616389E-01
4.28500000000E+09 -2.31893004201E-01 -3.03372519453E-01 +4.89663763419E-03 +2.33416039305E-03 +5.05601180908E-03 +2.44414894478E-03 -1.93582298749E-01 -4.55038786783E-01
4.29000000000E+09 -2.43005321672E-01 -2.87614062514E-01 +5.26275738532E-03 +1.31409782080E-03 +5.47098148461E-03 +1.34114441976E-03 -2.11836500911E-01 -4.40120933719E-01
4.29500000000E+09 -2.54120383951E-01 -2.69749439997E-01 +4.72922549238E-03 +9.20373415082E-04 +4.82676995771E-03 +8.83233306085E-04 -2.30520435236E-01 -4.24314342333E-01
4.30000000000E+09 -2.64745641157E-01 -2.49875464040E-01 +4.86208305586E-03 +5.65652733761E-04 +5.01142809953E-03 +5.26891146530E-04 -2.47312305338E-01 -4.07131048678E-01
4.30500000000E+09 -2.75760037455E-01 -2.30213969712E-01 +4.87158129909E-03 +1.79893162340E-04 +5.00124325599E-03 +1.38231432248E-04 -2.65188285921E-01 -3.89537009716E-01
4.31000000000E+09 -2.87736432263E-01 -2.10960488162E-01 +4.68519882340E-03 +3.53849207189E-04 +4.85140827217E-03 +2.92896758911E-04 -2.82037136472E-01 -3.69827599247E-01
4.31500000000E+09 -3.00854116969E-01 -1.92418348370E-01 +5.66478598278E-03 -2.58798126129E-05 +5.78218898605E-03 -6.77057488673E-05 -2.98380282551E-01 -3.50354091975E-01
4.32000000000E+09 -3.13513579085E-01 -1.74506612471E-01 +5.83315043258E-03 -1.43636058888E-03 +5.92486335065E-03 -1.47700919525E-03 -3.14333201178E-01 -3.30324762054E-01
4.32500000000E+09 -3.24496990881E-01 -1.57585081198E-01 +5.18227412121E-03 -1.97928121453E-03 +5.28382300344E-03 -2.15921298065E-03 -3.28854050092E-01 -3.08871089688E-01
4.33000000000E+09 -3.34094672220E-01 -1.41612265547E-01 +5.28488112884E-03 -2.29118987455E-03 +5.31952866166E-03 -2.43421657373E-03 -3.41771911739E-01 -2.87426834644E-01
4.33500000000E+09 -3.40419241471E-01 -1.24657374524E-01 +5.14189646552E-03 -3.05768794060E-03 +5.07256544098E-03 -3.21261339094E-03 -3.54219384442E-01 -2.65024288230E-01
4.34000000000E+09 -3.43072365328E-01 -1.08897304326E-01 +4.52860301463E-03 -3.94963208989E-03 +4.43294177425E-03 -4.03914356155E-03 -3.66921650429E-01 -2.42269763989E-01
4.34500000000E+09 -3.45172322677E-01 -9.23282064222E-02 +3.88785602232E-03 -3.77500044120E-03 +3.90316664299E-03 -3.81542955840E-03 -3.79106669224E-01 -2.17674481624E-01
4.35000000000E+09 -3.45881084682E-01 -7.35692804706E-02 +4.10337334263E-03 -4.19168457082E-03 +4.05464423211E-03 -4.25722951022E-03 -3.89692938051E-01 -1.94178661257E-01
4.35500000000E+09 -3.47077656908E-01 -5.32716241003E-02 +3.66921561960E-03 -4.80844130824E-03 +3.64907868143E-03 -4.87598102291E-03 -3.99980042394E-01 -1.71145807684E-01
4.36000000000E+09 -3.47978620255E-01 -3.09188604682E-02 +3.08946797896E-03 -5.22772596677E-03 +3.08438114157E-03 -5.27753787573E-03 -4.09413130557E-01 -1.47227112035E-01
4.36500000000E+09 -3.50667159599E-01 -8.27890936399E-03 +2.96789411812E-03 -5.49750608890E-03 +2.96979750775E-03 -5.56623096033E-03 -4.16677365373E-01 -1.21954486044E-01
4.37000000000E+09 -3.54387578796E-01 +1.51721815430E-02 +2.51599856382E-03 -6.24095869147E-03 +2.46677067044E-03 -6.34799910305E-03 -4.22144602098E-01 -9.71930469336E-02
4.37500000000E+09 -3.58012825710E-01 +3.74956065438E-02 +1.55698271147E-03 -7.25463378836E-03 +1.53890795728E-03 -7.40789260462E-03 -4.27673053853E-01 -7.09366581175E-02
4.38000000000E+09 -3.62507056399E-01 +5.69405813951E-02 +2.37366923654E-04 -7.08448211891E-03 +1.51251165706E-04 -7.17602012367E-03 -4.30667453684E-01 -4.48446972692E-02
4.38500000000E+09 -3.66341567052E-01 +7.52221227653E-02 -4.91623894327E-04 -6.88607233952E-03 -6.07734423842E-04 -6.97408282658E-03 -4.33216848370E-01 -2.07363370247E-02
4.39000000000E+09 -3.68738379429E-01 +9.07843122833E-02 -1.40328626216E-03 -6.89852446363E-03 -1.48988855649E-03 -6.93199312025E-03 -4.36445558348E-01 +4.73536165244E-03
4.39500000000E+09 -3.69511030240E-01 +1.04891233652E-01 -2.15871562972E-03 -6.19524979794E-03 -2.26524007599E-03 -6.22145172269E-03 -4.36723606007E-01 +2.88545205970E-02
4.40000000000E+09 -3.68408365475E-01 +1.19603728678E-01 -2.43230943749E-03 -6.29445389109E-03 -2.52663391468E-03 -6.32288288240E-03 -4.37296170722E-01 +5.40610583985E-02
4.40500000000E+09 -3.64808970849E-01 +1.35365355881E-01 -3.51076534102E-03 -5.89992085282E-03 -3.52636494245E-03 -5.94104616617E-03 -4.35611240719E-01 +7.90621791230E-02
4.41000000000E+09 -3.58934050163E-01 +1.52060400996E-01 -3.67929431387E-03 -5.39902024255E-03 -3.75925428973E-03 -5.41479306740E-03 -4.33458267594E-01 +1.03796987623E-01
4.41500000000E+09 -3.53131877247E-01 +1.69994992850E-01 -4.39039940324E-03 -5.27541164837E-03 -4.52170978402E-03 -5.25547558446E-03 -4.30435689044E-01 +1.28178514004E-01
4.42000000000E+09 -3.47330883578E-01 +1.89998834132E-01 -4.94965785993E-03 -4.67937001453E-03 -5.08199244197E-03 -4.65810607963E-03 -4.27764082669E-01 +1.52281130302E-01
4.42500000000E+09 -3.42743176713E-01 +2.11169013146E-01 -5.50215620266E-03 -4.46099756861E-03 -5.64073207017E-03 -4.37082282530E-03 -4.22665942717E-01 +1.76927028497E-01
4.43000000000E+09 -3.38693011677E-01 +2.32021334714E-01 -6.34452517326E-03 -3.81435567063E-03 -6.39921111182E-03 -3.72059530795E-03 -4.16811175199E-01 +1.99285132434E-01
4.43500000000E+09 -3.36477322225E-01 +2.52130539309E-01 -6.70713628000E-03 -2.45864902905E-03 -6.68853296772E-03 -2.34512107016E-03 -4.10330910798E-01 +2.22308474419E-01
4.44000000000E+09 -3.33983099842E-01 +2.70852217321E-01 -6.70188468388E-03 -2.06588526093E-03 -6.67432949113E-03 -1.98340041553E-03 -4.03159555418E-01 +2.45140962393E-01
4.44500000000E+09 -3.31095948099E-01 +2.86059895875E-01 -6.74876846830E-03 -9.44841062466E-04 -6.74874600505E-03 -8.74209142283E-04 -3.95141562470E-01 +2.66712745666E-01
4.45000000000E+09 -3.28287375186E-01 +2.98920054642E-01 -6.48203593192E-03 -5.39463190855E-04 -6.53435904180E-03 -4.34631961664E-04 -3.87238341496E-01 +2.88263437932E-01
4.45500000000E+09 -3.24331925435E-01 +3.10817914918E-01 -6.57258805031E-03 -3.72414987329E-04 -6.56851176879E-03 -1.58824615882E-04 -3.78737343120E-01 +3.08799259183E-01
4.46000000000E+09 -3.18309802082E-01 +3.22607223778E-01 -6.85940446070E-03 +5.65638453203E-04 -6.83616397798E-03 +7.72108239977E-04 -3.68164237599E-01 +3.28577185701E-01
4.46500000000E+09 -3.09430319161E-01 +3.35086450970E-01 -6.63659052464E-03 +1.15958395334E-03 -6.65926439963E-03 +1.34662988890E-03 -3.58076076565E-01 +3.47236440831E-01
4.47000000000E+09 -2.98824578363E-01 +3.48103013848E-01 -6.79971776468E-03 +1.81299537176E-03 -6.75079214193E-03 +1.96574147904E-03 -3.45209917590E-01 +3.66806023091E-01
4.47500000000E+09 -2.87010295261E-01 +3.63216650604E-01 -6.78181287566E-03 +2.68269136900E-03 -6.66560329870E-03 +2.84977296592E-03 -3.32701647247E-01 +3.84087553131E-01
4.48000000000E+09 -2.75176066150E-01 +3.78061438379E-01 -6.34925430657E-03 +3.69655896398E-03 -6.16604270278E-03 +3.88186530042E-03 -3.20849791499E-01 +4.02273304238E-01
4.48500000000E+09 -2.65391591816E-01 +3.94716266598E-01 -5.74192234006E-03 +4.18571168810E-03 -5.46622742230E-03 +4.21529481886E-03 -3.08539446972E-01 +4.18916706913E-01
4.49000000000E+09 -2.56158514193E-01 +4.11590552690E-01 -5.37880277238E-03 +4.95668917853E-03 -5.16458025714E-03 +4.88488265900E-03 -2.96566166315E-01 +4.34447358886E-01
4.49500000000E+09 -2.48043145900E-01 +4.27121316520E-01 -4.64667707483E-03 +5.40969154150E-03 -4.45521665644E-03 +5.37331960955E-03 -2.84757126673E-01 +4.49637008677E-01
4.50000000000E+09 -2.41553286943E-01 +4.40613261888E-01 -4.00352664091E-03 +6.00675842731E-03 -3.88583485510E-03 +5.92550964460E-03 -2.71513953482E-01 +4.64007729343E-01
4.50500000000E+09 -2.36080777498E-01 +4.51950358416E-01 -3.26786141193E-03 +6.05480126210E-03 -3.10904595718E-03 +5.96447632024E-03 -2.58068315053E-01 +4.78486453800E-01
4.51000000000E+09 -2.29513133194E-01 +4.61795662167E-01 -3.05076443816E-03 +6.49649554234E-03 -2.84151196814E-03 +6.46787327385E-03 -2.44087766277E-01 +4.92291261198E-01
4.51500000000E+09 -2.21537306377E-01 +4.69216525662E-01 -2.04561037020E-03 +7.02468334829E-03 -1.87124823090E-03 +6.91116941372E-03 -2.30654483303E-01 +5.06250037972E-01
4.52000000000E+09 -2.12222285578E-01 +4.76024077836E-01 -1.27605273152E-03 +6.86063502718E-03 -1.04937011468E-03 +6.67401222721E-03 -2.16570918620E-01 +5.19487931238E-01
4.52500000000E+09 -2.00360892864E-01 +4.83037901470E-01 -9.59488329547E-04 +7.40336509078E-03 -8.20325016402E-04 +7.22432292178E-03 -2.02251036121E-01 +5.31068265884E-01
4.53000000000E+09 -1.86988317134E-01 +4.90461393823E-01 +4.00587023842E-04 +7.67974255540E-03 +5.81875092201E-04 +7.51432058960E-03 -1.87854657966E-01 +5.41753521010E-01
4.53500000000E+09 -1.72217525329E-01 +4.99770592768E-01 +1.46402468614E-03 +7.01914180119E-03 +1.53739055344E-03 +6.86730898348E-03 -1.73065311054E-01 +5.51678914172E-01
4.54000000000E+09 -1.56369321692E-01 +5.09832896705E-01 +2.13082194099E-03 +6.84241766837E-03 +2.22927946793E-03 +6.65062776410E-03 -1.58398795236E-01 +5.61847333680E-01
4.54500000000E+09 -1.41713843062E-01 +5.20249671021E-01 +2.93802789144E-03 +6.18598004591E-03 +2.98742473338E-03 +6.00359382994E-03 -1.43331476122E-01 +5.72378467440E-01
4.55000000000E+09 -1.28539654230E-01 +5.30265501901E-01 +3.13716828999E-03 +5.80405564119E-03 +3.05394785115E-03 +5.62333903865E-03 -1.27868580249E-01 +5.82530418013E-01
4.55500000000E+09 -1.18015374088E-01 +5.40004329564E-01 +3.75283476031E-03 +5.49152851425E-03 +3.73024219767E-03 +5.33664417340E-03 -1.13093054846E-01 +5.91524694085E-01
4.56000000000E+09 -1.08965391017E-01 +5.49744090645E-01 +4.19614813007E-03 +5.13167089037E-03 +4.17831006195E-03 +5.02668707239E-03 -9.88602433865E-02 +5.99984421372E-01
4.56500000000E+09 -1.00316315038E-01 +5.57787643027E-01 +4.69051540496E-03 +4.57571734784E-03 +4.70205778059E-03 +4.43158775262E-03 -8.35538466650E-02 +6.08172686301E-01
4.57000000000E+09 -9.07936683840E-02 +5.64235261820E-01 +5.07130236880E-03 +4.32141132933E-03 +5.05147110341E-03 +4.17889746679E-03 -6.82942367020E-02 +6.14752738045E-01
