# Hz S RI R 50
! CMT, C1220, 16058040, 17.2.0/1
! Date: 15/08/2018 12:37:57
! Data: Format (Calibration Info)
! Freq                      S11: Re/Im (F2)                       S21: Re/Im (F2)                       S12: Re/Im (F2)                       S22: Re/Im (F2)            
4.00000000000E+09 +6.55730562980E-01 -3.60621478143E-01 +1.09628837779E-03 -8.06272171532E-04 +1.16039638615E-03 -8.16010371377E-04 +7.85626979318E-01 -3.13667969466E-01
4.00500000000E+09 +6.47199057247E-01 -3.66145335500E-01 +8.85755902627E-04 -1.16422307735E-03 +9.60260668860E-04 -1.18672216190E-03 +7.77447049511E-01 -3.24866281847E-01
4.01000000000E+09 +6.38389893901E-01 -3.71626875628E-01 +5.08781637849E-04 -1.36501063075E-03 +6.34113382009E-04 -1.37051802351E-03 +7.69237428592E-01 -3.36914139899E-01
4.01500000000E+09 +6.28507695935E-01 -3.78052204716E-01 +2.32001941652E-04 -1.18458527152E-03 +2.74804243131E-04 -1.19806061817E-03 +7.60873858068E-01 -3.48166032500E-01
4.02000000000E+09 +6.18783243084E-01 -3.85251617327E-01 +2.45557934977E-04 -1.14057830187E-03 +3.19023186087E-04 -1.15492260407E-03 +7.52073636839E-01 -3.59153975985E-01
4.02500000000E+09 +6.08417496854E-01 -3.94473587973E-01 +1.54584309415E-04 -1.10943884143E-03 +2.13671552764E-04 -1.14748933633E-03 +7.42674639786E-01 -3.69915500113E-01
4.03000000000E+09 +5.97359750212E-01 -4.05037883023E-01 +7.52652761318E-05 -1.17573259892E-03 +1.59535672966E-04 -1.17115622432E-03 +7.32302099770E-01 -3.80539513376E-01
4.03500000000E+09 +5.85821084747E-01 -4.15424767097E-01 -4.70458157472E-05 -1.17257355204E-03 -8.06463229947E-06 -1.19176655433E-03 +7.21279850798E-01 -3.91672707515E-01
4.04000000000E+09 +5.74672677473E-01 -4.25449471449E-01 -1.39149159215E-04 -1.11071093012E-03 -1.04176191195E-04 -1.16684036575E-03 +7.10143276469E-01 -4.02806982535E-01
4.04500000000E+09 +5.63785391083E-01 -4.35158677342E-01 -1.66907002791E-04 -1.08259993249E-03 -1.34388423165E-04 -1.17505465350E-03 +6.99356930677E-01 -4.13811331835E-01
4.05000000000E+09 +5.51970207327E-01 -4.43240104462E-01 -2.94184148934E-04 -1.16664125476E-03 -2.36436794549E-04 -1.23069783742E-03 +6.88903307916E-01 -4.24616420577E-01
4.05500000000E+09 +5.40087727107E-01 -4.49079345882E-01 -3.42528414304E-04 -1.15614783888E-03 -3.27644752805E-04 -1.27904029880E-03 +6.77519708402E-01 -4.34510420149E-01
4.06000000000E+09 +5.28137563755E-01 -4.53804839370E-01 -6.91761702971E-04 -1.19608978036E-03 -6.73220287337E-04 -1.33991457938E-03 +6.66450053738E-01 -4.44045432403E-01
4.06500000000E+09 +5.15122349085E-01 -4.57635260652E-01 -8.17504445600E-04 -8.11370856543E-04 -8.66995256795E-04 -7.64836355354E-04 +6.53881495802E-01 -4.53980962246E-01
4.07000000000E+09 +5.01980863021E-01 -4.61719889087E-01 -5.08270958063E-04 -6.66337055801E-04 -5.21766168180E-04 -7.13437153171E-04 +6.40525007047E-01 -4.63927384545E-01
4.07500000000E+09 +4.87148388289E-01 -4.66636763605E-01 -5.33702590817E-04 -9.10338527970E-04 -5.17080310152E-04 -9.48383476322E-04 +6.26879703328E-01 -4.74486632660E-01
4.08000000000E+09 +4.71301032088E-01 -4.71974336584E-01 -7.43798519392E-04 -8.52533843039E-04 -7.32501968725E-04 -9.03800482641E-04 +6.13362984767E-01 -4.84377059740E-01
4.08500000000E+09 +4.54741266624E-01 -4.78434455496E-01 -6.94640073062E-04 -8.88044114704E-04 -7.02739735878E-04 -9.49771634516E-04 +5.99926045167E-01 -4.94524724163E-01
4.09000000000E+09 +4.37424123030E-01 -4.84948095327E-01 -1.05008002272E-03 -1.03881526418E-03 -1.06998382017E-03 -1.12106021500E-03 +5.85994420972E-01 -5.03161443487E-01
4.09500000000E+09 +4.20711314102E-01 -4.91107385578E-01 -1.33892582520E-03 -5.98839124843E-04 -1.35996604511E-03 -6.33977295306E-04 +5.71729836773E-01 -5.11687565121E-01
4.10000000000E+09 +4.03879475229E-01 -4.96895016986E-01 -1.05391614475E-03 -3.04867109286E-04 -1.08666874137E-03 -3.26939507795E-04 +5.56080333332E-01 -5.19441991672E-01
4.10500000000E+09 +3.87159251693E-01 -5.01362739496E-01 -1.02535684264E-03 -4.40584186818E-04 -1.09753722313E-03 -4.71339294740E-04 +5.40505171413E-01 -5.27736298417E-01
4.11000000000E+09 +3.70759117162E-01 -5.03382757717E-01 -1.23731145434E-03 -2.70592765608E-04 -1.26751817174E-03 -2.43003507650E-04 +5.23801888654E-01 -5.36393387006E-01
4.11500000000E+09 +3.55472016508E-01 -5.04492988668E-01 -9.42551411230E-04 -1.32743634436E-04 -9.70228125901E-04 -1.68636379509E-04 +5.07428465024E-01 -5.44377634738E-01
4.12000000000E+09 +3.39720850026E-01 -5.05290943413E-01 -1.05354760845E-03 -2.33069292872E-04 -1.03914989216E-03 -2.94470558815E-04 +4.90873426867E-01 -5.52393770647E-01
4.12500000000E+09 +3.22962665260E-01 -5.06076880661E-01 -1.13270610960E-03 -2.28472172504E-04 -1.13372300836E-03 -2.69389771484E-04 +4.73721394780E-01 -5.58940729726E-01
4.13000000000E+09 +3.05220872731E-01 -5.07155157046E-01 -1.23898319289E-03 -7.94255630757E-05 -1.21043068672E-03 -1.25675537258E-04 +4.56081329580E-01 -5.65254420118E-01
4.13500000000E+09 +2.86124741284E-01 -5.09276992009E-01 -1.01703587613E-03 -4.32968700372E-06 -1.01523365118E-03 -4.20228493897E-05 +4.37701979714E-01 -5.70646939520E-01
4.14000000000E+09 +2.65803642876E-01 -5.11755215666E-01 -1.27336576747E-03 -2.40506856693E-04 -1.29739019602E-03 -3.03487348125E-04 +4.19246279812E-01 -5.76789094704E-01
4.14500000000E+09 +2.46006255483E-01 -5.14097358402E-01 -1.68214654410E-03 +1.21375327480E-04 -1.75386251729E-03 +5.19868083391E-05 +3.99587096586E-01 -5.82989711850E-01
4.15000000000E+09 +2.26484951574E-01 -5.17670358505E-01 -1.41824740975E-03 +5.73151317587E-04 -1.47549923483E-03 +5.20125876534E-04 +3.81162335432E-01 -5.87865788581E-01
4.15500000000E+09 +2.06818536879E-01 -5.20580440470E-01 -1.23171330426E-03 +6.07847415557E-04 -1.27073733736E-03 +5.64165127303E-04 +3.62577403336E-01 -5.92927213116E-01
4.16000000000E+09 +1.88017294275E-01 -5.21220131854E-01 -1.25016798420E-03 +5.53311481804E-04 -1.29899181767E-03 +5.51532392946E-04 +3.43237733921E-01 -5.96132881369E-01
4.16500000000E+09 +1.70816426981E-01 -5.21051089162E-01 -1.17671792366E-03 +5.65016621674E-04 -1.18050351632E-03 +5.35821802673E-04 +3.23680777099E-01 -5.98708760792E-01
4.17000000000E+09 +1.53821031837E-01 -5.18163458886E-01 -1.28220209996E-03 +8.33786636872E-04 -1.30297892278E-03 +7.61395116980E-04 +3.02915082862E-01 -6.00871431555E-01
4.17500000000E+09 +1.38165615456E-01 -5.13616055621E-01 -1.09676070023E-03 +7.12726200032E-04 -1.14438738834E-03 +7.29357194819E-04 +2.81511559116E-01 -6.02208497388E-01
4.18000000000E+09 +1.21992169873E-01 -5.08914938112E-01 -1.36613893004E-03 +1.03236275677E-03 -1.39909588021E-03 +1.05413955568E-03 +2.60504083363E-01 -6.03583328368E-01
4.18500000000E+09 +1.05115975974E-01 -5.03200039037E-01 -9.13342653450E-04 +1.18261559597E-03 -9.24957741070E-04 +1.19841342063E-03 +2.39435505846E-01 -6.05205791182E-01
4.19000000000E+09 +8.70731091750E-02 -4.97925138512E-01 -1.06426142145E-03 +1.02838713003E-03 -1.17544064619E-03 +1.02061646380E-03 +2.17859612327E-01 -6.04991477493E-01
4.19500000000E+09 +6.81178176187E-02 -4.92214265793E-01 -1.22479754891E-03 +1.46403007596E-03 -1.28213582612E-03 +1.48649630109E-03 +1.96652634247E-01 -6.03331334987E-01
4.20000000000E+09 +4.95026932869E-02 -4.87430724676E-01 -7.22905337982E-04 +1.85256526242E-03 -8.19818405627E-04 +1.88282622633E-03 +1.75054021663E-01 -6.01113179672E-01
4.20500000000E+09 +3.01561113442E-02 -4.83063196997E-01 -3.44535364742E-04 +1.65053522076E-03 -3.98098682730E-04 +1.68670619090E-03 +1.53599383954E-01 -5.97871779308E-01
4.21000000000E+09 +1.18294487879E-02 -4.78162571787E-01 -5.44839635914E-04 +1.24455391610E-03 -6.33190877272E-04 +1.31173223947E-03 +1.31362996397E-01 -5.96453241037E-01
4.21500000000E+09 -5.85628272137E-03 -4.72243825091E-01 -5.95451517625E-04 +1.71308657378E-03 -6.27805161486E-04 +1.78540994962E-03 +1.07987718754E-01 -5.94100129113E-01
4.22000000000E+09 -2.15684348795E-02 -4.64383660192E-01 -2.19464854014E-04 +1.78389792730E-03 -2.63282188098E-04 +1.81672191720E-03 +8.54312482231E-02 -5.89941404644E-01
4.22500000000E+09 -3.60823317916E-02 -4.55347239899E-01 -3.90542027573E-04 +1.59614069602E-03 -3.97366773510E-04 +1.60357267620E-03 +6.38126780739E-02 -5.84971013816E-01
4.23000000000E+09 -4.99531598295E-02 -4.44455549317E-01 -2.99837460985E-04 +2.07527781441E-03 -2.88590018469E-04 +2.08667189521E-03 +4.23548309509E-02 -5.78184338337E-01
4.23500000000E+09 -6.38172894901E-02 -4.33194003590E-01 -2.73986989045E-05 +2.10032329667E-03 -1.75915777278E-05 +2.16391114921E-03 +2.06750043237E-02 -5.71108344168E-01
4.24000000000E+09 -7.99272644137E-02 -4.20825992735E-01 +2.55232987494E-04 +2.25776735913E-03 +2.83080245201E-04 +2.26535067127E-03 -1.31937260742E-03 -5.62393679874E-01
4.24500000000E+09 -9.74611334585E-02 -4.07526956805E-01 +5.38651451491E-04 +2.12125122092E-03 +5.91712187078E-04 +2.16235455706E-03 -2.30962823045E-02 -5.53890179464E-01
4.25000000000E+09 -1.16660236262E-01 -3.93666647978E-01 +4.34411502258E-04 +2.25384394322E-03 +3.81870398407E-04 +2.37450978628E-03 -4.51007591306E-02 -5.45059620746E-01
4.25500000000E+09 -1.36012736936E-01 -3.80367227928E-01 +1.18834570917E-03 +2.59470438072E-03 +1.19660467858E-03 +2.66921153543E-03 -6.60319059962E-02 -5.35512275791E-01
4.26000000000E+09 -1.56237636268E-01 -3.68251718530E-01 +1.53983564884E-03 +2.02819327113E-03 +1.55933210575E-03 +2.05402103980E-03 -8.67651154610E-02 -5.25083764164E-01
4.26500000000E+09 -1.75651211583E-01 -3.55568133893E-01 +1.32365148130E-03 +2.15690558908E-03 +1.38074961076E-03 +2.17929326009E-03 -1.07241387998E-01 -5.13592456556E-01
4.27000000000E+09 -1.92568023282E-01 -3.43491156144E-01 +2.03617711716E-03 +2.16140499478E-03 +2.04573486742E-03 +2.10475242066E-03 -1.28558315605E-01 -5.00339642721E-01
4.27500000000E+09 -2.08266282243E-01 -3.31696970207E-01 +2.14309831938E-03 +1.75475709356E-03 +2.12188580608E-03 +1.73492161964E-03 -1.49671947266E-01 -4.86126673428E-01
4.28000000000E+09 -2.21366274842E-01 -3.18310117299E-01 +2.40893834030E-03 +1.72164983279E-03 +2.39712853366E-03 +1.74995593444E-03 -1.70432121951E-01 -4.71671400816E-01
4.28500000000E+09 -2.32906358505E-01 -3.03580989221E-01 +2.82211524141E-03 +1.53373474122E-03 +2.87769004863E-03 +1.56782460475E-03 -1.91044501817E-01 -4.56652185693E-01
4.29000000000E+09 -2.43312388729E-01 -2.87522331286E-01 +3.14211074664E-03 +8.09781479880E-04 +3.08026356733E-03 +7.23577648498E-04 -2.09613048470E-01 -4.41373372316E-01
4.29500000000E+09 -2.54088546902E-01 -2.69552003909E-01 +2.74842728934E-03 +6.02844759424E-04 +2.78178121630E-03 +5.92167509158E-04 -2.27892422923E-01 -4.25426163664E-01
4.30000000000E+09 -2.64934623301E-01 -2.49763114400E-01 +3.09756096045E-03 +3.59717554659E-04 +3.09389057457E-03 +3.16055586314E-04 -2.44279567000E-01 -4.08570847985E-01
4.30500000000E+09 -2.76337585718E-01 -2.29391654812E-01 +3.07962728160E-03 -7.80906968946E-05 +3.08954605325E-03 -1.00028973414E-04 -2.62302995132E-01 -3.91377627960E-01
4.31000000000E+09 -2.88507620241E-01 -2.09418990264E-01 +2.71336049541E-03 -5.94376289560E-05 +2.76205431033E-03 +1.06484533689E-05 -2.79289960118E-01 -3.71774012881E-01
4.31500000000E+09 -3.01350762862E-01 -1.90570447160E-01 +3.35406811802E-03 -4.72034557317E-05 +3.48555340242E-03 -4.05765537540E-05 -2.95936622435E-01 -3.52523541756E-01
4.32000000000E+09 -3.14154105705E-01 -1.72785600156E-01 +3.65101550861E-03 -1.07562858484E-03 +3.68720707097E-03 -1.06827353065E-03 -3.11980653529E-01 -3.32183285515E-01
4.32500000000E+09 -3.25309023594E-01 -1.56068050532E-01 +2.98725551856E-03 -1.55520533264E-03 +2.98128094503E-03 -1.59706079097E-03 -3.26267113895E-01 -3.10745335648E-01
4.33000000000E+09 -3.34908354531E-01 -1.40588780958E-01 +3.19489613510E-03 -1.56327872491E-03 +3.32546014937E-03 -1.62602565451E-03 -3.38983949187E-01 -2.89092664154E-01
4.33500000000E+09 -3.41311494636E-01 -1.23862344657E-01 +3.01340298961E-03 -2.33705925327E-03 +3.06212780931E-03 -2.40325299788E-03 -3.51033994667E-01 -2.66523979311E-01
4.34000000000E+09 -3.43579425253E-01 -1.08378244407E-01 +2.40741980698E-03 -2.81187663424E-03 +2.47287409731E-03 -2.87361222476E-03 -3.63097336183E-01 -2.43972786937E-01
4.34500000000E+09 -3.45548914941E-01 -9.26037574059E-02 +1.93660946590E-03 -2.60476098075E-03 +1.96928503091E-03 -2.57909197128E-03 -3.74683335661E-01 -2.19872795963E-01
4.35000000000E+09 -3.45984534799E-01 -7.38392094587E-02 +2.02432921969E-03 -2.72044343715E-03 +2.03244331651E-03 -2.78017590696E-03 -3.85331789383E-01 -1.97174753552E-01
4.35500000000E+09 -3.46807363281E-01 -5.41804106777E-02 +1.80649702648E-03 -3.01584944520E-03 +1.89896598368E-03 -3.10870730638E-03 -3.95560471627E-01 -1.74743273548E-01
4.36000000000E+09 -3.48215044607E-01 -3.18737492566E-02 +1.50022548874E-03 -3.11296263471E-03 +1.47478169146E-03 -3.20843812392E-03 -4.05193728471E-01 -1.51219058236E-01
4.36500000000E+09 -3.50814772460E-01 -8.93606254036E-03 +1.58579114783E-03 -3.36635514971E-03 +1.57471464079E-03 -3.47599426601E-03 -4.12388612699E-01 -1.26483109859E-01
4.37000000000E+09 -3.54704220264E-01 +1.46453153699E-02 +1.23327953974E-03 -3.99258598496E-03 +1.15394154938E-03 -4.13234283550E-03 -4.18008610973E-01 -1.02163268954E-01
4.37500000000E+09 -3.58307166307E-01 +3.70644557357E-02 +4.59708554329E-04 -4.58047918231E-03 +3.78080362241E-04 -4.64810341980E-03 -4.23255635675E-01 -7.64195241312E-02
4.38000000000E+09 -3.62906525765E-01 +5.61546255737E-02 -3.44833236824E-04 -4.28661127045E-03 -4.13085238027E-04 -4.37569525067E-03 -4.26904583130E-01 -5.14407829738E-02
4.38500000000E+09 -3.67069754853E-01 +7.42289501043E-02 -8.57431940661E-04 -4.16857493036E-03 -9.44429681950E-04 -4.19944431834E-03 -4.30264270612E-01 -2.70427142689E-02
4.39000000000E+09 -3.69739141064E-01 +8.96877853641E-02 -1.24606075991E-03 -4.07104514787E-03 -1.33608382725E-03 -4.07534415384E-03 -4.33535852157E-01 -2.18505379381E-03
4.39500000000E+09 -3.70417188686E-01 +1.03791670055E-01 -1.73970848779E-03 -3.58680227025E-03 -1.88081313667E-03 -3.53790500909E-03 -4.34469108227E-01 +2.16031538239E-02
4.40000000000E+09 -3.69226698359E-01 +1.18329437403E-01 -1.72382622741E-03 -3.55048501804E-03 -1.79333149967E-03 -3.54555816890E-03 -4.35499393949E-01 +4.62459252869E-02
4.40500000000E+09 -3.65213396207E-01 +1.34067782507E-01 -2.53338335372E-03 -3.56036691122E-03 -2.53709319162E-03 -3.49786751045E-03 -4.34679483126E-01 +7.12892751562E-02
4.41000000000E+09 -3.59402499490E-01 +1.50266543814E-01 -2.71206666855E-03 -2.99540997645E-03 -2.79929521305E-03 -3.01146997329E-03 -4.33039372608E-01 +9.62883136510E-02
4.41500000000E+09 -3.53505580593E-01 +1.68453289177E-01 -3.03073461266E-03 -2.88560829924E-03 -3.09834024528E-03 -2.86584946243E-03 -4.30311110537E-01 +1.20876697518E-01
4.42000000000E+09 -3.47903768054E-01 +1.88536370099E-01 -3.37855612072E-03 -2.56486078916E-03 -3.45321884103E-03 -2.44228324777E-03 -4.27787607385E-01 +1.44978170854E-01
4.42500000000E+09 -3.43117209020E-01 +2.10125241739E-01 -3.70377022212E-03 -2.55834190762E-03 -3.76853940721E-03 -2.40145919027E-03 -4.22754515336E-01 +1.69511504565E-01
4.43000000000E+09 -3.38858536326E-01 +2.30781760991E-01 -4.40046110504E-03 -2.11254430195E-03 -4.46885933552E-03 -1.99736174368E-03 -4.17576007223E-01 +1.91458947101E-01
4.43500000000E+09 -3.37228513815E-01 +2.50924137061E-01 -4.62697567747E-03 -9.18426840860E-04 -4.58170116044E-03 -8.24932326399E-04 -4.11459760426E-01 +2.14893219684E-01
4.44000000000E+09 -3.34904509515E-01 +2.69939328416E-01 -4.35351438502E-03 -6.96481031065E-04 -4.32002536382E-03 -6.84968895177E-04 -4.04386020589E-01 +2.37166708130E-01
4.44500000000E+09 -3.32110671380E-01 +2.85291038771E-01 -4.48501410850E-03 -3.40812649418E-05 -4.45001183644E-03 +4.10781347258E-06 -3.97400113981E-01 +2.58862868311E-01
4.45000000000E+09 -3.29162650694E-01 +2.98297045292E-01 -4.23485946141E-03 +3.13748438145E-04 -4.24155927426E-03 +3.71833760892E-04 -3.89817739875E-01 +2.80520363877E-01
4.45500000000E+09 -3.24806488582E-01 +3.10254004478E-01 -4.25825650554E-03 +5.51718833900E-04 -4.28882984523E-03 +5.35073615138E-04 -3.81796092400E-01 +3.01476005046E-01
4.46000000000E+09 -3.18792462582E-01 +3.21647584887E-01 -4.36636132769E-03 +1.04536110588E-03 -4.39837759732E-03 +1.14837712208E-03 -3.71561108391E-01 +3.21348082078E-01
4.46500000000E+09 -3.10028068618E-01 +3.34611212061E-01 -4.16734596047E-03 +1.62004302385E-03 -4.08389437865E-03 +1.71785299082E-03 -3.61828457499E-01 +3.40209277978E-01
4.47000000000E+09 -2.99308317739E-01 +3.47994949407E-01 -4.12491531682E-03 +2.02155962558E-03 -4.03945807211E-03 +2.06167308962E-03 -3.49403264314E-01 +3.59749471667E-01
4.47500000000E+09 -2.87498594421E-01 +3.63614994444E-01 -4.01105197929E-03 +2.60215746359E-03 -3.89712351585E-03 +2.70577697712E-03 -3.37902541331E-01 +3.77341868599E-01
4.48000000000E+09 -2.75586599618E-01 +3.78804228086E-01 -3.51112899420E-03 +3.19243277525E-03 -3.47592132174E-03 +3.23293681116E-03 -3.26215995051E-01 +3.96082390778E-01
4.48500000000E+09 -2.65950361659E-01 +3.95711213367E-01 -3.08911502753E-03 +3.51504694131E-03 -2.99165232708E-03 +3.51252692486E-03 -3.14469823048E-01 +4.13127144193E-01
4.49000000000E+09 -2.57048852839E-01 +4.12657452135E-01 -2.60084997777E-03 +3.98285790197E-03 -2.56151140183E-03 +3.99252000137E-03 -3.02602403617E-01 +4.29489259459E-01
4.49500000000E+09 -2.49406173997E-01 +4.28333624421E-01 -1.98502937878E-03 +4.08677695310E-03 -1.90412270464E-03 +4.03424522591E-03 -2.90668619640E-01 +4.44941200210E-01
4.50000000000E+09 -2.43271683272E-01 +4.42076838914E-01 -1.64226942274E-03 +4.30976408139E-03 -1.59779272369E-03 +4.24703839301E-03 -2.77922015094E-01 +4.60038814033E-01
4.50500000000E+09 -2.37700774735E-01 +4.53494647287E-01 -1.03368009127E-03 +4.34869362495E-03 -1.04610253152E-03 +4.31879849834E-03 -2.64011475721E-01 +4.75150026175E-01
4.51000000000E+09 -2.31210188946E-01 +4.63101293939E-01 -8.66354505290E-04 +4.43092400855E-03 -7.83766560228E-04 +4.37277211117E-03 -2.49858841089E-01 +4.89126982735E-01
4.51500000000E+09 -2.22716333708E-01 +4.70835498819E-01 -1.12185420096E-04 +4.76907988215E-03 -6.90466038781E-05 +4.69625038014E-03 -2.36458022359E-01 +5.03338903993E-01
4.52000000000E+09 -2.12859346482E-01 +4.77252301325E-01 +5.69813162186E-04 +4.31906622355E-03 +6.76671223033E-04 +4.26222493999E-03 -2.22451649618E-01 +5.16720478696E-01
4.52500000000E+09 -2.00560567148E-01 +4.84541593394E-01 +5.70833161060E-04 +4.32773190198E-03 +6.61179312617E-04 +4.25797060312E-03 -2.08043822471E-01 +5.28621358444E-01
4.53000000000E+09 -1.86651433940E-01 +4.92346385576E-01 +1.33395850623E-03 +4.38521045162E-03 +1.42890558454E-03 +4.31230873356E-03 -1.93671598044E-01 +5.39615239617E-01
4.53500000000E+09 -1.71282500396E-01 +5.02160508372E-01 +1.86381877574E-03 +3.93218500293E-03 +1.88725613601E-03 +3.85282796899E-03 -1.78736777076E-01 +5.49888642528E-01
4.54000000000E+09 -1.55530918879E-01 +5.12545072815E-01 +2.25896557348E-03 +3.87054505444E-03 +2.28701245904E-03 +3.69408389877E-03 -1.63761608233E-01 +5.60388103538E-01
4.54500000000E+09 -1.41016510798E-01 +5.23649134949E-01 +2.86157244078E-03 +3.25361219753E-03 +2.90614822277E-03 +3.04883660047E-03 -1.48512458241E-01 +5.70747158339E-01
4.55000000000E+09 -1.28185654094E-01 +5.34283173748E-01 +2.57676826091E-03 +2.85863195507E-03 +2.60991352266E-03 +2.72944924179E-03 -1.33336852404E-01 +5.80843796984E-01
4.55500000000E+09 -1.18366673493E-01 +5.44236392239E-01 +3.02932344325E-03 +2.72610372691E-03 +2.97801058001E-03 +2.53458548603E-03 -1.18666023369E-01 +5.90266909697E-01
4.56000000000E+09 -1.10058079256E-01 +5.54107125693E-01 +3.31439882608E-03 +2.34059411807E-03 +3.25729578159E-03 +2.21441441618E-03 -1.04461041526E-01 +5.98983077991E-01
4.56500000000E+09 -1.02014364337E-01 +5.62302408047E-01 +3.46967960198E-03 +1.91057778912E-03 +3.44831718176E-03 +1.80981414100E-03 -8.91644528715E-02 +6.07761334111E-01
4.57000000000E+09 -9.29999898185E-02 +5.68545880141E-01 +3.51589278530E-03 +1.69653645849E-03 +3.45204097755E-03 +1.59091732401E-03 -7.33985662368E-02 +6.14473485010E-01
