# Hz S RI R 50
! CMT, C1220, 16058040, 17.2.0/1
! Date: 14/08/2018 12:32:12
! Data: Format (Calibration Info)
! Freq                      S11: Re/Im (F2)                       S21: Re/Im (F2)                       S12: Re/Im (F2)                       S22: Re/Im (F2)            
1.00000000000E+09 -6.32803013672E-01 +7.08109828126E-01 +1.86836909607E-05 +1.36551999532E-05 -3.13772190486E-05 +1.41825546180E-05 -7.53268747629E-01 +6.23652537425E-01
1.00500000000E+09 -6.25798447140E-01 +7.13185041652E-01 +8.19355229983E-07 -2.98216253471E-06 -4.77318433408E-05 -1.95556061625E-05 -7.49831143790E-01 +6.27789774301E-01
1.01000000000E+09 -6.19466753302E-01 +7.17878594866E-01 +8.96973586311E-06 +3.32588272188E-05 +1.07662371476E-06 +2.29377816480E-05 -7.46280038837E-01 +6.31412345750E-01
1.01500000000E+09 -6.14610231397E-01 +7.21755434878E-01 +2.62580688736E-06 +1.40689375116E-05 -1.12623058379E-05 -4.55477804391E-05 -7.43093392709E-01 +6.35072535158E-01
1.02000000000E+09 -6.11093825118E-01 +7.25255073814E-01 -1.27072152232E-05 +5.88929358165E-06 -3.08139574645E-06 -3.35308918964E-05 -7.39705415993E-01 +6.38606199573E-01
1.02500000000E+09 -6.08566410231E-01 +7.28095480887E-01 -4.10719429812E-05 +1.88455913185E-05 -2.96613430856E-05 -1.64925762408E-05 -7.36992830192E-01 +6.42197380199E-01
1.03000000000E+09 -6.06499326998E-01 +7.30722863490E-01 -2.27774762558E-05 -1.77702852590E-05 -1.55525851043E-06 -2.91562706340E-06 -7.33491667123E-01 +6.46049438538E-01
1.03500000000E+09 -6.03605951098E-01 +7.33113390270E-01 -4.21966934132E-05 +2.14682376886E-05 -3.35304918360E-05 +1.78590175615E-05 -7.29635888008E-01 +6.50053628278E-01
1.04000000000E+09 -5.99995949100E-01 +7.36019769294E-01 +6.92890899326E-06 +3.39517906822E-05 -5.23600891254E-05 -3.30550301013E-06 -7.25843108948E-01 +6.53640830238E-01
1.04500000000E+09 -5.94708150789E-01 +7.39146826343E-01 -4.93438558694E-05 +3.17391149345E-05 -2.11939554117E-06 +2.45129261685E-05 -7.22221330579E-01 +6.57164052682E-01
1.05000000000E+09 -5.87910913431E-01 +7.43160654304E-01 +7.55700751428E-06 +7.82370366824E-05 -2.61935068407E-05 -1.66346911417E-05 -7.18904498283E-01 +6.60474112836E-01
1.05500000000E+09 -5.79937454427E-01 +7.47388636205E-01 +7.21893291433E-06 +4.76606068430E-06 -2.07417446001E-05 +1.16421897781E-05 -7.15536595915E-01 +6.64056985942E-01
1.06000000000E+09 -5.71649924247E-01 +7.52294499500E-01 +1.73412635635E-05 +3.22108676099E-05 +1.99769953504E-05 +1.87693832627E-05 -7.12313499460E-01 +6.67961169004E-01
1.06500000000E+09 -5.63445112929E-01 +7.57148358142E-01 -2.71767569284E-05 +2.87388141191E-05 +5.29904031523E-05 +1.44112748889E-05 -7.08530936967E-01 +6.71710184015E-01
1.07000000000E+09 -5.56251187011E-01 +7.61616810838E-01 +2.75055183428E-05 +7.06207610043E-05 +1.35800390929E-05 +1.84623639799E-05 -7.04277597967E-01 +6.75568598167E-01
1.07500000000E+09 -5.50523363746E-01 +7.65458855781E-01 -9.50310166527E-06 +5.12089521681E-05 +8.15547866691E-06 +7.66841510256E-05 -7.00206243619E-01 +6.79287987854E-01
1.08000000000E+09 -5.46211686917E-01 +7.68679389928E-01 +2.94214967158E-05 +1.98843607346E-05 +2.28450991866E-06 +6.14577293062E-05 -6.96251216541E-01 +6.83006409500E-01
1.08500000000E+09 -5.43246108106E-01 +7.71493679200E-01 +1.24287427432E-05 +6.42164736913E-05 -2.10852448592E-06 +6.61256865828E-05 -6.92335775749E-01 +6.86646532611E-01
1.09000000000E+09 -5.40676789225E-01 +7.73640587103E-01 +2.63540050405E-05 +4.40189721188E-05 +3.66998082855E-05 +2.24845286712E-05 -6.88688808150E-01 +6.90424698168E-01
1.09500000000E+09 -5.38339454385E-01 +7.75569464092E-01 +3.71343313173E-05 +3.00629611192E-05 +3.52457314197E-05 +4.21038845913E-05 -6.84893134634E-01 +6.94157524521E-01
1.10000000000E+09 -5.34691593088E-01 +7.77707191115E-01 +4.91882150674E-05 -1.78653497681E-05 +1.51564301579E-05 -3.81576215939E-05 -6.81004442414E-01 +6.98165942101E-01
1.10500000000E+09 -5.30414727728E-01 +7.80293532998E-01 +5.52063097110E-05 +1.11575037282E-05 +3.60188849687E-05 +2.13958108546E-05 -6.76672979603E-01 +7.01709086131E-01
1.11000000000E+09 -5.24424772239E-01 +7.83520963560E-01 +1.60510435574E-05 +1.27234032213E-05 +9.25608901416E-06 +2.42617766191E-05 -6.72377251880E-01 +7.05079999962E-01
1.11500000000E+09 -5.17265275448E-01 +7.87196865338E-01 +4.28767978475E-05 +2.92814530470E-05 +4.25658954940E-05 +1.47936344354E-05 -6.68586118249E-01 +7.08430934725E-01
1.12000000000E+09 -5.09462335942E-01 +7.91001296180E-01 +5.63320492887E-05 +1.83147518094E-05 -1.88998127462E-05 +1.88727752996E-05 -6.64517714534E-01 +7.12089686480E-01
1.12500000000E+09 -5.01680716055E-01 +7.94971985456E-01 -4.03019907895E-06 -1.80003367638E-05 +2.83583813780E-05 +5.34741837823E-06 -6.60239565351E-01 +7.15989130309E-01
1.13000000000E+09 -4.94821909057E-01 +7.98749586557E-01 +2.98834550588E-05 -4.75898579961E-05 -6.57097471285E-07 -4.46792475003E-05 -6.55934951396E-01 +7.19687297540E-01
1.13500000000E+09 -4.88850711584E-01 +8.01254560371E-01 +4.26649733542E-07 -2.67985960021E-05 -2.17623661410E-05 +2.74114244964E-05 -6.51035524813E-01 +7.23686506832E-01
1.14000000000E+09 -4.84107031752E-01 +8.03707189125E-01 -1.32683246982E-06 +9.38924616773E-06 +5.72613506850E-05 +5.25669419232E-05 -6.46517444571E-01 +7.27040868835E-01
1.14500000000E+09 -4.80395172827E-01 +8.05415035462E-01 +2.04787910847E-05 +3.05736633141E-05 +5.49368293540E-05 +2.81240473774E-05 -6.41801157686E-01 +7.30519505102E-01
1.15000000000E+09 -4.76882509670E-01 +8.06737574798E-01 +4.65138148687E-05 +2.69186845694E-06 +7.09929380121E-05 -1.33311439247E-05 -6.37200470210E-01 +7.34393162905E-01
1.15500000000E+09 -4.73331356432E-01 +8.08222778212E-01 +1.51604213980E-05 -1.29864528776E-05 +3.05186104017E-05 -3.65548332850E-06 -6.32394507947E-01 +7.38242325967E-01
1.16000000000E+09 -4.68539300632E-01 +8.10107330668E-01 +4.67546011410E-05 +2.05785891285E-05 +4.99020569527E-05 +3.52287311004E-05 -6.27712486510E-01 +7.41986429772E-01
1.16500000000E+09 -4.62792660735E-01 +8.12572396095E-01 +5.02362345683E-05 +1.40946008419E-05 +1.75425893578E-05 -4.45974260995E-05 -6.22746302007E-01 +7.45709844689E-01
1.17000000000E+09 -4.55678687957E-01 +8.15475254235E-01 +7.38567626734E-05 -1.73825087841E-05 +3.86012881547E-05 -2.70155652647E-05 -6.17262121971E-01 +7.49036556865E-01
1.17500000000E+09 -4.47667716154E-01 +8.18699405863E-01 +4.38383571685E-05 -5.07513580155E-05 +8.33348189746E-05 -9.70411917638E-05 -6.11659340578E-01 +7.52374581816E-01
1.18000000000E+09 -4.39434857790E-01 +8.22332058251E-01 +6.56233604090E-05 -2.42389356156E-05 +5.93736553534E-05 -6.90034532313E-05 -6.06067689144E-01 +7.55312889522E-01
1.18500000000E+09 -4.31497669782E-01 +8.25581889826E-01 +5.46173543725E-05 -4.72864025038E-05 +2.56416613063E-05 -9.72667087862E-05 -6.00329965552E-01 +7.58184559094E-01
1.19000000000E+09 -4.24244469337E-01 +8.28334056159E-01 +6.11525496581E-05 -7.28395263649E-05 +7.66219453397E-05 -9.63912345586E-05 -5.94108433628E-01 +7.60823175453E-01
1.19500000000E+09 -4.17941172491E-01 +8.30338327035E-01 +7.33566803008E-05 -8.65164020760E-05 +1.04643163503E-04 -1.61611773839E-04 -5.88250303276E-01 +7.62084082831E-01
1.20000000000E+09 -4.12935793415E-01 +8.31355680382E-01 -3.52442560794E-05 -1.27217971250E-04 -5.24101095789E-05 -1.34535482139E-04 -5.83902355684E-01 +7.62222965976E-01
1.20500000000E+09 -4.08368350373E-01 +8.32326630474E-01 -4.15595528977E-05 -1.24929394403E-04 -4.49107551411E-05 -1.31102223045E-04 -5.81389102197E-01 +7.63172304134E-01
1.21000000000E+09 -4.03594695387E-01 +8.33303099881E-01 -9.26993583201E-05 -7.16262030034E-05 -1.03520730666E-04 -6.18494833585E-05 -5.79369634892E-01 +7.66309812240E-01
1.21500000000E+09 -3.97758999290E-01 +8.34674670136E-01 -8.30708229545E-05 -6.52928984115E-05 -7.15026897002E-05 -9.80809928331E-06 -5.76677332937E-01 +7.70935151782E-01
1.22000000000E+09 -3.90541657396E-01 +8.36361664226E-01 -3.96134711237E-05 +1.96895380190E-05 -1.64876919847E-05 +3.05973838805E-07 -5.72384218304E-01 +7.76438218246E-01
1.22500000000E+09 -3.81633211302E-01 +8.38705196211E-01 -3.75953054036E-05 -5.33561319624E-05 -2.64386168081E-05 -2.68282372910E-05 -5.67198284605E-01 +7.81396723748E-01
1.23000000000E+09 -3.71711955164E-01 +8.41592322760E-01 -1.56274460240E-05 -1.75362712203E-05 -3.78771896451E-05 -8.25460385283E-05 -5.61642601382E-01 +7.86087939043E-01
1.23500000000E+09 -3.61478594495E-01 +8.45034475197E-01 -5.27030181360E-05 -2.60239932857E-05 -1.49624498304E-05 -3.90107050154E-05 -5.55784196708E-01 +7.90469443365E-01
1.24000000000E+09 -3.51337371776E-01 +8.48812225065E-01 -1.08170334563E-05 +9.21185035203E-07 -4.46762657794E-05 -4.46629502135E-05 -5.49862742643E-01 +7.94259946082E-01
1.24500000000E+09 -3.42210569318E-01 +8.52829295363E-01 -8.02545028564E-05 -4.54206380325E-05 -5.14422674218E-05 -8.30107552886E-05 -5.43632840616E-01 +7.98039384458E-01
1.25000000000E+09 -3.33882294524E-01 +8.56342530152E-01 -9.05232545443E-05 -6.83972894599E-05 -6.04798787198E-05 -2.69119764598E-05 -5.37109310375E-01 +8.02265191906E-01
1.25500000000E+09 -3.26881437296E-01 +8.58887076573E-01 -4.75135534781E-05 -3.25197160025E-05 -8.10465005467E-05 -4.26357555350E-05 -5.30506521646E-01 +8.06352724616E-01
1.26000000000E+09 -3.20679161904E-01 +8.60611646421E-01 -6.17789680593E-05 -3.84770788716E-05 -4.88348771764E-05 -2.62750625166E-05 -5.23681971447E-01 +8.10472551443E-01
1.26500000000E+09 -3.14990707820E-01 +8.61637352996E-01 -6.37257087540E-05 -1.38786839527E-05 -1.02155791443E-04 -2.26059872171E-05 -5.16848764960E-01 +8.14241378860E-01
1.27000000000E+09 -3.08929970212E-01 +8.62355777534E-01 -4.76870933389E-05 -1.04227158755E-05 -5.32204082713E-05 +5.38692383684E-06 -5.10109009618E-01 +8.18085951467E-01
1.27500000000E+09 -3.01525254828E-01 +8.63011009842E-01 -7.07810006558E-05 -8.49185320208E-06 -7.09686701696E-05 -4.80865705544E-06 -5.02764842521E-01 +8.21668514921E-01
1.28000000000E+09 -2.92544930684E-01 +8.63809767676E-01 -5.18754992640E-05 -1.61475768179E-05 -4.75149525462E-05 -1.60251562762E-05 -4.95635338967E-01 +8.25229677237E-01
1.28500000000E+09 -2.81572690014E-01 +8.65169546991E-01 -6.91555114553E-05 +1.34642380600E-05 -1.14563292320E-04 +3.06488306195E-05 -4.88081849310E-01 +8.29069985478E-01
1.29000000000E+09 -2.69805619213E-01 +8.66904221965E-01 -6.71331973848E-05 +2.83828727938E-05 -8.79181881004E-05 +3.98304509181E-05 -4.80535917989E-01 +8.32731793571E-01
1.29500000000E+09 -2.57744699329E-01 +8.69575251062E-01 -6.70018586747E-05 +2.82953176107E-05 -1.24315749399E-04 -2.36267402786E-05 -4.72691938776E-01 +8.36485615820E-01
1.30000000000E+09 -2.46123516052E-01 +8.72758566283E-01 -1.22710684314E-04 -9.72958784014E-06 -1.07009605184E-04 -4.31108816711E-06 -4.64783127815E-01 +8.39987779016E-01
1.30500000000E+09 -2.35396561418E-01 +8.76107229029E-01 -1.10774687729E-04 +2.31276756940E-05 -1.00344217647E-04 -2.10775363798E-05 -4.56752157816E-01 +8.43410397621E-01
1.31000000000E+09 -2.26151176318E-01 +8.78806627031E-01 -1.00761505113E-04 +2.19196867954E-05 -7.84442182542E-05 +7.18452348308E-05 -4.48430548634E-01 +8.46826595575E-01
1.31500000000E+09 -2.18700330511E-01 +8.80751318681E-01 -3.89539832584E-05 +3.34565717583E-07 -7.21673879532E-05 +4.02981448356E-06 -4.39669982418E-01 +8.50371108810E-01
1.32000000000E+09 -2.12540629002E-01 +8.81576584105E-01 -1.07041780179E-04 +1.38424088605E-05 -1.01180896611E-04 +2.91850994693E-05 -4.30650869283E-01 +8.53695708377E-01
1.32500000000E+09 -2.06692441771E-01 +8.81537686434E-01 -1.27104200302E-04 +4.46309150375E-05 -1.37507276371E-04 +5.42007611118E-05 -4.21153686535E-01 +8.57107135975E-01
1.33000000000E+09 -1.99869109704E-01 +8.81016470168E-01 -1.43103096398E-04 +6.73568860387E-05 -1.35984870358E-04 +3.26113856175E-05 -4.11743073204E-01 +8.60208376308E-01
1.33500000000E+09 -1.91325158688E-01 +8.80207407097E-01 -1.79972651269E-04 +8.61198126658E-05 -1.61469188539E-04 +1.07053369918E-04 -4.02018547635E-01 +8.63407286987E-01
1.34000000000E+09 -1.80143461891E-01 +8.79295122175E-01 -1.83571550583E-04 +1.19173294914E-04 -1.75274019626E-04 +1.09544353893E-04 -3.91780535159E-01 +8.66748187535E-01
1.34500000000E+09 -1.66749985714E-01 +8.78419118413E-01 -1.36154697332E-04 +2.08911211100E-04 -1.43372768127E-04 +1.41830196433E-04 -3.80886737377E-01 +8.69935132447E-01
1.35000000000E+09 -1.51395568840E-01 +8.78149629608E-01 -9.98513192747E-05 +2.16630194622E-04 -9.96408073680E-05 +1.64677205739E-04 -3.69634572845E-01 +8.73058711047E-01
1.35500000000E+09 -1.35114587947E-01 +8.78500035319E-01 -1.49932289323E-04 +2.29970459621E-04 -1.23540757479E-04 +2.05691938431E-04 -3.57916967810E-01 +8.76044106314E-01
1.36000000000E+09 -1.18748008763E-01 +8.79240883349E-01 -1.18726994552E-04 +2.34302134373E-04 -1.26300508224E-04 +2.35285410159E-04 -3.45806789150E-01 +8.78737796463E-01
1.36500000000E+09 -1.03132031192E-01 +8.80109405617E-01 -1.18185852711E-04 +3.21468408844E-04 -5.27037439412E-05 +2.67182054464E-04 -3.33674283311E-01 +8.81146106250E-01
1.37000000000E+09 -8.90078472699E-02 +8.80369412706E-01 -1.19804491833E-04 +3.72878702916E-04 -9.60789210311E-05 +3.47351454672E-04 -3.20783823696E-01 +8.83570508397E-01
1.37500000000E+09 -7.67820453436E-02 +8.80092301548E-01 +3.43315474428E-05 +4.36874404057E-04 -1.98299947016E-05 +3.99447846715E-04 -3.07085555119E-01 +8.85714462892E-01
1.38000000000E+09 -6.60300067302E-02 +8.79150061766E-01 +1.20580180873E-04 +3.74775363835E-04 +7.48368815148E-05 +4.00832641690E-04 -2.92460288788E-01 +8.87884748310E-01
1.38500000000E+09 -5.50696227897E-02 +8.77532427003E-01 +1.39610015045E-04 +3.62770318748E-04 +1.64332407915E-04 +4.00271297988E-04 -2.76864351464E-01 +8.89641563544E-01
1.39000000000E+09 -4.33792014768E-02 +8.74789980716E-01 +2.36310590206E-04 +3.30944732118E-04 +2.45683734991E-04 +3.99649718155E-04 -2.61088642488E-01 +8.91096534448E-01
1.39500000000E+09 -2.95196625378E-02 +8.71260816817E-01 +2.39425400349E-04 +3.11216592878E-04 +2.74554630771E-04 +3.44139157202E-04 -2.44344889906E-01 +8.91838560741E-01
1.40000000000E+09 -1.31709313686E-02 +8.66772196890E-01 +1.94643917187E-04 +3.71746127395E-04 +2.82637636311E-04 +3.38831192362E-04 -2.26959099746E-01 +8.92126245577E-01
1.40500000000E+09 +5.41473863126E-03 +8.61551304637E-01 +3.43697068783E-04 +4.34369017203E-04 +3.64558025243E-04 +4.24670585071E-04 -2.08728313766E-01 +8.91787476599E-01
1.41000000000E+09 +2.57257094447E-02 +8.56144910568E-01 +4.43814360005E-04 +3.47368129317E-04 +4.48682757766E-04 +3.49730880630E-04 -1.88755461662E-01 +8.91007464234E-01
1.41500000000E+09 +4.74107925851E-02 +8.50534328741E-01 +5.90548431470E-04 +3.44393722234E-04 +5.96686664050E-04 +3.63925513386E-04 -1.67219612409E-01 +8.89523054473E-01
1.42000000000E+09 +6.98043269456E-02 +8.44704503744E-01 +6.66688863014E-04 +1.15590586816E-04 +7.00278399387E-04 +1.76867467829E-04 -1.44632188106E-01 +8.86888679268E-01
1.42500000000E+09 +9.17588913381E-02 +8.37584148891E-01 +5.78180442514E-04 +1.24336799238E-04 +6.20829716203E-04 +1.35167527217E-04 -1.20970003203E-01 +8.83222669760E-01
1.43000000000E+09 +1.12581096276E-01 +8.29130591518E-01 +7.69752302901E-04 +1.28234735253E-04 +8.35462676390E-04 +6.93811824113E-05 -9.65047297992E-02 +8.78574551514E-01
1.43500000000E+09 +1.32411537001E-01 +8.18987334012E-01 +8.36676200976E-04 -1.25361589369E-04 +8.30288625908E-04 -1.68538690771E-04 -7.04504674361E-02 +8.71948717216E-01
1.44000000000E+09 +1.52512731991E-01 +8.07023171581E-01 +8.32087384071E-04 -2.20832893538E-04 +8.12871412608E-04 -3.03902196518E-04 -4.25773919320E-02 +8.63657873301E-01
1.44500000000E+09 +1.73810044280E-01 +7.92196144193E-01 +8.67163580782E-04 -3.09930202882E-04 +8.88012464217E-04 -3.50563833285E-04 -1.24511588614E-02 +8.52520990092E-01
1.45000000000E+09 +1.96765170729E-01 +7.73656829674E-01 +8.19497374516E-04 -4.58138375537E-04 +8.08096003050E-04 -4.87709047430E-04 +1.93632530801E-02 +8.38082823687E-01
1.45500000000E+09 +2.22103563009E-01 +7.51990784465E-01 +9.14886801233E-04 -5.42556827178E-04 +8.65681042253E-04 -6.29231989489E-04 +5.26778256229E-02 +8.20664224026E-01
1.46000000000E+09 +2.50377107496E-01 +7.25730879837E-01 +9.79303565597E-04 -7.61963636434E-04 +8.61166666702E-04 -7.80886480503E-04 +8.71071192364E-02 +7.99243589637E-01
1.46500000000E+09 +2.80184732977E-01 +6.95572843928E-01 +1.05826296155E-03 -1.25016281077E-03 +9.09003306101E-04 -1.19148609935E-03 +1.22886306623E-01 +7.72800950437E-01
1.47000000000E+09 +3.11548483151E-01 +6.61446445493E-01 +6.17216887819E-04 -1.54440426624E-03 +5.28151729508E-04 -1.43419626135E-03 +1.59193991585E-01 +7.40056252376E-01
1.47500000000E+09 +3.42565701676E-01 +6.21939872632E-01 +2.28872589118E-04 -1.81970696452E-03 +3.18961110131E-04 -1.76719602468E-03 +1.97025735098E-01 +7.00513924630E-01
1.48000000000E+09 +3.71324103928E-01 +5.76471863975E-01 -1.29914536440E-04 -1.66415471338E-03 -7.78844359638E-05 -1.73304852059E-03 +2.34028409594E-01 +6.51006758261E-01
1.48500000000E+09 +3.95287925129E-01 +5.24714052242E-01 -1.44195299246E-04 -1.89955973102E-03 -1.76112976213E-04 -1.91686436898E-03 +2.68222204736E-01 +5.92933238158E-01
1.49000000000E+09 +4.13474514148E-01 +4.65509736679E-01 -6.64699693809E-04 -2.22524224007E-03 -7.87986801093E-04 -2.22071562074E-03 +2.97323529849E-01 +5.23915338155E-01
1.49500000000E+09 +4.23652805340E-01 +3.98260819430E-01 -1.24224934545E-03 -2.34178082663E-03 -1.27433749458E-03 -2.20048524998E-03 +3.16408756888E-01 +4.44722662314E-01
1.50000000000E+09 +4.24480174363E-01 +3.21588057567E-01 -2.21442428733E-03 -2.57337303449E-03 -2.10120853566E-03 -2.40660917852E-03 +3.22952634470E-01 +3.55743433823E-01
1.50500000000E+09 +4.11968792785E-01 +2.35801790093E-01 -3.73887815051E-03 -1.68103580602E-03 -3.53372103941E-03 -1.73053049251E-03 +3.12686935596E-01 +2.60063857495E-01
1.51000000000E+09 +3.82500113318E-01 +1.44328244577E-01 -3.83951099005E-03 +3.28871668748E-04 -3.87151326548E-03 +2.02722726752E-04 +2.83745248723E-01 +1.59149045819E-01
1.51500000000E+09 +3.34035542060E-01 +5.28363848220E-02 -3.17816435374E-03 +9.60175862739E-04 -3.26852729608E-03 +9.13308930480E-04 +2.30553128953E-01 +5.94685703128E-02
1.52000000000E+09 +2.66130657796E-01 -3.20429252290E-02 -3.28836183135E-03 +1.72393788808E-03 -3.30575811380E-03 +1.77434334819E-03 +1.54344326771E-01 -2.86493995068E-02
1.52500000000E+09 +1.80242111850E-01 -1.03255177628E-01 -1.98390109820E-03 +2.84926444141E-03 -2.00497091367E-03 +2.83459923782E-03 +5.94205206563E-02 -9.90146926277E-02
1.53000000000E+09 +7.78395709555E-02 -1.54000943159E-01 -1.34239015190E-03 +2.47205259889E-03 -1.29224321099E-03 +2.54622407428E-03 -4.85646809938E-02 -1.45862585367E-01
1.53500000000E+09 -3.36594567914E-02 -1.76907286783E-01 -1.33074199659E-03 +2.94495268604E-03 -1.30886123605E-03 +2.91654232168E-03 -1.61979342752E-01 -1.67010071995E-01
1.54000000000E+09 -1.45055258345E-01 -1.71775693416E-01 -2.35776672746E-04 +3.72285818150E-03 -2.40313069951E-04 +3.61837357833E-03 -2.72264439425E-01 -1.64187786451E-01
1.54500000000E+09 -2.49286498041E-01 -1.42645913437E-01 +1.33329564743E-03 +3.32986945074E-03 +1.26470621228E-03 +3.27058441526E-03 -3.72156914473E-01 -1.41053541079E-01
1.55000000000E+09 -3.41247801736E-01 -9.54835392548E-02 +2.11794479091E-03 +2.57910829681E-03 +1.95007664102E-03 +2.68089307034E-03 -4.59640382378E-01 -1.03475268898E-01
1.55500000000E+09 -4.18626085053E-01 -3.71987721635E-02 +2.60637188423E-03 +1.64028654997E-03 +2.55255936585E-03 +1.80484048198E-03 -5.31796742539E-01 -5.41068714787E-02
1.56000000000E+09 -4.81034867739E-01 +2.60236307572E-02 +2.57938615293E-03 +3.69161681459E-04 +2.70451892345E-03 +4.95388202848E-04 -5.88399374480E-01 -2.40133171618E-04
1.56500000000E+09 -5.28016900519E-01 +8.95997551460E-02 +1.91708879019E-03 -2.23168878323E-04 +1.99074349916E-03 -1.72051337048E-04 -6.33364836895E-01 +5.58254968599E-02
1.57000000000E+09 -5.63258577029E-01 +1.49786438779E-01 +1.53157333723E-03 -3.55204463650E-04 +1.63734903318E-03 -3.02891585815E-04 -6.66540988067E-01 +1.11706289774E-01
