# Hz S RI R 50
! CMT, C1220, 16058040, 17.2.0/1
! Date: 14/08/2018 12:28:16
! Data: Format (Calibration Info)
! Freq                      S11: Re/Im (F2)                       S21: Re/Im (F2)                       S12: Re/Im (F2)                       S22: Re/Im (F2)            
1.00000000000E+09 -6.26145485654E-01 +7.07245766630E-01 -1.70325925932E-05 +2.73347677383E-05 -1.93926024028E-05 -1.22355115659E-05 -7.52702607123E-01 +6.24299433428E-01
1.00500000000E+09 -6.19246887150E-01 +7.12256152929E-01 -8.81926687586E-06 -1.22411975464E-05 +1.92448726714E-05 -1.39475843534E-05 -7.49197267301E-01 +6.28339402038E-01
1.01000000000E+09 -6.13631508636E-01 +7.16869473609E-01 +1.32537344314E-05 -3.41963500682E-06 -1.67276554824E-05 -1.13937948017E-05 -7.45565262205E-01 +6.32192871981E-01
1.01500000000E+09 -6.09541263743E-01 +7.20483622774E-01 -3.76906514232E-05 +1.50780155634E-05 +8.38789527447E-06 -1.10804300312E-06 -7.42365459204E-01 +6.35826355726E-01
1.02000000000E+09 -6.07045836978E-01 +7.23500798362E-01 -3.69172348187E-05 +9.63188413113E-05 -9.58242906735E-06 -2.42480150824E-06 -7.39008493606E-01 +6.39227454293E-01
1.02500000000E+09 -6.05229535982E-01 +7.26039791488E-01 +3.75660443716E-05 -1.34370597995E-05 -1.90688742749E-05 +2.00629300870E-05 -7.36185560980E-01 +6.42889654350E-01
1.03000000000E+09 -6.03823470085E-01 +7.28210644020E-01 -1.81424307855E-05 +4.04951781154E-05 +2.58663968248E-05 -4.89866744062E-05 -7.32915258195E-01 +6.46583651121E-01
1.03500000000E+09 -6.01669696540E-01 +7.30410476648E-01 -4.78969760056E-06 +2.00344064222E-05 -3.14361746742E-05 +4.22975740591E-05 -7.28980182255E-01 +6.50609795897E-01
1.04000000000E+09 -5.97894890265E-01 +7.32946761752E-01 -3.37345261421E-05 +1.51373410606E-05 -1.09718900675E-05 +8.41226482578E-06 -7.25161264771E-01 +6.54399923256E-01
1.04500000000E+09 -5.92740211413E-01 +7.36342669200E-01 +3.20483653998E-05 +5.88673462906E-05 -2.94438611961E-06 -4.12013531991E-06 -7.21558442078E-01 +6.57732732627E-01
1.05000000000E+09 -5.85527080552E-01 +7.40399852274E-01 +6.38978895876E-05 +6.20373219908E-05 -1.27325094144E-05 -1.87507637962E-06 -7.18108433373E-01 +6.61197882809E-01
1.05500000000E+09 -5.76841088013E-01 +7.45054644993E-01 +2.41254702295E-05 +3.36776153281E-05 -9.28927593158E-06 +7.48191757614E-06 -7.14922677100E-01 +6.64732073195E-01
1.06000000000E+09 -5.67597115926E-01 +7.50310734700E-01 +5.23517077349E-05 -9.37346505639E-06 -6.84787858446E-06 +2.74880340471E-05 -7.11690802107E-01 +6.68749442843E-01
1.06500000000E+09 -5.58917783206E-01 +7.55761182328E-01 +1.12436436663E-05 +2.30458429687E-05 -2.39990819244E-05 +9.43939238774E-05 -7.07751876298E-01 +6.72428540788E-01
1.07000000000E+09 -5.51055802870E-01 +7.60308294557E-01 +2.28884305017E-05 +4.83706972369E-05 +3.52700392646E-05 +3.96044887277E-05 -7.03768021281E-01 +6.76255079049E-01
1.07500000000E+09 -5.44752467864E-01 +7.64433789772E-01 +3.06368171118E-06 +3.62856014138E-05 -2.22729171727E-05 +2.76113230972E-05 -6.99329001225E-01 +6.79847263919E-01
1.08000000000E+09 -5.40491298725E-01 +7.67746401551E-01 +1.27959224029E-05 +6.58856430632E-05 +3.45965612584E-05 +2.52780993473E-05 -6.95507173855E-01 +6.83614967020E-01
1.08500000000E+09 -5.37664147367E-01 +7.70190022184E-01 -3.55503995173E-05 -7.91735181222E-06 +3.65378290514E-05 +3.32855046706E-05 -6.91686330429E-01 +6.87412392158E-01
1.09000000000E+09 -5.35516461384E-01 +7.72097572691E-01 +1.13017313275E-05 +1.80900441689E-05 +5.31037918548E-05 -1.94219827568E-05 -6.88044284235E-01 +6.91169899297E-01
1.09500000000E+09 -5.33878443967E-01 +7.73644946000E-01 +4.62127261327E-05 +5.82457796947E-06 +1.64480752009E-05 +7.19926840834E-06 -6.84173114109E-01 +6.94936009375E-01
1.10000000000E+09 -5.31121123618E-01 +7.75574868627E-01 -9.21065910353E-06 +1.81786700795E-05 +1.71644715772E-05 -3.90089806664E-06 -6.80261131068E-01 +6.98810660184E-01
1.10500000000E+09 -5.27345512145E-01 +7.77982060563E-01 +4.51239256125E-05 +1.48942608612E-05 +5.27166803926E-05 -4.41499247705E-06 -6.75877370524E-01 +7.02212385846E-01
1.11000000000E+09 -5.21979611235E-01 +7.81185175356E-01 +1.93234105537E-05 -3.62625094516E-05 +2.81048928486E-05 -2.06145705502E-05 -6.71622475113E-01 +7.05727254465E-01
1.11500000000E+09 -5.15353346328E-01 +7.84958015087E-01 +2.78498305926E-05 +6.35694790117E-05 +4.23199303555E-05 +9.95216714887E-07 -6.67747740302E-01 +7.09121470306E-01
1.12000000000E+09 -5.07929123265E-01 +7.88874213133E-01 +2.36967638190E-05 +1.87046911645E-05 +2.79273007008E-05 -2.66023409494E-05 -6.63715401555E-01 +7.12748888052E-01
1.12500000000E+09 -4.99957904928E-01 +7.92948298875E-01 +2.53104328766E-05 +2.58418393384E-05 +2.76964606293E-05 +1.18859480914E-05 -6.59374787017E-01 +7.16660689291E-01
1.13000000000E+09 -4.92756517219E-01 +7.96505693565E-01 +5.95115383115E-05 -1.12544709184E-05 +2.04004151797E-05 +5.66906708895E-05 -6.55188531256E-01 +7.20505725031E-01
1.13500000000E+09 -4.86334313247E-01 +7.99308765604E-01 +7.86162283526E-05 -1.31787765214E-05 +2.89013125258E-05 +1.03841143961E-05 -6.50588276629E-01 +7.24306215111E-01
1.14000000000E+09 -4.80843449007E-01 +8.01648998982E-01 +4.63585564107E-05 -4.05930855782E-05 +7.46288381957E-06 -2.89238201304E-06 -6.45671163503E-01 +7.27725550166E-01
1.14500000000E+09 -4.76617826386E-01 +8.03157263078E-01 +4.38115255402E-05 -2.34340390291E-05 +2.60717182607E-05 -1.36897292574E-05 -6.40868777185E-01 +7.31339114859E-01
1.15000000000E+09 -4.72557771859E-01 +8.04492931059E-01 +4.20681238139E-05 -1.32307040626E-05 +8.25076010021E-05 +4.18106619314E-05 -6.36272919232E-01 +7.35080040474E-01
1.15500000000E+09 -4.68509985124E-01 +8.06073165919E-01 +6.13075849061E-05 +1.93521496096E-06 +7.68092404025E-05 +1.01928515275E-05 -6.31697524821E-01 +7.38793443890E-01
1.16000000000E+09 -4.63687118026E-01 +8.07865123667E-01 +3.06862957087E-05 +3.86739381942E-05 +3.29662415417E-05 +1.92804484270E-06 -6.26807529208E-01 +7.42647890392E-01
1.16500000000E+09 -4.57965549735E-01 +8.10592592818E-01 +2.54571026747E-05 +4.71757194225E-05 +5.39055008734E-05 -2.62027538058E-05 -6.21830211222E-01 +7.46326554248E-01
1.17000000000E+09 -4.51157952156E-01 +8.13518867708E-01 +3.10167609776E-05 -3.27780306692E-05 +6.80825940134E-05 -5.11910475700E-05 -6.16424215431E-01 +7.49650215318E-01
1.17500000000E+09 -4.43675278867E-01 +8.16975207711E-01 +8.23816642483E-05 -6.84525833568E-06 +8.94788378018E-05 -3.91518665371E-05 -6.10880905770E-01 +7.52770288038E-01
1.18000000000E+09 -4.36161344647E-01 +8.20670629027E-01 +6.23365589755E-05 -3.21094763106E-05 +7.38714637065E-05 +2.97906149580E-07 -6.05391178487E-01 +7.55902312104E-01
1.18500000000E+09 -4.28706230925E-01 +8.23863135674E-01 +7.20824229968E-05 -7.36344562855E-05 +7.17617593879E-05 -4.25576837740E-05 -5.99359822465E-01 +7.58855576189E-01
1.19000000000E+09 -4.21867989801E-01 +8.26548919936E-01 +1.15889082936E-04 -8.29925942531E-05 +8.09673999859E-05 -7.49199601361E-05 -5.93317652255E-01 +7.61346038091E-01
1.19500000000E+09 -4.16101669340E-01 +8.29027124168E-01 +3.64171390473E-05 -8.29267286991E-05 +5.44116977988E-05 -7.90093678356E-05 -5.87408895474E-01 +7.62618040583E-01
1.20000000000E+09 -4.11195990839E-01 +8.29703820557E-01 +3.15978932463E-06 -1.64759778188E-04 +4.37740844150E-05 -1.31808599097E-04 -5.82965871178E-01 +7.62867161144E-01
1.20500000000E+09 -4.06483093554E-01 +8.30712706946E-01 -4.87745080005E-05 -1.50061261824E-04 -2.44387125435E-05 -1.30547247760E-04 -5.80681572010E-01 +7.63859937045E-01
1.21000000000E+09 -4.01166281095E-01 +8.31590340770E-01 -4.67016763078E-05 -7.54289404820E-05 -5.34315060965E-05 -8.63661947660E-05 -5.78677815991E-01 +7.67026603410E-01
1.21500000000E+09 -3.94796940230E-01 +8.32993578531E-01 -7.33809986782E-05 -2.41280113785E-05 -1.30571798490E-04 -6.87486782265E-05 -5.75815289729E-01 +7.71610708332E-01
1.22000000000E+09 -3.86775311734E-01 +8.34790467846E-01 -6.58187073986E-05 -8.59399186567E-05 -5.26266012094E-05 -5.38000754539E-05 -5.71499026535E-01 +7.77088292758E-01
1.22500000000E+09 -3.77408598148E-01 +8.37431169697E-01 -4.82123222902E-05 -2.53015069555E-05 -3.35458123919E-05 -5.70967431919E-05 -5.66375505908E-01 +7.82108874408E-01
1.23000000000E+09 -3.67067356947E-01 +8.40619590922E-01 -2.83486429543E-05 -8.68107750495E-05 -1.08096768914E-04 -5.63244220626E-05 -5.60749227102E-01 +7.86825266232E-01
1.23500000000E+09 -3.56446636927E-01 +8.44362871280E-01 -1.90719820506E-05 -6.91982282660E-05 -6.66459939983E-05 -4.92824815872E-05 -5.54932285875E-01 +7.91014743286E-01
1.24000000000E+09 -3.46094423979E-01 +8.48408062154E-01 -2.42166140430E-05 -2.89175824138E-05 -4.31972932767E-05 -3.17047687495E-05 -5.49015596319E-01 +7.94891665873E-01
1.24500000000E+09 -3.36908602205E-01 +8.52356564981E-01 -7.97801807474E-05 -7.90780470196E-05 -3.76727465966E-05 -4.99410860400E-05 -5.42656400442E-01 +7.98749742332E-01
1.25000000000E+09 -3.28904166094E-01 +8.55659582242E-01 -8.80312129454E-05 -7.65485768853E-05 -6.33412705320E-05 -5.03491224364E-05 -5.36226358855E-01 +8.02867601832E-01
1.25500000000E+09 -3.22233690959E-01 +8.57665657814E-01 -8.59920100665E-05 -3.80524913108E-05 -6.17873273940E-05 -6.23264928311E-05 -5.29368412722E-01 +8.06960919865E-01
1.26000000000E+09 -3.16646972610E-01 +8.59085467738E-01 -1.05486264892E-04 -2.61280526130E-05 -1.16066510236E-04 +8.65442272064E-06 -5.22823696358E-01 +8.11153100274E-01
1.26500000000E+09 -3.11569537654E-01 +8.59713622309E-01 -7.99561045340E-05 +3.65908081230E-05 -7.63765220728E-05 -1.24627575298E-05 -5.15762640679E-01 +8.14980869395E-01
1.27000000000E+09 -3.05892337275E-01 +8.60126273667E-01 -5.06113428380E-05 -2.74906458375E-05 -8.13695063419E-05 -6.28531455316E-06 -5.08886952125E-01 +8.18682505803E-01
1.27500000000E+09 -2.98821847753E-01 +8.60818178135E-01 -4.17656914592E-05 -4.77789010245E-06 -5.49431954209E-05 +6.85580530854E-07 -5.01853389644E-01 +8.22275499411E-01
1.28000000000E+09 -2.89934574735E-01 +8.62042809473E-01 -8.80482907838E-05 +1.04521998474E-05 -4.10942390776E-05 -6.06156400532E-06 -4.94783885752E-01 +8.25798048613E-01
1.28500000000E+09 -2.79001962859E-01 +8.63631219214E-01 -6.05188113730E-05 +1.99996707806E-05 -5.90042316398E-05 -1.76612873132E-05 -4.87172272391E-01 +8.29656675884E-01
1.29000000000E+09 -2.67160869087E-01 +8.66108403441E-01 -5.74877764812E-05 -3.12885615395E-05 -9.66467875040E-05 -3.48769716030E-05 -4.79596962108E-01 +8.33406446237E-01
1.29500000000E+09 -2.54631945552E-01 +8.69389704712E-01 -5.72279073510E-05 -3.00913521345E-05 -3.03061195044E-05 +1.50896330448E-05 -4.71697428002E-01 +8.36963232265E-01
1.30000000000E+09 -2.42140209980E-01 +8.73049619281E-01 -7.40208151846E-05 +1.70786026311E-05 -4.82749029265E-05 -1.82458571697E-05 -4.63692910493E-01 +8.40526048637E-01
1.30500000000E+09 -2.30967300843E-01 +8.76113295616E-01 -5.19337660483E-05 +1.83410763113E-05 -9.22517783955E-05 +1.78229719313E-05 -4.55703793727E-01 +8.43896117308E-01
1.31000000000E+09 -2.21294842819E-01 +8.78369610236E-01 -8.02399587366E-05 +3.09851706318E-05 -4.20936434364E-05 +1.41472885533E-05 -4.47411101588E-01 +8.47211291259E-01
1.31500000000E+09 -2.13698919658E-01 +8.79635480087E-01 -9.38322230595E-05 -1.73644098574E-05 -7.25414328801E-05 -9.52597752235E-06 -4.38675601185E-01 +8.50860967321E-01
1.32000000000E+09 -2.07498626850E-01 +8.79743816449E-01 -9.27564026903E-05 -2.51104200194E-05 -5.13853016141E-05 -4.60662595841E-05 -4.29529236085E-01 +8.54201935034E-01
1.32500000000E+09 -2.01642457444E-01 +8.79306276614E-01 -1.00674409916E-04 +1.36843507029E-05 -1.27438696129E-04 -2.35900822263E-05 -4.20030601896E-01 +8.57517062638E-01
1.33000000000E+09 -1.94959484847E-01 +8.78229520484E-01 -1.95120120108E-04 -7.70071527225E-06 -1.62161520587E-04 -1.28715187583E-05 -4.10435203910E-01 +8.60766110092E-01
1.33500000000E+09 -1.86515413440E-01 +8.77246371598E-01 -2.14713359908E-04 +1.50052196207E-05 -2.40758875144E-04 +3.22482996278E-05 -4.00693699710E-01 +8.63837242523E-01
1.34000000000E+09 -1.75567580285E-01 +8.76411121050E-01 -2.49858266923E-04 +1.25549213935E-04 -2.08835792121E-04 +1.06574435995E-04 -3.90485879403E-01 +8.67110745623E-01
1.34500000000E+09 -1.62385516262E-01 +8.75817803806E-01 -1.99193767323E-04 +1.55060992868E-04 -1.35123797221E-04 +1.49494187484E-04 -3.79625049916E-01 +8.70386870044E-01
1.35000000000E+09 -1.47167456852E-01 +8.75965721010E-01 -1.54824677457E-04 +1.45005956640E-04 -1.58169852995E-04 +1.31029534096E-04 -3.68336129594E-01 +8.73370283874E-01
1.35500000000E+09 -1.31029756513E-01 +8.76793734310E-01 -1.71433364692E-04 +2.20051715601E-04 -1.11409087077E-04 +1.82372586280E-04 -3.56689310243E-01 +8.76267218800E-01
1.36000000000E+09 -1.14762657640E-01 +8.77763548645E-01 -1.70301446117E-04 +2.52788788625E-04 -1.65490166518E-04 +2.38770138070E-04 -3.44431998768E-01 +8.78983627455E-01
1.36500000000E+09 -9.92647702614E-02 +8.78470104022E-01 -9.28156339984E-05 +3.17873079493E-04 -1.31363932105E-04 +3.28250086003E-04 -3.32364620892E-01 +8.81412990831E-01
1.37000000000E+09 -8.55937618666E-02 +8.78504232647E-01 -1.04880875694E-04 +3.50851666762E-04 -8.44974984685E-05 +2.79844492615E-04 -3.19455882509E-01 +8.83798475833E-01
1.37500000000E+09 -7.36618949991E-02 +8.77930554087E-01 +1.50595829364E-06 +4.28628732369E-04 -2.51711285291E-05 +4.12940761896E-04 -3.05583005374E-01 +8.86014009536E-01
1.38000000000E+09 -6.27831511277E-02 +8.76563509071E-01 +1.14991513772E-04 +3.46359843288E-04 +9.11523205916E-05 +3.69521906052E-04 -2.91115424128E-01 +8.88199795854E-01
1.38500000000E+09 -5.18944310531E-02 +8.74266633386E-01 +8.92274844967E-05 +3.48748826081E-04 +8.89088652008E-05 +3.64503348133E-04 -2.75571562538E-01 +8.89888368371E-01
1.39000000000E+09 -3.99080733998E-02 +8.71014898996E-01 +1.61862492545E-04 +3.19955638138E-04 +2.08966778015E-04 +3.49755823770E-04 -2.59754688323E-01 +8.91374665814E-01
1.39500000000E+09 -2.60605911769E-02 +8.67063419293E-01 +1.13041251246E-04 +3.17809837193E-04 +1.66068642124E-04 +3.26353946382E-04 -2.42880676674E-01 +8.91856940608E-01
1.40000000000E+09 -9.46081968144E-03 +8.62372487838E-01 +1.81298155228E-04 +3.03781499026E-04 +2.30120782105E-04 +2.79860582391E-04 -2.25694818619E-01 +8.92175082655E-01
1.40500000000E+09 +9.13001729130E-03 +8.57046244210E-01 +1.63314120984E-04 +3.81785696288E-04 +1.82962953917E-04 +3.59582151980E-04 -2.07221423008E-01 +8.91788936763E-01
1.41000000000E+09 +2.97528229590E-02 +8.51732389968E-01 +2.75759366219E-04 +4.27012208975E-04 +3.19765165773E-04 +4.26413455638E-04 -1.87298178251E-01 +8.91064515071E-01
1.41500000000E+09 +5.14130626140E-02 +8.45946471416E-01 +4.68937836363E-04 +4.60223651037E-04 +4.58287403125E-04 +4.32236613845E-04 -1.65934709863E-01 +8.89500286159E-01
1.42000000000E+09 +7.33675208350E-02 +8.39699810280E-01 +5.49232180634E-04 +2.57081413873E-04 +5.99916695780E-04 +3.07128845315E-04 -1.42997130998E-01 +8.86972977077E-01
1.42500000000E+09 +9.45697112678E-02 +8.32388809960E-01 +4.33000826049E-04 +2.23670354898E-04 +4.98870664644E-04 +2.39110751823E-04 -1.19523064888E-01 +8.83069453958E-01
1.43000000000E+09 +1.14461533782E-01 +8.23640751054E-01 +6.40466397293E-04 +3.36482547849E-04 +7.18882038523E-04 +2.71380769875E-04 -9.49729986464E-02 +8.78481980922E-01
1.43500000000E+09 +1.33437165051E-01 +8.13297982181E-01 +7.76224995646E-04 +1.46808410574E-04 +8.05984745333E-04 +3.93974249535E-05 -6.87266354786E-02 +8.71873442896E-01
1.44000000000E+09 +1.52920683113E-01 +8.01157407687E-01 +6.65289887845E-04 -2.42894144282E-05 +6.54069943811E-04 -1.55037950023E-06 -4.06983014913E-02 +8.63485767410E-01
1.44500000000E+09 +1.73547557580E-01 +7.85715686430E-01 +7.95618279827E-04 +6.55413802456E-05 +7.91501549432E-04 +1.36830272950E-05 -1.03867788605E-02 +8.52341079833E-01
1.45000000000E+09 +1.95796559524E-01 +7.67155007934E-01 +8.38800628824E-04 -2.99323223673E-05 +8.91632736018E-04 -1.09520721048E-04 +2.14989302234E-02 +8.37673070601E-01
1.45500000000E+09 +2.20660450946E-01 +7.44887813727E-01 +1.06777086638E-03 -1.34412446922E-04 +1.04650784479E-03 -2.12759950173E-04 +5.49010973511E-02 +8.20038857498E-01
1.46000000000E+09 +2.48140977333E-01 +7.18647086131E-01 +1.31049228037E-03 -4.33261192053E-04 +1.23976914931E-03 -5.36966625457E-04 +8.91379517589E-02 +7.98309090325E-01
1.46500000000E+09 +2.77003663516E-01 +6.88451416498E-01 +1.25042381207E-03 -9.85926528865E-04 +1.10369681032E-03 -9.66652912887E-04 +1.24976289396E-01 +7.71535355365E-01
1.47000000000E+09 +3.07035073080E-01 +6.54241821303E-01 +9.68671574556E-04 -1.13778325875E-03 +8.91375052523E-04 -1.14523974085E-03 +1.61342472295E-01 +7.38599698125E-01
1.47500000000E+09 +3.35959777319E-01 +6.15475323118E-01 +6.91777218995E-04 -1.42983890582E-03 +7.47371567459E-04 -1.32209695621E-03 +1.99110273690E-01 +6.98409433665E-01
1.48000000000E+09 +3.62450535569E-01 +5.70938921309E-01 +6.28163483501E-04 -1.42399886920E-03 +6.54623433784E-04 -1.40948429735E-03 +2.35958567547E-01 +6.48806439263E-01
1.48500000000E+09 +3.83626296223E-01 +5.20907723301E-01 +6.03823782122E-04 -1.91260839387E-03 +5.56897065794E-04 -1.96493299340E-03 +2.69967693296E-01 +5.89984744359E-01
1.49000000000E+09 +3.99841714999E-01 +4.64158728969E-01 -9.77895629691E-07 -2.39445119805E-03 -9.22909118449E-05 -2.42080980473E-03 +2.98352342846E-01 +5.20681619108E-01
1.49500000000E+09 +4.08128849949E-01 +3.99849555325E-01 -5.80611853537E-04 -2.48775946496E-03 -6.10831573054E-04 -2.35727370237E-03 +3.17305643093E-01 +4.41128337988E-01
1.50000000000E+09 +4.07509940842E-01 +3.27227350923E-01 -1.32149654389E-03 -3.10897533626E-03 -1.27797450383E-03 -2.86484007353E-03 +3.23011208601E-01 +3.51450987663E-01
1.50500000000E+09 +3.95208346499E-01 +2.46343699960E-01 -3.15322548104E-03 -2.27861079697E-03 -2.90764843700E-03 -2.29158943328E-03 +3.11793816888E-01 +2.55286962067E-01
1.51000000000E+09 +3.67153472060E-01 +1.60144583135E-01 -3.25519006338E-03 -6.33882628449E-04 -3.16620468986E-03 -7.35709425725E-04 +2.80618539850E-01 +1.54384564328E-01
1.51500000000E+09 +3.22425293562E-01 +7.44130623303E-02 -3.11932972818E-03 -8.68783645872E-06 -3.16282217015E-03 -1.14911607770E-04 +2.26204585812E-01 +5.61394772508E-02
1.52000000000E+09 +2.60016412803E-01 -5.92252541584E-03 -3.01234490167E-03 +8.65234140118E-04 -3.09496227839E-03 +8.63119924415E-04 +1.49292859841E-01 -3.07491744543E-02
1.52500000000E+09 +1.80884394020E-01 -7.35616721158E-02 -2.07711132155E-03 +1.70187375070E-03 -2.09878834670E-03 +1.68272665314E-03 +5.42137535583E-02 -9.94579708952E-02
1.53000000000E+09 +8.64560328918E-02 -1.22753135473E-01 -1.80980336610E-03 +1.13488957936E-03 -1.81296074039E-03 +1.17744274705E-03 -5.36769453045E-02 -1.45415179585E-01
1.53500000000E+09 -1.69295800147E-02 -1.47866698654E-01 -2.33642380705E-03 +1.94316290197E-03 -2.33182439329E-03 +1.99132532289E-03 -1.67028001419E-01 -1.65288285093E-01
1.54000000000E+09 -1.22832212921E-01 -1.47120704512E-01 -1.42821660056E-03 +3.02345940716E-03 -1.44210094461E-03 +3.01137831243E-03 -2.76528386500E-01 -1.61076919705E-01
1.54500000000E+09 -2.23408592066E-01 -1.23536851565E-01 +4.91514140105E-05 +3.08371345239E-03 -9.84205617392E-06 +3.07581025950E-03 -3.75146879599E-01 -1.37299676534E-01
1.55000000000E+09 -3.13408017764E-01 -8.29421241686E-02 +7.63126660479E-04 +2.75628204298E-03 +6.56029498037E-04 +2.77815534824E-03 -4.61769541204E-01 -9.95711605812E-02
1.55500000000E+09 -3.91374354953E-01 -3.17380532839E-02 +1.63228661484E-03 +2.14426662420E-03 +1.59522690035E-03 +2.25986305526E-03 -5.32920275485E-01 -5.00673429770E-02
1.56000000000E+09 -4.56050184178E-01 +2.60549227191E-02 +1.85436401798E-03 +1.09927757980E-03 +1.92346851664E-03 +1.20198948156E-03 -5.88904532702E-01 +3.47506017312E-03
1.56500000000E+09 -5.05164424978E-01 +8.55832631460E-02 +1.50705309156E-03 +4.59563693770E-04 +1.57529301970E-03 +5.07822147066E-04 -6.33318017445E-01 +5.95238266197E-02
1.57000000000E+09 -5.42563266321E-01 +1.42696920367E-01 +1.27796283128E-03 +3.35938672471E-04 +1.36822176306E-03 +3.43257162390E-04 -6.65912443514E-01 +1.14961811931E-01
