# Hz S RI R 50
! CMT, C1220, 16058040, 17.2.0/1
! Date: 14/08/2018 12:29:30
! Data: Format (Calibration Info)
! Freq                      S11: Re/Im (F2)                       S21: Re/Im (F2)                       S12: Re/Im (F2)                       S22: Re/Im (F2)            
1.00000000000E+09 -6.26165601260E-01 +7.08363239956E-01 -2.22155920905E-05 -3.91774230128E-05 -3.76111765186E-05 +3.83314517833E-05 -7.52833373950E-01 +6.24229223330E-01
1.00500000000E+09 -6.19069552409E-01 +7.13433980059E-01 -5.03179699851E-06 +1.59272071477E-06 -4.86999039057E-05 +3.77076360205E-06 -7.49243116879E-01 +6.28447880902E-01
1.01000000000E+09 -6.13290725223E-01 +7.17958725104E-01 -5.19232250957E-06 +4.62997122540E-05 +2.37425007544E-06 -3.99264117406E-06 -7.45647237957E-01 +6.32063634170E-01
1.01500000000E+09 -6.08889232009E-01 +7.21807923998E-01 -1.76398302602E-05 -5.66667989838E-06 -9.47229321602E-06 +1.58372294271E-05 -7.42483795620E-01 +6.35611446767E-01
1.02000000000E+09 -6.06150081178E-01 +7.24824610237E-01 -4.30933267291E-06 +2.54999679530E-05 +4.48518301615E-05 -3.09948106480E-05 -7.39250129643E-01 +6.39052137881E-01
1.02500000000E+09 -6.04165620242E-01 +7.27449609250E-01 -2.34057211027E-05 -2.04211784197E-07 +1.14023812569E-05 -1.66084813747E-05 -7.36460405796E-01 +6.42774345714E-01
1.03000000000E+09 -6.02842211219E-01 +7.29699077201E-01 -2.98453588196E-05 -5.85258911442E-06 -5.08631225541E-06 +2.01685063709E-05 -7.32992173732E-01 +6.46623560352E-01
1.03500000000E+09 -6.00518503604E-01 +7.31735084153E-01 -1.53778943643E-05 +2.42861193673E-05 -1.43192081624E-05 -2.62472217503E-07 -7.29105767408E-01 +6.50534504390E-01
1.04000000000E+09 -5.96964879225E-01 +7.34257091437E-01 -4.24309982002E-05 -9.11970509320E-06 -1.28250108917E-05 +5.46926765077E-06 -7.25269446710E-01 +6.54165422954E-01
1.04500000000E+09 -5.91803795133E-01 +7.37557551673E-01 +2.63730791272E-05 +7.42908626724E-06 +1.00238100154E-06 +2.86342742685E-05 -7.21765591499E-01 +6.57879034637E-01
1.05000000000E+09 -5.84763044952E-01 +7.41761246538E-01 +1.29346476610E-05 +9.16091811133E-05 -1.01555727806E-05 +3.13172494685E-05 -7.18308356526E-01 +6.61144272730E-01
1.05500000000E+09 -5.76149422084E-01 +7.46352099225E-01 -2.52976917331E-05 +3.41461086773E-05 +2.54586874728E-05 +2.52241573656E-05 -7.15039321158E-01 +6.64625453585E-01
1.06000000000E+09 -5.66929971350E-01 +7.51680751345E-01 +2.48823320814E-06 -4.75233740382E-05 -3.01221433387E-06 +4.10438828801E-05 -7.11794756327E-01 +6.68531111803E-01
1.06500000000E+09 -5.58071837850E-01 +7.56881046628E-01 -3.07413479103E-05 +6.87949033777E-05 +3.25218349031E-05 +4.54790370868E-05 -7.07888473399E-01 +6.72556313087E-01
1.07000000000E+09 -5.50225265357E-01 +7.61558244636E-01 +2.42946615710E-05 +3.72895979582E-05 +3.51238448685E-05 -5.76419616076E-05 -7.03894081698E-01 +6.76146939384E-01
1.07500000000E+09 -5.43941129839E-01 +7.65645214596E-01 -8.65516782292E-06 +7.45459474780E-06 -2.30019014362E-05 +4.91425152490E-05 -6.99491516528E-01 +6.79893350631E-01
1.08000000000E+09 -5.39535564153E-01 +7.68928074619E-01 +2.03444056433E-06 +4.97052618407E-05 +3.07036703359E-05 +5.13348335529E-05 -6.95624372028E-01 +6.83696528037E-01
1.08500000000E+09 -5.36661108097E-01 +7.71317007116E-01 +1.06764003960E-05 +5.70719156904E-05 +6.54565228717E-06 +3.33091243854E-05 -6.91674334081E-01 +6.87202602826E-01
1.09000000000E+09 -5.34520736950E-01 +7.73205887111E-01 +7.33103798264E-05 +1.13699540409E-05 +2.97310438712E-05 +4.06225890433E-05 -6.88120360424E-01 +6.91062242801E-01
1.09500000000E+09 -5.32939510890E-01 +7.74732345820E-01 +2.32468398778E-05 +3.28324080191E-05 +1.69181360031E-05 +5.07260904378E-06 -6.84387739752E-01 +6.94914173595E-01
1.10000000000E+09 -5.30179809954E-01 +7.76598356429E-01 +2.93456595476E-05 +2.46185946914E-05 -7.27410960238E-06 -3.00102166830E-06 -6.80472466856E-01 +6.98680528702E-01
1.10500000000E+09 -5.26311376888E-01 +7.79122350412E-01 +4.29594384953E-05 +2.17665280279E-05 +4.72424489864E-05 -1.97351524390E-05 -6.76093288359E-01 +7.02309032861E-01
1.11000000000E+09 -5.20880377847E-01 +7.82090381318E-01 -1.55536008280E-06 +1.40300448085E-06 +3.54215621751E-05 +2.27331574063E-05 -6.71822911058E-01 +7.05681162090E-01
1.11500000000E+09 -5.14042219592E-01 +7.85869763808E-01 +5.66564037044E-06 +2.46655510263E-05 +3.48447806199E-05 +2.09414393515E-05 -6.68000271586E-01 +7.09027729708E-01
1.12000000000E+09 -5.06512516914E-01 +7.89794153402E-01 +3.94280985091E-05 +5.99869883932E-05 +2.62610513533E-05 -3.14432789919E-05 -6.63858143751E-01 +7.12582022608E-01
1.12500000000E+09 -4.98535057954E-01 +7.93946898630E-01 +2.64449033152E-05 +2.09646558346E-05 +1.23035098344E-05 +9.72122850780E-05 -6.59628313614E-01 +7.16613605774E-01
1.13000000000E+09 -4.91016614689E-01 +7.97619716529E-01 +5.67356496671E-05 +1.69331556184E-05 +2.92924063554E-05 +1.27412647739E-05 -6.55284500635E-01 +7.20417271509E-01
1.13500000000E+09 -4.84554106779E-01 +8.00368380174E-01 +4.69709941285E-05 +1.02106969881E-05 +1.87350436806E-05 -4.47997786146E-05 -6.50652278365E-01 +7.24191491026E-01
1.14000000000E+09 -4.79123422779E-01 +8.02820005600E-01 +2.63643078798E-05 +7.28013545984E-06 +5.70190064144E-05 +5.12900539080E-05 -6.45799011749E-01 +7.27788394217E-01
1.14500000000E+09 -4.74884470044E-01 +8.04095188109E-01 +4.23786474451E-05 +2.11280750625E-05 +4.37428314771E-05 -5.67272121753E-05 -6.41077865096E-01 +7.31277730725E-01
1.15000000000E+09 -4.71057976136E-01 +8.05681589320E-01 +6.10345503199E-05 -4.14165935120E-06 +6.15111965081E-05 -2.13524297618E-06 -6.36435876795E-01 +7.34998557321E-01
1.15500000000E+09 -4.67309891335E-01 +8.07114520687E-01 +5.14520428819E-05 -2.08590303587E-05 +5.91510414539E-05 +8.45949739715E-06 -6.31668187227E-01 +7.38728974875E-01
1.16000000000E+09 -4.62614662413E-01 +8.08764527984E-01 +5.71265628149E-05 -4.18292901689E-05 +5.21037153413E-05 -1.52556064190E-05 -6.27076616128E-01 +7.42646125497E-01
1.16500000000E+09 -4.56896117432E-01 +8.11399572543E-01 +3.46844224203E-05 -1.29721391651E-05 +6.71897941018E-05 -9.86028703486E-07 -6.21948275853E-01 +7.46269227042E-01
1.17000000000E+09 -4.50110094042E-01 +8.14312395247E-01 +7.10124376434E-05 -1.10201331457E-05 +5.02644520955E-05 -4.09643639179E-05 -6.16597909365E-01 +7.49514958049E-01
1.17500000000E+09 -4.42632059724E-01 +8.17737782023E-01 +5.30634498774E-05 -6.57825219112E-05 +9.16345949525E-05 -5.07994689144E-05 -6.10905922098E-01 +7.52814179927E-01
1.18000000000E+09 -4.34854759103E-01 +8.21340549250E-01 +7.18197614811E-05 -2.89103743184E-05 +7.82834742729E-05 -9.10776914186E-05 -6.05387443305E-01 +7.55904485920E-01
1.18500000000E+09 -4.27114544101E-01 +8.24679853495E-01 +3.30910486148E-05 -2.91326195952E-05 +2.86068398792E-05 -5.49972551979E-05 -5.99439512572E-01 +7.58760922565E-01
1.19000000000E+09 -4.19901049242E-01 +8.27336945121E-01 +4.26009008765E-05 -5.62081687213E-05 +6.28077777921E-05 -8.25746693583E-05 -5.93395465468E-01 +7.61412752993E-01
1.19500000000E+09 -4.13882495279E-01 +8.29235605913E-01 +8.35836661246E-05 -1.02870893968E-04 +7.96036169150E-05 -1.02466254008E-04 -5.87497873078E-01 +7.62583164300E-01
1.20000000000E+09 -4.08690516622E-01 +8.29897721416E-01 +2.71653258153E-05 -1.35164901724E-04 +7.07798368329E-06 -1.39431962566E-04 -5.83069627825E-01 +7.62815470261E-01
1.20500000000E+09 -4.03860922429E-01 +8.30859914791E-01 -9.22467360709E-05 -1.39792458753E-04 -2.34537911382E-05 -9.28602613516E-05 -5.80869266947E-01 +7.63721241004E-01
1.21000000000E+09 -3.98931980770E-01 +8.31844320475E-01 -8.23464283637E-05 -6.55439383723E-05 -6.44442565990E-05 -6.23825560380E-05 -5.78824659539E-01 +7.67003991523E-01
1.21500000000E+09 -3.92606538150E-01 +8.33117075075E-01 -3.88619987311E-05 -3.72977662884E-05 -5.89406342873E-05 -5.21206502148E-05 -5.75903537422E-01 +7.71617327359E-01
1.22000000000E+09 -3.84778787117E-01 +8.34884498021E-01 -3.37166503757E-05 -1.36182324602E-05 -4.84809180461E-05 -8.60261426046E-05 -5.71550289293E-01 +7.76851830661E-01
1.22500000000E+09 -3.75553121236E-01 +8.37531167971E-01 -1.34524956531E-05 -6.50060894864E-05 -1.90155032050E-05 -5.82038543240E-05 -5.66459142657E-01 +7.82080427823E-01
1.23000000000E+09 -3.65302686365E-01 +8.40687326268E-01 -3.30234412315E-05 -7.94790276608E-05 -2.58436116483E-05 -8.47304064268E-06 -5.60791222640E-01 +7.86732043081E-01
1.23500000000E+09 -3.54868713242E-01 +8.44322797393E-01 -2.62052756661E-05 -4.13189907696E-05 -4.60447976488E-05 -7.11048911706E-05 -5.55027594640E-01 +7.90994214018E-01
1.24000000000E+09 -3.44685934839E-01 +8.48224367897E-01 -4.05106378785E-05 -7.50529442132E-05 -9.70506885109E-05 -6.97622089150E-05 -5.49046148382E-01 +7.94764429936E-01
1.24500000000E+09 -3.35479696044E-01 +8.52168681330E-01 -8.39015830447E-05 -8.56488130965E-05 -6.10863579919E-05 -5.04524795468E-05 -5.42730741770E-01 +7.98643218355E-01
1.25000000000E+09 -3.27433651218E-01 +8.55587599147E-01 -6.87523526971E-05 -1.40531433316E-05 -9.58329154713E-05 -1.04159087955E-04 -5.36361708969E-01 +8.02913013750E-01
1.25500000000E+09 -3.20562603839E-01 +8.57715303444E-01 -5.36798183468E-05 -2.08915764149E-05 -1.01346642408E-04 -6.80843959142E-05 -5.29529329082E-01 +8.06812820322E-01
1.26000000000E+09 -3.14764033494E-01 +8.58982096975E-01 -7.12597699083E-05 -1.52754653036E-05 -9.76037438693E-05 -2.97761481643E-05 -5.22882277928E-01 +8.10932158405E-01
1.26500000000E+09 -3.09481154949E-01 +8.59597219323E-01 -1.21375820196E-04 -1.40420431885E-05 -8.96414994493E-05 +5.54296872555E-06 -5.15953346939E-01 +8.14673298800E-01
1.27000000000E+09 -3.03552815225E-01 +8.60045113544E-01 -6.96324182491E-05 -1.45353819158E-05 -6.08390432931E-05 -2.93432768892E-05 -5.09035393276E-01 +8.18589825482E-01
1.27500000000E+09 -2.96382817696E-01 +8.60590617782E-01 -7.30094467946E-05 +1.04311304514E-05 -5.93578328418E-05 -1.87956964989E-05 -5.01957772324E-01 +8.22170255315E-01
1.28000000000E+09 -2.87314409791E-01 +8.61589788718E-01 -9.00534436173E-05 -2.65713498406E-05 -1.03956026370E-04 +2.56062256915E-05 -4.94766796991E-01 +8.25576934601E-01
1.28500000000E+09 -2.76303569437E-01 +8.63320124919E-01 -7.52651496947E-05 +2.30636319523E-05 -1.13960111674E-04 +3.67336868655E-06 -4.87308877521E-01 +8.29531372198E-01
1.29000000000E+09 -2.64457664429E-01 +8.65637530830E-01 -1.14265222250E-04 +8.87586762690E-06 -1.11268463026E-04 +1.20984689872E-05 -4.79809166056E-01 +8.33144029636E-01
1.29500000000E+09 -2.51989297372E-01 +8.68920202917E-01 -8.37782822867E-05 -7.82505956406E-06 -8.86003041391E-05 +1.34551182519E-06 -4.71899157046E-01 +8.36812736472E-01
1.30000000000E+09 -2.39802690870E-01 +8.72568419938E-01 -8.58119287603E-05 +2.83420022398E-05 -1.41137974259E-04 +1.12780713858E-05 -4.63999000375E-01 +8.40195769152E-01
1.30500000000E+09 -2.28547704872E-01 +8.75857532478E-01 -1.13507411967E-04 +6.33639837830E-05 -1.33334805676E-04 +5.48269937886E-05 -4.55907612189E-01 +8.43670766684E-01
1.31000000000E+09 -2.18948196216E-01 +8.78164016013E-01 -9.17339548260E-05 +5.79537876630E-05 -8.77880288925E-05 +4.29933577375E-05 -4.47665188193E-01 +8.47194650557E-01
1.31500000000E+09 -2.11379076738E-01 +8.79432785518E-01 -1.21745273857E-04 +6.32472125902E-07 -9.84664107762E-05 +2.33879494776E-05 -4.38779008951E-01 +8.50590793579E-01
1.32000000000E+09 -2.05156505407E-01 +8.79679289007E-01 -1.38820903943E-04 +1.77210971264E-05 -1.45557691457E-04 +6.18936797452E-05 -4.29830308635E-01 +8.53865303337E-01
1.32500000000E+09 -1.99621955691E-01 +8.78909680979E-01 -1.25610974111E-04 +1.09252238880E-05 -1.18742662799E-04 +2.45372282739E-05 -4.20305607792E-01 +8.57256033596E-01
1.33000000000E+09 -1.93119214249E-01 +8.78029373775E-01 -1.45205694483E-04 +7.36914369509E-05 -1.89944470584E-04 +5.86821511633E-05 -4.10719672710E-01 +8.60457112948E-01
1.33500000000E+09 -1.84759919307E-01 +8.76900037733E-01 -2.00993425772E-04 +9.11952981591E-05 -1.66692528770E-04 +1.58118994243E-04 -4.01234384727E-01 +8.63663170283E-01
1.34000000000E+09 -1.73908962804E-01 +8.76118727109E-01 -1.86947756137E-04 +1.59790898259E-04 -1.46771198266E-04 +1.41295672009E-04 -3.91019569210E-01 +8.66870322305E-01
1.34500000000E+09 -1.60664352062E-01 +8.75500240801E-01 -1.34367403068E-04 +2.20512711899E-04 -1.52505395829E-04 +1.80120869964E-04 -3.80210079607E-01 +8.70345761400E-01
1.35000000000E+09 -1.45451878342E-01 +8.75671594824E-01 -1.36731809322E-04 +1.97210362420E-04 -1.09478349316E-04 +1.93947092888E-04 -3.68862954447E-01 +8.73314807519E-01
1.35500000000E+09 -1.29082847563E-01 +8.76434271186E-01 -1.32255539754E-04 +2.26333474016E-04 -8.74060109586E-05 +2.11840143569E-04 -3.57256542591E-01 +8.76241806318E-01
1.36000000000E+09 -1.12507606728E-01 +8.77551988207E-01 -1.71520113053E-04 +2.82711751325E-04 -1.66630871580E-04 +2.35939512191E-04 -3.45109256157E-01 +8.79010878860E-01
1.36500000000E+09 -9.67586939536E-02 +8.78342519907E-01 -1.21177930658E-04 +3.60047027466E-04 -1.29946044790E-04 +2.98097470325E-04 -3.33063586209E-01 +8.81274234477E-01
1.37000000000E+09 -8.26346680130E-02 +8.78444073568E-01 -6.83701007058E-05 +3.73474792240E-04 -1.15250001659E-04 +3.09673663719E-04 -3.20225708320E-01 +8.83765235246E-01
1.37500000000E+09 -7.07008996179E-02 +8.77791052998E-01 +2.12825290517E-05 +4.50926701751E-04 -4.46609275077E-05 +4.35221789969E-04 -3.06582880975E-01 +8.85975905015E-01
1.38000000000E+09 -5.99342406358E-02 +8.76530593912E-01 +9.35609157956E-05 +3.99357085450E-04 +6.91342406347E-05 +4.56375781531E-04 -2.91961758829E-01 +8.88232820386E-01
1.38500000000E+09 -4.89582729593E-02 +8.74397505367E-01 +1.47241772325E-04 +4.16708975829E-04 +1.64692519253E-04 +4.45730265997E-04 -2.76448657363E-01 +8.90022660147E-01
1.39000000000E+09 -3.72022819271E-02 +8.71089191136E-01 +2.12828365359E-04 +3.72021691692E-04 +2.18388452375E-04 +4.31648066826E-04 -2.60608613571E-01 +8.91671014327E-01
1.39500000000E+09 -2.35445813672E-02 +8.67108765198E-01 +1.77774534005E-04 +3.47191107912E-04 +2.52631920184E-04 +3.80808997928E-04 -2.43891848200E-01 +8.92334696914E-01
1.40000000000E+09 -7.21080585067E-03 +8.62294391664E-01 +2.18578937533E-04 +3.85820731518E-04 +2.93995482268E-04 +4.38142098397E-04 -2.26521574989E-01 +8.92701116119E-01
1.40500000000E+09 +1.12404122154E-02 +8.57271541528E-01 +3.69693226032E-04 +4.33226372133E-04 +4.23856951971E-04 +4.28550448980E-04 -2.08209280051E-01 +8.92485707111E-01
1.41000000000E+09 +3.17874995278E-02 +8.52008732563E-01 +4.59759293356E-04 +4.33101793272E-04 +4.44189013227E-04 +3.95526206960E-04 -1.88238398650E-01 +8.91906243948E-01
1.41500000000E+09 +5.36037408237E-02 +8.46448449951E-01 +5.94690574194E-04 +3.32375537024E-04 +5.96483520999E-04 +3.81295257053E-04 -1.66717230235E-01 +8.90403495109E-01
1.42000000000E+09 +7.59658754123E-02 +8.40554776593E-01 +6.72544884655E-04 +1.53287971200E-04 +7.26079974849E-04 +2.28035872621E-04 -1.43949507991E-01 +8.87838571815E-01
1.42500000000E+09 +9.77546532963E-02 +8.33364375518E-01 +5.70620346310E-04 +2.26326940879E-04 +7.05119287289E-04 +2.17812680304E-04 -1.20273901033E-01 +8.84346922590E-01
1.43000000000E+09 +1.18195886056E-01 +8.24689060482E-01 +8.02464515566E-04 +2.24103413711E-04 +8.80328611050E-04 +1.55975232670E-04 -9.55537457095E-02 +8.79713656838E-01
1.43500000000E+09 +1.37675917747E-01 +8.14426507306E-01 +9.03567496742E-04 -3.24746941903E-06 +9.38978214031E-04 -1.16953895792E-04 -6.93434391106E-02 +8.73202733412E-01
1.44000000000E+09 +1.57506515726E-01 +8.02206541959E-01 +9.65597206358E-04 -2.08626598981E-04 +8.99541973785E-04 -2.87557951684E-04 -4.13830141339E-02 +8.65110648841E-01
1.44500000000E+09 +1.78534995555E-01 +7.86990190882E-01 +9.46577724516E-04 -2.98848543085E-04 +9.15218535892E-04 -3.50571781280E-04 -1.08617194704E-02 +8.53920950540E-01
1.45000000000E+09 +2.01481429842E-01 +7.68282114311E-01 +9.21628312926E-04 -4.30117186350E-04 +9.09786421107E-04 -4.79154177507E-04 +2.12379049412E-02 +8.39672379667E-01
1.45500000000E+09 +2.26615318614E-01 +7.46061976632E-01 +9.46805628138E-04 -5.25314783828E-04 +9.19813668830E-04 -6.42581497327E-04 +5.49292946482E-02 +8.22393755540E-01
1.46000000000E+09 +2.54726945757E-01 +7.19592311117E-01 +1.08049180161E-03 -7.18946521023E-04 +9.72351299853E-04 -7.73185855839E-04 +8.99267460343E-02 +8.00985466820E-01
1.46500000000E+09 +2.84387934669E-01 +6.89391563188E-01 +1.18549230656E-03 -1.19954345329E-03 +1.02460560414E-03 -1.19191820484E-03 +1.26293754961E-01 +7.74217227827E-01
1.47000000000E+09 +3.15338967225E-01 +6.54934373688E-01 +7.62178114262E-04 -1.55013339720E-03 +7.20247891477E-04 -1.40216177402E-03 +1.63301967565E-01 +7.41243751268E-01
1.47500000000E+09 +3.45671956274E-01 +6.15285991256E-01 +5.03052301604E-04 -1.87063977734E-03 +5.39682338750E-04 -1.76768936295E-03 +2.01720536360E-01 +7.00688451250E-01
1.48000000000E+09 +3.73267992149E-01 +5.69805020541E-01 +8.60366855120E-05 -1.77843459215E-03 +6.55791855060E-05 -1.74623843418E-03 +2.38982266573E-01 +6.50666797444E-01
1.48500000000E+09 +3.95832994510E-01 +5.18523348806E-01 +1.68160780566E-04 -1.94168334589E-03 +7.77375465816E-05 -2.01219533500E-03 +2.73638788877E-01 +5.91550482502E-01
1.49000000000E+09 +4.12790618196E-01 +4.59930073849E-01 -4.48868887506E-04 -2.40840195934E-03 -5.21712598494E-04 -2.32477976667E-03 +3.02991565655E-01 +5.21540349124E-01
1.49500000000E+09 +4.21861080556E-01 +3.93338187784E-01 -9.40259649945E-04 -2.49231917694E-03 -9.38801989228E-04 -2.37400820056E-03 +3.22391172766E-01 +4.40836691264E-01
1.50000000000E+09 +4.21269319438E-01 +3.17535487785E-01 -1.87155141761E-03 -2.93046639725E-03 -1.78152273689E-03 -2.83114178602E-03 +3.28471408288E-01 +3.49662581674E-01
1.50500000000E+09 +4.07882837341E-01 +2.33172320030E-01 -3.53727175021E-03 -2.23417734521E-03 -3.28258240901E-03 -2.25080158570E-03 +3.16689951213E-01 +2.51973199516E-01
1.51000000000E+09 +3.78099608664E-01 +1.43513998140E-01 -3.73219142014E-03 -4.88224597755E-04 -3.69965002382E-03 -6.09968607800E-04 +2.85289384853E-01 +1.49357094730E-01
1.51500000000E+09 +3.30175486583E-01 +5.44469306081E-02 -3.62290340549E-03 +1.24489054892E-04 -3.62861820786E-03 -1.26681741480E-05 +2.28879198989E-01 +4.93286223729E-02
1.52000000000E+09 +2.63734456885E-01 -2.83770163723E-02 -3.99111627637E-03 +1.32532890960E-03 -4.04567544104E-03 +1.26732309216E-03 +1.49836961638E-01 -3.79673317776E-02
1.52500000000E+09 +1.79693852311E-01 -9.79199730840E-02 -2.64370324424E-03 +2.72708292667E-03 -2.69235414353E-03 +2.75488115395E-03 +5.25226589262E-02 -1.06842173405E-01
1.53000000000E+09 +7.92308226868E-02 -1.46990472374E-01 -1.76068142710E-03 +2.32673902869E-03 -1.78494354542E-03 +2.42258514486E-03 -5.76637640312E-02 -1.51592095100E-01
1.53500000000E+09 -2.99411132343E-02 -1.68808919001E-01 -2.01379920841E-03 +2.85370969095E-03 -1.98385854156E-03 +2.79891334353E-03 -1.72396445283E-01 -1.69698310786E-01
1.54000000000E+09 -1.38859276091E-01 -1.63466047784E-01 -8.56772262463E-04 +3.82388011788E-03 -8.68051004492E-04 +3.76539964578E-03 -2.82427841582E-01 -1.63705600704E-01
1.54500000000E+09 -2.41160385932E-01 -1.35286395649E-01 +7.10982012483E-04 +3.64567169613E-03 +5.72506153481E-04 +3.64115685338E-03 -3.81307925831E-01 -1.38065355612E-01
1.55000000000E+09 -3.31973457200E-01 -8.99765053956E-02 +1.60843969584E-03 +3.03931437520E-03 +1.53813321213E-03 +3.16694066477E-03 -4.67193381819E-01 -9.85655605136E-02
1.55500000000E+09 -4.09399328052E-01 -3.36849269972E-02 +2.38789231662E-03 +2.15317680703E-03 +2.35511723183E-03 +2.34312230430E-03 -5.37788256428E-01 -4.82236264489E-02
1.56000000000E+09 -4.72241186952E-01 +2.79468947630E-02 +2.42299427310E-03 +8.80455859070E-04 +2.54384066361E-03 +1.00586162147E-03 -5.92758299985E-01 +6.60626793711E-03
1.56500000000E+09 -5.19545780031E-01 +8.98920737247E-02 +1.92573141843E-03 +2.60744833409E-04 +2.00471202713E-03 +3.21722599853E-04 -6.35981631798E-01 +6.29507999086E-02
1.57000000000E+09 -5.55200259341E-01 +1.49088147657E-01 +1.62678484847E-03 +1.09147670226E-04 +1.70978149870E-03 +8.13530839484E-05 -6.67456052281E-01 +1.18754980939E-01
