# Hz S RI R 50
! CMT, C1220, 16058040, 17.2.0/1
! Date: 14/08/2018 12:31:43
! Data: Format (Calibration Info)
! Freq                      S11: Re/Im (F2)                       S21: Re/Im (F2)                       S12: Re/Im (F2)                       S22: Re/Im (F2)            
1.00000000000E+09 -6.31935042407E-01 +7.07209854203E-01 -3.67292317087E-06 -3.10097532558E-05 -2.03400468948E-05 +9.94691279079E-06 -7.53467056801E-01 +6.23721281893E-01
1.00500000000E+09 -6.24818240386E-01 +7.12214986842E-01 -3.96290229517E-05 +9.69155812832E-06 -2.52105845692E-05 -4.12355117572E-05 -7.49750499317E-01 +6.27865178549E-01
1.01000000000E+09 -6.18576242341E-01 +7.16773192851E-01 -4.85348600503E-06 +4.79013384879E-05 -1.04261401429E-05 +2.99695383672E-05 -7.46304309256E-01 +6.31532316764E-01
1.01500000000E+09 -6.13795838239E-01 +7.20607156852E-01 +1.21150643299E-05 +1.17171696382E-05 +2.48187161488E-05 -2.73587945797E-05 -7.43074545825E-01 +6.35200301918E-01
1.02000000000E+09 -6.10257457661E-01 +7.24213200153E-01 -2.21218744763E-05 +2.65041543676E-05 +8.48886454163E-06 -3.36836002724E-05 -7.39700931054E-01 +6.38463472845E-01
1.02500000000E+09 -6.07686603010E-01 +7.27199685743E-01 -6.15096476482E-06 +1.02821157317E-06 +3.13689478842E-05 -1.22593263145E-05 -7.36985132024E-01 +6.42245002548E-01
1.03000000000E+09 -6.05644708267E-01 +7.29757663083E-01 -2.93979329706E-06 +7.40561054168E-06 +5.14895241078E-05 +2.13916196010E-05 -7.33391271550E-01 +6.46112955714E-01
1.03500000000E+09 -6.02837129520E-01 +7.32154905139E-01 -5.14539983026E-06 +5.32363591545E-05 +9.07844220689E-06 -5.51726085527E-05 -7.29700154339E-01 +6.49926004871E-01
1.04000000000E+09 -5.99157036798E-01 +7.34912399113E-01 -2.13902639028E-05 -2.87364922709E-05 -3.45331901654E-05 +7.05554729202E-05 -7.25850290782E-01 +6.53586640388E-01
1.04500000000E+09 -5.93801847698E-01 +7.38007372819E-01 -2.99128891701E-05 +2.66867803116E-06 -2.79891090444E-05 -3.29472939356E-05 -7.22400890046E-01 +6.57092216372E-01
1.05000000000E+09 -5.87208187017E-01 +7.42019967336E-01 -7.44081162132E-05 +3.28732799227E-05 +7.92143912063E-06 +7.94014568219E-05 -7.19083930797E-01 +6.60487548636E-01
1.05500000000E+09 -5.79217949326E-01 +7.46477873043E-01 +4.11708005573E-05 -5.03041718208E-06 -4.22290816708E-05 +3.98940203335E-05 -7.15597555691E-01 +6.64119691687E-01
1.06000000000E+09 -5.70812054399E-01 +7.51149296735E-01 -4.99544578865E-05 +2.08731449188E-05 +4.77504222938E-06 +3.86630870459E-05 -7.12431729700E-01 +6.67875300895E-01
1.06500000000E+09 -5.62618526503E-01 +7.55983912738E-01 +6.78095659340E-08 +3.67509627297E-05 +3.31537806014E-06 +2.44187685526E-05 -7.08534711149E-01 +6.71818080647E-01
1.07000000000E+09 -5.55476911686E-01 +7.60360219701E-01 +4.67152782861E-06 +3.24585154127E-05 +1.48638929745E-05 +2.02592780770E-05 -7.04448424815E-01 +6.75490902432E-01
1.07500000000E+09 -5.49771700177E-01 +7.64367548140E-01 +4.22635479408E-05 +8.28271767567E-05 +3.51332404902E-07 +2.20554630281E-05 -7.00124845464E-01 +6.79288463203E-01
1.08000000000E+09 -5.45437538325E-01 +7.67718391239E-01 -1.00414079082E-05 +2.22004944885E-05 +5.24395818119E-05 +1.33829827190E-05 -6.96204383038E-01 +6.83169536500E-01
1.08500000000E+09 -5.42565217563E-01 +7.70415982350E-01 +1.52185676729E-05 +1.37573331648E-05 +4.04894385698E-06 +3.84869595179E-05 -6.92297748694E-01 +6.86753715019E-01
1.09000000000E+09 -5.39969232227E-01 +7.72555800181E-01 +4.23005384042E-05 +1.23300068686E-05 -3.14089004896E-07 -3.43141696673E-05 -6.88571041778E-01 +6.90478281126E-01
1.09500000000E+09 -5.37695920168E-01 +7.74462037408E-01 +3.80951934303E-06 +3.33504033409E-06 +1.18422464668E-05 +5.12063135744E-05 -6.84989279254E-01 +6.94213175961E-01
1.10000000000E+09 -5.34172681695E-01 +7.76734005035E-01 +5.56454584947E-06 +1.14310939478E-05 +1.65307906020E-05 +3.62389320499E-05 -6.80926858906E-01 +6.98197856672E-01
1.10500000000E+09 -5.29687282581E-01 +7.79224028241E-01 +4.47947661748E-05 +8.06970191053E-06 +5.51821634365E-05 +1.41433061102E-05 -6.76663810399E-01 +7.01642897781E-01
1.11000000000E+09 -5.23732243865E-01 +7.82500405805E-01 -6.18363561773E-06 +3.35238351394E-05 +1.12593141378E-05 +1.08645801249E-05 -6.72514672680E-01 +7.05069128521E-01
1.11500000000E+09 -5.16558118353E-01 +7.86253130526E-01 +4.62427883567E-05 +4.90303045658E-06 +3.89831198889E-05 +3.40426863736E-05 -6.68495441347E-01 +7.08249690007E-01
1.12000000000E+09 -5.08868338747E-01 +7.90074051976E-01 +5.08661723098E-06 +5.56562280938E-05 +3.29447906068E-05 +2.85809373923E-05 -6.64566672719E-01 +7.11948119226E-01
1.12500000000E+09 -5.01182941366E-01 +7.94112997083E-01 +2.12047446878E-05 -1.75318414949E-05 +5.64761822605E-05 +5.04024253688E-05 -6.60315266952E-01 +7.16017690121E-01
1.13000000000E+09 -4.94354901558E-01 +7.97546755266E-01 -8.33898778040E-06 +1.10125573220E-05 +4.00636937217E-05 +2.43517053523E-05 -6.55968197962E-01 +7.19673470917E-01
1.13500000000E+09 -4.88278821649E-01 +8.00459651501E-01 +5.10927440576E-05 +2.56804097628E-05 +2.24833148214E-05 +3.49816184358E-05 -6.51376094358E-01 +7.23589454591E-01
1.14000000000E+09 -4.83490397097E-01 +8.02763241194E-01 +5.94716605378E-05 -2.69235276822E-05 +7.08386716152E-05 -1.09644552107E-05 -6.46414347002E-01 +7.27212912751E-01
1.14500000000E+09 -4.79881237696E-01 +8.04319163155E-01 +1.45442634808E-05 -9.46892284607E-06 +9.24882189291E-05 -1.30810920891E-05 -6.41836349664E-01 +7.30645728764E-01
1.15000000000E+09 -4.76291138325E-01 +8.05733531497E-01 +2.25239704489E-05 +2.60381687826E-05 +8.36416454383E-05 +2.18477341927E-05 -6.37223848445E-01 +7.34304810058E-01
1.15500000000E+09 -4.72651873498E-01 +8.07414083499E-01 +5.24635735999E-05 +6.68937594881E-07 +4.46474468719E-05 -2.37667278650E-05 -6.32512194782E-01 +7.38209194285E-01
1.16000000000E+09 -4.68068411201E-01 +8.08974243614E-01 +7.13288599156E-05 +4.73790754079E-06 +5.77300823963E-05 +1.23718660621E-06 -6.27751861196E-01 +7.41959107620E-01
1.16500000000E+09 -4.62415443528E-01 +8.11498837307E-01 +1.92760986211E-05 -1.89522647553E-06 +8.30604756146E-05 -1.25445593777E-05 -6.22717874748E-01 +7.45531477201E-01
1.17000000000E+09 -4.55278050635E-01 +8.14516146118E-01 +5.23597194614E-05 -2.51043971574E-05 +9.71378555368E-05 -3.37541292564E-05 -6.17369458044E-01 +7.48964874366E-01
1.17500000000E+09 -4.47171052302E-01 +8.17721442090E-01 +7.42750779728E-05 -3.33824031210E-05 +9.41309983844E-05 -3.60267639021E-05 -6.11837611083E-01 +7.52189038397E-01
1.18000000000E+09 -4.38952115090E-01 +8.21297938315E-01 +5.09578510882E-05 -8.46368585454E-05 +7.06086623442E-05 -7.46709079934E-05 -6.06215881953E-01 +7.55277389767E-01
1.18500000000E+09 -4.30859707357E-01 +8.24604083053E-01 +5.63718875858E-05 -6.10849751144E-05 +6.51379789757E-05 -7.11570364980E-05 -6.00477305885E-01 +7.58263952439E-01
1.19000000000E+09 -4.23735688485E-01 +8.27384510854E-01 +9.13015919945E-05 -1.18556749009E-04 +6.07366860857E-05 -1.08935704268E-04 -5.94301855150E-01 +7.60969522364E-01
1.19500000000E+09 -4.17414992814E-01 +8.29398129469E-01 +8.52109980268E-05 -1.52735592332E-04 +4.70614430328E-05 -7.55627866983E-05 -5.88515815507E-01 +7.62079206306E-01
1.20000000000E+09 -4.12417803411E-01 +8.30356293314E-01 +1.04606643913E-05 -1.29833820051E-04 -2.86622845002E-05 -1.09224167051E-04 -5.83790376034E-01 +7.62269956736E-01
1.20500000000E+09 -4.07899420660E-01 +8.31516439178E-01 -6.32804087810E-05 -1.00195195894E-04 -2.41349554936E-05 -1.42055772378E-04 -5.81537180216E-01 +7.63156754249E-01
1.21000000000E+09 -4.03151846445E-01 +8.32499502235E-01 -3.40601718051E-05 -1.51401435637E-04 -8.49561439559E-05 -1.32689733720E-04 -5.79501476561E-01 +7.66263433661E-01
1.21500000000E+09 -3.97182889638E-01 +8.33794482921E-01 -4.07981484714E-05 +5.34839766852E-07 -4.15617704575E-06 -7.03199515392E-05 -5.76653777692E-01 +7.70913409678E-01
1.22000000000E+09 -3.90061954772E-01 +8.35424823349E-01 -4.55211171517E-05 -6.86367972934E-05 -2.87865114182E-05 -3.93346330314E-05 -5.72472531990E-01 +7.76512134671E-01
1.22500000000E+09 -3.81217996798E-01 +8.37714191392E-01 -5.12125908711E-06 -1.25444898818E-05 -9.59747070504E-06 -3.92931872970E-05 -5.67389719911E-01 +7.81467295086E-01
1.23000000000E+09 -3.71150496515E-01 +8.40469940691E-01 -1.91115196887E-05 -5.20350393438E-05 -1.85548662064E-05 -6.16789855445E-05 -5.61754732909E-01 +7.86138628676E-01
1.23500000000E+09 -3.60910277813E-01 +8.44024744726E-01 -4.72740535267E-05 -2.87758463291E-05 -2.49893951910E-05 -4.00379501648E-05 -5.55895746008E-01 +7.90356557345E-01
1.24000000000E+09 -3.50791199991E-01 +8.47836743733E-01 -6.72681195715E-05 -7.83679802573E-05 -8.15293016698E-05 -8.17273466945E-05 -5.49943999532E-01 +7.94355065730E-01
1.24500000000E+09 -3.41520197835E-01 +8.51771607051E-01 -4.48430467393E-05 -5.36701009010E-05 -2.32346719395E-05 -8.23569773952E-05 -5.43739239408E-01 +7.98087709765E-01
1.25000000000E+09 -3.33372916551E-01 +8.55430422831E-01 -6.91714991574E-05 -1.13601967058E-04 -3.20632077758E-05 -7.38674447781E-05 -5.37161685828E-01 +8.02333059761E-01
1.25500000000E+09 -3.26254911042E-01 +8.57866133489E-01 -7.41938964312E-05 -3.97301392282E-05 -9.27909094341E-05 -3.61242978471E-05 -5.30419160233E-01 +8.06214410927E-01
1.26000000000E+09 -3.20112485537E-01 +8.59596857399E-01 -9.32729998429E-05 -6.13266338262E-05 -8.21574939597E-05 -4.18589033780E-05 -5.23874252700E-01 +8.10546242859E-01
1.26500000000E+09 -3.14409657199E-01 +8.60443415673E-01 -7.19673560743E-05 -1.75623486936E-05 -9.04150169113E-05 -3.82795653394E-05 -5.16872188796E-01 +8.14497870119E-01
1.27000000000E+09 -3.08377821252E-01 +8.61117083919E-01 -5.71836098638E-05 -9.01259581093E-06 -5.32745520509E-05 -1.59426436295E-06 -5.09934856937E-01 +8.18131943688E-01
1.27500000000E+09 -3.01113451415E-01 +8.61807887629E-01 -4.79855998035E-05 +1.96532988779E-06 -7.36754527700E-05 -9.16060769218E-05 -5.02837054651E-01 +8.21842403541E-01
1.28000000000E+09 -2.91946865596E-01 +8.62618270760E-01 -6.62827047135E-05 +1.64988130583E-05 -6.03469322123E-05 -3.52926183101E-05 -4.95716156150E-01 +8.25357902048E-01
1.28500000000E+09 -2.81041888832E-01 +8.63937604307E-01 -3.19465682331E-05 +5.09485096094E-06 -1.20957472848E-04 -3.22148010079E-05 -4.88178179143E-01 +8.29062510261E-01
1.29000000000E+09 -2.69340892442E-01 +8.65836521424E-01 -4.90461613993E-05 -1.77583444047E-05 -9.07908263836E-05 +1.22531124536E-05 -4.80567793552E-01 +8.32937478324E-01
1.29500000000E+09 -2.57333408513E-01 +8.68413485523E-01 -4.62091508531E-05 +1.44907166720E-05 -4.90779695019E-05 -2.27363554080E-05 -4.72732269471E-01 +8.36389545358E-01
1.30000000000E+09 -2.45560434831E-01 +8.71788329893E-01 -1.17166539432E-04 -2.12002162090E-05 -8.12803471240E-05 +7.04932587074E-06 -4.64878219374E-01 +8.39902321497E-01
1.30500000000E+09 -2.34864871882E-01 +8.75083358163E-01 -7.42930429589E-05 -1.87744455752E-05 -1.19342774828E-04 +3.97775964074E-05 -4.56888154757E-01 +8.43406652971E-01
1.31000000000E+09 -2.25637033291E-01 +8.77644995529E-01 -8.04399435243E-05 +4.37137411584E-05 -9.89712704674E-05 +4.21424213780E-05 -4.48469929714E-01 +8.46906226244E-01
1.31500000000E+09 -2.18094895704E-01 +8.79568918113E-01 -6.67854012250E-05 +5.62768929341E-06 -9.51536027483E-05 -1.65406226249E-05 -4.39791810710E-01 +8.50242852326E-01
1.32000000000E+09 -2.11832117429E-01 +8.80310317313E-01 -6.45314557855E-05 +1.68391085168E-05 -1.21301082544E-04 -1.73487838766E-06 -4.30726111300E-01 +8.53693962901E-01
1.32500000000E+09 -2.06147382503E-01 +8.80195659293E-01 -1.32192307248E-04 +1.03715484019E-05 -1.58248811753E-04 +2.21279900446E-05 -4.21169084420E-01 +8.57080902857E-01
1.33000000000E+09 -1.99332388147E-01 +8.79783046951E-01 -1.86889381544E-04 -7.71921057263E-06 -1.52026870940E-04 -2.33319393993E-05 -4.11683758026E-01 +8.60320809697E-01
1.33500000000E+09 -1.90683538170E-01 +8.78803540799E-01 -1.67815186017E-04 +1.64940854625E-05 -1.99706603670E-04 +2.78527415993E-05 -4.01982987624E-01 +8.63460955227E-01
1.34000000000E+09 -1.79635182347E-01 +8.77767883431E-01 -1.68929646670E-04 +7.94321024918E-05 -1.79212380063E-04 +1.39651668562E-04 -3.91778607859E-01 +8.66740557479E-01
1.34500000000E+09 -1.66144789356E-01 +8.76900569564E-01 -1.63032769722E-04 +1.72593938658E-04 -1.88190378428E-04 +2.01183611663E-04 -3.80823908837E-01 +8.70002647212E-01
1.35000000000E+09 -1.50944010746E-01 +8.76535171352E-01 -1.38432711033E-04 +1.50075027346E-04 -1.90253134880E-04 +1.18010498222E-04 -3.69619710720E-01 +8.73131839482E-01
1.35500000000E+09 -1.34608437854E-01 +8.76652061172E-01 -1.31486958503E-04 +1.97915035528E-04 -1.60070147191E-04 +1.82228420158E-04 -3.57839637418E-01 +8.76028719851E-01
1.36000000000E+09 -1.18353843868E-01 +8.77389331393E-01 -1.99932108782E-04 +2.18891839826E-04 -1.97196575751E-04 +1.84960264743E-04 -3.45870014793E-01 +8.78662135175E-01
1.36500000000E+09 -1.02629238631E-01 +8.78080077183E-01 -1.54251474260E-04 +3.21874724166E-04 -1.29695646473E-04 +2.82597305738E-04 -3.33682190107E-01 +8.81080837154E-01
1.37000000000E+09 -8.87623762916E-02 +8.78377719738E-01 -1.50974716570E-04 +3.25582672369E-04 -1.14987104849E-04 +2.90167325849E-04 -3.20801091766E-01 +8.83500192455E-01
1.37500000000E+09 -7.67834680956E-02 +8.78045974433E-01 -4.25054049062E-05 +4.11157141528E-04 -4.98613203674E-05 +4.08888963986E-04 -3.07062850323E-01 +8.85741574774E-01
1.38000000000E+09 -6.59973556141E-02 +8.77011168199E-01 +8.89410405050E-05 +3.86133390692E-04 -1.29733753194E-05 +4.45838741112E-04 -2.92422594209E-01 +8.87805153639E-01
1.38500000000E+09 -5.52102276468E-02 +8.75243228674E-01 +5.69823491254E-05 +3.83299465657E-04 +1.06163866446E-04 +4.23582711428E-04 -2.76948178459E-01 +8.89527683778E-01
1.39000000000E+09 -4.35696193551E-02 +8.72447134437E-01 +1.21344824971E-04 +3.69040550699E-04 +1.06867560585E-04 +4.11748935627E-04 -2.61220083109E-01 +8.90965770818E-01
1.39500000000E+09 -2.99584392968E-02 +8.68808472859E-01 +1.23510959726E-04 +3.42113249318E-04 +1.91708484598E-04 +3.69955649811E-04 -2.44303656644E-01 +8.91802366476E-01
1.40000000000E+09 -1.37057134197E-02 +8.64272844379E-01 +1.42454698314E-04 +4.13253950022E-04 +1.97799986280E-04 +4.16494127230E-04 -2.27005700005E-01 +8.92063768021E-01
1.40500000000E+09 +4.74257000685E-03 +8.59086197762E-01 +2.26227494304E-04 +5.08336768520E-04 +2.61121999380E-04 +4.60102252750E-04 -2.08636520221E-01 +8.91733791511E-01
1.41000000000E+09 +2.49978283675E-02 +8.53656376403E-01 +3.88127560439E-04 +4.53263564043E-04 +3.47741742212E-04 +4.44728921929E-04 -1.88649301857E-01 +8.91039338306E-01
1.41500000000E+09 +4.66785601874E-02 +8.47880333557E-01 +4.99875832194E-04 +4.66682664123E-04 +5.16159651160E-04 +4.72665871951E-04 -1.67243251108E-01 +8.89407375429E-01
1.42000000000E+09 +6.88088101080E-02 +8.41948249031E-01 +6.38453694062E-04 +2.46087403929E-04 +6.87321567856E-04 +2.77490371249E-04 -1.44718226519E-01 +8.86679720337E-01
1.42500000000E+09 +9.05787010296E-02 +8.34701978819E-01 +4.98380808497E-04 +1.76804965956E-04 +5.92077253157E-04 +2.25703512584E-04 -1.21001122569E-01 +8.83063345029E-01
1.43000000000E+09 +1.11028095279E-01 +8.26102294239E-01 +7.17554804579E-04 +2.76578634760E-04 +8.35599569666E-04 +2.31724049510E-04 -9.63643623910E-02 +8.78313957508E-01
1.43500000000E+09 +1.30476616324E-01 +8.15931497461E-01 +8.54503281041E-04 +5.35101326567E-05 +8.40735743345E-04 -4.82738435099E-05 -7.04443774465E-02 +8.71732342326E-01
1.44000000000E+09 +1.50147938021E-01 +8.03925615972E-01 +7.93020090132E-04 -4.96543576803E-05 +7.77534990666E-04 -9.68337205132E-05 -4.26299561649E-02 +8.63528118726E-01
1.44500000000E+09 +1.70910451302E-01 +7.88964753862E-01 +8.63741624150E-04 -1.19558678828E-04 +8.72126536763E-04 -1.30212355623E-04 -1.23330885760E-02 +8.52387328200E-01
1.45000000000E+09 +1.93366584120E-01 +7.70599872550E-01 +8.23978737662E-04 -2.79139603132E-04 +8.76093613846E-04 -3.03263226976E-04 +1.95472271940E-02 +8.37791412589E-01
1.45500000000E+09 +2.18141064435E-01 +7.48812177619E-01 +9.90916252431E-04 -3.50116537033E-04 +9.73707569851E-04 -4.16499236215E-04 +5.26809762097E-02 +8.20267701031E-01
1.46000000000E+09 +2.45716435367E-01 +7.22753384116E-01 +1.09752805199E-03 -5.50968757710E-04 +9.84430777569E-04 -6.22008597860E-04 +8.70431477816E-02 +7.98865256250E-01
1.46500000000E+09 +2.74773089805E-01 +6.92965354850E-01 +1.14250358285E-03 -9.30770811826E-04 +9.91973248834E-04 -9.24828905538E-04 +1.22907544519E-01 +7.72329573628E-01
1.47000000000E+09 +3.05095064038E-01 +6.59109468797E-01 +8.48698207439E-04 -1.26719558621E-03 +8.16588470217E-04 -1.20506795561E-03 +1.59261195035E-01 +7.39432685977E-01
1.47500000000E+09 +3.35119262236E-01 +6.20329624637E-01 +5.82617987975E-04 -1.53132769491E-03 +6.44944464312E-04 -1.46000355259E-03 +1.96822563097E-01 +6.99654351593E-01
1.48000000000E+09 +3.62811567619E-01 +5.75994790587E-01 +3.20695945959E-04 -1.52927591653E-03 +3.96051131154E-04 -1.53207381575E-03 +2.33563488509E-01 +6.50353359777E-01
1.48500000000E+09 +3.85708446548E-01 +5.25864628665E-01 +2.70160931732E-04 -1.72902035368E-03 +2.67641614577E-04 -1.79567238914E-03 +2.67722827306E-01 +5.92213302905E-01
1.49000000000E+09 +4.03283616021E-01 +4.68633730127E-01 -1.36150587320E-04 -2.12593902982E-03 -2.36464411327E-04 -2.10844898711E-03 +2.96581141766E-01 +5.23214752070E-01
1.49500000000E+09 +4.13294331097E-01 +4.03776822605E-01 -4.60001933670E-04 -2.22730646254E-03 -5.56590954900E-04 -2.10190756564E-03 +3.15713671779E-01 +4.44081773922E-01
1.50000000000E+09 +4.14183803411E-01 +3.29763795238E-01 -1.20865421117E-03 -2.91470758158E-03 -1.17540920697E-03 -2.77349340328E-03 +3.21866766752E-01 +3.54890505366E-01
1.50500000000E+09 +4.02619784423E-01 +2.46963595884E-01 -3.06472850364E-03 -2.30626069031E-03 -2.85810473757E-03 -2.25624970272E-03 +3.11071328812E-01 +2.59470695527E-01
1.51000000000E+09 +3.75005525507E-01 +1.58542567374E-01 -3.13066055577E-03 -4.90569827967E-04 -3.06365929355E-03 -6.04320456427E-04 +2.81602548302E-01 +1.59000402117E-01
1.51500000000E+09 +3.29826580723E-01 +6.95967123758E-02 -2.79185404157E-03 -1.77981468607E-04 -2.76725331319E-03 -2.04283670608E-04 +2.28383818464E-01 +6.02427620526E-02
1.52000000000E+09 +2.65986251757E-01 -1.38017111950E-02 -3.16900041187E-03 +4.88054238666E-04 -3.13462716143E-03 +4.87272937076E-04 +1.52471494436E-01 -2.71399584572E-02
1.52500000000E+09 +1.84687922404E-01 -8.48027463740E-02 -2.41791999540E-03 +1.45583375703E-03 -2.47130401694E-03 +1.46875852451E-03 +5.81985288794E-02 -9.69040623163E-02
1.53000000000E+09 +8.69927192271E-02 -1.36527714909E-01 -2.36594919587E-03 +1.33768982341E-03 -2.34235605955E-03 +1.31316283942E-03 -4.92664427728E-02 -1.43673289627E-01
1.53500000000E+09 -2.04039733875E-02 -1.62643832415E-01 -2.58816082816E-03 +2.53242702699E-03 -2.55009675858E-03 +2.48768575568E-03 -1.62094443856E-01 -1.64726345997E-01
1.54000000000E+09 -1.29096003794E-01 -1.61001384887E-01 -1.32949466515E-03 +3.65135263638E-03 -1.28814417661E-03 +3.58251849215E-03 -2.71620315351E-01 -1.61698725358E-01
1.54500000000E+09 -2.31755091068E-01 -1.35983289906E-01 +3.99550369039E-04 +3.52843042803E-03 +3.34280838239E-04 +3.45794771764E-03 -3.70475467364E-01 -1.39222041445E-01
1.55000000000E+09 -3.23393318611E-01 -9.29326567150E-02 +1.25866700304E-03 +2.87319763660E-03 +1.10907237558E-03 +2.91968934794E-03 -4.57781862972E-01 -1.02436206965E-01
1.55500000000E+09 -4.01992782177E-01 -3.85463534771E-02 +1.93739826284E-03 +2.21970452815E-03 +1.81888907192E-03 +2.32689839730E-03 -5.29869124113E-01 -5.37770565419E-02
1.56000000000E+09 -4.66295465160E-01 +2.21741535399E-02 +2.18248327254E-03 +1.09302790840E-03 +2.23716321606E-03 +1.20891642543E-03 -5.86747058724E-01 -4.01258110713E-04
1.56500000000E+09 -5.15130624432E-01 +8.39585776380E-02 +1.86086271659E-03 +3.52551485577E-04 +1.89601236474E-03 +4.67951064929E-04 -6.31930656799E-01 +5.54152971653E-02
1.57000000000E+09 -5.52134774348E-01 +1.42881966881E-01 +1.54840370996E-03 +4.26071883187E-05 +1.63535623571E-03 +8.33001522400E-05 -6.65466524002E-01 +1.11032867778E-01
