# Hz S RI R 50
! CMT, C1220, 16058040, 17.2.0/1
! Date: 14/08/2018 12:31:18
! Data: Format (Calibration Info)
! Freq                      S11: Re/Im (F2)                       S21: Re/Im (F2)                       S12: Re/Im (F2)                       S22: Re/Im (F2)            
1.00000000000E+09 -6.28728475887E-01 +7.09890023499E-01 +1.81744842771E-05 +8.97502045977E-06 -2.38205416898E-05 +2.15156154379E-05 -7.53397516156E-01 +6.23675350006E-01
1.00500000000E+09 -6.21798761372E-01 +7.14824353193E-01 -1.96302642749E-05 +5.79283944195E-05 -2.18273005662E-05 -4.97322545122E-05 -7.49884019552E-01 +6.27829384964E-01
1.01000000000E+09 -6.15710729886E-01 +7.19416283521E-01 -1.70469563895E-05 +1.27740299003E-05 -1.06323959204E-05 -2.84392945363E-05 -7.46271270790E-01 +6.31477788556E-01
1.01500000000E+09 -6.11618428257E-01 +7.23262013180E-01 -3.84624632536E-05 +1.71381330865E-05 +1.29779213246E-06 +6.57463536964E-06 -7.43069686246E-01 +6.35083358401E-01
1.02000000000E+09 -6.08665638698E-01 +7.26349174762E-01 -8.39176194649E-05 -1.77040001215E-06 -2.53510151435E-05 +2.98353356658E-05 -7.39708025686E-01 +6.38525914552E-01
1.02500000000E+09 -6.06727406497E-01 +7.28843209155E-01 +3.33788545442E-06 +9.93133788388E-06 -3.18643305391E-05 +4.28031222469E-05 -7.37030903711E-01 +6.42265799839E-01
1.03000000000E+09 -6.05205229901E-01 +7.31079507444E-01 -4.66748408388E-05 -8.99058351573E-06 -3.14223421663E-05 +4.01913895351E-05 -7.33452066187E-01 +6.46083171486E-01
1.03500000000E+09 -6.02723603198E-01 +7.33408456923E-01 -6.17954400986E-05 -3.64315792025E-05 +1.88433628253E-05 +4.71606748388E-05 -7.29693218384E-01 +6.49940544357E-01
1.04000000000E+09 -5.99140362324E-01 +7.36053338696E-01 -4.43620559806E-06 +5.65325028275E-05 -3.76794350016E-05 +1.96401171829E-05 -7.25913937343E-01 +6.53576189405E-01
1.04500000000E+09 -5.93923527080E-01 +7.39244638804E-01 +1.13868590863E-05 +2.42493097120E-05 -7.73600107830E-05 +3.88501328025E-05 -7.22414214696E-01 +6.57215158741E-01
1.05000000000E+09 -5.86707053566E-01 +7.43383128746E-01 -4.43206289291E-06 -4.42200725387E-06 +1.75714936842E-05 -1.24047829152E-05 -7.18941820853E-01 +6.60543390145E-01
1.05500000000E+09 -5.78230647377E-01 +7.47972651129E-01 +5.66709377592E-06 +4.20162860120E-05 +2.26439255769E-05 -1.59512572114E-05 -7.15744746320E-01 +6.64149670542E-01
1.06000000000E+09 -5.69045845273E-01 +7.53139464003E-01 +1.28306748827E-05 +4.92180277948E-05 +4.87838359243E-06 +2.95653745422E-05 -7.12596464827E-01 +6.67984027747E-01
1.06500000000E+09 -5.60354662944E-01 +7.58385075648E-01 -7.01235850337E-06 +1.80251960387E-05 -1.04001079322E-06 +3.29492281288E-05 -7.08588513284E-01 +6.71857055393E-01
1.07000000000E+09 -5.52650788313E-01 +7.62920893467E-01 +1.89618544974E-05 +2.78547512559E-05 +2.76606051021E-05 +6.88772931417E-06 -7.04560528728E-01 +6.75546589134E-01
1.07500000000E+09 -5.46565407808E-01 +7.67015448344E-01 -4.70886620490E-06 +7.45830887684E-06 +1.31562303332E-05 +5.45053286998E-05 -7.00274101182E-01 +6.79120442900E-01
1.08000000000E+09 -5.42180322861E-01 +7.70154827785E-01 -6.80247580769E-06 +3.93821830109E-05 +8.97185657862E-06 +6.09234212355E-05 -6.96307159618E-01 +6.83008978448E-01
1.08500000000E+09 -5.39291428696E-01 +7.72538882720E-01 +4.28445547176E-05 -1.17646839035E-06 +4.57714313712E-05 +4.91871161987E-05 -6.92320949732E-01 +6.86758354283E-01
1.09000000000E+09 -5.37146731954E-01 +7.74489273679E-01 +1.44443233203E-05 +2.75391254954E-05 +1.44899145930E-05 +1.19603688870E-05 -6.88705993237E-01 +6.90452450758E-01
1.09500000000E+09 -5.35380522737E-01 +7.76145550993E-01 +7.83209902252E-05 +6.92827376561E-05 +7.12429849056E-05 -1.28787800011E-06 -6.84989807185E-01 +6.94273192806E-01
1.10000000000E+09 -5.32394434548E-01 +7.78095331439E-01 +3.74371863722E-06 -3.63463261027E-05 +9.43656880895E-06 +5.40293256772E-05 -6.81133556309E-01 +6.98102186948E-01
1.10500000000E+09 -5.28501940978E-01 +7.80563121606E-01 +3.41183044466E-05 -2.71173535220E-05 +1.24312994185E-05 +2.22602592733E-05 -6.76645171848E-01 +7.01639643761E-01
1.11000000000E+09 -5.23129373763E-01 +7.83488820529E-01 -9.36935035649E-06 -3.11219361634E-05 +3.62329257867E-06 +3.15957918870E-05 -6.72641438657E-01 +7.05087615819E-01
1.11500000000E+09 -5.16202738448E-01 +7.87435520138E-01 +1.56633245279E-05 -4.89822050476E-06 +2.08554654843E-05 -1.08691724827E-05 -6.68574892332E-01 +7.08331039845E-01
1.12000000000E+09 -5.08561048311E-01 +7.91124451256E-01 +6.05614976651E-05 -3.15134555930E-05 +2.57040389296E-05 +3.25954984186E-05 -6.64574985547E-01 +7.11981676714E-01
1.12500000000E+09 -5.00739397614E-01 +7.95303946819E-01 +5.39641243882E-05 -2.10774635576E-05 +3.95144081088E-05 +8.48735177873E-06 -6.60279415913E-01 +7.15860889610E-01
1.13000000000E+09 -4.93363297310E-01 +7.98835200987E-01 +4.01404195665E-05 -1.55765680546E-05 +3.35458283087E-05 -3.27467297701E-05 -6.56171973555E-01 +7.19796289637E-01
1.13500000000E+09 -4.86867949742E-01 +8.01666638953E-01 +4.10661531386E-05 +5.82909455016E-06 +7.13727895488E-05 +2.53146126760E-05 -6.51342742963E-01 +7.23655027720E-01
1.14000000000E+09 -4.81528912655E-01 +8.04088786677E-01 +2.18792649519E-05 +4.03270253644E-05 +3.60661943239E-05 -4.59914179894E-05 -6.46536178301E-01 +7.27150503045E-01
1.14500000000E+09 -4.77316614146E-01 +8.05622861425E-01 +2.94905170362E-05 -1.70344626712E-05 +6.53909625550E-05 +2.22042689978E-05 -6.41926108295E-01 +7.30600267636E-01
1.15000000000E+09 -4.73470911561E-01 +8.06933511446E-01 +7.36788970467E-05 -1.62657843876E-05 +5.09044560121E-05 +9.39213025766E-06 -6.37397819784E-01 +7.34406244541E-01
1.15500000000E+09 -4.69626266061E-01 +8.08560946830E-01 +6.47862462144E-06 -6.32724274639E-06 +6.47343214718E-05 -4.90843488302E-06 -6.32533458817E-01 +7.38078045482E-01
1.16000000000E+09 -4.64891437548E-01 +8.10197826697E-01 +6.19823886711E-05 +2.14620836613E-05 +1.47639314781E-05 -4.66846278435E-06 -6.27800603901E-01 +7.42134892611E-01
1.16500000000E+09 -4.59094511283E-01 +8.12758908529E-01 +3.80488049426E-05 +1.08853157904E-05 +6.03663067330E-05 +1.13314890467E-06 -6.22817215734E-01 +7.45676226543E-01
1.17000000000E+09 -4.52387621022E-01 +8.15681657637E-01 +2.26792582750E-05 -2.58043033304E-05 +6.85405816320E-05 -2.24434542917E-05 -6.17517754958E-01 +7.48998453470E-01
1.17500000000E+09 -4.44687399337E-01 +8.18986110539E-01 +2.79050624183E-05 -5.63193238792E-05 +2.83461327032E-05 -2.86386734181E-05 -6.11793089444E-01 +7.52215609733E-01
1.18000000000E+09 -4.36934747403E-01 +8.22592994469E-01 +4.89818659921E-05 -4.91729602343E-05 +8.13550710664E-05 -6.48903298435E-05 -6.06300601013E-01 +7.55296998520E-01
1.18500000000E+09 -4.29292838279E-01 +8.25833961149E-01 +2.67442933201E-05 -2.38725655518E-05 +4.26572653207E-05 -2.67232620613E-05 -6.00543401698E-01 +7.58278958924E-01
1.19000000000E+09 -4.22101463776E-01 +8.28441489060E-01 +2.42966431120E-05 -9.42946125871E-05 +7.01252316711E-05 -8.11696081992E-05 -5.94319900628E-01 +7.60855612360E-01
1.19500000000E+09 -4.16035844780E-01 +8.30346953742E-01 +1.88212614485E-05 -1.07764846723E-04 +5.11919690037E-05 -1.00816564343E-04 -5.88445680101E-01 +7.62131132779E-01
1.20000000000E+09 -4.11030383595E-01 +8.31223089034E-01 +4.99263211901E-06 -1.25289860943E-04 +4.57541599431E-05 -1.24097489976E-04 -5.83998966070E-01 +7.62231387917E-01
1.20500000000E+09 -4.06188416631E-01 +8.32124431072E-01 -3.52204195483E-05 -8.68501655474E-05 -2.75792808049E-05 -8.82748090387E-05 -5.81629595686E-01 +7.63088139603E-01
1.21000000000E+09 -4.01137977123E-01 +8.33021943407E-01 -2.40820832299E-05 -5.46241821230E-05 -6.50227760619E-05 -6.24613572131E-05 -5.79579576498E-01 +7.66263024388E-01
1.21500000000E+09 -3.94923423396E-01 +8.34335434203E-01 -5.65104933825E-05 -6.39347823165E-05 -5.83641026172E-05 -6.34230550138E-05 -5.76633479082E-01 +7.70992063013E-01
1.22000000000E+09 -3.87207519048E-01 +8.36053972364E-01 -1.00930516869E-05 -3.11525532386E-05 -2.37005087290E-05 -6.77866842596E-05 -5.72494122668E-01 +7.76285212825E-01
1.22500000000E+09 -3.77949057510E-01 +8.38672992059E-01 -1.54927923531E-05 -7.43483397968E-05 +3.31718572777E-05 -6.31212412316E-05 -5.67525939416E-01 +7.81463155628E-01
1.23000000000E+09 -3.67897034225E-01 +8.41791274867E-01 -5.45626050294E-05 -8.23810925732E-05 -2.18604770050E-05 -5.84488199057E-05 -5.61748485372E-01 +7.86162289625E-01
1.23500000000E+09 -3.57463859080E-01 +8.45384819604E-01 -5.96668672906E-05 -9.92271542264E-05 -4.96264877267E-05 -5.78540947415E-05 -5.56019500749E-01 +7.90538086566E-01
1.24000000000E+09 -3.47193364639E-01 +8.49303309517E-01 -5.07323569782E-05 -4.67686006056E-05 -3.92607730974E-05 -7.52377557857E-05 -5.50012590435E-01 +7.94332882310E-01
1.24500000000E+09 -3.37944355588E-01 +8.53232517902E-01 -4.10217710868E-05 -2.60750852384E-05 -7.57586937913E-05 -6.53168263482E-06 -5.43701686046E-01 +7.98080675432E-01
1.25000000000E+09 -3.30034169344E-01 +8.56433854216E-01 -5.46528579890E-05 -4.14432318445E-05 -4.25157500523E-05 -6.73054327306E-05 -5.37306731530E-01 +8.02403823989E-01
1.25500000000E+09 -3.23180304049E-01 +8.58655249427E-01 -7.78267810404E-05 -9.35587447714E-05 -1.14705904296E-04 -3.43545284660E-05 -5.30437685639E-01 +8.06347591056E-01
1.26000000000E+09 -3.17435427250E-01 +8.60041328672E-01 -1.01567283765E-04 -1.00839094120E-05 -8.44562406121E-05 -4.06195234635E-05 -5.23806349204E-01 +8.10585493855E-01
1.26500000000E+09 -3.12061209577E-01 +8.60676122078E-01 -9.07055556312E-05 -4.07011088286E-05 -9.36349099391E-05 +3.64066201905E-05 -5.16917037510E-01 +8.14375208275E-01
1.27000000000E+09 -3.06126788046E-01 +8.61030741571E-01 -7.59019222996E-05 -2.72363844784E-05 -8.63355684966E-05 -1.14898666259E-06 -5.10004002568E-01 +8.18180069074E-01
1.27500000000E+09 -2.98919241241E-01 +8.61709255793E-01 -6.40741287873E-05 -4.51342628364E-06 -1.02288683446E-05 -6.17288810540E-05 -5.02858680270E-01 +8.21766645077E-01
1.28000000000E+09 -2.89878990986E-01 +8.62785256428E-01 -9.35511673315E-05 -3.71886665026E-05 -8.82062780394E-05 -3.86897164153E-06 -4.95759772707E-01 +8.25321574273E-01
1.28500000000E+09 -2.78835339949E-01 +8.64377901054E-01 -7.33549168670E-05 +1.91397316393E-05 -6.10559933306E-05 +1.65464099441E-05 -4.88259959893E-01 +8.29169780236E-01
1.29000000000E+09 -2.66916600008E-01 +8.66708215000E-01 -7.11237332822E-05 -1.14104772825E-05 -2.92132073485E-05 -6.55784939870E-05 -4.80712612901E-01 +8.32983264543E-01
1.29500000000E+09 -2.54522563741E-01 +8.69857657935E-01 -5.70050778261E-05 -8.80072161560E-06 -1.00635510001E-04 -2.48584270225E-05 -4.72777358144E-01 +8.36422709634E-01
1.30000000000E+09 -2.42307344843E-01 +8.73369849086E-01 -9.18850995047E-05 -3.55138730333E-05 -1.09961650904E-04 +8.80259524698E-06 -4.64908898100E-01 +8.40006650521E-01
1.30500000000E+09 -2.31255261809E-01 +8.76606356082E-01 -5.84538906652E-05 +6.39309539593E-05 -6.65129304039E-05 +2.75175052039E-05 -4.56918778704E-01 +8.43466554973E-01
1.31000000000E+09 -2.21561578109E-01 +8.78980814463E-01 -5.11351912524E-05 -1.79883141552E-05 -3.53222546838E-05 +8.41802146074E-07 -4.48556738717E-01 +8.46872266482E-01
1.31500000000E+09 -2.14074163036E-01 +8.80343452225E-01 -9.15493483507E-05 +1.36426207016E-05 -7.56948792854E-05 +2.19852821170E-05 -4.39746106613E-01 +8.50259210589E-01
1.32000000000E+09 -2.07966900505E-01 +8.80546720455E-01 -1.03181058157E-04 -4.93173249632E-06 -8.48563185677E-05 -1.27105980857E-05 -4.30697457658E-01 +8.53624725710E-01
1.32500000000E+09 -2.02407149212E-01 +8.79905935018E-01 -1.03678199769E-04 +8.68113912996E-06 -1.45061569209E-04 -3.63952096162E-05 -4.21269389489E-01 +8.57148169046E-01
1.33000000000E+09 -1.95761298910E-01 +8.79093122994E-01 -1.29792099739E-04 -1.68049439687E-06 -1.36811084235E-04 +1.60509524294E-05 -4.11704594280E-01 +8.60199515845E-01
1.33500000000E+09 -1.87523359414E-01 +8.77759007473E-01 -2.03236844514E-04 +2.28163236991E-05 -1.74342149014E-04 +1.08983559318E-05 -4.01905950654E-01 +8.63437757124E-01
1.34000000000E+09 -1.76624898065E-01 +8.76836085200E-01 -2.07230700836E-04 +8.84056475487E-05 -1.49371046506E-04 +1.13271418212E-04 -3.91816299705E-01 +8.66740438722E-01
1.34500000000E+09 -1.63308415362E-01 +8.76151679121E-01 -1.27387033555E-04 +1.11933435208E-04 -1.62763055389E-04 +9.49767282865E-05 -3.80891821936E-01 +8.70071806766E-01
1.35000000000E+09 -1.48208575463E-01 +8.76013238019E-01 -1.14307145330E-04 +1.12236743965E-04 -1.26261100724E-04 +1.13498788230E-04 -3.69675657291E-01 +8.73050729091E-01
1.35500000000E+09 -1.31873075471E-01 +8.76683240884E-01 -1.53572245698E-04 +1.53090081746E-04 -1.66636265078E-04 +1.77655471100E-04 -3.57980393118E-01 +8.75996088374E-01
1.36000000000E+09 -1.15370804450E-01 +8.77781026597E-01 -2.39027712094E-04 +1.98744074996E-04 -1.73580871986E-04 +1.74951704223E-04 -3.45917092369E-01 +8.78778408262E-01
1.36500000000E+09 -9.96032402145E-02 +8.78417928821E-01 -2.00094686511E-04 +2.97610123018E-04 -1.58804528205E-04 +2.41695695520E-04 -3.33748746862E-01 +8.81138244024E-01
1.37000000000E+09 -8.56207086880E-02 +8.78553610779E-01 -1.51944361190E-04 +3.05632365706E-04 -1.47714049597E-04 +2.75985548019E-04 -3.20706665536E-01 +8.83492356367E-01
1.37500000000E+09 -7.35372517604E-02 +8.77877010954E-01 -7.57804606209E-05 +3.83716730065E-04 -8.89035331416E-05 +3.64554630058E-04 -3.06933709205E-01 +8.85578020230E-01
1.38000000000E+09 -6.27624191060E-02 +8.76532952692E-01 +6.04971268064E-05 +3.54694744736E-04 -1.09516070308E-05 +3.98260185870E-04 -2.92484739808E-01 +8.87810750279E-01
1.38500000000E+09 -5.18881773433E-02 +8.74242498619E-01 +6.50297089113E-05 +3.83334139359E-04 +4.50384020726E-05 +3.76857172930E-04 -2.76806712535E-01 +8.89584648146E-01
1.39000000000E+09 -4.02521027296E-02 +8.71069211025E-01 +1.28306655217E-04 +3.22710147873E-04 +1.35989378929E-04 +3.88410485678E-04 -2.61271371101E-01 +8.91023203627E-01
1.39500000000E+09 -2.66331927951E-02 +8.67183796124E-01 +9.24298424180E-05 +3.41047143532E-04 +1.75716049973E-04 +3.31083892961E-04 -2.44444362030E-01 +8.91730301063E-01
1.40000000000E+09 -1.05190507752E-02 +8.62339892766E-01 +1.39192199304E-04 +3.84264009118E-04 +1.83919989314E-04 +3.63899521909E-04 -2.27038372289E-01 +8.91983113086E-01
1.40500000000E+09 +7.80119335471E-03 +8.57167031077E-01 +1.75243652802E-04 +4.25012557252E-04 +1.87493870972E-04 +4.26180449245E-04 -2.08677526411E-01 +8.91769991203E-01
1.41000000000E+09 +2.81986115122E-02 +8.51832908683E-01 +3.19445639726E-04 +4.31615274152E-04 +3.49221986321E-04 +4.52879312693E-04 -1.88702431805E-01 +8.90885844413E-01
1.41500000000E+09 +4.96792426083E-02 +8.46050999000E-01 +4.73006873144E-04 +4.19394763468E-04 +4.42054177484E-04 +4.61186939274E-04 -1.67409780219E-01 +8.89359456102E-01
1.42000000000E+09 +7.17088770568E-02 +8.39918355518E-01 +6.07182494064E-04 +2.27495023209E-04 +6.01167369407E-04 +2.66218766108E-04 -1.44621866219E-01 +8.86663176142E-01
1.42500000000E+09 +9.32860449215E-02 +8.32801773535E-01 +4.94411368012E-04 +1.99611508512E-04 +4.95217448521E-04 +2.00476157989E-04 -1.21088098723E-01 +8.82983024680E-01
1.43000000000E+09 +1.13542270004E-01 +8.23944215776E-01 +6.29618122346E-04 +2.73510038583E-04 +7.01134912941E-04 +2.46129710932E-04 -9.65313852635E-02 +8.78301439278E-01
1.43500000000E+09 +1.32937687731E-01 +8.13530066026E-01 +7.68396878318E-04 +3.72465526544E-05 +7.58101465777E-04 +9.68938316192E-06 -7.04934151580E-02 +8.71720803056E-01
1.44000000000E+09 +1.52753349499E-01 +8.01256669728E-01 +6.80122751432E-04 -3.57473157887E-05 +6.83010647431E-04 -9.39730237001E-05 -4.25939776079E-02 +8.63372987062E-01
1.44500000000E+09 +1.73353965540E-01 +7.85869397751E-01 +7.73453394229E-04 -2.00930335647E-05 +7.72732381167E-04 -4.39319357905E-05 -1.24570571579E-02 +8.52379176385E-01
1.45000000000E+09 +1.95719924025E-01 +7.67163819916E-01 +8.09649471539E-04 -1.84539145413E-04 +8.08650173301E-04 -2.13921751107E-04 +1.93915394150E-02 +8.37928539356E-01
1.45500000000E+09 +2.20328225756E-01 +7.45130789903E-01 +8.70418669595E-04 -1.76235450614E-04 +8.89326653597E-04 -3.15762266864E-04 +5.27370102349E-02 +8.20360118329E-01
1.46000000000E+09 +2.47628882621E-01 +7.18767518448E-01 +1.04896888121E-03 -4.33001102111E-04 +9.75515872355E-04 -4.72343231557E-04 +8.69043334221E-02 +7.98928892815E-01
1.46500000000E+09 +2.76321013630E-01 +6.88837851675E-01 +1.07179039365E-03 -8.88378499835E-04 +9.24620911506E-04 -8.73263930184E-04 +1.22881893326E-01 +7.72536093477E-01
1.47000000000E+09 +3.05925045967E-01 +6.54957441749E-01 +7.61477986617E-04 -1.10960470199E-03 +7.23674972238E-04 -1.01435135662E-03 +1.59099289242E-01 +7.39650090013E-01
1.47500000000E+09 +3.34893287279E-01 +6.16241303271E-01 +5.25429072534E-04 -1.30224678547E-03 +5.25746272515E-04 -1.23933472966E-03 +1.96877771723E-01 +6.99927542705E-01
1.48000000000E+09 +3.61685297142E-01 +5.71908635979E-01 +3.85532920433E-04 -1.23148418165E-03 +4.36892417388E-04 -1.21956590159E-03 +2.33646840503E-01 +6.50547671718E-01
1.48500000000E+09 +3.83350510860E-01 +5.21882906681E-01 +4.78374966168E-04 -1.46323331669E-03 +4.57618243492E-04 -1.53577818373E-03 +2.67887741461E-01 +5.92345460698E-01
1.49000000000E+09 +3.99931643226E-01 +4.64936453107E-01 +1.05931399564E-04 -1.92249179292E-03 -2.42254116548E-05 -1.98628716847E-03 +2.96824341986E-01 +5.23256516272E-01
1.49500000000E+09 +4.08738631944E-01 +4.00313369156E-01 -3.04374926255E-04 -2.08756646185E-03 -4.48855860377E-04 -1.96254168863E-03 +3.16030523022E-01 +4.44176043344E-01
1.50000000000E+09 +4.08592089698E-01 +3.27138359633E-01 -9.21699878732E-04 -2.78624066852E-03 -9.45439838153E-04 -2.57492943198E-03 +3.22262150975E-01 +3.54898283881E-01
1.50500000000E+09 +3.96516528489E-01 +2.45395329131E-01 -2.80914234097E-03 -2.17021523473E-03 -2.62082138913E-03 -2.09649796631E-03 +3.11554738827E-01 +2.59211829775E-01
1.51000000000E+09 +3.68201182366E-01 +1.58301496900E-01 -2.76919421576E-03 -4.38245275211E-04 -2.74146278421E-03 -5.24084805470E-04 +2.81851464443E-01 +1.58552957784E-01
1.51500000000E+09 +3.23008160462E-01 +7.17501665348E-02 -2.60302188204E-03 -1.59222206687E-04 -2.64521643942E-03 -2.48585152544E-04 +2.28555810967E-01 +5.98781553848E-02
1.52000000000E+09 +2.60024672604E-01 -9.27166504275E-03 -2.78405697730E-03 +6.26594699475E-04 -2.79536456389E-03 +6.27465927182E-04 +1.52685848108E-01 -2.75239473074E-02
1.52500000000E+09 +1.80118059868E-01 -7.78722451008E-02 -1.80326532423E-03 +1.39103351583E-03 -1.79226520206E-03 +1.38839114961E-03 +5.84776359106E-02 -9.74690106738E-02
1.53000000000E+09 +8.43849660877E-02 -1.27350286777E-01 -1.68263958398E-03 +8.20586364454E-04 -1.70846046226E-03 +7.95002060777E-04 -4.93049248076E-02 -1.44593518452E-01
1.53500000000E+09 -2.03554984237E-02 -1.52421263049E-01 -2.36976399382E-03 +1.79782111954E-03 -2.33189566866E-03 +1.83766865097E-03 -1.62562959864E-01 -1.65607161550E-01
1.54000000000E+09 -1.27232969582E-01 -1.50598889063E-01 -1.25867805256E-03 +2.97405085843E-03 -1.23646236732E-03 +2.89073702226E-03 -2.72269619006E-01 -1.62241871188E-01
1.54500000000E+09 -2.27931826853E-01 -1.25943494383E-01 +3.12507932219E-04 +2.83754152870E-03 +2.53575553257E-04 +2.82650193923E-03 -3.71197017899E-01 -1.39589415573E-01
1.55000000000E+09 -3.18059077537E-01 -8.42555209145E-02 +8.49775189495E-04 +2.30841871321E-03 +7.81011987009E-04 +2.35516462810E-03 -4.58611023023E-01 -1.02591112193E-01
1.55500000000E+09 -3.95793374381E-01 -3.19455569945E-02 +1.45152069868E-03 +1.83138046523E-03 +1.44534478318E-03 +1.90475709911E-03 -5.30638969718E-01 -5.36024940059E-02
1.56000000000E+09 -4.60100538008E-01 +2.66890752013E-02 +1.68988066928E-03 +8.21335284026E-04 +1.67191318780E-03 +9.19884896987E-04 -5.87214383609E-01 -9.40473051767E-05
1.56500000000E+09 -5.08787061457E-01 +8.67628409539E-02 +1.27862716026E-03 +3.54255491989E-04 +1.30637548038E-03 +4.13721966322E-04 -6.32362314764E-01 +5.56538740354E-02
1.57000000000E+09 -5.46058384261E-01 +1.44229013904E-01 +1.09924044550E-03 +1.73518733040E-04 +1.16767613304E-03 +1.98954978002E-04 -6.65742971176E-01 +1.11266050279E-01
