# Hz S RI R 50
! CMT, C1220, 16058040, 17.2.0/1
! Date: 14/08/2018 12:28:26
! Data: Format (Calibration Info)
! Freq                      S11: Re/Im (F2)                       S21: Re/Im (F2)                       S12: Re/Im (F2)                       S22: Re/Im (F2)            
1.00000000000E+09 -6.26919288637E-01 +7.08518083725E-01 -1.77124927983E-05 -3.19812091527E-05 -3.28542364727E-05 +3.68718343278E-05 -7.52872220429E-01 +6.24277910117E-01
1.00500000000E+09 -6.19910739487E-01 +7.13674327164E-01 +3.20101938400E-05 -6.78569662955E-06 -2.79282954934E-05 +2.03653805639E-05 -7.49112921284E-01 +6.28559343176E-01
1.01000000000E+09 -6.14237345045E-01 +7.18156662501E-01 -8.03798926164E-05 +1.27746364830E-05 +9.96999709840E-07 -1.53807437129E-05 -7.45875441212E-01 +6.32118027924E-01
1.01500000000E+09 -6.10258197170E-01 +7.21877173147E-01 +3.41550775428E-05 +6.81390559071E-06 -7.05948384353E-05 +5.78244743290E-05 -7.42448689057E-01 +6.35849356574E-01
1.02000000000E+09 -6.07738562132E-01 +7.24982323801E-01 -5.91553257040E-05 +5.70885390505E-06 -5.57456616173E-05 -1.50693670155E-05 -7.39227472036E-01 +6.39217189500E-01
1.02500000000E+09 -6.05853473192E-01 +7.27438930807E-01 +8.39610877371E-06 +1.38742933589E-05 -3.27878252436E-05 +1.93606098099E-05 -7.36314180416E-01 +6.42813438681E-01
1.03000000000E+09 -6.04546877544E-01 +7.29625120480E-01 +1.66727375791E-05 +1.37070669032E-05 -2.10983374322E-05 -6.65684366139E-06 -7.32903220713E-01 +6.46841018060E-01
1.03500000000E+09 -6.02330476964E-01 +7.31670186651E-01 -2.76612554141E-05 +5.30688952608E-05 -3.18105703653E-05 +7.38135479130E-05 -7.29022623176E-01 +6.50712592045E-01
1.04000000000E+09 -5.98591283992E-01 +7.34324325246E-01 -6.61902530780E-06 +8.34164388833E-05 +1.01104188216E-05 +1.17816504208E-05 -7.25239024380E-01 +6.54301101684E-01
1.04500000000E+09 -5.93251296104E-01 +7.37554817140E-01 +8.19956705101E-06 +1.13637193378E-05 -3.95519797552E-05 +3.24321996867E-05 -7.21696060532E-01 +6.57992481919E-01
1.05000000000E+09 -5.86067042569E-01 +7.41790482524E-01 -1.39531525336E-05 +2.13912033400E-05 -4.13612526525E-05 +9.26485323572E-06 -7.18264494558E-01 +6.61089091292E-01
1.05500000000E+09 -5.77520766712E-01 +7.46483845904E-01 +4.49098172143E-05 +1.16145491890E-05 +2.84641438201E-05 +2.69028799088E-05 -7.15075532877E-01 +6.64781932126E-01
1.06000000000E+09 -5.68268910633E-01 +7.51662107955E-01 +3.06192721599E-05 +1.20325678147E-05 -1.44821442252E-05 +2.64622711371E-05 -7.11759640374E-01 +6.68721358250E-01
1.06500000000E+09 -5.59433604781E-01 +7.57069538521E-01 -3.10187510055E-05 +2.97904392965E-05 -3.21610101098E-05 +4.83928145877E-05 -7.07947635656E-01 +6.72459145267E-01
1.07000000000E+09 -5.51551422786E-01 +7.61682617569E-01 -1.75716231596E-05 +5.50791706402E-05 -2.82669742977E-09 +1.56863301734E-05 -7.03963183609E-01 +6.76232466586E-01
1.07500000000E+09 -5.45403660670E-01 +7.65795033193E-01 +3.43594445421E-06 +5.87493665012E-05 +5.90570352507E-06 +1.48275369664E-05 -6.99498499973E-01 +6.79879893990E-01
1.08000000000E+09 -5.40943752939E-01 +7.68955707132E-01 +2.92570815647E-05 +2.95489501389E-05 +1.02949847574E-05 +8.75852321451E-05 -6.95673955632E-01 +6.83750250230E-01
1.08500000000E+09 -5.38043954666E-01 +7.71509756664E-01 +3.87763524616E-05 +1.43705946565E-05 +5.90467807244E-05 +3.15513095901E-05 -6.91704100500E-01 +6.87319509806E-01
1.09000000000E+09 -5.36092228783E-01 +7.73478769009E-01 +2.68078687379E-05 +1.88211082048E-05 +3.95775353806E-05 -3.41203223422E-05 -6.88115417606E-01 +6.91304432672E-01
1.09500000000E+09 -5.34318370058E-01 +7.75043510823E-01 +6.92861348825E-05 +7.07134710894E-06 +6.91375242419E-05 +1.92472655649E-05 -6.84281462545E-01 +6.95118612325E-01
1.10000000000E+09 -5.31658747829E-01 +7.76979927188E-01 +4.50290338250E-05 +3.72305742260E-06 +3.51961399199E-05 -1.13784493507E-05 -6.80274152719E-01 +6.98780328662E-01
1.10500000000E+09 -5.27726192048E-01 +7.79276569837E-01 +5.17833320120E-05 -1.19481126762E-05 +2.79359455019E-05 +3.62242978210E-05 -6.75974039790E-01 +7.02351439550E-01
1.11000000000E+09 -5.22385025615E-01 +7.82395125302E-01 +3.12487563379E-05 -7.70773832807E-06 +3.97900294259E-05 +2.23667098508E-05 -6.71896426935E-01 +7.05747125823E-01
1.11500000000E+09 -5.15853427921E-01 +7.86413211528E-01 +2.72484524311E-05 +2.07242893323E-05 -5.31872041567E-06 -3.21616108707E-05 -6.67809295728E-01 +7.08998099011E-01
1.12000000000E+09 -5.08258555761E-01 +7.90319011510E-01 +7.12201673557E-05 -3.96065902095E-06 +3.53466035322E-05 +1.64791132159E-05 -6.63786003714E-01 +7.12720423911E-01
1.12500000000E+09 -5.00403285501E-01 +7.94355010078E-01 +2.62976517686E-05 -1.62296138250E-05 +2.70876021768E-05 +6.61167343956E-05 -6.59666707889E-01 +7.16705089402E-01
1.13000000000E+09 -4.93187758086E-01 +7.97863849733E-01 +4.16828187757E-05 +5.34708528708E-05 +2.59374148466E-05 -1.93231678919E-05 -6.55317085317E-01 +7.20400721591E-01
1.13500000000E+09 -4.86815910554E-01 +8.00693590497E-01 +1.92217935988E-05 -2.06093785323E-06 +4.79790106199E-05 -1.56663904239E-05 -6.50509186742E-01 +7.24375100306E-01
1.14000000000E+09 -4.81398423868E-01 +8.02988708598E-01 +3.07526844300E-05 -1.54447974243E-05 +3.83454761661E-05 -7.18612175589E-06 -6.45692299713E-01 +7.27902304852E-01
1.14500000000E+09 -4.76988057768E-01 +8.04502352891E-01 +1.94198293379E-05 +8.69041284038E-06 +5.37847072889E-05 +2.42961228690E-05 -6.41038319521E-01 +7.31382460136E-01
1.15000000000E+09 -4.73029514761E-01 +8.05930194533E-01 +6.77511877694E-05 +3.51081507574E-05 +5.93468932931E-05 +1.37982180800E-05 -6.36223839630E-01 +7.35088411032E-01
1.15500000000E+09 -4.69023689265E-01 +8.07495205442E-01 +2.89587699854E-05 +9.39877522359E-06 -3.39468022932E-06 +1.91449343492E-05 -6.31713030476E-01 +7.38821394850E-01
1.16000000000E+09 -4.64106210815E-01 +8.09333723323E-01 +7.12677940768E-05 +3.34358083860E-05 +6.64201058473E-05 -1.71687166149E-05 -6.26858901096E-01 +7.42844093724E-01
1.16500000000E+09 -4.58310863451E-01 +8.12025816549E-01 +8.02834942832E-05 -1.42978327212E-05 +8.00449219882E-05 +2.69775958042E-05 -6.21950460566E-01 +7.46446449847E-01
1.17000000000E+09 -4.51622139304E-01 +8.15060466979E-01 +2.29180028157E-05 +1.47230183054E-06 +5.75925532598E-05 -5.13488820477E-05 -6.16528172203E-01 +7.49749445340E-01
1.17500000000E+09 -4.44085484519E-01 +8.18352054754E-01 +1.07652435321E-04 -1.42190370005E-05 +8.22009086150E-05 -6.36795686815E-05 -6.10905823098E-01 +7.52903718098E-01
1.18000000000E+09 -4.36401855263E-01 +8.22064030643E-01 +6.39428699655E-05 -3.99706029634E-05 +6.98372265554E-05 -8.46560695357E-05 -6.05331084431E-01 +7.55937986450E-01
1.18500000000E+09 -4.28854818741E-01 +8.25349889960E-01 +1.10088082158E-04 -9.44872865004E-05 +5.28112792911E-05 -5.73720469611E-05 -5.99534469285E-01 +7.58936020166E-01
1.19000000000E+09 -4.21970640394E-01 +8.27933286242E-01 +1.00320173391E-04 -5.90530819484E-05 +7.63282753517E-05 -1.04569184865E-04 -5.93413597688E-01 +7.61418068843E-01
1.19500000000E+09 -4.16213783309E-01 +8.29719406714E-01 +1.28015531116E-04 -5.92391253359E-05 +7.93103391716E-05 -1.12781082553E-04 -5.87630923355E-01 +7.62677650917E-01
1.20000000000E+09 -4.11153776256E-01 +8.30466271318E-01 +2.41987924401E-05 -1.05006082332E-04 +1.95112388367E-05 -1.42623127033E-04 -5.83102485720E-01 +7.62951317402E-01
1.20500000000E+09 -4.06423158713E-01 +8.31624149211E-01 -7.05562937508E-05 -1.48466289197E-04 -1.05893532148E-04 -8.67049382767E-05 -5.80852140628E-01 +7.63767492574E-01
1.21000000000E+09 -4.01312424178E-01 +8.32442860770E-01 -7.61320054585E-05 -9.31373227698E-05 -9.50831127854E-05 -5.65691002378E-05 -5.78751793039E-01 +7.67029558178E-01
1.21500000000E+09 -3.95039424614E-01 +8.33608534529E-01 -7.63947243350E-05 -8.65408505272E-05 -1.35609511245E-04 -9.87511496089E-05 -5.75900068636E-01 +7.71651270590E-01
1.22000000000E+09 -3.87052947538E-01 +8.35547390905E-01 -1.51179160427E-05 -2.06687959942E-05 -3.88060116926E-05 -3.54370923686E-05 -5.71565025757E-01 +7.76985459971E-01
1.22500000000E+09 -3.77609186735E-01 +8.38151796733E-01 -4.25774339428E-05 -5.93300992898E-06 -4.91876846380E-05 -5.93507389787E-05 -5.66354575114E-01 +7.82162237073E-01
1.23000000000E+09 -3.67148295457E-01 +8.41342469562E-01 -5.90525166364E-05 -6.11595962349E-05 -6.29951374426E-05 -5.66108960871E-05 -5.60693301205E-01 +7.86747728180E-01
1.23500000000E+09 -3.56566990998E-01 +8.45188539507E-01 -2.51234241603E-05 -4.67824711507E-05 -5.07605782363E-05 -6.58484007562E-05 -5.54982935131E-01 +7.91119075959E-01
1.24000000000E+09 -3.46249962386E-01 +8.49057688857E-01 -2.13006064804E-05 -5.84866360052E-05 -6.26719657717E-05 -7.16516234714E-05 -5.49032509105E-01 +7.95027046565E-01
1.24500000000E+09 -3.37061086365E-01 +8.53149992648E-01 -4.47248587512E-05 -5.83713528072E-05 -6.40633750186E-05 -7.86851522492E-07 -5.42756466396E-01 +7.98862034838E-01
1.25000000000E+09 -3.28962669526E-01 +8.56295281593E-01 -5.90237964025E-05 -3.46509060940E-05 -2.23806660839E-05 -3.28510639297E-05 -5.36284809860E-01 +8.02927804669E-01
1.25500000000E+09 -3.22342192673E-01 +8.58535735206E-01 -4.77221195839E-05 -3.54721335681E-05 -5.08065137377E-05 -3.91175682482E-05 -5.29567396971E-01 +8.06890108675E-01
1.26000000000E+09 -3.16794917943E-01 +8.59774173587E-01 -1.06688187141E-04 -1.57549728949E-05 -8.93239129308E-05 -3.26977010102E-05 -5.22879424083E-01 +8.11167059844E-01
1.26500000000E+09 -3.11575126525E-01 +8.60560499935E-01 -1.26042658083E-04 -4.40490085635E-06 -1.21171579618E-04 -1.31250553081E-05 -5.15809098816E-01 +8.15015246536E-01
1.27000000000E+09 -3.06019513533E-01 +8.60974903449E-01 -2.72777524010E-05 +5.79611704094E-06 -4.53589620288E-05 +2.81595487232E-06 -5.08948263295E-01 +8.18797694676E-01
1.27500000000E+09 -2.98987036909E-01 +8.61618773936E-01 -6.28099770065E-05 -1.69297045002E-05 -8.45780860689E-05 -3.91414876192E-05 -5.01824743663E-01 +8.22362407700E-01
1.28000000000E+09 -2.90040361732E-01 +8.62679695673E-01 -7.32457614562E-05 -2.87732514844E-05 -7.90747657574E-05 -9.31525980912E-06 -4.94885786495E-01 +8.26077993033E-01
1.28500000000E+09 -2.79102103404E-01 +8.64487269212E-01 -1.09394397211E-04 +2.23288959851E-05 -9.32541532340E-05 +4.34500007662E-05 -4.87282166909E-01 +8.29553967732E-01
1.29000000000E+09 -2.67141928861E-01 +8.66888938833E-01 -9.68957615829E-05 -6.01284073970E-06 -1.10982912896E-04 -3.00904244548E-05 -4.79563658706E-01 +8.33445811716E-01
1.29500000000E+09 -2.54543542338E-01 +8.70044311350E-01 -7.98455657521E-05 -8.46070377519E-06 -6.41439808622E-05 -9.38525968141E-06 -4.71654262570E-01 +8.37094420935E-01
1.30000000000E+09 -2.42165038831E-01 +8.73658254493E-01 -1.05633333172E-04 +3.48834136282E-06 -9.98457248598E-05 +1.02186567208E-05 -4.63742271036E-01 +8.40543698237E-01
1.30500000000E+09 -2.30872481774E-01 +8.76856883153E-01 -1.08868752230E-04 -4.46425780221E-06 -1.02852198699E-04 -2.36019712401E-07 -4.55753468178E-01 +8.44069684979E-01
1.31000000000E+09 -2.21185783295E-01 +8.79010472934E-01 -9.85466265637E-05 +1.21229633884E-05 -6.21211990329E-05 +9.31323800685E-06 -4.47381015467E-01 +8.47463286786E-01
1.31500000000E+09 -2.13636342788E-01 +8.80127343518E-01 -1.05397133686E-04 +2.18143024324E-05 -8.23961237893E-05 +2.19094236493E-05 -4.38656346653E-01 +8.50960597562E-01
1.32000000000E+09 -2.07421845211E-01 +8.80427112002E-01 -7.55433546677E-05 -2.60499499823E-06 -9.44386668278E-05 -8.15084861556E-06 -4.29539083596E-01 +8.54347224307E-01
1.32500000000E+09 -2.01688880604E-01 +8.79823393665E-01 -1.52432639802E-04 -9.39090051411E-06 -9.84657201558E-05 -4.84863755417E-06 -4.20148127490E-01 +8.57675767110E-01
1.33000000000E+09 -1.95052903562E-01 +8.78909411607E-01 -1.82535540912E-04 +6.26558259697E-06 -1.38611170677E-04 +1.46195916590E-05 -4.10480903208E-01 +8.60749501817E-01
1.33500000000E+09 -1.86601372387E-01 +8.77794123513E-01 -1.77248035945E-04 +8.19424561327E-05 -1.83865753613E-04 +7.55062214081E-05 -4.00778238667E-01 +8.64009331173E-01
1.34000000000E+09 -1.75659853710E-01 +8.76914229046E-01 -2.04530538983E-04 +1.14415192061E-04 -1.46891733194E-04 +1.18679974048E-04 -3.90535642729E-01 +8.67195956258E-01
1.34500000000E+09 -1.62528861700E-01 +8.76412126258E-01 -2.11664537081E-04 +1.58261866456E-04 -1.31318272978E-04 +1.43706543266E-04 -3.79593530536E-01 +8.70443099648E-01
1.35000000000E+09 -1.47381895207E-01 +8.76526079466E-01 -1.50778510145E-04 +1.23281434109E-04 -1.81783020496E-04 +1.65723485816E-04 -3.68461111495E-01 +8.73462185615E-01
1.35500000000E+09 -1.31136464392E-01 +8.77365482990E-01 -1.49906998461E-04 +1.42037625183E-04 -1.70674727167E-04 +1.80438163077E-04 -3.56657681074E-01 +8.76267869753E-01
1.36000000000E+09 -1.14797801601E-01 +8.78322537391E-01 -1.48917679007E-04 +2.19958027823E-04 -1.20289507032E-04 +2.02424843924E-04 -3.44600143603E-01 +8.79121036793E-01
1.36500000000E+09 -9.93594571046E-02 +8.78983463961E-01 -1.30591871679E-04 +3.06239940901E-04 -1.69607521230E-04 +2.60204854215E-04 -3.32428395063E-01 +8.81519856402E-01
1.37000000000E+09 -8.54490819742E-02 +8.79061354916E-01 -1.17011256612E-04 +3.22763150245E-04 -1.38327651219E-04 +3.05400468574E-04 -3.19500315002E-01 +8.83915684262E-01
1.37500000000E+09 -7.35992345037E-02 +8.78397538571E-01 -2.09380680907E-05 +3.75142482840E-04 -7.94811658599E-05 +4.02093632668E-04 -3.05741444300E-01 +8.86108244390E-01
1.38000000000E+09 -6.27762499579E-02 +8.76911168955E-01 +5.85889342332E-05 +3.57249159082E-04 +3.17323728279E-05 +4.36227595500E-04 -2.91080015270E-01 +8.88302370779E-01
1.38500000000E+09 -5.18559238712E-02 +8.74687506791E-01 +1.13650314338E-04 +3.41524532619E-04 +8.96379089394E-05 +4.52617341153E-04 -2.75553883057E-01 +8.90010810373E-01
1.39000000000E+09 -4.00743814765E-02 +8.71511787318E-01 +1.43297208350E-04 +3.28053538710E-04 +1.33499966142E-04 +3.48704681610E-04 -2.59752719541E-01 +8.91360047214E-01
1.39500000000E+09 -2.61227119198E-02 +8.67490415799E-01 +1.06443215967E-04 +3.14531673317E-04 +1.67189089801E-04 +3.47941290021E-04 -2.42894670496E-01 +8.92189166105E-01
1.40000000000E+09 -9.60700363122E-03 +8.62860100774E-01 +1.25116464614E-04 +3.38748272172E-04 +1.53238246417E-04 +3.72915497157E-04 -2.25514806150E-01 +8.92276487039E-01
1.40500000000E+09 +8.92506031030E-03 +8.57650598902E-01 +1.95666882883E-04 +4.39923005087E-04 +1.92670383910E-04 +4.55292080806E-04 -2.07216587688E-01 +8.91932987600E-01
1.41000000000E+09 +2.95754518944E-02 +8.52196715182E-01 +3.25143640115E-04 +4.40006267177E-04 +2.98348580730E-04 +4.60709056471E-04 -1.87274652152E-01 +8.91175642728E-01
1.41500000000E+09 +5.13493815238E-02 +8.46510831669E-01 +4.50832883403E-04 +4.28722114479E-04 +4.47408354185E-04 +4.78850894665E-04 -1.65914687058E-01 +8.89609218761E-01
1.42000000000E+09 +7.32623233937E-02 +8.40308239590E-01 +5.54022558953E-04 +2.80393357522E-04 +5.92783923795E-04 +3.20120278835E-04 -1.43102864364E-01 +8.86969664736E-01
1.42500000000E+09 +9.45248427624E-02 +8.32910380524E-01 +4.50648721324E-04 +2.40912199604E-04 +5.48697572801E-04 +2.49446789533E-04 -1.19480649490E-01 +8.83193916979E-01
1.43000000000E+09 +1.14495306722E-01 +8.24199387012E-01 +5.89882162077E-04 +3.11400992295E-04 +7.08237436397E-04 +2.57930533189E-04 -9.48851376597E-02 +8.78506936393E-01
1.43500000000E+09 +1.33545090627E-01 +8.13817714923E-01 +7.36782557494E-04 +9.08899667051E-05 +8.00918809574E-04 -2.78384258875E-05 -6.87160994399E-02 +8.71886427094E-01
1.44000000000E+09 +1.52917917727E-01 +8.01558864804E-01 +6.80139291628E-04 -4.36936836286E-05 +6.54548286914E-04 -4.05341162151E-05 -4.08230967674E-02 +8.63463483390E-01
1.44500000000E+09 +1.73445387586E-01 +7.86230514656E-01 +7.79981195211E-04 -1.57872201218E-05 +7.82334673512E-04 -2.04581625521E-05 -1.04908204784E-02 +8.52246792885E-01
1.45000000000E+09 +1.95630188634E-01 +7.67608377170E-01 +8.04243996024E-04 -1.38984416026E-04 +8.05395608981E-04 -1.59784293542E-04 +2.14434973157E-02 +8.37682139420E-01
1.45500000000E+09 +2.20350800189E-01 +7.45443868874E-01 +8.77473390367E-04 -1.79271538291E-04 +8.76982320687E-04 -2.68412337840E-04 +5.47378268093E-02 +8.19882978983E-01
1.46000000000E+09 +2.47821862122E-01 +7.19217354113E-01 +1.11728874737E-03 -3.73211494269E-04 +1.03693613465E-03 -4.99619503383E-04 +8.90210049994E-02 +7.98263259432E-01
1.46500000000E+09 +2.76610050204E-01 +6.89254594852E-01 +1.13215168994E-03 -8.62315060681E-04 +9.81082670431E-04 -8.27513526821E-04 +1.24890372338E-01 +7.71421753321E-01
1.47000000000E+09 +3.06617301739E-01 +6.55295307404E-01 +8.41043954216E-04 -1.08295499288E-03 +7.89956189479E-04 -1.01082724864E-03 +1.61124779138E-01 +7.38542030352E-01
1.47500000000E+09 +3.35717627298E-01 +6.16598776542E-01 +5.96239815488E-04 -1.29539786062E-03 +6.18763662593E-04 -1.23295900316E-03 +1.98805682097E-01 +6.98434164447E-01
1.48000000000E+09 +3.62317412283E-01 +5.72277336205E-01 +4.98400630548E-04 -1.22370466479E-03 +5.86128061103E-04 -1.22486831563E-03 +2.35499752416E-01 +6.48740240112E-01
1.48500000000E+09 +3.84087206167E-01 +5.22501974094E-01 +5.11141633148E-04 -1.60267668327E-03 +4.95497195448E-04 -1.64687048410E-03 +2.69468614939E-01 +5.90156930312E-01
1.49000000000E+09 +4.00643659830E-01 +4.65832130293E-01 +1.41141763905E-04 -1.96471482394E-03 -1.82714575080E-05 -1.94272139376E-03 +2.98026319365E-01 +5.20890767805E-01
1.49500000000E+09 +4.09558860772E-01 +4.01447447101E-01 -1.78801981533E-04 -2.10240580787E-03 -2.94968722351E-04 -2.01527157496E-03 +3.16839164011E-01 +4.41502641427E-01
1.50000000000E+09 +4.09537056227E-01 +3.28301146695E-01 -7.16533720152E-04 -2.94220835388E-03 -6.95152230190E-04 -2.72545158795E-03 +3.22437894231E-01 +3.51899198049E-01
1.50500000000E+09 +3.97658077501E-01 +2.46822923440E-01 -2.62594424191E-03 -2.42049242014E-03 -2.46460161498E-03 -2.36305896535E-03 +3.11298693694E-01 +2.56144804899E-01
1.51000000000E+09 +3.69568053568E-01 +1.59796987260E-01 -2.73912998295E-03 -8.54976381817E-04 -2.64012211724E-03 -9.35717855632E-04 +2.80745282133E-01 +1.55327590441E-01
1.51500000000E+09 +3.24333742050E-01 +7.33723597268E-02 -2.68918358898E-03 -5.67531399580E-04 -2.64255511789E-03 -6.37546320274E-04 +2.26497092222E-01 +5.67830374868E-02
1.52000000000E+09 +2.61711702759E-01 -7.33508173127E-03 -2.96540015889E-03 +2.75522841401E-04 -2.95510477390E-03 +1.93322603442E-04 +1.49675132147E-01 -3.00829680524E-02
1.52500000000E+09 +1.82141014282E-01 -7.57065548081E-02 -2.10790771025E-03 +1.19708759960E-03 -2.18322330146E-03 +1.13261325307E-03 +5.46613781250E-02 -9.90203831261E-02
1.53000000000E+09 +8.67564184551E-02 -1.25316473626E-01 -2.12812080237E-03 +6.47034770167E-04 -2.15306734973E-03 +6.56775875154E-04 -5.31958541126E-02 -1.44942706706E-01
1.53500000000E+09 -1.75538174841E-02 -1.50406463345E-01 -2.83368462841E-03 +1.77210622350E-03 -2.84960920865E-03 +1.78272658492E-03 -1.66312367733E-01 -1.64711330796E-01
1.54000000000E+09 -1.24071202730E-01 -1.49189819281E-01 -1.74184517449E-03 +3.06251581181E-03 -1.75414461720E-03 +3.06628677024E-03 -2.75743469704E-01 -1.60878594004E-01
1.54500000000E+09 -2.24911640001E-01 -1.25181848063E-01 -1.59053921623E-04 +3.13646469718E-03 -1.88924691719E-04 +3.09431267210E-03 -3.74352892585E-01 -1.37387547161E-01
1.55000000000E+09 -3.15237837079E-01 -8.40915412322E-02 +5.52909643838E-04 +2.86532894880E-03 +4.49159950725E-04 +2.89811009047E-03 -4.61149467382E-01 -9.97495650475E-02
1.55500000000E+09 -3.93121856306E-01 -3.23533603123E-02 +1.53100477047E-03 +2.32069961548E-03 +1.45859765550E-03 +2.44472417832E-03 -5.32371789034E-01 -5.03962294666E-02
1.56000000000E+09 -4.57539562473E-01 +2.57508283109E-02 +1.85606654970E-03 +1.16248768637E-03 +1.88782770127E-03 +1.32655537097E-03 -5.88457011956E-01 +3.28408371308E-03
1.56500000000E+09 -5.06704258993E-01 +8.52495006644E-02 +1.48362740110E-03 +5.44935478977E-04 +1.52612805019E-03 +5.75178859742E-04 -6.32932580377E-01 +5.89976495907E-02
1.57000000000E+09 -5.44169965606E-01 +1.42657613134E-01 +1.30036263891E-03 +3.17150155296E-04 +1.42069108489E-03 +3.50014085075E-04 -6.65716734433E-01 +1.14547999027E-01
