# Hz S RI R 50
! CMT, C1220, 16058040, 17.2.0/1
! Date: 14/08/2018 12:33:17
! Data: Format (Calibration Info)
! Freq                      S11: Re/Im (F2)                       S21: Re/Im (F2)                       S12: Re/Im (F2)                       S22: Re/Im (F2)            
1.00000000000E+09 -6.33179195922E-01 +7.08125333572E-01 -3.19997107543E-06 -8.70568474750E-06 +3.57314788219E-05 -8.42911303296E-06 -7.53184531823E-01 +6.23746929613E-01
1.00500000000E+09 -6.26165665314E-01 +7.12962714450E-01 -4.19364301926E-05 +5.91629762472E-05 -1.50191031066E-05 +3.79942903377E-05 -7.49630934696E-01 +6.27843837653E-01
1.01000000000E+09 -6.20002183110E-01 +7.17655773727E-01 +4.13919449741E-05 +3.39410878272E-05 +1.12892219478E-05 -2.49437585612E-05 -7.46304361361E-01 +6.31608650793E-01
1.01500000000E+09 -6.15121793299E-01 +7.21603172491E-01 +4.30228414535E-07 -4.03815596567E-05 -4.47290753940E-05 -7.14231769355E-05 -7.43256819284E-01 +6.35118625120E-01
1.02000000000E+09 -6.11469731949E-01 +7.25057254043E-01 -2.93188251103E-05 +3.72679371392E-05 -1.13122560848E-05 -2.95066904307E-05 -7.39714200727E-01 +6.38615817537E-01
1.02500000000E+09 -6.09028255674E-01 +7.27948777719E-01 -6.33534647798E-06 +1.94120030715E-05 +3.30587056773E-05 -2.85210260560E-06 -7.36854547648E-01 +6.42142295361E-01
1.03000000000E+09 -6.06826769864E-01 +7.30562129254E-01 +1.19109269740E-05 -5.36075624696E-06 +7.28297076981E-06 +4.07983270033E-05 -7.33429336116E-01 +6.46096533216E-01
1.03500000000E+09 -6.03953645851E-01 +7.32933510694E-01 +1.49170498592E-06 +1.19470919290E-05 -2.33802265203E-05 +5.56203187560E-06 -7.29634083215E-01 +6.50063750704E-01
1.04000000000E+09 -6.00272607280E-01 +7.35724752558E-01 +5.25859811254E-05 -2.06362665499E-05 -2.45696506946E-05 +1.73906043657E-05 -7.25780610075E-01 +6.53636221394E-01
1.04500000000E+09 -5.95154243580E-01 +7.38992480496E-01 +3.61824446238E-06 +4.49435176484E-05 -1.90587535760E-05 +2.73574657528E-06 -7.22212777829E-01 +6.57172199364E-01
1.05000000000E+09 -5.88394456276E-01 +7.42908924391E-01 -3.02766614977E-05 +2.31587617694E-05 +1.77825109917E-05 +1.73787235672E-05 -7.18901123042E-01 +6.60633217716E-01
1.05500000000E+09 -5.80453467093E-01 +7.47149831556E-01 +1.88014599532E-06 -2.55190660558E-05 -1.13156031253E-05 -1.26828382629E-05 -7.15687242410E-01 +6.64209265584E-01
1.06000000000E+09 -5.72021490611E-01 +7.52036134807E-01 +1.85918213350E-05 -2.40314855530E-05 +4.87693116269E-06 +8.07095375741E-06 -7.12291816720E-01 +6.67824982848E-01
1.06500000000E+09 -5.63835555722E-01 +7.56884561500E-01 +3.97224464988E-06 +6.11435268761E-05 -8.96669619791E-06 -8.92800587512E-06 -7.08448344259E-01 +6.71900226729E-01
1.07000000000E+09 -5.56739225638E-01 +7.61332755088E-01 +3.79914945839E-05 -9.18197381806E-06 -5.18194816428E-05 +3.68169808645E-05 -7.04419729162E-01 +6.75604925057E-01
1.07500000000E+09 -5.51112038784E-01 +7.65258148836E-01 -2.22565104581E-05 +6.33313789767E-05 -1.69638387243E-05 +2.40696712667E-05 -7.00080911351E-01 +6.79192014955E-01
1.08000000000E+09 -5.46851124625E-01 +7.68715880593E-01 +1.66987931442E-05 +4.34758404470E-05 -2.64403868287E-05 +3.87033369441E-05 -6.96187339566E-01 +6.83129567731E-01
1.08500000000E+09 -5.43819962055E-01 +7.71199329053E-01 +9.05059969023E-05 +6.20483653300E-05 -5.85901515636E-07 +2.98088256206E-05 -6.92341514045E-01 +6.86726925190E-01
1.09000000000E+09 -5.41167967551E-01 +7.73538104350E-01 +2.14744936906E-05 +5.18626414799E-05 +2.19172692853E-05 -4.43900042916E-07 -6.88715408964E-01 +6.90563521126E-01
1.09500000000E+09 -5.38905631855E-01 +7.75516426240E-01 +2.09495234269E-05 +3.80382886096E-05 +1.69496925013E-05 +3.13885295630E-05 -6.84928318096E-01 +6.94445865452E-01
1.10000000000E+09 -5.35302689460E-01 +7.77484452593E-01 -2.49363008849E-05 +4.21836242678E-05 +9.50350915565E-06 +7.36685813909E-06 -6.80985201191E-01 +6.98205016009E-01
1.10500000000E+09 -5.30814283779E-01 +7.80146145790E-01 +2.61217577013E-05 +2.85948769012E-05 +2.38865856566E-05 +4.68909675703E-05 -6.76617219184E-01 +7.01632016809E-01
1.11000000000E+09 -5.24850043918E-01 +7.83237277620E-01 +5.68210246116E-06 -2.84955510837E-05 -9.66112399313E-06 +9.19775154782E-06 -6.72303033351E-01 +7.05107170753E-01
1.11500000000E+09 -5.17688735222E-01 +7.87098054409E-01 -8.41191614379E-07 -6.92750597044E-05 +3.79808029403E-05 -1.56112999002E-05 -6.68371248198E-01 +7.08510195631E-01
1.12000000000E+09 -5.09983071588E-01 +7.90897219098E-01 +2.84623022956E-05 +4.22405601751E-05 +4.69435797241E-05 +2.92302889593E-05 -6.64373431686E-01 +7.12171687788E-01
1.12500000000E+09 -5.02387866194E-01 +7.94742170106E-01 +3.63777613936E-05 +2.66883915856E-05 +5.56029874569E-05 +1.69513474549E-05 -6.60296098995E-01 +7.16134630548E-01
1.13000000000E+09 -4.95506119918E-01 +7.98476310171E-01 +1.90561109926E-05 -8.27387004816E-06 +4.28332066371E-05 +3.27903318256E-05 -6.55972604042E-01 +7.19859206556E-01
1.13500000000E+09 -4.89545945500E-01 +8.01292418215E-01 +5.47987899282E-05 -1.71804483059E-06 +4.32674701576E-05 +3.01686164528E-05 -6.51242136211E-01 +7.23642472283E-01
1.14000000000E+09 -4.84709403970E-01 +8.03655452962E-01 +3.78033554926E-05 -2.05551224880E-05 +2.42103100779E-05 -2.00232435569E-05 -6.46364063626E-01 +7.27251343625E-01
1.14500000000E+09 -4.81067894634E-01 +8.05287627854E-01 +5.09337854843E-05 -2.78080485472E-05 +4.76796884007E-05 -4.65087945919E-06 -6.41801718552E-01 +7.30694562579E-01
1.15000000000E+09 -4.77489002666E-01 +8.06645214211E-01 -8.65520291374E-06 -2.98441774215E-05 -1.96856046273E-06 +1.53451889877E-05 -6.37045271964E-01 +7.34412868323E-01
1.15500000000E+09 -4.73868662126E-01 +8.08153344305E-01 +7.66645597319E-05 -3.90760144875E-07 +5.36109841998E-05 +6.12624352375E-06 -6.32405660893E-01 +7.38328864292E-01
1.16000000000E+09 -4.69243599982E-01 +8.09916884149E-01 +4.17385635556E-05 -1.88284237891E-05 +3.99055305041E-05 +4.98009883707E-05 -6.27583956326E-01 +7.42100833409E-01
1.16500000000E+09 -4.63345686152E-01 +8.12405973076E-01 +5.44659887514E-05 +5.19082654511E-06 +4.12345707099E-05 -3.88032319418E-05 -6.22602155721E-01 +7.45745275388E-01
1.17000000000E+09 -4.56388783512E-01 +8.15368609089E-01 +5.02544916125E-05 -2.08403802265E-06 +2.01505210905E-05 -3.55405188586E-05 -6.17223557707E-01 +7.49094283102E-01
1.17500000000E+09 -4.48386096494E-01 +8.18564584610E-01 +3.04067393622E-05 -8.10423053779E-05 +6.46887143818E-05 -2.45658755526E-05 -6.11547790267E-01 +7.52287572521E-01
1.18000000000E+09 -4.40167493653E-01 +8.22224282957E-01 +8.41878967271E-05 -4.37538352517E-05 +3.59866155935E-05 -1.74786266020E-05 -6.05954914153E-01 +7.55317785339E-01
1.18500000000E+09 -4.32028134142E-01 +8.25462380977E-01 +8.97118705000E-05 -4.45267062205E-05 +1.17412999184E-04 -4.21532608020E-05 -6.00270883887E-01 +7.58207717906E-01
1.19000000000E+09 -4.24636361767E-01 +8.28266814681E-01 +1.84615196663E-05 -7.67589559573E-05 +4.16576615391E-05 -5.47917192495E-05 -5.94202142873E-01 +7.60891180170E-01
1.19500000000E+09 -4.18579876122E-01 +8.30251038636E-01 +5.95759884940E-05 -1.31161308518E-04 +3.35235618374E-05 -9.57010199823E-05 -5.88202999865E-01 +7.61898640784E-01
1.20000000000E+09 -4.13494695937E-01 +8.31204791816E-01 -2.09513149912E-06 -1.21265581999E-04 +1.97464716966E-05 -1.38866993003E-04 -5.83853609890E-01 +7.62269236072E-01
1.20500000000E+09 -4.09037498191E-01 +8.32370511566E-01 -6.81818652086E-05 -8.30009634517E-05 -6.10116074624E-05 -1.36732231741E-04 -5.81445911880E-01 +7.63084338626E-01
1.21000000000E+09 -4.04290725820E-01 +8.33227077563E-01 -7.31624575566E-05 -6.79525581300E-05 -4.21376169551E-05 -5.82041673645E-05 -5.79514332066E-01 +7.66305876534E-01
1.21500000000E+09 -3.98479291911E-01 +8.34505809734E-01 -8.84704175148E-05 -2.69462873840E-05 -5.94450827784E-05 -6.17385617965E-05 -5.76659459501E-01 +7.71006202078E-01
1.22000000000E+09 -3.91179368744E-01 +8.36288868763E-01 -3.12119319598E-05 -4.79686499661E-05 -3.62880098398E-05 -5.92193668301E-05 -5.72345200645E-01 +7.76566542048E-01
1.22500000000E+09 -3.82255605761E-01 +8.38548655488E-01 -2.84001686189E-05 -1.43167416291E-05 -4.58572071853E-05 -6.40002894684E-05 -5.67093363941E-01 +7.81449469833E-01
1.23000000000E+09 -3.72358198337E-01 +8.41565526689E-01 -1.66387276921E-05 -5.37105862125E-05 -3.76680225068E-05 -3.43443075952E-05 -5.61557049923E-01 +7.86200662378E-01
1.23500000000E+09 -3.62241752527E-01 +8.44866261160E-01 -6.45564698264E-05 -2.96372224536E-05 -2.51413551643E-05 -8.75428601118E-05 -5.55870670275E-01 +7.90442713044E-01
1.24000000000E+09 -3.52058894284E-01 +8.48633213912E-01 -3.35603314608E-05 -7.01584721780E-05 -1.95037452958E-05 -9.82064786512E-05 -5.49810611201E-01 +7.94360341322E-01
1.24500000000E+09 -3.42855086543E-01 +8.52577889611E-01 -6.14864003671E-05 -4.30159813610E-05 -6.06910663665E-05 -7.53224398028E-05 -5.43527198994E-01 +7.98028225570E-01
1.25000000000E+09 -3.34731867617E-01 +8.56125890701E-01 -7.88383023555E-05 -7.77056569602E-05 -7.47408909641E-05 -5.89840555271E-05 -5.37098387212E-01 +8.02317095593E-01
1.25500000000E+09 -3.27609734297E-01 +8.58679025274E-01 -8.92862716754E-05 +1.07316474079E-05 -8.57690330159E-05 -3.57734849225E-05 -5.30243094773E-01 +8.06212206640E-01
1.26000000000E+09 -3.21556007211E-01 +8.60543444279E-01 -1.03140494237E-04 -3.17314899084E-05 -1.35808963193E-04 -6.97349386711E-05 -5.23664428315E-01 +8.10486148927E-01
1.26500000000E+09 -3.15742033304E-01 +8.61424417474E-01 -8.44728996170E-05 -2.09058019484E-05 -1.09860377098E-04 +4.07559421001E-05 -5.16684752039E-01 +8.14158171690E-01
1.27000000000E+09 -3.09616860080E-01 +8.62129156657E-01 -9.28441278798E-05 -5.02527868649E-06 -6.94642839403E-05 -1.91242730595E-05 -5.09823377135E-01 +8.18055039390E-01
1.27500000000E+09 -3.02126297269E-01 +8.62836989898E-01 -4.93815471829E-05 -2.82253268156E-05 -5.78310858668E-05 -1.40620322552E-05 -5.02801693680E-01 +8.21592422086E-01
1.28000000000E+09 -2.93165333484E-01 +8.63687317458E-01 -8.68227256310E-05 +2.57834169097E-06 -5.60158810046E-05 -2.26856806008E-05 -4.95723030565E-01 +8.25242748094E-01
1.28500000000E+09 -2.82213153147E-01 +8.65046717817E-01 -9.14455484346E-05 +1.56323804628E-05 -1.24572819291E-04 +1.89848530389E-05 -4.88236371330E-01 +8.28994055313E-01
1.29000000000E+09 -2.70565737126E-01 +8.66793957263E-01 -1.71022100557E-05 +1.80899468852E-06 -1.53456246823E-04 +1.25428591769E-06 -4.80474366004E-01 +8.32801305108E-01
1.29500000000E+09 -2.58474294577E-01 +8.69383501297E-01 -5.86718918114E-05 +1.32611278647E-05 -6.03334054904E-05 +1.34881642856E-05 -4.72759618120E-01 +8.36446368029E-01
1.30000000000E+09 -2.46817879007E-01 +8.72590674210E-01 -8.36739174884E-05 +1.04261534790E-05 -1.26658866068E-04 +1.81155590953E-05 -4.64968532820E-01 +8.39784664916E-01
1.30500000000E+09 -2.36233583622E-01 +8.75817234454E-01 -9.55665837156E-05 +5.32901454273E-05 -7.79378668492E-05 +4.49745177404E-05 -4.56876493569E-01 +8.43288273901E-01
1.31000000000E+09 -2.27089830369E-01 +8.78561112339E-01 -1.09014065124E-04 +5.04805836072E-05 -6.10465778469E-05 +2.71032200819E-05 -4.48584088700E-01 +8.46666801125E-01
1.31500000000E+09 -2.19579237614E-01 +8.80325873992E-01 -6.25571843933E-05 -1.61300375345E-05 -4.68960791430E-05 +6.16179177120E-05 -4.39981964737E-01 +8.50140029702E-01
1.32000000000E+09 -2.13319858003E-01 +8.81312920009E-01 -5.94181601085E-05 +3.29418736168E-05 -7.12889740788E-05 +6.24008841326E-05 -4.30847960885E-01 +8.53572785718E-01
1.32500000000E+09 -2.07507761055E-01 +8.81189064632E-01 -1.31753328856E-04 +1.08487143148E-05 -1.40907360280E-04 +2.34869388861E-05 -4.21369608455E-01 +8.56941204072E-01
1.33000000000E+09 -2.00657873690E-01 +8.80665733546E-01 -1.48199647228E-04 -5.12481227855E-06 -1.36916582291E-04 +6.11808155422E-05 -4.11851655451E-01 +8.60141475315E-01
1.33500000000E+09 -1.92125829741E-01 +8.79793634495E-01 -1.45365892055E-04 +3.44135202089E-05 -1.66076758568E-04 +7.27797969900E-05 -4.02100870915E-01 +8.63327638600E-01
1.34000000000E+09 -1.80900412389E-01 +8.78788150321E-01 -1.76004252350E-04 +1.72192039204E-04 -1.43518208053E-04 +1.63581993822E-04 -3.92221483859E-01 +8.66662347239E-01
1.34500000000E+09 -1.67540658407E-01 +8.77904803850E-01 -1.24950415971E-04 +1.68156793516E-04 -7.55209994953E-05 +1.57196913609E-04 -3.81237253894E-01 +8.69960242431E-01
1.35000000000E+09 -1.52344793333E-01 +8.77423452369E-01 -1.22470076361E-04 +1.62818389673E-04 -9.06804420890E-05 +2.01860987848E-04 -3.69960683247E-01 +8.73067589265E-01
1.35500000000E+09 -1.36154480613E-01 +8.77800198909E-01 -9.37069904650E-05 +2.21227907058E-04 -5.86787999173E-05 +1.88709254682E-04 -3.58380002200E-01 +8.76051973418E-01
1.36000000000E+09 -1.19950847864E-01 +8.78542846206E-01 -1.24776154279E-04 +2.40216714689E-04 -1.24228323778E-04 +1.90267756652E-04 -3.46357526855E-01 +8.78898347444E-01
1.36500000000E+09 -1.04399358868E-01 +8.79463050214E-01 -7.30128096447E-05 +3.20000183002E-04 -8.29304429086E-05 +2.77073434746E-04 -3.34273865579E-01 +8.81219207660E-01
1.37000000000E+09 -9.02588882309E-02 +8.79639037682E-01 -3.35656614405E-05 +3.43203543202E-04 -3.34480565506E-05 +3.34217963054E-04 -3.21263129803E-01 +8.83678710918E-01
1.37500000000E+09 -7.82255813255E-02 +8.79350638851E-01 +7.53694862563E-05 +4.26483549849E-04 +3.84589803189E-05 +3.75893464488E-04 -3.07699766944E-01 +8.86105460886E-01
1.38000000000E+09 -6.73508030621E-02 +8.78423591055E-01 +1.37597769718E-04 +3.29738355332E-04 +1.12381132092E-04 +3.90519968878E-04 -2.93101419231E-01 +8.88356049881E-01
1.38500000000E+09 -5.63292573964E-02 +8.76643575724E-01 +2.39331945786E-04 +3.43385962163E-04 +2.00203377903E-04 +3.64145817045E-04 -2.77509411824E-01 +8.90212848380E-01
1.39000000000E+09 -4.47737912169E-02 +8.73868790735E-01 +2.21671971479E-04 +3.49233019127E-04 +2.83928249527E-04 +3.48254785472E-04 -2.61561041527E-01 +8.91706026286E-01
1.39500000000E+09 -3.10858063359E-02 +8.70296917455E-01 +2.47525537474E-04 +3.00222729153E-04 +2.79097973321E-04 +3.10801511794E-04 -2.44910479755E-01 +8.92715585162E-01
1.40000000000E+09 -1.47416223237E-02 +8.65771515521E-01 +2.45195721486E-04 +2.92098064147E-04 +3.01136610311E-04 +2.91961835223E-04 -2.27543062478E-01 +8.92984435656E-01
1.40500000000E+09 +3.55094180866E-03 +8.60585011245E-01 +2.94972691175E-04 +3.70920747016E-04 +3.70328847372E-04 +3.56921456929E-04 -2.09056139505E-01 +8.92818859861E-01
1.41000000000E+09 +2.39306943351E-02 +8.55157948466E-01 +4.32571347771E-04 +2.83568717598E-04 +4.23044213706E-04 +3.25916427728E-04 -1.89190836647E-01 +8.92242955959E-01
1.41500000000E+09 +4.54440297130E-02 +8.49341479162E-01 +5.39570510194E-04 +2.53652223215E-04 +5.71361164349E-04 +2.93198583324E-04 -1.67468653416E-01 +8.90834906068E-01
1.42000000000E+09 +6.75465452584E-02 +8.43469310968E-01 +6.14719903136E-04 +1.23810272483E-04 +6.72234780470E-04 +1.25801268555E-04 -1.44652770632E-01 +8.88401652897E-01
1.42500000000E+09 +8.91382690554E-02 +8.36383964900E-01 +5.68240993169E-04 +1.22932487913E-04 +6.41319179368E-04 +4.49932553954E-05 -1.20903055444E-01 +8.84886918638E-01
1.43000000000E+09 +1.09645705113E-01 +8.27778215351E-01 +7.56146792841E-04 +6.74989770439E-05 +8.52432646077E-04 +4.23703090510E-05 -9.60766635259E-02 +8.80337192965E-01
1.43500000000E+09 +1.29217359542E-01 +8.17906914175E-01 +8.31121866528E-04 -2.13634885039E-04 +8.01896746916E-04 -3.01072450480E-04 -6.97503458495E-02 +8.73861500892E-01
1.44000000000E+09 +1.49012708071E-01 +8.06010912245E-01 +7.03837826890E-04 -3.02223643338E-04 +7.02059328218E-04 -3.72419848828E-04 -4.16438148294E-02 +8.65716507558E-01
1.44500000000E+09 +1.70016800457E-01 +7.91104192562E-01 +7.34612836496E-04 -3.45241723121E-04 +7.49303555638E-04 -3.93324347663E-04 -1.10353216974E-02 +8.54622251722E-01
1.45000000000E+09 +1.92590762833E-01 +7.72947583075E-01 +7.39861930820E-04 -4.59786865153E-04 +6.95003068216E-04 -5.19381944800E-04 +2.11964667928E-02 +8.40303406835E-01
1.45500000000E+09 +2.17599384153E-01 +7.51289144847E-01 +8.11858302564E-04 -5.12784088460E-04 +7.66219246837E-04 -5.75180214571E-04 +5.50976648041E-02 +8.22902484678E-01
1.46000000000E+09 +2.45145581829E-01 +7.25377720192E-01 +9.62349620130E-04 -7.65398201032E-04 +8.83594321786E-04 -8.37641018004E-04 +9.03372536742E-02 +8.01205499781E-01
1.46500000000E+09 +2.74232945785E-01 +6.95678929035E-01 +8.75506697823E-04 -1.30795827539E-03 +7.47887988136E-04 -1.24702185453E-03 +1.26780678314E-01 +7.74366340468E-01
1.47000000000E+09 +3.04848578057E-01 +6.62420311861E-01 +4.91800955395E-04 -1.54410514392E-03 +4.58653524260E-04 -1.41011857874E-03 +1.64151341732E-01 +7.41017492574E-01
1.47500000000E+09 +3.35502170380E-01 +6.23998240223E-01 +1.21481887198E-04 -1.68468240727E-03 +1.59092977118E-04 -1.58840237539E-03 +2.02418094564E-01 +7.00146615032E-01
1.48000000000E+09 +3.63944608552E-01 +5.79496635227E-01 -1.18320579804E-04 -1.52081213206E-03 -3.56207834388E-05 -1.55146719635E-03 +2.39725355441E-01 +6.49749607257E-01
1.48500000000E+09 +3.87772900392E-01 +5.28855793748E-01 -1.17156342125E-04 -1.85312955735E-03 -1.89424398014E-04 -1.88027933519E-03 +2.74254055525E-01 +5.89859711707E-01
1.49000000000E+09 +4.06107319640E-01 +4.71155613625E-01 -7.26134793019E-04 -2.18968824825E-03 -8.21436676072E-04 -2.08528909397E-03 +3.03112924265E-01 +5.19356214577E-01
1.49500000000E+09 +4.16274002600E-01 +4.05319826000E-01 -1.21440359407E-03 -2.14944363390E-03 -1.27274722205E-03 -2.07149056070E-03 +3.22049497523E-01 +4.38234019127E-01
1.50000000000E+09 +4.17633456626E-01 +3.31018769032E-01 -2.11128622613E-03 -2.57197207634E-03 -2.01137466943E-03 -2.44152521672E-03 +3.27035163065E-01 +3.46696818989E-01
1.50500000000E+09 +4.06953767625E-01 +2.47443372146E-01 -3.74415639176E-03 -1.53665723501E-03 -3.58510556960E-03 -1.60913470868E-03 +3.14185066989E-01 +2.49045985002E-01
1.51000000000E+09 +3.79671068768E-01 +1.57625018163E-01 -3.79598696936E-03 +3.05977077228E-04 -3.77892917959E-03 +1.90327532450E-04 +2.81256864050E-01 +1.47019978891E-01
1.51500000000E+09 +3.34394647101E-01 +6.72345609404E-02 -3.37635999400E-03 +1.01896136071E-03 -3.47651197068E-03 +9.66375763476E-04 +2.23685395003E-01 +4.87346742382E-02
1.52000000000E+09 +2.69751372580E-01 -1.77451197585E-02 -3.07122384798E-03 +2.06686486630E-03 -3.17790988693E-03 +2.10999005576E-03 +1.44522508298E-01 -3.66549441906E-02
1.52500000000E+09 +1.86955564235E-01 -8.97237100679E-02 -1.78959103612E-03 +2.79480788483E-03 -1.83528474290E-03 +2.85514153069E-03 +4.79342762235E-02 -1.03528983223E-01
1.53000000000E+09 +8.75472724303E-02 -1.41592660672E-01 -1.29624209374E-03 +2.35866400248E-03 -1.33188062181E-03 +2.35284076251E-03 -6.06537078440E-02 -1.46893291703E-01
1.53500000000E+09 -2.05769080271E-02 -1.67405469158E-01 -1.49311154126E-03 +3.03770157215E-03 -1.43609811166E-03 +3.09015991461E-03 -1.73453704533E-01 -1.64675075758E-01
1.54000000000E+09 -1.30548712043E-01 -1.66374160471E-01 -1.18766003195E-04 +3.81792830156E-03 -1.46317275654E-04 +3.72443350793E-03 -2.82056776483E-01 -1.59011185589E-01
1.54500000000E+09 -2.34586321160E-01 -1.41066587374E-01 +1.31588623208E-03 +3.43656439682E-03 +1.24970323734E-03 +3.41118052902E-03 -3.79655882661E-01 -1.33895483931E-01
1.55000000000E+09 -3.27781870620E-01 -9.73406181129E-02 +2.09068477405E-03 +2.83390181760E-03 +2.01825301650E-03 +2.92501949946E-03 -4.64600963766E-01 -9.54220389343E-02
1.55500000000E+09 -4.06862159883E-01 -4.12365944674E-02 +2.89137035423E-03 +1.75288410006E-03 +2.91904108716E-03 +1.90416749535E-03 -5.34754368323E-01 -4.58841161530E-02
1.56000000000E+09 -4.70969369263E-01 +2.00761497712E-02 +2.81947690377E-03 +4.19700413660E-04 +2.91335548425E-03 +5.01578372744E-04 -5.89230224896E-01 +8.01465388821E-03
1.56500000000E+09 -5.19793102895E-01 +8.25208937492E-02 +2.10204216522E-03 -3.12966994209E-04 +2.22261856960E-03 -3.13990143835E-04 -6.32408020405E-01 +6.33335046713E-02
1.57000000000E+09 -5.56950593685E-01 +1.42116477108E-01 +1.71153059094E-03 -3.95797734009E-04 +1.88001147157E-03 -4.24721181445E-04 -6.64136156420E-01 +1.18272545407E-01
