# Hz S RI R 50
! CMT, C1220, 16058040, 17.2.0/1
! Date: 14/08/2018 12:32:03
! Data: Format (Calibration Info)
! Freq                      S11: Re/Im (F2)                       S21: Re/Im (F2)                       S12: Re/Im (F2)                       S22: Re/Im (F2)            
1.00000000000E+09 -6.32380491288E-01 +7.07662466359E-01 +1.99241955708E-06 +2.13940912488E-05 -2.07788304610E-05 +1.93946578356E-05 -7.53199142540E-01 +6.23751860881E-01
1.00500000000E+09 -6.25204682100E-01 +7.12670169336E-01 -9.94821213532E-06 +9.93775490912E-06 -7.86190549636E-05 +2.59844783405E-05 -7.49863704730E-01 +6.27789466209E-01
1.01000000000E+09 -6.19018646390E-01 +7.17156317603E-01 -8.08929647660E-06 +4.49142604947E-05 +4.78869915852E-05 +1.96891989771E-05 -7.46123320223E-01 +6.31453177852E-01
1.01500000000E+09 -6.14284003018E-01 +7.21211726708E-01 +2.06945784712E-05 -2.03069170561E-05 -5.48445935714E-05 +2.52306953829E-06 -7.43104226238E-01 +6.34992012351E-01
1.02000000000E+09 -6.10650133492E-01 +7.24728724936E-01 -1.23595713220E-05 -2.61642142145E-05 -2.01685049303E-05 -1.95082241286E-06 -7.39682952368E-01 +6.38703280994E-01
1.02500000000E+09 -6.08153164340E-01 +7.27665199661E-01 +1.35593180208E-05 +4.72363391051E-05 -9.38450914617E-05 +1.21202137019E-05 -7.36826606787E-01 +6.42254176239E-01
1.03000000000E+09 -6.06081525907E-01 +7.30128850986E-01 -7.50988160053E-05 -2.95469384326E-05 -2.72768259910E-05 +1.84306207737E-05 -7.33366296889E-01 +6.46059243327E-01
1.03500000000E+09 -6.03216497240E-01 +7.32694480888E-01 -3.71154083325E-06 -2.00134420536E-05 -3.19252232167E-05 +5.23731437268E-05 -7.29773630199E-01 +6.50063611045E-01
1.04000000000E+09 -5.99406629502E-01 +7.35349363880E-01 +1.82889811042E-05 +3.54192453768E-05 -3.65437012689E-05 +1.39974918478E-05 -7.25845602218E-01 +6.53626262133E-01
1.04500000000E+09 -5.94159480101E-01 +7.38512042393E-01 -3.16991111302E-05 +2.82261385034E-05 +6.33141774318E-06 +1.74601415921E-05 -7.22386370772E-01 +6.57115051515E-01
1.05000000000E+09 -5.87449052749E-01 +7.42430722531E-01 -1.47915318220E-05 +2.77300824104E-05 +1.17306859935E-06 +3.49559783763E-05 -7.19016567988E-01 +6.60465983622E-01
1.05500000000E+09 -5.79648172193E-01 +7.46742525019E-01 +2.55523232319E-05 +3.33635813693E-06 -2.57766256064E-05 +1.87433813739E-05 -7.15747847393E-01 +6.64184018961E-01
1.06000000000E+09 -5.71125157231E-01 +7.51643050774E-01 -4.71994817027E-05 +8.01490216221E-05 +6.51405107639E-07 +9.82907374138E-06 -7.12336637877E-01 +6.68006109306E-01
1.06500000000E+09 -5.63047700085E-01 +7.56553494555E-01 -1.16466698546E-05 +2.74076330447E-05 -3.47308370280E-05 +6.44292659050E-05 -7.08430823956E-01 +6.71798804776E-01
1.07000000000E+09 -5.55772117051E-01 +7.60823821945E-01 -1.95727408352E-05 +2.90333935883E-05 -3.47445480449E-05 +4.50958787711E-05 -7.04347163813E-01 +6.75596549720E-01
1.07500000000E+09 -5.50171606330E-01 +7.64897496083E-01 -1.17989149811E-05 +2.09671116685E-05 +8.31349924231E-06 +3.48813667270E-05 -7.00009979630E-01 +6.79292971842E-01
1.08000000000E+09 -5.45859323429E-01 +7.68183848954E-01 +3.47405663808E-05 +9.13714797398E-05 +5.00641844316E-05 +2.50550752312E-05 -6.96138830189E-01 +6.83124747918E-01
1.08500000000E+09 -5.42825585137E-01 +7.70828861717E-01 +7.38763500101E-06 +3.48237091422E-05 +6.33358632919E-06 +4.33349533278E-05 -6.92420922851E-01 +6.86725795830E-01
1.09000000000E+09 -5.40290018719E-01 +7.73094262075E-01 +2.90979126059E-05 +3.22693496571E-05 +5.92701294935E-05 +7.18810858081E-06 -6.88674162842E-01 +6.90675071179E-01
1.09500000000E+09 -5.38075284811E-01 +7.74992919853E-01 +2.00191983069E-05 +5.71947975458E-06 +5.67441253658E-05 -9.24252219658E-07 -6.84910518020E-01 +6.94323919022E-01
1.10000000000E+09 -5.34463263471E-01 +7.77243269520E-01 +3.35485352804E-05 +2.81181382609E-05 +4.34144326382E-05 +1.14241117022E-05 -6.81002830149E-01 +6.98215578763E-01
1.10500000000E+09 -5.30000881288E-01 +7.79806589735E-01 +5.04220763024E-05 +1.03399762798E-05 +4.63870753639E-05 +4.48912498901E-05 -6.76671403966E-01 +7.01552249879E-01
1.11000000000E+09 -5.24005931855E-01 +7.82798253974E-01 -5.94455028030E-06 +1.20057197302E-06 +3.93785936498E-05 +8.03466879845E-06 -6.72544960767E-01 +7.05040623667E-01
1.11500000000E+09 -5.16839522598E-01 +7.86603912860E-01 +4.52203132631E-05 +1.10701247378E-05 +4.46753351373E-05 +2.70263844729E-05 -6.68486086083E-01 +7.08418157774E-01
1.12000000000E+09 -5.09188677766E-01 +7.90490744379E-01 -1.77376995780E-05 +1.50696323918E-05 +4.49496136730E-05 +5.71702424904E-05 -6.64488086892E-01 +7.12030265323E-01
1.12500000000E+09 -5.01386545164E-01 +7.94332343389E-01 +4.38483166786E-06 +4.91497007183E-05 +4.43209221134E-05 +2.87176307244E-05 -6.60309670448E-01 +7.16075313385E-01
1.13000000000E+09 -4.94492859724E-01 +7.98082811048E-01 +3.95654022323E-05 +8.14691517061E-06 +5.24850690009E-05 +3.57700249605E-05 -6.55912208561E-01 +7.19983248790E-01
1.13500000000E+09 -4.88609295926E-01 +8.00855259308E-01 +5.87938814532E-05 +3.72793128442E-05 +5.71665231316E-05 -6.50396698688E-06 -6.51361999064E-01 +7.23751570067E-01
1.14000000000E+09 -4.83809503592E-01 +8.03315614481E-01 +3.33422970065E-05 +2.76917275583E-05 +1.45789455140E-05 +2.35570852160E-05 -6.46471802592E-01 +7.27128653603E-01
1.14500000000E+09 -4.80052069065E-01 +8.04832171446E-01 +5.47265802743E-06 -4.46377449225E-05 +4.28835192979E-05 +3.42483166593E-06 -6.41888641821E-01 +7.30659602867E-01
1.15000000000E+09 -4.76613316992E-01 +8.06110386057E-01 +5.73088210250E-05 +8.31794663697E-06 +3.70521495549E-05 -9.31081566705E-06 -6.37197867398E-01 +7.34417556007E-01
1.15500000000E+09 -4.72978822906E-01 +8.07742215019E-01 +4.13915789887E-05 -2.65760150051E-05 +2.82359463504E-05 -3.21230720398E-05 -6.32537805767E-01 +7.38333040478E-01
1.16000000000E+09 -4.68314256745E-01 +8.09527229309E-01 +5.91478049399E-05 -2.92716149198E-05 +2.46114245946E-05 +1.90897010227E-05 -6.27720051194E-01 +7.42215609510E-01
1.16500000000E+09 -4.62327721686E-01 +8.11929849741E-01 +5.17118699963E-05 -9.38916173389E-06 +4.78965858828E-05 +8.73913525484E-06 -6.22745950615E-01 +7.45781285954E-01
1.17000000000E+09 -4.55387708530E-01 +8.14916505351E-01 +6.83464624522E-05 -1.55402520885E-05 +6.29144531351E-05 -6.32071312891E-05 -6.17400149878E-01 +7.49078099508E-01
1.17500000000E+09 -4.47342596624E-01 +8.18215782980E-01 +1.33554684222E-04 -2.14008499144E-05 +7.62472864336E-05 -3.16644521738E-05 -6.11752815841E-01 +7.52295273437E-01
1.18000000000E+09 -4.39314809858E-01 +8.21807483899E-01 +2.46163548007E-05 -4.78410213150E-05 +6.77726258279E-05 -4.98901854383E-05 -6.06310627111E-01 +7.55309574982E-01
1.18500000000E+09 -4.31140925336E-01 +8.25106963225E-01 +5.02502673448E-05 -7.02726368468E-05 +6.05966942359E-05 -1.55982256349E-05 -6.00423829094E-01 +7.58497943045E-01
1.19000000000E+09 -4.23893860393E-01 +8.27798729308E-01 +8.52205729684E-05 -1.01946340019E-04 +7.43469607711E-05 -9.30870253411E-05 -5.94215906505E-01 +7.60845824072E-01
1.19500000000E+09 -4.17654971156E-01 +8.29913804249E-01 +2.64196298474E-05 -1.15277616507E-04 +3.36436370111E-05 -1.51306834736E-04 -5.88367052357E-01 +7.62186141312E-01
1.20000000000E+09 -4.12705761045E-01 +8.30809058895E-01 +2.95987797803E-05 -1.52866826898E-04 -7.22461354688E-05 -1.45066379382E-04 -5.83920453919E-01 +7.62411285927E-01
1.20500000000E+09 -4.08012913504E-01 +8.31922214534E-01 -7.10169043023E-05 -1.55613909077E-04 -8.12140103965E-05 -1.51759156310E-04 -5.81407406888E-01 +7.63210091070E-01
1.21000000000E+09 -4.03430590569E-01 +8.32889357217E-01 -5.45275552533E-05 -8.60024743181E-05 -5.51667546386E-05 -5.92868189809E-05 -5.79454091281E-01 +7.66308495671E-01
1.21500000000E+09 -3.97554207466E-01 +8.34061902361E-01 -8.51544152598E-05 -2.01872369020E-06 -6.23627649343E-05 -6.98700234262E-05 -5.76694283403E-01 +7.70872203509E-01
1.22000000000E+09 -3.90262390963E-01 +8.35903931051E-01 -5.59836934239E-05 -4.61357964584E-05 -6.02854873427E-05 -4.74554582956E-05 -5.72511562223E-01 +7.76501169269E-01
1.22500000000E+09 -3.81416108589E-01 +8.38136651360E-01 -3.77724122738E-05 -4.09737230836E-05 -5.45312838305E-05 -7.07263254980E-06 -5.67353922945E-01 +7.81449118394E-01
1.23000000000E+09 -3.71443948932E-01 +8.41053477835E-01 -6.32363081344E-05 -4.58677775012E-05 -3.80589744715E-05 -1.39967983601E-05 -5.61694475200E-01 +7.86133519931E-01
1.23500000000E+09 -3.61168247421E-01 +8.44479311262E-01 -3.39257866017E-05 -5.47710844698E-05 -1.41434231104E-05 -3.99104492427E-05 -5.55836104441E-01 +7.90354372003E-01
1.24000000000E+09 -3.51101571620E-01 +8.48250022015E-01 -3.40239474296E-05 -4.21847565070E-05 -2.66695278582E-05 -1.74842671111E-05 -5.49889469692E-01 +7.94427143540E-01
1.24500000000E+09 -3.41796551643E-01 +8.52318025528E-01 -7.92293206877E-05 -5.75786009682E-05 -6.90751227795E-05 -4.84429326821E-05 -5.43691634394E-01 +7.98241123365E-01
1.25000000000E+09 -3.33600493675E-01 +8.55856774956E-01 -2.86907074644E-05 -5.23224088326E-05 -8.47327491733E-05 -5.07673363439E-05 -5.37138094794E-01 +8.02369094714E-01
1.25500000000E+09 -3.26550115403E-01 +8.58410767246E-01 -3.56559767055E-05 -3.42376981812E-05 -5.56338962243E-05 -5.60556849076E-05 -5.30484026537E-01 +8.06403938492E-01
1.26000000000E+09 -3.20344592968E-01 +8.60139199611E-01 -8.85745231098E-05 -4.90598682095E-05 -9.84653875035E-05 -2.32735500729E-05 -5.23755512605E-01 +8.10572452702E-01
1.26500000000E+09 -3.14750316574E-01 +8.61105914905E-01 -7.71152011827E-05 +3.83517635704E-07 -9.28192402568E-05 +2.07103614640E-05 -5.16798035524E-01 +8.14349872382E-01
1.27000000000E+09 -3.08527040194E-01 +8.61789644660E-01 -2.79111533857E-05 +1.57106389942E-05 -7.45363048285E-05 -3.96802790434E-06 -5.10058213928E-01 +8.18238317347E-01
1.27500000000E+09 -3.01242145898E-01 +8.62375265099E-01 -7.55312228643E-05 -6.94315385991E-07 -6.92258605300E-05 -2.28600351126E-05 -5.02798805467E-01 +8.21732354156E-01
1.28000000000E+09 -2.92238166405E-01 +8.63210622458E-01 -7.95464439221E-05 -2.19249642636E-05 -8.15594360036E-05 -2.08030604594E-05 -4.95742079283E-01 +8.25390832602E-01
1.28500000000E+09 -2.81315296639E-01 +8.64518143300E-01 -6.82858659112E-05 +2.11566165663E-05 -9.11215401220E-05 +2.30244867688E-06 -4.88150878306E-01 +8.28988049071E-01
1.29000000000E+09 -2.69447012388E-01 +8.66410160034E-01 -7.08987805513E-05 +2.88504684374E-05 -8.19289892963E-05 +5.50462127128E-06 -4.80613301071E-01 +8.32961058033E-01
1.29500000000E+09 -2.57443439030E-01 +8.68981154420E-01 -9.48446759629E-05 +8.28551092349E-06 -1.00786995710E-04 -7.35581097799E-06 -4.72750833217E-01 +8.36482902055E-01
1.30000000000E+09 -2.45758760731E-01 +8.72269025315E-01 -9.28430496086E-05 +4.76756986300E-06 -1.58980135541E-04 -5.25892246488E-07 -4.65020943125E-01 +8.39997957964E-01
1.30500000000E+09 -2.35223927587E-01 +8.75584042836E-01 -9.65528687607E-05 +3.43270364211E-05 -1.12698787334E-04 +2.38937133741E-05 -4.56853758816E-01 +8.43481706923E-01
1.31000000000E+09 -2.26053820748E-01 +8.78239714940E-01 -5.74194788103E-05 +3.45038976298E-05 -1.06973430357E-04 -5.78990165081E-06 -4.48401419993E-01 +8.46818083827E-01
1.31500000000E+09 -2.18489415616E-01 +8.80158849134E-01 -7.34384817760E-05 +3.57644481062E-05 -1.08117966779E-04 +4.16173481572E-05 -4.39703177331E-01 +8.50410582554E-01
1.32000000000E+09 -2.12254122672E-01 +8.81014160088E-01 -1.23014846425E-04 +2.38051413178E-05 -1.06803042305E-04 +3.43394861839E-06 -4.30701761979E-01 +8.53710016297E-01
1.32500000000E+09 -2.06407318231E-01 +8.80953418430E-01 -1.50420290068E-04 +2.43066300446E-05 -1.12097816010E-04 +5.03141402773E-05 -4.21145508472E-01 +8.57077198281E-01
1.33000000000E+09 -1.99689158445E-01 +8.80464400088E-01 -1.85033256875E-04 +4.00407013679E-05 -1.76566720147E-04 +4.81127659020E-05 -4.11619817303E-01 +8.60200932443E-01
1.33500000000E+09 -1.90994799042E-01 +8.79541110348E-01 -2.00348243063E-04 +6.13994446096E-05 -1.65680909186E-04 +7.94151464136E-05 -4.01992278508E-01 +8.63471029026E-01
1.34000000000E+09 -1.79900760663E-01 +8.78589008117E-01 -1.80634633280E-04 +1.38501178817E-04 -1.58606415942E-04 +1.69191131933E-04 -3.91759207836E-01 +8.66761624900E-01
1.34500000000E+09 -1.66448151008E-01 +8.77810349794E-01 -1.57513468089E-04 +1.97634172362E-04 -1.74403371940E-04 +1.93759793449E-04 -3.80863271012E-01 +8.70009646452E-01
1.35000000000E+09 -1.51207240249E-01 +8.77409039008E-01 -1.50810371801E-04 +1.79387383136E-04 -7.30782313529E-05 +1.77049747067E-04 -3.69650780353E-01 +8.73097708462E-01
1.35500000000E+09 -1.34824524020E-01 +8.77853534076E-01 -1.15298071855E-04 +2.14196419431E-04 -1.42578498209E-04 +2.19526171760E-04 -3.57832771908E-01 +8.76159224974E-01
1.36000000000E+09 -1.18522792066E-01 +8.78523852322E-01 -1.36504458202E-04 +2.90837123825E-04 -1.26171897150E-04 +2.50411624460E-04 -3.45846666082E-01 +8.78723215980E-01
1.36500000000E+09 -1.02931390655E-01 +8.79295705943E-01 -1.05142483384E-04 +3.30954252299E-04 -1.09673696326E-04 +3.11935328939E-04 -3.33647880691E-01 +8.81101392286E-01
1.37000000000E+09 -8.88939112401E-02 +8.79667802372E-01 -7.61473446867E-05 +3.33839077816E-04 -4.88386502908E-05 +3.33165785236E-04 -3.20774061330E-01 +8.83565902617E-01
1.37500000000E+09 -7.67273316939E-02 +8.79312744945E-01 -2.77927090928E-05 +4.16490487175E-04 -6.94740772238E-06 +4.25721520590E-04 -3.06999516207E-01 +8.85715340514E-01
1.38000000000E+09 -6.60007960715E-02 +8.78414950134E-01 +1.30700826968E-04 +4.04124636392E-04 +8.04694935947E-05 +4.34860275759E-04 -2.92383670601E-01 +8.87867846392E-01
1.38500000000E+09 -5.50757408400E-02 +8.76685429523E-01 +1.78863141680E-04 +3.99409388002E-04 +1.38681046812E-04 +4.35342643138E-04 -2.76985490593E-01 +8.89785361197E-01
1.39000000000E+09 -4.33135063698E-02 +8.73999918508E-01 +1.94747887432E-04 +3.05329100215E-04 +2.04544860288E-04 +3.91460365347E-04 -2.61113417617E-01 +8.91115782992E-01
1.39500000000E+09 -2.95665120629E-02 +8.70428827678E-01 +2.39536138713E-04 +3.26945016576E-04 +2.72115784849E-04 +3.61704941850E-04 -2.44351497409E-01 +8.91878754674E-01
1.40000000000E+09 -1.31980899913E-02 +8.65798679556E-01 +1.90015607012E-04 +4.38419785207E-04 +2.49785266910E-04 +3.16878922398E-04 -2.26887365771E-01 +8.92143652419E-01
1.40500000000E+09 +5.17033698971E-03 +8.60680692441E-01 +3.03396981897E-04 +3.94040081754E-04 +3.32612602795E-04 +4.27243026307E-04 -2.08620886698E-01 +8.91818678655E-01
1.41000000000E+09 +2.56288472968E-02 +8.55282066159E-01 +4.47213289057E-04 +3.54144740585E-04 +4.27595001401E-04 +3.93971844677E-04 -1.88618018441E-01 +8.90965124788E-01
1.41500000000E+09 +4.72630050944E-02 +8.49629819476E-01 +5.26263579746E-04 +3.80824402484E-04 +5.85579144578E-04 +4.12153581819E-04 -1.67281215365E-01 +8.89482184040E-01
1.42000000000E+09 +6.94459578854E-02 +8.43804272000E-01 +6.54839870306E-04 +1.84355869894E-04 +7.19702868220E-04 +1.89011926266E-04 -1.44430176516E-01 +8.86843792577E-01
1.42500000000E+09 +9.13880499519E-02 +8.36633164633E-01 +5.25472385693E-04 +1.49640762680E-04 +6.27225616312E-04 +1.59822271069E-04 -1.20890974347E-01 +8.83198044759E-01
1.43000000000E+09 +1.11973549893E-01 +8.28189547824E-01 +7.03381711151E-04 +1.67414006243E-04 +8.10121372369E-04 +4.80859920194E-05 -9.63675282742E-02 +8.78398502463E-01
1.43500000000E+09 +1.31825229143E-01 +8.18035851447E-01 +8.38588171773E-04 -5.52348975491E-05 +8.36225356907E-04 -1.49420412894E-04 -7.02572266072E-02 +8.71945896502E-01
1.44000000000E+09 +1.51703889500E-01 +8.06026200766E-01 +7.99182926959E-04 -1.97925401939E-04 +7.95327768602E-04 -2.43374377177E-04 -4.24047299700E-02 +8.63523653239E-01
1.44500000000E+09 +1.72743309506E-01 +7.91306269771E-01 +8.57629909294E-04 -2.48376402798E-04 +8.39565905696E-04 -3.59121821281E-04 -1.21548461732E-02 +8.52437424546E-01
1.45000000000E+09 +1.95493591280E-01 +7.72971432235E-01 +8.18836098102E-04 -3.82224753539E-04 +8.13495385994E-04 -4.44948192167E-04 +1.95504257582E-02 +8.37976941449E-01
1.45500000000E+09 +2.20738838011E-01 +7.51175802654E-01 +9.28601407980E-04 -5.23268728099E-04 +8.87167880998E-04 -5.93394234110E-04 +5.29315793418E-02 +8.20323322235E-01
1.46000000000E+09 +2.48892176657E-01 +7.25185741458E-01 +9.47969539479E-04 -7.33144345848E-04 +8.55003647905E-04 -7.82154797342E-04 +8.72056271337E-02 +7.98856660658E-01
1.46500000000E+09 +2.78479895175E-01 +6.95216566110E-01 +1.06655335879E-03 -1.17159948664E-03 +8.73568397859E-04 -1.13476148549E-03 +1.22937441032E-01 +7.72311705692E-01
1.47000000000E+09 +3.09608126061E-01 +6.61402780075E-01 +6.92661365216E-04 -1.49104790381E-03 +6.08840569727E-04 -1.40077292011E-03 +1.58988285435E-01 +7.39446999594E-01
1.47500000000E+09 +3.40560837556E-01 +6.22313026479E-01 +3.14283450362E-04 -1.74098424149E-03 +3.91995221205E-04 -1.59883454105E-03 +1.96685906229E-01 +6.99853063250E-01
1.48000000000E+09 +3.69092817378E-01 +5.77213148242E-01 -3.92235454551E-05 -1.60495584184E-03 -2.77190340216E-06 -1.63672945666E-03 +2.33521535961E-01 +6.50518875798E-01
1.48500000000E+09 +3.93148187169E-01 +5.26006323800E-01 -7.79648325394E-05 -1.75148587934E-03 -1.93767128441E-05 -1.78513340624E-03 +2.67539351103E-01 +5.92390603100E-01
1.49000000000E+09 +4.11489499925E-01 +4.67341603837E-01 -4.79115391327E-04 -2.14019498720E-03 -6.01112484048E-04 -2.10818314641E-03 +2.96363089695E-01 +5.23641757303E-01
1.49500000000E+09 +4.21967878884E-01 +4.00693736460E-01 -1.02222668212E-03 -2.28830449294E-03 -1.04278647784E-03 -2.12077622349E-03 +3.15408429869E-01 +4.44830409219E-01
1.50000000000E+09 +4.22943749136E-01 +3.24589293719E-01 -1.83647237367E-03 -2.57901541635E-03 -1.75571605042E-03 -2.44471042645E-03 +3.21968839110E-01 +3.56037225175E-01
1.50500000000E+09 +4.11000277495E-01 +2.39377674296E-01 -3.35233422365E-03 -1.82810094832E-03 -3.16878960327E-03 -1.84379922465E-03 +3.11730633413E-01 +2.60642496325E-01
1.51000000000E+09 +3.82282999687E-01 +1.48396263098E-01 -3.54783698272E-03 -7.83795317967E-05 -3.47644202205E-03 -1.97002819497E-04 +2.82865631067E-01 +1.60023199396E-01
1.51500000000E+09 +3.34648880045E-01 +5.71816993078E-02 -3.03750967755E-03 +5.39156163025E-04 -3.09440493300E-03 +4.59743841113E-04 +2.30038264162E-01 +6.05988918594E-02
1.52000000000E+09 +2.67743559644E-01 -2.75866023211E-02 -3.31274805023E-03 +1.26911241138E-03 -3.35632968200E-03 +1.20074503234E-03 +1.54206739872E-01 -2.73477712519E-02
1.52500000000E+09 +1.83031402485E-01 -9.89543494308E-02 -2.22594339182E-03 +2.44050368083E-03 -2.22305180104E-03 +2.42806685347E-03 +5.97865989474E-02 -9.77202937058E-02
1.53000000000E+09 +8.17280132258E-02 -1.50282436586E-01 -1.67145547132E-03 +2.20327360571E-03 -1.72427102880E-03 +2.25220182239E-03 -4.78627288378E-02 -1.44951168095E-01
1.53500000000E+09 -2.88725222863E-02 -1.74193849243E-01 -1.73586663115E-03 +2.86717506224E-03 -1.66088200215E-03 +2.89012950079E-03 -1.61257603153E-01 -1.66454435173E-01
1.54000000000E+09 -1.39849038621E-01 -1.69996904603E-01 -5.26526287903E-04 +3.68117694103E-03 -5.21924495071E-04 +3.62572427202E-03 -2.71476434875E-01 -1.63755052043E-01
1.54500000000E+09 -2.43781160035E-01 -1.42094015717E-01 +1.09130532917E-03 +3.35806241116E-03 +1.00450888708E-03 +3.36387206901E-03 -3.71320968355E-01 -1.40937657397E-01
1.55000000000E+09 -3.35759520959E-01 -9.61364055361E-02 +1.79353485577E-03 +2.70034345355E-03 +1.72943235805E-03 +2.75583881027E-03 -4.58945075666E-01 -1.03546162103E-01
1.55500000000E+09 -4.13653578324E-01 -3.88761842726E-02 +2.42116535770E-03 +1.82625520873E-03 +2.37730716615E-03 +2.00294742876E-03 -5.31027826652E-01 -5.43466730183E-02
1.56000000000E+09 -4.76788538583E-01 +2.36986339362E-02 +2.56368109684E-03 +5.55379868728E-04 +2.66192602923E-03 +6.24777631601E-04 -5.87893601795E-01 -6.50064019430E-04
1.56500000000E+09 -5.24431072434E-01 +8.67388542105E-02 +1.87302497138E-03 -9.36866240127E-05 +2.00351126545E-03 -7.42260865063E-05 -6.32994419760E-01 +5.54461399132E-02
1.57000000000E+09 -5.60210046551E-01 +1.46662685032E-01 +1.52279132788E-03 -2.63189560306E-04 +1.62445411626E-03 -3.10326212641E-04 -6.66235594343E-01 +1.11285350610E-01
