# Hz S RI R 50
! CMT, C1220, 16058040, 17.2.0/1
! Date: 14/08/2018 12:33:07
! Data: Format (Calibration Info)
! Freq                      S11: Re/Im (F2)                       S21: Re/Im (F2)                       S12: Re/Im (F2)                       S22: Re/Im (F2)            
1.00000000000E+09 -6.33404270191E-01 +7.08153194929E-01 -2.93746896457E-07 -1.60467690244E-07 +1.12178649217E-05 +1.79966687901E-05 -7.53255790469E-01 +6.23601225239E-01
1.00500000000E+09 -6.26200199153E-01 +7.13187156835E-01 -2.34167231883E-05 +2.81836136827E-05 +4.90351434152E-05 -2.34263462083E-05 -7.49725624198E-01 +6.27859658534E-01
1.01000000000E+09 -6.19949206232E-01 +7.17842857861E-01 +4.68753955563E-05 +1.20127186757E-05 -5.22958420129E-06 -1.22271641572E-05 -7.46184310346E-01 +6.31342366335E-01
1.01500000000E+09 -6.15220371192E-01 +7.21789604830E-01 -5.52072079769E-07 -2.25658095680E-05 +1.80572654606E-05 -1.26803482832E-05 -7.43060612238E-01 +6.35100755561E-01
1.02000000000E+09 -6.11680595408E-01 +7.25309233240E-01 -7.75501743608E-06 +3.87299985743E-05 +6.91208668611E-06 -2.96186272367E-05 -7.39808962896E-01 +6.38580674080E-01
1.02500000000E+09 -6.09011645695E-01 +7.28033956320E-01 +2.18698103859E-06 -2.35984594408E-05 +1.50120148820E-05 +4.18782887089E-05 -7.36939671120E-01 +6.42241464655E-01
1.03000000000E+09 -6.06909867775E-01 +7.30635976827E-01 +5.18898734541E-06 +1.46793057132E-06 +2.09925154706E-05 -1.18701115826E-05 -7.33490752509E-01 +6.46138539848E-01
1.03500000000E+09 -6.04148535101E-01 +7.33120711344E-01 +1.39144114582E-05 -3.86812579485E-06 -3.22065305310E-05 +1.03134327809E-07 -7.29726016261E-01 +6.50122629273E-01
1.04000000000E+09 -6.00351459441E-01 +7.35847862754E-01 +1.67272315754E-05 +3.00984025491E-05 -5.66936698170E-05 -2.67567749385E-05 -7.25883547049E-01 +6.53819923410E-01
1.04500000000E+09 -5.95118984347E-01 +7.39236471932E-01 -4.46433754817E-06 +4.55681612471E-05 +1.60385961092E-05 -7.44018071171E-05 -7.22279432062E-01 +6.57220347003E-01
1.05000000000E+09 -5.88341218120E-01 +7.43125095122E-01 -2.78111051551E-05 +2.75029718724E-06 -5.21284719262E-05 +7.80727504723E-07 -7.18847136200E-01 +6.60513385960E-01
1.05500000000E+09 -5.80461285933E-01 +7.47526860752E-01 -9.71314230790E-06 +1.40285445079E-05 -1.19306875921E-05 +2.75506323360E-05 -7.15631821017E-01 +6.64245257787E-01
1.06000000000E+09 -5.72147728958E-01 +7.52288466103E-01 -2.41306518954E-05 +1.92478472256E-05 +1.07100623134E-06 -7.45420733937E-06 -7.12224005872E-01 +6.68113873386E-01
1.06500000000E+09 -5.63955872897E-01 +7.57115181270E-01 -2.50017913331E-05 +3.04011518033E-05 -5.19071570631E-05 +5.82977031776E-05 -7.08528363949E-01 +6.71767346519E-01
1.07000000000E+09 -5.56827410123E-01 +7.61647937347E-01 -1.53546608627E-05 +2.04874675088E-05 +2.96641770291E-05 +7.17213424070E-05 -7.04498782297E-01 +6.75808690106E-01
1.07500000000E+09 -5.51051857009E-01 +7.65433395798E-01 -1.76580806795E-05 +1.48920435173E-05 +4.35167824169E-05 +3.05790230533E-05 -7.00182035800E-01 +6.79422565293E-01
1.08000000000E+09 -5.46828679789E-01 +7.68964793573E-01 +2.20861582072E-05 +1.07041043281E-05 +2.50217783393E-05 +4.34717338712E-05 -6.96209924962E-01 +6.83198156232E-01
1.08500000000E+09 -5.43787209071E-01 +7.71327287064E-01 +2.26736400281E-06 -4.08628862080E-06 -1.28921846486E-05 +2.45914649055E-05 -6.92255191359E-01 +6.86713889099E-01
1.09000000000E+09 -5.41353636135E-01 +7.73713027101E-01 +1.17994626596E-05 +7.93829300453E-06 +5.18780020442E-05 -2.77864035100E-07 -6.88689553448E-01 +6.90354614094E-01
1.09500000000E+09 -5.38891755081E-01 +7.75565982837E-01 -6.58513278032E-05 +1.01891987334E-05 +2.86007781670E-05 +1.18103466637E-05 -6.84836134275E-01 +6.94416085332E-01
1.10000000000E+09 -5.35375688737E-01 +7.77670542586E-01 +1.80394934500E-05 +1.38630404915E-05 +5.56723824797E-05 -1.03344954979E-05 -6.80935491669E-01 +6.98306426398E-01
1.10500000000E+09 -5.30835250833E-01 +7.80256307135E-01 +5.73891083481E-05 -1.03804910175E-05 +1.29853402696E-06 -1.45479142305E-05 -6.76733143334E-01 +7.01759220653E-01
1.11000000000E+09 -5.24855630625E-01 +7.83521370934E-01 +1.36906742348E-05 -7.43374408770E-06 +2.10380327601E-05 -1.64722125932E-05 -6.72474214440E-01 +7.05079672683E-01
1.11500000000E+09 -5.17715312435E-01 +7.87278962068E-01 +6.97358608566E-06 +2.19521211983E-05 +3.36966063670E-05 -4.35561417064E-06 -6.68501164486E-01 +7.08644384957E-01
1.12000000000E+09 -5.10076238741E-01 +7.91059144181E-01 +3.64998997026E-05 +3.35005824611E-06 +2.98639358741E-05 +9.41780034254E-07 -6.64428000461E-01 +7.12096222578E-01
1.12500000000E+09 -5.02367419810E-01 +7.95124797785E-01 +3.05294173697E-05 +1.59118041619E-05 -1.58724987702E-05 +2.53529770733E-05 -6.60250582495E-01 +7.15965224862E-01
1.13000000000E+09 -4.95453776949E-01 +7.98603289491E-01 +5.24049718227E-05 +4.35911202437E-05 +4.30690739434E-05 +4.77433016482E-06 -6.55776114024E-01 +7.19797330492E-01
1.13500000000E+09 -4.89526916992E-01 +8.01380205681E-01 +4.29101487692E-05 +4.33884398074E-05 +3.98046005383E-05 -5.50616890316E-06 -6.51208770477E-01 +7.23589626002E-01
1.14000000000E+09 -4.84821177686E-01 +8.03880146431E-01 +4.95071867707E-05 -3.89885183385E-05 +3.78783532851E-05 +9.48558092156E-06 -6.46287647808E-01 +7.27190769874E-01
1.14500000000E+09 -4.81000746600E-01 +8.05327310306E-01 +6.34381311938E-05 -5.31931107388E-05 +2.24658423787E-05 +1.18499543246E-05 -6.41760838291E-01 +7.30699108798E-01
1.15000000000E+09 -4.77532806319E-01 +8.06737754157E-01 +3.07844780573E-05 -5.92166530694E-06 +3.67794900517E-05 +1.81186372735E-05 -6.37016408434E-01 +7.34394812443E-01
1.15500000000E+09 -4.73911402203E-01 +8.08273153889E-01 +3.39145922864E-05 -3.92359170152E-05 +7.96065430087E-06 -1.05052592267E-05 -6.32574920895E-01 +7.38491157168E-01
1.16000000000E+09 -4.69160900025E-01 +8.10066028773E-01 +5.30806891940E-05 +5.58588837622E-06 +4.31488024599E-05 -8.65351149292E-06 -6.27638402556E-01 +7.42202959962E-01
1.16500000000E+09 -4.63325700770E-01 +8.12527688324E-01 +2.75374752759E-05 +1.01389476751E-05 +3.27859850803E-05 +9.30123881814E-06 -6.22683182028E-01 +7.45723132816E-01
1.17000000000E+09 -4.56298273435E-01 +8.15540397230E-01 +6.64849719732E-05 -1.23547177422E-05 +1.87920298692E-05 -3.23374648766E-05 -6.17255712626E-01 +7.48953583582E-01
1.17500000000E+09 -4.48274211995E-01 +8.18766305222E-01 +5.58080021213E-05 -4.30002944135E-05 +4.46396247090E-05 -4.03909907738E-05 -6.11580886816E-01 +7.52204383541E-01
1.18000000000E+09 -4.40115962309E-01 +8.22343187081E-01 +5.93459545437E-05 -3.52468449610E-05 +6.75370012112E-05 -4.04191888553E-05 -6.06141160628E-01 +7.55266231128E-01
1.18500000000E+09 -4.32102804158E-01 +8.25605687246E-01 +5.83713898008E-05 -3.16135357415E-05 +4.59839479932E-05 -7.22688714307E-05 -6.00285099803E-01 +7.58311254058E-01
1.19000000000E+09 -4.24680626317E-01 +8.28390673266E-01 +6.22460811856E-06 -5.20421396662E-05 +3.75868919450E-05 -7.74069331028E-05 -5.94204360446E-01 +7.60806807915E-01
1.19500000000E+09 -4.18544852989E-01 +8.30452346986E-01 +3.92036163405E-05 -1.01480089502E-04 +1.00760690409E-04 -1.28861315913E-04 -5.88277838856E-01 +7.62015094741E-01
1.20000000000E+09 -4.13456170468E-01 +8.31327205707E-01 +4.05743358935E-05 -1.61501600423E-04 -5.94646885506E-05 -1.24757262452E-04 -5.83836497062E-01 +7.62265060760E-01
1.20500000000E+09 -4.09072829566E-01 +8.32417155531E-01 -1.04391454527E-04 -1.04527772642E-04 -8.56559398408E-05 -1.24009054576E-04 -5.81596921867E-01 +7.63158821747E-01
1.21000000000E+09 -4.04336479221E-01 +8.33406089802E-01 -9.38270329883E-05 -9.44160384976E-05 -7.59677304976E-05 -7.11143990113E-05 -5.79485668456E-01 +7.66495225593E-01
1.21500000000E+09 -3.98381462439E-01 +8.34734995560E-01 -5.53316829588E-05 -8.64728447011E-05 -7.29059510652E-05 -6.10795690318E-05 -5.76605825326E-01 +7.71020732339E-01
1.22000000000E+09 -3.91094518469E-01 +8.36479618143E-01 -5.13461456590E-05 +2.36076677612E-06 -6.23147699508E-05 -2.48865477605E-05 -5.72268975402E-01 +7.76406917975E-01
1.22500000000E+09 -3.82315674584E-01 +8.38648804807E-01 -9.85825780888E-05 -6.20316958852E-06 -3.33175301058E-05 -2.17105328327E-05 -5.67185105178E-01 +7.81453299054E-01
1.23000000000E+09 -3.72332139938E-01 +8.41563158514E-01 -6.98840750165E-05 -3.74726337939E-05 -3.54479916796E-05 -5.17248424455E-05 -5.61503176393E-01 +7.86164668267E-01
1.23500000000E+09 -3.61987670579E-01 +8.45013792012E-01 -1.03557226989E-05 -2.86547536318E-05 -7.25824729695E-05 -3.59048732486E-05 -5.55743970138E-01 +7.90401990892E-01
1.24000000000E+09 -3.51871331250E-01 +8.48882476626E-01 -5.51607871802E-05 -3.25153875858E-05 +1.47744538946E-05 -4.61399115248E-06 -5.49825752431E-01 +7.94271953023E-01
1.24500000000E+09 -3.42800507079E-01 +8.52934330717E-01 -4.35224814799E-05 -1.04404807370E-04 -1.04065704468E-04 -4.51150296757E-05 -5.43546422137E-01 +7.98099017579E-01
1.25000000000E+09 -3.34694030381E-01 +8.56278480434E-01 -9.32836975415E-05 -6.77127210279E-05 -6.31992833755E-05 -4.93128695852E-05 -5.37073943479E-01 +8.02301760047E-01
1.25500000000E+09 -3.27562326331E-01 +8.58765287138E-01 -6.24876075239E-05 -1.03035367156E-05 -1.13945117794E-04 -5.09753704766E-05 -5.30462677082E-01 +8.06234523085E-01
1.26000000000E+09 -3.21406279172E-01 +8.60665225146E-01 -8.08559995013E-05 -3.30805313552E-05 -8.76698245280E-05 -2.66917690734E-07 -5.23733653124E-01 +8.10447741065E-01
1.26500000000E+09 -3.15643370022E-01 +8.61638619205E-01 -7.66405183371E-05 +1.54940798949E-05 -1.23593961912E-04 -1.39404177059E-05 -5.16932801367E-01 +8.14152927781E-01
1.27000000000E+09 -3.09462550028E-01 +8.62351081330E-01 -5.95290083218E-05 +2.81332425628E-05 -6.43333639435E-05 +1.54622403462E-05 -5.09840318365E-01 +8.18039742420E-01
1.27500000000E+09 -3.02291840759E-01 +8.62884373762E-01 -3.86303915332E-05 -2.95809837863E-05 -8.49913463821E-05 +9.76983405539E-06 -5.02823632177E-01 +8.21665853226E-01
1.28000000000E+09 -2.93057255305E-01 +8.63765381039E-01 -8.51149167466E-05 +4.46203431246E-06 -8.93661315201E-05 -8.10292048719E-06 -4.95738253458E-01 +8.25194144847E-01
1.28500000000E+09 -2.82218122100E-01 +8.65101200586E-01 -7.75434075703E-05 +3.01882765162E-05 -7.42604435545E-05 +1.24656796587E-05 -4.88286473048E-01 +8.29071181260E-01
1.29000000000E+09 -2.70460680031E-01 +8.66912686844E-01 -9.65903776965E-05 +2.44460960135E-05 -6.60738720919E-05 +3.44695607112E-05 -4.80700587969E-01 +8.32814411573E-01
1.29500000000E+09 -2.58406437141E-01 +8.69458833306E-01 -7.77557449160E-05 +2.33062658488E-05 -8.16741179271E-05 +5.62168992671E-05 -4.72700085942E-01 +8.36254517033E-01
1.30000000000E+09 -2.46748004658E-01 +8.72821657737E-01 -1.06176786473E-04 +3.74970328200E-05 -1.08418660385E-04 +3.55046472079E-05 -4.64908891994E-01 +8.39839766992E-01
1.30500000000E+09 -2.36252557790E-01 +8.76028314104E-01 -6.04928366277E-05 +4.55175393833E-05 -9.37278080408E-05 +6.96344402493E-05 -4.56905685606E-01 +8.43275091230E-01
1.31000000000E+09 -2.27071571119E-01 +8.78699456451E-01 -6.88943982817E-05 +4.02505769572E-05 -8.64407701877E-05 +2.72524091442E-05 -4.48518804976E-01 +8.46645041135E-01
1.31500000000E+09 -2.19690500113E-01 +8.80558059434E-01 -3.68862184799E-05 +1.68447092487E-05 -8.62204941229E-05 +2.26293619488E-05 -4.39915539945E-01 +8.50267173256E-01
1.32000000000E+09 -2.13270193937E-01 +8.81424375229E-01 -1.18061766274E-04 -1.68811533870E-05 -9.34275481958E-05 -7.44223739835E-06 -4.30830487231E-01 +8.53504987194E-01
1.32500000000E+09 -2.07663270729E-01 +8.81372216950E-01 -1.26673466177E-04 +1.92228800530E-05 -5.30968551691E-05 +8.94670807059E-05 -4.21444461066E-01 +8.56882105732E-01
1.33000000000E+09 -2.00759400132E-01 +8.81048790857E-01 -1.07599130587E-04 +2.64240512714E-05 -1.31968958268E-04 +7.31644520822E-05 -4.11789248570E-01 +8.60121556294E-01
1.33500000000E+09 -1.92074146995E-01 +8.79994319283E-01 -1.52794987797E-04 +5.55132628594E-05 -1.66886902559E-04 +8.28685664921E-05 -4.02152557773E-01 +8.63373328900E-01
1.34000000000E+09 -1.81009962243E-01 +8.79156000451E-01 -1.68301651887E-04 +1.17945279850E-04 -1.29207187340E-04 +1.11969351168E-04 -3.92042151518E-01 +8.66719244034E-01
1.34500000000E+09 -1.67568421113E-01 +8.78232569720E-01 -1.17706920749E-04 +1.79922294600E-04 -5.76831645797E-05 +1.18854347222E-04 -3.81206966300E-01 +8.69901933658E-01
1.35000000000E+09 -1.52391042574E-01 +8.77819648835E-01 -9.10405698261E-05 +1.81247100408E-04 -1.04961773537E-04 +1.47171860154E-04 -3.69854623871E-01 +8.73066949936E-01
1.35500000000E+09 -1.36192301118E-01 +8.78245645851E-01 -9.93354071611E-05 +1.69847448820E-04 -1.35329118184E-04 +2.00206331619E-04 -3.58197608966E-01 +8.76090902345E-01
1.36000000000E+09 -1.19767807761E-01 +8.78988577861E-01 -8.20913174460E-05 +2.26636017484E-04 -1.13715038683E-04 +2.00085072164E-04 -3.46430482522E-01 +8.78833430417E-01
1.36500000000E+09 -1.04129682012E-01 +8.79763764995E-01 -8.00629952932E-05 +2.61267370245E-04 -8.61288863326E-05 +2.80208968825E-04 -3.34143146210E-01 +8.81355818239E-01
1.37000000000E+09 -9.02358951621E-02 +8.80047707017E-01 -6.20624864938E-05 +3.41068875195E-04 -8.38498140556E-05 +3.09835022054E-04 -3.21329387065E-01 +8.83635580378E-01
1.37500000000E+09 -7.79568713611E-02 +8.79811621811E-01 +6.28213014960E-05 +3.98199582124E-04 +3.26875665278E-05 +3.86086145853E-04 -3.07661791664E-01 +8.85985523367E-01
1.38000000000E+09 -6.71650296714E-02 +8.78911754562E-01 +1.09794956674E-04 +3.75894167385E-04 +8.15537815599E-05 +3.89998967037E-04 -2.92918764903E-01 +8.88197687367E-01
1.38500000000E+09 -5.62582422018E-02 +8.77066498707E-01 +2.25365737601E-04 +3.23091789924E-04 +2.30763745582E-04 +3.82634333988E-04 -2.77491933180E-01 +8.90236692222E-01
1.39000000000E+09 -4.46282922832E-02 +8.74299505759E-01 +2.18594067391E-04 +2.93266204502E-04 +2.60722873619E-04 +3.16452939121E-04 -2.61594723291E-01 +8.91555367205E-01
1.39500000000E+09 -3.08939846248E-02 +8.70787375654E-01 +2.28761458849E-04 +2.85677700250E-04 +2.94270646326E-04 +2.80789096653E-04 -2.44776182800E-01 +8.92561311886E-01
1.40000000000E+09 -1.44968873582E-02 +8.66242032330E-01 +2.04605888849E-04 +2.67956266427E-04 +2.47611293261E-04 +2.85572412036E-04 -2.27555409253E-01 +8.92797684591E-01
1.40500000000E+09 +3.97744245142E-03 +8.60951746566E-01 +3.26448017554E-04 +3.46295619631E-04 +3.33463417130E-04 +2.90566578973E-04 -2.09173367869E-01 +8.92630764924E-01
1.41000000000E+09 +2.42899187130E-02 +8.55601452362E-01 +4.81436588753E-04 +3.41597825972E-04 +4.40149777521E-04 +3.32303024326E-04 -1.89169183742E-01 +8.92130721544E-01
1.41500000000E+09 +4.57523919772E-02 +8.49898650517E-01 +5.45929607304E-04 +2.35225462358E-04 +5.69901329893E-04 +3.37184622715E-04 -1.67643793438E-01 +8.90609386112E-01
1.42000000000E+09 +6.79352143412E-02 +8.44012217996E-01 +6.26654512268E-04 +1.31411303976E-04 +7.11479578180E-04 +1.85794868186E-04 -1.44845905553E-01 +8.88149500479E-01
1.42500000000E+09 +8.96316325654E-02 +8.36961185508E-01 +5.77178141200E-04 +8.12419537411E-05 +6.61473185551E-04 +6.08396691525E-05 -1.21061756148E-01 +8.84813716031E-01
1.43000000000E+09 +1.10099995000E-01 +8.28443184931E-01 +7.24361115058E-04 +6.47836447512E-05 +8.25723681304E-04 +1.57084859365E-05 -9.62343628918E-02 +8.80237104987E-01
1.43500000000E+09 +1.29788980774E-01 +8.18336636858E-01 +7.98175563896E-04 -2.17086578864E-04 +8.17036611264E-04 -2.96500220646E-04 -7.00695066347E-02 +8.73773257934E-01
1.44000000000E+09 +1.49560661743E-01 +8.06620280027E-01 +6.85414335255E-04 -3.23221005664E-04 +6.59198421609E-04 -3.44667789540E-04 -4.19462054878E-02 +8.65603856104E-01
1.44500000000E+09 +1.70634038625E-01 +7.91724229815E-01 +7.56102838959E-04 -3.32991595335E-04 +7.59657236427E-04 -3.56697475242E-04 -1.12807149819E-02 +8.54577666650E-01
1.45000000000E+09 +1.93338088196E-01 +7.73554066984E-01 +7.22823365391E-04 -4.52794671939E-04 +7.17792127524E-04 -5.34157946525E-04 +2.09086892533E-02 +8.40288296447E-01
1.45500000000E+09 +2.18365577334E-01 +7.52096806868E-01 +8.01365894262E-04 -5.03751787511E-04 +7.52461139612E-04 -5.69585701030E-04 +5.47898214539E-02 +8.22897669239E-01
1.46000000000E+09 +2.46339422089E-01 +7.26182774537E-01 +9.28542296446E-04 -7.51178029035E-04 +8.43860980786E-04 -7.99154440913E-04 +8.99645353578E-02 +8.01313875695E-01
1.46500000000E+09 +2.75588276393E-01 +6.96533315324E-01 +9.13061830436E-04 -1.29528197016E-03 +7.68316687729E-04 -1.18878726537E-03 +1.26410698624E-01 +7.74355673863E-01
1.47000000000E+09 +3.06649523247E-01 +6.63170371994E-01 +4.98382796323E-04 -1.54854123094E-03 +4.42563375315E-04 -1.46259699098E-03 +1.63652034932E-01 +7.41080588310E-01
1.47500000000E+09 +3.37637538207E-01 +6.24499399516E-01 +4.01681532157E-05 -1.68718729043E-03 +1.26062506767E-04 -1.60424166512E-03 +2.01967194177E-01 +7.00321695066E-01
1.48000000000E+09 +3.66355542551E-01 +5.79637445340E-01 -1.14035271478E-04 -1.49430300467E-03 -1.08820611545E-04 -1.52654076518E-03 +2.39151751124E-01 +6.49959516464E-01
1.48500000000E+09 +3.90367486928E-01 +5.28827552614E-01 -1.08768303236E-04 -1.76060780801E-03 -9.51702629113E-05 -1.82019473896E-03 +2.73651659524E-01 +5.90353140812E-01
1.49000000000E+09 +4.08987456915E-01 +4.70406236574E-01 -6.14606280627E-04 -2.20524265484E-03 -7.12132923223E-04 -2.14063278614E-03 +3.02666847773E-01 +5.20086731765E-01
1.49500000000E+09 +4.19391348304E-01 +4.04140716009E-01 -1.20360769642E-03 -2.32547319451E-03 -1.25013223823E-03 -2.15726727633E-03 +3.21637162099E-01 +4.39260920756E-01
1.50000000000E+09 +4.20872376167E-01 +3.29049750455E-01 -2.31107019695E-03 -2.63101848941E-03 -2.14608997675E-03 -2.51697905622E-03 +3.26888821818E-01 +3.47785922943E-01
1.50500000000E+09 +4.09950108433E-01 +2.44330815136E-01 -3.90300255141E-03 -1.45861601558E-03 -3.69248735306E-03 -1.56514249071E-03 +3.14234441783E-01 +2.50354430201E-01
1.51000000000E+09 +3.81857358445E-01 +1.53538668372E-01 -3.85188801706E-03 +4.18001807933E-04 -3.80429261523E-03 +3.14500084220E-04 +2.81783160694E-01 +1.48464588500E-01
1.51500000000E+09 +3.35661629756E-01 +6.25144799756E-02 -3.52650635923E-03 +1.05593394761E-03 -3.59483974536E-03 +9.95744695667E-04 +2.25034575375E-01 +4.98223110961E-02
1.52000000000E+09 +2.69745015813E-01 -2.28790477679E-02 -3.14834890858E-03 +2.16447486828E-03 -3.26415263772E-03 +2.22108369020E-03 +1.46120994273E-01 -3.61597526068E-02
1.52500000000E+09 +1.85758387702E-01 -9.48135852184E-02 -1.86028565424E-03 +3.02615665574E-03 -1.88650104610E-03 +3.00261673397E-03 +4.96301467464E-02 -1.03469179058E-01
1.53000000000E+09 +8.50631271989E-02 -1.46310441132E-01 -1.28024827491E-03 +2.67956981403E-03 -1.31046952864E-03 +2.62999472676E-03 -5.91597081983E-02 -1.47620062127E-01
1.53500000000E+09 -2.41249351076E-02 -1.71171598878E-01 -1.25298782466E-03 +3.34418419549E-03 -1.26183642435E-03 +3.32444411642E-03 -1.72470122616E-01 -1.65622101609E-01
1.54000000000E+09 -1.34790319867E-01 -1.68954213329E-01 +1.77716958782E-04 +3.92024737547E-03 +1.90619640139E-04 +3.92966351896E-03 -2.81469466900E-01 -1.60055746966E-01
1.54500000000E+09 -2.38870219201E-01 -1.42378317064E-01 +1.63911808350E-03 +3.42837057029E-03 +1.47797994290E-03 +3.45971756663E-03 -3.79335197557E-01 -1.34988815617E-01
1.55000000000E+09 -3.31790227738E-01 -9.78031384937E-02 +2.43256551733E-03 +2.74628339166E-03 +2.39457207806E-03 +2.85757791672E-03 -4.64411237703E-01 -9.64501121807E-02
1.55500000000E+09 -4.10416420450E-01 -4.11045683731E-02 +3.24317423337E-03 +1.45042000623E-03 +3.25153477851E-03 +1.66725192278E-03 -5.34833409179E-01 -4.68779450932E-02
1.56000000000E+09 -4.74260174356E-01 +2.06299579991E-02 +2.87504984249E-03 -3.36877392022E-05 +2.98656621136E-03 +1.34585082236E-04 -5.89694095563E-01 +7.19575836213E-03
1.56500000000E+09 -5.22879579549E-01 +8.34126269071E-02 +2.05300878181E-03 -4.98252372381E-04 +2.20297486759E-03 -5.30418045734E-04 -6.32860622179E-01 +6.28361655904E-02
1.57000000000E+09 -5.59555014957E-01 +1.43376669637E-01 +1.67940381006E-03 -6.25626330292E-04 +1.80753303326E-03 -6.77642273031E-04 -6.64474673714E-01 +1.17833453090E-01
