# Hz S RI R 50
! CMT, C1220, 16058040, 17.2.0/1
! Date: 14/08/2018 12:32:57
! Data: Format (Calibration Info)
! Freq                      S11: Re/Im (F2)                       S21: Re/Im (F2)                       S12: Re/Im (F2)                       S22: Re/Im (F2)            
1.00000000000E+09 -6.33242544449E-01 +7.08222813279E-01 -4.86675603799E-05 -1.15311862159E-05 +2.10934836254E-05 +1.48040466346E-06 -7.53345772676E-01 +6.23858750197E-01
1.00500000000E+09 -6.26237101006E-01 +7.13254080095E-01 -2.57873585049E-05 +9.79557217187E-06 +1.23728680550E-05 -2.26187323619E-05 -7.49599499060E-01 +6.27862599192E-01
1.01000000000E+09 -6.19985623639E-01 +7.17897796746E-01 -5.94740882088E-06 -2.39847534811E-05 +1.97308532836E-05 +5.39940364354E-05 -7.46268842861E-01 +6.31597263394E-01
1.01500000000E+09 -6.15168473709E-01 +7.21776821927E-01 +4.71065601016E-06 -9.79634197024E-06 +1.48230139842E-05 +9.27635548932E-06 -7.43046342718E-01 +6.35074433545E-01
1.02000000000E+09 -6.11738611777E-01 +7.25172818596E-01 -3.42597183634E-05 +3.62075469070E-05 -2.43328860811E-05 -7.45210109957E-06 -7.39656679759E-01 +6.38675595644E-01
1.02500000000E+09 -6.09066493626E-01 +7.28119033702E-01 +2.87743282188E-05 +2.81375544290E-05 +4.32325120327E-05 +1.43492244480E-05 -7.36804734829E-01 +6.42272726367E-01
1.03000000000E+09 -6.06895942223E-01 +7.30732286693E-01 +6.11384137162E-05 +1.87547334254E-06 +2.61793355199E-05 +1.53039214684E-05 -7.33553341165E-01 +6.46102257837E-01
1.03500000000E+09 -6.04184547960E-01 +7.33149391569E-01 -2.86588053284E-05 +2.71184768242E-05 +9.26359429318E-06 +1.45524852591E-05 -7.29692464478E-01 +6.50108488333E-01
1.04000000000E+09 -6.00353104660E-01 +7.35982059708E-01 -1.89857273906E-05 +1.17153410870E-05 -3.59454637100E-05 +9.24738994903E-05 -7.25934355946E-01 +6.53772307493E-01
1.04500000000E+09 -5.95113068669E-01 +7.39267858450E-01 -5.16810436237E-05 -6.73567325550E-06 -1.47011603382E-05 -1.13085525446E-05 -7.22197498819E-01 +6.57059258225E-01
1.05000000000E+09 -5.88332308089E-01 +7.43161830226E-01 -2.71395781607E-06 +1.13754333571E-05 +2.23513917369E-05 +7.09309446142E-06 -7.18906571145E-01 +6.60635176164E-01
1.05500000000E+09 -5.80550910757E-01 +7.47422555516E-01 -2.61661273284E-05 +8.43591106285E-06 +2.73637062551E-05 -1.00465797037E-05 -7.15614763503E-01 +6.64211895078E-01
1.06000000000E+09 -5.72124452268E-01 +7.52313563323E-01 +4.61121959717E-06 +5.75397678867E-05 -2.39210736424E-05 +6.69137546658E-06 -7.12342785767E-01 +6.68076644513E-01
1.06500000000E+09 -5.63963390061E-01 +7.57163184145E-01 +4.40039559301E-06 +3.53852930705E-05 -1.81270514138E-05 +6.18159583960E-05 -7.08423419526E-01 +6.71992650094E-01
1.07000000000E+09 -5.56872277437E-01 +7.61536316622E-01 -1.69872588848E-05 +3.23571684896E-05 +2.98271030735E-05 +6.69719129999E-05 -7.04334193623E-01 +6.75590033231E-01
1.07500000000E+09 -5.51085084827E-01 +7.65414458991E-01 +4.56559704712E-05 +8.87680912966E-06 -6.33947149476E-06 -1.27718247375E-05 -7.00014896429E-01 +6.79388013608E-01
1.08000000000E+09 -5.46820410301E-01 +7.68809571634E-01 -2.01787632537E-05 +4.00579533584E-05 +8.69129432088E-06 +6.01285591862E-05 -6.96016481239E-01 +6.83172431623E-01
1.08500000000E+09 -5.43816270442E-01 +7.71390038265E-01 +2.23105732186E-05 +2.66910091706E-05 +1.59340005430E-05 +1.20551813761E-05 -6.92311089028E-01 +6.86728200790E-01
1.09000000000E+09 -5.41284776825E-01 +7.73615372426E-01 +1.04553096633E-05 +1.11538358132E-05 +3.63451952862E-05 +8.95137114941E-05 -6.88649364429E-01 +6.90524258825E-01
1.09500000000E+09 -5.39084027661E-01 +7.75615595157E-01 +7.03054520606E-05 -4.72569081834E-06 +5.84092939974E-05 +1.12285928025E-05 -6.84875737358E-01 +6.94288436253E-01
1.10000000000E+09 -5.35371475800E-01 +7.77665669729E-01 +7.16063290314E-06 +1.58942486070E-06 +5.76303348284E-05 +3.06614490100E-05 -6.80940271116E-01 +6.98231655798E-01
1.10500000000E+09 -5.30829462710E-01 +7.80322840602E-01 +4.43293404703E-05 +7.96533641839E-07 +3.68439018497E-05 +2.82604282610E-05 -6.76666882398E-01 +7.01654534565E-01
1.11000000000E+09 -5.24923607189E-01 +7.83510208529E-01 -4.31374705433E-05 -3.26882185172E-05 -4.12739475933E-05 -3.71125025456E-05 -6.72434109727E-01 +7.05061922345E-01
1.11500000000E+09 -5.17791426977E-01 +7.87310095820E-01 +1.92522816375E-05 +1.88203720304E-05 +2.32302826062E-05 -8.48505608433E-06 -6.68554261110E-01 +7.08498009971E-01
1.12000000000E+09 -5.10209844877E-01 +7.90983999732E-01 +1.67405685024E-05 +1.86064880635E-05 +4.52497200645E-05 +5.90708939770E-05 -6.64498294947E-01 +7.12149385403E-01
1.12500000000E+09 -5.02415671195E-01 +7.95031412665E-01 +2.60926068777E-05 -2.17539189873E-05 -5.03308223329E-06 -1.59102685900E-05 -6.60258616848E-01 +7.16089477596E-01
1.13000000000E+09 -4.95572749929E-01 +7.98661776438E-01 +1.04619306125E-05 -5.39939266118E-06 +1.26135819136E-05 -2.01684030456E-05 -6.55861089496E-01 +7.19780270740E-01
1.13500000000E+09 -4.89600092173E-01 +8.01461972866E-01 +2.94526728596E-05 +4.83132816434E-06 +4.88802282606E-05 -2.47196871326E-05 -6.51231950256E-01 +7.23761111531E-01
1.14000000000E+09 -4.84840999268E-01 +8.03988718552E-01 +5.23630237603E-05 -1.07491701575E-05 +3.83618297151E-05 -2.72900763629E-05 -6.46318648828E-01 +7.27352350764E-01
1.14500000000E+09 -4.81045883203E-01 +8.05479659017E-01 +2.75301363770E-05 -4.47523642884E-06 +3.20382171538E-05 +5.23961981350E-05 -6.41782187224E-01 +7.30692860271E-01
1.15000000000E+09 -4.77521841284E-01 +8.06814991092E-01 +3.15858975655E-05 -1.66516681140E-05 +4.25766091238E-05 -1.19343550497E-05 -6.37096363160E-01 +7.34554432857E-01
1.15500000000E+09 -4.73826567747E-01 +8.08302959173E-01 +2.46007806064E-05 -1.72747088073E-05 +4.57804970471E-05 -2.19152691904E-05 -6.32306389199E-01 +7.38319964722E-01
1.16000000000E+09 -4.69300741372E-01 +8.10083518134E-01 -1.76745959172E-05 -1.36242270039E-06 +1.16232330689E-06 -3.09967455384E-05 -6.27580059026E-01 +7.42114490818E-01
1.16500000000E+09 -4.63410491078E-01 +8.12521313256E-01 +5.55494098501E-05 +1.21508899465E-05 +7.59691165420E-05 +1.21289462455E-05 -6.22494636797E-01 +7.45762781451E-01
1.17000000000E+09 -4.56367767896E-01 +8.15522169693E-01 +4.59102691744E-05 +5.87215443115E-08 +1.03015824487E-04 -5.49908836570E-05 -6.17211856879E-01 +7.49147209832E-01
1.17500000000E+09 -4.48210644313E-01 +8.18779901460E-01 +3.24682023934E-05 -1.61597902927E-05 +7.10804101080E-05 -3.00858310861E-05 -6.11416855837E-01 +7.52269621127E-01
1.18000000000E+09 -4.40136144114E-01 +8.22403629643E-01 +2.45738371550E-05 -3.66141475107E-05 +6.40709313026E-05 -4.70198300469E-05 -6.06032235733E-01 +7.55314451229E-01
1.18500000000E+09 -4.32047992696E-01 +8.25552459868E-01 +6.05718687212E-05 -4.67760911310E-05 +6.33936379135E-05 -1.29928408022E-05 -6.00262485133E-01 +7.58409056715E-01
1.19000000000E+09 -4.24831246735E-01 +8.28350668507E-01 +5.22500663698E-05 -7.83147888590E-05 +6.61416132995E-05 -1.00649744279E-04 -5.94128918264E-01 +7.60886183584E-01
1.19500000000E+09 -4.18762250689E-01 +8.30503389830E-01 +3.10688082410E-05 -1.42728230136E-04 +4.15010780983E-05 -1.12727051577E-04 -5.88279579185E-01 +7.62087304495E-01
1.20000000000E+09 -4.13734653820E-01 +8.31263203660E-01 +8.02420667588E-06 -1.52020536558E-04 -1.81289275076E-05 -2.02885737824E-04 -5.83819597797E-01 +7.62224518214E-01
1.20500000000E+09 -4.09155220588E-01 +8.32492123562E-01 -9.92503686175E-05 -1.21953762183E-04 -1.22797178016E-04 -1.52650807850E-04 -5.81394529972E-01 +7.63199155180E-01
1.21000000000E+09 -4.04372295848E-01 +8.33410071636E-01 -7.58519616209E-05 -8.17547786978E-05 -5.17112563769E-05 -6.46548687586E-05 -5.79482672432E-01 +7.66379684602E-01
1.21500000000E+09 -3.98537309762E-01 +8.34717920372E-01 -8.25773988655E-05 -2.85596610979E-05 -6.14413019214E-05 -2.78673956780E-05 -5.76557988256E-01 +7.70889551120E-01
1.22000000000E+09 -3.91302400635E-01 +8.36357344722E-01 -6.58504030582E-05 +1.05203376540E-05 -5.83097339404E-05 -4.98781520544E-05 -5.72401795351E-01 +7.76445749349E-01
1.22500000000E+09 -3.82471758393E-01 +8.38830188910E-01 -5.81618545437E-05 -4.91449332640E-05 -2.63600224843E-05 -2.15733431336E-05 -5.67229694635E-01 +7.81473451947E-01
1.23000000000E+09 -3.72511680060E-01 +8.41636179825E-01 -3.79490041569E-05 -3.67936015627E-05 -1.71795988632E-05 -2.51548771982E-05 -5.61539029985E-01 +7.86213301490E-01
1.23500000000E+09 -3.62259790428E-01 +8.45115437565E-01 -2.57260475262E-06 -2.99032428934E-05 -4.69148162766E-05 -4.91378874238E-05 -5.55737999185E-01 +7.90406946539E-01
1.24000000000E+09 -3.52223774500E-01 +8.48859365448E-01 -5.94906396060E-05 -6.47444450918E-06 -3.76612289169E-05 -2.80039421807E-05 -5.49732753715E-01 +7.94317994648E-01
1.24500000000E+09 -3.43059132555E-01 +8.52922512118E-01 -5.85022600302E-05 -1.71611410700E-05 -6.40496853977E-05 -4.99226985849E-05 -5.43458798868E-01 +7.98161647553E-01
1.25000000000E+09 -3.34707924014E-01 +8.56504004276E-01 -6.87766712670E-05 +4.26234900506E-06 -9.39371645242E-05 +1.45334338703E-05 -5.37011883795E-01 +8.02439085798E-01
1.25500000000E+09 -3.27617689176E-01 +8.58889196107E-01 -8.05162765680E-05 -4.12482455022E-05 -1.21892204163E-04 -6.71427908981E-05 -5.30291445060E-01 +8.06362273753E-01
1.26000000000E+09 -3.21563921818E-01 +8.60755041769E-01 -5.74152342410E-05 -1.78763364288E-05 -6.26435491269E-05 -6.92519138720E-05 -5.23554183749E-01 +8.10506560110E-01
1.26500000000E+09 -3.15905979087E-01 +8.61683096061E-01 -1.09173089746E-04 +4.68619355775E-06 -1.44276180495E-04 +2.05296822781E-05 -5.16822238780E-01 +8.14198715904E-01
1.27000000000E+09 -3.09632353988E-01 +8.62388248819E-01 -9.50201804442E-05 +1.25557852228E-05 -1.08896626028E-04 +8.13734524170E-06 -5.09911595136E-01 +8.18174076631E-01
1.27500000000E+09 -3.02375838772E-01 +8.63127670142E-01 -5.11099780722E-05 +2.63274362357E-06 -1.13640112852E-04 +3.15546298361E-05 -5.02810908546E-01 +8.21637843762E-01
1.28000000000E+09 -2.93297396596E-01 +8.63975482387E-01 -6.35142080479E-05 +3.97055084729E-05 -5.39318031960E-05 +1.75886808303E-05 -4.95577231556E-01 +8.25370280224E-01
1.28500000000E+09 -2.82368524728E-01 +8.65162057621E-01 -6.39583653607E-05 +1.07364917450E-05 -3.36205541718E-05 -1.92355723994E-05 -4.88040842209E-01 +8.29066338542E-01
1.29000000000E+09 -2.70665215638E-01 +8.67132382370E-01 -1.02668708248E-04 +2.90921530337E-05 -6.28614873358E-05 +2.76539389106E-05 -4.80560574274E-01 +8.32835659936E-01
1.29500000000E+09 -2.58583163730E-01 +8.69735336366E-01 -4.28042917864E-05 +1.01050378862E-05 -1.15938679265E-04 +1.28777901379E-05 -4.72646154971E-01 +8.36260441301E-01
1.30000000000E+09 -2.46804575127E-01 +8.72854945196E-01 -9.17497407910E-05 -7.77354221248E-06 -6.81830727125E-05 +3.32941894707E-05 -4.64980982752E-01 +8.39884935124E-01
1.30500000000E+09 -2.36456128874E-01 +8.76181443957E-01 -6.00390463003E-05 +5.39856872459E-05 -7.74908525195E-05 +4.64555528515E-05 -4.56796208558E-01 +8.43361618544E-01
1.31000000000E+09 -2.27152563727E-01 +8.78843545687E-01 -4.61146099907E-05 +5.31214662760E-05 -8.55788498655E-05 +5.55249135295E-05 -4.48549131307E-01 +8.46768819853E-01
1.31500000000E+09 -2.19831525355E-01 +8.80834102530E-01 -6.79673348622E-05 +2.75602050195E-05 -6.02405320403E-05 +3.93448533920E-05 -4.39855813004E-01 +8.50277211652E-01
1.32000000000E+09 -2.13491667326E-01 +8.81631213129E-01 -7.21426699973E-05 +1.10215622133E-05 -9.20102718054E-05 +4.48086813736E-05 -4.30776588661E-01 +8.53501553992E-01
1.32500000000E+09 -2.07737894400E-01 +8.81480453613E-01 -1.22632114357E-04 +4.72050795650E-05 -1.33658167468E-04 +4.46214687822E-05 -4.21324000610E-01 +8.56878918519E-01
1.33000000000E+09 -2.00945198938E-01 +8.81164836793E-01 -1.37468846903E-04 +4.27897211008E-05 -1.36181640990E-04 +6.94147485378E-05 -4.11775998549E-01 +8.60133606855E-01
1.33500000000E+09 -1.92275359625E-01 +8.80270479287E-01 -1.40906148771E-04 +8.88326141053E-05 -1.49970616315E-04 +3.61951775829E-06 -4.02004797652E-01 +8.63306270830E-01
1.34000000000E+09 -1.81206749879E-01 +8.79324634367E-01 -1.49715273098E-04 +1.35519960467E-04 -1.78174678659E-04 +1.25533943570E-04 -3.91960157928E-01 +8.66649815357E-01
1.34500000000E+09 -1.67721387254E-01 +8.78560039042E-01 -1.56047779979E-04 +1.46109390011E-04 -1.17845970122E-04 +1.24894777279E-04 -3.80994401047E-01 +8.69947659940E-01
1.35000000000E+09 -1.52390816447E-01 +8.78306403892E-01 -7.55301973844E-05 +1.57242067117E-04 -1.46026361573E-04 +1.61220099397E-04 -3.69780001084E-01 +8.73061294410E-01
1.35500000000E+09 -1.36265402484E-01 +8.78640404987E-01 -7.93683037431E-05 +1.87065445943E-04 -1.34660030943E-04 +1.77966681815E-04 -3.58040061027E-01 +8.75961393860E-01
1.36000000000E+09 -1.19784908819E-01 +8.79403068341E-01 -1.27790092284E-04 +2.62710615165E-04 -1.30712032972E-04 +2.16808690271E-04 -3.46124564557E-01 +8.78796244555E-01
1.36500000000E+09 -1.04265389000E-01 +8.80107643462E-01 -7.21232585655E-05 +3.10879777333E-04 -6.47004584747E-05 +2.95894300740E-04 -3.34049762761E-01 +8.81187264228E-01
1.37000000000E+09 -9.00438963874E-02 +8.80400846672E-01 -5.97836564328E-05 +3.28674185136E-04 -6.24410825422E-05 +3.30169819910E-04 -3.21157287280E-01 +8.83564137293E-01
1.37500000000E+09 -7.81119092483E-02 +8.80070676759E-01 +6.95646674313E-05 +3.94160539224E-04 -1.55538495323E-05 +3.91946284422E-04 -3.07434586475E-01 +8.85847262052E-01
1.38000000000E+09 -6.71166331596E-02 +8.79238163568E-01 +1.33284163889E-04 +3.85608569217E-04 +1.34704269050E-04 +3.59163205240E-04 -2.92862440073E-01 +8.88046598965E-01
1.38500000000E+09 -5.62708365418E-02 +8.77458253844E-01 +2.07085180437E-04 +3.36781736991E-04 +2.06560605412E-04 +4.03930598369E-04 -2.77322129949E-01 +8.89989756578E-01
1.39000000000E+09 -4.45704359591E-02 +8.74769153612E-01 +2.19461890646E-04 +3.30981755879E-04 +2.88976443246E-04 +3.03056969653E-04 -2.61500315193E-01 +8.91456797945E-01
1.39500000000E+09 -3.08666022271E-02 +8.71232461418E-01 +2.16345573423E-04 +2.35829745998E-04 +2.94618382743E-04 +2.50722992041E-04 -2.44639084013E-01 +8.92227684860E-01
1.40000000000E+09 -1.44786802485E-02 +8.66670064088E-01 +2.45588873842E-04 +2.82912197064E-04 +2.87704702455E-04 +2.50270618658E-04 -2.27444968735E-01 +8.92543764249E-01
1.40500000000E+09 +4.03338895892E-03 +8.61484097691E-01 +3.08129125944E-04 +3.73671571981E-04 +3.05487006706E-04 +3.46694924963E-04 -2.09064156758E-01 +8.92302364208E-01
1.41000000000E+09 +2.44082013424E-02 +8.56097188337E-01 +4.72808264121E-04 +2.96759486874E-04 +4.26671089907E-04 +2.97172428341E-04 -1.89105855540E-01 +8.91758732841E-01
1.41500000000E+09 +4.59792796149E-02 +8.50478880656E-01 +5.37321977828E-04 +2.35297601963E-04 +5.42410570029E-04 +2.64960334128E-04 -1.67612625839E-01 +8.90393787811E-01
1.42000000000E+09 +6.81370530610E-02 +8.44529869151E-01 +6.23850911229E-04 +9.54695076959E-05 +6.65999436575E-04 +1.41918914639E-04 -1.44815630108E-01 +8.87827555645E-01
1.42500000000E+09 +8.99719691581E-02 +8.37498613397E-01 +5.42693001628E-04 +7.03601512884E-05 +6.60134235131E-04 +1.06709959286E-04 -1.21125202265E-01 +8.84276976602E-01
1.43000000000E+09 +1.10550844080E-01 +8.29089924862E-01 +7.54475865069E-04 +3.98320098167E-05 +8.66139543348E-04 +4.10666365964E-05 -9.64277978229E-02 +8.79793938992E-01
1.43500000000E+09 +1.30373058822E-01 +8.19009597125E-01 +7.77392186582E-04 -1.92112514513E-04 +8.04023272395E-04 -2.89749765787E-04 -7.03596733345E-02 +8.73325428923E-01
1.44000000000E+09 +1.50210224849E-01 +8.07266913665E-01 +7.08699999774E-04 -3.26519937325E-04 +6.75015436230E-04 -3.40830774576E-04 -4.22532778928E-02 +8.65324720480E-01
1.44500000000E+09 +1.71463439104E-01 +7.92598678414E-01 +7.81067644850E-04 -3.69937590974E-04 +7.66828921698E-04 -3.97173409779E-04 -1.17547806994E-02 +8.54259564255E-01
1.45000000000E+09 +1.94289043020E-01 +7.74329859216E-01 +7.50095969811E-04 -4.99622714534E-04 +7.41293362188E-04 -4.99206341719E-04 +2.05283565701E-02 +8.40006211532E-01
1.45500000000E+09 +2.19567171907E-01 +7.52735872591E-01 +7.89116194660E-04 -5.42243643091E-04 +7.72305194616E-04 -6.22678785915E-04 +5.42188400083E-02 +8.22715688540E-01
1.46000000000E+09 +2.47763647466E-01 +7.26769980891E-01 +9.30466638895E-04 -8.09839134636E-04 +8.21219508482E-04 -8.40999661163E-04 +8.92766568296E-02 +8.01186211833E-01
1.46500000000E+09 +2.77362915658E-01 +6.96968983510E-01 +9.14982586159E-04 -1.23774041823E-03 +7.24384779824E-04 -1.25258627383E-03 +1.25609239842E-01 +7.74433844916E-01
1.47000000000E+09 +3.08714954282E-01 +6.63325758333E-01 +4.72102318752E-04 -1.59063122782E-03 +4.31029928876E-04 -1.49293443564E-03 +1.62682460328E-01 +7.41308056904E-01
1.47500000000E+09 +3.39954781529E-01 +6.24272307185E-01 +6.22927501349E-05 -1.71897180321E-03 +1.33087494089E-04 -1.66681251204E-03 +2.01057079883E-01 +7.00694911519E-01
1.48000000000E+09 +3.68806743253E-01 +5.78994097081E-01 -1.99429301727E-04 -1.55368895318E-03 -8.82597260934E-05 -1.59394498787E-03 +2.38425167449E-01 +6.50708960903E-01
1.48500000000E+09 +3.92903617708E-01 +5.27666209586E-01 -1.51221609773E-04 -1.83598319104E-03 -2.11023412139E-04 -1.84356728376E-03 +2.72985894287E-01 +5.91375965767E-01
1.49000000000E+09 +4.11494537939E-01 +4.68724748741E-01 -6.97357680315E-04 -2.28817625755E-03 -8.46046490424E-04 -2.23920405873E-03 +3.02163869322E-01 +5.21334496445E-01
1.49500000000E+09 +4.21781237538E-01 +4.01798955699E-01 -1.34430529974E-03 -2.37906270026E-03 -1.37343186694E-03 -2.21908303866E-03 +3.21340286335E-01 +4.40637797019E-01
1.50000000000E+09 +4.22915760823E-01 +3.25990862075E-01 -2.53865250665E-03 -2.64171422138E-03 -2.34975877132E-03 -2.48599834156E-03 +3.26892042553E-01 +3.49467505019E-01
1.50500000000E+09 +4.11520488301E-01 +2.40508393017E-01 -4.05470388881E-03 -1.30707853975E-03 -3.87870931636E-03 -1.44180141293E-03 +3.14762813036E-01 +2.52239761829E-01
1.51000000000E+09 +3.82575012521E-01 +1.49290823848E-01 -3.97721531682E-03 +6.33324879280E-04 -3.92348404159E-03 +4.96787794442E-04 +2.83231575358E-01 +1.50195900568E-01
1.51500000000E+09 +3.35342756932E-01 +5.79818191288E-02 -3.54108107031E-03 +1.35577812393E-03 -3.63440815695E-03 +1.27501559497E-03 +2.26842416066E-01 +5.10453521828E-02
1.52000000000E+09 +2.68446544254E-01 -2.73494240394E-02 -3.12496875989E-03 +2.41774347310E-03 -3.15695377293E-03 +2.46634408700E-03 +1.48267932636E-01 -3.55624401763E-02
1.52500000000E+09 +1.83456667229E-01 -9.90661099446E-02 -1.80188889059E-03 +3.16084078176E-03 -1.83283009694E-03 +3.20538154928E-03 +5.18234909538E-02 -1.03659608208E-01
1.53000000000E+09 +8.17527722591E-02 -1.50069879843E-01 -1.09659730958E-03 +2.87064873923E-03 -1.11525153523E-03 +2.87269646221E-03 -5.72538418307E-02 -1.48239025637E-01
1.53500000000E+09 -2.83457954115E-02 -1.73942841176E-01 -9.70597952860E-04 +3.46053636715E-03 -9.88887935727E-04 +3.44581230168E-03 -1.70774337831E-01 -1.66640160949E-01
1.54000000000E+09 -1.39410866648E-01 -1.70715640351E-01 +4.38264729849E-04 +3.94559088592E-03 +4.37299011149E-04 +3.93646189492E-03 -2.80095393740E-01 -1.61606373137E-01
1.54500000000E+09 -2.43561180890E-01 -1.43068006093E-01 +1.86094844402E-03 +3.43280073439E-03 +1.75294319909E-03 +3.37204231989E-03 -3.78521227457E-01 -1.36694627792E-01
1.55000000000E+09 -3.36231773676E-01 -9.73000765117E-02 +2.73617429579E-03 +2.67728501752E-03 +2.63523425179E-03 +2.79417391375E-03 -4.64137131530E-01 -9.81482533137E-02
1.55500000000E+09 -4.14262254059E-01 -3.99324660881E-02 +3.42672170054E-03 +1.27161762804E-03 +3.46477831103E-03 +1.44412081001E-03 -5.34816040649E-01 -4.85503106609E-02
1.56000000000E+09 -4.77585327111E-01 +2.22680460872E-02 +2.95998012126E-03 -2.31274485509E-04 +3.07429990620E-03 -1.44968296297E-04 -5.90078093770E-01 +5.64578781122E-03
1.56500000000E+09 -5.25710502049E-01 +8.53831137312E-02 +2.05910829384E-03 -6.79465411583E-04 +2.17282221093E-03 -6.89539805480E-04 -6.33638185664E-01 +6.15283672110E-02
1.57000000000E+09 -5.61943009467E-01 +1.45564940047E-01 +1.70913432998E-03 -7.32871102534E-04 +1.83946514019E-03 -8.09125883782E-04 -6.65427251480E-01 +1.16905543489E-01
