# Hz S RI R 50
! CMT, C1220, 16058040, 17.2.0/1
! Date: 14/08/2018 12:29:21
! Data: Format (Calibration Info)
! Freq                      S11: Re/Im (F2)                       S21: Re/Im (F2)                       S12: Re/Im (F2)                       S22: Re/Im (F2)            
1.00000000000E+09 -6.25147281362E-01 +7.07837598831E-01 +3.28652795571E-05 -3.02539177026E-05 -3.63563119400E-05 -4.21751037065E-06 -7.52719230226E-01 +6.24508562305E-01
1.00500000000E+09 -6.18013926267E-01 +7.12825476680E-01 -3.84289918495E-05 -4.14612408194E-05 +5.90419767843E-06 -3.39838010540E-05 -7.49251429430E-01 +6.28410482412E-01
1.01000000000E+09 -6.12072539042E-01 +7.17400696764E-01 -5.67238154097E-05 -2.63462880188E-06 -2.75587675663E-05 +1.64803894669E-05 -7.45630118247E-01 +6.32020015037E-01
1.01500000000E+09 -6.07864154256E-01 +7.21134272496E-01 -3.92246516056E-05 -2.64477069181E-06 +1.88799951227E-05 +2.14465209216E-05 -7.42440318964E-01 +6.35757542172E-01
1.02000000000E+09 -6.05074784893E-01 +7.24409944007E-01 -2.27437853563E-05 -3.85219740005E-05 -7.85641331851E-06 +3.69295722790E-06 -7.39270351163E-01 +6.39233483300E-01
1.02500000000E+09 -6.03220546113E-01 +7.26799325082E-01 -1.26285488653E-05 +1.38334471065E-05 -4.21944796653E-05 +3.85764001196E-06 -7.36307291611E-01 +6.42733488296E-01
1.03000000000E+09 -6.01936809288E-01 +7.28934161935E-01 +2.03527508421E-05 +2.70308627818E-05 -1.19111021495E-05 +6.94906094100E-07 -7.32955328797E-01 +6.46624520606E-01
1.03500000000E+09 -5.99605384385E-01 +7.31026801389E-01 +1.57837781151E-05 -5.39146842900E-07 +1.56291028925E-05 +3.46781486570E-05 -7.29122737225E-01 +6.50521660241E-01
1.04000000000E+09 -5.96162360396E-01 +7.33707033388E-01 -3.92675578182E-05 +3.37524097697E-05 +6.63746379142E-06 +4.00305614412E-05 -7.25384189534E-01 +6.54217448713E-01
1.04500000000E+09 -5.90816764122E-01 +7.36961808029E-01 -7.32844747274E-06 +1.27825931058E-05 -7.92282342608E-05 +1.84409429162E-05 -7.21658202830E-01 +6.57825951287E-01
1.05000000000E+09 -5.83686264445E-01 +7.41188189798E-01 +2.42674848861E-05 -5.37232455675E-06 -7.59606050577E-05 -3.43201405342E-06 -7.18294204996E-01 +6.61138980649E-01
1.05500000000E+09 -5.75136318391E-01 +7.45911259526E-01 -3.38947659536E-05 +2.01445292285E-05 +1.00386912919E-06 +2.26637993220E-05 -7.15169124153E-01 +6.64807501836E-01
1.06000000000E+09 -5.65977588484E-01 +7.51170976698E-01 +8.69746541676E-06 +4.20362919951E-05 +1.61236739722E-05 +3.14818488626E-05 -7.11643281061E-01 +6.68473546751E-01
1.06500000000E+09 -5.57054692094E-01 +7.56504575811E-01 +2.06738256474E-05 +1.77702573119E-05 +8.61597728037E-06 +2.71318741280E-05 -7.07898326478E-01 +6.72481618311E-01
1.07000000000E+09 -5.49046878007E-01 +7.60996276105E-01 +2.49616375435E-06 +5.35998394735E-05 -2.18224686676E-05 +2.76830191232E-05 -7.03789478018E-01 +6.76146601597E-01
1.07500000000E+09 -5.42718608610E-01 +7.65013045906E-01 +3.18160852587E-05 +2.65861965086E-05 +3.24335503634E-05 +1.81794686935E-05 -6.99510699329E-01 +6.79870235229E-01
1.08000000000E+09 -5.38234597282E-01 +7.68310505798E-01 +7.27586490878E-06 -2.19320567262E-05 -2.30636433029E-05 +2.59778708104E-05 -6.95681625917E-01 +6.83693829976E-01
1.08500000000E+09 -5.35503734152E-01 +7.70790501209E-01 -1.53329702558E-05 +5.71165103726E-05 +4.68661465181E-05 +7.46119640754E-05 -6.91643163157E-01 +6.87329798431E-01
1.09000000000E+09 -5.33358073305E-01 +7.72703928882E-01 -3.37417703734E-05 +5.05743626316E-05 +6.07955638812E-05 +4.94909138240E-05 -6.88077302366E-01 +6.91169081563E-01
1.09500000000E+09 -5.31741957787E-01 +7.74379840432E-01 -2.90015064871E-06 +2.10291298481E-05 +7.45501534831E-06 +1.97462061642E-05 -6.84363173062E-01 +6.95004471129E-01
1.10000000000E+09 -5.29070921559E-01 +7.76156594694E-01 +6.33326922577E-05 +4.66982043134E-05 +5.39012456000E-05 +2.03001935900E-05 -6.80358710802E-01 +6.98843311068E-01
1.10500000000E+09 -5.25263886099E-01 +7.78654254235E-01 +1.57278934092E-06 +2.40651476548E-06 -1.08605816192E-05 +2.72296913343E-05 -6.76060377750E-01 +7.02307541983E-01
1.11000000000E+09 -5.19784057225E-01 +7.81692177752E-01 +2.04962054759E-05 +9.57615296656E-06 +5.87367504750E-05 -8.02874004754E-06 -6.71981420602E-01 +7.05684662255E-01
1.11500000000E+09 -5.13010936027E-01 +7.85419848305E-01 +3.17218747753E-05 +8.03317691672E-05 +5.34044061854E-05 +2.58024522160E-05 -6.67956383789E-01 +7.09175161630E-01
1.12000000000E+09 -5.05586200426E-01 +7.89345854558E-01 +4.81502247447E-05 +2.33508307334E-05 -1.26684380979E-05 +5.53480746018E-05 -6.63885520799E-01 +7.12678610659E-01
1.12500000000E+09 -4.97516488033E-01 +7.93439471461E-01 +2.53391333980E-05 +4.13518514433E-05 +4.79538104113E-05 +2.21040698609E-05 -6.59546721783E-01 +7.16667778767E-01
1.13000000000E+09 -4.90186280427E-01 +7.97192377306E-01 +7.28544500396E-05 +3.75858483391E-05 +4.28814439949E-05 +7.80643473812E-05 -6.55245293188E-01 +7.20473353505E-01
1.13500000000E+09 -4.83518471327E-01 +7.99803945394E-01 +6.50011301171E-05 +1.71691253591E-05 +2.90924794012E-05 +1.68424333090E-05 -6.50579604474E-01 +7.24243467707E-01
1.14000000000E+09 -4.78178241781E-01 +8.02158691852E-01 +4.52912808595E-05 -1.74912784853E-06 -8.39219059724E-06 -3.63438779731E-05 -6.45823490737E-01 +7.27773711924E-01
1.14500000000E+09 -4.73849534615E-01 +8.03711476810E-01 +7.77754858140E-05 -5.01218797406E-05 +6.33467903046E-05 -1.98938766247E-05 -6.41205197218E-01 +7.31250815456E-01
1.15000000000E+09 -4.70078672680E-01 +8.05091586431E-01 +8.14665880545E-05 -2.36921036825E-05 +8.36357660073E-05 -3.40090596717E-05 -6.36471162222E-01 +7.35114641633E-01
1.15500000000E+09 -4.66167244587E-01 +8.06557307903E-01 +6.40515755872E-05 -1.75391968406E-05 +8.57566627451E-05 +1.26485738249E-06 -6.31736500918E-01 +7.38900237246E-01
1.16000000000E+09 -4.61486962196E-01 +8.08326725095E-01 +6.75842794928E-05 -2.87892609629E-05 +4.14811578957E-05 -7.15769151374E-05 -6.27075986234E-01 +7.42669952984E-01
1.16500000000E+09 -4.55892980387E-01 +8.10900471882E-01 +7.61377312435E-05 -3.59950109722E-05 +5.80876409095E-05 -3.88964555371E-06 -6.22019920413E-01 +7.46331911030E-01
1.17000000000E+09 -4.49063942113E-01 +8.13940935062E-01 +1.87471153747E-05 -4.71172141376E-05 +5.75703310643E-05 -3.61593386006E-05 -6.16552679542E-01 +7.49583801669E-01
1.17500000000E+09 -4.41522735989E-01 +8.17231549861E-01 +5.38557025623E-05 -4.18202458059E-05 +5.36175687354E-05 -4.01101189964E-05 -6.10946232329E-01 +7.52766927442E-01
1.18000000000E+09 -4.33701278491E-01 +8.20957023721E-01 +5.90832286397E-05 -3.71944117475E-05 +1.85779974111E-05 -2.92388715839E-05 -6.05495073154E-01 +7.55998528038E-01
1.18500000000E+09 -4.25988931576E-01 +8.24155985561E-01 +7.81602503409E-05 -7.18866510838E-05 +8.28575677818E-05 -2.95746870702E-05 -5.99448628460E-01 +7.58896406129E-01
1.19000000000E+09 -4.18918895755E-01 +8.26848397521E-01 +6.98162821266E-05 -6.44301502212E-05 +7.66767403503E-05 -4.93207901124E-05 -5.93330401839E-01 +7.61470345437E-01
1.19500000000E+09 -4.12784341883E-01 +8.28716435431E-01 +5.45209411455E-05 -7.83753210917E-05 +2.51115424267E-05 -1.38575020749E-04 -5.87440909778E-01 +7.62570216246E-01
1.20000000000E+09 -4.07545742973E-01 +8.29527398014E-01 +1.38573987761E-05 -1.36582775398E-04 +9.12786106705E-06 -1.18833113238E-04 -5.83111026196E-01 +7.62786588916E-01
1.20500000000E+09 -4.02852426719E-01 +8.30401096051E-01 -6.69434212585E-05 -1.12428243574E-04 -6.19740578905E-05 -9.77575576840E-05 -5.80745817266E-01 +7.63741854026E-01
1.21000000000E+09 -3.97723839528E-01 +8.31332633018E-01 -6.67219543080E-05 -1.15753672752E-04 -5.20933772372E-05 -7.07981935199E-05 -5.78864272073E-01 +7.66955988004E-01
1.21500000000E+09 -3.91396544819E-01 +8.32608200180E-01 +5.63743248506E-06 -3.49580927458E-05 -3.67753067306E-05 -1.08903925820E-04 -5.76040759316E-01 +7.71738538853E-01
1.22000000000E+09 -3.83568368097E-01 +8.34422325465E-01 -3.70386501030E-05 -5.63349648181E-05 -3.63950508798E-05 -5.62965814745E-05 -5.71488908553E-01 +7.77012331157E-01
1.22500000000E+09 -3.74313210223E-01 +8.36896909925E-01 +6.14592493933E-06 -5.57523503266E-05 +3.00858144914E-05 -5.08360980336E-05 -5.66355149177E-01 +7.82104137542E-01
1.23000000000E+09 -3.63992655987E-01 +8.40103308251E-01 +8.79163469988E-07 -3.70669906412E-05 -4.23866211278E-06 -7.14867440735E-05 -5.60758720908E-01 +7.86818293490E-01
1.23500000000E+09 -3.53654318431E-01 +8.43798006443E-01 -3.92989960979E-05 -6.89347224483E-05 -5.78840793258E-05 -5.49246558559E-05 -5.54971125142E-01 +7.91007594197E-01
1.24000000000E+09 -3.43334104390E-01 +8.47808215702E-01 -6.63630472490E-05 -5.57162857674E-05 -1.97920843434E-05 -1.08576455135E-04 -5.49008766967E-01 +7.94831774191E-01
1.24500000000E+09 -3.34119369825E-01 +8.51909647752E-01 -8.54143913488E-05 -4.84062117923E-05 -7.65042892180E-05 -4.14709164755E-05 -5.42713299574E-01 +7.98561323491E-01
1.25000000000E+09 -3.26003843443E-01 +8.55133297253E-01 -2.95244287543E-05 -3.07430855802E-05 -4.87515447682E-05 -7.10553392146E-05 -5.36213224335E-01 +8.02860974549E-01
1.25500000000E+09 -3.19144822642E-01 +8.57161506781E-01 -6.01766890606E-05 -6.27594019022E-05 -5.24723130026E-05 -1.80140275963E-05 -5.29446085420E-01 +8.06833831047E-01
1.26000000000E+09 -3.13342614502E-01 +8.58409916029E-01 -7.46981557588E-05 -1.24646544778E-05 -9.44815551300E-05 -6.72980108718E-05 -5.22804995684E-01 +8.11047961705E-01
1.26500000000E+09 -3.08028771221E-01 +8.59032499535E-01 -1.31733804041E-04 -2.74587191146E-06 -1.38960255784E-04 -4.93194258720E-05 -5.15888320373E-01 +8.14861276769E-01
1.27000000000E+09 -3.02259148311E-01 +8.59435439551E-01 -7.33925872587E-05 -2.95480140734E-06 -6.82951926753E-05 -4.33477121863E-07 -5.09007614675E-01 +8.18649859226E-01
1.27500000000E+09 -2.95077506060E-01 +8.60063821427E-01 -7.15859489202E-05 -4.15235225343E-05 -8.22469919359E-05 -2.58956923123E-06 -5.01965509552E-01 +8.22276986171E-01
1.28000000000E+09 -2.86120109390E-01 +8.60979458879E-01 -9.97010468567E-05 +2.55510239846E-06 -5.65993385867E-05 -2.67382016805E-05 -4.94758551441E-01 +8.25696520536E-01
1.28500000000E+09 -2.75212133794E-01 +8.62632683186E-01 -1.18225036727E-04 +3.62126144527E-05 -1.51955187534E-04 -4.42671467885E-05 -4.87174614643E-01 +8.29453955710E-01
1.29000000000E+09 -2.63210794504E-01 +8.65059100875E-01 -3.46353899759E-05 -5.71499250498E-07 -8.56355265415E-05 -4.48522583151E-05 -4.79663388452E-01 +8.33317377983E-01
1.29500000000E+09 -2.50783328560E-01 +8.68323328782E-01 -9.46304259479E-05 +4.31536944312E-05 -9.76254861793E-05 +5.31641313862E-06 -4.71700325651E-01 +8.36761384342E-01
1.30000000000E+09 -2.38404966296E-01 +8.72005948632E-01 -1.01048508873E-04 +3.68582853407E-05 -6.39189540726E-05 +1.76308954192E-05 -4.63924479214E-01 +8.40275997377E-01
1.30500000000E+09 -2.27262394481E-01 +8.75116747494E-01 -1.18521641323E-04 +4.95301287098E-05 -1.40185167065E-04 +2.59356447006E-05 -4.55937219303E-01 +8.43793476741E-01
1.31000000000E+09 -2.17477999740E-01 +8.77352571001E-01 -7.16456234351E-05 +4.70791347806E-05 -1.09639275811E-04 +1.61210024765E-06 -4.47548299263E-01 +8.47128634745E-01
1.31500000000E+09 -2.09767990887E-01 +8.78628777976E-01 -8.13168537398E-05 +4.30541578515E-05 -8.23617993818E-05 -4.95850322138E-05 -4.38756573875E-01 +8.50675032954E-01
1.32000000000E+09 -2.03753191941E-01 +8.78803308291E-01 -1.18431142742E-04 +2.93455075869E-05 -1.43105093929E-04 +1.52841500835E-05 -4.29800913375E-01 +8.54033787176E-01
1.32500000000E+09 -1.98037842622E-01 +8.78185659381E-01 -1.68988934661E-04 +7.77073535829E-06 -1.63990890357E-04 +1.71363698837E-05 -4.20281303830E-01 +8.57371048116E-01
1.33000000000E+09 -1.91515228967E-01 +8.77138545514E-01 -1.94831021321E-04 +2.20789952120E-05 -1.99745702784E-04 +3.09450905031E-05 -4.10722861115E-01 +8.60504627778E-01
1.33500000000E+09 -1.83241777670E-01 +8.75899902589E-01 -1.98949663959E-04 +6.54173835501E-05 -2.08408547211E-04 +7.12396886345E-05 -4.00966386675E-01 +8.63680800774E-01
1.34000000000E+09 -1.72389877754E-01 +8.75058577197E-01 -2.47041349399E-04 +1.51149496505E-04 -2.05724242890E-04 +1.32384379520E-04 -3.90865940214E-01 +8.67011922077E-01
1.34500000000E+09 -1.59165226750E-01 +8.74589568924E-01 -1.68425492351E-04 +2.48556287206E-04 -1.64904806941E-04 +1.97458984700E-04 -3.79919384113E-01 +8.70304659132E-01
1.35000000000E+09 -1.44063031245E-01 +8.74603453900E-01 -1.43657666132E-04 +2.18217812846E-04 -1.38295686843E-04 +1.64357787061E-04 -3.68729100059E-01 +8.73362239141E-01
1.35500000000E+09 -1.27788205586E-01 +8.75485218010E-01 -1.46304346464E-04 +2.72554578427E-04 -1.48753662917E-04 +2.12927162384E-04 -3.56991943676E-01 +8.76299583745E-01
1.36000000000E+09 -1.11199903855E-01 +8.76571464563E-01 -1.39997130040E-04 +2.66278316974E-04 -1.28918969612E-04 +2.75573863908E-04 -3.44958741239E-01 +8.78834531205E-01
1.36500000000E+09 -9.55203356616E-02 +8.77459156966E-01 -1.56975143639E-04 +3.53946808732E-04 -1.04775135320E-04 +3.14091669019E-04 -3.32924486558E-01 +8.81348148128E-01
1.37000000000E+09 -8.15740588662E-02 +8.77485564109E-01 -1.37006684690E-04 +3.70255163475E-04 -1.14158649430E-04 +3.58206069905E-04 -3.20057619521E-01 +8.83752349981E-01
1.37500000000E+09 -6.95107433722E-02 +8.76804175561E-01 +3.73809872828E-05 +4.53896260198E-04 -2.25972672389E-05 +4.34326361316E-04 -3.06344207790E-01 +8.85975358195E-01
1.38000000000E+09 -5.88065460287E-02 +8.75470919541E-01 +1.06769168224E-04 +3.99511255300E-04 +2.60145741303E-05 +4.48776447591E-04 -2.91739471134E-01 +8.88121283793E-01
1.38500000000E+09 -4.78991449113E-02 +8.73225452810E-01 +1.70107463064E-04 +3.71136115133E-04 +1.44649143462E-04 +4.21657389157E-04 -2.76239468405E-01 +8.90060839959E-01
1.39000000000E+09 -3.62423267773E-02 +8.69944402639E-01 +1.53880752934E-04 +3.84290903131E-04 +1.76329205889E-04 +4.13756308328E-04 -2.60356459206E-01 +8.91496038225E-01
1.39500000000E+09 -2.25240866812E-02 +8.65777195485E-01 +1.66857160777E-04 +3.45189120007E-04 +1.93617878377E-04 +3.82089021907E-04 -2.43555816548E-01 +8.92209817260E-01
1.40000000000E+09 -6.12934183544E-03 +8.61016507527E-01 +2.10989472302E-04 +4.34399540607E-04 +2.59932498366E-04 +4.09599025309E-04 -2.26254867613E-01 +8.92498153351E-01
1.40500000000E+09 +1.22231730768E-02 +8.55751486220E-01 +3.18674603208E-04 +4.69981077452E-04 +3.32355211633E-04 +4.83404979807E-04 -2.08040564243E-01 +8.92181519143E-01
1.41000000000E+09 +3.27199062764E-02 +8.50502991314E-01 +4.36149506579E-04 +4.05734714374E-04 +4.15346102900E-04 +3.80786739025E-04 -1.88023325622E-01 +8.91672282762E-01
1.41500000000E+09 +5.44495230045E-02 +8.44919852124E-01 +5.36835712944E-04 +3.90216365275E-04 +5.68777423885E-04 +4.33880167985E-04 -1.66622868499E-01 +8.90153787739E-01
1.42000000000E+09 +7.65785141568E-02 +8.39052128993E-01 +6.17833401618E-04 +1.89086224849E-04 +6.91742479073E-04 +2.65937334293E-04 -1.43688076029E-01 +8.87602233475E-01
1.42500000000E+09 +9.82448313308E-02 +8.31863910276E-01 +5.72163364818E-04 +2.22894277120E-04 +6.49439965601E-04 +2.18733258307E-04 -1.20203686282E-01 +8.83907334157E-01
1.43000000000E+09 +1.18428130447E-01 +8.23202955765E-01 +7.73923701408E-04 +2.50916144742E-04 +8.43065909636E-04 +2.04908106615E-04 -9.54852689429E-02 +8.79273411519E-01
1.43500000000E+09 +1.37882653181E-01 +8.12891804425E-01 +8.65887214887E-04 -1.00144641197E-05 +9.05833133349E-04 -5.99508248978E-05 -6.93729344005E-02 +8.72761830221E-01
1.44000000000E+09 +1.57424701434E-01 +8.00742951326E-01 +8.58324622678E-04 -1.28005792339E-04 +8.38100937609E-04 -2.13310730646E-04 -4.15519625950E-02 +8.64587489137E-01
1.44500000000E+09 +1.78346839659E-01 +7.85572963256E-01 +9.04051110472E-04 -2.29349922115E-04 +9.00648536083E-04 -2.57087405771E-04 -1.10619101692E-02 +8.53445590364E-01
1.45000000000E+09 +2.00900433997E-01 +7.66911471896E-01 +8.85630363912E-04 -3.72479812128E-04 +8.57676615174E-04 -4.07609606971E-04 +2.08385737695E-02 +8.39104895554E-01
1.45500000000E+09 +2.25926749650E-01 +7.44909655681E-01 +9.45463773243E-04 -4.74574022330E-04 +8.58434612993E-04 -5.24971853451E-04 +5.43632709381E-02 +8.21756666417E-01
1.46000000000E+09 +2.53821493367E-01 +7.18682262503E-01 +1.06142178417E-03 -5.72293624838E-04 +9.80754748311E-04 -6.74305563526E-04 +8.91075154180E-02 +8.00337426966E-01
1.46500000000E+09 +2.83282078845E-01 +6.88616208111E-01 +1.17033134088E-03 -1.08200558452E-03 +9.82147084991E-04 -1.04410165222E-03 +1.25340962543E-01 +7.73699021095E-01
1.47000000000E+09 +3.14076322488E-01 +6.54428168521E-01 +8.13774276420E-04 -1.29156891138E-03 +7.66318148971E-04 -1.21684016990E-03 +1.62019573470E-01 +7.40889204954E-01
1.47500000000E+09 +3.44183157045E-01 +6.15197766404E-01 +5.72442923697E-04 -1.71641362449E-03 +6.34749669974E-04 -1.60272265373E-03 +2.00295020171E-01 +7.00733178969E-01
1.48000000000E+09 +3.71648070974E-01 +5.70166606644E-01 +1.92095779210E-04 -1.59470504639E-03 +2.96932243536E-04 -1.55516950414E-03 +2.37465322979E-01 +6.51002305281E-01
1.48500000000E+09 +3.94266788540E-01 +5.19422618407E-01 +2.76807264236E-04 -1.77032267478E-03 +2.34752993752E-04 -1.89768475885E-03 +2.72033533790E-01 +5.92216689464E-01
1.49000000000E+09 +4.11165983644E-01 +4.61306963095E-01 -2.34568661788E-04 -2.20842092219E-03 -3.16822019875E-04 -2.21211376906E-03 +3.01375768161E-01 +5.22487524507E-01
1.49500000000E+09 +4.20283753152E-01 +3.95553585806E-01 -5.95922037836E-04 -2.32489352144E-03 -6.92469028509E-04 -2.23181488856E-03 +3.20876064784E-01 +4.42359663838E-01
1.50000000000E+09 +4.20008713987E-01 +3.20504630127E-01 -1.37335636194E-03 -2.92125070269E-03 -1.32499419803E-03 -2.74604929528E-03 +3.27147377143E-01 +3.51832607729E-01
1.50500000000E+09 +4.07195956938E-01 +2.36967742868E-01 -3.10368061333E-03 -2.26096968347E-03 -2.93445274894E-03 -2.26889768394E-03 +3.15979261899E-01 +2.54694521045E-01
1.51000000000E+09 +3.77973803663E-01 +1.48118139624E-01 -3.25566436261E-03 -6.63071657098E-04 -3.20597730010E-03 -8.09373953218E-04 +2.85500562451E-01 +1.52448579958E-01
1.51500000000E+09 +3.31212508237E-01 +5.97981166637E-02 -3.21213892349E-03 -2.40930897152E-04 -3.26385857459E-03 -3.22506859149E-04 +2.30095181915E-01 +5.23110999638E-02
1.52000000000E+09 +2.66319979101E-01 -2.26200152588E-02 -3.68082711115E-03 +7.85013164089E-04 -3.70435743582E-03 +7.31016630702E-04 +1.51850749868E-01 -3.54505670548E-02
1.52500000000E+09 +1.84043253983E-01 -9.25239253621E-02 -2.51233250796E-03 +2.03579282277E-03 -2.58650752110E-03 +2.07331482004E-03 +5.51287384928E-02 -1.04876749969E-01
1.53000000000E+09 +8.51240061147E-02 -1.42589732393E-01 -2.05832625968E-03 +1.74112135480E-03 -2.03104148054E-03 +1.75023224349E-03 -5.45258156569E-02 -1.50167553671E-01
1.53500000000E+09 -2.29726630830E-02 -1.65963436657E-01 -2.35181768391E-03 +2.52041641208E-03 -2.31131086205E-03 +2.52319116050E-03 -1.68641041930E-01 -1.69316224846E-01
1.54000000000E+09 -1.31390441909E-01 -1.62257894614E-01 -1.08827499126E-03 +3.61378804693E-03 -1.10847751240E-03 +3.57089562076E-03 -2.78935299750E-01 -1.64688244419E-01
1.54500000000E+09 -2.33808074453E-01 -1.35736719919E-01 +3.57033689901E-04 +3.34780366557E-03 +2.77825607278E-04 +3.29692960733E-03 -3.78513440033E-01 -1.39764145806E-01
1.55000000000E+09 -3.25383241655E-01 -9.17060739855E-02 +1.12086825866E-03 +2.93162836405E-03 +1.01047099160E-03 +2.96513981217E-03 -4.65121602725E-01 -1.01024944240E-01
1.55500000000E+09 -4.03659180151E-01 -3.63083975676E-02 +1.92134386118E-03 +2.23135089361E-03 +1.90958334310E-03 +2.34679061858E-03 -5.36364665989E-01 -5.08495928476E-02
1.56000000000E+09 -4.67234604207E-01 +2.47501823048E-02 +2.13638428795E-03 +1.06390587144E-03 +2.19266333725E-03 +1.13941627952E-03 -5.92186205435E-01 +3.84074133399E-03
1.56500000000E+09 -5.15430120988E-01 +8.62969860631E-02 +1.69173296400E-03 +3.85161365924E-04 +1.76066857308E-03 +4.53795658575E-04 -6.36071400812E-01 +6.04021313604E-02
1.57000000000E+09 -5.51903155497E-01 +1.45425148009E-01 +1.43916160925E-03 +2.91472751430E-04 +1.49284167991E-03 +2.99053859295E-04 -6.68131247241E-01 +1.16548826410E-01
