# Hz S RI R 50
! CMT, C1220, 16058040, 17.2.0/1
! Date: 14/08/2018 12:29:50
! Data: Format (Calibration Info)
! Freq                      S11: Re/Im (F2)                       S21: Re/Im (F2)                       S12: Re/Im (F2)                       S22: Re/Im (F2)            
1.00000000000E+09 -6.27396656987E-01 +7.09342937263E-01 +2.07455218033E-05 +4.92527959677E-05 +4.56558780324E-06 -1.50384666416E-05 -7.52756088875E-01 +6.24227659262E-01
1.00500000000E+09 -6.20370688383E-01 +7.14449521907E-01 +1.28620860598E-05 -2.96061022829E-05 -9.45516367732E-06 -1.54059482684E-07 -7.49344934620E-01 +6.28267981989E-01
1.01000000000E+09 -6.14390777051E-01 +7.19095597318E-01 +5.09756190913E-06 -1.15870751950E-05 -3.27641553332E-05 +7.22819715370E-05 -7.45928059755E-01 +6.31915617321E-01
1.01500000000E+09 -6.10175854645E-01 +7.22800080387E-01 -1.78719768408E-05 -5.60897304203E-06 -9.08037727164E-07 +5.28081217772E-05 -7.42689404702E-01 +6.35479862414E-01
1.02000000000E+09 -6.07234349988E-01 +7.25898508462E-01 +1.10361344420E-05 +6.13356688195E-05 +3.42925590142E-06 +5.66037881347E-06 -7.39288147120E-01 +6.39074438561E-01
1.02500000000E+09 -6.05380427395E-01 +7.28440572337E-01 +4.95757449261E-06 +2.09215558137E-05 +2.59682224638E-05 +6.89463929014E-06 -7.36433139348E-01 +6.42673873446E-01
1.03000000000E+09 -6.03968010105E-01 +7.30657499418E-01 -2.33576744045E-05 +4.35735152980E-06 -3.57131420686E-06 +1.88892647311E-06 -7.32885843930E-01 +6.46522690233E-01
1.03500000000E+09 -6.01694941118E-01 +7.32681988489E-01 -2.21350337632E-05 -4.53587337877E-07 -1.20006764477E-05 +1.25637372732E-05 -7.29295025163E-01 +6.50505464384E-01
1.04000000000E+09 -5.97975572142E-01 +7.35407690845E-01 -4.23064127234E-06 +3.08358522056E-05 -8.52416408030E-06 +3.69256954111E-05 -7.25490171399E-01 +6.54239853091E-01
1.04500000000E+09 -5.92799531885E-01 +7.38695185007E-01 -5.34112611775E-05 -1.55124949770E-05 -5.49632482100E-05 +2.36053133770E-05 -7.22013328831E-01 +6.57685783671E-01
1.05000000000E+09 -5.85605875679E-01 +7.42778653158E-01 -2.75792040716E-06 -1.41065822491E-05 +2.22887836230E-05 +5.51766166823E-05 -7.18625838291E-01 +6.61141258871E-01
1.05500000000E+09 -5.77015479212E-01 +7.47422571560E-01 -2.23878317777E-05 -2.11126471934E-05 +8.64298193665E-06 +5.08080959054E-05 -7.15310594164E-01 +6.64847672892E-01
1.06000000000E+09 -5.67887137368E-01 +7.52764391370E-01 -5.26845712037E-06 +3.77783009153E-05 +1.57554396586E-06 +1.79035017437E-05 -7.11860718849E-01 +6.68495738862E-01
1.06500000000E+09 -5.59133619963E-01 +7.57994903317E-01 +1.87469662774E-05 +2.70192253282E-05 -1.45534615046E-06 +8.23554235469E-05 -7.07949622018E-01 +6.72305701830E-01
1.07000000000E+09 -5.51237327442E-01 +7.62503947437E-01 -2.27381736098E-05 -4.08797008205E-06 +8.01285402570E-06 +4.12514422658E-05 -7.04089802159E-01 +6.76025383157E-01
1.07500000000E+09 -5.45003203277E-01 +7.66545354606E-01 -2.21080157568E-05 +8.29982470041E-06 -9.69167839293E-06 +1.28045675040E-05 -6.99690094475E-01 +6.79695875613E-01
1.08000000000E+09 -5.40739960593E-01 +7.69919098928E-01 +3.43961910055E-05 +5.04236330520E-05 -2.95880598405E-06 +3.63594334065E-05 -6.95708781392E-01 +6.83605636332E-01
1.08500000000E+09 -5.37898461308E-01 +7.72143852967E-01 +4.81708528339E-05 +7.97031636333E-06 -1.17987793769E-05 +3.73123394697E-05 -6.92010034228E-01 +6.87334721402E-01
1.09000000000E+09 -5.35672532894E-01 +7.74263586192E-01 +4.03515962601E-05 +3.45927311190E-05 +2.65835612802E-05 +3.99365534460E-05 -6.88167834306E-01 +6.91123164001E-01
1.09500000000E+09 -5.33918832442E-01 +7.75815067583E-01 +4.81345075184E-05 +1.48264285112E-05 +4.21996480742E-05 -3.02933157796E-05 -6.84486534844E-01 +6.94801293326E-01
1.10000000000E+09 -5.31137480177E-01 +7.77561080012E-01 +1.36889101092E-05 +1.67051352347E-05 +2.77010299358E-05 +2.01515578663E-05 -6.80496674682E-01 +6.98620106102E-01
1.10500000000E+09 -5.27353372691E-01 +7.80061794748E-01 +1.05220877345E-06 -1.41649680073E-06 +4.70937804009E-06 +5.71413694601E-05 -6.76298213028E-01 +7.02072595136E-01
1.11000000000E+09 -5.21805763070E-01 +7.83203495572E-01 +7.10725353974E-06 +9.00718242328E-06 +2.91227495383E-05 +4.51993180833E-05 -6.72064816549E-01 +7.05664840920E-01
1.11500000000E+09 -5.15012638952E-01 +7.86950805868E-01 -5.58574189362E-06 +2.87378843597E-05 +3.06968248505E-05 -3.20234673584E-05 -6.67998857576E-01 +7.08865249741E-01
1.12000000000E+09 -5.07443940106E-01 +7.90821569091E-01 -2.50394369995E-05 -1.79791907571E-05 +5.39926083964E-05 -3.47057267019E-05 -6.64014042199E-01 +7.12583631053E-01
1.12500000000E+09 -4.99376080000E-01 +7.95003007661E-01 +1.20781301063E-05 +4.49047258402E-05 +7.05425166595E-05 +1.39578872895E-05 -6.59798684861E-01 +7.16733901749E-01
1.13000000000E+09 -4.92028029410E-01 +7.98672923801E-01 +2.03641270242E-05 +3.50056747119E-05 +3.21668632711E-05 +3.53528103855E-05 -6.55394181041E-01 +7.20253368188E-01
1.13500000000E+09 -4.85538043412E-01 +8.01442242097E-01 +4.47489826840E-05 +2.25821782325E-05 +3.23010116951E-05 -2.59746776127E-06 -6.50667227699E-01 +7.24228667747E-01
1.14000000000E+09 -4.80192182758E-01 +8.03739833093E-01 +3.71899222957E-05 -3.80992659541E-05 +8.56527405490E-05 -2.78905758115E-05 -6.45891972248E-01 +7.27578940147E-01
1.14500000000E+09 -4.76025596154E-01 +8.05206164119E-01 -4.72808725272E-06 +2.66491219389E-05 +6.10624781727E-05 +3.89411117286E-05 -6.41304088607E-01 +7.31065655236E-01
1.15000000000E+09 -4.72099140093E-01 +8.06521651488E-01 +3.86233809844E-05 -2.82411394852E-06 +1.18149517536E-05 +3.65021311980E-05 -6.36718248504E-01 +7.34864241338E-01
1.15500000000E+09 -4.68401129861E-01 +8.08046181452E-01 +6.11450262357E-05 +1.40387579709E-05 +8.43346728261E-05 -1.20660680470E-05 -6.31931267369E-01 +7.38775724823E-01
1.16000000000E+09 -4.63686121393E-01 +8.09726665552E-01 +5.77848512606E-05 +2.43682711275E-05 +3.88508023264E-05 -1.77456871371E-05 -6.27219180195E-01 +7.42585787482E-01
1.16500000000E+09 -4.57966477228E-01 +8.12347673644E-01 +6.49864575647E-05 -3.11077197014E-05 +6.50611527843E-05 -2.51310073685E-05 -6.22130852606E-01 +7.46281969596E-01
1.17000000000E+09 -4.51204233552E-01 +8.15394594342E-01 +5.47402286207E-05 -5.68953873584E-05 +7.10002351050E-05 -5.95635920571E-05 -6.16727420328E-01 +7.49441149583E-01
1.17500000000E+09 -4.43599564832E-01 +8.18723050038E-01 +4.53138788444E-05 -2.92039114792E-05 +6.71310784307E-05 -2.73571144639E-05 -6.11099188739E-01 +7.52698213581E-01
1.18000000000E+09 -4.35752237474E-01 +8.22349330009E-01 +9.14720578785E-05 -3.05912495458E-05 +6.05177007241E-05 -1.08836731430E-05 -6.05584699963E-01 +7.55695057468E-01
1.18500000000E+09 -4.28153019656E-01 +8.25640978816E-01 +6.20420759396E-05 -6.73316731250E-05 +1.51694152169E-05 -6.09135199818E-05 -5.99703578643E-01 +7.58679257176E-01
1.19000000000E+09 -4.20996154657E-01 +8.28233051007E-01 +5.66370621147E-05 -5.13007509591E-05 +7.83329370675E-05 -1.22157669667E-04 -5.93500499275E-01 +7.61264787113E-01
1.19500000000E+09 -4.14769021190E-01 +8.30187529749E-01 +6.11684423426E-05 -1.22206681631E-04 +8.23260324128E-05 -1.51773981871E-04 -5.87716979993E-01 +7.62416073133E-01
1.20000000000E+09 -4.09619997180E-01 +8.30908159372E-01 +4.41994118589E-06 -1.24472100110E-04 -1.30487139416E-05 -1.06463743555E-04 -5.83225691883E-01 +7.62636984256E-01
1.20500000000E+09 -4.04930007117E-01 +8.31961833858E-01 -7.48839986391E-05 -1.08724622294E-04 -7.25480110623E-05 -1.03335724556E-04 -5.81071281731E-01 +7.63546548256E-01
1.21000000000E+09 -3.99820455942E-01 +8.32670726875E-01 -5.43750669324E-05 +1.63408379532E-05 -6.61463788946E-05 -5.85295679313E-05 -5.79053226665E-01 +7.66860543483E-01
1.21500000000E+09 -3.93651731259E-01 +8.34126733547E-01 -6.28632416215E-05 -5.98827723605E-06 -8.25704929271E-05 -3.31879746001E-05 -5.76163758777E-01 +7.71427498980E-01
1.22000000000E+09 -3.85930841895E-01 +8.35892046809E-01 -4.90470343754E-05 -3.55498694790E-05 -5.13398127816E-05 -6.63802991026E-05 -5.71796436487E-01 +7.77000360787E-01
1.22500000000E+09 -3.76659970165E-01 +8.38549369505E-01 -1.66286108594E-05 -2.48667486883E-05 -2.63935309989E-05 -1.20460366551E-05 -5.66663353900E-01 +7.82027181143E-01
1.23000000000E+09 -3.66653456886E-01 +8.41629283380E-01 -9.52128003244E-06 -2.19485306588E-05 +4.43930922663E-06 -2.46519886226E-05 -5.60878183878E-01 +7.86615468010E-01
1.23500000000E+09 -3.56100116933E-01 +8.45383999094E-01 -8.82956157911E-05 -4.68081178653E-05 +1.01493024958E-05 -8.07643352843E-05 -5.55196579945E-01 +7.90954942406E-01
1.24000000000E+09 -3.45913105736E-01 +8.49307152518E-01 -5.64673661123E-05 -8.90560195582E-05 -3.24499768547E-05 -5.22980664482E-05 -5.49154892745E-01 +7.94716245692E-01
1.24500000000E+09 -3.36695046580E-01 +8.53304926850E-01 -5.93130411513E-05 -1.63979090350E-05 -9.01953569728E-05 -4.19258809254E-05 -5.43082527912E-01 +7.98462532411E-01
1.25000000000E+09 -3.28475839183E-01 +8.56523923017E-01 -6.70069668681E-05 -5.37605480825E-05 -8.44304120553E-05 -7.40168084936E-05 -5.36643043147E-01 +8.02695905330E-01
1.25500000000E+09 -3.21697108900E-01 +8.58731577197E-01 -3.58568914547E-05 -6.24129316702E-05 -1.37745585559E-04 -3.26840357214E-05 -5.29742956273E-01 +8.06732394945E-01
1.26000000000E+09 -3.15911236747E-01 +8.60120164696E-01 -7.72380981088E-05 -3.27718547402E-05 -8.66207344418E-05 -2.13466722517E-05 -5.23104218709E-01 +8.10910607903E-01
1.26500000000E+09 -3.10560921060E-01 +8.60679518392E-01 -9.27305132638E-05 -1.19941602038E-05 -1.21918105893E-04 -3.07924423662E-05 -5.16152908038E-01 +8.14688656312E-01
1.27000000000E+09 -3.04624415025E-01 +8.61191947105E-01 -1.14526753553E-04 -2.30349850823E-06 -9.29856212253E-05 +7.05216187247E-06 -5.09263454070E-01 +8.18454751904E-01
1.27500000000E+09 -2.97428484479E-01 +8.61713615944E-01 -7.35852521022E-05 +4.83551175663E-05 -6.00914195413E-05 +1.03452926599E-05 -5.02197722909E-01 +8.22051563416E-01
1.28000000000E+09 -2.88461701533E-01 +8.62689751302E-01 -9.94559696810E-05 -4.09082874534E-05 -5.19798830491E-05 -1.29810742308E-05 -4.94973049544E-01 +8.25587601157E-01
1.28500000000E+09 -2.77443691864E-01 +8.64427366444E-01 -1.06670496375E-04 +2.27501098553E-05 -1.25626564748E-04 +4.21043655775E-05 -4.87587620485E-01 +8.29271864784E-01
1.29000000000E+09 -2.65505717841E-01 +8.66910682162E-01 -6.85381064422E-05 -8.41293553137E-06 -1.06641802343E-04 -2.49541575420E-06 -4.80014631701E-01 +8.33172273278E-01
1.29500000000E+09 -2.53102155522E-01 +8.70069629844E-01 -8.72675453346E-05 +3.55603074736E-05 -1.45852996728E-04 -1.25658122610E-05 -4.72022337305E-01 +8.36638178506E-01
1.30000000000E+09 -2.40935091214E-01 +8.73714237407E-01 -1.18882938160E-04 +1.39181533817E-05 -9.35795731764E-05 +3.12374930664E-05 -4.64179694480E-01 +8.40220443778E-01
1.30500000000E+09 -2.29803098677E-01 +8.76950830705E-01 -9.03016642465E-05 +4.80929805074E-05 -9.00732778649E-05 +4.40369542303E-05 -4.56200193251E-01 +8.43581682920E-01
1.31000000000E+09 -2.20219962083E-01 +8.79326487177E-01 -1.02036161435E-04 +1.73122320048E-05 -1.26391587248E-04 +1.10102478240E-05 -4.47801956565E-01 +8.47059057800E-01
1.31500000000E+09 -2.12614555324E-01 +8.80682288983E-01 -9.59964481251E-05 +8.25121431837E-05 -6.97539933151E-05 +4.82722304344E-05 -4.39142032534E-01 +8.50513041581E-01
1.32000000000E+09 -2.06557229564E-01 +8.80957851857E-01 -9.69283542850E-05 +2.99212800994E-05 -1.47478709538E-04 +4.53982168415E-05 -4.30144312815E-01 +8.53833586317E-01
1.32500000000E+09 -2.00906209816E-01 +8.80296295581E-01 -1.71673622209E-04 +6.42030261712E-05 -1.53659515095E-04 +8.71641439992E-05 -4.20547073038E-01 +8.57326394166E-01
1.33000000000E+09 -1.94204325838E-01 +8.79545167823E-01 -1.57341043154E-04 +9.66092103948E-05 -1.41532897124E-04 +6.08309756525E-05 -4.11157814158E-01 +8.60421913615E-01
1.33500000000E+09 -1.85992673742E-01 +8.78347381920E-01 -1.78652830522E-04 +1.25204795354E-04 -1.40598291307E-04 +1.57531501479E-04 -4.01323215377E-01 +8.63593149952E-01
1.34000000000E+09 -1.75053360026E-01 +8.77599851154E-01 -1.52450126597E-04 +1.35023106739E-04 -1.53829061693E-04 +1.53475662674E-04 -3.91216635722E-01 +8.66923096797E-01
1.34500000000E+09 -1.61707023740E-01 +8.76989589714E-01 -1.19786258381E-04 +1.59409129218E-04 -1.08953723257E-04 +1.38066707784E-04 -3.80445248536E-01 +8.70198974298E-01
1.35000000000E+09 -1.46496436362E-01 +8.77164749173E-01 -1.39361886726E-04 +1.99536375077E-04 -9.17998992168E-05 +1.62588869644E-04 -3.69255685998E-01 +8.73349402617E-01
1.35500000000E+09 -1.29964144233E-01 +8.77867794951E-01 -1.22459427420E-04 +2.45732829530E-04 -6.64597689311E-05 +2.19104247625E-04 -3.57541027326E-01 +8.76209776390E-01
1.36000000000E+09 -1.13365543359E-01 +8.79055007716E-01 -1.38781278273E-04 +2.49238461195E-04 -1.07315582618E-04 +2.59984286470E-04 -3.45390131964E-01 +8.78996442815E-01
1.36500000000E+09 -9.75768455434E-02 +8.79807728625E-01 -7.18969389589E-05 +3.65022218848E-04 -1.23366744731E-04 +2.91993086144E-04 -3.33304148216E-01 +8.81273821120E-01
1.37000000000E+09 -8.33474375288E-02 +8.79994907237E-01 -5.75420253392E-05 +3.92082361590E-04 -3.02894873329E-05 +3.84734111767E-04 -3.20518086186E-01 +8.83790822204E-01
1.37500000000E+09 -7.12258542928E-02 +8.79376394913E-01 +5.73969422225E-05 +4.70593211668E-04 +1.52607187349E-05 +3.89538992931E-04 -3.06856984665E-01 +8.86191071381E-01
1.38000000000E+09 -6.04908770707E-02 +8.78038749055E-01 +1.53908084481E-04 +3.93895022459E-04 +1.18036545372E-04 +4.21166075903E-04 -2.92239876545E-01 +8.88286506314E-01
1.38500000000E+09 -4.94863634554E-02 +8.75903128970E-01 +1.92820939841E-04 +3.37383772485E-04 +1.99999594477E-04 +4.54360450371E-04 -2.76671272347E-01 +8.90238801767E-01
1.39000000000E+09 -3.77633045933E-02 +8.72805961951E-01 +2.41803748978E-04 +3.31819696055E-04 +2.85184121588E-04 +4.21943623024E-04 -2.60784564851E-01 +8.91702109529E-01
1.39500000000E+09 -2.38960514006E-02 +8.68840892920E-01 +2.39012492412E-04 +3.12539084819E-04 +3.06094780361E-04 +3.61359049911E-04 -2.44189092084E-01 +8.92527654743E-01
1.40000000000E+09 -7.49189216942E-03 +8.64195262612E-01 +2.74239955604E-04 +3.95984713622E-04 +3.31761733468E-04 +3.78076677398E-04 -2.26886247979E-01 +8.92844972545E-01
1.40500000000E+09 +1.09641099438E-02 +8.58988178003E-01 +4.43458523794E-04 +3.74050191859E-04 +4.89725422186E-04 +3.42196308534E-04 -2.08475387274E-01 +8.92633203327E-01
1.41000000000E+09 +3.15846699250E-02 +8.53689799258E-01 +4.44171013231E-04 +3.37964748926E-04 +4.87110950749E-04 +3.39800412620E-04 -1.88471954733E-01 +8.92105626349E-01
1.41500000000E+09 +5.35196846277E-02 +8.48239326380E-01 +5.79432361153E-04 +3.17099303368E-04 +6.30296596675E-04 +3.19605089656E-04 -1.66958505720E-01 +8.90646208308E-01
1.42000000000E+09 +7.59961854867E-02 +8.42272325312E-01 +6.14992127604E-04 +1.06879907557E-04 +6.90777962102E-04 +1.40739895412E-04 -1.44168864198E-01 +8.88135548369E-01
1.42500000000E+09 +9.78765071787E-02 +8.35166150434E-01 +5.60354899881E-04 +1.80169058689E-04 +6.44232643635E-04 +2.05215187048E-04 -1.20423400789E-01 +8.84758832408E-01
1.43000000000E+09 +1.18534071040E-01 +8.26479750358E-01 +7.66482414435E-04 +1.35686008072E-04 +8.78442524655E-04 +8.62418984864E-05 -9.55914544681E-02 +8.80089143885E-01
1.43500000000E+09 +1.38295715158E-01 +8.16128272884E-01 +8.63894203142E-04 -8.21609472751E-05 +8.75957533095E-04 -1.42775337538E-04 -6.94653806249E-02 +8.73732576734E-01
1.44000000000E+09 +1.58258735903E-01 +8.03924220181E-01 +8.61328929610E-04 -2.32562897431E-04 +8.70722767003E-04 -2.99567984652E-04 -4.11806692393E-02 +8.65649012329E-01
1.44500000000E+09 +1.79687346612E-01 +7.88713087013E-01 +8.74655077548E-04 -3.50884955644E-04 +8.57196023403E-04 -4.18414006812E-04 -1.06456976749E-02 +8.54573012199E-01
1.45000000000E+09 +2.02758325464E-01 +7.69963530222E-01 +8.20684723651E-04 -4.75047270802E-04 +8.47641801221E-04 -5.26121633828E-04 +2.14232722950E-02 +8.40220217946E-01
1.45500000000E+09 +2.28439816316E-01 +7.47699267230E-01 +9.11791677969E-04 -5.70526408049E-04 +8.05383078097E-04 -6.54131289388E-04 +5.53553219213E-02 +8.22936414148E-01
1.46000000000E+09 +2.56915922294E-01 +7.21110603151E-01 +1.06426282154E-03 -7.06712616382E-04 +8.95394493835E-04 -7.67789818826E-04 +9.04299842906E-02 +8.01458821239E-01
1.46500000000E+09 +2.86914853047E-01 +6.90559929829E-01 +1.16949778331E-03 -1.22010529614E-03 +9.64442699215E-04 -1.19363380598E-03 +1.27024954014E-01 +7.74510107058E-01
1.47000000000E+09 +3.18432726255E-01 +6.55960425998E-01 +7.12905498066E-04 -1.64332905685E-03 +6.68095098484E-04 -1.50227824714E-03 +1.64191299043E-01 +7.41321468406E-01
1.47500000000E+09 +3.49185509175E-01 +6.15601105905E-01 +2.99890530704E-04 -1.96068387501E-03 +3.88133797320E-04 -1.86622005683E-03 +2.02668488362E-01 +7.00646341307E-01
1.48000000000E+09 +3.77291889418E-01 +5.69420983876E-01 -6.41476939249E-05 -1.73495967542E-03 -1.11702633524E-05 -1.72787393667E-03 +2.40153384595E-01 +6.50329480995E-01
1.48500000000E+09 +4.00333545896E-01 +5.16725629624E-01 +7.72039062038E-05 -1.93507157838E-03 +1.74983708630E-05 -1.97616165496E-03 +2.74943410740E-01 +5.90683784785E-01
1.49000000000E+09 +4.17386014988E-01 +4.56859437872E-01 -4.74964838527E-04 -2.36453099099E-03 -5.74602696932E-04 -2.34845974226E-03 +3.04047633287E-01 +5.20133222309E-01
1.49500000000E+09 +4.26249711402E-01 +3.88741446710E-01 -1.04184767533E-03 -2.61591749127E-03 -1.09732543946E-03 -2.46996471927E-03 +3.23125853596E-01 +4.38878615555E-01
1.50000000000E+09 +4.25319511313E-01 +3.11224838860E-01 -2.11402158414E-03 -2.95255402694E-03 -2.02284388939E-03 -2.77588684637E-03 +3.28584557933E-01 +3.47318506682E-01
1.50500000000E+09 +4.10775690414E-01 +2.24956452363E-01 -3.71169945484E-03 -2.18057874392E-03 -3.47549309970E-03 -2.18446498283E-03 +3.16100147100E-01 +2.49456198516E-01
1.51000000000E+09 +3.78979006943E-01 +1.33737854101E-01 -4.10721970452E-03 -2.59158180872E-04 -4.06522219818E-03 -4.80876522500E-04 +2.83687359210E-01 +1.46810793251E-01
1.51500000000E+09 +3.28365310827E-01 +4.35610228790E-02 -3.93431858843E-03 +3.92636147164E-04 -3.95729862311E-03 +2.60990675402E-04 +2.26353756302E-01 +4.74349125480E-02
1.52000000000E+09 +2.58611054478E-01 -3.93369636024E-02 -4.16123788943E-03 +1.77298568374E-03 -4.23971582161E-03 +1.71498626645E-03 +1.46847571265E-01 -3.89029439829E-02
1.52500000000E+09 +1.71386038968E-01 -1.07523479195E-01 -2.73467481393E-03 +3.21180380166E-03 -2.76295138736E-03 +3.24285903997E-03 +4.94524020695E-02 -1.06666001560E-01
1.53000000000E+09 +6.82535932699E-02 -1.54543498815E-01 -1.59354642283E-03 +2.88927962842E-03 -1.65777227058E-03 +2.91381904449E-03 -6.02653860331E-02 -1.50656623692E-01
1.53500000000E+09 -4.23071534049E-02 -1.73372904229E-01 -1.64763041089E-03 +3.27604402164E-03 -1.65268175316E-03 +3.22477798817E-03 -1.74642341528E-01 -1.68193808305E-01
1.54000000000E+09 -1.51993160342E-01 -1.65196672418E-01 -5.84578812705E-04 +4.18303375485E-03 -6.29775955394E-04 +4.12850595001E-03 -2.84122024895E-01 -1.61779643820E-01
1.54500000000E+09 -2.54061998529E-01 -1.33958304122E-01 +1.19480642438E-03 +3.96926449211E-03 +1.04608565501E-03 +3.99068528739E-03 -3.82418464503E-01 -1.36010891711E-01
1.55000000000E+09 -3.43666735512E-01 -8.60387460027E-02 +2.27976922873E-03 +3.15715301091E-03 +2.16899463808E-03 +3.28048386217E-03 -4.67717345035E-01 -9.64660152727E-02
1.55500000000E+09 -4.19098542717E-01 -2.80580675094E-02 +2.94492085730E-03 +1.98115580123E-03 +2.98669358544E-03 +2.13184719472E-03 -5.37709711819E-01 -4.61913320149E-02
1.56000000000E+09 -4.80038607403E-01 +3.43442656893E-02 +2.79367642402E-03 +5.78123252967E-04 +2.91639312375E-03 +7.03552169262E-04 -5.92268733826E-01 +8.49966752565E-03
1.56500000000E+09 -5.25911407631E-01 +9.67210239024E-02 +2.19000450688E-03 -2.99783982745E-05 +2.28187045626E-03 -9.13273213602E-06 -6.35235605507E-01 +6.44938484417E-02
1.57000000000E+09 -5.60196227776E-01 +1.56083946947E-01 +1.78041281430E-03 -1.92858141402E-04 +1.89600311307E-03 -2.37302281108E-04 -6.66379835565E-01 +1.19828489516E-01
