# Hz S RI R 50
! CMT, C1220, 16058040, 17.2.0/1
! Date: 14/08/2018 12:33:56
! Data: Format (Calibration Info)
! Freq                      S11: Re/Im (F2)                       S21: Re/Im (F2)                       S12: Re/Im (F2)                       S22: Re/Im (F2)            
1.00000000000E+09 -6.33865268031E-01 +7.08789270840E-01 +3.03821205739E-05 +2.25865245289E-05 -1.05621415342E-05 +2.02448506037E-05 -7.53178255460E-01 +6.24052177138E-01
1.00500000000E+09 -6.26674409520E-01 +7.13836834746E-01 +7.07806867994E-05 +2.67420614515E-07 -1.33909491978E-05 -7.09541515422E-06 -7.49514567029E-01 +6.28069364004E-01
1.01000000000E+09 -6.20519380656E-01 +7.18670210738E-01 +3.10142843026E-06 -4.56964281407E-05 -4.16453105124E-05 -3.97300853864E-05 -7.46214997259E-01 +6.31583605108E-01
1.01500000000E+09 -6.15684817729E-01 +7.22355125238E-01 +2.50512327331E-05 +4.76971296557E-05 -3.83472192804E-05 +3.68801940700E-05 -7.42914441462E-01 +6.35275154483E-01
1.02000000000E+09 -6.12075984803E-01 +7.25948336244E-01 -2.71207337916E-05 -2.95304193491E-06 -7.26568334267E-05 -1.91402054505E-05 -7.39456556390E-01 +6.38755069544E-01
1.02500000000E+09 -6.09513079755E-01 +7.28748826557E-01 +9.62222587181E-06 -3.20385493514E-05 +3.20752333405E-06 -1.09976184281E-05 -7.36745009704E-01 +6.42314796204E-01
1.03000000000E+09 -6.07431746077E-01 +7.31397671763E-01 -4.48586988460E-05 -2.37731245179E-05 -1.11002672530E-05 -6.36960505407E-05 -7.33306669119E-01 +6.46084574813E-01
1.03500000000E+09 -6.04637766813E-01 +7.33894437912E-01 -4.04842882130E-05 -6.80691158580E-06 +2.28559544950E-05 -2.06038716736E-06 -7.29503681536E-01 +6.50165409352E-01
1.04000000000E+09 -6.00937987010E-01 +7.36634623742E-01 +2.40938343651E-05 -6.79748483483E-06 -8.08006530288E-05 -8.28260069160E-06 -7.25728522121E-01 +6.53875177157E-01
1.04500000000E+09 -5.95583577443E-01 +7.39948117013E-01 -1.54254299623E-05 +5.97288194047E-06 -1.71728737996E-05 +2.19223948344E-06 -7.22163195809E-01 +6.57402714562E-01
1.05000000000E+09 -5.88908700275E-01 +7.43859271300E-01 -5.54687695013E-06 -4.09177371186E-05 +1.04940286504E-05 +1.91858833614E-05 -7.18729493779E-01 +6.60676063753E-01
1.05500000000E+09 -5.80961667488E-01 +7.48163813243E-01 +8.42188899328E-06 +2.20312397467E-05 +1.89732685251E-05 +3.27407589334E-05 -7.15578843307E-01 +6.64396493078E-01
1.06000000000E+09 -5.72530129516E-01 +7.53031371176E-01 +1.28971374196E-05 -3.24482821598E-05 +1.12927412749E-05 +2.92219565694E-05 -7.12263576355E-01 +6.68250592856E-01
1.06500000000E+09 -5.64387562167E-01 +7.57867307712E-01 +4.62364897413E-05 -4.06800999085E-06 -3.52237592181E-05 -1.40196503702E-06 -7.08374191443E-01 +6.72016882097E-01
1.07000000000E+09 -5.57301678178E-01 +7.62240771180E-01 -3.56548691123E-05 +2.81358108812E-05 -3.54462591355E-05 +5.58335840947E-05 -7.04267745523E-01 +6.75768000688E-01
1.07500000000E+09 -5.51579295332E-01 +7.66253260206E-01 +1.78725388964E-05 +3.79032963813E-05 +7.49136922517E-05 +3.88483755772E-05 -6.99942713011E-01 +6.79338339196E-01
1.08000000000E+09 -5.47329439414E-01 +7.69588990428E-01 -1.96562844865E-05 +2.67549138146E-05 +1.74650603491E-05 +5.69221258813E-05 -6.95948643022E-01 +6.83164058195E-01
1.08500000000E+09 -5.44279475404E-01 +7.72326058906E-01 +3.77601639700E-05 +2.76742836093E-05 +2.11196240753E-05 +1.84066725981E-05 -6.92296491884E-01 +6.86843755173E-01
1.09000000000E+09 -5.41700937367E-01 +7.74506421315E-01 +4.06948253182E-05 +3.69629446230E-06 +7.39511682591E-05 -7.57839595963E-06 -6.88435351239E-01 +6.90723316225E-01
1.09500000000E+09 -5.39427649128E-01 +7.76424344288E-01 -4.14296069745E-06 -1.41271340365E-06 +4.89194856667E-05 -2.13550203660E-08 -6.84744250135E-01 +6.94446064818E-01
1.10000000000E+09 -5.35748854048E-01 +7.78513323118E-01 +4.37580760992E-06 +3.62895605674E-06 +4.49225257962E-05 +3.90160895576E-05 -6.80815636815E-01 +6.98307043938E-01
1.10500000000E+09 -5.31325154599E-01 +7.80994392398E-01 +1.27934885978E-05 -3.58880935501E-05 +9.45126840397E-06 -4.52707614920E-06 -6.76539534021E-01 +7.01792580515E-01
1.11000000000E+09 -5.25331407670E-01 +7.84362308427E-01 +1.67246862641E-05 -2.86667408145E-05 +7.33006363277E-05 +1.94140344872E-05 -6.72346727153E-01 +7.05188535061E-01
1.11500000000E+09 -5.18061679266E-01 +7.88176777571E-01 +1.86786446616E-05 -7.61803084527E-08 +6.71591302217E-06 +8.12147322083E-05 -6.68349146424E-01 +7.08524325283E-01
1.12000000000E+09 -5.10449972218E-01 +7.91995995962E-01 +4.21610904996E-05 +2.34699470687E-05 +1.01943011537E-06 -3.21345554115E-06 -6.64448730427E-01 +7.12298556964E-01
1.12500000000E+09 -5.02762469404E-01 +7.95881782109E-01 +2.42067295964E-05 +8.75075834983E-07 +2.40185605330E-05 -7.50789416199E-07 -6.60094662261E-01 +7.16249049910E-01
1.13000000000E+09 -4.95783612147E-01 +7.99564877137E-01 +4.42532934762E-05 +2.61179241314E-06 +5.38533519010E-05 +8.99332546147E-06 -6.55569469750E-01 +7.19832595816E-01
1.13500000000E+09 -4.89919652152E-01 +8.02305226190E-01 +3.05197383272E-05 -1.79237868607E-05 +4.12632140639E-05 -7.91867739371E-06 -6.50931340787E-01 +7.23819813036E-01
1.14000000000E+09 -4.85087709305E-01 +8.04745670789E-01 -3.42506985301E-06 +6.62787806640E-05 +2.40385765706E-05 -2.61880886459E-05 -6.46222178872E-01 +7.27471599901E-01
1.14500000000E+09 -4.81303642887E-01 +8.06431540367E-01 +5.55371969766E-05 -1.23364418547E-05 +1.31294176559E-05 +4.14158187828E-06 -6.41604228213E-01 +7.30955369955E-01
1.15000000000E+09 -4.77800679074E-01 +8.07734284374E-01 +4.89917726730E-05 +1.82915056752E-06 +2.55263106450E-05 +2.33559295206E-05 -6.37003616737E-01 +7.34614647986E-01
1.15500000000E+09 -4.74214087696E-01 +8.09332248422E-01 +3.28807111009E-05 +7.56572208896E-06 +2.31668739755E-05 +1.27024289241E-06 -6.32260847300E-01 +7.38502201381E-01
1.16000000000E+09 -4.69436613103E-01 +8.11016320306E-01 +1.33684242279E-05 +4.39132065139E-06 +4.89788652720E-05 +8.16131418303E-06 -6.27347473177E-01 +7.42181131563E-01
1.16500000000E+09 -4.63571382822E-01 +8.13628919518E-01 +3.82003219689E-05 -4.58057405529E-06 +3.26079562792E-05 -1.37796482128E-05 -6.22554362452E-01 +7.45912379199E-01
1.17000000000E+09 -4.56533894239E-01 +8.16585066263E-01 +4.39377870150E-05 -3.01086254960E-05 +3.98171669747E-05 -3.03565541859E-05 -6.17122956344E-01 +7.49212835586E-01
1.17500000000E+09 -4.48451094503E-01 +8.19757594602E-01 +6.89310585960E-05 -2.42202923519E-05 +1.20793016514E-04 -2.64939326776E-05 -6.11418310912E-01 +7.52418021767E-01
1.18000000000E+09 -4.40239421239E-01 +8.23379068703E-01 +3.18030187076E-05 -6.34167013326E-05 +6.39577871241E-05 -8.02996205790E-05 -6.05903860267E-01 +7.55549811394E-01
1.18500000000E+09 -4.32187476344E-01 +8.26613080792E-01 +2.80529752562E-05 -3.12123479076E-05 +7.64070048461E-05 -4.63811570003E-05 -6.00189922569E-01 +7.58368462630E-01
1.19000000000E+09 -4.24874209031E-01 +8.29271636373E-01 +7.91125994873E-05 -5.76184132619E-05 +9.46618581790E-05 -6.85176852458E-05 -5.93890894759E-01 +7.61033711909E-01
1.19500000000E+09 -4.18618001542E-01 +8.31447086587E-01 +5.18508787038E-05 -7.87376642021E-05 +8.12384398302E-05 -7.72068644044E-05 -5.88078517923E-01 +7.62085665907E-01
1.20000000000E+09 -4.13508276466E-01 +8.32510777186E-01 -1.24628091235E-05 -1.19245587214E-04 -2.59675822231E-05 -1.83883433513E-04 -5.83644389726E-01 +7.62371804883E-01
1.20500000000E+09 -4.09009025727E-01 +8.33516053697E-01 -1.72001707053E-06 -1.19875038110E-04 -8.40649479561E-05 -1.30990465192E-04 -5.81233989198E-01 +7.63377581773E-01
1.21000000000E+09 -4.04263731132E-01 +8.34530225481E-01 -5.05970159954E-05 -8.38828938931E-05 -6.20215883573E-05 -7.73936137405E-05 -5.79345350996E-01 +7.66517168785E-01
1.21500000000E+09 -3.98336522532E-01 +8.35887966361E-01 -6.09011403799E-05 -4.95572350269E-05 -5.74946614131E-05 -4.63556425292E-05 -5.76405569566E-01 +7.71153722598E-01
1.22000000000E+09 -3.90936336271E-01 +8.37556002275E-01 -6.76751709085E-05 -5.57268503284E-05 -8.22010685242E-05 -2.73265640958E-05 -5.72201957237E-01 +7.76427281993E-01
1.22500000000E+09 -3.82118279502E-01 +8.39969770603E-01 -1.89155547020E-05 -3.37089042360E-05 -2.58403977067E-05 -4.33751879794E-05 -5.67091961506E-01 +7.81528174070E-01
1.23000000000E+09 -3.72153212217E-01 +8.42784791902E-01 -5.26754994112E-05 -7.13000837232E-05 -4.16940311124E-05 -4.00011150598E-05 -5.61559265887E-01 +7.86195324994E-01
1.23500000000E+09 -3.61865304857E-01 +8.46056504904E-01 -7.61749920645E-05 -7.96714705034E-05 -6.13532834327E-05 -5.10971776447E-05 -5.55633058237E-01 +7.90564503588E-01
1.24000000000E+09 -3.51688177869E-01 +8.49911917838E-01 -2.33467810498E-05 -3.21937668262E-05 -8.61749258004E-05 -2.37171872692E-05 -5.49573524465E-01 +7.94423872518E-01
1.24500000000E+09 -3.42522269787E-01 +8.53893083170E-01 -4.97277905287E-05 -2.96755747299E-05 -3.92823952760E-05 -3.40263406977E-05 -5.43288613758E-01 +7.98262010436E-01
1.25000000000E+09 -3.34392944529E-01 +8.57451605701E-01 -8.05148867984E-05 -5.18353725039E-05 -7.91347480702E-05 -9.05442504598E-05 -5.36922537739E-01 +8.02401604403E-01
1.25500000000E+09 -3.27274066609E-01 +8.60037358879E-01 -8.26317162019E-05 -7.67864285139E-05 -6.73436982517E-05 -4.65666601099E-05 -5.30204328411E-01 +8.06357220111E-01
1.26000000000E+09 -3.21123979448E-01 +8.61694894416E-01 -6.42773892873E-05 -2.32858755862E-05 -7.15699432907E-05 +3.30386534016E-06 -5.23584688454E-01 +8.10675359975E-01
1.26500000000E+09 -3.15356780981E-01 +8.62721019007E-01 -8.06748914079E-05 -4.77906861407E-05 -1.21919151561E-04 -9.16145205386E-06 -5.16546073510E-01 +8.14375562957E-01
1.27000000000E+09 -3.09115910952E-01 +8.63461447587E-01 -5.38848900387E-05 +2.79911827008E-05 -4.16784907490E-05 +9.03536519773E-06 -5.09616290177E-01 +8.18298105729E-01
1.27500000000E+09 -3.01756133407E-01 +8.64043080443E-01 -5.63945932407E-05 +2.90262729255E-06 -8.05887490758E-05 +4.03152778994E-06 -5.02606173605E-01 +8.21813916936E-01
1.28000000000E+09 -2.92597172817E-01 +8.64893263290E-01 -9.62042550650E-05 -2.90851270080E-05 -8.03540866821E-05 -1.75278729863E-05 -4.95471445352E-01 +8.25479763373E-01
1.28500000000E+09 -2.81558588648E-01 +8.66178563559E-01 -8.78412371730E-05 +1.18199787656E-06 -5.46889859414E-05 +1.28904247106E-05 -4.87975592849E-01 +8.29276178221E-01
1.29000000000E+09 -2.69817378264E-01 +8.67988332668E-01 -6.39582831919E-05 +3.09708000298E-06 -1.05056579040E-04 +1.11621594946E-05 -4.80381281038E-01 +8.32845787229E-01
1.29500000000E+09 -2.57753951173E-01 +8.70581904610E-01 -6.36199375690E-05 +2.24571658702E-05 -1.10806588493E-04 -1.45090861677E-05 -4.72460397091E-01 +8.36369509809E-01
1.30000000000E+09 -2.46092665840E-01 +8.73744809661E-01 -1.48919331545E-04 +2.62850222372E-05 -1.04432827668E-04 -6.79207599795E-06 -4.64738702430E-01 +8.40007489640E-01
1.30500000000E+09 -2.35590742098E-01 +8.76978406247E-01 -8.76376842573E-05 +6.49295133060E-05 -1.06151454896E-04 +4.53176019971E-05 -4.56574074368E-01 +8.43407986303E-01
1.31000000000E+09 -2.26391397039E-01 +8.79703532653E-01 -8.25625451451E-05 +8.84736673152E-06 -6.80768695815E-05 +3.60521139877E-05 -4.48313339330E-01 +8.46872151999E-01
1.31500000000E+09 -2.18894165793E-01 +8.81547717228E-01 -8.78842683344E-05 +7.13920515175E-05 -4.68706411799E-05 -2.13753679039E-06 -4.39585028397E-01 +8.50320192498E-01
1.32000000000E+09 -2.12511379981E-01 +8.82384873859E-01 -1.02258158602E-04 -1.22150299326E-07 -8.50772543114E-05 +5.73156629214E-06 -4.30457089176E-01 +8.53755104272E-01
1.32500000000E+09 -2.06619358988E-01 +8.82215781941E-01 -9.92070242356E-05 +3.34124362858E-05 -1.83541188545E-04 +2.10929455062E-05 -4.21070201579E-01 +8.57134098367E-01
1.33000000000E+09 -1.99885673795E-01 +8.81788869476E-01 -1.56122061731E-04 -2.61520153708E-05 -1.58720079256E-04 +7.06813895615E-05 -4.11454075571E-01 +8.60310928303E-01
1.33500000000E+09 -1.91051690620E-01 +8.80737106183E-01 -1.51832631052E-04 +4.66452092808E-05 -1.79622989478E-04 +8.94713204347E-05 -4.01776920152E-01 +8.63493368691E-01
1.34000000000E+09 -1.79826597209E-01 +8.79743678640E-01 -1.61132970748E-04 +8.20432053856E-05 -1.98654882175E-04 +1.28314877824E-04 -3.91638561321E-01 +8.66645346923E-01
1.34500000000E+09 -1.66301302568E-01 +8.78798280516E-01 -1.63466135565E-04 +1.33557464773E-04 -1.43862572942E-04 +1.41453080830E-04 -3.80686342797E-01 +8.70020528344E-01
1.35000000000E+09 -1.51011901410E-01 +8.78268998173E-01 -1.45070199168E-04 +1.57473003980E-04 -1.45662785490E-04 +1.18551470723E-04 -3.69478562353E-01 +8.73143581171E-01
1.35500000000E+09 -1.34860742469E-01 +8.78385548222E-01 -1.56662681036E-04 +1.90295175115E-04 -1.86410891825E-04 +1.95607287582E-04 -3.57843075295E-01 +8.76080434410E-01
1.36000000000E+09 -1.18692091178E-01 +8.78943523971E-01 -1.46957176447E-04 +2.35038623066E-04 -1.37022707646E-04 +1.99435628278E-04 -3.45763584296E-01 +8.78770022197E-01
1.36500000000E+09 -1.02986241239E-01 +8.79720286203E-01 -1.23940677348E-04 +3.15884680337E-04 -1.14595403350E-04 +3.38061926036E-04 -3.33673327422E-01 +8.81280430796E-01
1.37000000000E+09 -8.90009574946E-02 +8.79967329736E-01 -1.15739174548E-04 +3.45358814087E-04 -7.76010019858E-05 +3.15365138402E-04 -3.20788321545E-01 +8.83726038970E-01
1.37500000000E+09 -7.68124679905E-02 +8.79646761277E-01 +2.77372991775E-05 +4.26336204018E-04 -2.00326880719E-05 +4.00827796184E-04 -3.07231710932E-01 +8.85836054284E-01
1.38000000000E+09 -6.59254627626E-02 +8.78576768042E-01 +1.04344943267E-04 +3.73168079453E-04 +3.08289579341E-05 +4.01501237307E-04 -2.92588327586E-01 +8.88020463750E-01
1.38500000000E+09 -5.50649181571E-02 +8.76710787499E-01 +1.06534820827E-04 +3.77175477904E-04 +1.00242205966E-04 +4.52189746260E-04 -2.77073044650E-01 +8.89922087672E-01
1.39000000000E+09 -4.33923347854E-02 +8.73798189211E-01 +1.47478601476E-04 +3.44774899882E-04 +1.58208284585E-04 +4.30679442253E-04 -2.61208779089E-01 +8.91338388361E-01
1.39500000000E+09 -2.96571962216E-02 +8.70158793983E-01 +1.59948744025E-04 +3.06970393948E-04 +2.04674184261E-04 +3.48917151664E-04 -2.44480399957E-01 +8.92096168240E-01
1.40000000000E+09 -1.33962279133E-02 +8.65456240022E-01 +1.56723987923E-04 +3.60142060920E-04 +1.92173959526E-04 +3.67805801182E-04 -2.27178142919E-01 +8.92443908899E-01
1.40500000000E+09 +4.98117498574E-03 +8.59943809628E-01 +2.48022023394E-04 +4.13774215673E-04 +2.55113387505E-04 +4.08670423683E-04 -2.08767190874E-01 +8.92270335532E-01
1.41000000000E+09 +2.51936252285E-02 +8.54249821725E-01 +4.08744202170E-04 +4.41400801084E-04 +3.88087911274E-04 +4.42266558389E-04 -1.88836221607E-01 +8.91545606261E-01
1.41500000000E+09 +4.67179776875E-02 +8.48480463527E-01 +5.08732803544E-04 +3.40944477995E-04 +5.48103477518E-04 +3.89826804762E-04 -1.67331479972E-01 +8.90068265215E-01
1.42000000000E+09 +6.86546778947E-02 +8.42213606413E-01 +6.21860993780E-04 +2.25496433695E-04 +6.59336009639E-04 +2.33245457275E-04 -1.44460768453E-01 +8.87543436738E-01
1.42500000000E+09 +9.01300832400E-02 +8.34916039139E-01 +5.19549737927E-04 +1.50421317798E-04 +5.94999127900E-04 +1.60318751815E-04 -1.20990820156E-01 +8.83816983566E-01
1.43000000000E+09 +1.10445717911E-01 +8.26253050763E-01 +6.79716014792E-04 +2.48464779657E-04 +7.92665988294E-04 +2.20525076178E-04 -9.63862298338E-02 +8.79349655880E-01
1.43500000000E+09 +1.29883154645E-01 +8.16031373455E-01 +8.69701682911E-04 -1.87392304383E-07 +9.25858445797E-04 -1.50388034549E-04 -7.01699981380E-02 +8.72911097944E-01
1.44000000000E+09 +1.49589897345E-01 +8.04002577804E-01 +6.77837915923E-04 -1.52749488956E-04 +7.08035466852E-04 -1.88909995838E-04 -4.22130772029E-02 +8.64601122325E-01
1.44500000000E+09 +1.70388342060E-01 +7.88782746722E-01 +8.11931283071E-04 -1.11186107473E-04 +7.98597710658E-04 -1.28829465390E-04 -1.18608468287E-02 +8.53378163112E-01
1.45000000000E+09 +1.92698271295E-01 +7.70269595410E-01 +8.22930624438E-04 -2.48362451726E-04 +8.36131831519E-04 -3.02926453116E-04 +2.01089764674E-02 +8.39126067811E-01
1.45500000000E+09 +2.17181040495E-01 +7.48073103039E-01 +9.66623371666E-04 -2.93462442789E-04 +9.53499470781E-04 -4.11914106664E-04 +5.35529750512E-02 +8.21546318155E-01
1.46000000000E+09 +2.44113970891E-01 +7.21696681625E-01 +1.21271155545E-03 -5.54136489646E-04 +1.11357900624E-03 -6.67817449760E-04 +8.80667807231E-02 +8.00304642863E-01
1.46500000000E+09 +2.72455392005E-01 +6.91787153037E-01 +1.04577284242E-03 -1.09901519461E-03 +9.62304324893E-04 -1.04569063625E-03 +1.24336363099E-01 +7.73734115652E-01
1.47000000000E+09 +3.02015222596E-01 +6.58012186381E-01 +7.76193203837E-04 -1.27022269544E-03 +7.34601438581E-04 -1.19086234599E-03 +1.61006159368E-01 +7.40854457277E-01
1.47500000000E+09 +3.31272091669E-01 +6.19808187807E-01 +5.32926028141E-04 -1.47515510089E-03 +6.01694450356E-04 -1.39303556685E-03 +1.99049201607E-01 +7.00701570344E-01
1.48000000000E+09 +3.58611604768E-01 +5.75588473485E-01 +4.10579163397E-04 -1.44566062323E-03 +5.23685119024E-04 -1.50970888034E-03 +2.36167823584E-01 +6.51078298480E-01
1.48500000000E+09 +3.80796309293E-01 +5.25525222712E-01 +4.75798177970E-04 -1.89306252535E-03 +4.96554225908E-04 -2.00250280670E-03 +2.70413359861E-01 +5.92450264708E-01
1.49000000000E+09 +3.97718670738E-01 +4.68774616025E-01 -3.35165631941E-05 -2.38636102863E-03 -1.99364923367E-04 -2.40206371711E-03 +2.99619927983E-01 +5.23023637894E-01
1.49500000000E+09 +4.06676233524E-01 +4.04300756185E-01 -5.74980027465E-04 -2.51598400964E-03 -6.46637909720E-04 -2.41393600421E-03 +3.18924709398E-01 +4.43312138593E-01
1.50000000000E+09 +4.06617908497E-01 +3.31881238856E-01 -1.44580218596E-03 -3.19322164250E-03 -1.39563013897E-03 -3.02266097524E-03 +3.25001411375E-01 +3.53400528410E-01
1.50500000000E+09 +3.94968308420E-01 +2.50998913970E-01 -3.33329209239E-03 -2.51114073451E-03 -3.14572525167E-03 -2.50184405414E-03 +3.14244948262E-01 +2.56625428796E-01
1.51000000000E+09 +3.67399728720E-01 +1.64256260087E-01 -3.73787007274E-03 -7.94612772087E-04 -3.70720183945E-03 -9.14671000419E-04 +2.83317058215E-01 +1.54909817439E-01
1.51500000000E+09 +3.23019304840E-01 +7.75817194007E-02 -3.80238594136E-03 +1.11703176621E-05 -3.88722071659E-03 -1.16753219927E-04 +2.28634447554E-01 +5.64049479501E-02
1.52000000000E+09 +2.60753491919E-01 -4.10109346307E-03 -3.70307375508E-03 +1.35268781723E-03 -3.74840595781E-03 +1.39621791337E-03 +1.51991476110E-01 -3.08125134259E-02
1.52500000000E+09 +1.81200375204E-01 -7.35970594934E-02 -2.39398125844E-03 +2.41695590819E-03 -2.46200486626E-03 +2.44099156973E-03 +5.68034205386E-02 -1.00312736247E-01
1.53000000000E+09 +8.59399145404E-02 -1.24038401989E-01 -1.95113212018E-03 +1.83684424333E-03 -2.00597050481E-03 +1.88524568081E-03 -5.15856185755E-02 -1.46480033065E-01
1.53500000000E+09 -1.78191901117E-02 -1.50345603701E-01 -2.30536211913E-03 +2.80886480612E-03 -2.23231383370E-03 +2.85707112402E-03 -1.65151999055E-01 -1.66571236029E-01
1.54000000000E+09 -1.24242361059E-01 -1.50611855006E-01 -1.01978037630E-03 +3.84770786639E-03 -9.92839794844E-04 +3.85654264105E-03 -2.74798938516E-01 -1.62642284237E-01
1.54500000000E+09 -2.25298137696E-01 -1.27494086345E-01 +6.96870107221E-04 +3.68924807701E-03 +6.60451871665E-04 +3.61176622402E-03 -3.73788496891E-01 -1.39156287598E-01
1.55000000000E+09 -3.15906430336E-01 -8.66858754019E-02 +1.53986993443E-03 +3.05488321405E-03 +1.38897705957E-03 +3.09993604996E-03 -4.60766127921E-01 -1.01756393951E-01
1.55500000000E+09 -3.94116296791E-01 -3.45421699482E-02 +2.42732563278E-03 +2.19975956828E-03 +2.34701172166E-03 +2.33959675656E-03 -5.32511580850E-01 -5.20063233384E-02
1.56000000000E+09 -4.58725766695E-01 +2.40283224602E-02 +2.51737106977E-03 +9.57403814982E-04 +2.61769371948E-03 +1.05624071534E-03 -5.88380478487E-01 +1.87800369162E-03
1.56500000000E+09 -5.08124763415E-01 +8.42629685929E-02 +2.07236400751E-03 +4.46052468796E-06 +2.19439590236E-03 +1.12492035713E-05 -6.33149575440E-01 +5.76832789383E-02
1.57000000000E+09 -5.46221924240E-01 +1.41788901853E-01 +1.56958835937E-03 -2.07310550339E-04 +1.63468979018E-03 -2.66035190350E-04 -6.65913556349E-01 +1.13361489546E-01
