# Hz S RI R 50
! CMT, C1220, 16058040, 17.2.0/1
! Date: 14/08/2018 12:30:12
! Data: Format (Calibration Info)
! Freq                      S11: Re/Im (F2)                       S21: Re/Im (F2)                       S12: Re/Im (F2)                       S22: Re/Im (F2)            
1.00000000000E+09 -6.27502038429E-01 +7.08869757556E-01 +9.04018430317E-06 +5.49451048324E-06 -1.62984272913E-06 -1.68597367513E-05 -7.52967104426E-01 +6.24025468322E-01
1.00500000000E+09 -6.20339192938E-01 +7.14054886282E-01 +2.67173023199E-05 -1.13021203535E-05 -1.23133571734E-05 -8.37754377224E-06 -7.49543329104E-01 +6.28202725303E-01
1.01000000000E+09 -6.14566864481E-01 +7.18520764876E-01 -2.29057530389E-05 +1.41772366052E-06 -2.23612585512E-05 +7.79193935833E-06 -7.46080307855E-01 +6.31789221708E-01
1.01500000000E+09 -6.10144182838E-01 +7.22141764257E-01 +9.16615975125E-06 +2.95808637237E-05 +2.90439344616E-05 -3.66812501891E-05 -7.42864521542E-01 +6.35349469686E-01
1.02000000000E+09 -6.07354145738E-01 +7.25396424409E-01 +5.87375057999E-06 +3.37870405259E-05 +1.86584716986E-05 +1.54637818280E-05 -7.39553839352E-01 +6.38769349597E-01
1.02500000000E+09 -6.05453912644E-01 +7.28045291851E-01 +1.60999441287E-05 +1.21306921161E-05 -6.92956196251E-05 -2.14251557799E-05 -7.36783481473E-01 +6.42448483071E-01
1.03000000000E+09 -6.03918747097E-01 +7.29952017490E-01 -1.73728894965E-05 +2.53034053683E-05 +2.66655252820E-06 -1.83717093991E-05 -7.33199512893E-01 +6.46321925529E-01
1.03500000000E+09 -6.01586933117E-01 +7.32318211331E-01 -1.59120807470E-05 +1.88394635112E-05 +2.02170896975E-05 +5.66663905065E-06 -7.29407381753E-01 +6.50198543900E-01
1.04000000000E+09 -5.97931469893E-01 +7.34915368129E-01 +1.21649117469E-05 +1.27043199166E-05 +1.39279825045E-05 +1.29090368358E-05 -7.25674549426E-01 +6.53759235382E-01
1.04500000000E+09 -5.92612187496E-01 +7.38115777403E-01 -4.79792510257E-08 -2.32605455379E-07 -3.64254008789E-05 +3.44280485274E-05 -7.22026226281E-01 +6.57364037020E-01
1.05000000000E+09 -5.85582625069E-01 +7.42139096236E-01 +6.90233835305E-06 +2.36497111294E-05 +2.13860875386E-06 +8.86508981465E-05 -7.18708952194E-01 +6.60950350847E-01
1.05500000000E+09 -5.77291331164E-01 +7.46923254308E-01 -2.98637167309E-05 +1.50047636831E-05 -9.16731877384E-06 +4.60148618069E-05 -7.15356810071E-01 +6.64525494128E-01
1.06000000000E+09 -5.68066999789E-01 +7.52149575174E-01 +2.12351505310E-05 +1.37257093225E-05 -1.89772268319E-07 -6.93869658960E-06 -7.12129215689E-01 +6.68288282439E-01
1.06500000000E+09 -5.59351509030E-01 +7.57445253223E-01 -1.49283208532E-05 +3.27947235847E-05 +1.39964015795E-05 +1.70367148700E-05 -7.08256185810E-01 +6.72258686600E-01
1.07000000000E+09 -5.51513462660E-01 +7.62067159231E-01 +1.77234188579E-05 +5.56584311341E-05 -8.52814889725E-06 +2.46357788054E-05 -7.04287508763E-01 +6.75966733195E-01
1.07500000000E+09 -5.45304587440E-01 +7.66041921737E-01 +3.22341805188E-05 +3.22217573397E-05 +2.02195508790E-05 +4.91185776508E-05 -6.99903796515E-01 +6.79619102021E-01
1.08000000000E+09 -5.40969151668E-01 +7.69473746872E-01 +1.07125334524E-05 -2.11381406256E-06 +5.32292093662E-06 +3.37934037044E-05 -6.95983482353E-01 +6.83419838985E-01
1.08500000000E+09 -5.38082205498E-01 +7.71812671012E-01 +3.82165212336E-05 -1.06119893867E-05 -2.01519509064E-05 +3.56914401208E-05 -6.92146622024E-01 +6.86982538652E-01
1.09000000000E+09 -5.35849065089E-01 +7.73665193733E-01 +4.69974007023E-05 +4.47679649775E-05 -1.19047937499E-05 -5.33251078930E-05 -6.88328251240E-01 +6.90805744413E-01
1.09500000000E+09 -5.34073202142E-01 +7.75257403407E-01 +4.06614244407E-05 -9.79830172325E-06 +2.80475750552E-05 -6.48910416024E-06 -6.84558004895E-01 +6.94547668218E-01
1.10000000000E+09 -5.31341871886E-01 +7.77197400620E-01 +1.46271995804E-05 -3.39321831684E-05 -7.18827711077E-06 +1.96312063452E-05 -6.80695170659E-01 +6.98457034987E-01
1.10500000000E+09 -5.27377375735E-01 +7.79674892593E-01 +7.51357764035E-05 -1.86154210324E-06 +4.71849029007E-05 +2.20160556920E-05 -6.76457747504E-01 +7.01947775606E-01
1.11000000000E+09 -5.21907032948E-01 +7.82643294125E-01 -1.99191056250E-05 +1.71941330744E-06 -3.54266638544E-06 +3.66084790299E-05 -6.72153845599E-01 +7.05340534533E-01
1.11500000000E+09 -5.14971378029E-01 +7.86424340576E-01 +4.71453488477E-06 +1.61402900243E-05 -3.35424518071E-06 +3.29952053532E-05 -6.68195615224E-01 +7.08677233106E-01
1.12000000000E+09 -5.07422235631E-01 +7.90325492253E-01 +2.65233350025E-05 +2.80682979200E-05 -3.17935362939E-05 +3.59323803196E-05 -6.64241680349E-01 +7.12357121272E-01
1.12500000000E+09 -4.99444902636E-01 +7.94433041891E-01 -1.52798077657E-05 +1.75464037365E-05 +2.86999031646E-05 +6.46859311936E-05 -6.59909405602E-01 +7.16454495968E-01
1.13000000000E+09 -4.92199139036E-01 +7.98038633819E-01 +3.09570099088E-05 +9.94909796236E-06 +2.64156602005E-05 +9.80020247430E-06 -6.55599127902E-01 +7.20017410438E-01
1.13500000000E+09 -4.85692305614E-01 +8.00868218384E-01 +1.63969650522E-05 -1.64574311988E-06 +2.49508255361E-05 -2.98119012007E-05 -6.50983158480E-01 +7.23829625053E-01
1.14000000000E+09 -4.80306825229E-01 +8.03092803329E-01 +2.49857128501E-05 +1.22180756302E-05 +2.36038346240E-05 +3.39117125471E-05 -6.46154694522E-01 +7.27526128459E-01
1.14500000000E+09 -4.76109982088E-01 +8.04670680685E-01 +2.14182505996E-05 -3.70295467440E-05 +6.15448578432E-05 -1.97425208315E-05 -6.41477235965E-01 +7.30893426785E-01
1.15000000000E+09 -4.72226064977E-01 +8.05981092074E-01 +4.99425409291E-05 +2.34193026299E-05 +2.42134447501E-05 +5.70553511002E-05 -6.36898415369E-01 +7.34767086923E-01
1.15500000000E+09 -4.68436122166E-01 +8.07454914163E-01 +6.84296536753E-05 +1.16487687391E-05 +6.42566545702E-05 -3.91640083716E-05 -6.32211322084E-01 +7.38506530340E-01
1.16000000000E+09 -4.63773167859E-01 +8.09120649014E-01 +3.58189486381E-05 -9.26309373079E-06 +8.01937808097E-05 +2.39265808378E-05 -6.27411377630E-01 +7.42408580889E-01
1.16500000000E+09 -4.58171200425E-01 +8.11752527871E-01 +5.85765124841E-05 -4.24495980209E-05 +7.85622632519E-05 -1.15829085065E-05 -6.22277136959E-01 +7.46019336466E-01
1.17000000000E+09 -4.51498057850E-01 +8.14813466550E-01 +4.13096348640E-05 -4.53928986685E-05 +2.52235071571E-05 -8.30863379370E-06 -6.16932314797E-01 +7.49335361950E-01
1.17500000000E+09 -4.43738383176E-01 +8.18169361884E-01 +8.27376647494E-05 -2.52101447671E-05 +9.08895221722E-05 -6.47132090439E-05 -6.11357910188E-01 +7.52553424978E-01
1.18000000000E+09 -4.36015007786E-01 +8.21776746855E-01 +7.09086947971E-05 -6.28738125892E-05 +5.24477273707E-05 -3.63452166531E-05 -6.05765199007E-01 +7.55710998386E-01
1.18500000000E+09 -4.28340113849E-01 +8.25004701728E-01 +3.55572819279E-05 -9.71538107101E-05 +2.70974932651E-05 -1.16945053425E-04 -5.99906709602E-01 +7.58583460655E-01
1.19000000000E+09 -4.21269061385E-01 +8.27587048966E-01 +5.32674688432E-05 -8.58783506468E-05 +4.39966224489E-05 -1.00154831029E-04 -5.93789867028E-01 +7.61091075138E-01
1.19500000000E+09 -4.14967676124E-01 +8.29772309014E-01 +2.54095132990E-05 -1.25971971090E-04 +4.12762695070E-05 -9.39107150282E-05 -5.87871360472E-01 +7.62336968599E-01
1.20000000000E+09 -4.09884770243E-01 +8.30382560624E-01 -2.63552893522E-06 -1.46864961464E-04 +8.30659210472E-06 -1.10038683219E-04 -5.83495477662E-01 +7.62524061274E-01
1.20500000000E+09 -4.05120283455E-01 +8.31291371888E-01 -9.66240153119E-05 -1.09724003348E-04 -2.73983575407E-05 -1.39440254789E-04 -5.81255220103E-01 +7.63326853040E-01
1.21000000000E+09 -4.00024545259E-01 +8.32297916539E-01 -1.00000257670E-04 -7.70071353882E-05 -1.13229231334E-04 -9.80888816390E-05 -5.79266676282E-01 +7.66610197517E-01
1.21500000000E+09 -3.93758445646E-01 +8.33586468511E-01 -8.88816519420E-05 -4.14440302290E-05 -8.23193626902E-05 -4.08810959724E-05 -5.76257384565E-01 +7.71320601681E-01
1.22000000000E+09 -3.86076273164E-01 +8.35289352764E-01 -1.72754407495E-05 +1.18124604095E-05 -7.65030370536E-05 -4.66327454789E-05 -5.71986031523E-01 +7.76670482780E-01
1.22500000000E+09 -3.76863001142E-01 +8.37955886568E-01 -1.01466950418E-05 -4.36549326197E-05 -4.43449158969E-05 +5.82771020008E-06 -5.66867988692E-01 +7.81786104993E-01
1.23000000000E+09 -3.66741999874E-01 +8.41025579596E-01 -6.15055145054E-05 -3.71411644673E-05 -2.43566894973E-05 -6.44578388073E-05 -5.61160111178E-01 +7.86457829958E-01
1.23500000000E+09 -3.56233747770E-01 +8.44650424602E-01 +1.77739908590E-05 -7.66878846257E-05 -3.09915687272E-05 -4.19204866891E-05 -5.55490603787E-01 +7.90753828221E-01
1.24000000000E+09 -3.46136367422E-01 +8.48605732197E-01 -7.44935178231E-05 -4.25029495634E-05 -3.46828286155E-05 -1.92708779798E-05 -5.49393399349E-01 +7.94544065720E-01
1.24500000000E+09 -3.36966732072E-01 +8.52616447759E-01 -6.91333055725E-05 -3.39384880805E-05 -3.97128396255E-05 -4.50551847486E-05 -5.43186433718E-01 +7.98379185941E-01
1.25000000000E+09 -3.28833039612E-01 +8.55789575046E-01 -4.70956076097E-05 -1.03215474254E-04 -5.09555752060E-05 -4.71017725092E-05 -5.36742799979E-01 +8.02546572166E-01
1.25500000000E+09 -3.22153828936E-01 +8.58050572292E-01 -5.61168672306E-05 -3.14979604353E-05 -7.36756975072E-05 -6.08359989174E-05 -5.29952485261E-01 +8.06501396975E-01
1.26000000000E+09 -3.16324120753E-01 +8.59411568111E-01 -1.03499830209E-04 +3.67641144146E-06 -1.20165733699E-04 -4.39836485753E-05 -5.23292399956E-01 +8.10729123505E-01
1.26500000000E+09 -3.10941335708E-01 +8.60083815650E-01 -8.78419786578E-05 -1.44204342504E-05 -1.07805936058E-04 -1.50601403431E-05 -5.16301870127E-01 +8.14465692807E-01
1.27000000000E+09 -3.05079841568E-01 +8.60514845037E-01 -8.24057672764E-05 -6.78759630198E-07 -9.69076112600E-05 +3.91060377313E-05 -5.09509887096E-01 +8.18290324083E-01
1.27500000000E+09 -2.97948002729E-01 +8.61015489657E-01 -9.03301403071E-05 +1.37234652446E-05 -6.36864203576E-05 -3.09537403570E-05 -5.02451723054E-01 +8.21843646795E-01
1.28000000000E+09 -2.88875420416E-01 +8.62119508426E-01 -5.40140697667E-05 -5.38280394992E-05 -7.47846594295E-05 +2.70766024855E-05 -4.95171807663E-01 +8.25577937498E-01
1.28500000000E+09 -2.77922293537E-01 +8.63891811833E-01 -8.02218874681E-05 -3.54753031424E-07 -9.18551222596E-05 +4.57393650093E-05 -4.87781158530E-01 +8.29231738693E-01
1.29000000000E+09 -2.65995673554E-01 +8.66246473017E-01 -8.18895970309E-05 +1.31328944674E-05 -6.58797701788E-05 +5.11414758022E-06 -4.80166864684E-01 +8.33002390475E-01
1.29500000000E+09 -2.53514601463E-01 +8.69459324669E-01 -1.10608932663E-04 -1.54518981624E-05 -9.91132941911E-05 +3.94051087235E-05 -4.72239176125E-01 +8.36368909447E-01
1.30000000000E+09 -2.41349121048E-01 +8.73027079811E-01 -9.60729706000E-05 +4.06610112507E-05 -1.03958255070E-04 +7.45489252599E-05 -4.64450088670E-01 +8.40100144955E-01
1.30500000000E+09 -2.30148341026E-01 +8.76346218306E-01 -8.59258918137E-05 +1.51540640268E-05 -7.99639857737E-05 -1.37921469965E-05 -4.56366947273E-01 +8.43520631675E-01
1.31000000000E+09 -2.20625122242E-01 +8.78753801866E-01 -5.69571362535E-05 +4.20949487641E-05 -1.21905862906E-04 +2.56760178538E-05 -4.48136824516E-01 +8.46962749828E-01
1.31500000000E+09 -2.13046137338E-01 +8.80068181122E-01 -1.23440968350E-04 +5.12566587965E-05 -9.34947080896E-05 +4.13306405020E-06 -4.39336309811E-01 +8.50446036229E-01
1.32000000000E+09 -2.06964013017E-01 +8.80427938820E-01 -1.14444386585E-04 +4.31459332497E-06 -1.29691076543E-04 +3.19233451111E-05 -4.30390875900E-01 +8.53853972239E-01
1.32500000000E+09 -2.01425619130E-01 +8.79754403465E-01 -1.44969726329E-04 +4.24111284313E-05 -1.36141457476E-04 +6.45668919261E-05 -4.20960873594E-01 +8.57199861317E-01
1.33000000000E+09 -1.94757364673E-01 +8.78908434162E-01 -1.36889480439E-04 +6.07519124296E-05 -1.28096178253E-04 +9.49684730011E-05 -4.11286868347E-01 +8.60495157987E-01
1.33500000000E+09 -1.86407896606E-01 +8.77623572890E-01 -1.87912494626E-04 +8.79962206118E-05 -1.79969140228E-04 +9.43372377814E-05 -4.01579790475E-01 +8.63530744741E-01
1.34000000000E+09 -1.75747646855E-01 +8.76903252391E-01 -1.74034590303E-04 +1.46728559392E-04 -1.54888076387E-04 +1.18453762231E-04 -3.91466704267E-01 +8.66618455896E-01
1.34500000000E+09 -1.62360420252E-01 +8.76338569048E-01 -1.36806799930E-04 +1.86698496433E-04 -8.86592056255E-05 +1.92935030683E-04 -3.80632528488E-01 +8.70126561006E-01
1.35000000000E+09 -1.47251576157E-01 +8.76500318444E-01 -8.70254490597E-05 +1.74386321453E-04 -1.22285023952E-04 +1.88629201408E-04 -3.69417032938E-01 +8.73172906196E-01
1.35500000000E+09 -1.30799205330E-01 +8.77354764268E-01 -1.40582011555E-04 +2.39543366384E-04 -1.43432451728E-04 +2.13281257611E-04 -3.57620314677E-01 +8.76140012896E-01
1.36000000000E+09 -1.14351504768E-01 +8.78563352294E-01 -8.52061703462E-05 +2.63507250132E-04 -1.28646535696E-04 +2.58939196441E-04 -3.45703847771E-01 +8.78815161382E-01
1.36500000000E+09 -9.84202535012E-02 +8.79389302922E-01 -9.26348521790E-05 +2.98723179497E-04 -8.19335824539E-05 +3.29400355095E-04 -3.33519761736E-01 +8.81206614653E-01
1.37000000000E+09 -8.43004950684E-02 +8.79521295047E-01 -3.31642668271E-05 +3.76452091549E-04 -2.13622260424E-05 +3.58994678029E-04 -3.20729632813E-01 +8.83655333423E-01
1.37500000000E+09 -7.21515166077E-02 +8.79007811348E-01 +2.76431005093E-05 +4.58681606065E-04 -1.03108873917E-05 +4.21796511876E-04 -3.07063800433E-01 +8.85948250527E-01
1.38000000000E+09 -6.12971640530E-02 +8.77665341408E-01 +1.70879499293E-04 +4.10656783103E-04 +1.12627989904E-04 +4.18047561252E-04 -2.92501584710E-01 +8.88180876471E-01
1.38500000000E+09 -5.04364521423E-02 +8.75616925020E-01 +1.97384564945E-04 +2.90579388600E-04 +2.15368961181E-04 +3.72199131602E-04 -2.77020653348E-01 +8.89974568012E-01
1.39000000000E+09 -3.85647531032E-02 +8.72562471642E-01 +2.50532849023E-04 +3.12152202706E-04 +2.46967196281E-04 +3.45862302068E-04 -2.61123613999E-01 +8.91471080195E-01
1.39500000000E+09 -2.47649360830E-02 +8.68586502264E-01 +2.30953379195E-04 +2.85443040540E-04 +2.74856350935E-04 +3.23078310850E-04 -2.44442528763E-01 +8.92351656444E-01
1.40000000000E+09 -8.40499040437E-03 +8.63939764747E-01 +2.50368629910E-04 +3.35864529508E-04 +2.71727102656E-04 +3.54456302298E-04 -2.27056545070E-01 +8.92688101503E-01
1.40500000000E+09 +1.01194577913E-02 +8.58847907765E-01 +4.07637496735E-04 +3.21884868780E-04 +4.02374971806E-04 +3.36460141162E-04 -2.08673685788E-01 +8.92490734497E-01
1.41000000000E+09 +3.06221832241E-02 +8.53744927322E-01 +4.52553622748E-04 +2.47305083404E-04 +3.95114486972E-04 +3.04767337324E-04 -1.88674639408E-01 +8.91764756248E-01
1.41500000000E+09 +5.25308960623E-02 +8.48219363543E-01 +5.16780143509E-04 +3.15686150076E-04 +5.42733671041E-04 +3.52524477601E-04 -1.67231874208E-01 +8.90383904552E-01
1.42000000000E+09 +7.48787913577E-02 +8.42392592294E-01 +5.68677424795E-04 +1.08059604374E-04 +6.44574394480E-04 +1.63905647377E-04 -1.44445720218E-01 +8.88000408765E-01
1.42500000000E+09 +9.68836764596E-02 +8.35179698050E-01 +5.06288945097E-04 +1.77341199954E-04 +6.16393941677E-04 +1.14423780339E-04 -1.20741740977E-01 +8.84457336493E-01
1.43000000000E+09 +1.17484916415E-01 +8.26536920346E-01 +6.95944474666E-04 +1.62487492587E-04 +8.01384954235E-04 +8.60919156949E-05 -9.61096445977E-02 +8.79926824110E-01
1.43500000000E+09 +1.37265098794E-01 +8.16321503809E-01 +8.06980631727E-04 -7.71171184242E-05 +8.17607530082E-04 -1.69495459016E-04 -6.98053306998E-02 +8.73538929253E-01
1.44000000000E+09 +1.57427242770E-01 +8.04165237895E-01 +7.65558719747E-04 -2.14375132819E-04 +7.54590950073E-04 -2.46547811732E-04 -4.16285579808E-02 +8.65302720997E-01
1.44500000000E+09 +1.78813591331E-01 +7.89078255955E-01 +8.12765490205E-04 -2.70910515597E-04 +7.97616412241E-04 -2.78605651354E-04 -1.11236600922E-02 +8.54200084899E-01
1.45000000000E+09 +2.02007616280E-01 +7.70477941509E-01 +8.09724146335E-04 -3.77636299631E-04 +7.90095715526E-04 -4.40272913108E-04 +2.09647281811E-02 +8.39861307110E-01
1.45500000000E+09 +2.27571373155E-01 +7.48232350909E-01 +8.54116628996E-04 -5.16067752790E-04 +8.07648628076E-04 -5.67625977874E-04 +5.47128414633E-02 +8.22497616654E-01
1.46000000000E+09 +2.56044149768E-01 +7.22067452971E-01 +1.01644642563E-03 -6.28699264751E-04 +8.90124781501E-04 -7.13427515695E-04 +8.96731627700E-02 +8.01017660532E-01
1.46500000000E+09 +2.85929851705E-01 +6.91659553017E-01 +1.09467971089E-03 -1.20439425036E-03 +9.31759474004E-04 -1.14708161533E-03 +1.26149720881E-01 +7.74323842468E-01
1.47000000000E+09 +3.17556637672E-01 +6.57405776633E-01 +6.77450103224E-04 -1.57164203439E-03 +6.50199550163E-04 -1.39273902758E-03 +1.63301672305E-01 +7.41209461700E-01
1.47500000000E+09 +3.48651484580E-01 +6.17428084333E-01 +3.21170789809E-04 -1.79155094907E-03 +2.85545576042E-04 -1.72128910705E-03 +2.01698947410E-01 +7.00599450243E-01
1.48000000000E+09 +3.77034296866E-01 +5.71603607723E-01 -1.96176970685E-05 -1.61776315101E-03 +1.08993697162E-05 -1.59122125053E-03 +2.39141657599E-01 +6.50610701256E-01
1.48500000000E+09 +4.00590646324E-01 +5.19187522835E-01 +2.17207810135E-05 -1.92349108120E-03 -4.19989259071E-05 -1.95293949963E-03 +2.73824697885E-01 +5.91045602008E-01
1.49000000000E+09 +4.18304054548E-01 +4.59187654648E-01 -5.92496136961E-04 -2.25022578642E-03 -6.78064165632E-04 -2.22477896241E-03 +3.02950869372E-01 +5.20681699602E-01
1.49500000000E+09 +4.27754159935E-01 +3.90917121180E-01 -1.09550370512E-03 -2.32229705363E-03 -1.08405662712E-03 -2.21041766157E-03 +3.22157406470E-01 +4.39904110596E-01
1.50000000000E+09 +4.27618643844E-01 +3.13341550784E-01 -1.97863666321E-03 -2.61166313931E-03 -1.84112095242E-03 -2.42834391732E-03 +3.27675108233E-01 +3.48508113728E-01
1.50500000000E+09 +4.14113611242E-01 +2.26662638289E-01 -3.49731438493E-03 -1.98263870525E-03 -3.27188802864E-03 -1.96916593845E-03 +3.15642359528E-01 +2.50898443695E-01
1.51000000000E+09 +3.83047073521E-01 +1.34589502329E-01 -3.85673341005E-03 -1.87342052823E-04 -3.81591907643E-03 -3.09888378714E-04 +2.83387349126E-01 +1.48348808050E-01
1.51500000000E+09 +3.33014454407E-01 +4.29852642575E-02 -3.50024373403E-03 +5.63841549715E-04 -3.57283896514E-03 +4.50137962235E-04 +2.26452576408E-01 +4.93097292991E-02
1.52000000000E+09 +2.63041715271E-01 -4.12992277704E-02 -3.54790333711E-03 +1.68953051450E-03 -3.57270439542E-03 +1.63434345799E-03 +1.47376400358E-01 -3.69885848380E-02
1.52500000000E+09 +1.75234972558E-01 -1.10761516330E-01 -2.35665495802E-03 +2.76574636607E-03 -2.41247556609E-03 +2.77424026971E-03 +5.06670906734E-02 -1.04920238503E-01
1.53000000000E+09 +7.11312183377E-02 -1.58357215959E-01 -1.53895767463E-03 +2.54300569513E-03 -1.55377565555E-03 +2.57222799201E-03 -5.84805023460E-02 -1.49172038945E-01
1.53500000000E+09 -4.02541968435E-02 -1.78044763671E-01 -1.59071394952E-03 +2.99826686275E-03 -1.60099406203E-03 +2.95537765478E-03 -1.72364752012E-01 -1.67467662164E-01
1.54000000000E+09 -1.51399353716E-01 -1.70439020336E-01 -5.63656228838E-04 +3.83453206708E-03 -5.72199598198E-04 +3.80520720751E-03 -2.81672779397E-01 -1.61753980414E-01
1.54500000000E+09 -2.54849966599E-01 -1.39240457786E-01 +9.74624368131E-04 +3.67110299790E-03 +9.00826861325E-04 +3.62782833381E-03 -3.80152776195E-01 -1.36663824184E-01
1.55000000000E+09 -3.46159536728E-01 -9.04514022934E-02 +2.05238402448E-03 +3.07860137302E-03 +1.90676905897E-03 +3.14681904661E-03 -4.65846240493E-01 -9.78128464966E-02
1.55500000000E+09 -4.21881962750E-01 -3.10641478360E-02 +2.79984855907E-03 +1.85002309884E-03 +2.80150597010E-03 +2.02985765200E-03 -5.36345869902E-01 -4.77068688043E-02
1.56000000000E+09 -4.82865683716E-01 +3.18780118704E-02 +2.68311594431E-03 +4.72076097251E-04 +2.74265026914E-03 +6.15597734196E-04 -5.91157345615E-01 +6.68298129936E-03
1.56500000000E+09 -5.28864017452E-01 +9.50159666744E-02 +1.96154187609E-03 -8.18859525667E-05 +2.12875281109E-03 -5.75787106674E-05 -6.34630630157E-01 +6.23489414985E-02
1.57000000000E+09 -5.63058089707E-01 +1.55005582069E-01 +1.70651010812E-03 -2.11518030659E-04 +1.75960628768E-03 -2.04938808525E-04 -6.66300105652E-01 +1.17896334423E-01
