# Hz S RI R 50
! CMT, C1220, 16058040, 17.2.0/1
! Date: 14/08/2018 12:31:00
! Data: Format (Calibration Info)
! Freq                      S11: Re/Im (F2)                       S21: Re/Im (F2)                       S12: Re/Im (F2)                       S22: Re/Im (F2)            
1.00000000000E+09 -6.28881894766E-01 +7.10314273561E-01 -3.10207881708E-05 +1.71446678888E-05 -1.09479744906E-05 -2.90895873545E-05 -7.53269137489E-01 +6.23871221528E-01
1.00500000000E+09 -6.21741555521E-01 +7.15315037352E-01 -2.47054128016E-05 -4.05237748280E-05 +6.06732041751E-06 +8.94147298981E-07 -7.49748611491E-01 +6.27905794432E-01
1.01000000000E+09 -6.16061142995E-01 +7.19814312901E-01 -5.95668914855E-05 +1.43210174650E-05 -1.83208944900E-08 +4.59867965793E-05 -7.46207270057E-01 +6.31591621109E-01
1.01500000000E+09 -6.11691359751E-01 +7.23641388244E-01 +2.88050414531E-05 +2.59946528244E-05 -8.05044692914E-06 +6.13606806583E-05 -7.43069180024E-01 +6.35207232754E-01
1.02000000000E+09 -6.08835684016E-01 +7.26844588064E-01 +1.43397256604E-05 -4.04372355911E-06 -2.91031281830E-05 -1.36649848073E-05 -7.39792124741E-01 +6.38547581196E-01
1.02500000000E+09 -6.06732680855E-01 +7.29468659734E-01 -2.53547181055E-05 +2.79306896650E-05 -1.32493147101E-05 +1.36708085509E-05 -7.36870258604E-01 +6.42364590486E-01
1.03000000000E+09 -6.05435233658E-01 +7.31563027088E-01 -2.39736397588E-05 -1.11300202167E-05 -2.28928835287E-05 -9.13768153148E-07 -7.33566430412E-01 +6.46253647947E-01
1.03500000000E+09 -6.03010314900E-01 +7.33801141337E-01 +1.39716292002E-05 +3.12926481966E-05 -2.57964084619E-05 +7.18076965807E-06 -7.29713142015E-01 +6.49988070936E-01
1.04000000000E+09 -5.99225369678E-01 +7.36374037209E-01 -3.94206769028E-05 +6.12347065050E-05 -2.37131997656E-05 -2.38080743631E-05 -7.25866610232E-01 +6.53772608628E-01
1.04500000000E+09 -5.94086051512E-01 +7.39784537273E-01 -8.80683367528E-06 -1.52561690683E-05 -9.00801065110E-06 +3.42117900167E-05 -7.22341791508E-01 +6.57297993075E-01
1.05000000000E+09 -5.86927570710E-01 +7.43964403218E-01 -5.34260328249E-06 +3.33554613691E-06 -7.61892416037E-06 +3.12976695654E-05 -7.18950158366E-01 +6.60704627852E-01
1.05500000000E+09 -5.78299940789E-01 +7.48469253638E-01 -5.33462447457E-05 +5.45712916760E-05 +4.99757238738E-05 +3.92233108461E-05 -7.15536646833E-01 +6.64207790436E-01
1.06000000000E+09 -5.69363523907E-01 +7.53706813355E-01 +1.28712451761E-06 +6.62504096260E-06 -3.72857815181E-05 +4.43621548133E-05 -7.12365237076E-01 +6.68099236997E-01
1.06500000000E+09 -5.60543906901E-01 +7.58873932353E-01 +5.03613659755E-05 +3.25081939776E-06 -1.98781671378E-05 +4.01246905772E-05 -7.08569703779E-01 +6.71871264460E-01
1.07000000000E+09 -5.52785460537E-01 +7.63433556499E-01 -1.62756791488E-05 -2.21793625461E-05 +2.76703724097E-06 +2.02612772584E-05 -7.04366969361E-01 +6.75661331294E-01
1.07500000000E+09 -5.46618885971E-01 +7.67394261800E-01 +1.97187910173E-06 +6.50129933971E-05 -1.79753509305E-07 +5.25375870258E-05 -7.00016419112E-01 +6.79235138515E-01
1.08000000000E+09 -5.42192126954E-01 +7.70677125483E-01 +4.03235872144E-05 +4.30786125234E-05 +2.66807271072E-05 +4.27505239709E-05 -6.96151668819E-01 +6.83013430937E-01
1.08500000000E+09 -5.39394548920E-01 +7.73165074897E-01 +7.95189942700E-06 +1.66948513117E-05 +4.64558239592E-05 -3.20159780584E-05 -6.92269344458E-01 +6.86767526634E-01
1.09000000000E+09 -5.36954940016E-01 +7.75059905203E-01 +3.30283374850E-05 +7.98040303631E-05 +3.43319811891E-05 -1.32303407996E-06 -6.88651109666E-01 +6.90634139125E-01
1.09500000000E+09 -5.35545319029E-01 +7.76633978470E-01 +5.05789371529E-05 +1.44023892658E-05 +1.88765164949E-05 -1.30194043725E-05 -6.84897911431E-01 +6.94345706965E-01
1.10000000000E+09 -5.32569465851E-01 +7.78552767144E-01 +2.09721363183E-05 +8.92977692271E-06 -3.91837534133E-06 -8.15484252322E-06 -6.80986540936E-01 +6.98226644712E-01
1.10500000000E+09 -5.28594415615E-01 +7.81039881538E-01 +1.91379773173E-05 +4.23455371565E-06 +2.61282179821E-05 +7.24301821959E-06 -6.76708437460E-01 +7.01830753653E-01
1.11000000000E+09 -5.23105324780E-01 +7.84076755249E-01 +5.04607277643E-05 +1.78559386158E-05 -1.47015627845E-05 +3.00778472252E-06 -6.72503463794E-01 +7.05144192914E-01
1.11500000000E+09 -5.16392603235E-01 +7.87793198946E-01 +9.89225396275E-05 +3.09919481955E-05 +2.98526348125E-05 +2.21925513694E-05 -6.68450127648E-01 +7.08495351110E-01
1.12000000000E+09 -5.08592659776E-01 +7.91753599633E-01 +2.93686375388E-05 +5.68406341677E-05 +1.10838033559E-05 +2.62888648177E-05 -6.64557674538E-01 +7.12192845587E-01
1.12500000000E+09 -5.00748439711E-01 +7.95862933212E-01 +6.47178233324E-05 +2.19298390409E-05 +2.47739618116E-05 +2.50698840879E-06 -6.60212351726E-01 +7.15956561434E-01
1.13000000000E+09 -4.93406001417E-01 +7.99570260274E-01 +2.70470184933E-05 +8.37964751536E-07 +8.13354626755E-05 +1.10060919925E-05 -6.55888299416E-01 +7.19860938406E-01
1.13500000000E+09 -4.86869740816E-01 +8.02197689240E-01 +4.34190271131E-05 -9.19547146439E-06 +4.44736372148E-05 -4.59058007870E-05 -6.51196605580E-01 +7.23825481621E-01
1.14000000000E+09 -4.81539324684E-01 +8.04792652495E-01 +1.94456842449E-05 -1.39036238658E-05 +1.55411128003E-05 -3.77473602242E-05 -6.46498990036E-01 +7.27238545898E-01
1.14500000000E+09 -4.77414877439E-01 +8.06156335530E-01 +5.48105379900E-05 +1.00745334658E-05 +4.52278123198E-05 +3.26997310397E-06 -6.41807019157E-01 +7.30759519584E-01
1.15000000000E+09 -4.73489542238E-01 +8.07478134122E-01 -2.92034077070E-06 -3.35349918990E-05 +2.74408673997E-05 -2.02287563005E-05 -6.37089155267E-01 +7.34456932069E-01
1.15500000000E+09 -4.69580413226E-01 +8.09024847105E-01 +2.39384392179E-05 -1.11122843151E-05 +4.09500430791E-05 +2.47856211164E-05 -6.32343311885E-01 +7.38230480667E-01
1.16000000000E+09 -4.64876674022E-01 +8.10739775352E-01 +3.46711279930E-05 +5.43382895353E-06 +3.63550029495E-05 -1.89087078638E-05 -6.27742930352E-01 +7.42179330834E-01
1.16500000000E+09 -4.59156626840E-01 +8.13394049603E-01 +1.06888072030E-04 -2.33792917309E-05 +1.11007107322E-04 +1.40260871179E-05 -6.22708941161E-01 +7.45811777035E-01
1.17000000000E+09 -4.52337763506E-01 +8.16321733136E-01 +1.14951111663E-04 -1.27556986154E-05 +2.87000527378E-05 -2.73495006491E-05 -6.17241864611E-01 +7.49015648477E-01
1.17500000000E+09 -4.44714153765E-01 +8.19539343533E-01 +3.20750850096E-05 -4.90527253531E-05 -1.20263890280E-05 -1.39520405094E-05 -6.11566970726E-01 +7.52291490877E-01
1.18000000000E+09 -4.36932890390E-01 +8.23127369836E-01 +3.60144536873E-05 -5.14231455643E-05 +9.85559165999E-05 -6.06867390450E-05 -6.06280208882E-01 +7.55459309178E-01
1.18500000000E+09 -4.29228513030E-01 +8.26243844186E-01 +4.10567558877E-05 -6.06757586528E-05 +5.42059062331E-05 -6.00765676695E-05 -6.00230375163E-01 +7.58380279015E-01
1.19000000000E+09 -4.22195943434E-01 +8.28885622852E-01 +3.74037173981E-05 -6.98822727386E-05 +9.37111417221E-05 -1.13058976380E-04 -5.94111917169E-01 +7.61055110963E-01
1.19500000000E+09 -4.16235032822E-01 +8.30830362601E-01 +1.26127805145E-04 -6.44041121063E-05 +8.42855042968E-05 -1.27060408237E-04 -5.88348270338E-01 +7.62153118279E-01
1.20000000000E+09 -4.10923918948E-01 +8.31682433256E-01 -1.11220821309E-05 -1.42461690905E-04 +4.21043543345E-05 -6.52527230238E-05 -5.83720896818E-01 +7.62342457559E-01
1.20500000000E+09 -4.06151221803E-01 +8.32581650420E-01 -4.24065166057E-05 -1.27210210427E-04 -7.63019337507E-06 -1.11647558871E-04 -5.81617557213E-01 +7.63337886525E-01
1.21000000000E+09 -4.01198349448E-01 +8.33544370781E-01 -5.34843572710E-05 -9.10188503908E-05 -2.82305003934E-05 -3.35176765643E-05 -5.79598893044E-01 +7.66338192347E-01
1.21500000000E+09 -3.94781572469E-01 +8.34869715285E-01 -6.48098911450E-05 -4.05467058586E-05 -2.14560832946E-06 -7.53979901563E-05 -5.76616558680E-01 +7.71031667743E-01
1.22000000000E+09 -3.87100493583E-01 +8.36800110840E-01 -8.90537806631E-05 -5.56922101872E-05 -2.90590576238E-05 -1.12763605768E-05 -5.72501501290E-01 +7.76561316909E-01
1.22500000000E+09 -3.77956984912E-01 +8.39267617616E-01 +1.53445843318E-05 -4.62534432159E-05 -2.65350503488E-05 -9.45284605961E-05 -5.67190011521E-01 +7.81653912962E-01
1.23000000000E+09 -3.67748683129E-01 +8.42380466423E-01 -3.44232774264E-05 -2.56410437114E-05 -2.75643483047E-05 -5.11507492378E-05 -5.61598372476E-01 +7.86247598830E-01
1.23500000000E+09 -3.57265848589E-01 +8.46065339407E-01 -8.20514616989E-05 -2.96228186648E-05 -6.38819272589E-05 -4.25663419429E-05 -5.55843531604E-01 +7.90547115203E-01
1.24000000000E+09 -3.47076411240E-01 +8.49911694766E-01 -2.88170066411E-05 -4.21262405551E-05 +8.99810251855E-06 -2.13475316583E-05 -5.49888799026E-01 +7.94489424184E-01
1.24500000000E+09 -3.37938754208E-01 +8.53867402756E-01 -6.38451664462E-05 -5.58021776481E-05 -5.87875230591E-05 -7.32509071911E-05 -5.43592910931E-01 +7.98201174535E-01
1.25000000000E+09 -3.29928406672E-01 +8.57112786866E-01 -1.00389714520E-04 -5.54526812739E-05 -7.23861891291E-07 -4.73770893870E-05 -5.37050769589E-01 +8.02396404955E-01
1.25500000000E+09 -3.23007995052E-01 +8.59196394602E-01 -7.94321833301E-05 -3.11752676466E-05 -1.11297018479E-04 -6.59835133561E-05 -5.30289042243E-01 +8.06580785904E-01
1.26000000000E+09 -3.17242359589E-01 +8.60661400349E-01 -5.46231204280E-05 -5.72576455271E-05 -9.80843281426E-05 -3.11342583501E-05 -5.23870377570E-01 +8.10624733788E-01
1.26500000000E+09 -3.11847400131E-01 +8.61296523683E-01 -9.62256330443E-05 -1.73483598390E-05 -8.07124452492E-05 -2.11236349495E-06 -5.16791908974E-01 +8.14402915585E-01
1.27000000000E+09 -3.05937270120E-01 +8.61625392848E-01 -2.34850377290E-05 -3.49586468584E-05 -1.07303818765E-04 +9.20840883333E-06 -5.10031265584E-01 +8.18265447282E-01
1.27500000000E+09 -2.98704774248E-01 +8.62302658516E-01 -7.39644600418E-05 -2.56942579716E-05 -5.23278439012E-05 -5.39141589855E-05 -5.02782749049E-01 +8.21912317953E-01
1.28000000000E+09 -2.89713422025E-01 +8.63249463690E-01 -1.25149640398E-04 -1.74636539192E-05 -8.55831494820E-05 -3.90876862746E-05 -4.95632911946E-01 +8.25402049094E-01
1.28500000000E+09 -2.78756793102E-01 +8.64938504212E-01 -9.58990477670E-05 -8.33625443698E-06 -1.04040886145E-04 -1.29151158411E-05 -4.88006765612E-01 +8.29142147197E-01
1.29000000000E+09 -2.66820710646E-01 +8.67245876810E-01 -8.40963663543E-05 -1.49552529922E-05 -6.90776502727E-05 +5.66030790764E-06 -4.80591344740E-01 +8.32989752732E-01
1.29500000000E+09 -2.54308263217E-01 +8.70382506145E-01 -8.20807584829E-05 -5.84872380201E-05 -5.15554882230E-05 +1.01176951656E-05 -4.72603387558E-01 +8.36542532365E-01
1.30000000000E+09 -2.42193613520E-01 +8.73866133943E-01 -1.37939881667E-04 -2.75967361959E-05 -1.01561121491E-04 +1.18984362581E-05 -4.64739040869E-01 +8.40047716537E-01
1.30500000000E+09 -2.31065295172E-01 +8.77140303820E-01 -1.01664665900E-04 +5.18740148498E-05 -1.27765645660E-04 +3.32348619334E-05 -4.56680224307E-01 +8.43488834057E-01
1.31000000000E+09 -2.21634121088E-01 +8.79487340267E-01 -5.78878001279E-05 +1.68159323806E-05 -8.61713372075E-05 +6.01193661284E-05 -4.48534926118E-01 +8.46926408887E-01
1.31500000000E+09 -2.14009974813E-01 +8.80801189666E-01 -7.69485411556E-05 +4.81910342549E-05 -9.36007708998E-05 +6.11248217297E-05 -4.39788522962E-01 +8.50428865450E-01
1.32000000000E+09 -2.08010862297E-01 +8.80964019175E-01 -4.41652167032E-05 -2.64322712008E-05 -1.07976965981E-04 +7.52789863337E-06 -4.30572072431E-01 +8.53794143350E-01
1.32500000000E+09 -2.02361780281E-01 +8.80493812309E-01 -1.19041714106E-04 -4.87453596775E-06 -8.78076002840E-05 +4.92644314116E-05 -4.21079662750E-01 +8.57075894675E-01
1.33000000000E+09 -1.95877477095E-01 +8.79699304192E-01 -1.47663061498E-04 +2.39173218160E-05 -1.34382507024E-04 +1.73785674344E-05 -4.11509002831E-01 +8.60276015976E-01
1.33500000000E+09 -1.87409745422E-01 +8.78539173154E-01 -1.60968176637E-04 +7.00444887239E-05 -1.78773888915E-04 +9.03684565999E-05 -4.01765995896E-01 +8.63478196413E-01
1.34000000000E+09 -1.76332690140E-01 +8.77526451962E-01 -1.57795494541E-04 +1.11776759839E-04 -1.71873689085E-04 +1.45635926856E-04 -3.91568921679E-01 +8.66679334845E-01
1.34500000000E+09 -1.63218451842E-01 +8.76872512475E-01 -1.44563021666E-04 +1.25569172783E-04 -8.93012506788E-05 +1.44564335238E-04 -3.80596624317E-01 +8.70069065459E-01
1.35000000000E+09 -1.47916404330E-01 +8.76779545241E-01 -1.17509701741E-04 +1.38212387756E-04 -9.76089438196E-05 +1.35685991314E-04 -3.69492582156E-01 +8.73083263190E-01
1.35500000000E+09 -1.31595595070E-01 +8.77353495988E-01 -1.36914915740E-04 +1.81337934878E-04 -1.48012953350E-04 +1.80018494449E-04 -3.57816594955E-01 +8.75985419519E-01
1.36000000000E+09 -1.15067625884E-01 +8.78224130942E-01 -1.58687510687E-04 +2.12130460403E-04 -1.55211851360E-04 +2.20159733710E-04 -3.45690020690E-01 +8.78701378283E-01
1.36500000000E+09 -9.93407812684E-02 +8.78914655951E-01 -1.12419729094E-04 +3.12922370926E-04 -1.39668098151E-04 +2.74602339049E-04 -3.33681102234E-01 +8.81171118746E-01
1.37000000000E+09 -8.52608578505E-02 +8.79087967122E-01 -9.21681485453E-05 +3.01250694480E-04 -6.49565494329E-05 +2.70578605789E-04 -3.20718690350E-01 +8.83544775222E-01
1.37500000000E+09 -7.32084023059E-02 +8.78368922516E-01 -2.40274185846E-05 +3.69999799517E-04 -6.54514459560E-05 +3.48313518485E-04 -3.07008699897E-01 +8.85772088045E-01
1.38000000000E+09 -6.25274414548E-02 +8.76809781194E-01 +8.92401027300E-05 +3.16639681506E-04 +2.84460008812E-05 +3.76741916006E-04 -2.92428921028E-01 +8.87937098169E-01
1.38500000000E+09 -5.16305665145E-02 +8.74605993010E-01 +1.17238574617E-04 +3.17531581258E-04 +9.23332682618E-05 +3.54744920291E-04 -2.76855931736E-01 +8.89647976557E-01
1.39000000000E+09 -4.00723519462E-02 +8.71488863297E-01 +1.29980175012E-04 +2.77360529328E-04 +1.17542207942E-04 +3.30120099489E-04 -2.61097347430E-01 +8.91153469231E-01
1.39500000000E+09 -2.64769500902E-02 +8.67474582189E-01 +1.61971073532E-04 +2.74348699750E-04 +1.80603793840E-04 +2.79362835873E-04 -2.44400636469E-01 +8.91864799359E-01
1.40000000000E+09 -1.02701296642E-02 +8.62713524440E-01 +1.84977666407E-04 +3.25710530246E-04 +1.97944104434E-04 +3.23805762474E-04 -2.26943118423E-01 +8.92133984097E-01
1.40500000000E+09 +8.02123925050E-03 +8.57573125848E-01 +2.06870120368E-04 +3.89557222599E-04 +2.13368620260E-04 +3.93722989798E-04 -2.08718361787E-01 +8.91887648408E-01
1.41000000000E+09 +2.82682766340E-02 +8.52254443518E-01 +3.39317511463E-04 +3.99745659604E-04 +3.19505389318E-04 +4.25910712880E-04 -1.88764787222E-01 +8.91074782800E-01
1.41500000000E+09 +4.99478110594E-02 +8.46589818227E-01 +3.82302836278E-04 +3.46003838102E-04 +4.16786826218E-04 +3.70088720935E-04 -1.67236516111E-01 +8.89343067414E-01
1.42000000000E+09 +7.20267847659E-02 +8.40423792443E-01 +5.51110606393E-04 +2.08759257218E-04 +5.88902334940E-04 +2.38318417428E-04 -1.44547455420E-01 +8.86884450943E-01
1.42500000000E+09 +9.35243397167E-02 +8.33077190208E-01 +4.75099189275E-04 +1.61985114346E-04 +5.54640933121E-04 +1.77595113560E-04 -1.20858911030E-01 +8.83133188661E-01
1.43000000000E+09 +1.13635823647E-01 +8.24381446036E-01 +6.42209664676E-04 +2.39550905789E-04 +6.65071244104E-04 +1.74359191725E-04 -9.64039377488E-02 +8.78554992986E-01
1.43500000000E+09 +1.33113970247E-01 +8.14116316587E-01 +7.38782706142E-04 -6.16849940728E-06 +7.98049543804E-04 -1.02434135131E-04 -7.03621326083E-02 +8.72078302386E-01
1.44000000000E+09 +1.52750091964E-01 +8.01922595661E-01 +6.59881705021E-04 -7.27565171484E-05 +6.47166659135E-04 -1.77812396293E-04 -4.24088056791E-02 +8.63704075763E-01
1.44500000000E+09 +1.73574429525E-01 +7.86540828510E-01 +7.38852965946E-04 -1.10854263774E-04 +7.22093283581E-04 -1.67165910266E-04 -1.22260091415E-02 +8.52612723099E-01
1.45000000000E+09 +1.95994420064E-01 +7.67788683587E-01 +7.06117939776E-04 -2.85978115570E-04 +7.38870432652E-04 -3.76704063311E-04 +1.96172200262E-02 +8.38172253921E-01
1.45500000000E+09 +2.20661436082E-01 +7.45685272119E-01 +7.69122911664E-04 -3.19291640127E-04 +7.28012648625E-04 -3.26264450099E-04 +5.28080291812E-02 +8.20687158551E-01
1.46000000000E+09 +2.47903640172E-01 +7.19339304766E-01 +9.76043149427E-04 -5.11557762017E-04 +9.06892399579E-04 -6.24692868999E-04 +8.71973414535E-02 +7.99359425180E-01
1.46500000000E+09 +2.76458561523E-01 +6.89339683124E-01 +9.19063943953E-04 -9.58198134410E-04 +7.50740616184E-04 -9.10107467198E-04 +1.23178304361E-01 +7.72897384178E-01
1.47000000000E+09 +3.06164467455E-01 +6.55466311025E-01 +5.95124719864E-04 -1.20389248311E-03 +5.06055381166E-04 -1.09661598946E-03 +1.59582944062E-01 +7.40123792832E-01
1.47500000000E+09 +3.35370727827E-01 +6.17157655584E-01 +1.96068868584E-04 -1.27207325288E-03 +2.31631420784E-04 -1.20785177028E-03 +1.97496308457E-01 +7.00374501818E-01
1.48000000000E+09 +3.62245943592E-01 +5.72762431637E-01 +1.44593861448E-04 -1.05788695475E-03 +1.66800338607E-04 -1.10021969708E-03 +2.34367504550E-01 +6.50944343029E-01
1.48500000000E+09 +3.84083016400E-01 +5.22605241991E-01 +1.96304536678E-04 -1.44499475386E-03 +1.56799334393E-04 -1.46254121996E-03 +2.68749278194E-01 +5.92687850326E-01
1.49000000000E+09 +4.00660442028E-01 +4.65482953507E-01 -2.57785965350E-04 -1.80184199755E-03 -3.63063167241E-04 -1.76779390808E-03 +2.97795644746E-01 +5.23646144067E-01
1.49500000000E+09 +4.09262853655E-01 +4.00783388340E-01 -7.06441801827E-04 -1.72943382037E-03 -6.89835487615E-04 -1.62226086892E-03 +3.17207796960E-01 +4.44370415988E-01
1.50000000000E+09 +4.08926565466E-01 +3.28079497726E-01 -1.19646797497E-03 -2.16492420196E-03 -1.07757325006E-03 -2.04022628218E-03 +3.23544184220E-01 +3.54777414614E-01
1.50500000000E+09 +3.97381889502E-01 +2.46740217319E-01 -2.66437052216E-03 -1.63179979425E-03 -2.47524967813E-03 -1.64488165297E-03 +3.13082462276E-01 +2.58752542827E-01
1.51000000000E+09 +3.69877202193E-01 +1.59500255969E-01 -2.75601324300E-03 +9.81323332381E-05 -2.69332238122E-03 -1.26568832706E-05 +2.83271034319E-01 +1.57421842707E-01
1.51500000000E+09 +3.25280984813E-01 +7.23277322959E-02 -2.26206972529E-03 +3.67427084626E-04 -2.26659341041E-03 +3.50478844116E-04 +2.29542752154E-01 +5.83566731181E-02
1.52000000000E+09 +2.62400088417E-01 -9.65254074375E-03 -2.10140246681E-03 +1.16507592152E-03 -2.21201994622E-03 +1.12712842369E-03 +1.53274633422E-01 -2.92966637791E-02
1.52500000000E+09 +1.82044083409E-01 -7.89939832333E-02 -1.02048305708E-03 +1.56928160275E-03 -1.04778836526E-03 +1.55215837487E-03 +5.84970115997E-02 -9.93537289014E-02
1.53000000000E+09 +8.57735334963E-02 -1.28584333167E-01 -9.42811852784E-04 +7.16827967699E-04 -9.77520795971E-04 +7.48708255245E-04 -4.97201337865E-02 -1.46264529045E-01
1.53500000000E+09 -1.88660351983E-02 -1.53670497887E-01 -1.72434646225E-03 +1.51926965072E-03 -1.73385584678E-03 +1.52446733147E-03 -1.63364906357E-01 -1.67047182537E-01
1.54000000000E+09 -1.26152428122E-01 -1.52533360376E-01 -7.15201391384E-04 +2.55514175225E-03 -7.74906583792E-04 +2.53961340983E-03 -2.73347639133E-01 -1.63565367652E-01
1.54500000000E+09 -2.27403296768E-01 -1.28149433902E-01 +5.45539706413E-04 +2.16826385667E-03 +4.70422780417E-04 +2.18559271797E-03 -3.72637344245E-01 -1.40495997042E-01
1.55000000000E+09 -3.18324347840E-01 -8.66294794725E-02 +7.87659037002E-04 +1.78727180025E-03 +7.43253563646E-04 +1.86402706703E-03 -4.60187573793E-01 -1.03160658608E-01
1.55500000000E+09 -3.96808044925E-01 -3.37342402481E-02 +1.46326469961E-03 +1.34255373851E-03 +1.44396848453E-03 +1.48160143221E-03 -5.32304415023E-01 -5.36904576758E-02
1.56000000000E+09 -4.61403736398E-01 +2.53850198443E-02 +1.44933577932E-03 +3.58931385909E-04 +1.53074421105E-03 +4.19691053600E-04 -5.88774416772E-01 +2.57489999611E-04
1.56500000000E+09 -5.10206500849E-01 +8.59172918070E-02 +9.91787984536E-04 -7.64520710035E-05 +1.03819802451E-03 -1.03971371910E-04 -6.33649912303E-01 +5.63141364909E-02
1.57000000000E+09 -5.47494459862E-01 +1.43725952531E-01 +7.34954253424E-04 +3.33400003419E-05 +7.26372293292E-04 -2.95382815616E-06 -6.66673997869E-01 +1.12054320262E-01
