# Hz S RI R 50
! CMT, C1220, 16058040, 17.2.0/1
! Date: 14/08/2018 12:29:11
! Data: Format (Calibration Info)
! Freq                      S11: Re/Im (F2)                       S21: Re/Im (F2)                       S12: Re/Im (F2)                       S22: Re/Im (F2)            
1.00000000000E+09 -6.27649261992E-01 +7.09677375443E-01 -2.69944988079E-05 -6.04523040446E-06 -5.21140586820E-05 +2.88309384336E-05 -7.52779062114E-01 +6.24492539158E-01
1.00500000000E+09 -6.20791326109E-01 +7.14822125877E-01 -4.40711031853E-06 +1.35168494495E-05 -4.15432794699E-05 +3.42979315843E-05 -7.49175526252E-01 +6.28416263814E-01
1.01000000000E+09 -6.15159613385E-01 +7.19318896467E-01 -3.71599174250E-05 +2.51069760083E-05 -6.54744738436E-05 +4.22725768215E-05 -7.45530785800E-01 +6.31992662084E-01
1.01500000000E+09 -6.11174576375E-01 +7.23081691678E-01 +1.33248769247E-05 +4.01485610026E-05 -2.33286507875E-05 -3.21296550339E-05 -7.42447429524E-01 +6.35848150147E-01
1.02000000000E+09 -6.08419599607E-01 +7.26194914409E-01 -1.54893517772E-06 +2.25093214473E-05 +1.75088014093E-05 -1.83269883487E-05 -7.39100352937E-01 +6.39219970307E-01
1.02500000000E+09 -6.06633320042E-01 +7.28585055754E-01 +9.55179158249E-06 -4.39987668137E-06 +2.04398033380E-05 +6.73108379886E-06 -7.36286650092E-01 +6.42808929559E-01
1.03000000000E+09 -6.05268680231E-01 +7.30761153655E-01 -3.27509797774E-05 +2.35608095634E-05 +1.15971904449E-05 +3.61817868698E-05 -7.32864414765E-01 +6.46796429481E-01
1.03500000000E+09 -6.03012737687E-01 +7.32942894996E-01 +7.52514147812E-06 -3.27866866945E-07 -1.93665475519E-05 -2.05329533243E-05 -7.29029431256E-01 +6.50709090856E-01
1.04000000000E+09 -5.99134942711E-01 +7.35562669120E-01 -3.30643361178E-05 -2.85894985875E-05 -2.97242958157E-05 -3.42642850911E-05 -7.25286454712E-01 +6.54317769123E-01
1.04500000000E+09 -5.93863100025E-01 +7.38710323463E-01 -8.72841629224E-05 +2.86006908496E-05 +8.34312609246E-06 +1.66203666665E-06 -7.21858725935E-01 +6.57924261756E-01
1.05000000000E+09 -5.86667559217E-01 +7.42823323744E-01 +4.77871126060E-05 +1.21485564739E-06 +1.77377451040E-06 +4.00610181194E-05 -7.18353877606E-01 +6.61264189127E-01
1.05500000000E+09 -5.78026297331E-01 +7.47639367013E-01 -4.10663997594E-05 +4.11676112473E-05 -1.94725993015E-05 +7.88098616116E-06 -7.15026996730E-01 +6.64717726822E-01
1.06000000000E+09 -5.68705166771E-01 +7.52874756657E-01 +1.50825353115E-05 +1.13416662039E-05 -2.89803492554E-06 +3.93818158488E-05 -7.11641319315E-01 +6.68571549242E-01
1.06500000000E+09 -5.59930308003E-01 +7.58213042456E-01 +1.49679477696E-05 +8.54964929876E-05 -2.09473585635E-05 +2.64514678152E-05 -7.07930040687E-01 +6.72517710733E-01
1.07000000000E+09 -5.52143891863E-01 +7.62812910079E-01 -2.70394359143E-05 +4.60261090550E-05 -1.54019050830E-05 +3.47164450664E-05 -7.03758956875E-01 +6.76257533834E-01
1.07500000000E+09 -5.45808223121E-01 +7.66852345797E-01 +1.83640168327E-05 +1.60556994615E-05 +2.42286806601E-05 -2.19897621526E-05 -6.99518081650E-01 +6.79888622654E-01
1.08000000000E+09 -5.41516527747E-01 +7.70300229543E-01 +1.73063093909E-08 +3.01565537455E-05 +7.27644446524E-06 +5.86087938710E-05 -6.95495427176E-01 +6.83646116129E-01
1.08500000000E+09 -5.38630551900E-01 +7.72607699297E-01 +3.57191683753E-05 -5.41049161425E-06 +4.97033708935E-05 +2.28361761894E-05 -6.91635569436E-01 +6.87440118066E-01
1.09000000000E+09 -5.36420112429E-01 +7.74481810168E-01 +3.74264929773E-05 +1.95798507918E-06 +4.50387264598E-05 -2.58903350241E-05 -6.87932080481E-01 +6.91184543239E-01
1.09500000000E+09 -5.34870069994E-01 +7.76212055894E-01 +3.14154713173E-05 +5.03454553639E-05 +6.02440094090E-05 +3.10623198263E-05 -6.84242844413E-01 +6.94948028706E-01
1.10000000000E+09 -5.31925146880E-01 +7.77990595230E-01 +2.23075743494E-05 +5.55270243247E-06 +3.75306255544E-05 -1.58124569552E-06 -6.80222248861E-01 +6.98802446628E-01
1.10500000000E+09 -5.28062081669E-01 +7.80492834911E-01 -1.41583845172E-05 +1.44388226171E-05 +5.81372883015E-05 -3.32984564864E-06 -6.75960366754E-01 +7.02262731278E-01
1.11000000000E+09 -5.22634672427E-01 +7.83531663165E-01 -1.80745074688E-05 +3.69146033643E-05 +4.25597516499E-05 +3.25037911265E-06 -6.71869893011E-01 +7.05577642711E-01
1.11500000000E+09 -5.15905545871E-01 +7.87255453329E-01 +3.08264512134E-05 +2.20405955007E-05 +5.86538011990E-05 +3.30364814246E-05 -6.67814842827E-01 +7.09177201762E-01
1.12000000000E+09 -5.08432465045E-01 +7.91182856165E-01 +5.74097871670E-05 -3.86085538696E-05 +2.55552824553E-05 +3.60453946041E-06 -6.63805603028E-01 +7.12768142261E-01
1.12500000000E+09 -5.00600986060E-01 +7.95167486073E-01 +1.33930311755E-05 +7.30296299946E-06 +3.27004840149E-05 +2.25534358358E-05 -6.59658817555E-01 +7.16624454588E-01
1.13000000000E+09 -4.93300297961E-01 +7.98886829578E-01 +1.05960072147E-05 +2.10012512716E-07 +3.79881371864E-05 +1.64975924945E-05 -6.55191563585E-01 +7.20392208804E-01
1.13500000000E+09 -4.86883460068E-01 +8.01483292283E-01 +2.06214602622E-05 -4.61115923331E-05 +1.31686355243E-06 +3.46767840329E-05 -6.50617954127E-01 +7.24403264042E-01
1.14000000000E+09 -4.81422350126E-01 +8.04026281656E-01 +8.44750493878E-05 -2.96009474896E-05 +6.14937233700E-05 +4.02014853861E-06 -6.45714189894E-01 +7.27734956638E-01
1.14500000000E+09 -4.77105377892E-01 +8.05452323401E-01 +4.01262487630E-05 +1.91415156033E-05 +3.13461045944E-05 -1.19517910679E-05 -6.41106102219E-01 +7.31295974470E-01
1.15000000000E+09 -4.73138888883E-01 +8.06763044012E-01 +6.93173506118E-05 +1.28655915785E-05 +3.83453270789E-05 +1.47127691486E-05 -6.36367737137E-01 +7.35091722517E-01
1.15500000000E+09 -4.69017676336E-01 +8.08423942531E-01 +5.47250691138E-05 -6.29111751487E-05 +7.36250568946E-05 -1.22054669336E-05 -6.31714084897E-01 +7.38857716493E-01
1.16000000000E+09 -4.64139060289E-01 +8.10099169045E-01 +4.56302285754E-05 -8.79799211195E-06 +1.06010285669E-04 -3.35243671561E-07 -6.26923132818E-01 +7.42713378534E-01
1.16500000000E+09 -4.58395301373E-01 +8.12775085592E-01 +7.66537322497E-05 +2.57629394620E-06 +7.82197667278E-05 +9.60276955801E-06 -6.21840340911E-01 +7.46295027934E-01
1.17000000000E+09 -4.51526778644E-01 +8.15783074711E-01 +4.63154637327E-05 -2.15000561232E-05 +4.66413371869E-05 -2.33862499329E-05 -6.16523254834E-01 +7.49628273583E-01
1.17500000000E+09 -4.44010407961E-01 +8.19320340589E-01 +5.94460699150E-05 -6.76857845104E-05 +6.62791079630E-05 -2.69063411841E-05 -6.10847778295E-01 +7.52744358648E-01
1.18000000000E+09 -4.36409088648E-01 +8.22800304309E-01 +4.99768871434E-05 -1.54606613121E-05 +1.17357304306E-04 -5.62951482985E-05 -6.05220752440E-01 +7.55938963406E-01
1.18500000000E+09 -4.28717706967E-01 +8.26123456202E-01 +4.61393404600E-05 -5.17994281109E-05 +7.30300543171E-05 -7.36426160397E-05 -5.99483191640E-01 +7.58993994154E-01
1.19000000000E+09 -4.21879882937E-01 +8.28717459986E-01 +1.00313173216E-04 -4.67181967407E-05 +4.48127621521E-05 -6.39895850392E-05 -5.93216009499E-01 +7.61398610595E-01
1.19500000000E+09 -4.15995696113E-01 +8.30523729690E-01 +6.88693393987E-05 -1.08957573626E-04 +6.98730703684E-05 -1.35593705627E-04 -5.87464755379E-01 +7.62642936343E-01
1.20000000000E+09 -4.11054667971E-01 +8.31342744593E-01 +8.82651243349E-05 -1.29822715938E-04 +2.70738494456E-05 -1.98342699134E-04 -5.82955566266E-01 +7.62796221775E-01
1.20500000000E+09 -4.06299663267E-01 +8.32374259620E-01 -4.79768446530E-05 -1.33109883160E-04 -3.21622909041E-05 -1.38992104285E-04 -5.80738127750E-01 +7.63744318209E-01
1.21000000000E+09 -4.01167668225E-01 +8.33198234973E-01 -6.00066516615E-05 -6.55145326923E-05 -4.80799802931E-05 -6.64186018783E-05 -5.78719510089E-01 +7.66901976301E-01
1.21500000000E+09 -3.94753484002E-01 +8.34395835658E-01 -9.52398930175E-05 -6.21594341970E-05 -3.64187160942E-06 -1.45476331995E-05 -5.75788749466E-01 +7.71533589985E-01
1.22000000000E+09 -3.86789394129E-01 +8.36104223643E-01 -2.67208428223E-05 -1.09578386696E-04 -3.51514909107E-05 -9.02139096875E-05 -5.71508668567E-01 +7.77017610381E-01
1.22500000000E+09 -3.77452128680E-01 +8.38703550508E-01 -3.49362047030E-05 -7.61561725845E-05 -2.00398980494E-05 -1.15037768231E-05 -5.66435863832E-01 +7.82203944137E-01
1.23000000000E+09 -3.66975204708E-01 +8.41935051094E-01 +1.80430079139E-05 -5.33590884009E-05 -1.14944763160E-05 -6.45906570562E-05 -5.60643650293E-01 +7.86771787969E-01
1.23500000000E+09 -3.56374279951E-01 +8.45574726240E-01 -4.40077264235E-05 -2.02827492846E-05 -7.54055674482E-05 -7.94233223535E-05 -5.54912275351E-01 +7.91098293591E-01
1.24000000000E+09 -3.46041642408E-01 +8.49530737674E-01 -5.86707855119E-05 -4.14637910861E-05 -1.03450211122E-04 -4.46594891521E-05 -5.48912045581E-01 +7.95013878014E-01
1.24500000000E+09 -3.36855419005E-01 +8.53510860439E-01 -6.24293821112E-05 -4.16338468234E-05 -7.42185363913E-05 -6.62098109449E-05 -5.42672048175E-01 +7.98676155411E-01
1.25000000000E+09 -3.28751121493E-01 +8.56831095957E-01 -6.79139036337E-05 -6.10996333403E-05 -7.78230417444E-05 -1.09225819093E-04 -5.36191584687E-01 +8.02858465113E-01
1.25500000000E+09 -3.22054588866E-01 +8.58878541264E-01 -1.12108582046E-04 -3.75560558340E-05 -6.81270741872E-05 -3.13928044092E-05 -5.29402489540E-01 +8.06847222402E-01
1.26000000000E+09 -3.16519171814E-01 +8.60259045969E-01 -8.64122202427E-05 -3.42500477806E-05 -7.89488293710E-05 -8.27269271247E-05 -5.22804343402E-01 +8.11169795228E-01
1.26500000000E+09 -3.11336796079E-01 +8.60928526826E-01 -7.11120876161E-05 -1.47764426005E-05 -9.37711950667E-05 -2.18206259968E-05 -5.15868114576E-01 +8.14908278407E-01
1.27000000000E+09 -3.05665053281E-01 +8.61437778881E-01 -1.06783076667E-04 -1.93778319656E-06 -1.01972089603E-04 -3.48804063263E-05 -5.08959241771E-01 +8.18650076347E-01
1.27500000000E+09 -2.98578545187E-01 +8.62068955425E-01 -7.35737410253E-05 -3.98422833533E-05 -5.41935230332E-05 -4.85601483924E-05 -5.01807762591E-01 +8.22291764427E-01
1.28000000000E+09 -2.89643928611E-01 +8.63145565770E-01 -5.85875771234E-05 -5.26786314326E-05 -5.94235616533E-05 -2.32533482572E-05 -4.94693595577E-01 +8.25955330011E-01
1.28500000000E+09 -2.78742928504E-01 +8.64819845785E-01 -8.44981587581E-05 -2.60717944739E-06 -9.66680788929E-05 +2.99562372728E-05 -4.87249073891E-01 +8.29615907489E-01
1.29000000000E+09 -2.66700106518E-01 +8.67275205650E-01 -4.93222257667E-05 +3.35005738605E-05 -1.24287351115E-04 +3.83543866625E-06 -4.79645384064E-01 +8.33277558030E-01
1.29500000000E+09 -2.54261035667E-01 +8.70411785009E-01 -7.45536517361E-05 +7.85121353826E-06 -6.85514722127E-05 -3.25839780240E-05 -4.71638080880E-01 +8.36777632055E-01
1.30000000000E+09 -2.41983239978E-01 +8.74020562955E-01 -9.60036750665E-05 +2.57800323824E-05 -1.34522775307E-04 -1.88990940967E-05 -4.63890821854E-01 +8.40482884765E-01
1.30500000000E+09 -2.30685707674E-01 +8.77064876141E-01 -9.64490705259E-05 -1.54554772945E-06 -1.33888047225E-04 +1.34615935375E-05 -4.55687648660E-01 +8.43875904005E-01
1.31000000000E+09 -2.20972498340E-01 +8.79254213559E-01 -1.51763536835E-04 +5.01110668968E-05 -1.24944490632E-04 +5.38892903894E-05 -4.47594454845E-01 +8.47435399835E-01
1.31500000000E+09 -2.13405513007E-01 +8.80510913928E-01 -1.19333400340E-04 +4.18004277272E-05 -1.10718858813E-04 +1.86295042030E-05 -4.38712237004E-01 +8.50781113114E-01
1.32000000000E+09 -2.07105866254E-01 +8.80655399664E-01 -7.63581739352E-05 -1.28228779702E-06 -1.61275046855E-04 +1.20900257611E-05 -4.29751078625E-01 +8.54079804927E-01
1.32500000000E+09 -2.01300345535E-01 +8.80087418657E-01 -1.79769228829E-04 +3.04308798911E-05 -1.59544549806E-04 -1.87949099183E-05 -4.20105195846E-01 +8.57452769831E-01
1.33000000000E+09 -1.94703793583E-01 +8.79163660444E-01 -2.16504196769E-04 +3.46507007379E-05 -1.86045906682E-04 +5.60903757069E-05 -4.10677008236E-01 +8.60674654643E-01
1.33500000000E+09 -1.86282202929E-01 +8.78090161821E-01 -2.46986427041E-04 +2.15510722470E-05 -1.86830332162E-04 +1.14437015544E-04 -4.00880641857E-01 +8.63782492849E-01
1.34000000000E+09 -1.75482523749E-01 +8.77253455453E-01 -2.22564030227E-04 +1.58246507914E-04 -1.96119972663E-04 +1.45786525617E-04 -3.90655329780E-01 +8.67122238851E-01
1.34500000000E+09 -1.62323445476E-01 +8.76842072287E-01 -1.43031319411E-04 +1.63144291625E-04 -1.41450730693E-04 +1.92133747386E-04 -3.79731923218E-01 +8.70392771957E-01
1.35000000000E+09 -1.47152114437E-01 +8.76943274270E-01 -1.42571804842E-04 +2.09413405518E-04 -1.29429162875E-04 +2.07077772446E-04 -3.68688996147E-01 +8.73425648291E-01
1.35500000000E+09 -1.31012469831E-01 +8.77747168204E-01 -1.34827377313E-04 +2.05973387005E-04 -1.43528075642E-04 +2.35846642045E-04 -3.56944183452E-01 +8.76367410557E-01
1.36000000000E+09 -1.14736686832E-01 +8.78671530840E-01 -1.61458541903E-04 +2.77439193761E-04 -1.60012483301E-04 +2.14801329490E-04 -3.44869897137E-01 +8.78933692494E-01
1.36500000000E+09 -9.92599945976E-02 +8.79459802220E-01 -9.73479322889E-05 +3.24930226267E-04 -1.39329547672E-04 +2.97738821679E-04 -3.32657947177E-01 +8.81423794268E-01
1.37000000000E+09 -8.53530377121E-02 +8.79632815135E-01 -1.25277791974E-04 +3.52751809105E-04 -1.11755845152E-04 +2.88676812086E-04 -3.19842424383E-01 +8.83770719417E-01
1.37500000000E+09 -7.33465439965E-02 +8.79019243928E-01 -3.88119065202E-06 +4.52325270813E-04 -7.20781400236E-05 +4.23187269036E-04 -3.06061515905E-01 +8.86010417102E-01
1.38000000000E+09 -6.25852029069E-02 +8.77561363795E-01 +1.19421870258E-04 +4.12500833422E-04 +3.21898750245E-05 +4.47212427056E-04 -2.91425283360E-01 +8.88187031714E-01
1.38500000000E+09 -5.15543781980E-02 +8.75310608783E-01 +1.54510440191E-04 +3.68937241642E-04 +9.62310197578E-05 +4.00824615452E-04 -2.75875806126E-01 +8.90030656125E-01
1.39000000000E+09 -3.97139742051E-02 +8.72126535947E-01 +1.68914468660E-04 +3.52027876738E-04 +1.36967447743E-04 +3.93890121252E-04 -2.60062916551E-01 +8.91420390466E-01
1.39500000000E+09 -2.58398725657E-02 +8.68151202215E-01 +1.42428379768E-04 +3.22061455041E-04 +2.21946980408E-04 +4.02903854419E-04 -2.43397017074E-01 +8.92172376592E-01
1.40000000000E+09 -9.42851762186E-03 +8.63439584696E-01 +1.89921637992E-04 +3.52443533327E-04 +2.18998205255E-04 +4.13541408149E-04 -2.25928421150E-01 +8.92286019482E-01
1.40500000000E+09 +9.26483448388E-03 +8.58300343902E-01 +2.64372402306E-04 +4.18758024125E-04 +3.07591507454E-04 +4.01443665823E-04 -2.07685715324E-01 +8.92128801163E-01
1.41000000000E+09 +2.97397051312E-02 +8.53077338479E-01 +4.16312160044E-04 +4.47547864411E-04 +4.15439249418E-04 +4.76492360400E-04 -1.87716640860E-01 +8.91314662954E-01
1.41500000000E+09 +5.13796704017E-02 +8.47533044315E-01 +5.17767707153E-04 +4.12834959082E-04 +5.48137799596E-04 +4.62006799204E-04 -1.66283510586E-01 +8.89776910698E-01
1.42000000000E+09 +7.36048389337E-02 +8.41606808075E-01 +6.46029184532E-04 +2.17429072703E-04 +6.77158508490E-04 +2.35343704538E-04 -1.43598960339E-01 +8.87273214635E-01
1.42500000000E+09 +9.49391491123E-02 +8.34357705037E-01 +5.56749552726E-04 +2.18247479365E-04 +6.54541749888E-04 +2.21672360672E-04 -1.19874805031E-01 +8.83553726626E-01
1.43000000000E+09 +1.15064900580E-01 +8.25717003800E-01 +7.09963973951E-04 +2.65800252566E-04 +8.04377042658E-04 +2.18544504829E-04 -9.53434202121E-02 +8.78880421237E-01
1.43500000000E+09 +1.34389270488E-01 +8.15481298142E-01 +8.00216092571E-04 +2.92401849547E-05 +8.42726746696E-04 -5.38580828764E-05 -6.93000712932E-02 +8.72259078068E-01
1.44000000000E+09 +1.53985057338E-01 +8.03256668035E-01 +7.96339162534E-04 -1.14526130634E-04 +8.00503525463E-04 -1.28810054274E-04 -4.12588915439E-02 +8.63995280825E-01
1.44500000000E+09 +1.74629685255E-01 +7.88016389942E-01 +8.22954488978E-04 -1.45885984368E-04 +8.70780763395E-04 -1.78026960602E-04 -1.10356601257E-02 +8.52860136677E-01
1.45000000000E+09 +1.97204942492E-01 +7.69424650953E-01 +8.43934330455E-04 -2.69946337710E-04 +8.26114343963E-04 -3.01269123939E-04 +2.07611685648E-02 +8.38404989418E-01
1.45500000000E+09 +2.22068760015E-01 +7.47644412754E-01 +8.96468037159E-04 -3.49696900263E-04 +8.48789058909E-04 -4.41944554262E-04 +5.41125150071E-02 +8.21000429978E-01
1.46000000000E+09 +2.50019164170E-01 +7.21518309549E-01 +1.04764948009E-03 -4.86335693586E-04 +9.43072115742E-04 -5.76157415483E-04 +8.86988894118E-02 +7.99589954189E-01
1.46500000000E+09 +2.79403042013E-01 +6.91630553465E-01 +1.10432333118E-03 -1.00019338545E-03 +9.51973933103E-04 -9.32074229885E-04 +1.24684498547E-01 +7.72888317115E-01
1.47000000000E+09 +3.09854353510E-01 +6.57637761980E-01 +7.91714735862E-04 -1.21644381303E-03 +7.08706768147E-04 -1.09686008485E-03 +1.61161120837E-01 +7.40086961007E-01
1.47500000000E+09 +3.39815879994E-01 +6.18698528029E-01 +5.61663242413E-04 -1.51084942553E-03 +5.91054944055E-04 -1.43416300163E-03 +1.99043095533E-01 +7.00136569476E-01
1.48000000000E+09 +3.67243522705E-01 +5.74068919509E-01 +2.83818212023E-04 -1.40398117809E-03 +3.19868001753E-04 -1.41108088695E-03 +2.36137045830E-01 +6.50672533071E-01
1.48500000000E+09 +3.89931458606E-01 +5.23643593314E-01 +3.11708083330E-04 -1.62052687802E-03 +3.28103690083E-04 -1.66185592517E-03 +2.70495367426E-01 +5.92238319289E-01
1.49000000000E+09 +4.07165467987E-01 +4.66016183145E-01 -6.97410212534E-05 -2.01033082716E-03 -1.23361565439E-04 -2.00819177852E-03 +2.99693009768E-01 +5.22914674210E-01
1.49500000000E+09 +4.16845712409E-01 +4.00488442300E-01 -3.77503191274E-04 -2.13554394898E-03 -3.96776634088E-04 -2.10314879896E-03 +3.18918461205E-01 +4.43101881946E-01
1.50000000000E+09 +4.17346485249E-01 +3.25905752140E-01 -1.09760706972E-03 -2.83930333416E-03 -1.02640557432E-03 -2.67640311219E-03 +3.25234344993E-01 +3.53210080230E-01
1.50500000000E+09 +4.05387923356E-01 +2.42665996288E-01 -2.86623855304E-03 -2.20854101274E-03 -2.66450902064E-03 -2.23435740001E-03 +3.14378780057E-01 +2.56917070049E-01
1.51000000000E+09 +3.77340233572E-01 +1.54009852834E-01 -2.88031878678E-03 -6.40070996075E-04 -2.86922426326E-03 -7.32072730517E-04 +2.84589911834E-01 +1.55441139784E-01
1.51500000000E+09 +3.31642671756E-01 +6.56344381804E-02 -2.70121431994E-03 -3.58835787139E-04 -2.72612756177E-03 -4.51122643439E-04 +2.30294587351E-01 +5.54485776287E-02
1.52000000000E+09 +2.67629478066E-01 -1.72315869164E-02 -3.16907909452E-03 +3.92156079217E-04 -3.20924510856E-03 +3.23535643371E-04 +1.53035319467E-01 -3.23985137951E-02
1.52500000000E+09 +1.85939471646E-01 -8.75744103406E-02 -2.33033838283E-03 +1.46806178315E-03 -2.34567900880E-03 +1.47538077556E-03 +5.71253940735E-02 -1.02368029555E-01
1.53000000000E+09 +8.77213355957E-02 -1.38436798671E-01 -2.11209936300E-03 +1.13557603133E-03 -2.18419261576E-03 +1.17943018659E-03 -5.18759833298E-02 -1.48416804544E-01
1.53500000000E+09 -2.02467689847E-02 -1.63207507720E-01 -2.55650354625E-03 +2.13365710495E-03 -2.52963904594E-03 +2.12096586657E-03 -1.65737360785E-01 -1.68535361939E-01
1.54000000000E+09 -1.29276061193E-01 -1.60829382324E-01 -1.31515426202E-03 +3.26535467672E-03 -1.36672371052E-03 +3.31540205362E-03 -2.76110759621E-01 -1.64674584820E-01
1.54500000000E+09 -2.32327728320E-01 -1.35375636534E-01 +1.26631297551E-04 +3.09792488753E-03 +9.88689059810E-05 +3.11317848683E-03 -3.76002977174E-01 -1.40709998747E-01
1.55000000000E+09 -3.24522955061E-01 -9.23015189164E-02 +8.65408856616E-04 +2.66526253679E-03 +7.53589211635E-04 +2.73324077613E-03 -4.63159417171E-01 -1.02246413292E-01
1.55500000000E+09 -4.03560501275E-01 -3.78272000366E-02 +1.63847797213E-03 +2.10541413629E-03 +1.54619094509E-03 +2.22601316744E-03 -5.34841284234E-01 -5.23040179308E-02
1.56000000000E+09 -4.67959051741E-01 +2.26896391166E-02 +1.94935188705E-03 +1.00357120403E-03 +1.97547129651E-03 +1.14518043230E-03 -5.91294128033E-01 +2.18097140658E-03
1.56500000000E+09 -5.16763724395E-01 +8.42265111418E-02 +1.44439788616E-03 +3.31366991800E-04 +1.49904961158E-03 +4.27517672412E-04 -6.35517449589E-01 +5.87880335271E-02
1.57000000000E+09 -5.53426408599E-01 +1.43431491646E-01 +1.19275965343E-03 +2.72920531799E-04 +1.21403567461E-03 +2.98811574872E-04 -6.67990914684E-01 +1.14850459556E-01
