# Hz S RI R 50
! CMT, C1220, 16058040, 17.2.0/1
! Date: 14/08/2018 12:32:20
! Data: Format (Calibration Info)
! Freq                      S11: Re/Im (F2)                       S21: Re/Im (F2)                       S12: Re/Im (F2)                       S22: Re/Im (F2)            
1.00000000000E+09 -6.33087144597E-01 +7.08301748489E-01 +3.90679388674E-06 -2.16502536987E-06 -2.17836728678E-06 -1.13418435322E-05 -7.53190354124E-01 +6.23782079223E-01
1.00500000000E+09 -6.25862022563E-01 +7.13285187384E-01 -2.90697112221E-05 +1.29023942578E-05 -4.43525274537E-05 +5.82112550094E-06 -7.49632042132E-01 +6.27795647025E-01
1.01000000000E+09 -6.19741411194E-01 +7.17969324546E-01 -5.07586210550E-06 +1.06108411293E-05 -7.76169508321E-06 +1.62607721932E-05 -7.46172935000E-01 +6.31359256938E-01
1.01500000000E+09 -6.14763362713E-01 +7.22020330767E-01 +1.66515004809E-06 +2.07860228104E-05 +1.92518242553E-06 -3.18690065242E-05 -7.42926452289E-01 +6.34988261806E-01
1.02000000000E+09 -6.11329613790E-01 +7.25355084562E-01 +2.09033571054E-05 -6.19809625336E-06 -1.51117788551E-05 +9.31550014648E-06 -7.39781960712E-01 +6.38503428730E-01
1.02500000000E+09 -6.08615709387E-01 +7.28292560745E-01 -3.75338806176E-05 -1.76378811663E-05 -9.35583195761E-06 -1.20195085872E-05 -7.36861058457E-01 +6.42167429276E-01
1.03000000000E+09 -6.06663236918E-01 +7.30801624396E-01 -2.42845560474E-05 +1.83652840330E-06 -1.68883698837E-05 +5.23245100007E-05 -7.33449042697E-01 +6.46118443057E-01
1.03500000000E+09 -6.03845935067E-01 +7.33184400036E-01 +9.32275651193E-06 +1.03606849850E-05 +2.78703291252E-05 +2.34925186500E-05 -7.29699328826E-01 +6.50014006280E-01
1.04000000000E+09 -6.00078853956E-01 +7.36045303285E-01 -1.73584219457E-05 +2.70432113192E-05 -7.07234660971E-05 -3.69373876777E-05 -7.25894656487E-01 +6.53508604982E-01
1.04500000000E+09 -5.94889791945E-01 +7.39344163655E-01 -3.76973239112E-05 +1.22059277089E-05 +1.40494779194E-05 -1.33249378162E-05 -7.22248028827E-01 +6.57190667264E-01
1.05000000000E+09 -5.88205039702E-01 +7.43199289720E-01 +7.61216401518E-07 +3.73342788588E-05 +2.92732536660E-05 +1.84066348320E-05 -7.18905908876E-01 +6.60497607162E-01
1.05500000000E+09 -5.80191260525E-01 +7.47597283458E-01 -3.53213681766E-05 -2.14821069461E-05 -3.12679470934E-05 +6.35587981225E-05 -7.15657686532E-01 +6.64226526674E-01
1.06000000000E+09 -5.71727590422E-01 +7.52350930719E-01 -4.02910642220E-05 +8.14977168735E-06 -1.34190379900E-05 +1.49621341466E-05 -7.12228684981E-01 +6.67925444115E-01
1.06500000000E+09 -5.63661172517E-01 +7.57379826495E-01 +5.05628940718E-05 +3.70292195059E-05 +1.52472659405E-05 +1.46689627022E-05 -7.08439458548E-01 +6.71893384107E-01
1.07000000000E+09 -5.56411057152E-01 +7.61616440026E-01 -2.77548283290E-06 +6.52172812421E-05 +2.06142610891E-05 +6.10431168271E-06 -7.04408386558E-01 +6.75561472511E-01
1.07500000000E+09 -5.50728950980E-01 +7.65586939404E-01 +4.99698602661E-05 +2.03002836781E-05 +1.68936094816E-05 -2.77695478406E-06 -6.99974661487E-01 +6.79312300846E-01
1.08000000000E+09 -5.46444464954E-01 +7.69004756400E-01 +7.72072819040E-06 +5.14399704812E-05 +2.84365963841E-05 +3.90080112464E-05 -6.96178050684E-01 +6.83026423782E-01
1.08500000000E+09 -5.43483873161E-01 +7.71649315248E-01 +2.27250915278E-05 +2.65183695124E-05 +9.93371523489E-06 +1.77701900926E-05 -6.92351745119E-01 +6.86638211087E-01
1.09000000000E+09 -5.41007420006E-01 +7.73852918136E-01 -1.67910030627E-05 +6.12677768249E-05 +7.14625137601E-05 +3.64036927765E-06 -6.88677851390E-01 +6.90556609466E-01
1.09500000000E+09 -5.38555517599E-01 +7.75764176438E-01 +1.65233772941E-05 +3.20588224170E-05 +3.12269788407E-05 -4.13951211559E-05 -6.84903572468E-01 +6.94260149056E-01
1.10000000000E+09 -5.34922131633E-01 +7.77872562235E-01 +3.56637787362E-05 +2.56422752178E-06 +3.07260338719E-05 -5.07533733509E-06 -6.80907578217E-01 +6.98003508421E-01
1.10500000000E+09 -5.30552537667E-01 +7.80630091534E-01 +7.15063077225E-05 +5.75457176291E-05 +6.39308174182E-05 +1.03997441437E-05 -6.76651530331E-01 +7.01667398695E-01
1.11000000000E+09 -5.24495215357E-01 +7.83654724564E-01 +1.70643305979E-05 -2.08817382548E-05 -1.53940129097E-05 +2.19632920622E-05 -6.72578605403E-01 +7.04975124699E-01
1.11500000000E+09 -5.17366029687E-01 +7.87490391655E-01 +1.84051873644E-05 +5.27917724899E-05 +1.29624688339E-05 +1.08416749461E-05 -6.68524054461E-01 +7.08384856345E-01
1.12000000000E+09 -5.09523556559E-01 +7.91218190027E-01 +4.42596819367E-05 -5.42493347119E-06 -1.73723075326E-05 -1.94806322028E-06 -6.64463854213E-01 +7.12077779678E-01
1.12500000000E+09 -5.02011221643E-01 +7.95319331014E-01 +6.71652373882E-05 -1.55911099027E-05 +1.48081269277E-05 -7.07984109899E-06 -6.60235658541E-01 +7.15928210609E-01
1.13000000000E+09 -4.95137044015E-01 +7.98900501997E-01 +5.64356780363E-05 +2.61210813404E-05 +2.40380320334E-06 +6.83853650504E-06 -6.55954856209E-01 +7.19775030946E-01
1.13500000000E+09 -4.89129601565E-01 +8.01573446158E-01 +5.72123420215E-05 +6.17424622885E-05 +4.51610282573E-05 -6.57615693721E-06 -6.51237188077E-01 +7.23642430238E-01
1.14000000000E+09 -4.84210199584E-01 +8.04111448772E-01 -6.18040537055E-07 +7.47297904924E-07 +5.25345660370E-05 -4.34278478751E-05 -6.46390336992E-01 +7.27321162297E-01
1.14500000000E+09 -4.80706823250E-01 +8.05743698846E-01 +4.95750517850E-05 -3.02128305888E-05 +2.94440148005E-05 +8.25017498245E-06 -6.41822978035E-01 +7.30584341268E-01
1.15000000000E+09 -4.77136044546E-01 +8.07002573872E-01 +3.82866017520E-05 +2.41871513187E-05 +1.45070639815E-05 -1.61078439350E-06 -6.37168894827E-01 +7.34431205790E-01
1.15500000000E+09 -4.73479191793E-01 +8.08569433620E-01 +6.50575311132E-05 +1.17807583989E-05 +1.90095176234E-05 -1.89723121200E-05 -6.32410917950E-01 +7.38103294767E-01
1.16000000000E+09 -4.68895143291E-01 +8.10180618859E-01 +3.45766694831E-05 -3.86395103699E-05 +6.38769569208E-05 +6.23245469917E-05 -6.27626475208E-01 +7.41965855375E-01
1.16500000000E+09 -4.62966726177E-01 +8.12762837594E-01 +5.87694761118E-05 +1.46413201597E-06 +8.11290028125E-05 -2.10748559205E-05 -6.22701130945E-01 +7.45819559225E-01
1.17000000000E+09 -4.55825855245E-01 +8.15550824742E-01 +6.92609363283E-05 -4.15515944384E-05 +7.02761095668E-05 -1.88167745945E-05 -6.17270237713E-01 +7.48978048071E-01
1.17500000000E+09 -4.47942323886E-01 +8.18933119489E-01 +7.01968382792E-05 -4.42370081325E-05 +5.76017726109E-06 -4.40535075503E-05 -6.11725129934E-01 +7.52163041076E-01
1.18000000000E+09 -4.39688625733E-01 +8.22457462130E-01 +7.08478384885E-05 -6.90176258419E-05 +4.94219755649E-05 -3.95221540340E-05 -6.06211274852E-01 +7.55438335075E-01
1.18500000000E+09 -4.31613864400E-01 +8.25743190803E-01 +5.25432463278E-05 -5.44783294787E-05 +7.82170519944E-05 -6.24518100763E-05 -6.00297341730E-01 +7.58427107949E-01
1.19000000000E+09 -4.24371652805E-01 +8.28513413764E-01 +7.20618013817E-05 -1.03464643271E-04 +2.62309054516E-05 -6.71471253293E-05 -5.94319675072E-01 +7.60944736564E-01
1.19500000000E+09 -4.18234812148E-01 +8.30604425426E-01 +7.18161483109E-05 -8.95157821605E-05 +9.10720667272E-05 -1.59066933374E-04 -5.88368698874E-01 +7.62184195342E-01
1.20000000000E+09 -4.13113604710E-01 +8.31451354556E-01 -4.86230585634E-06 -1.42690961256E-04 -1.73445669199E-05 -1.46312176847E-04 -5.83842753978E-01 +7.62178206966E-01
1.20500000000E+09 -4.08549755710E-01 +8.32605930031E-01 -7.65007769668E-05 -1.29865950671E-04 -6.19994171815E-05 -7.68535212358E-05 -5.81506371032E-01 +7.63286262870E-01
1.21000000000E+09 -4.03882417035E-01 +8.33592651056E-01 -1.32632379768E-04 -8.78800576167E-05 -1.62602521831E-04 -3.94167268087E-05 -5.79651928814E-01 +7.66384873696E-01
1.21500000000E+09 -3.97995754330E-01 +8.34807932053E-01 -3.02032046685E-05 +1.30838789757E-05 -5.53634643574E-05 -4.70084870998E-05 -5.76664985700E-01 +7.71100928415E-01
1.22000000000E+09 -3.90687046587E-01 +8.36586532062E-01 -6.20306941296E-05 -1.80480636557E-05 -1.12370234914E-04 -3.66628398895E-05 -5.72420750326E-01 +7.76351312329E-01
1.22500000000E+09 -3.81875964168E-01 +8.38997812132E-01 -4.52205778721E-05 -4.56429754614E-05 -3.65473019230E-05 +1.64458752651E-05 -5.67177008284E-01 +7.81507603043E-01
1.23000000000E+09 -3.72000091315E-01 +8.41772998970E-01 -2.83121986330E-05 -9.43117122146E-05 -3.00414493435E-05 +5.09208529220E-06 -5.61664974928E-01 +7.86141115435E-01
1.23500000000E+09 -3.61616507295E-01 +8.45234872036E-01 -2.19758201454E-05 -8.61176097677E-06 -6.16274166720E-05 -7.22797678161E-05 -5.55858619049E-01 +7.90476997063E-01
1.24000000000E+09 -3.51532212651E-01 +8.48919919102E-01 -6.37046864292E-05 -4.75953234097E-05 -7.94253076329E-05 -2.57262839847E-05 -5.49842095842E-01 +7.94287629198E-01
1.24500000000E+09 -3.42317030436E-01 +8.53079256055E-01 -5.31027308760E-05 -2.31913417492E-05 -3.85920616294E-05 -7.22477932796E-06 -5.43613539822E-01 +7.98114849475E-01
1.25000000000E+09 -3.34129094729E-01 +8.56621391050E-01 -6.92621678576E-05 -5.16261602107E-05 -8.76191658001E-05 -4.85636822449E-05 -5.37115331672E-01 +8.02124694174E-01
1.25500000000E+09 -3.26946310540E-01 +8.59056614565E-01 -3.56330439313E-05 -2.05849179153E-05 -1.05114613210E-04 -8.38718067339E-05 -5.30420686488E-01 +8.06200096782E-01
1.26000000000E+09 -3.20872899242E-01 +8.60912837200E-01 -9.54410574363E-05 -3.59444931202E-05 -1.29800223011E-04 -4.96946215600E-05 -5.23813191355E-01 +8.10535330793E-01
1.26500000000E+09 -3.15189838970E-01 +8.61849821074E-01 -7.11355171912E-05 -3.38340726546E-05 -4.83513063039E-05 +3.30155552411E-05 -5.16756495689E-01 +8.14360494447E-01
1.27000000000E+09 -3.09123648518E-01 +8.62644397930E-01 -7.45424839753E-05 +1.32538261305E-07 -5.49335647382E-05 +1.98000656321E-05 -5.10005949294E-01 +8.18084903263E-01
1.27500000000E+09 -3.01736079023E-01 +8.63172329268E-01 -6.50153020445E-05 -2.10723455535E-06 -8.88102478474E-05 +1.30325682025E-05 -5.02784199468E-01 +8.21699300284E-01
1.28000000000E+09 -2.92666708865E-01 +8.64102311220E-01 -4.00217061770E-05 +2.16930923513E-05 -5.10920244676E-05 -3.97494856187E-05 -4.95823573091E-01 +8.25242136897E-01
1.28500000000E+09 -2.81861193649E-01 +8.65484307440E-01 -8.51011776928E-05 -2.46400949936E-05 -1.16874009503E-04 -3.51139394059E-05 -4.88232187161E-01 +8.29050282521E-01
1.29000000000E+09 -2.69971971226E-01 +8.67287959623E-01 -1.20070934805E-04 -1.03749333315E-05 -8.18980215600E-05 +2.27486054839E-05 -4.80602766320E-01 +8.32896368307E-01
1.29500000000E+09 -2.57942491838E-01 +8.69909024257E-01 -7.70432929521E-05 +9.15711216771E-06 -8.39136549972E-05 +4.58450007052E-05 -4.72693150685E-01 +8.36239698221E-01
1.30000000000E+09 -2.46309336121E-01 +8.73190148156E-01 -7.71756625597E-05 +2.55899000575E-05 -9.58901508093E-05 +1.49375565926E-05 -4.64966788155E-01 +8.39975568192E-01
1.30500000000E+09 -2.35731634038E-01 +8.76349255561E-01 -1.30622923588E-04 +6.47534039502E-05 -6.34309669769E-05 +5.51783587074E-05 -4.56836296765E-01 +8.43365595334E-01
1.31000000000E+09 -2.26514237677E-01 +8.79156018903E-01 -8.94587318799E-05 +2.27295018858E-05 -6.71365728264E-05 +1.85942214005E-05 -4.48541935427E-01 +8.46873122704E-01
1.31500000000E+09 -2.18999732699E-01 +8.81065859209E-01 -4.54098547151E-05 +3.04806644438E-05 -1.03540623459E-04 +1.43892980589E-07 -4.39617498537E-01 +8.50403831319E-01
1.32000000000E+09 -2.12721760095E-01 +8.81982332947E-01 -1.47065184162E-04 +7.32983721906E-05 -1.29308020556E-04 +1.36888431094E-05 -4.30655311856E-01 +8.53740594308E-01
1.32500000000E+09 -2.06878026146E-01 +8.81983291779E-01 -1.50435802566E-04 +2.52393850098E-05 -1.87669391062E-04 +6.41739293166E-05 -4.21263558351E-01 +8.57051895949E-01
1.33000000000E+09 -1.99949600788E-01 +8.81544187658E-01 -1.50235175846E-04 +6.94030151556E-05 -1.38020534683E-04 +6.73658821210E-05 -4.11729415116E-01 +8.60184768684E-01
1.33500000000E+09 -1.91427835065E-01 +8.80564980923E-01 -1.72139314614E-04 +9.11789168582E-05 -1.72188262561E-04 +7.95088446121E-05 -4.01958606615E-01 +8.63439164975E-01
1.34000000000E+09 -1.80368271368E-01 +8.79727150471E-01 -2.08754466892E-04 +1.40620029217E-04 -1.62429686298E-04 +1.54870060001E-04 -3.91810108261E-01 +8.66723626455E-01
1.34500000000E+09 -1.66766953302E-01 +8.78897724525E-01 -1.24363460843E-04 +2.01465263861E-04 -1.02214332861E-04 +1.71531932660E-04 -3.80912139179E-01 +8.69960553861E-01
1.35000000000E+09 -1.51508620261E-01 +8.78591611286E-01 -1.37253012550E-04 +2.01501594968E-04 -1.15236811006E-04 +1.33342860328E-04 -3.69612827558E-01 +8.73053597666E-01
1.35500000000E+09 -1.35227299981E-01 +8.79022374332E-01 -9.25113867702E-05 +1.86282669749E-04 -1.51547789901E-04 +2.35532441940E-04 -3.57761576428E-01 +8.75959326214E-01
1.36000000000E+09 -1.18809777748E-01 +8.79648863610E-01 -1.34266012575E-04 +2.36976742784E-04 -1.29477408983E-04 +2.55427782898E-04 -3.45900574038E-01 +8.78590652380E-01
1.36500000000E+09 -1.03068937656E-01 +8.80582522753E-01 -1.28031924014E-04 +2.83021927770E-04 -9.27371124264E-05 +2.94704044088E-04 -3.33623086194E-01 +8.81000143273E-01
1.37000000000E+09 -8.91486917003E-02 +8.80841225857E-01 -7.46917588116E-05 +3.41445556149E-04 -6.14311307504E-05 +3.38009991536E-04 -3.20849026451E-01 +8.83558886083E-01
1.37500000000E+09 -7.68626871910E-02 +8.80514544933E-01 +4.65078205122E-05 +4.23281112874E-04 -1.12960012896E-05 +4.05191034480E-04 -3.07175085335E-01 +8.85736691361E-01
1.38000000000E+09 -6.59984477899E-02 +8.79553987100E-01 +1.24980774346E-04 +3.87396064320E-04 +7.09566514711E-05 +4.10751600710E-04 -2.92495492491E-01 +8.87896827611E-01
1.38500000000E+09 -5.50626448429E-02 +8.77993148771E-01 +1.45344533374E-04 +3.13433303245E-04 +1.81979619823E-04 +3.89306817284E-04 -2.77014441015E-01 +8.89647785543E-01
1.39000000000E+09 -4.33431824073E-02 +8.75234448260E-01 +2.32128608108E-04 +2.97134232290E-04 +2.56501443630E-04 +4.06044855453E-04 -2.61154113290E-01 +8.91148463942E-01
1.39500000000E+09 -2.94814794262E-02 +8.71722966271E-01 +2.17920534659E-04 +2.83166344841E-04 +2.74534877718E-04 +3.30088094178E-04 -2.44515007700E-01 +8.91751414175E-01
1.40000000000E+09 -1.30382246050E-02 +8.67056114045E-01 +2.38925764388E-04 +3.54795101131E-04 +3.40720335451E-04 +3.58558062304E-04 -2.27069565127E-01 +8.92139843774E-01
1.40500000000E+09 +5.40023196916E-03 +8.61955975548E-01 +3.68393880992E-04 +4.08920103067E-04 +3.72889501248E-04 +3.27431272625E-04 -2.08770647155E-01 +8.91827378535E-01
1.41000000000E+09 +2.59853731362E-02 +8.56620409186E-01 +4.61268308034E-04 +3.52016562400E-04 +4.65217882915E-04 +3.32624020963E-04 -1.88871114412E-01 +8.91145581618E-01
1.41500000000E+09 +4.77018852566E-02 +8.51028358132E-01 +6.09380625920E-04 +3.29660952784E-04 +6.22669359781E-04 +3.66380187483E-04 -1.67381404093E-01 +8.89502048656E-01
1.42000000000E+09 +6.99819110510E-02 +8.45120913788E-01 +7.01531809777E-04 +9.14228678736E-05 +7.37417984663E-04 +1.14054932859E-04 -1.44619054525E-01 +8.86928908741E-01
1.42500000000E+09 +9.20073448393E-02 +8.38001031215E-01 +5.96587551216E-04 +7.33176070415E-05 +6.40234473932E-04 +1.09908613781E-04 -1.21098298293E-01 +8.83276922028E-01
1.43000000000E+09 +1.12871456714E-01 +8.29504023871E-01 +8.04750032283E-04 +8.69544544655E-05 +8.12423719701E-04 -4.89122663269E-06 -9.65793341121E-02 +8.78597821143E-01
1.43500000000E+09 +1.32891972740E-01 +8.19452290793E-01 +8.49134669071E-04 -1.24560018886E-04 +8.46456553563E-04 -2.11834950166E-04 -7.05542101612E-02 +8.72042252123E-01
1.44000000000E+09 +1.53013548074E-01 +8.07416356993E-01 +8.26697354263E-04 -2.89556602749E-04 +8.33157393436E-04 -3.43745175914E-04 -4.26424480078E-02 +8.63936027215E-01
1.44500000000E+09 +1.74283620653E-01 +7.92499576980E-01 +8.61661806144E-04 -3.74839163262E-04 +7.97341287287E-04 -3.96898855303E-04 -1.24695972695E-02 +8.52814977771E-01
1.45000000000E+09 +1.97438201790E-01 +7.73958110205E-01 +8.51037313751E-04 -4.82502857677E-04 +8.29316477521E-04 -5.54445707215E-04 +1.94218618221E-02 +8.38505024349E-01
1.45500000000E+09 +2.22898100764E-01 +7.52129903408E-01 +8.84199075607E-04 -6.24531021162E-04 +8.24611222485E-04 -6.69965173304E-04 +5.27002258756E-02 +8.21003143996E-01
1.46000000000E+09 +2.51328847837E-01 +7.25895980145E-01 +9.38537881896E-04 -8.26403479225E-04 +8.14234550279E-04 -8.85210994303E-04 +8.72393206116E-02 +7.99708147783E-01
1.46500000000E+09 +2.81073595569E-01 +6.95525296816E-01 +9.72341705200E-04 -1.30396591824E-03 +8.27635503825E-04 -1.28490975729E-03 +1.23110818929E-01 +7.73129984839E-01
1.47000000000E+09 +3.12436600673E-01 +6.61302308011E-01 +5.34972431487E-04 -1.64790193614E-03 +4.96578618807E-04 -1.50694512838E-03 +1.59363351853E-01 +7.40426738899E-01
1.47500000000E+09 +3.43653145097E-01 +6.21644025077E-01 +9.87004750541E-05 -1.86790423727E-03 +1.77087455654E-04 -1.82580673925E-03 +1.97405518434E-01 +7.00871442298E-01
1.48000000000E+09 +3.72566089320E-01 +5.75874720013E-01 -2.69561310136E-04 -1.69017943194E-03 -2.44659261937E-04 -1.68880202739E-03 +2.34539835690E-01 +6.51369890757E-01
1.48500000000E+09 +3.96448629300E-01 +5.23695000190E-01 -2.66093341897E-04 -1.86844423011E-03 -3.07254815799E-04 -1.87231716396E-03 +2.68803658521E-01 +5.93079314274E-01
1.49000000000E+09 +4.14610965828E-01 +4.64250001523E-01 -7.88979559853E-04 -2.20549223316E-03 -9.17128767923E-04 -2.21629719562E-03 +2.98108716029E-01 +5.24034942177E-01
1.49500000000E+09 +4.24636864729E-01 +3.96624655768E-01 -1.39447059439E-03 -2.27475256381E-03 -1.42210730679E-03 -2.09316682694E-03 +3.17363127312E-01 +4.44666369781E-01
1.50000000000E+09 +4.25141354022E-01 +3.19591382021E-01 -2.45465727432E-03 -2.46388218472E-03 -2.30962793024E-03 -2.28027176991E-03 +3.23880178028E-01 +3.55352516395E-01
1.50500000000E+09 +4.12320182110E-01 +2.33443751121E-01 -3.84690020950E-03 -1.44048564080E-03 -3.70738413394E-03 -1.49643457726E-03 +3.13640726520E-01 +2.59390220762E-01
1.51000000000E+09 +3.82278500681E-01 +1.41621481843E-01 -3.92969577683E-03 +5.57624197217E-04 -3.88681740844E-03 +4.26962199004E-04 +2.84443306872E-01 +1.58092356401E-01
1.51500000000E+09 +3.33039239797E-01 +4.99710143560E-02 -3.27476628243E-03 +1.22201053021E-03 -3.27164657935E-03 +1.12599753064E-03 +2.30854916631E-01 +5.81707119121E-02
1.52000000000E+09 +2.64313966568E-01 -3.47674438994E-02 -3.15992423329E-03 +2.12587617093E-03 -3.23745676999E-03 +2.09436347578E-03 +1.54340876389E-01 -2.99999399090E-02
1.52500000000E+09 +1.77659572021E-01 -1.05578760931E-01 -1.78676093801E-03 +3.10851469084E-03 -1.79136675170E-03 +3.15134789350E-03 +5.89758436535E-02 -1.00292970415E-01
1.53000000000E+09 +7.44983514494E-02 -1.55534604180E-01 -1.07415516313E-03 +2.71115343574E-03 -1.08647723069E-03 +2.68567164752E-03 -4.94362072541E-02 -1.46891222355E-01
1.53500000000E+09 -3.71103046417E-02 -1.77446038871E-01 -1.08848227314E-03 +3.06998273984E-03 -1.11372548604E-03 +3.09278800490E-03 -1.62975101175E-01 -1.67811026740E-01
1.54000000000E+09 -1.48470190228E-01 -1.71523835745E-01 +8.09570904494E-05 +3.80489851797E-03 +7.89032549529E-05 +3.76723092136E-03 -2.73409816267E-01 -1.64623928398E-01
1.54500000000E+09 -2.52387540071E-01 -1.41750587553E-01 +1.65702234994E-03 +3.39010459163E-03 +1.55833397717E-03 +3.33352165454E-03 -3.73351652991E-01 -1.41261837327E-01
1.55000000000E+09 -3.43936036111E-01 -9.39644008635E-02 +2.41179611583E-03 +2.47997197240E-03 +2.31074062772E-03 +2.60138835235E-03 -4.60743550531E-01 -1.03271870251E-01
1.55500000000E+09 -4.20659587933E-01 -3.53252559249E-02 +2.87567441125E-03 +1.43587862161E-03 +2.85658661323E-03 +1.60905676518E-03 -5.32721078640E-01 -5.38446092315E-02
1.56000000000E+09 -4.82490835390E-01 +2.79325158171E-02 +2.71502953301E-03 +7.69405978613E-05 +2.82345843547E-03 +1.61917416753E-04 -5.89283313735E-01 +3.04291915419E-04
1.56500000000E+09 -5.29073639731E-01 +9.14002746091E-02 +1.95014971993E-03 -3.92774961080E-04 +2.05140738559E-03 -4.27186376590E-04 -6.33935717960E-01 +5.64707670107E-02
1.57000000000E+09 -5.64047681364E-01 +1.51558874606E-01 +1.62719428406E-03 -5.12562209027E-04 +1.69296625479E-03 -5.28523818521E-04 -6.66988268254E-01 +1.12423174337E-01
