# Hz S RI R 50
! CMT, C1220, 16058040, 17.2.0/1
! Date: 14/08/2018 12:29:00
! Data: Format (Calibration Info)
! Freq                      S11: Re/Im (F2)                       S21: Re/Im (F2)                       S12: Re/Im (F2)                       S22: Re/Im (F2)            
1.00000000000E+09 -6.27208412072E-01 +7.09060983701E-01 -1.69145457614E-05 -3.42654094123E-05 -1.09193502162E-05 -6.13169758314E-05 -7.52721920165E-01 +6.24444882274E-01
1.00500000000E+09 -6.20102387221E-01 +7.14054981316E-01 -6.42196259216E-05 -2.63059880577E-05 -1.44013445521E-05 +8.77219808043E-06 -7.49248810105E-01 +6.28480698134E-01
1.01000000000E+09 -6.14600388691E-01 +7.18596961939E-01 +3.64904227162E-05 +2.12208298080E-05 -1.56512349720E-05 -3.92533581095E-05 -7.45688080401E-01 +6.32125256502E-01
1.01500000000E+09 -6.10511019179E-01 +7.22435437676E-01 -1.76791088988E-05 -2.51342050095E-06 +2.55370877517E-05 -1.46733087080E-05 -7.42339382768E-01 +6.35785893122E-01
1.02000000000E+09 -6.07982295662E-01 +7.25498393547E-01 -1.03504576918E-05 +2.48238124834E-06 -8.57643412491E-06 +6.92399595533E-06 -7.39089012650E-01 +6.39255991866E-01
1.02500000000E+09 -6.06184606292E-01 +7.27908991267E-01 -3.00412186007E-05 -2.09524958486E-08 +1.90063099853E-06 +3.16146136560E-05 -7.36444608081E-01 +6.42946562885E-01
1.03000000000E+09 -6.04765437741E-01 +7.30045906298E-01 -4.22620630661E-05 +9.49321652753E-06 -5.36757901133E-05 -1.80155962779E-06 -7.32911012464E-01 +6.46852234724E-01
1.03500000000E+09 -6.02445863113E-01 +7.32209925681E-01 -3.13940896110E-05 +4.92000734162E-05 -2.02517335399E-06 +2.16015593158E-05 -7.29178040050E-01 +6.50613900038E-01
1.04000000000E+09 -5.98893140088E-01 +7.34892022634E-01 -3.18449073190E-06 -3.55441511629E-05 -2.00341931457E-05 +8.54624852122E-06 -7.25293693008E-01 +6.54297639125E-01
1.04500000000E+09 -5.93374317189E-01 +7.38219051227E-01 -1.54871174761E-05 -1.88589342359E-05 -4.50934897560E-05 +3.09438913616E-05 -7.21645518925E-01 +6.57818184696E-01
1.05000000000E+09 -5.86137260217E-01 +7.42255176124E-01 -3.37946756357E-05 -1.67980140950E-05 -2.43206259452E-05 +1.93552253422E-05 -7.18345395727E-01 +6.61333786115E-01
1.05500000000E+09 -5.77633670440E-01 +7.47033323630E-01 -1.83060200231E-05 +4.41949657171E-05 -2.27944722046E-06 +1.10105529788E-05 -7.14953377257E-01 +6.64871988153E-01
1.06000000000E+09 -5.68440878647E-01 +7.52207259979E-01 -1.75666705314E-05 +3.70334739189E-05 +8.35297976687E-06 +2.74840527590E-05 -7.11817738001E-01 +6.68638687513E-01
1.06500000000E+09 -5.59449318299E-01 +7.57453548970E-01 -2.82333380055E-05 +1.22799424552E-05 -3.94536173081E-05 +4.57251315688E-06 -7.07926055332E-01 +6.72632522523E-01
1.07000000000E+09 -5.51771159662E-01 +7.62171081396E-01 +1.28462408802E-05 +4.34954990987E-05 +2.05815870258E-05 +4.21117603756E-05 -7.03791054633E-01 +6.76159349773E-01
1.07500000000E+09 -5.45634965011E-01 +7.66262979327E-01 +3.44145116595E-05 +4.63720288070E-06 +4.46844152970E-07 +2.24916603213E-05 -6.99411484983E-01 +6.80026877291E-01
1.08000000000E+09 -5.41117936800E-01 +7.69521493641E-01 +6.05387105509E-05 +3.90162113792E-05 +6.27720657978E-06 +1.45517224479E-05 -6.95474179623E-01 +6.83709866265E-01
1.08500000000E+09 -5.38393740179E-01 +7.72025328163E-01 +3.70068275477E-05 -2.81097830575E-06 +4.19215605575E-05 +1.76818545021E-05 -6.91754265244E-01 +6.87369681237E-01
1.09000000000E+09 -5.36184476761E-01 +7.73988656028E-01 +5.06185166296E-05 +1.97727817752E-05 +2.70291762198E-05 +2.27752950850E-05 -6.88025590783E-01 +6.91133081403E-01
1.09500000000E+09 -5.34463615690E-01 +7.75473376885E-01 +4.20963615204E-05 +1.02219386157E-05 +7.78176961404E-06 +1.79884443502E-05 -6.84237908976E-01 +6.94978453130E-01
1.10000000000E+09 -5.31586317061E-01 +7.77471080161E-01 +3.75584550317E-05 +8.98224339052E-06 -4.62993761282E-05 +2.08795561616E-05 -6.80265038952E-01 +6.98819825755E-01
1.10500000000E+09 -5.27811794000E-01 +7.79795181171E-01 +5.07641860075E-05 +1.47675183322E-05 +2.90803586887E-05 -1.25376564446E-06 -6.76052268148E-01 +7.02221666313E-01
1.11000000000E+09 -5.22376848223E-01 +7.82822716834E-01 +2.81146602121E-05 -5.19732730940E-05 +2.59417791311E-05 +1.88698034702E-05 -6.71881062972E-01 +7.05740543197E-01
1.11500000000E+09 -5.15672903457E-01 +7.86628980655E-01 +5.47386703098E-05 +3.46762191297E-05 +4.72908873067E-05 +4.80786574038E-05 -6.67785039907E-01 +7.09157442118E-01
1.12000000000E+09 -5.08070855888E-01 +7.90506829705E-01 +2.77394481082E-05 +6.97717128736E-05 +4.96764047837E-05 -1.34338480461E-06 -6.63782508402E-01 +7.12799685684E-01
1.12500000000E+09 -5.00200053434E-01 +7.94572764838E-01 +8.38571172509E-05 +1.54866859083E-05 +6.93502867056E-06 -3.47504592453E-06 -6.59557973129E-01 +7.16720429771E-01
1.13000000000E+09 -4.93028894251E-01 +7.98246781162E-01 +6.25530276545E-05 +5.20660046109E-05 +5.32101649642E-05 +6.98361370569E-06 -6.55101564220E-01 +7.20470119733E-01
1.13500000000E+09 -4.86648578989E-01 +8.00891259747E-01 +1.16456117679E-05 +1.93505191165E-05 +8.99282318324E-06 +8.82853219477E-06 -6.50550583326E-01 +7.24434964836E-01
1.14000000000E+09 -4.81061491753E-01 +8.03436628426E-01 +6.79901635619E-05 -2.01849141806E-05 +4.71566167407E-05 +2.44088821165E-05 -6.45718821949E-01 +7.27848254716E-01
1.14500000000E+09 -4.76811261823E-01 +8.04810975094E-01 +5.85042424825E-05 -3.19702110103E-05 +5.65301793907E-05 -3.40684333473E-05 -6.41186459732E-01 +7.31309239470E-01
1.15000000000E+09 -4.72775743515E-01 +8.06132287428E-01 +7.38286097803E-05 -2.57465332046E-05 +5.12997364667E-05 +3.34449536566E-05 -6.36465920160E-01 +7.35154150123E-01
1.15500000000E+09 -4.68783099461E-01 +8.07779569980E-01 +5.86140106747E-05 -1.46049103063E-05 +2.05608637674E-05 -3.46167443979E-07 -6.31711266400E-01 +7.38899626525E-01
1.16000000000E+09 -4.63934473875E-01 +8.09514471198E-01 +4.76114764515E-05 +1.54211588428E-05 +1.57561220264E-05 -2.38984195083E-05 -6.27020372843E-01 +7.42846036272E-01
1.16500000000E+09 -4.58033735423E-01 +8.12070296367E-01 +8.80733690952E-05 +2.19786396735E-05 +7.91265259784E-05 +1.54097366571E-06 -6.21891333264E-01 +7.46325435626E-01
1.17000000000E+09 -4.51378810158E-01 +8.15189352288E-01 +5.14819999597E-05 -4.00341697596E-05 +1.34429581676E-05 -1.00916682020E-04 -6.16472309275E-01 +7.49572948230E-01
1.17500000000E+09 -4.43768429592E-01 +8.18597524561E-01 +6.29993474090E-05 -3.23692862091E-05 +7.56166302714E-05 -2.44101398689E-05 -6.11010499052E-01 +7.52796999992E-01
1.18000000000E+09 -4.36117719244E-01 +8.22295575565E-01 +3.42675258911E-05 -4.66033621602E-05 +4.41026648118E-05 -6.31042892152E-05 -6.05362610535E-01 +7.55909074734E-01
1.18500000000E+09 -4.28636103915E-01 +8.25533937299E-01 +7.64538561735E-05 -8.10193070326E-05 +8.99840926691E-05 -5.79553088288E-05 -5.99445872528E-01 +7.58940505973E-01
1.19000000000E+09 -4.21729162951E-01 +8.28113475002E-01 +4.78344622946E-05 -9.78763082000E-05 +3.12921904618E-05 -8.26902981235E-05 -5.93261563582E-01 +7.61375725565E-01
1.19500000000E+09 -4.15837581938E-01 +8.29961869751E-01 +1.21796895900E-04 -1.18569384182E-04 +3.56570597935E-05 -1.29664209429E-04 -5.87478406383E-01 +7.62692295814E-01
1.20000000000E+09 -4.10864938641E-01 +8.30864700152E-01 +5.01279757070E-05 -1.21239633449E-04 -1.01527375386E-05 -1.84168298382E-04 -5.83030430542E-01 +7.62844225373E-01
1.20500000000E+09 -4.06164622690E-01 +8.31741306434E-01 -3.07753002451E-05 -1.40721449597E-04 -6.78738973797E-05 -1.37706254136E-04 -5.80648936510E-01 +7.63888721626E-01
1.21000000000E+09 -4.00956102396E-01 +8.32461882545E-01 -5.63996787145E-05 -8.40173249878E-05 -5.32060085766E-05 -7.18909309680E-05 -5.78770768381E-01 +7.67010429272E-01
1.21500000000E+09 -3.94618295266E-01 +8.33887185099E-01 -7.69948368141E-05 -3.83075904007E-05 -7.45180075987E-05 -7.34850417423E-05 -5.75944447098E-01 +7.71698075307E-01
1.22000000000E+09 -3.86550788880E-01 +8.35667159412E-01 -4.61774255763E-05 -6.57355006305E-05 +9.96356047974E-06 +1.31769654908E-05 -5.71658956086E-01 +7.76991941943E-01
1.22500000000E+09 -3.77218099658E-01 +8.38155810104E-01 -5.04071827518E-05 -2.95774537442E-05 -3.05703178876E-05 -5.24989600855E-05 -5.66439403093E-01 +7.82011074243E-01
1.23000000000E+09 -3.66785152741E-01 +8.41378036731E-01 -4.51315521831E-05 -3.73861233667E-05 +2.06592066237E-05 -6.76566753083E-05 -5.60796678259E-01 +7.86812919584E-01
1.23500000000E+09 -3.56178184744E-01 +8.44996117137E-01 -9.92435514645E-06 -2.84161450671E-05 -3.66072350379E-05 -5.63089780943E-05 -5.54957171242E-01 +7.91009227170E-01
1.24000000000E+09 -3.45801158204E-01 +8.48992980004E-01 -6.68029617980E-05 -4.78797338455E-05 -3.09073102904E-05 -6.82236348200E-05 -5.48974025608E-01 +7.94981148364E-01
1.24500000000E+09 -3.36633452965E-01 +8.52896484195E-01 -7.40085537306E-05 -6.18598903878E-05 -4.90767212782E-05 -4.67684113567E-05 -5.42755351738E-01 +7.98807645841E-01
1.25000000000E+09 -3.28543512275E-01 +8.56183171116E-01 -3.71193605777E-05 -4.87891079758E-05 -4.40730572359E-05 -7.76289020112E-05 -5.36186161568E-01 +8.02927769519E-01
1.25500000000E+09 -3.21935888995E-01 +8.58410532751E-01 -1.22562019663E-04 -5.44577369845E-05 -1.00045686517E-04 -7.90355954038E-05 -5.29343020051E-01 +8.06957138663E-01
1.26000000000E+09 -3.16322922978E-01 +8.59639404787E-01 -6.72752827547E-05 -4.32222640124E-05 -1.08732395558E-04 -3.41647173587E-05 -5.22898256254E-01 +8.11119399624E-01
1.26500000000E+09 -3.11166192703E-01 +8.60274894714E-01 -1.10735342946E-04 -4.22196580606E-06 -7.73120854246E-05 +1.81986919171E-06 -5.15807615739E-01 +8.14977697597E-01
1.27000000000E+09 -3.05548799032E-01 +8.60907416873E-01 -1.17756670500E-04 +2.56134704321E-05 -1.10739512422E-04 -2.87072471799E-05 -5.08978361273E-01 +8.18765073246E-01
1.27500000000E+09 -2.98502858089E-01 +8.61650965498E-01 -1.09476253345E-04 -3.60944801638E-05 -6.15804893463E-05 -2.26600089417E-07 -5.01966299855E-01 +8.22425556688E-01
1.28000000000E+09 -2.89581607093E-01 +8.62671222333E-01 -6.79825008783E-05 -7.32394893320E-08 -5.86135245000E-05 -2.88437888993E-05 -4.94788008810E-01 +8.25927048364E-01
1.28500000000E+09 -2.78594680341E-01 +8.64234037711E-01 -5.60210576152E-05 -3.40898333360E-05 -1.13337513327E-04 -5.57350802595E-05 -4.87269294202E-01 +8.29632259965E-01
1.29000000000E+09 -2.66700383954E-01 +8.66716695500E-01 -9.08406135910E-05 +1.27397898807E-05 -6.75137629555E-05 +8.12939059678E-06 -4.79666842829E-01 +8.33276783724E-01
1.29500000000E+09 -2.54142299572E-01 +8.69876537607E-01 -7.88038770682E-05 -2.95269639893E-05 -9.03873622114E-05 -3.18092343687E-05 -4.71716397002E-01 +8.36889885594E-01
1.30000000000E+09 -2.41729243742E-01 +8.73433690330E-01 -1.45513355467E-04 -1.96929681133E-05 -9.68072418154E-05 +5.39701898733E-06 -4.63814500582E-01 +8.40627850308E-01
1.30500000000E+09 -2.30556893345E-01 +8.76640034061E-01 -1.53690413660E-04 +7.64385539543E-05 -9.20563652144E-05 +4.99742110370E-05 -4.55707284260E-01 +8.43998268249E-01
1.31000000000E+09 -2.20828433662E-01 +8.78698849390E-01 -9.86925898677E-05 +1.18181255439E-05 -1.02933057267E-04 +3.33534221928E-05 -4.47394355955E-01 +8.47405157349E-01
1.31500000000E+09 -2.13198220692E-01 +8.79916525947E-01 -1.22703908248E-04 +1.89450257414E-05 -1.25392952540E-04 +4.70373102362E-05 -4.38551555105E-01 +8.50888779357E-01
1.32000000000E+09 -2.07002448506E-01 +8.80197013134E-01 -1.12370756923E-04 -7.94948522771E-08 -8.00966145665E-05 +2.76059447352E-05 -4.29626716541E-01 +8.54232503809E-01
1.32500000000E+09 -2.01256387570E-01 +8.79590362579E-01 -1.01630455813E-04 +1.69859909126E-05 -1.25453585304E-04 +6.61194274619E-06 -4.20209618717E-01 +8.57569354772E-01
1.33000000000E+09 -1.94591050982E-01 +8.78727897376E-01 -1.70640324837E-04 +4.80238676782E-05 -2.03305276692E-04 +7.35881270521E-05 -4.10627711789E-01 +8.60762487335E-01
1.33500000000E+09 -1.86206927970E-01 +8.77438597652E-01 -1.98163677495E-04 +7.62307327148E-05 -2.22147943713E-04 +1.03343806017E-04 -4.00713631076E-01 +8.63897052953E-01
1.34000000000E+09 -1.75307384103E-01 +8.76650106072E-01 -2.40360758087E-04 +1.03083708310E-04 -2.03012920337E-04 +1.59738227505E-04 -3.90752842344E-01 +8.67222553330E-01
1.34500000000E+09 -1.62140244578E-01 +8.76134630541E-01 -1.41843880934E-04 +1.83245107088E-04 -1.58535279199E-04 +1.58883880467E-04 -3.79702252455E-01 +8.70499031202E-01
1.35000000000E+09 -1.47105127854E-01 +8.76213214216E-01 -1.12428135759E-04 +1.62228872521E-04 -1.17736406112E-04 +1.92921906712E-04 -3.68446635975E-01 +8.73604178362E-01
1.35500000000E+09 -1.31023382147E-01 +8.76944234983E-01 -1.53246632918E-04 +1.68737710763E-04 -1.58554731155E-04 +2.01908366673E-04 -3.56744566322E-01 +8.76364436257E-01
1.36000000000E+09 -1.14774278894E-01 +8.77996863641E-01 -1.60985447749E-04 +2.59565018363E-04 -1.35094713391E-04 +2.21459404796E-04 -3.44720307496E-01 +8.79083730276E-01
1.36500000000E+09 -9.93402981526E-02 +8.78838063237E-01 -1.32491939956E-04 +3.19211726793E-04 -1.49575658722E-04 +2.79496277982E-04 -3.32558547818E-01 +8.81477225861E-01
1.37000000000E+09 -8.54303802887E-02 +8.78855086388E-01 -1.37394810597E-04 +3.22745703550E-04 -1.03292888861E-04 +3.08383361199E-04 -3.19650077256E-01 +8.83921765115E-01
1.37500000000E+09 -7.33576126100E-02 +8.78391729862E-01 -5.18881173108E-05 +4.27106572931E-04 -2.97165278778E-05 +4.07641738933E-04 -3.05947788462E-01 +8.85951756796E-01
1.38000000000E+09 -6.26055239893E-02 +8.76900696487E-01 +7.60091885186E-05 +3.80280209073E-04 +1.06719999269E-05 +4.24746048244E-04 -2.91274793325E-01 +8.88189914103E-01
1.38500000000E+09 -5.16849215349E-02 +8.74669997121E-01 +1.29893305413E-04 +4.02956570780E-04 +7.18182606105E-05 +4.04747247188E-04 -2.75834531195E-01 +8.89988889202E-01
1.39000000000E+09 -3.98070263779E-02 +8.71506185900E-01 +1.16932428749E-04 +3.42289595354E-04 +1.94846806191E-04 +3.72902780173E-04 -2.59930960121E-01 +8.91367553829E-01
1.39500000000E+09 -2.59627939505E-02 +8.67595387437E-01 +1.92646239467E-04 +3.12397135445E-04 +1.98945068696E-04 +3.61590715521E-04 -2.43193493637E-01 +8.92065358829E-01
1.40000000000E+09 -9.42907654934E-03 +8.62803475693E-01 +1.56559941824E-04 +3.52486745409E-04 +1.83822207332E-04 +3.64470273613E-04 -2.25805759175E-01 +8.92277521915E-01
1.40500000000E+09 +9.08541881957E-03 +8.57741757216E-01 +2.31103475619E-04 +4.47164689542E-04 +2.61593227655E-04 +4.21563946847E-04 -2.07514700318E-01 +8.92016917438E-01
1.41000000000E+09 +2.96417686286E-02 +8.52473867948E-01 +3.99397253173E-04 +4.44258272607E-04 +3.42029916256E-04 +4.01262514277E-04 -1.87414868917E-01 +8.91295248239E-01
1.41500000000E+09 +5.12887144864E-02 +8.46740220766E-01 +5.03502000040E-04 +4.08956537068E-04 +4.99384731668E-04 +4.93199882042E-04 -1.66147613104E-01 +8.89603328823E-01
1.42000000000E+09 +7.32895856305E-02 +8.40850412917E-01 +5.96315823300E-04 +2.43487683066E-04 +6.89667253079E-04 +2.59510072864E-04 -1.43498233840E-01 +8.87113263933E-01
1.42500000000E+09 +9.47448691569E-02 +8.33592588188E-01 +4.88036795467E-04 +1.92951463773E-04 +5.48294941351E-04 +2.36664633580E-04 -1.19782589097E-01 +8.83333903574E-01
1.43000000000E+09 +1.14804678015E-01 +8.24994077008E-01 +6.56268328612E-04 +2.37441106341E-04 +7.45523168071E-04 +2.17750435947E-04 -9.51028634180E-02 +8.78707532851E-01
1.43500000000E+09 +1.33993780444E-01 +8.14672417011E-01 +7.42244668816E-04 +1.03463070231E-06 +8.02511162558E-04 -3.05648358035E-05 -6.91032808068E-02 +8.71960840551E-01
1.44000000000E+09 +1.53518319602E-01 +8.02512703190E-01 +7.00809464643E-04 -6.66261417055E-05 +6.92105099991E-04 -4.18490394745E-05 -4.12480133586E-02 +8.63619290025E-01
1.44500000000E+09 +1.74150780469E-01 +7.87212226705E-01 +7.84235455831E-04 -5.30334527617E-05 +8.26583020156E-04 -1.24273946815E-04 -1.09995534476E-02 +8.52372351928E-01
1.45000000000E+09 +1.96512987832E-01 +7.68618885714E-01 +7.92314523096E-04 -2.10557342888E-04 +7.88569792792E-04 -1.99523456403E-04 +2.07751996118E-02 +8.38031938129E-01
1.45500000000E+09 +2.21255914358E-01 +7.46744267026E-01 +9.00315521450E-04 -2.48816553905E-04 +8.96083394656E-04 -3.44490867988E-04 +5.42149944186E-02 +8.20424133976E-01
1.46000000000E+09 +2.48890516639E-01 +7.20872028074E-01 +1.07250181108E-03 -4.29748120176E-04 +9.85589217894E-04 -5.42581424862E-04 +8.85273451866E-02 +7.98954334404E-01
1.46500000000E+09 +2.78051475084E-01 +6.90956252800E-01 +1.03358294292E-03 -8.82135622345E-04 +9.51988429729E-04 -8.19674165464E-04 +1.24459920325E-01 +7.72326133320E-01
1.47000000000E+09 +3.08389918322E-01 +6.57194974961E-01 +7.82654780664E-04 -1.13000066696E-03 +7.07355328903E-04 -1.00954004399E-03 +1.60789627088E-01 +7.39468022770E-01
1.47500000000E+09 +3.38122350023E-01 +6.18561016483E-01 +5.64936170102E-04 -1.32691330517E-03 +5.37011341066E-04 -1.29615457527E-03 +1.98556673502E-01 +6.99508046106E-01
1.48000000000E+09 +3.65382962698E-01 +5.74288529817E-01 +3.29929954585E-04 -1.21238423574E-03 +3.39482008777E-04 -1.16399037068E-03 +2.35367643866E-01 +6.50108963165E-01
1.48500000000E+09 +3.88095761486E-01 +5.24140380782E-01 +4.34768738298E-04 -1.45488753508E-03 +4.03186965964E-04 -1.44662830382E-03 +2.69567490805E-01 +5.91805421942E-01
1.49000000000E+09 +4.05382800623E-01 +4.66945728675E-01 +1.01901328441E-04 -1.77274001426E-03 +3.57255759497E-05 -1.75728403747E-03 +2.98612358353E-01 +5.22614939929E-01
1.49500000000E+09 +4.15167340366E-01 +4.01765403405E-01 -1.16677154520E-04 -1.93589624692E-03 -1.66539379093E-04 -1.84880177409E-03 +3.17695428862E-01 +4.43025336024E-01
1.50000000000E+09 +4.15910924540E-01 +3.27441556874E-01 -6.68723225589E-04 -2.77852291404E-03 -6.74676547215E-04 -2.60605402294E-03 +3.23820686267E-01 +3.53543932672E-01
1.50500000000E+09 +4.04090551835E-01 +2.44425141673E-01 -2.48819792704E-03 -2.31772950256E-03 -2.30286698662E-03 -2.25817328976E-03 +3.13044143776E-01 +2.57632722261E-01
1.51000000000E+09 +3.76095540167E-01 +1.56124155000E-01 -2.57944378924E-03 -8.52181075347E-04 -2.51022206312E-03 -9.06581514963E-04 +2.83258643486E-01 +1.56601296801E-01
1.51500000000E+09 +3.30686303683E-01 +6.82200226788E-02 -2.43736433704E-03 -7.02656356238E-04 -2.43425992602E-03 -7.22977508464E-04 +2.29434034980E-01 +5.70973339885E-02
1.52000000000E+09 +2.67109079097E-01 -1.41991416375E-02 -2.94653634638E-03 -2.87685655456E-05 -2.96356272872E-03 -1.19131893384E-04 +1.52650109519E-01 -3.06594559251E-02
1.52500000000E+09 +1.86188401234E-01 -8.40572932930E-02 -2.33857782480E-03 +1.00926765920E-03 -2.28300413677E-03 +9.88906135869E-04 +5.72022209674E-02 -1.00594372350E-01
1.53000000000E+09 +8.89849794352E-02 -1.34714090707E-01 -2.34198955050E-03 +7.09574690553E-04 -2.34640123304E-03 +6.69097013934E-04 -5.13609687317E-02 -1.46744054558E-01
1.53500000000E+09 -1.79489415461E-02 -1.60041403810E-01 -2.91236822172E-03 +1.89915289552E-03 -2.88260726265E-03 +1.94060797790E-03 -1.64824361264E-01 -1.66966442237E-01
1.54000000000E+09 -1.26331596976E-01 -1.58192301556E-01 -1.67244891435E-03 +3.25072234076E-03 -1.64114062593E-03 +3.20246716209E-03 -2.74836497911E-01 -1.63361172265E-01
1.54500000000E+09 -2.28849388331E-01 -1.33413068976E-01 -5.99012353389E-06 +3.13067285312E-03 -8.62510304734E-05 +3.07648711122E-03 -3.74391403099E-01 -1.39836095781E-01
1.55000000000E+09 -3.20758775346E-01 -9.11638814249E-02 +7.31010432436E-04 +2.73419923421E-03 +6.16720095964E-04 +2.73808254562E-03 -4.61614368207E-01 -1.01828113255E-01
1.55500000000E+09 -3.99718115488E-01 -3.75338454610E-02 +1.50105377262E-03 +2.12971921993E-03 +1.45114262748E-03 +2.28193881421E-03 -5.33236491237E-01 -5.21867883670E-02
1.56000000000E+09 -4.64320215356E-01 +2.23046050685E-02 +1.76498931107E-03 +9.89376000915E-04 +1.82319412774E-03 +1.12189519772E-03 -5.89722280605E-01 +1.83255618231E-03
1.56500000000E+09 -5.13424820697E-01 +8.32477159637E-02 +1.31219850898E-03 +4.44437482522E-04 +1.39848811510E-03 +4.82184201457E-04 -6.34242094668E-01 +5.82341811115E-02
1.57000000000E+09 -5.50568114976E-01 +1.41954921867E-01 +1.12700730201E-03 +3.15803233401E-04 +1.20559042301E-03 +3.40212989604E-04 -6.66995028044E-01 +1.14078458929E-01
