# Hz S RI R 50
! CMT, C1220, 16058040, 17.2.0/1
! Date: 14/08/2018 12:34:05
! Data: Format (Calibration Info)
! Freq                      S11: Re/Im (F2)                       S21: Re/Im (F2)                       S12: Re/Im (F2)                       S22: Re/Im (F2)            
1.00000000000E+09 -6.33820563312E-01 +7.08991110969E-01 +1.97282051594E-06 -7.77584474466E-06 -7.57144564225E-06 +2.53970172799E-05 -7.53036916262E-01 +6.23963064162E-01
1.00500000000E+09 -6.26872639889E-01 +7.14001119107E-01 -1.64823177723E-05 +5.05922400448E-06 +3.30503997870E-05 -4.62836376222E-06 -7.49594125010E-01 +6.28095998822E-01
1.01000000000E+09 -6.20626742961E-01 +7.18618140256E-01 +7.26448613204E-06 +2.95615943694E-05 -1.09144027241E-05 -1.41590432736E-05 -7.46269787010E-01 +6.31600474139E-01
1.01500000000E+09 -6.15866198744E-01 +7.22522657816E-01 -4.52525221483E-06 -2.21954821451E-05 -1.18549380132E-05 +6.83518337264E-05 -7.42960230951E-01 +6.35216816295E-01
1.02000000000E+09 -6.12270100749E-01 +7.26049874125E-01 -5.68034124756E-05 +8.10290871182E-06 +7.93326339930E-06 -3.36057982125E-05 -7.39572168975E-01 +6.38680863175E-01
1.02500000000E+09 -6.09630753815E-01 +7.29069329951E-01 +1.33919378509E-05 +6.86456449505E-05 +2.76015618155E-06 +5.42420434943E-05 -7.36799877659E-01 +6.42488441106E-01
1.03000000000E+09 -6.07580087088E-01 +7.31517184929E-01 +1.06867595464E-05 +3.55317412245E-05 -1.38081297808E-05 +5.74851311293E-05 -7.33280899392E-01 +6.46265139646E-01
1.03500000000E+09 -6.04774531661E-01 +7.33975234490E-01 +1.43094577224E-05 +7.00278454819E-06 -1.41528795606E-05 +4.79522246618E-06 -7.29569550900E-01 +6.50214395371E-01
1.04000000000E+09 -6.00974459003E-01 +7.36788478535E-01 -1.97656560057E-05 +2.21695691493E-05 -1.78751696185E-05 +1.01717927881E-05 -7.25695433375E-01 +6.53759681235E-01
1.04500000000E+09 -5.95762556711E-01 +7.40157633009E-01 -4.79749173993E-07 -2.69580082066E-06 -2.46958637003E-05 +2.02291018760E-05 -7.22243243460E-01 +6.57362136557E-01
1.05000000000E+09 -5.88969450642E-01 +7.43926727644E-01 -7.29996174705E-06 +9.71725814251E-06 -6.00765019206E-05 -2.86876593714E-05 -7.18742239088E-01 +6.60742482065E-01
1.05500000000E+09 -5.81098128345E-01 +7.48320269448E-01 +8.57480152016E-06 +2.83483470174E-05 +2.77605384997E-05 +5.56574897548E-05 -7.15465150803E-01 +6.64362368118E-01
1.06000000000E+09 -5.72721975172E-01 +7.53183830772E-01 +1.64178813394E-05 -4.00817494670E-06 +1.99992110603E-05 +2.58240809569E-06 -7.12299878165E-01 +6.68185837694E-01
1.06500000000E+09 -5.64508049412E-01 +7.58036081653E-01 -4.41622218442E-06 +3.18124761599E-05 +9.46364246651E-06 +1.17201023784E-05 -7.08383402601E-01 +6.72035686885E-01
1.07000000000E+09 -5.57415691854E-01 +7.62325121747E-01 +2.19666704556E-05 +3.65259037619E-05 -4.52568615107E-05 +4.68156688694E-05 -7.04236945543E-01 +6.75742571629E-01
1.07500000000E+09 -5.51671491990E-01 +7.66332407484E-01 -8.13750417477E-06 +4.01509164464E-05 +2.84933829121E-05 +3.52659227637E-06 -6.99845883284E-01 +6.79293845305E-01
1.08000000000E+09 -5.47466102157E-01 +7.69689691138E-01 +2.88806466468E-05 +6.70487510727E-05 +1.86308895976E-05 +1.14589850916E-05 -6.96118222266E-01 +6.83278461588E-01
1.08500000000E+09 -5.44485230221E-01 +7.72406305813E-01 +2.57389288441E-05 +5.42133051349E-05 +6.68660968937E-06 +4.11218121330E-05 -6.92361057474E-01 +6.86809454007E-01
1.09000000000E+09 -5.41836981915E-01 +7.74523130101E-01 +1.82933499336E-05 -1.61934326911E-05 +3.34231625840E-05 +1.75658420433E-05 -6.88582563175E-01 +6.90673812508E-01
1.09500000000E+09 -5.39364509144E-01 +7.76533289773E-01 +7.91123641283E-05 +2.46730502353E-05 -1.44357783187E-05 +4.50750741839E-05 -6.84686225642E-01 +6.94504129948E-01
1.10000000000E+09 -5.35989123828E-01 +7.78671450124E-01 +1.76837376727E-05 +3.15931263607E-05 +7.41294708243E-05 +6.20491573522E-06 -6.80798025288E-01 +6.98369823930E-01
1.10500000000E+09 -5.31440060870E-01 +7.81269292701E-01 +4.99323331352E-05 -9.10452194412E-07 +2.78070116282E-05 -4.18469967766E-05 -6.76562736266E-01 +7.01788802983E-01
1.11000000000E+09 -5.25435664215E-01 +7.84461283021E-01 -2.45998385177E-05 -3.72269818390E-05 +3.91977745481E-05 +3.13636127113E-05 -6.72416269035E-01 +7.05251604061E-01
1.11500000000E+09 -5.18232752093E-01 +7.88278103972E-01 +2.88282452725E-06 -4.70099077812E-06 +6.67976184675E-05 +2.00235678530E-05 -6.68360125995E-01 +7.08587214095E-01
1.12000000000E+09 -5.10614343698E-01 +7.92064271910E-01 +2.62168581835E-05 +2.15432601691E-05 +1.96997856270E-05 +1.22068464557E-06 -6.64395618908E-01 +7.12151255107E-01
1.12500000000E+09 -5.02857628627E-01 +7.96005385666E-01 +5.16197995252E-05 -2.08014515660E-06 +2.30519434480E-05 +5.90010234072E-05 -6.60104476311E-01 +7.16351580954E-01
1.13000000000E+09 -4.96002839922E-01 +7.99671966975E-01 +4.82915225379E-05 +4.26301182958E-05 +3.54301818438E-05 -4.96986393396E-05 -6.55708473786E-01 +7.20078599775E-01
1.13500000000E+09 -4.89955916871E-01 +8.02461399263E-01 -4.19406025815E-06 +9.65282928701E-06 +8.12119064815E-06 +1.68157221494E-05 -6.51133890510E-01 +7.23846056788E-01
1.14000000000E+09 -4.85299362092E-01 +8.04762362000E-01 +6.06880217173E-05 +1.70840617310E-05 +8.80616552811E-06 -2.25493902273E-05 -6.46306199964E-01 +7.27369625507E-01
1.14500000000E+09 -4.81475647904E-01 +8.06472204961E-01 +6.57578965793E-05 +4.14819518453E-05 +3.51057519226E-05 +4.14103079880E-05 -6.41616778553E-01 +7.30796392937E-01
1.15000000000E+09 -4.77955191205E-01 +8.07853438473E-01 +4.16579196758E-05 +1.44249758391E-05 +2.52080908498E-05 -3.74655654456E-05 -6.37036369250E-01 +7.34645560264E-01
1.15500000000E+09 -4.74335920815E-01 +8.09343921043E-01 +2.66251129028E-06 -1.88163921988E-06 +6.22286179522E-05 +3.19092911810E-05 -6.32263354070E-01 +7.38512730213E-01
1.16000000000E+09 -4.69558286571E-01 +8.11141766585E-01 +5.72767776243E-05 -3.44951882798E-05 +3.72394999271E-05 -1.72277245104E-05 -6.27612277862E-01 +7.42229651603E-01
1.16500000000E+09 -4.63798632518E-01 +8.13722327450E-01 +1.03210426273E-04 -5.36737102948E-06 +2.79683473996E-05 -4.81024141003E-05 -6.22472659923E-01 +7.45912993047E-01
1.17000000000E+09 -4.56553754778E-01 +8.16606555821E-01 +4.82735364108E-05 -3.02136945135E-05 +3.38750727747E-05 -2.16832944433E-05 -6.17153282167E-01 +7.49159825413E-01
1.17500000000E+09 -4.48613757155E-01 +8.19925960129E-01 +6.99573855060E-05 -3.86370432402E-05 +6.24669942193E-05 -5.37290558724E-05 -6.11657124756E-01 +7.52404550710E-01
1.18000000000E+09 -4.40429532500E-01 +8.23441208092E-01 +5.30891956778E-05 -9.18002771210E-05 +5.25285290466E-05 -5.32055563921E-05 -6.05961483032E-01 +7.55382672111E-01
1.18500000000E+09 -4.32268069815E-01 +8.26716294086E-01 -3.29232360236E-08 -8.23473323983E-05 +7.85573499364E-05 -8.20535823176E-05 -6.00169301165E-01 +7.58410094697E-01
1.19000000000E+09 -4.25015655661E-01 +8.29443024942E-01 +6.71449734243E-05 -5.92054164854E-05 +3.01663169752E-05 -6.56208445465E-05 -5.94025135505E-01 +7.61014258887E-01
1.19500000000E+09 -4.18934874023E-01 +8.31536054910E-01 +5.36615746467E-05 -9.24854286172E-05 +9.48919222892E-05 -1.16348409121E-04 -5.88112528515E-01 +7.62283757115E-01
1.20000000000E+09 -4.13786370152E-01 +8.32391541512E-01 +3.58983649923E-05 -1.35546541698E-04 -1.32020485635E-05 -1.44457168724E-04 -5.83639850518E-01 +7.62433345912E-01
1.20500000000E+09 -4.09321878976E-01 +8.33607706878E-01 -3.06278867768E-05 -1.50731628468E-04 -3.71368320594E-05 -9.72810335286E-05 -5.81280366706E-01 +7.63272145400E-01
1.21000000000E+09 -4.04432361225E-01 +8.34510495375E-01 -8.20640230199E-05 -6.43509693556E-05 -4.96850388292E-05 -8.72854998540E-05 -5.79333161390E-01 +7.66497337627E-01
1.21500000000E+09 -3.98535641500E-01 +8.35866121304E-01 -7.29405304770E-05 -9.32658320559E-05 -2.18372020892E-05 -7.09128818690E-05 -5.76503161599E-01 +7.71093391229E-01
1.22000000000E+09 -3.91188744787E-01 +8.37471899261E-01 -5.66189791871E-05 -3.68566864306E-05 -4.73604333765E-05 +6.35417551091E-06 -5.72361896581E-01 +7.76469797404E-01
1.22500000000E+09 -3.82317549182E-01 +8.39936737500E-01 -2.23230325647E-05 -2.71711951108E-05 +1.50419779301E-05 -4.00531472526E-05 -5.67180310018E-01 +7.81623377605E-01
1.23000000000E+09 -3.72372478936E-01 +8.42671618993E-01 -6.84681221870E-05 -5.70493374780E-05 -4.94016943365E-05 -5.46166037839E-05 -5.61413033525E-01 +7.86295795376E-01
1.23500000000E+09 -3.62215976938E-01 +8.46164054743E-01 -2.34238401781E-05 -7.56088725985E-05 -8.04670038918E-05 -6.23775987054E-05 -5.55578476635E-01 +7.90475009430E-01
1.24000000000E+09 -3.51967158338E-01 +8.49912586226E-01 -7.99672655051E-05 -6.52234488674E-05 -3.44485077359E-05 -2.53050356435E-05 -5.49684113419E-01 +7.94462355019E-01
1.24500000000E+09 -3.42861144914E-01 +8.53816349964E-01 -7.51841933818E-05 -3.24935062985E-05 -4.09183210031E-05 -7.18177078026E-05 -5.43436759057E-01 +7.98187283264E-01
1.25000000000E+09 -3.34701568124E-01 +8.57259263923E-01 -7.06285849339E-05 -6.58414498596E-05 -6.06135618707E-05 -3.31997497024E-05 -5.36911311032E-01 +8.02515870971E-01
1.25500000000E+09 -3.27534427848E-01 +8.59815439206E-01 -1.11286429908E-04 -5.17889552783E-05 -5.61218005386E-05 -1.30296440085E-04 -5.30231024346E-01 +8.06510063359E-01
1.26000000000E+09 -3.21306617307E-01 +8.61585660943E-01 -7.76443638549E-05 -4.52722347294E-05 -6.08791992912E-05 -2.40305175757E-05 -5.23668412953E-01 +8.10745060545E-01
1.26500000000E+09 -3.15651997807E-01 +8.62684719246E-01 -9.31973536381E-05 -4.11787076955E-05 -6.99451211300E-05 -1.08547942912E-05 -5.16619186151E-01 +8.14487673728E-01
1.27000000000E+09 -3.09567975228E-01 +8.63340437444E-01 -2.31493592223E-05 -3.54093245894E-05 -6.90818009912E-05 -9.03422104460E-06 -5.09862585826E-01 +8.18249806931E-01
1.27500000000E+09 -3.02066269243E-01 +8.64080055397E-01 -9.44606383590E-05 -3.20057385146E-05 -7.24140077997E-05 -1.02863772066E-05 -5.02625785309E-01 +8.21911836109E-01
1.28000000000E+09 -2.92885137800E-01 +8.64862924623E-01 -1.16321847796E-04 -5.80535678073E-05 -3.44262396411E-05 -5.80834992210E-05 -4.95499089615E-01 +8.25519791669E-01
1.28500000000E+09 -2.81925086998E-01 +8.66186805604E-01 -1.21695446643E-04 -1.16361483223E-05 -8.48986970897E-05 -1.05815564472E-05 -4.87951727325E-01 +8.29155789642E-01
1.29000000000E+09 -2.70223877209E-01 +8.67968861105E-01 -9.06372729687E-05 +2.17067856921E-05 -7.47124815239E-05 -3.39804321841E-05 -4.80469591395E-01 +8.33104922153E-01
1.29500000000E+09 -2.58180503686E-01 +8.70582452114E-01 -8.97478108277E-05 +1.93074438639E-06 -5.95885733532E-05 -6.73512692614E-06 -4.72484277358E-01 +8.36517372495E-01
1.30000000000E+09 -2.46562085623E-01 +8.73756202300E-01 -1.07338261622E-04 -1.82634908645E-05 -9.84965484718E-05 +1.88857806333E-05 -4.64657639312E-01 +8.40190198357E-01
1.30500000000E+09 -2.36012348335E-01 +8.76932886807E-01 -1.33875129908E-04 +7.91553098542E-06 -1.14162153149E-04 +6.61733603838E-05 -4.56630626761E-01 +8.43534781931E-01
1.31000000000E+09 -2.26759519481E-01 +8.79620528136E-01 -7.43982230034E-05 +5.73919096230E-05 -4.83577047468E-05 +1.42384142045E-05 -4.48311166394E-01 +8.46958742495E-01
1.31500000000E+09 -2.19159382779E-01 +8.81532797754E-01 -6.46953694772E-05 +2.40333334575E-05 -4.57185174367E-05 +4.29407933645E-05 -4.39536197444E-01 +8.50361556124E-01
1.32000000000E+09 -2.12933649845E-01 +8.82427785042E-01 -9.47349631177E-05 -2.05139493395E-05 -1.22199659465E-04 +2.16223976179E-06 -4.30456041136E-01 +8.53757692843E-01
1.32500000000E+09 -2.06969168972E-01 +8.82433410386E-01 -1.06424783585E-04 +2.25290848777E-05 -1.29036303053E-04 +1.40939548149E-05 -4.20962614583E-01 +8.57179413368E-01
1.33000000000E+09 -2.00084390946E-01 +8.81860532648E-01 -1.57943249746E-04 +7.11117018204E-06 -1.75236961702E-04 +5.53312973541E-05 -4.11573249676E-01 +8.60371467008E-01
1.33500000000E+09 -1.91395314104E-01 +8.80898978335E-01 -1.72280458143E-04 +1.56973202813E-05 -1.85764750952E-04 +5.99705571943E-05 -4.01667563980E-01 +8.63486208830E-01
1.34000000000E+09 -1.80104203170E-01 +8.79761337449E-01 -1.76129226435E-04 +7.74295626555E-05 -1.50167873926E-04 +1.44281542798E-04 -3.91628702201E-01 +8.66795014756E-01
1.34500000000E+09 -1.66647132101E-01 +8.78820142952E-01 -1.76432032112E-04 +1.34658593972E-04 -1.49216988532E-04 +1.28731487897E-04 -3.80716229864E-01 +8.70104540694E-01
1.35000000000E+09 -1.51453148546E-01 +8.78194468331E-01 -1.46362465483E-04 +1.57050960881E-04 -1.26601474956E-04 +1.17808987896E-04 -3.69535442410E-01 +8.73241269383E-01
1.35500000000E+09 -1.35141768264E-01 +8.78400613504E-01 -1.80956122154E-04 +1.57266220734E-04 -1.79024251720E-04 +1.80545432581E-04 -3.57622951012E-01 +8.76191877959E-01
1.36000000000E+09 -1.18946798015E-01 +8.79022222329E-01 -1.67135670556E-04 +2.20408439549E-04 -1.68548709131E-04 +2.43637770471E-04 -3.45679583320E-01 +8.78800765301E-01
1.36500000000E+09 -1.03413616774E-01 +8.79692085840E-01 -1.45387579791E-04 +3.20143539805E-04 -1.36963097310E-04 +2.93829558698E-04 -3.33562315367E-01 +8.81199323293E-01
1.37000000000E+09 -8.94805871017E-02 +8.79886872092E-01 -1.04681164037E-04 +3.47113346534E-04 -1.31306514005E-04 +3.06455422071E-04 -3.20722309049E-01 +8.83691615237E-01
1.37500000000E+09 -7.72045660836E-02 +8.79573785623E-01 -2.94516196680E-05 +4.46376029992E-04 -5.77045368514E-05 +3.85402542320E-04 -3.07074028019E-01 +8.85787722964E-01
1.38000000000E+09 -6.64652562915E-02 +8.78497315713E-01 +6.72931790259E-05 +3.62681225488E-04 +2.23392430697E-05 +3.96412490518E-04 -2.92394321306E-01 +8.88026863803E-01
1.38500000000E+09 -5.55925293063E-02 +8.76741393997E-01 +1.11882028261E-04 +3.92921144920E-04 +7.13299080658E-05 +4.22520338567E-04 -2.76894607027E-01 +8.89874158331E-01
1.39000000000E+09 -4.37784660371E-02 +8.73818437426E-01 +1.50070581835E-04 +3.47970011186E-04 +1.70280128787E-04 +4.23521144988E-04 -2.61056524991E-01 +8.91311318993E-01
1.39500000000E+09 -3.01874558951E-02 +8.70134319188E-01 +1.16135564924E-04 +2.94241631578E-04 +2.04415751228E-04 +3.21396192857E-04 -2.44330149582E-01 +8.92052074290E-01
1.40000000000E+09 -1.37833002322E-02 +8.65507109109E-01 +1.57245749081E-04 +3.90854267750E-04 +2.14550659425E-04 +4.10733848406E-04 -2.26957104580E-01 +8.92288475511E-01
1.40500000000E+09 +4.56411249191E-03 +8.60053457355E-01 +1.91695441527E-04 +4.59853862674E-04 +2.23222828079E-04 +4.51076371898E-04 -2.08556266376E-01 +8.92078743430E-01
1.41000000000E+09 +2.48272500615E-02 +8.54496025212E-01 +3.62275849961E-04 +4.57974801275E-04 +3.99852197302E-04 +4.85926430666E-04 -1.88726213825E-01 +8.91297124705E-01
1.41500000000E+09 +4.63197281646E-02 +8.48608333046E-01 +5.18589504041E-04 +3.85061586967E-04 +5.29450877088E-04 +4.40194673325E-04 -1.67245086548E-01 +8.89791859657E-01
1.42000000000E+09 +6.83073313706E-02 +8.42362869744E-01 +5.88093394131E-04 +2.48252142755E-04 +6.45607108906E-04 +3.03954863157E-04 -1.44464007557E-01 +8.87326468196E-01
1.42500000000E+09 +8.98304690754E-02 +8.35033287153E-01 +5.13907780435E-04 +2.16747490840E-04 +5.52256176016E-04 +2.19319740053E-04 -1.20867984170E-01 +8.83618754843E-01
1.43000000000E+09 +1.10296096566E-01 +8.26294253588E-01 +6.79836802419E-04 +3.05164460956E-04 +7.67908431136E-04 +2.48009322321E-04 -9.63186792939E-02 +8.79038584257E-01
1.43500000000E+09 +1.29782828454E-01 +8.15964598355E-01 +8.34262038135E-04 +7.93870900191E-05 +8.28536737235E-04 -6.85064040311E-05 -7.02825153230E-02 +8.72549170404E-01
1.44000000000E+09 +1.49430687254E-01 +8.03964896482E-01 +7.64272561371E-04 -8.31024622491E-05 +7.54450813753E-04 -9.34081829150E-05 -4.23533643992E-02 +8.64261780918E-01
1.44500000000E+09 +1.70208308016E-01 +7.88617809104E-01 +7.97861411895E-04 +5.61693024794E-06 +8.32318145620E-04 -5.53745660061E-05 -1.20067453122E-02 +8.53061376965E-01
1.45000000000E+09 +1.92377142210E-01 +7.69952019618E-01 +8.86470390081E-04 -1.75698421343E-04 +9.65369542753E-04 -2.10890567637E-04 +1.98215155900E-02 +8.38784421344E-01
1.45500000000E+09 +2.16823506138E-01 +7.47821458602E-01 +1.02405826057E-03 -2.46349137263E-04 +1.03898627823E-03 -3.19474131017E-04 +5.32479352826E-02 +8.21246099549E-01
1.46000000000E+09 +2.43825055857E-01 +7.21307083143E-01 +1.26036020902E-03 -5.10993890261E-04 +1.19418669994E-03 -6.43417738481E-04 +8.76208705149E-02 +7.99839945025E-01
1.46500000000E+09 +2.71982175761E-01 +6.91397784847E-01 +1.18260060916E-03 -1.04339939926E-03 +1.06319226251E-03 -1.04857166704E-03 +1.23665361904E-01 +7.73333908245E-01
1.47000000000E+09 +3.01487792800E-01 +6.57507788324E-01 +9.13388938345E-04 -1.32144853905E-03 +7.89369007355E-04 -1.21451117350E-03 +1.60273808830E-01 +7.40533981674E-01
1.47500000000E+09 +3.30482256993E-01 +6.19209135126E-01 +6.00136660404E-04 -1.52111946296E-03 +6.15096077836E-04 -1.48769418293E-03 +1.98101756422E-01 +7.00634168485E-01
1.48000000000E+09 +3.57608574923E-01 +5.75111211503E-01 +4.79681004025E-04 -1.51416344675E-03 +5.48651233512E-04 -1.52791318551E-03 +2.35094498577E-01 +6.51117401095E-01
1.48500000000E+09 +3.79682880093E-01 +5.25213336369E-01 +3.95471057721E-04 -1.95852669141E-03 +4.07197751565E-04 -1.97265217510E-03 +2.69372834750E-01 +5.92701238244E-01
1.49000000000E+09 +3.96443351090E-01 +4.68661560109E-01 -1.16081434789E-04 -2.32911094851E-03 -2.61335056677E-04 -2.23770341235E-03 +2.98417496005E-01 +5.23610018399E-01
1.49500000000E+09 +4.05470651107E-01 +4.04403311832E-01 -6.40533662153E-04 -2.39861518535E-03 -6.40100254730E-04 -2.29485222841E-03 +3.17762733444E-01 +4.44113776838E-01
1.50000000000E+09 +4.05456968515E-01 +3.32126868366E-01 -1.38012900215E-03 -3.07662385001E-03 -1.29238857436E-03 -2.88572130889E-03 +3.23773799748E-01 +3.54591379790E-01
1.50500000000E+09 +3.93936425792E-01 +2.51301490663E-01 -3.26728247171E-03 -2.31008485011E-03 -3.08401004087E-03 -2.32573854809E-03 +3.13324736431E-01 +2.58519121591E-01
1.51000000000E+09 +3.66496667470E-01 +1.64518109077E-01 -3.35228441763E-03 -5.55466320363E-04 -3.31483126194E-03 -6.73325986191E-04 +2.83152095623E-01 +1.57222787843E-01
1.51500000000E+09 +3.21968856838E-01 +7.79258771231E-02 -3.31366341389E-03 -7.91908691752E-06 -3.31706233889E-03 -1.04826778751E-04 +2.29405164497E-01 +5.85662244875E-02
1.52000000000E+09 +2.59635393403E-01 -3.55983187086E-03 -3.23740675128E-03 +1.08626118337E-03 -3.30600243961E-03 +1.06392061487E-03 +1.53168715588E-01 -2.92107050944E-02
1.52500000000E+09 +1.80178927403E-01 -7.27795166401E-02 -2.11136274259E-03 +1.96133697140E-03 -2.11619974981E-03 +1.93275104572E-03 +5.81242426057E-02 -9.89553929817E-02
1.53000000000E+09 +8.51344998727E-02 -1.23170470285E-01 -1.84133682930E-03 +1.25211600868E-03 -1.82607664545E-03 +1.25335606470E-03 -4.98065495065E-02 -1.45498548856E-01
1.53500000000E+09 -1.85808820411E-02 -1.49441881025E-01 -2.37665639581E-03 +2.27649341154E-03 -2.42165570723E-03 +2.16662417627E-03 -1.63195870507E-01 -1.66224068426E-01
1.54000000000E+09 -1.24902762599E-01 -1.49554742625E-01 -1.30673546039E-03 +3.35959324133E-03 -1.34916074102E-03 +3.30074111287E-03 -2.72948963668E-01 -1.62836998565E-01
1.54500000000E+09 -2.25815974829E-01 -1.26180657327E-01 +3.25885264765E-04 +3.33084022479E-03 +1.71442509627E-04 +3.30889491744E-03 -3.72166719168E-01 -1.39820494453E-01
1.55000000000E+09 -3.15900345999E-01 -8.52675217321E-02 +9.52687026044E-04 +2.86800269746E-03 +8.08310936494E-04 +2.90148808705E-03 -4.59527151459E-01 -1.02604275215E-01
1.55500000000E+09 -3.93850344716E-01 -3.35518053493E-02 +1.88039778952E-03 +2.23549388484E-03 +1.80064773323E-03 +2.38178765435E-03 -5.31476561530E-01 -5.30850895054E-02
1.56000000000E+09 -4.58348773079E-01 +2.49481295498E-02 +2.11310751773E-03 +1.17772899063E-03 +2.20518941639E-03 +1.34128566358E-03 -5.87746273616E-01 +6.50529599322E-04
1.56500000000E+09 -5.07542783020E-01 +8.50382363854E-02 +1.83701542741E-03 +3.32582745536E-04 +1.90508525087E-03 +3.51770284772E-04 -6.32721625438E-01 +5.65241866081E-02
1.57000000000E+09 -5.45474158481E-01 +1.42339611332E-01 +1.37175522506E-03 +1.68379395150E-04 +1.50367291233E-03 +2.10123519181E-04 -6.65631375075E-01 +1.12289367246E-01
