# Hz S RI R 50
! CMT, C1220, 16058040, 17.2.0/1
! Date: 14/08/2018 12:28:37
! Data: Format (Calibration Info)
! Freq                      S11: Re/Im (F2)                       S21: Re/Im (F2)                       S12: Re/Im (F2)                       S22: Re/Im (F2)            
1.00000000000E+09 -6.27056489914E-01 +7.08604150281E-01 +4.75658024637E-06 -2.04871120956E-05 +2.68313922669E-05 +5.68875924465E-05 -7.52748704055E-01 +6.24340058029E-01
1.00500000000E+09 -6.20093813558E-01 +7.13625044235E-01 -8.29706992695E-07 -2.10133819403E-05 +3.46403421529E-05 -2.04153711341E-05 -7.49354988799E-01 +6.28556109611E-01
1.01000000000E+09 -6.14426550364E-01 +7.18393271481E-01 +7.42378679809E-06 -1.29082222323E-05 -3.76539246555E-06 -4.83080456084E-05 -7.45725204864E-01 +6.32040876498E-01
1.01500000000E+09 -6.10359551216E-01 +7.22026245596E-01 -4.04898420497E-05 +1.65357970125E-05 -1.99236038705E-05 +1.77994319850E-05 -7.42445252319E-01 +6.35809126742E-01
1.02000000000E+09 -6.07843406270E-01 +7.25115177842E-01 +1.88165051536E-05 -5.05910296032E-05 +6.53715615027E-05 +3.07646780138E-05 -7.39151475495E-01 +6.39287595426E-01
1.02500000000E+09 -6.05999465244E-01 +7.27665805070E-01 -4.97946923301E-05 +4.37076480646E-05 -3.05220357082E-05 -2.07661184503E-07 -7.36285426301E-01 +6.42936475047E-01
1.03000000000E+09 -6.04774609039E-01 +7.29713462878E-01 +1.39696244140E-05 +2.01721375164E-05 +1.66229653660E-05 +1.66212136214E-05 -7.32857377452E-01 +6.46731824784E-01
1.03500000000E+09 -6.02352335265E-01 +7.31848819863E-01 -3.49435513397E-05 +3.85851848675E-05 -9.50116796419E-06 +2.95653753397E-05 -7.29115934932E-01 +6.50578807315E-01
1.04000000000E+09 -5.98698434775E-01 +7.34464891216E-01 -1.58752481255E-05 +1.49253036205E-05 -3.23489968599E-06 +1.04147502811E-05 -7.25370483310E-01 +6.54217178254E-01
1.04500000000E+09 -5.93401660637E-01 +7.37626534078E-01 -4.74862316776E-05 +3.25607707878E-05 +5.08927788630E-05 +2.23516738081E-05 -7.21749166276E-01 +6.57934907405E-01
1.05000000000E+09 -5.86325658874E-01 +7.41899243386E-01 -2.52583088436E-05 +2.09952062430E-05 +5.77164115833E-05 +4.13854966810E-05 -7.18377851244E-01 +6.61229261968E-01
1.05500000000E+09 -5.77673020844E-01 +7.46503688909E-01 +5.23414796206E-06 +5.47185746869E-05 -6.58227486993E-06 -9.10423355184E-06 -7.15174682785E-01 +6.64927772044E-01
1.06000000000E+09 -5.68360356177E-01 +7.51803268652E-01 -2.23982994689E-06 +4.22153421168E-05 -2.80970917742E-05 +5.99378769370E-05 -7.11726016342E-01 +6.68619323910E-01
1.06500000000E+09 -5.59611144633E-01 +7.57189905720E-01 -6.40093066615E-05 -3.16683138397E-07 +1.53364878018E-05 +5.81508378543E-06 -7.07872010216E-01 +6.72702682902E-01
1.07000000000E+09 -5.51697198183E-01 +7.61869558045E-01 -2.34397306290E-05 +2.62470962727E-05 -3.90656262538E-05 +4.86488404947E-05 -7.03765466845E-01 +6.76326058647E-01
1.07500000000E+09 -5.45417132937E-01 +7.65927456281E-01 +1.28564807173E-05 +3.38079155699E-06 +1.12747296111E-05 +3.89071523102E-05 -6.99525090953E-01 +6.79935969527E-01
1.08000000000E+09 -5.40996121896E-01 +7.69134174415E-01 +9.92483672606E-06 +3.26688299493E-05 +1.77922863272E-06 +1.96225552379E-05 -6.95533828643E-01 +6.83825613552E-01
1.08500000000E+09 -5.38351658597E-01 +7.71586233436E-01 +3.44720118042E-05 +2.41848899812E-05 -1.53297587594E-06 +3.66231950553E-05 -6.91738450682E-01 +6.87421390198E-01
1.09000000000E+09 -5.36184400916E-01 +7.73498947281E-01 +8.90346820346E-06 +2.36172264306E-05 -1.75212125458E-05 +3.76214983107E-05 -6.87988926907E-01 +6.91266226344E-01
1.09500000000E+09 -5.34288181024E-01 +7.75133735756E-01 +9.46789795943E-05 -2.34712799955E-05 +2.73921669171E-05 +3.75999649652E-05 -6.84220751771E-01 +6.95040315603E-01
1.10000000000E+09 -5.31730653924E-01 +7.77085152637E-01 -1.31547230539E-05 -2.45111478086E-05 +4.23990899237E-05 -8.85104654505E-06 -6.80329226398E-01 +6.98809892536E-01
1.10500000000E+09 -5.27755850704E-01 +7.79337507753E-01 -8.10969037198E-06 +2.33483126584E-05 +3.50643363053E-05 +1.58058797058E-05 -6.76108836784E-01 +7.02435967781E-01
1.11000000000E+09 -5.22398910835E-01 +7.82415626089E-01 +2.83768874947E-05 -9.07962322563E-06 +3.57144267908E-05 -4.55096992453E-05 -6.71834579932E-01 +7.05719430103E-01
1.11500000000E+09 -5.15683979853E-01 +7.86311068254E-01 +4.32321836882E-05 +6.44098936173E-05 +4.99643303415E-05 +1.63196973145E-06 -6.67857812533E-01 +7.09097657093E-01
1.12000000000E+09 -5.08193739220E-01 +7.90200965812E-01 +2.74039437386E-05 -1.75998488905E-06 -6.71316429923E-06 +5.88832385595E-06 -6.63892468271E-01 +7.12664367803E-01
1.12500000000E+09 -5.00396905572E-01 +7.94150447984E-01 +2.95360415144E-05 -1.25560579382E-06 +6.29261783379E-07 +6.29308780609E-06 -6.59566644301E-01 +7.16730195122E-01
1.13000000000E+09 -4.93145513799E-01 +7.97935170015E-01 +4.39816067341E-05 +6.91410733981E-06 +6.80767943933E-05 +9.77416837913E-06 -6.55303634086E-01 +7.20510830250E-01
1.13500000000E+09 -4.86593300627E-01 +8.00679483801E-01 +5.00684467829E-05 +6.22052663555E-06 +2.43166679650E-05 +2.87105901190E-05 -6.50502088906E-01 +7.24363826995E-01
1.14000000000E+09 -4.81279495364E-01 +8.02992943327E-01 +9.39357687602E-05 -4.24515763301E-05 +4.61569791080E-05 +1.26009498636E-07 -6.45713436049E-01 +7.27809527182E-01
1.14500000000E+09 -4.76969062513E-01 +8.04434288264E-01 +3.63375991276E-05 -4.63545782658E-06 +5.04314236772E-05 -3.52823868129E-05 -6.41066058001E-01 +7.31259032651E-01
1.15000000000E+09 -4.72840681659E-01 +8.05849863946E-01 +2.71328681858E-05 -4.01044950539E-07 +3.53008873920E-05 +1.10332582434E-09 -6.36541349274E-01 +7.34994574031E-01
1.15500000000E+09 -4.69010837039E-01 +8.07471428680E-01 +5.48696726587E-05 -3.09324048238E-05 +3.73517383808E-05 -2.80893531511E-05 -6.31741109307E-01 +7.38852786988E-01
1.16000000000E+09 -4.64121370147E-01 +8.09202420932E-01 +4.21137038093E-05 -1.16826176798E-05 +4.36424919915E-05 -3.13735119155E-05 -6.26991340682E-01 +7.42730920929E-01
1.16500000000E+09 -4.58224165315E-01 +8.11913659530E-01 +9.23466708805E-05 -3.24777783833E-07 +2.72093636635E-05 -6.27644281273E-05 -6.21935198091E-01 +7.46412069675E-01
1.17000000000E+09 -4.51436195463E-01 +8.14911406668E-01 +8.41438338252E-05 -7.61219903663E-05 +8.69710711607E-05 -1.60569043208E-05 -6.16558577161E-01 +7.49843938753E-01
1.17500000000E+09 -4.43960347683E-01 +8.18241108777E-01 +8.22940587380E-05 -4.51920646475E-05 +4.73455970875E-05 -5.61796879603E-05 -6.10985858846E-01 +7.52820777048E-01
1.18000000000E+09 -4.36313404813E-01 +8.21975702228E-01 +4.03919638113E-05 -6.70745057671E-05 +5.68820879959E-05 -5.40649470759E-05 -6.05437184871E-01 +7.55929644625E-01
1.18500000000E+09 -4.28721143288E-01 +8.25124675106E-01 +6.03418141054E-05 -6.81622710615E-05 +3.08501754949E-06 -1.17817204932E-05 -5.99590478016E-01 +7.58952899658E-01
1.19000000000E+09 -4.21891138013E-01 +8.27976573889E-01 +4.43580130324E-05 -6.93232379858E-05 +6.75893517842E-05 -6.56286559239E-05 -5.93421463588E-01 +7.61523602288E-01
1.19500000000E+09 -4.15929288904E-01 +8.29761584483E-01 +9.29852997746E-05 -1.11756114528E-04 +5.02019747887E-05 -1.49295200354E-04 -5.87579400077E-01 +7.62636223488E-01
1.20000000000E+09 -4.11054205424E-01 +8.30568470813E-01 -8.93725555791E-06 -1.45271627941E-04 +4.45207655399E-05 -1.31714444901E-04 -5.83048427752E-01 +7.62783191284E-01
1.20500000000E+09 -4.06252319063E-01 +8.31428502774E-01 -3.42702512088E-05 -1.48963393804E-04 -1.01776682835E-05 -1.67637292311E-04 -5.80797689974E-01 +7.63764998948E-01
1.21000000000E+09 -4.01188910699E-01 +8.32307296458E-01 -3.38557856057E-05 -1.01181371363E-04 -8.98789326090E-05 -9.19450571631E-05 -5.78779920102E-01 +7.67058977840E-01
1.21500000000E+09 -3.94755263435E-01 +8.33558571142E-01 -8.50995216258E-05 -9.01235924617E-05 -5.83386608910E-05 -1.92567037418E-05 -5.75803690541E-01 +7.71459391894E-01
1.22000000000E+09 -3.86879496396E-01 +8.35328500327E-01 -3.33372024052E-05 -1.22396707151E-05 -7.45145230375E-05 +9.29149318919E-06 -5.71610695969E-01 +7.77025834632E-01
1.22500000000E+09 -3.77472464960E-01 +8.38031222496E-01 +1.32725418860E-05 -6.28482502472E-05 -2.65894226717E-05 -4.52265746886E-05 -5.66507323900E-01 +7.82092939601E-01
1.23000000000E+09 -3.67065865817E-01 +8.41263567507E-01 -1.89752876058E-05 -3.71300878252E-05 -2.91193701055E-05 -3.42457372549E-05 -5.60680459306E-01 +7.86800098781E-01
1.23500000000E+09 -3.56588646839E-01 +8.44952398192E-01 -3.90913384385E-05 -7.84045289629E-05 -8.05680326321E-05 -3.96255619229E-05 -5.54934792041E-01 +7.90981475850E-01
1.24000000000E+09 -3.46108541840E-01 +8.48823762139E-01 -6.55391893851E-05 -7.89651941539E-05 -5.01436059215E-05 -1.05636018050E-04 -5.49022800495E-01 +7.94929499701E-01
1.24500000000E+09 -3.36909639211E-01 +8.52824424887E-01 -4.38108230183E-05 +1.07646168632E-05 -5.49646017270E-05 -5.39606860579E-05 -5.42806415329E-01 +7.98813633659E-01
1.25000000000E+09 -3.28847523776E-01 +8.56125083424E-01 -8.35513166148E-05 -5.66450318636E-05 -7.99657837484E-05 -3.98607869956E-05 -5.36240887349E-01 +8.02998112658E-01
1.25500000000E+09 -3.22185834663E-01 +8.58302761369E-01 -5.86727863384E-05 -7.19566739218E-05 -9.66518074995E-05 -8.48605354770E-05 -5.29503861593E-01 +8.06967437343E-01
1.26000000000E+09 -3.16618950536E-01 +8.59640160566E-01 -6.97633615629E-05 -6.99727051586E-05 -1.05347751877E-04 -7.09560525554E-05 -5.22899324377E-01 +8.11062100234E-01
1.26500000000E+09 -3.11476271204E-01 +8.60338627931E-01 -8.57283859086E-05 -2.02104940256E-05 -6.38879752540E-05 -1.47283638034E-05 -5.15887502008E-01 +8.14857444921E-01
1.27000000000E+09 -3.05826098151E-01 +8.60806061633E-01 -5.93901361269E-05 -1.31236770660E-05 -8.58617046630E-05 -1.86491439583E-05 -5.09012035187E-01 +8.18811289769E-01
1.27500000000E+09 -2.98841269086E-01 +8.61473509920E-01 -6.73489333564E-05 -4.28081815663E-05 -8.78324537815E-05 -4.97693946816E-05 -5.01934678860E-01 +8.22284052841E-01
1.28000000000E+09 -2.89817970745E-01 +8.62675858235E-01 -5.63937649102E-05 -3.12301759516E-05 -8.10291244174E-05 -3.53411664117E-05 -4.94742555482E-01 +8.25944636847E-01
1.28500000000E+09 -2.78924886402E-01 +8.64255482771E-01 -4.71322495106E-05 -1.00572963153E-05 -6.51335877072E-05 +1.51521637984E-05 -4.87201015345E-01 +8.29757660484E-01
1.29000000000E+09 -2.67013872259E-01 +8.66755390522E-01 -2.33732464765E-05 -4.46373572282E-05 -8.75796935722E-05 -8.16861261655E-06 -4.79623685536E-01 +8.33459361898E-01
1.29500000000E+09 -2.54442570403E-01 +8.69964665590E-01 -6.91247020860E-05 -1.61571460795E-05 -1.04075092872E-04 +3.09382763693E-05 -4.71755362879E-01 +8.36993490366E-01
1.30000000000E+09 -2.42004464329E-01 +8.73393510119E-01 -1.17410002903E-04 -5.10530349848E-06 -1.40146772620E-04 -3.35853285975E-05 -4.63844656114E-01 +8.40528929963E-01
1.30500000000E+09 -2.30727114364E-01 +8.76622782702E-01 -1.26725608650E-04 +3.91875663256E-06 -7.32466694290E-05 -3.38114512051E-05 -4.55796075392E-01 +8.43989415689E-01
1.31000000000E+09 -2.21055506913E-01 +8.78764647504E-01 -6.72387070190E-05 +1.34290484767E-05 -7.98424347919E-05 -2.65556996215E-06 -4.47399726996E-01 +8.47457955222E-01
1.31500000000E+09 -2.13497930395E-01 +8.79955775863E-01 -9.02621434930E-05 +2.89191560852E-05 -9.10467710488E-05 -2.40380850825E-05 -4.38688523117E-01 +8.50979707105E-01
1.32000000000E+09 -2.07207900010E-01 +8.80194894940E-01 -1.19712524395E-04 -2.51977761278E-05 -6.01169723966E-05 -3.43696599434E-05 -4.29634990941E-01 +8.54231454304E-01
1.32500000000E+09 -2.01350220835E-01 +8.79553577988E-01 -1.08393857357E-04 +2.82234735139E-05 -1.70576208992E-04 +8.20573554522E-06 -4.20053544265E-01 +8.57676000112E-01
1.33000000000E+09 -1.94936116797E-01 +8.78570677727E-01 -1.63781616350E-04 +7.96142705470E-06 -1.76470809729E-04 +1.23225032467E-05 -4.10481696174E-01 +8.60736342086E-01
1.33500000000E+09 -1.86427958242E-01 +8.77388445708E-01 -2.13508328802E-04 +5.72346563262E-05 -1.64077926298E-04 +8.63552017517E-05 -4.00774921514E-01 +8.63894785472E-01
1.34000000000E+09 -1.75687928928E-01 +8.76641379889E-01 -1.75376107606E-04 +9.94502413758E-05 -1.65127179247E-04 +1.22051983223E-04 -3.90656082748E-01 +8.67149361085E-01
1.34500000000E+09 -1.62443408252E-01 +8.76088788183E-01 -1.54431155826E-04 +1.85640546033E-04 -1.79073278852E-04 +1.61675348640E-04 -3.79640869590E-01 +8.70520013436E-01
1.35000000000E+09 -1.47354959884E-01 +8.76207933066E-01 -1.28876814843E-04 +1.30612257081E-04 -1.43098432005E-04 +1.74756046696E-04 -3.68506892843E-01 +8.73484889227E-01
1.35500000000E+09 -1.31220119486E-01 +8.77039171321E-01 -1.46580462989E-04 +1.52688046422E-04 -1.30780170172E-04 +1.96332638920E-04 -3.56751511867E-01 +8.76409410128E-01
1.36000000000E+09 -1.14884882938E-01 +8.78088405823E-01 -2.04001379766E-04 +1.75625475942E-04 -1.98822563711E-04 +2.18389310690E-04 -3.44687116763E-01 +8.79160882758E-01
1.36500000000E+09 -9.94671575694E-02 +8.78809678067E-01 -1.47907223672E-04 +2.84624032381E-04 -1.45207517029E-04 +2.86646784539E-04 -3.32441978411E-01 +8.81439886128E-01
1.37000000000E+09 -8.54855344521E-02 +8.78959617355E-01 -1.44798403153E-04 +3.01811742126E-04 -1.40906578404E-04 +2.75601745834E-04 -3.19570035399E-01 +8.83811842389E-01
1.37500000000E+09 -7.35873325938E-02 +8.78344158921E-01 -3.53725571472E-05 +4.16504556248E-04 -5.63504918689E-05 +4.03873387934E-04 -3.05704158187E-01 +8.86045166220E-01
1.38000000000E+09 -6.26795461429E-02 +8.76733034252E-01 +3.87733426854E-05 +3.36455899009E-04 +1.40743730532E-05 +3.77212823533E-04 -2.91215017067E-01 +8.88128988153E-01
1.38500000000E+09 -5.17611097909E-02 +8.74562862626E-01 +1.01482549852E-04 +3.25278401187E-04 +6.42126562521E-05 +3.86172840272E-04 -2.75702142810E-01 +8.90018415689E-01
1.39000000000E+09 -3.99522772185E-02 +8.71398387683E-01 +1.10339546145E-04 +3.20539555640E-04 +1.11635741322E-04 +3.53525725363E-04 -2.59714967514E-01 +8.91413519467E-01
1.39500000000E+09 -2.61775442560E-02 +8.67299330842E-01 +7.36969575648E-05 +3.19143345219E-04 +1.17205514714E-04 +3.50039357451E-04 -2.42953471303E-01 +8.91970315257E-01
1.40000000000E+09 -9.53526997017E-03 +8.62662122254E-01 +1.38671591847E-04 +3.33382480497E-04 +1.53452506746E-04 +3.66878277498E-04 -2.25620589938E-01 +8.92367973462E-01
1.40500000000E+09 +9.03276773594E-03 +8.57470889362E-01 +1.23304841387E-04 +4.26938827079E-04 +1.80884624191E-04 +4.30398618592E-04 -2.07287140345E-01 +8.91874911297E-01
1.41000000000E+09 +2.95943548203E-02 +8.52051357091E-01 +2.83261447741E-04 +4.51502722210E-04 +2.27420968640E-04 +4.34214821515E-04 -1.87321276375E-01 +8.91052175095E-01
1.41500000000E+09 +5.11987519783E-02 +8.46323566288E-01 +4.23495588965E-04 +4.22490692055E-04 +4.25572699927E-04 +4.73897394712E-04 -1.65863759591E-01 +8.89630178739E-01
1.42000000000E+09 +7.30943050520E-02 +8.40307774905E-01 +5.76385170999E-04 +2.62201360378E-04 +5.81125592624E-04 +2.77418512801E-04 -1.43079918987E-01 +8.86981596487E-01
1.42500000000E+09 +9.44669629729E-02 +8.33025924637E-01 +4.52788134690E-04 +2.49841011930E-04 +4.79583357934E-04 +2.18690915304E-04 -1.19488738375E-01 +8.83182425234E-01
1.43000000000E+09 +1.14418508108E-01 +8.24240084952E-01 +6.00225980354E-04 +3.06468294112E-04 +7.07834792021E-04 +2.44008650938E-04 -9.49115156249E-02 +8.78348706673E-01
1.43500000000E+09 +1.33465325153E-01 +8.13992231036E-01 +7.57897099579E-04 +7.57558052023E-05 +7.85213783530E-04 -1.18135982046E-05 -6.88106414794E-02 +8.71715299419E-01
1.44000000000E+09 +1.52885439925E-01 +8.01819769772E-01 +6.74771809086E-04 -3.15283704736E-05 +6.59253043653E-04 -4.37984796674E-05 -4.09740329599E-02 +8.63279054532E-01
1.44500000000E+09 +1.73345877396E-01 +7.86451120192E-01 +7.36364127358E-04 -6.26528891000E-06 +8.10297386947E-04 -5.28160984010E-05 -1.07105215806E-02 +8.52242108122E-01
1.45000000000E+09 +1.95724410492E-01 +7.67839604664E-01 +7.94211363495E-04 -1.39924144270E-04 +7.73511226722E-04 -1.88605457138E-04 +2.12380556987E-02 +8.37641747563E-01
1.45500000000E+09 +2.20389872258E-01 +7.45807114555E-01 +8.68615720097E-04 -1.57796703197E-04 +8.49504568398E-04 -2.66153707651E-04 +5.44871145420E-02 +8.19913663974E-01
1.46000000000E+09 +2.47887950595E-01 +7.19836278559E-01 +1.02825520511E-03 -4.23403051828E-04 +9.56015997229E-04 -4.71927572327E-04 +8.88278287116E-02 +7.98265149785E-01
1.46500000000E+09 +2.76904960964E-01 +6.90024701559E-01 +1.05777499654E-03 -7.99687483789E-04 +9.31809039098E-04 -7.81017391451E-04 +1.24752257846E-01 +7.71662881159E-01
1.47000000000E+09 +3.06959349224E-01 +6.56110940056E-01 +7.69274530800E-04 -1.00973461369E-03 +7.33676337653E-04 -9.07940581857E-04 +1.60877788840E-01 +7.38644189965E-01
1.47500000000E+09 +3.36335445827E-01 +6.17387577463E-01 +5.76989127075E-04 -1.18770975857E-03 +5.47067775703E-04 -1.17255456748E-03 +1.98534812096E-01 +6.98600433016E-01
1.48000000000E+09 +3.63303490120E-01 +5.73033219353E-01 +4.48524443583E-04 -1.08814613581E-03 +4.17011068753E-04 -1.09850313971E-03 +2.35171504019E-01 +6.49029862325E-01
1.48500000000E+09 +3.85210510218E-01 +5.23126643811E-01 +5.45851618853E-04 -1.33822729167E-03 +5.00285753911E-04 -1.43442566842E-03 +2.69179963108E-01 +5.90576224878E-01
1.49000000000E+09 +4.01951657337E-01 +4.66296067630E-01 +2.13187623297E-04 -1.66897573834E-03 +9.79879207844E-05 -1.70411231356E-03 +2.97882633328E-01 +5.21295911036E-01
1.49500000000E+09 +4.11067880930E-01 +4.01696458621E-01 +1.06888650285E-04 -1.82413539733E-03 -4.84997306956E-05 -1.75179161197E-03 +3.16766092679E-01 +4.41747353476E-01
1.50000000000E+09 +4.11262784875E-01 +3.28334930030E-01 -3.97206679673E-04 -2.80710542782E-03 -3.91043733993E-04 -2.61469602846E-03 +3.22299132415E-01 +3.52326636504E-01
1.50500000000E+09 +3.99311046798E-01 +2.46559503344E-01 -2.26507412243E-03 -2.41374793709E-03 -2.06744866622E-03 -2.34362665583E-03 +3.11225312795E-01 +2.56800631954E-01
1.51000000000E+09 +3.71309017891E-01 +1.59493011744E-01 -2.35845795759E-03 -1.03966095869E-03 -2.25647753013E-03 -1.05954032236E-03 +2.81032928218E-01 +1.56088746668E-01
1.51500000000E+09 +3.26491731475E-01 +7.28965307272E-02 -2.37763872804E-03 -8.10579374168E-04 -2.35205365746E-03 -8.43586478465E-04 +2.26995605727E-01 +5.73872083359E-02
1.52000000000E+09 +2.64105906577E-01 -8.23364899711E-03 -2.77933754732E-03 -1.98993421280E-04 -2.82869008541E-03 -1.83318633284E-04 +1.50270729415E-01 -2.96521479865E-02
1.52500000000E+09 +1.84644456935E-01 -7.73926291871E-02 -2.23629250240E-03 +7.35276179578E-04 -2.27147160792E-03 +7.28435200075E-04 +5.52005450205E-02 -9.87583822555E-02
1.53000000000E+09 +8.91366765160E-02 -1.27820356595E-01 -2.36647442675E-03 +4.32424293102E-04 -2.36053222729E-03 +4.19898528259E-04 -5.26101405637E-02 -1.44615217815E-01
1.53500000000E+09 -1.59831735958E-02 -1.53661301951E-01 -3.02169855773E-03 +1.60612454396E-03 -3.06279620340E-03 +1.62444991736E-03 -1.65442628057E-01 -1.64737552252E-01
1.54000000000E+09 -1.23229012207E-01 -1.52706628893E-01 -1.89986382219E-03 +3.10393262112E-03 -1.92512114678E-03 +3.04656886883E-03 -2.74901957398E-01 -1.61121662015E-01
1.54500000000E+09 -2.25036716491E-01 -1.29016878332E-01 -2.27090711958E-04 +3.08705658248E-03 -2.68614469781E-04 +3.04655249210E-03 -3.73702914912E-01 -1.37796350102E-01
1.55000000000E+09 -3.16461094452E-01 -8.77261759090E-02 +5.04693178332E-04 +2.68898260407E-03 +4.12452903707E-04 +2.71484853462E-03 -4.60554514905E-01 -1.00256426025E-01
1.55500000000E+09 -3.95173247452E-01 -3.52280477083E-02 +1.34034682686E-03 +2.18065764626E-03 +1.19794355266E-03 +2.26043722884E-03 -5.31985714059E-01 -5.10684455903E-02
1.56000000000E+09 -4.59858572669E-01 +2.35769216505E-02 +1.59132116853E-03 +1.14589122911E-03 +1.61675412322E-03 +1.27733812739E-03 -5.88361682556E-01 +2.50016812935E-03
1.56500000000E+09 -5.09222060256E-01 +8.38059504036E-02 +1.25927404854E-03 +5.21725361931E-04 +1.29692649916E-03 +5.74762139512E-04 -6.32992583755E-01 +5.83232919143E-02
1.57000000000E+09 -5.46675105381E-01 +1.41859647890E-01 +1.06654206054E-03 +4.71473030703E-04 +1.10648189489E-03 +4.61275545533E-04 -6.65760819974E-01 +1.14052510119E-01
