# Hz S RI R 50
! CMT, C1220, 16058040, 17.2.0/1
! Date: 14/08/2018 12:33:45
! Data: Format (Calibration Info)
! Freq                      S11: Re/Im (F2)                       S21: Re/Im (F2)                       S12: Re/Im (F2)                       S22: Re/Im (F2)            
1.00000000000E+09 -6.33592020235E-01 +7.08761064221E-01 -2.15115613601E-05 +3.93811580166E-06 +2.54599752330E-05 -3.47112446414E-05 -7.53244411029E-01 +6.23977657962E-01
1.00500000000E+09 -6.26596020740E-01 +7.13773577108E-01 -8.98362113462E-06 -1.00934096727E-05 -1.50385094082E-05 -2.00320288030E-06 -7.49592288813E-01 +6.28039556421E-01
1.01000000000E+09 -6.20418438195E-01 +7.18436897133E-01 -3.24981138437E-05 +9.09523089277E-06 -4.88827151898E-05 -2.42437744146E-06 -7.46140337994E-01 +6.31602056164E-01
1.01500000000E+09 -6.15549489291E-01 +7.22410581033E-01 -1.67202342177E-05 +5.78608519302E-09 -1.83752138385E-05 -2.14881294614E-05 -7.42898874401E-01 +6.35225674742E-01
1.02000000000E+09 -6.12119283507E-01 +7.25967540477E-01 -1.99195695721E-05 -5.03337725593E-05 -4.39170428906E-05 +1.20599843525E-05 -7.39642318416E-01 +6.38863425201E-01
1.02500000000E+09 -6.09463752808E-01 +7.28820688789E-01 -4.93965923135E-05 -7.92457141616E-07 -2.02332837741E-05 +1.52928081191E-05 -7.36823264824E-01 +6.42441159206E-01
1.03000000000E+09 -6.07259813723E-01 +7.31284980436E-01 -5.97266092574E-06 +2.46937931283E-05 +3.07195299140E-05 +5.43150680777E-06 -7.33303668479E-01 +6.46267868981E-01
1.03500000000E+09 -6.04527751501E-01 +7.33791706874E-01 -3.72988273024E-05 -3.48609579982E-05 -6.02075823296E-05 -3.59830076166E-05 -7.29473881570E-01 +6.50156595563E-01
1.04000000000E+09 -6.00595137630E-01 +7.36516474553E-01 +2.32585699962E-05 +3.27025246655E-05 +2.83215558330E-06 +4.82167667021E-05 -7.25727372999E-01 +6.53947817992E-01
1.04500000000E+09 -5.95547991086E-01 +7.39979716510E-01 -1.09765450004E-05 +1.58548505538E-05 +3.92844840622E-05 +5.46708345495E-05 -7.22216997070E-01 +6.57384925837E-01
1.05000000000E+09 -5.88708894303E-01 +7.43880159584E-01 -3.73923734728E-05 +5.92543711220E-05 -3.84387120086E-05 -1.01856444646E-05 -7.18737200889E-01 +6.60941643322E-01
1.05500000000E+09 -5.80850560986E-01 +7.48195864284E-01 +5.85625174551E-06 -8.62678416549E-06 +8.78298486797E-06 +5.38422903592E-06 -7.15508943320E-01 +6.64338208836E-01
1.06000000000E+09 -5.72332268273E-01 +7.53009188162E-01 -3.08555379070E-05 +1.02833750744E-05 +3.45391243021E-05 -7.39288891474E-05 -7.12198753451E-01 +6.68120986348E-01
1.06500000000E+09 -5.64342339255E-01 +7.57947315985E-01 -6.26530664567E-06 +6.74511585124E-06 +1.63510669417E-05 +4.15314853396E-05 -7.08425525895E-01 +6.72064949928E-01
1.07000000000E+09 -5.57245367374E-01 +7.62234415261E-01 +4.01386665590E-06 +5.51597458368E-05 -2.65441975823E-05 +4.95252735795E-05 -7.04330272240E-01 +6.75679095827E-01
1.07500000000E+09 -5.51191389529E-01 +7.66245388689E-01 -3.11708572306E-05 +5.50643132782E-05 -2.84310593632E-05 +5.63375245150E-05 -6.99833501171E-01 +6.79363257301E-01
1.08000000000E+09 -5.47133669757E-01 +7.69607606384E-01 +3.89105250029E-05 +5.28231231333E-05 +9.07629076220E-06 +3.94028236640E-05 -6.95981063288E-01 +6.83378063727E-01
1.08500000000E+09 -5.44124377435E-01 +7.72216501175E-01 +9.60716566409E-07 +4.83197567097E-05 +4.57865424406E-06 +1.61394526018E-05 -6.92240194525E-01 +6.86931054399E-01
1.09000000000E+09 -5.41533756894E-01 +7.74320051224E-01 -1.44531651322E-05 +2.40344656287E-05 +3.88730568869E-05 +1.01983645584E-05 -6.88506835455E-01 +6.90793364567E-01
1.09500000000E+09 -5.39167998332E-01 +7.76545282745E-01 +2.98371481685E-05 +4.65442059779E-05 +2.85685215701E-05 +1.27206950254E-05 -6.84808179550E-01 +6.94429130798E-01
1.10000000000E+09 -5.35674243310E-01 +7.78581245486E-01 +1.01006056058E-04 +2.04816508629E-05 +8.05421476326E-05 +4.48487222953E-05 -6.80905888697E-01 +6.98324258445E-01
1.10500000000E+09 -5.31154463465E-01 +7.81228363688E-01 +3.14849558066E-05 -2.34023357452E-06 +5.40215463613E-05 -1.51168766037E-06 -6.76575059438E-01 +7.01897495386E-01
1.11000000000E+09 -5.25034545873E-01 +7.84307515493E-01 +3.43306458645E-05 +8.21485427943E-06 +3.74649059747E-06 +1.34012028950E-05 -6.72368896728E-01 +7.05271901546E-01
1.11500000000E+09 -5.17902250718E-01 +7.88127735030E-01 +3.53258860213E-05 +1.04347436749E-05 +1.74461073228E-05 +3.81682041956E-06 -6.68378296151E-01 +7.08644894360E-01
1.12000000000E+09 -5.10229681478E-01 +7.91966426136E-01 +7.08199371674E-06 -7.64356474501E-06 +1.43200820894E-06 -9.34258687228E-06 -6.64281402599E-01 +7.12480400865E-01
1.12500000000E+09 -5.02510717495E-01 +7.95980300486E-01 +6.69391604277E-06 +1.75492869899E-05 +3.86396710528E-05 +7.65160618956E-05 -6.60083984505E-01 +7.16223142154E-01
1.13000000000E+09 -4.95625426421E-01 +7.99457876227E-01 +3.43504455620E-06 -2.37018906097E-06 -2.20471371828E-06 -1.40952621831E-05 -6.55823791080E-01 +7.20025772840E-01
1.13500000000E+09 -4.89747613376E-01 +8.02329804530E-01 +7.30175007115E-05 +1.05738265658E-05 +3.34181145606E-05 +4.11792989420E-06 -6.50969593309E-01 +7.23965546931E-01
1.14000000000E+09 -4.85017030072E-01 +8.04590147715E-01 +4.08604596870E-05 -3.13856676723E-05 +5.48922168317E-05 -3.04219649585E-05 -6.46264110570E-01 +7.27351384988E-01
1.14500000000E+09 -4.81238782826E-01 +8.06308620483E-01 +3.89790233341E-05 +1.84959083427E-06 -1.60583206989E-05 +2.08987109472E-05 -6.41666635378E-01 +7.30847239511E-01
1.15000000000E+09 -4.77555126103E-01 +8.07775045737E-01 -3.16281735126E-06 -3.39973576278E-05 +8.42373698376E-05 -1.44153463895E-05 -6.37046985866E-01 +7.34639553687E-01
1.15500000000E+09 -4.74044187442E-01 +8.09171650906E-01 +4.67676748769E-05 -2.11051070908E-05 +2.94447498464E-05 -2.75544086685E-05 -6.32288280435E-01 +7.38412436947E-01
1.16000000000E+09 -4.69260313131E-01 +8.10932655051E-01 +1.83147985811E-05 +2.97754714941E-05 +5.26929505713E-06 +1.47805809689E-05 -6.27514392359E-01 +7.42363081217E-01
1.16500000000E+09 -4.63307888251E-01 +8.13571139891E-01 +6.03749558003E-05 +1.64622239822E-05 +5.42074155581E-05 +7.85037436529E-06 -6.22519321695E-01 +7.45999213654E-01
1.17000000000E+09 -4.56218118649E-01 +8.16463305769E-01 +6.81912804610E-05 +2.06301365926E-05 +8.65198376032E-05 -3.46438605700E-05 -6.17050958914E-01 +7.49206796499E-01
1.17500000000E+09 -4.48266189679E-01 +8.19831131736E-01 +1.64425977605E-05 -6.85813082005E-05 +7.62962207374E-05 -4.28699787566E-05 -6.11321783206E-01 +7.52364816514E-01
1.18000000000E+09 -4.39993144090E-01 +8.23390703491E-01 +2.66495953782E-05 -5.75861576519E-05 +2.37621752264E-05 -6.71923137639E-05 -6.05933137305E-01 +7.55534233284E-01
1.18500000000E+09 -4.31954068110E-01 +8.26654001218E-01 +6.93948334591E-05 -2.08117935552E-05 +8.94329994353E-05 -1.30503047453E-05 -6.00178043353E-01 +7.58511773605E-01
1.19000000000E+09 -4.24664664529E-01 +8.29345204198E-01 +8.10184736708E-05 -8.97946634494E-05 +3.91520480673E-05 -2.35060896738E-05 -5.93928630900E-01 +7.61101996090E-01
1.19500000000E+09 -4.18508056366E-01 +8.31417549770E-01 +8.62288606531E-05 -1.34535729283E-04 +3.34566432207E-05 -1.44926177078E-04 -5.87942514060E-01 +7.62241154495E-01
1.20000000000E+09 -4.13375656672E-01 +8.32348776701E-01 +2.90904137196E-05 -1.90483792489E-04 +1.86024453950E-05 -1.65329320366E-04 -5.83634832036E-01 +7.62319514617E-01
1.20500000000E+09 -4.08928512859E-01 +8.33492795468E-01 -7.85753061552E-05 -1.08544676381E-04 -5.49518254904E-05 -9.67404681230E-05 -5.81319887354E-01 +7.63260806091E-01
1.21000000000E+09 -4.04193813442E-01 +8.34513236204E-01 -4.74980386603E-05 -6.02523243027E-05 -6.66233790804E-05 -9.63102807112E-05 -5.79219663144E-01 +7.66542923694E-01
1.21500000000E+09 -3.98086791337E-01 +8.35680727522E-01 -5.60831107064E-05 -8.20891478562E-05 -1.11980355901E-04 -7.22589591514E-06 -5.76346379356E-01 +7.71181311193E-01
1.22000000000E+09 -3.90897051715E-01 +8.37436874919E-01 -6.77383871146E-06 -6.04389007882E-05 -5.53511248449E-05 -5.81640446292E-05 -5.72351802045E-01 +7.76585226179E-01
1.22500000000E+09 -3.82059119065E-01 +8.39804659513E-01 -1.23527273000E-05 -4.51743791127E-05 -4.21249557798E-05 -5.60390722395E-05 -5.67010666861E-01 +7.81595366916E-01
1.23000000000E+09 -3.72022023595E-01 +8.42586329236E-01 -3.45417457501E-05 -6.58717596828E-05 -4.41124501909E-05 -9.11602435245E-05 -5.61484959103E-01 +7.86374072117E-01
1.23500000000E+09 -3.61729904598E-01 +8.46123380078E-01 -3.52395057879E-05 -5.04284362131E-05 -6.49011495044E-05 -8.87764373797E-05 -5.55659482776E-01 +7.90608806451E-01
1.24000000000E+09 -3.51648003075E-01 +8.49779192195E-01 -4.54751283144E-05 -7.13720609322E-05 -3.87755613103E-05 -8.65526241995E-05 -5.49592242036E-01 +7.94500255703E-01
1.24500000000E+09 -3.42379278426E-01 +8.53698674623E-01 -8.75071050635E-05 -8.99110960870E-05 -4.17049038250E-05 -8.51234032741E-05 -5.43411034419E-01 +7.98296515675E-01
1.25000000000E+09 -3.34205346802E-01 +8.57290650120E-01 -3.76451479862E-05 -8.22244672243E-05 -4.91180852606E-05 -3.91311580719E-05 -5.36900320848E-01 +8.02406209261E-01
1.25500000000E+09 -3.27147075240E-01 +8.59766318337E-01 -9.23856122171E-05 -4.53996349535E-05 -1.18430441497E-04 -4.47238065953E-05 -5.30150029742E-01 +8.06487055741E-01
1.26000000000E+09 -3.21008935423E-01 +8.61556391704E-01 -7.38776663899E-05 -6.23097102607E-05 -9.60717124240E-05 -3.05390703996E-05 -5.23587886952E-01 +8.10619330106E-01
1.26500000000E+09 -3.15247477987E-01 +8.62565175251E-01 -8.67402000205E-05 +9.34126088877E-06 -8.90438691466E-05 -2.17260518941E-05 -5.16598471832E-01 +8.14351534199E-01
1.27000000000E+09 -3.09078966631E-01 +8.63225786727E-01 -9.99922382280E-05 +7.52217644921E-06 -8.87543382288E-05 -2.01630887659E-05 -5.09782460632E-01 +8.18229367626E-01
1.27500000000E+09 -3.01711860827E-01 +8.63898218797E-01 -8.36744257365E-05 -2.44363409337E-06 -4.94081568895E-05 -8.46676297778E-06 -5.02554481134E-01 +8.21747848110E-01
1.28000000000E+09 -2.92452616804E-01 +8.64711457999E-01 -8.86166807655E-05 -5.80714956470E-06 -9.54398777409E-05 +1.12908627895E-05 -4.95493523148E-01 +8.25419605489E-01
1.28500000000E+09 -2.81590151044E-01 +8.66060712073E-01 -6.24452743694E-05 +4.34038768458E-05 -9.96280099384E-05 +6.84796281532E-06 -4.88047781453E-01 +8.29154653281E-01
1.29000000000E+09 -2.69868665647E-01 +8.67939103935E-01 -5.98355081713E-05 +2.30489799398E-05 -9.06204210034E-05 +6.55526747821E-05 -4.80469643245E-01 +8.32906546643E-01
1.29500000000E+09 -2.57749574436E-01 +8.70504486148E-01 -5.92941163233E-05 +3.41302120908E-05 -7.47449752635E-05 +1.82274241652E-05 -4.72471329450E-01 +8.36450943595E-01
1.30000000000E+09 -2.46067445793E-01 +8.73679468415E-01 -9.67333751553E-05 -2.32631394340E-06 -8.52099035833E-05 +2.69019559995E-05 -4.64593306597E-01 +8.40017184560E-01
1.30500000000E+09 -2.35449386672E-01 +8.76852644387E-01 -8.53064051761E-05 +5.87330999816E-05 -1.12364280927E-04 +8.06046397371E-05 -4.56714526291E-01 +8.43472364169E-01
1.31000000000E+09 -2.26222701923E-01 +8.79549061776E-01 -7.79958482157E-05 +2.75623695598E-05 -7.52602987636E-05 -6.77983637306E-06 -4.48246344207E-01 +8.46929659301E-01
1.31500000000E+09 -2.18841296488E-01 +8.81430610908E-01 -7.25019570159E-05 +5.77595920202E-05 -6.92732073847E-05 +3.83925444827E-05 -4.39462568108E-01 +8.50400667703E-01
1.32000000000E+09 -2.12536535963E-01 +8.82249019036E-01 -5.22580606890E-05 +2.47898272118E-05 -1.02030986130E-04 -2.74883068420E-06 -4.30561790036E-01 +8.53822129665E-01
1.32500000000E+09 -2.06550306596E-01 +8.82260202478E-01 -1.01624926690E-04 +1.08916134343E-05 -1.21419458307E-04 +7.36435941230E-05 -4.21085892807E-01 +8.57169819356E-01
1.33000000000E+09 -1.99682469353E-01 +8.81667666410E-01 -1.26698153506E-04 +1.79837865099E-05 -1.83383929869E-04 +5.54130090833E-05 -4.11571181966E-01 +8.60316855266E-01
1.33500000000E+09 -1.90923722334E-01 +8.80648689780E-01 -1.67604774674E-04 +7.96667552529E-05 -1.69602360087E-04 +8.04401521053E-05 -4.01879891057E-01 +8.63501227034E-01
1.34000000000E+09 -1.79731118041E-01 +8.79601030254E-01 -1.88404853373E-04 +1.44010310351E-04 -1.78795373231E-04 +1.02553800344E-04 -3.91637344125E-01 +8.66745864926E-01
1.34500000000E+09 -1.66301664123E-01 +8.78548738386E-01 -1.40829255074E-04 +1.59682450084E-04 -1.27325986262E-04 +1.57966659694E-04 -3.80832995419E-01 +8.70020182917E-01
1.35000000000E+09 -1.51087215955E-01 +8.78077954624E-01 -1.04797195188E-04 +1.61780971672E-04 -1.24830510886E-04 +1.41381819588E-04 -3.69606484216E-01 +8.73134645317E-01
1.35500000000E+09 -1.34875586207E-01 +8.78283767097E-01 -1.24488037584E-04 +1.90277920139E-04 -1.37542293624E-04 +1.84981266926E-04 -3.57928154340E-01 +8.76134585720E-01
1.36000000000E+09 -1.18663589849E-01 +8.78999328149E-01 -1.18948845212E-04 +2.32201521384E-04 -1.19384759383E-04 +2.03869537307E-04 -3.45846091553E-01 +8.78929245492E-01
1.36500000000E+09 -1.03250348756E-01 +8.79710260498E-01 -1.08408169898E-04 +3.14125886443E-04 -8.53543950371E-05 +3.06414792346E-04 -3.33816522328E-01 +8.81290647844E-01
1.37000000000E+09 -8.91446723396E-02 +8.80038886946E-01 -8.96410090535E-05 +3.80273997869E-04 -6.94320659939E-05 +3.16586055530E-04 -3.20997374546E-01 +8.83605326684E-01
1.37500000000E+09 -7.69401969609E-02 +8.79568953744E-01 +3.46202256198E-05 +3.90030452748E-04 +3.77162110144E-06 +3.84433551847E-04 -3.07257112520E-01 +8.86044215459E-01
1.38000000000E+09 -6.61379199864E-02 +8.78536300055E-01 +9.17561974996E-05 +3.52905983422E-04 +6.63803539557E-05 +3.62907643334E-04 -2.92532252912E-01 +8.88133736395E-01
1.38500000000E+09 -5.51025492370E-02 +8.76752274602E-01 +1.03519895002E-04 +3.58597693252E-04 +1.60907817799E-04 +4.56784210129E-04 -2.77171080942E-01 +8.90008931817E-01
1.39000000000E+09 -4.34474582492E-02 +8.73945306729E-01 +1.35527515747E-04 +3.33005517859E-04 +2.27191329445E-04 +4.04004536688E-04 -2.61230382722E-01 +8.91495600426E-01
1.39500000000E+09 -2.97273609553E-02 +8.70177110417E-01 +1.86128721443E-04 +3.03238788643E-04 +2.56859249383E-04 +3.77269171887E-04 -2.44575909001E-01 +8.92279525072E-01
1.40000000000E+09 -1.35169309401E-02 +8.65456728134E-01 +2.43563394935E-04 +3.84726389164E-04 +2.79628166417E-04 +3.68956863257E-04 -2.27184862939E-01 +8.92733464655E-01
1.40500000000E+09 +4.90560348296E-03 +8.60215396199E-01 +3.01503473868E-04 +4.03893228436E-04 +2.87394537376E-04 +3.86546789771E-04 -2.08794556645E-01 +8.92501239579E-01
1.41000000000E+09 +2.51545738336E-02 +8.54536358688E-01 +3.97927020873E-04 +4.20497073039E-04 +3.87301288908E-04 +3.88810214036E-04 -1.88847872146E-01 +8.91842879049E-01
1.41500000000E+09 +4.65563673832E-02 +8.48615926145E-01 +5.28101155371E-04 +3.08835341439E-04 +5.28138173349E-04 +3.62633918050E-04 -1.67354333339E-01 +8.90444916960E-01
1.42000000000E+09 +6.85763845379E-02 +8.42456660917E-01 +6.12948913043E-04 +1.99628651790E-04 +6.35139812237E-04 +2.10143798178E-04 -1.44506193551E-01 +8.87934735544E-01
1.42500000000E+09 +9.00814604772E-02 +8.35301235796E-01 +5.58956214994E-04 +1.81246612455E-04 +6.41891714282E-04 +1.68069945904E-04 -1.20903450684E-01 +8.84404729671E-01
1.43000000000E+09 +1.10444855458E-01 +8.26539565383E-01 +7.50546680881E-04 +2.55038550732E-04 +8.07828123182E-04 +1.41054997510E-04 -9.62467625621E-02 +8.79781930983E-01
1.43500000000E+09 +1.29935927222E-01 +8.16388544817E-01 +8.67040418278E-04 -3.09510254055E-05 +9.25356472339E-04 -1.52177016812E-04 -7.00497132034E-02 +8.73449008988E-01
1.44000000000E+09 +1.49636146351E-01 +8.04357695043E-01 +7.16104500273E-04 -2.13237454668E-04 +7.53803901101E-04 -2.74087979467E-04 -4.18770225620E-02 +8.65065213501E-01
1.44500000000E+09 +1.70276338088E-01 +7.89174266705E-01 +8.06069078081E-04 -2.01099923226E-04 +7.89394861890E-04 -2.63019157543E-04 -1.14656688216E-02 +8.53958325757E-01
1.45000000000E+09 +1.92618950550E-01 +7.70683708265E-01 +7.59959279841E-04 -3.44941828745E-04 +7.85802738397E-04 -4.12407752156E-04 +2.05643988505E-02 +8.39562780218E-01
1.45500000000E+09 +2.17215189568E-01 +7.48525179434E-01 +8.94051134814E-04 -3.73668668766E-04 +8.83701025052E-04 -4.54695897489E-04 +5.40709925543E-02 +8.22137336074E-01
1.46000000000E+09 +2.44298710458E-01 +7.22434847322E-01 +1.11867300464E-03 -6.40540457186E-04 +1.00245176130E-03 -7.33959795553E-04 +8.89433556830E-02 +8.00713848795E-01
1.46500000000E+09 +2.72766544673E-01 +6.92558263915E-01 +9.93175114277E-04 -1.11207610335E-03 +8.62483041998E-04 -1.07502448023E-03 +1.25114803683E-01 +7.74057615964E-01
1.47000000000E+09 +3.02304274868E-01 +6.58922249907E-01 +6.96667951493E-04 -1.35923997325E-03 +6.46465588889E-04 -1.23993698617E-03 +1.62095849410E-01 +7.41047417731E-01
1.47500000000E+09 +3.31825938282E-01 +6.20847755422E-01 +4.05485941383E-04 -1.53526514328E-03 +4.41557241019E-04 -1.46929821463E-03 +2.00127333455E-01 +7.00711028472E-01
1.48000000000E+09 +3.59470157335E-01 +5.76672216310E-01 +2.82316383038E-04 -1.47361260902E-03 +2.88038975764E-04 -1.46890548751E-03 +2.37342231360E-01 +6.50828262307E-01
1.48500000000E+09 +3.81956720398E-01 +5.26672032188E-01 +2.56874208890E-04 -1.83030569725E-03 +1.77047984857E-04 -1.92176768177E-03 +2.71774388352E-01 +5.92007256463E-01
1.49000000000E+09 +3.99222375819E-01 +4.69760718223E-01 -2.99012137301E-04 -2.17750839587E-03 -3.88806016221E-04 -2.19086986435E-03 +3.00883920078E-01 +5.22035437305E-01
1.49500000000E+09 +4.08500113736E-01 +4.05242683298E-01 -7.27407669835E-04 -2.25581490548E-03 -8.22750078594E-04 -2.10840681740E-03 +3.20223151955E-01 +4.41919988884E-01
1.50000000000E+09 +4.08984642043E-01 +3.32519554752E-01 -1.41648145556E-03 -2.88694887345E-03 -1.40038443736E-03 -2.69733512841E-03 +3.25906203576E-01 +3.51527658221E-01
1.50500000000E+09 +3.97763210460E-01 +2.51137146918E-01 -3.27195451016E-03 -2.22659641161E-03 -3.01528072762E-03 -2.23106881983E-03 +3.14725866453E-01 +2.54527190016E-01
1.51000000000E+09 +3.70577352875E-01 +1.63649217560E-01 -3.52798662218E-03 -5.89681340562E-04 -3.42050537968E-03 -6.91764142797E-04 +2.83355763184E-01 +1.52525111555E-01
1.51500000000E+09 +3.26116496332E-01 +7.61066889884E-02 -3.52136898120E-03 +1.03421646964E-04 -3.54192341065E-03 -4.85925570577E-05 +2.27759836070E-01 +5.38609431117E-02
1.52000000000E+09 +2.63549383821E-01 -6.40418151965E-03 -3.48542356066E-03 +1.25706199161E-03 -3.53474572105E-03 +1.23009311620E-03 +1.50321131888E-01 -3.29953234807E-02
1.52500000000E+09 +1.83504634471E-01 -7.67739372967E-02 -2.37588023578E-03 +2.26352849443E-03 -2.42554683911E-03 +2.25325730006E-03 +5.44348292520E-02 -1.01772292642E-01
1.53000000000E+09 +8.72849775256E-02 -1.27837144672E-01 -1.93805256443E-03 +1.84294371249E-03 -1.94149135191E-03 +1.82159718779E-03 -5.38556529437E-02 -1.46962221175E-01
1.53500000000E+09 -1.76990882331E-02 -1.54249099594E-01 -2.24085912068E-03 +2.71017538173E-03 -2.24665398950E-03 +2.72778361767E-03 -1.67261785695E-01 -1.66762995785E-01
1.54000000000E+09 -1.25031549865E-01 -1.54162289819E-01 -1.13794605514E-03 +3.77796735599E-03 -1.15162261496E-03 +3.71009732291E-03 -2.76979426742E-01 -1.62392306024E-01
1.54500000000E+09 -2.26763306866E-01 -1.30626574804E-01 +5.51583192944E-04 +3.73195361893E-03 +4.51684660485E-04 +3.68271603197E-03 -3.75881574024E-01 -1.38416416246E-01
1.55000000000E+09 -3.18060750259E-01 -8.92195167277E-02 +1.37999786582E-03 +3.25854789176E-03 +1.30592589226E-03 +3.31936011000E-03 -4.62397876424E-01 -1.00494838171E-01
1.55500000000E+09 -3.96626963715E-01 -3.61444384174E-02 +2.47511254532E-03 +2.40959719129E-03 +2.34888684419E-03 +2.55941292249E-03 -5.33987181448E-01 -5.07052427322E-02
1.56000000000E+09 -4.61099830587E-01 +2.31620758206E-02 +2.67691892979E-03 +1.16616362784E-03 +2.72383414039E-03 +1.26621066324E-03 -5.89512804427E-01 +3.51574997391E-03
1.56500000000E+09 -5.10385498428E-01 +8.38566314675E-02 +2.18353699765E-03 +1.32004633234E-04 +2.29902654435E-03 +1.59400058238E-04 -6.33570984922E-01 +5.94997245792E-02
1.57000000000E+09 -5.48227235999E-01 +1.41825861166E-01 +1.75723901750E-03 -4.65149079029E-05 +1.87486506017E-03 -8.14369330128E-05 -6.65982720625E-01 +1.15037823965E-01
