# Hz S RI R 50
! CMT, C1220, 16058040, 17.2.0/1
! Date: 15/08/2018 09:58:23
! Data: Format (Calibration Info)
! Freq                      S11: Re/Im (F2)                       S21: Re/Im (F2)                       S12: Re/Im (F2)                       S22: Re/Im (F2)            
2.50000000000E+09 +5.97415200414E-01 +6.34427234354E-01 -1.68840702358E-04 -9.00999643134E-04 -1.52505749608E-04 -9.82235322453E-04 +5.77267600390E-01 +7.13805293962E-01
2.50500000000E+09 +6.03701648877E-01 +6.27025561879E-01 -2.36219622677E-04 -9.69715772586E-04 -2.35030265161E-04 -9.42986910037E-04 +5.82889712694E-01 +7.08235377650E-01
2.51000000000E+09 +6.10324541869E-01 +6.19390308469E-01 -2.43351241349E-04 -9.63828909975E-04 -3.41039634366E-04 -9.69625335034E-04 +5.88467387829E-01 +7.02933359325E-01
2.51500000000E+09 +6.16870085626E-01 +6.11805871356E-01 -3.95820158179E-04 -1.05253813159E-03 -4.03152589929E-04 -1.02581437174E-03 +5.93501538135E-01 +6.97495134422E-01
2.52000000000E+09 +6.23154056761E-01 +6.04006244634E-01 -6.51116950928E-04 -1.00197242015E-03 -5.56829221678E-04 -1.01865983194E-03 +5.98476128828E-01 +6.91636543342E-01
2.52500000000E+09 +6.28750895284E-01 +5.96569205767E-01 -7.73014730182E-04 -8.31319600744E-04 -7.32276297795E-04 -9.17460139420E-04 +6.04074251152E-01 +6.85181352100E-01
2.53000000000E+09 +6.33915453264E-01 +5.89500967506E-01 -8.06581536349E-04 -6.79394058462E-04 -7.95398860739E-04 -7.42674243449E-04 +6.10189907118E-01 +6.77850624017E-01
2.53500000000E+09 +6.38735635671E-01 +5.83027913678E-01 -7.24403917464E-04 -6.99722160866E-04 -6.98684163809E-04 -6.81138171468E-04 +6.15948607363E-01 +6.70802901326E-01
2.54000000000E+09 +6.43200165897E-01 +5.76393823117E-01 -8.76339793679E-04 -7.07913843038E-04 -8.43153867397E-04 -7.33964472643E-04 +6.21652638244E-01 +6.64208144845E-01
2.54500000000E+09 +6.47655861302E-01 +5.69899732451E-01 -1.05568576949E-03 -6.26185334393E-04 -9.87626880444E-04 -7.07449876815E-04 +6.27469662891E-01 +6.57793341259E-01
2.55000000000E+09 +6.52324017127E-01 +5.63088769757E-01 -1.12747095719E-03 -4.57631969162E-04 -1.20373516170E-03 -5.97488115752E-04 +6.32626376731E-01 +6.51737781839E-01
2.55500000000E+09 +6.57301820088E-01 +5.55544069445E-01 -1.18260803226E-03 -2.58783297172E-04 -1.35501743259E-03 -3.81881558562E-04 +6.37809636576E-01 +6.45437131573E-01
2.56000000000E+09 +6.62866048783E-01 +5.47915851549E-01 -1.08725281831E-03 -1.26776852506E-04 -1.31982868230E-03 -8.97913261833E-05 +6.43000915268E-01 +6.38123853626E-01
2.56500000000E+09 +6.68871877337E-01 +5.39460736966E-01 -9.95308049351E-04 -1.69314842528E-04 -1.11171915304E-03 +3.89210912684E-05 +6.48108986683E-01 +6.30581257713E-01
2.57000000000E+09 +6.75172040402E-01 +5.30810101693E-01 -1.10911186470E-03 -2.59553896933E-04 -1.10716244232E-03 +1.15277709844E-05 +6.53729492276E-01 +6.22709611676E-01
2.57500000000E+09 +6.81401215543E-01 +5.21813070069E-01 -1.33961611058E-03 -7.95100465309E-05 -1.20719051012E-03 +1.33608779785E-04 +6.59255117585E-01 +6.14924562601E-01
2.58000000000E+09 +6.87153489685E-01 +5.13101769969E-01 -1.34155175061E-03 +2.23829892704E-04 -1.13207020865E-03 +2.65774022931E-04 +6.64235818027E-01 +6.07447139972E-01
2.58500000000E+09 +6.92845653013E-01 +5.04202212131E-01 -1.19263124025E-03 +3.50126203128E-04 -1.06347718065E-03 +2.17811380343E-04 +6.68972099304E-01 +5.99915063372E-01
2.59000000000E+09 +6.97958384536E-01 +4.96006627833E-01 -1.09808979886E-03 +3.74515934404E-04 -1.05248285609E-03 +2.86612590505E-04 +6.73800133410E-01 +5.92511018244E-01
2.59500000000E+09 +7.02883870583E-01 +4.87816910764E-01 -1.20637241466E-03 +3.77562382464E-04 -1.21252694209E-03 +3.36346548039E-04 +6.78520802707E-01 +5.84516285840E-01
2.60000000000E+09 +7.07191487574E-01 +4.79520726340E-01 -1.24525360008E-03 +3.85653300156E-04 -1.26663317668E-03 +4.22348195390E-04 +6.83520818085E-01 +5.75780983062E-01
2.60500000000E+09 +7.11725859194E-01 +4.70517527462E-01 -1.38237200741E-03 +6.82565459591E-04 -1.39549043100E-03 +7.00279141405E-04 +6.88669001276E-01 +5.66782290221E-01
2.61000000000E+09 +7.15986850121E-01 +4.61021777661E-01 -1.24333325532E-03 +1.03487954232E-03 -1.26447130047E-03 +1.00396417453E-03 +6.93505083541E-01 +5.57863679520E-01
2.61500000000E+09 +7.20335735403E-01 +4.50773512046E-01 -9.36180153484E-04 +1.15868113462E-03 -9.66662129075E-04 +1.15172387034E-03 +6.98238766713E-01 +5.49477722193E-01
2.62000000000E+09 +7.24634859583E-01 +4.39495339346E-01 -8.25403953012E-04 +1.09116953255E-03 -8.16989286785E-04 +1.19086825047E-03 +7.03058271637E-01 +5.40558604943E-01
2.62500000000E+09 +7.28782895648E-01 +4.27331134468E-01 -7.26755180782E-04 +1.14652841155E-03 -6.55065801440E-04 +1.25845184721E-03 +7.07592878081E-01 +5.31631850098E-01
2.63000000000E+09 +7.32810554422E-01 +4.14622025741E-01 -6.08266240438E-04 +1.13080922906E-03 -4.69595847510E-04 +1.14498888496E-03 +7.12030626871E-01 +5.22816895873E-01
2.63500000000E+09 +7.36333349373E-01 +4.02032166560E-01 -7.56028630138E-04 +1.16487854677E-03 -5.45334907762E-04 +1.10465294657E-03 +7.16753049196E-01 +5.13616683662E-01
2.64000000000E+09 +7.39974393861E-01 +3.89699578054E-01 -6.08246628714E-04 +1.46101605000E-03 -4.96331788581E-04 +1.25721468039E-03 +7.21566371113E-01 +5.03983828872E-01
2.64500000000E+09 +7.43655989325E-01 +3.77881027286E-01 -3.58150195203E-04 +1.58908264375E-03 -3.83301648958E-04 +1.27820125713E-03 +7.26521657888E-01 +4.94208657755E-01
2.65000000000E+09 +7.46762859367E-01 +3.66243647388E-01 -2.03244984286E-04 +1.53285341646E-03 -3.46131798499E-04 +1.41048893286E-03 +7.30962128697E-01 +4.84059324215E-01
2.65500000000E+09 +7.50086864901E-01 +3.54641801502E-01 -9.55398385464E-05 +1.43225320704E-03 -2.40233031599E-04 +1.41496943589E-03 +7.34582886112E-01 +4.73945574262E-01
2.66000000000E+09 +7.53097210347E-01 +3.42853807176E-01 -1.05193796756E-04 +1.48417694661E-03 -1.27573984868E-04 +1.60676263012E-03 +7.38729587756E-01 +4.63168047372E-01
2.66500000000E+09 +7.55900419531E-01 +3.31443412339E-01 +6.27422443780E-05 +1.61120564769E-03 +1.42205443484E-04 +1.66069408823E-03 +7.43228101263E-01 +4.52028589332E-01
2.67000000000E+09 +7.58496097426E-01 +3.18995155487E-01 +2.16367026152E-04 +1.66082076770E-03 +3.03186471926E-04 +1.55741102628E-03 +7.47502010722E-01 +4.40785001821E-01
2.67500000000E+09 +7.60462418300E-01 +3.05870948255E-01 +4.19396216692E-04 +1.63925799087E-03 +4.51892963775E-04 +1.51109956106E-03 +7.51644122767E-01 +4.29412254113E-01
2.68000000000E+09 +7.61734930318E-01 +2.92376700772E-01 +5.72041825890E-04 +1.45456129578E-03 +5.30804246119E-04 +1.39043631981E-03 +7.55359355678E-01 +4.18129963102E-01
2.68500000000E+09 +7.62708739173E-01 +2.78190915111E-01 +4.89242998392E-04 +1.49920520439E-03 +3.82597806430E-04 +1.48254942381E-03 +7.58576908993E-01 +4.06766822300E-01
2.69000000000E+09 +7.63384274866E-01 +2.64507711259E-01 +6.90432180659E-04 +1.67205328690E-03 +6.73260131816E-04 +1.69717536029E-03 +7.61616576546E-01 +3.94938881484E-01
2.69500000000E+09 +7.64326905967E-01 +2.50437910337E-01 +9.82150053043E-04 +1.59785270873E-03 +9.15065705717E-04 +1.60860203865E-03 +7.64395171679E-01 +3.82040544259E-01
2.70000000000E+09 +7.65288428853E-01 +2.36392392951E-01 +1.16536581704E-03 +1.63579914560E-03 +1.12950089974E-03 +1.59763199054E-03 +7.66961357094E-01 +3.68455160215E-01
2.70500000000E+09 +7.65957740438E-01 +2.22441477100E-01 +1.62738261000E-03 +1.39872825410E-03 +1.45292559216E-03 +1.43117885642E-03 +7.69500699831E-01 +3.54757901129E-01
2.71000000000E+09 +7.66956513444E-01 +2.08999943196E-01 +1.60515742919E-03 +1.06556597722E-03 +1.56848227379E-03 +1.18465815440E-03 +7.72280080077E-01 +3.41623545656E-01
2.71500000000E+09 +7.68639342421E-01 +1.94881905109E-01 +1.52842420580E-03 +9.01778750606E-04 +1.56635055868E-03 +1.03608317695E-03 +7.74977420385E-01 +3.28711681318E-01
2.72000000000E+09 +7.69717628595E-01 +1.80205074562E-01 +1.52800867912E-03 +8.85685855942E-04 +1.72071677541E-03 +9.13794934584E-04 +7.76749240793E-01 +3.15874435960E-01
2.72500000000E+09 +7.70266109115E-01 +1.65122763012E-01 +1.68628175877E-03 +8.55484124121E-04 +1.79981306790E-03 +7.52915528878E-04 +7.77829293632E-01 +3.02442610434E-01
2.73000000000E+09 +7.70299094941E-01 +1.49531997267E-01 +1.76066941556E-03 +8.72277593242E-04 +1.68898629910E-03 +6.71027706755E-04 +7.79000542700E-01 +2.88682934945E-01
2.73500000000E+09 +7.69233946384E-01 +1.32974514815E-01 +1.99993271749E-03 +6.78909016428E-04 +1.82145582453E-03 +6.22998922450E-04 +7.80118527457E-01 +2.73775375888E-01
2.74000000000E+09 +7.67263456339E-01 +1.16416572618E-01 +2.14010246887E-03 +5.43127790340E-04 +1.91445058646E-03 +6.04841129718E-04 +7.81260522315E-01 +2.58333682585E-01
2.74500000000E+09 +7.64365876441E-01 +9.95126793204E-02 +2.28083145668E-03 +4.28190296831E-04 +2.17986290082E-03 +6.56801474199E-04 +7.81940164270E-01 +2.42969931261E-01
2.75000000000E+09 +7.60625547989E-01 +8.23660437297E-02 +2.56915349969E-03 +7.35033649865E-05 +2.64066538939E-03 +3.86950344917E-04 +7.82610409261E-01 +2.27934908247E-01
2.75500000000E+09 +7.56368677987E-01 +6.50049689189E-02 +2.49993053959E-03 -3.34843595947E-04 +2.80413280437E-03 -2.53703430778E-04 +7.82174263538E-01 +2.12809244733E-01
2.76000000000E+09 +7.51883825230E-01 +4.78861242926E-02 +2.37738444671E-03 -4.42523948268E-04 +2.55905463802E-03 -5.38230008036E-04 +7.81641627182E-01 +1.97711739033E-01
2.76500000000E+09 +7.46992916180E-01 +3.04433562482E-02 +2.57328307565E-03 -6.10503067731E-04 +2.67547103331E-03 -7.41177008117E-04 +7.80838521730E-01 +1.81357501210E-01
2.77000000000E+09 +7.42597382105E-01 +1.26641867065E-02 +2.59765209891E-03 -9.91425414215E-04 +2.65038353324E-03 -1.14958730029E-03 +7.79630104396E-01 +1.63540788747E-01
2.77500000000E+09 +7.38084863423E-01 -6.10443162020E-03 +2.48873448490E-03 -1.39568163154E-03 +2.50584152526E-03 -1.61241056878E-03 +7.77081751898E-01 +1.45293495011E-01
2.78000000000E+09 +7.33083476394E-01 -2.58112915236E-02 +2.38409789107E-03 -1.60581044793E-03 +2.31157040299E-03 -1.83951249853E-03 +7.75135131682E-01 +1.27753837049E-01
2.78500000000E+09 +7.26772819173E-01 -4.60130298526E-02 +2.13147706548E-03 -1.89139093254E-03 +1.91028082090E-03 -2.03272601450E-03 +7.72706885981E-01 +1.09954566489E-01
2.79000000000E+09 +7.19902111403E-01 -6.64165304383E-02 +2.12593557374E-03 -2.06639700028E-03 +1.84318735023E-03 -2.07783053647E-03 +7.69722867384E-01 +9.25958670950E-02
2.79500000000E+09 +7.11805074370E-01 -8.66786355718E-02 +2.12217529801E-03 -2.49644520888E-03 +1.94206584114E-03 -2.34188037571E-03 +7.65566374433E-01 +7.44614806138E-02
2.80000000000E+09 +7.02817400853E-01 -1.06664325849E-01 +1.74203825138E-03 -2.99554193754E-03 +1.64879348371E-03 -2.78069443950E-03 +7.60252646734E-01 +5.60878587885E-02
2.80500000000E+09 +6.92925667026E-01 -1.26038037090E-01 +1.08497690907E-03 -3.21453761065E-03 +1.12009156519E-03 -3.04685606768E-03 +7.54380338429E-01 +3.77866245432E-02
2.81000000000E+09 +6.81824360326E-01 -1.44875241908E-01 +9.09292110583E-04 -3.03854506231E-03 +9.41810108955E-04 -2.98359303355E-03 +7.48542097133E-01 +1.81456041827E-02
2.81500000000E+09 +6.69847924773E-01 -1.62761654573E-01 +6.12256976443E-04 -3.17890531467E-03 +5.49240435572E-04 -3.16130475142E-03 +7.41358299631E-01 -1.86077799098E-03
2.82000000000E+09 +6.57101403327E-01 -1.80709562163E-01 +5.21848041949E-04 -3.43536735233E-03 +4.03016269501E-04 -3.30444433754E-03 +7.33369626595E-01 -2.21805720236E-02
2.82500000000E+09 +6.42981263995E-01 -1.98585924666E-01 +3.08824558147E-06 -3.70555854597E-03 -6.27411390270E-05 -3.45371630345E-03 +7.24445782690E-01 -4.17193291946E-02
2.83000000000E+09 +6.27197197410E-01 -2.16778502942E-01 -6.52373865801E-04 -3.77882684905E-03 -5.73494925851E-04 -3.50644601187E-03 +7.14541251663E-01 -6.14802715277E-02
2.83500000000E+09 +6.09908371014E-01 -2.35351727914E-01 -1.15773786176E-03 -3.29001806785E-03 -9.24351140871E-04 -3.14774277655E-03 +7.04171888010E-01 -8.11709970277E-02
2.84000000000E+09 +5.90319898744E-01 -2.53898049245E-01 -1.09701295491E-03 -3.11293988837E-03 -8.30791178514E-04 -3.15700550930E-03 +6.92805582174E-01 -1.02144188521E-01
2.84500000000E+09 +5.68856601418E-01 -2.72163632516E-01 -1.59083304920E-03 -3.43591222671E-03 -1.36032477152E-03 -3.53176265033E-03 +6.79657342327E-01 -1.23074961518E-01
2.85000000000E+09 +5.46275767080E-01 -2.90676689943E-01 -1.94436437611E-03 -3.36049030586E-03 -1.89559053076E-03 -3.45128798810E-03 +6.65240645387E-01 -1.43560307134E-01
2.85500000000E+09 +5.21841587439E-01 -3.08529284188E-01 -2.78463442170E-03 -3.10969101113E-03 -2.72391635641E-03 -3.17854959291E-03 +6.50669510915E-01 -1.63289896802E-01
2.86000000000E+09 +4.96569536914E-01 -3.25707868739E-01 -3.02749379477E-03 -2.45897543161E-03 -2.95479795036E-03 -2.62277006257E-03 +6.34732782472E-01 -1.84578602113E-01
2.86500000000E+09 +4.70474908240E-01 -3.41940678705E-01 -3.22362962595E-03 -1.95615958605E-03 -3.20867298250E-03 -2.07085238335E-03 +6.16263255970E-01 -2.04923610967E-01
2.87000000000E+09 +4.43406573793E-01 -3.57243985975E-01 -3.10185978232E-03 -1.60597316514E-03 -3.23714268760E-03 -1.63639384700E-03 +5.96988567092E-01 -2.24563981721E-01
2.87500000000E+09 +4.15965823937E-01 -3.70262623209E-01 -3.09723362446E-03 -1.27574050343E-03 -3.24448573886E-03 -1.32516882180E-03 +5.76514360410E-01 -2.43607249740E-01
2.88000000000E+09 +3.88868669427E-01 -3.82162679354E-01 -3.14234734541E-03 -1.34780029251E-03 -3.17948304776E-03 -1.27820445840E-03 +5.54738728374E-01 -2.62071900848E-01
2.88500000000E+09 +3.60933935870E-01 -3.92861823165E-01 -3.58363351775E-03 -1.08002964426E-03 -3.54030127742E-03 -9.79671409284E-04 +5.32482965983E-01 -2.80196125313E-01
2.89000000000E+09 +3.31876413113E-01 -4.02033751502E-01 -3.63529887223E-03 -6.73346707914E-04 -3.51622236072E-03 -6.98122237692E-04 +5.07264590493E-01 -2.98906364752E-01
2.89500000000E+09 +3.01683049985E-01 -4.09645241133E-01 -3.68430532669E-03 -1.16459076190E-04 -3.73938146792E-03 -2.56187544527E-04 +4.79250358261E-01 -3.15751934075E-01
2.90000000000E+09 +2.69490641736E-01 -4.15499559896E-01 -3.42035096088E-03 +2.00427263661E-04 -3.60699471873E-03 +1.74205646668E-04 +4.50482040909E-01 -3.30959439394E-01
2.90500000000E+09 +2.34866076369E-01 -4.18653574584E-01 -3.31575348402E-03 +8.13286642749E-05 -3.38001798876E-03 +2.68166900768E-04 +4.21653952703E-01 -3.45670615128E-01
2.91000000000E+09 +1.99169563145E-01 -4.18664861256E-01 -3.90830633181E-03 +1.08320099692E-04 -3.87980118296E-03 +3.53299516419E-04 +3.90467502724E-01 -3.59936932794E-01
2.91500000000E+09 +1.63375318176E-01 -4.15346881343E-01 -3.89681716498E-03 +1.00254481201E-03 -3.67473321438E-03 +1.20411861503E-03 +3.58026727488E-01 -3.72037139783E-01
2.92000000000E+09 +1.27651272271E-01 -4.10103427065E-01 -3.53247828024E-03 +1.09176085230E-03 -3.21600402577E-03 +1.06002119014E-03 +3.23408027974E-01 -3.81514226476E-01
2.92500000000E+09 +9.29616055660E-02 -4.03636679512E-01 -3.75902813132E-03 +1.07656423704E-03 -3.50065408243E-03 +9.36552732254E-04 +2.88222664741E-01 -3.88402742002E-01
2.93000000000E+09 +5.74082322934E-02 -3.96061706416E-01 -4.30085202639E-03 +1.64266229444E-03 -4.16767799093E-03 +1.39326262890E-03 +2.52180022294E-01 -3.93617416816E-01
2.93500000000E+09 +2.16737995002E-02 -3.86366404107E-01 -4.21971078015E-03 +2.62527381981E-03 -4.15873605763E-03 +2.38409853287E-03 +2.14407695347E-01 -3.98450474611E-01
2.94000000000E+09 -1.39201720100E-02 -3.73713051884E-01 -3.82247128385E-03 +3.27392267277E-03 -3.77936451656E-03 +3.06519286275E-03 +1.74651082120E-01 -4.00146586041E-01
2.94500000000E+09 -4.77851698757E-02 -3.58016576642E-01 -3.35338952334E-03 +3.57927420046E-03 -3.32115039773E-03 +3.32519833959E-03 +1.35357526260E-01 -3.99310189915E-01
2.95000000000E+09 -8.02399681498E-02 -3.39602286726E-01 -3.24799261702E-03 +4.10217812396E-03 -3.36122572096E-03 +3.78877162544E-03 +9.67721021723E-02 -3.95379846159E-01
2.95500000000E+09 -1.10020293346E-01 -3.19027031216E-01 -2.56046044822E-03 +4.43306605470E-03 -2.87036209392E-03 +4.26291506636E-03 +5.83173010440E-02 -3.89716935076E-01
2.96000000000E+09 -1.39595038644E-01 -2.96654209423E-01 -2.46250897201E-03 +4.85995535427E-03 -2.76863103874E-03 +4.97991035865E-03 +1.86883449591E-02 -3.81320361308E-01
2.96500000000E+09 -1.67408184249E-01 -2.71202840855E-01 -1.71060978388E-03 +5.42598637028E-03 -1.80298139041E-03 +5.58213572936E-03 -2.16375829739E-02 -3.69535593532E-01
2.97000000000E+09 -1.94026312208E-01 -2.42766001236E-01 -1.07104364064E-03 +5.33904598596E-03 -1.06526024966E-03 +5.35883215919E-03 -6.14326695307E-02 -3.54354505241E-01
2.97500000000E+09 -2.18017226024E-01 -2.12054067868E-01 -1.00010483885E-03 +5.74969362449E-03 -1.06452571570E-03 +5.60857209951E-03 -1.00308308033E-01 -3.37445637950E-01
2.98000000000E+09 -2.40651306226E-01 -1.79679817607E-01 -6.83010109637E-05 +6.28807322109E-03 -3.15504301717E-04 +6.21860588033E-03 -1.37873494099E-01 -3.17254851820E-01
2.98500000000E+09 -2.60465363794E-01 -1.46177235807E-01 +5.90221662359E-04 +6.46617504638E-03 +3.06687278591E-04 +6.67823454989E-03 -1.74326639086E-01 -2.96003435300E-01
2.99000000000E+09 -2.78730034878E-01 -1.12924876842E-01 +1.65616154282E-03 +6.81179117074E-03 +1.63113247425E-03 +7.29061374763E-03 -2.10738080086E-01 -2.69991194095E-01
2.99500000000E+09 -2.95822425108E-01 -7.88734851749E-02 +3.09106990079E-03 +6.46123585656E-03 +3.36908658733E-03 +6.69609009920E-03 -2.43259923146E-01 -2.39975122883E-01
3.00000000000E+09 -3.10699006248E-01 -4.39222698148E-02 +3.48905353661E-03 +5.77162581870E-03 +3.84530466191E-03 +5.69901494849E-03 -2.73729909769E-01 -2.08951283074E-01
3.00500000000E+09 -3.21873335906E-01 -9.51591249111E-03 +4.34127638543E-03 +6.17513807105E-03 +4.41260729378E-03 +5.91656613219E-03 -3.02886706379E-01 -1.75971613764E-01
3.01000000000E+09 -3.30776238619E-01 +2.39257978542E-02 +5.96299851940E-03 +5.29587317635E-03 +5.72595637133E-03 +5.14538514747E-03 -3.29083124599E-01 -1.40927461006E-01
3.01500000000E+09 -3.37267540585E-01 +5.65172793578E-02 +6.65587134139E-03 +3.74948658054E-03 +6.50301919002E-03 +3.94693877161E-03 -3.53170031435E-01 -1.04728904075E-01
3.02000000000E+09 -3.41220505450E-01 +8.94217391435E-02 +6.73434723999E-03 +2.70643420401E-03 +6.75931694733E-03 +2.86349105076E-03 -3.73234237620E-01 -6.66975004711E-02
3.02500000000E+09 -3.41903926452E-01 +1.22016574579E-01 +6.46573957261E-03 +2.13347899916E-03 +6.52911893858E-03 +2.20449865377E-03 -3.89482280275E-01 -2.82345827779E-02
3.03000000000E+09 -3.39047652846E-01 +1.54404731734E-01 +6.92743086207E-03 +1.96653348504E-03 +6.98204627142E-03 +1.95259180842E-03 -4.04175081317E-01 +1.06357281833E-02
3.03500000000E+09 -3.33644912424E-01 +1.84821145461E-01 +8.11305712082E-03 +1.07435782278E-03 +8.05557948353E-03 +1.15862304791E-03 -4.16531996109E-01 +5.12346624055E-02
3.04000000000E+09 -3.26300047097E-01 +2.15914467115E-01 +8.52970791899E-03 -1.06182808053E-03 +8.69745133429E-03 -8.55778758564E-04 -4.24905555926E-01 +9.28381772502E-02
3.04500000000E+09 -3.17040162186E-01 +2.44881546798E-01 +7.56801205311E-03 -2.54402329721E-03 +7.93914834791E-03 -2.65740821647E-03 -4.29572727200E-01 +1.33993251762E-01
3.05000000000E+09 -3.06906776527E-01 +2.73898907049E-01 +6.64473820800E-03 -3.55897048725E-03 +6.76296588898E-03 -3.99726459333E-03 -4.30906051284E-01 +1.72114085267E-01
3.05500000000E+09 -2.95501435261E-01 +3.02163066334E-01 +5.74392458673E-03 -3.56568303949E-03 +5.52861361666E-03 -3.91644416424E-03 -4.32973964948E-01 +2.09525968542E-01
3.06000000000E+09 -2.82786114618E-01 +3.30199309509E-01 +5.82886934245E-03 -4.28846111020E-03 +5.38305012592E-03 -4.32288485138E-03 -4.31576573129E-01 +2.48945990319E-01
3.06500000000E+09 -2.68542633037E-01 +3.56149749427E-01 +5.19533388236E-03 -5.42536646913E-03 +4.88496795329E-03 -5.04580545001E-03 -4.26620297329E-01 +2.86995977252E-01
3.07000000000E+09 -2.53952164616E-01 +3.80576798005E-01 +3.79962069514E-03 -6.12691768090E-03 +4.07891070900E-03 -5.82652209645E-03 -4.18945093731E-01 +3.23000362981E-01
