# Hz S RI R 50
! CMT, C1220, 16058040, 17.2.0/1
! Date: 15/08/2018 09:58:11
! Data: Format (Calibration Info)
! Freq                      S11: Re/Im (F2)                       S21: Re/Im (F2)                       S12: Re/Im (F2)                       S22: Re/Im (F2)            
2.50000000000E+09 +5.97057128376E-01 +6.33636982571E-01 -3.08200638975E-04 -9.65911006693E-04 -3.10359999621E-04 -9.93168773784E-04 +5.77031826448E-01 +7.13560533785E-01
2.50500000000E+09 +6.03253623260E-01 +6.26358900825E-01 -3.43128767061E-04 -8.92849144990E-04 -4.15047414259E-04 -9.15460109214E-04 +5.82615181701E-01 +7.07936315277E-01
2.51000000000E+09 +6.09769295130E-01 +6.18716013453E-01 -4.19358863461E-04 -8.81979929157E-04 -4.26502179866E-04 -8.77311833562E-04 +5.88139739494E-01 +7.02697056887E-01
2.51500000000E+09 +6.16479957269E-01 +6.11061800511E-01 -5.27731019524E-04 -9.33896346732E-04 -4.76903475134E-04 -9.45367773104E-04 +5.93284185041E-01 +6.97294446412E-01
2.52000000000E+09 +6.22740821149E-01 +6.03202507773E-01 -6.76936389809E-04 -8.91066271781E-04 -6.33368360099E-04 -9.24029272907E-04 +5.98254743979E-01 +6.91522352353E-01
2.52500000000E+09 +6.28415052956E-01 +5.95580792290E-01 -8.40199072664E-04 -7.53625779891E-04 -8.29761161304E-04 -8.42723758020E-04 +6.03905210510E-01 +6.84995751711E-01
2.53000000000E+09 +6.33654565352E-01 +5.88433711119E-01 -8.62840971398E-04 -5.59607455687E-04 -8.70573216633E-04 -5.71856156644E-04 +6.09951358205E-01 +6.77770483192E-01
2.53500000000E+09 +6.38419354697E-01 +5.81748602336E-01 -7.78147276850E-04 -6.04931589720E-04 -7.22639875456E-04 -5.85787062682E-04 +6.15607196330E-01 +6.70704116719E-01
2.54000000000E+09 +6.43088635860E-01 +5.75017341512E-01 -8.39313899608E-04 -6.20739012463E-04 -8.30841323869E-04 -6.27587317147E-04 +6.21389791386E-01 +6.64186822774E-01
2.54500000000E+09 +6.47520401860E-01 +5.68467386887E-01 -1.02947710079E-03 -5.45525716026E-04 -9.73297778055E-04 -6.33817849280E-04 +6.27262855799E-01 +6.57653285721E-01
2.55000000000E+09 +6.52026163281E-01 +5.61769711382E-01 -1.06059973904E-03 -4.04239114674E-04 -1.12683211906E-03 -4.98837899261E-04 +6.32422426998E-01 +6.51645006392E-01
2.55500000000E+09 +6.56999805223E-01 +5.54463660560E-01 -1.09974504057E-03 -2.65704540404E-04 -1.25365908964E-03 -3.55665088120E-04 +6.37339154255E-01 +6.45370542440E-01
2.56000000000E+09 +6.62534761730E-01 +5.46995774441E-01 -1.02219311801E-03 -9.48113191272E-05 -1.27820504486E-03 -1.90204293834E-05 +6.42620922975E-01 +6.38229191420E-01
2.56500000000E+09 +6.68455193032E-01 +5.38762989426E-01 -9.75749846982E-04 -1.60528722513E-04 -1.18248953235E-03 +9.84789221038E-06 +6.47894698456E-01 +6.30651455856E-01
2.57000000000E+09 +6.74803535504E-01 +5.30181764142E-01 -1.13265713901E-03 -2.26062785094E-04 -1.11646676070E-03 +3.85504690068E-05 +6.53256219350E-01 +6.22809391767E-01
2.57500000000E+09 +6.80893147810E-01 +5.21169648795E-01 -1.36961811495E-03 -4.59126351830E-05 -1.16684582149E-03 +1.95106022896E-04 +6.58848076611E-01 +6.15115934632E-01
2.58000000000E+09 +6.86699028360E-01 +5.12416686331E-01 -1.34514032758E-03 +2.55155046906E-04 -1.13494553291E-03 +2.89415990791E-04 +6.63928176182E-01 +6.07628314613E-01
2.58500000000E+09 +6.92355226923E-01 +5.03624248479E-01 -1.19119772092E-03 +4.69870862236E-04 -1.05338959070E-03 +3.39486646756E-04 +6.68810956488E-01 +6.00234804157E-01
2.59000000000E+09 +6.97488071355E-01 +4.95238736276E-01 -1.08557505840E-03 +5.06552398174E-04 -1.02718352369E-03 +3.86192705888E-04 +6.73675286575E-01 +5.92850149029E-01
2.59500000000E+09 +7.02406875595E-01 +4.86936773167E-01 -1.11767248423E-03 +5.25139709655E-04 -1.16672678031E-03 +4.61421737966E-04 +6.78478155027E-01 +5.84689059584E-01
2.60000000000E+09 +7.06926366398E-01 +4.78635573514E-01 -1.13860370042E-03 +5.62583866699E-04 -1.22033167953E-03 +5.16153635128E-04 +6.83395428360E-01 +5.76134212895E-01
2.60500000000E+09 +7.11415198599E-01 +4.69710343620E-01 -1.23664722878E-03 +8.03183941391E-04 -1.23934194567E-03 +7.88957335846E-04 +6.88425180051E-01 +5.67107488593E-01
2.61000000000E+09 +7.15653152317E-01 +4.60129688080E-01 -1.12940058877E-03 +1.10843911671E-03 -1.09687834507E-03 +1.11625686278E-03 +6.93357613642E-01 +5.58282678353E-01
2.61500000000E+09 +7.20043038489E-01 +4.49895712911E-01 -7.71471294822E-04 +1.23977493486E-03 -7.78293748351E-04 +1.28280655647E-03 +6.98099751229E-01 +5.49800612628E-01
2.62000000000E+09 +7.24239917139E-01 +4.38690112791E-01 -6.05836951763E-04 +1.16496884373E-03 -5.95009626808E-04 +1.27073879135E-03 +7.02962372217E-01 +5.40832274245E-01
2.62500000000E+09 +7.28545226124E-01 +4.26565498378E-01 -5.16076594899E-04 +1.18545132164E-03 -4.37398357280E-04 +1.25290298124E-03 +7.07598104844E-01 +5.31881137077E-01
2.63000000000E+09 +7.32583145212E-01 +4.13975946782E-01 -3.99323194944E-04 +1.11078496252E-03 -2.51420388574E-04 +1.15005200419E-03 +7.11894039371E-01 +5.23135916502E-01
2.63500000000E+09 +7.36150512168E-01 +4.01255333767E-01 -5.39065512548E-04 +1.10180011994E-03 -3.59173805005E-04 +9.94230616623E-04 +7.16870580275E-01 +5.14022723923E-01
2.64000000000E+09 +7.39648815881E-01 +3.88823428398E-01 -4.62796316254E-04 +1.38251850165E-03 -3.76479892193E-04 +1.14928081041E-03 +7.21701925462E-01 +5.04429373669E-01
2.64500000000E+09 +7.43361726216E-01 +3.76771779469E-01 -2.67363474021E-04 +1.43807737048E-03 -3.44619860815E-04 +1.23822812179E-03 +7.26644326848E-01 +4.94658468738E-01
2.65000000000E+09 +7.46556007476E-01 +3.65167144832E-01 -5.08946054528E-05 +1.42739134874E-03 -2.42718397476E-04 +1.34951132451E-03 +7.30975555832E-01 +4.84495848685E-01
2.65500000000E+09 +7.49821099301E-01 +3.53509671064E-01 +7.46888756303E-05 +1.29116088648E-03 -6.80664098984E-05 +1.38243173260E-03 +7.34818575456E-01 +4.74233495054E-01
2.66000000000E+09 +7.52917050666E-01 +3.41825639280E-01 +3.40201799365E-06 +1.40155259944E-03 -4.56423261839E-06 +1.51163623704E-03 +7.39027071014E-01 +4.63605159547E-01
2.66500000000E+09 +7.55685147294E-01 +3.30378953458E-01 +2.38989916362E-04 +1.45711161733E-03 +3.08374072713E-04 +1.53383073273E-03 +7.43559180372E-01 +4.52411097753E-01
2.67000000000E+09 +7.58209795970E-01 +3.18072779137E-01 +2.68767184071E-04 +1.42990986909E-03 +3.81361567017E-04 +1.40817876234E-03 +7.47984980156E-01 +4.41143628265E-01
2.67500000000E+09 +7.60187481221E-01 +3.05118835951E-01 +4.89177505825E-04 +1.49472103698E-03 +5.34324090957E-04 +1.41350982330E-03 +7.52135351437E-01 +4.29700154227E-01
2.68000000000E+09 +7.61495364177E-01 +2.91640351238E-01 +5.94844591829E-04 +1.26049261177E-03 +5.84190516704E-04 +1.24322943369E-03 +7.55938810294E-01 +4.18266612869E-01
2.68500000000E+09 +7.62411516541E-01 +2.77679258505E-01 +5.10555323348E-04 +1.35646908197E-03 +4.74043720773E-04 +1.37231003231E-03 +7.59048306365E-01 +4.06915959742E-01
2.69000000000E+09 +7.63101668479E-01 +2.63848002280E-01 +8.11847613194E-04 +1.52463019096E-03 +7.62303734350E-04 +1.58916239834E-03 +7.62218702587E-01 +3.95017636160E-01
2.69500000000E+09 +7.63941660018E-01 +2.49822295422E-01 +1.04797146836E-03 +1.44126301342E-03 +1.03219971111E-03 +1.42624494871E-03 +7.64902963631E-01 +3.82030866215E-01
2.70000000000E+09 +7.64844247274E-01 +2.35623299415E-01 +1.24421331772E-03 +1.35606548541E-03 +1.22358082980E-03 +1.34747509671E-03 +7.67633527048E-01 +3.68438227667E-01
2.70500000000E+09 +7.65628441599E-01 +2.21490409928E-01 +1.59153785758E-03 +1.09246985550E-03 +1.46416515879E-03 +1.13548232768E-03 +7.70212222328E-01 +3.54585722029E-01
2.71000000000E+09 +7.66740375555E-01 +2.07844951044E-01 +1.54960228031E-03 +7.96031797901E-04 +1.46936008159E-03 +9.04132188325E-04 +7.72905039704E-01 +3.41391004555E-01
2.71500000000E+09 +7.68369526416E-01 +1.93578581987E-01 +1.41296903568E-03 +6.49267953578E-04 +1.45235556832E-03 +7.26551928848E-04 +7.75611082432E-01 +3.28359749801E-01
2.72000000000E+09 +7.69420004168E-01 +1.78985292251E-01 +1.37742775224E-03 +6.77229035434E-04 +1.46287397279E-03 +5.89388599090E-04 +7.77460736755E-01 +3.15431510418E-01
2.72500000000E+09 +7.70167172547E-01 +1.63972559506E-01 +1.53932336343E-03 +6.97049902367E-04 +1.54750653948E-03 +5.05526690064E-04 +7.78374666680E-01 +3.01946081777E-01
2.73000000000E+09 +7.70158888278E-01 +1.48520725418E-01 +1.54857766963E-03 +6.12270479846E-04 +1.43227502560E-03 +4.40976385157E-04 +7.79645923506E-01 +2.88147762495E-01
2.73500000000E+09 +7.69314447470E-01 +1.32063916950E-01 +1.72620495861E-03 +5.95645172083E-04 +1.51764613382E-03 +4.66780608946E-04 +7.80608698663E-01 +2.72995400710E-01
2.74000000000E+09 +7.67171968010E-01 +1.15843982213E-01 +1.88772848084E-03 +4.36845483617E-04 +1.66124488435E-03 +5.20494504798E-04 +7.81705667503E-01 +2.57548864717E-01
2.74500000000E+09 +7.64259573378E-01 +9.89708014764E-02 +1.96716517997E-03 +3.48213291041E-04 +1.81134481836E-03 +5.41879812032E-04 +7.82221070160E-01 +2.42109455738E-01
2.75000000000E+09 +7.60563424302E-01 +8.19550419505E-02 +2.20410485665E-03 +1.35463522744E-04 +2.24918731871E-03 +3.59754930845E-04 +7.82860316891E-01 +2.27009364273E-01
2.75500000000E+09 +7.56245271459E-01 +6.46672875421E-02 +2.22959779288E-03 -2.71067561290E-04 +2.43840201629E-03 -6.46844831351E-05 +7.82366774646E-01 +2.11953887823E-01
2.76000000000E+09 +7.51703534568E-01 +4.74458967319E-02 +2.17717725138E-03 -3.25091255970E-04 +2.36692633468E-03 -3.78579053681E-04 +7.81790154908E-01 +1.96863988501E-01
2.76500000000E+09 +7.46651907196E-01 +2.99399070436E-02 +2.32497519333E-03 -5.37439270961E-04 +2.50268689985E-03 -6.25630581095E-04 +7.80805951234E-01 +1.80313721837E-01
2.77000000000E+09 +7.42292434967E-01 +1.21740422784E-02 +2.44562389944E-03 -8.74983484199E-04 +2.52637684671E-03 -1.00962018926E-03 +7.79476628010E-01 +1.62569444093E-01
2.77500000000E+09 +7.37768870197E-01 -6.64800680852E-03 +2.35427176934E-03 -1.34655230006E-03 +2.32701448613E-03 -1.46208894249E-03 +7.76989865383E-01 +1.44339979793E-01
2.78000000000E+09 +7.32917072949E-01 -2.64177390584E-02 +2.21083444881E-03 -1.52328350469E-03 +2.11035035906E-03 -1.68876273111E-03 +7.75064835595E-01 +1.26633594013E-01
2.78500000000E+09 +7.26765370289E-01 -4.66662042379E-02 +1.98347092686E-03 -1.77259383481E-03 +1.85479085487E-03 -1.90413901842E-03 +7.72461941649E-01 +1.08669711149E-01
2.79000000000E+09 +7.20036038924E-01 -6.71240790742E-02 +1.92428976771E-03 -2.00359266629E-03 +1.80470983367E-03 -1.99580990970E-03 +7.69139460283E-01 +9.13092713966E-02
2.79500000000E+09 +7.12073300834E-01 -8.72378325224E-02 +1.95335596521E-03 -2.42207937943E-03 +1.74717887546E-03 -2.30388858803E-03 +7.64817159328E-01 +7.33457484517E-02
2.80000000000E+09 +7.03170157820E-01 -1.07071225179E-01 +1.45038398801E-03 -2.83927349823E-03 +1.45325405255E-03 -2.68641675638E-03 +7.59424946952E-01 +5.49428416726E-02
2.80500000000E+09 +6.93293659652E-01 -1.26509077857E-01 +8.47415630235E-04 -3.01521007791E-03 +9.53901009757E-04 -2.94853448949E-03 +7.53440687396E-01 +3.67548736238E-02
2.81000000000E+09 +6.82189093273E-01 -1.45278927473E-01 +6.41788697095E-04 -2.80156648868E-03 +6.76108300559E-04 -2.84156292218E-03 +7.47347654670E-01 +1.70525213643E-02
2.81500000000E+09 +6.70028542650E-01 -1.63183709655E-01 +3.48946728289E-04 -2.89336947465E-03 +2.60770722848E-04 -2.98435788566E-03 +7.40035499771E-01 -3.09121751995E-03
2.82000000000E+09 +6.57346712162E-01 -1.80903297480E-01 +2.41426705841E-04 -2.99535043989E-03 +1.43977267081E-04 -2.97788902562E-03 +7.31618159411E-01 -2.30738921795E-02
2.82500000000E+09 +6.43189440071E-01 -1.98729138766E-01 -1.50477617800E-04 -3.13188131063E-03 -3.03035772518E-04 -2.97556122863E-03 +7.22476036004E-01 -4.22647480916E-02
2.83000000000E+09 +6.27579163251E-01 -2.17061354379E-01 -7.37311879157E-04 -3.14215715231E-03 -6.40679135194E-04 -2.93887014382E-03 +7.12537086118E-01 -6.17812903799E-02
2.83500000000E+09 +6.10100356368E-01 -2.35844242646E-01 -9.89336214500E-04 -2.61152234739E-03 -8.64562088462E-04 -2.53101367097E-03 +7.02101045672E-01 -8.10007925951E-02
2.84000000000E+09 +5.90555124209E-01 -2.54319001282E-01 -8.19054096079E-04 -2.61525195031E-03 -7.23079222212E-04 -2.66677268366E-03 +6.90828443227E-01 -1.01435363068E-01
2.84500000000E+09 +5.69319008910E-01 -2.72468620020E-01 -1.29036877278E-03 -2.90951751532E-03 -1.21373665572E-03 -2.94150836117E-03 +6.77820528236E-01 -1.22268459903E-01
2.85000000000E+09 +5.46885552795E-01 -2.90963506891E-01 -1.50399773984E-03 -2.78598722314E-03 -1.52884426915E-03 -2.78939201615E-03 +6.63433157153E-01 -1.42562529017E-01
2.85500000000E+09 +5.22618094290E-01 -3.08903329353E-01 -2.07514968587E-03 -2.68847582437E-03 -2.09412031788E-03 -2.61899201143E-03 +6.48956853271E-01 -1.61836810072E-01
2.86000000000E+09 +4.97229800524E-01 -3.26096014404E-01 -2.35250737602E-03 -2.34197814918E-03 -2.25825531130E-03 -2.35355355805E-03 +6.33162786427E-01 -1.83087442716E-01
2.86500000000E+09 +4.71237095051E-01 -3.42317098822E-01 -2.64773848685E-03 -1.95808338020E-03 -2.66253998930E-03 -1.99540534049E-03 +6.14932465088E-01 -2.03040599923E-01
2.87000000000E+09 +4.44142590527E-01 -3.57461470981E-01 -2.65872983864E-03 -1.47590786344E-03 -2.69301118932E-03 -1.47052464252E-03 +5.96170868788E-01 -2.22339615973E-01
2.87500000000E+09 +4.16848291868E-01 -3.70411076482E-01 -2.49299387792E-03 -1.28305598007E-03 -2.56209682587E-03 -1.26046128262E-03 +5.76048381108E-01 -2.41558239524E-01
2.88000000000E+09 +3.89591611784E-01 -3.82501393116E-01 -2.49273408323E-03 -1.46607852831E-03 -2.49904709628E-03 -1.35510554337E-03 +5.54551348037E-01 -2.60162747130E-01
2.88500000000E+09 +3.61451981833E-01 -3.93286953062E-01 -2.94870113061E-03 -1.40261536657E-03 -2.82434213703E-03 -1.23625717663E-03 +5.32319189837E-01 -2.78386991547E-01
2.89000000000E+09 +3.32236816163E-01 -4.02386220872E-01 -3.16318103838E-03 -1.12521741533E-03 -2.98162558011E-03 -1.13418657683E-03 +5.07014672250E-01 -2.96948805407E-01
2.89500000000E+09 +3.01889595548E-01 -4.09949021939E-01 -3.51715667214E-03 -6.89922708397E-04 -3.42421671344E-03 -8.07638545816E-04 +4.79390713933E-01 -3.13651571832E-01
2.90000000000E+09 +2.69658255607E-01 -4.15661624432E-01 -3.43036822031E-03 -1.97264023832E-04 -3.38170357762E-03 -3.00582004502E-04 +4.50987701233E-01 -3.28980095715E-01
2.90500000000E+09 +2.35298420477E-01 -4.18631002342E-01 -3.15859603573E-03 -1.04620201173E-04 -3.23679769209E-03 -1.04624057395E-04 +4.22124297152E-01 -3.43607221179E-01
2.91000000000E+09 +1.99657615010E-01 -4.18559119313E-01 -3.66010514119E-03 -6.83444634823E-05 -3.64957637436E-03 +3.31315677124E-05 +3.91156982444E-01 -3.57693445274E-01
2.91500000000E+09 +1.63944452679E-01 -4.15062163196E-01 -3.61565977081E-03 +6.11644432679E-04 -3.42801064142E-03 +6.78054839259E-04 +3.59168118522E-01 -3.70056051333E-01
2.92000000000E+09 +1.28431643217E-01 -4.09674370513E-01 -3.37396246249E-03 +5.79402762351E-04 -3.17543318708E-03 +5.78755650629E-04 +3.24768057037E-01 -3.79356251875E-01
2.92500000000E+09 +9.39916606047E-02 -4.02930043840E-01 -3.65882481899E-03 +6.39832841823E-04 -3.48010540980E-03 +4.75979258789E-04 +2.90206961250E-01 -3.86206669655E-01
2.93000000000E+09 +5.85501554909E-02 -3.95361604482E-01 -4.29421231119E-03 +1.18850100162E-03 -4.24871827203E-03 +9.48606715159E-04 +2.54497788825E-01 -3.91951741969E-01
2.93500000000E+09 +2.29157578530E-02 -3.85309780142E-01 -4.19314183269E-03 +2.16126015338E-03 -4.32210146519E-03 +2.04303552436E-03 +2.16956216014E-01 -3.96739578179E-01
2.94000000000E+09 -1.23356212184E-02 -3.72257130909E-01 -3.89010862850E-03 +2.80431882541E-03 -3.95855115616E-03 +2.73098525961E-03 +1.77730131532E-01 -3.98782798357E-01
2.94500000000E+09 -4.55968215948E-02 -3.56556613757E-01 -3.46298363359E-03 +3.09660111862E-03 -3.43363007171E-03 +2.94032091017E-03 +1.38976738938E-01 -3.98473461667E-01
2.95000000000E+09 -7.76152628504E-02 -3.38430342871E-01 -3.53032662211E-03 +3.60307498543E-03 -3.62049978743E-03 +3.45195546623E-03 +1.00529883260E-01 -3.95484007979E-01
2.95500000000E+09 -1.07363788485E-01 -3.18065603466E-01 -2.94981424194E-03 +3.99043769431E-03 -3.22979212561E-03 +3.89510258954E-03 +6.20313702270E-02 -3.90507980268E-01
2.96000000000E+09 -1.36772048833E-01 -2.95848969604E-01 -2.90715734065E-03 +4.62206414628E-03 -3.12209803218E-03 +4.81588559690E-03 +2.22292926227E-02 -3.82742547885E-01
2.96500000000E+09 -1.64293361103E-01 -2.70434772315E-01 -2.04644318104E-03 +5.23283297069E-03 -2.07489466712E-03 +5.42259526046E-03 -1.84161143746E-02 -3.71704562046E-01
2.97000000000E+09 -1.90496431322E-01 -2.42170878176E-01 -1.59271136359E-03 +5.11381298224E-03 -1.42181638182E-03 +5.18295742046E-03 -5.85507517427E-02 -3.57120970944E-01
2.97500000000E+09 -2.14284616705E-01 -2.11973723124E-01 -1.58953267893E-03 +5.75673936337E-03 -1.51890306949E-03 +5.61995622589E-03 -9.81027691762E-02 -3.40592429929E-01
2.98000000000E+09 -2.36894276773E-01 -1.79514398410E-01 -4.50398889167E-04 +6.48143906606E-03 -6.05103618579E-04 +6.34209067451E-03 -1.36483936689E-01 -3.20691155878E-01
2.98500000000E+09 -2.56479544781E-01 -1.46217985708E-01 +3.31749442589E-04 +6.49476845278E-03 +1.68495460064E-05 +6.63582940833E-03 -1.73453824754E-01 -2.99386684339E-01
2.99000000000E+09 -2.74539538681E-01 -1.13136843895E-01 +1.50762888046E-03 +7.02426807508E-03 +1.48338336638E-03 +7.35782578547E-03 -2.10449148393E-01 -2.73403978380E-01
2.99500000000E+09 -2.91708139509E-01 -7.92214369393E-02 +2.97625391264E-03 +6.39928919039E-03 +3.20403050423E-03 +6.58271839731E-03 -2.43467964081E-01 -2.43367042092E-01
3.00000000000E+09 -3.06637676948E-01 -4.44503759540E-02 +3.20785026211E-03 +5.80486188919E-03 +3.46164192999E-03 +5.59903400422E-03 -2.74344952834E-01 -2.12063027462E-01
3.00500000000E+09 -3.17905568075E-01 -9.91339661920E-03 +4.00374979945E-03 +6.35640481986E-03 +4.01364321704E-03 +6.00613670556E-03 -3.04070438062E-01 -1.78800256449E-01
3.01000000000E+09 -3.26395498681E-01 +2.34884103032E-02 +5.80870019139E-03 +5.57800399724E-03 +5.50477749328E-03 +5.39426163380E-03 -3.30300046819E-01 -1.43518903633E-01
3.01500000000E+09 -3.32779047764E-01 +5.57137093300E-02 +6.52135252830E-03 +3.96162734324E-03 +6.29622384203E-03 +4.18123411463E-03 -3.54852330491E-01 -1.07319306818E-01
3.02000000000E+09 -3.36592465851E-01 +8.82424387075E-02 +6.67392180546E-03 +2.79936487503E-03 +6.71180162743E-03 +3.01392928789E-03 -3.75431826963E-01 -6.87568911133E-02
3.02500000000E+09 -3.37318745285E-01 +1.20573330626E-01 +6.27725349555E-03 +2.15769666722E-03 +6.38993357904E-03 +2.25475232839E-03 -3.91789997760E-01 -2.97242698207E-02
3.03000000000E+09 -3.34389873178E-01 +1.52579322700E-01 +6.70546676874E-03 +2.01732975895E-03 +6.71633464744E-03 +2.13147186877E-03 -4.06355651863E-01 +9.45864240624E-03
3.03500000000E+09 -3.29125260376E-01 +1.82816144451E-01 +7.84925096128E-03 +1.33230313186E-03 +7.86021342946E-03 +1.40052538102E-03 -4.18546268373E-01 +5.02303520551E-02
3.04000000000E+09 -3.21584966403E-01 +2.13756644019E-01 +8.28466061894E-03 -8.47054542056E-04 +8.54889077179E-03 -6.57207068269E-04 -4.27014437248E-01 +9.17467662022E-02
3.04500000000E+09 -3.12234610337E-01 +2.42526528372E-01 +7.42573754268E-03 -2.21902098738E-03 +7.87558916239E-03 -2.25027630613E-03 -4.32112158415E-01 +1.32985105471E-01
3.05000000000E+09 -3.02132270942E-01 +2.71174247758E-01 +6.53153905867E-03 -3.24373946084E-03 +6.73307727067E-03 -3.69707703873E-03 -4.33797659222E-01 +1.71437594172E-01
3.05500000000E+09 -2.90836421973E-01 +2.99226308070E-01 +5.66796892528E-03 -3.22888201779E-03 +5.53048382468E-03 -3.63597732194E-03 -4.36088350404E-01 +2.09736725523E-01
3.06000000000E+09 -2.78291386606E-01 +3.27197436893E-01 +5.86842228508E-03 -3.96161971365E-03 +5.41385691374E-03 -4.09158591167E-03 -4.34574188976E-01 +2.49588469015E-01
3.06500000000E+09 -2.64002907129E-01 +3.52871309130E-01 +5.19765492740E-03 -5.10160703146E-03 +4.89414079661E-03 -4.78235049722E-03 -4.29219347187E-01 +2.88035850454E-01
3.07000000000E+09 -2.49699669734E-01 +3.76899236801E-01 +3.85900449773E-03 -5.89538378531E-03 +4.09380968461E-03 -5.50292998306E-03 -4.21494413461E-01 +3.24253750375E-01
