# Hz S RI R 50
! CMT, C1220, 16058040, 17.2.0/1
! Date: 15/08/2018 09:54:31
! Data: Format (Calibration Info)
! Freq                      S11: Re/Im (F2)                       S21: Re/Im (F2)                       S12: Re/Im (F2)                       S22: Re/Im (F2)            
2.50000000000E+09 +5.97553084083E-01 +6.26317240599E-01 -4.03039505948E-04 -7.17172202317E-04 -4.09110833655E-04 -7.52045513938E-04 +5.78426793066E-01 +7.13071234327E-01
2.50500000000E+09 +6.03669043802E-01 +6.19186349304E-01 -4.73553427599E-04 -6.33899830611E-04 -5.01357278064E-04 -6.75982187142E-04 +5.83977704672E-01 +7.07457268579E-01
2.51000000000E+09 +6.10163381185E-01 +6.11931436020E-01 -4.51908041472E-04 -5.63006364552E-04 -4.41324008708E-04 -5.24087944601E-04 +5.89619531726E-01 +7.02129225709E-01
2.51500000000E+09 +6.16812425416E-01 +6.04361566170E-01 -4.48696554101E-04 -5.75262171520E-04 -4.31584909629E-04 -5.90369486152E-04 +5.94761606473E-01 +6.96695595668E-01
2.52000000000E+09 +6.22902564962E-01 +5.96582460353E-01 -5.36534458397E-04 -6.26674392055E-04 -5.23286676900E-04 -6.50578140900E-04 +5.99654633700E-01 +6.90804138001E-01
2.52500000000E+09 +6.28395606194E-01 +5.89026515468E-01 -6.75540144647E-04 -5.74011321132E-04 -7.02080970751E-04 -5.97526890510E-04 +6.05393370226E-01 +6.84236923943E-01
2.53000000000E+09 +6.33694388580E-01 +5.81642447712E-01 -7.92294569618E-04 -3.99879658519E-04 -7.83148452265E-04 -3.99965048969E-04 +6.11433145266E-01 +6.77030551861E-01
2.53500000000E+09 +6.38391007770E-01 +5.74607350917E-01 -6.75762733880E-04 -3.23671220593E-04 -6.72838474359E-04 -2.92733933200E-04 +6.17371486440E-01 +6.70044449080E-01
2.54000000000E+09 +6.43013108580E-01 +5.67828405132E-01 -7.54410602000E-04 -3.68690389045E-04 -6.91566184231E-04 -3.59649568860E-04 +6.23259159439E-01 +6.63194616966E-01
2.54500000000E+09 +6.47714219536E-01 +5.61056186326E-01 -9.00513143467E-04 -3.46892363995E-04 -8.28959749067E-04 -3.93669749880E-04 +6.29091084404E-01 +6.56701446422E-01
2.55000000000E+09 +6.52432965894E-01 +5.54159738277E-01 -8.96302228053E-04 -1.83400372337E-04 -9.82022478525E-04 -2.73646757120E-04 +6.34064562955E-01 +6.50427930484E-01
2.55500000000E+09 +6.57409631807E-01 +5.46823122252E-01 -9.28043566902E-04 -2.52756873502E-05 -1.07066861875E-03 -8.18407810636E-05 +6.38992219965E-01 +6.44151282726E-01
2.56000000000E+09 +6.63038639744E-01 +5.39490044378E-01 -8.09805161700E-04 +4.18819645467E-05 -9.73132079153E-04 +1.71797214289E-04 +6.44139779137E-01 +6.36975583790E-01
2.56500000000E+09 +6.69016198278E-01 +5.31499427158E-01 -7.34042945983E-04 -4.53093340219E-05 -7.93956796963E-04 +1.66073867408E-04 +6.49257522478E-01 +6.29307777112E-01
2.57000000000E+09 +6.75206166725E-01 +5.23355495306E-01 -8.88297466201E-04 -1.10647397039E-04 -8.18686516204E-04 +6.53117344077E-05 +6.54843927340E-01 +6.21295714804E-01
2.57500000000E+09 +6.81479546352E-01 +5.14375940989E-01 -1.13745769370E-03 +3.09713070400E-05 -9.82351805472E-04 +1.86112688373E-04 +6.60407455179E-01 +6.13324649246E-01
2.58000000000E+09 +6.87109306954E-01 +5.05632858450E-01 -1.08466797762E-03 +3.85738223170E-04 -8.75026874720E-04 +4.16801091583E-04 +6.65307305017E-01 +6.05795388664E-01
2.58500000000E+09 +6.92604997606E-01 +4.96907563986E-01 -8.54587354579E-04 +5.09994073339E-04 -7.21562598921E-04 +4.05827924483E-04 +6.70064009449E-01 +5.98279410350E-01
2.59000000000E+09 +6.97653591816E-01 +4.88225568232E-01 -7.64733983965E-04 +4.20978865426E-04 -7.23728651166E-04 +3.03379253990E-04 +6.74733612384E-01 +5.90890506290E-01
2.59500000000E+09 +7.02383198563E-01 +4.79685667607E-01 -8.15132139190E-04 +4.25186015679E-04 -8.36008456085E-04 +3.66390995822E-04 +6.79249845634E-01 +5.82802914718E-01
2.60000000000E+09 +7.06591221009E-01 +4.70947269873E-01 -8.95653609978E-04 +4.10070735941E-04 -8.87370530262E-04 +4.48049639543E-04 +6.84004152620E-01 +5.74269648735E-01
2.60500000000E+09 +7.10885767996E-01 +4.61785500048E-01 -1.03187004274E-03 +6.40572047288E-04 -1.02895565969E-03 +6.57197891034E-04 +6.88898115755E-01 +5.65328217940E-01
2.61000000000E+09 +7.15256239688E-01 +4.52083655059E-01 -8.64216754430E-04 +1.02493556927E-03 -8.87171038836E-04 +9.62200654681E-04 +6.93931704088E-01 +5.56381568486E-01
2.61500000000E+09 +7.19617894257E-01 +4.41826635675E-01 -5.42371069738E-04 +1.01782972721E-03 -5.52828643658E-04 +1.04848180996E-03 +6.98666511817E-01 +5.47964675079E-01
2.62000000000E+09 +7.23805291034E-01 +4.30535836692E-01 -5.03082600785E-04 +9.32009877739E-04 -5.27487761108E-04 +9.98054119947E-04 +7.03448934139E-01 +5.39004524262E-01
2.62500000000E+09 +7.27993273611E-01 +4.18701105014E-01 -4.53312625450E-04 +9.76045643058E-04 -4.11328344855E-04 +1.05337956106E-03 +7.07743753686E-01 +5.30300718246E-01
2.63000000000E+09 +7.32137853221E-01 +4.06295310724E-01 -3.25935448752E-04 +9.57925823368E-04 -1.66603406348E-04 +1.02415863651E-03 +7.12310018759E-01 +5.21707358656E-01
2.63500000000E+09 +7.35719331186E-01 +3.93544356143E-01 -3.91884493783E-04 +9.45707970361E-04 -2.44642997500E-04 +9.31348920579E-04 +7.17130364377E-01 +5.12588095941E-01
2.64000000000E+09 +7.38953135278E-01 +3.81185176199E-01 -2.37524939500E-04 +1.17430827602E-03 -1.91355692193E-04 +9.74313824176E-04 +7.21869234254E-01 +5.02951203149E-01
2.64500000000E+09 +7.42668364186E-01 +3.69298781250E-01 -1.28741312134E-04 +1.03823839038E-03 -2.05236025122E-04 +9.04129683468E-04 +7.26687261434E-01 +4.93233005057E-01
2.65000000000E+09 +7.45712972337E-01 +3.57339154579E-01 -1.44476319884E-04 +1.15726764320E-03 -2.46738857361E-04 +1.06727062690E-03 +7.31125240706E-01 +4.83191081145E-01
2.65500000000E+09 +7.48899727898E-01 +3.45484981865E-01 +1.48660663487E-05 +1.11431193919E-03 -9.78431400415E-05 +1.22046279496E-03 +7.35041723160E-01 +4.73093869320E-01
2.66000000000E+09 +7.51990996613E-01 +3.33384721902E-01 +5.21873192879E-05 +1.20867490275E-03 +7.89478587582E-05 +1.30942143798E-03 +7.39370759496E-01 +4.62347541008E-01
2.66500000000E+09 +7.54606231610E-01 +3.21571174066E-01 +2.40663089976E-04 +1.14266855910E-03 +2.94100257942E-04 +1.24478675312E-03 +7.43998738358E-01 +4.51081849820E-01
2.67000000000E+09 +7.56961397252E-01 +3.08869026042E-01 +2.32229204162E-04 +1.15905246557E-03 +3.24344780668E-04 +1.15525650676E-03 +7.48213341515E-01 +4.39798408497E-01
2.67500000000E+09 +7.58816277372E-01 +2.95655597000E-01 +4.20686854295E-04 +1.14893374054E-03 +4.17374446129E-04 +1.09773857323E-03 +7.52346896752E-01 +4.28350292858E-01
2.68000000000E+09 +7.60003613601E-01 +2.82197116315E-01 +4.10316479392E-04 +1.09348318269E-03 +3.70977587518E-04 +1.06545446315E-03 +7.55977822476E-01 +4.16997020249E-01
2.68500000000E+09 +7.60701497545E-01 +2.68449946992E-01 +3.48749367487E-04 +1.19976831906E-03 +3.59341704860E-04 +1.16339722878E-03 +7.59053803476E-01 +4.05646071794E-01
2.69000000000E+09 +7.61221567690E-01 +2.54761557844E-01 +5.31734252773E-04 +1.37690847681E-03 +5.58991278383E-04 +1.34875867783E-03 +7.61964601606E-01 +3.93799827060E-01
2.69500000000E+09 +7.62000543770E-01 +2.40966731320E-01 +8.01317859399E-04 +1.36156332249E-03 +7.90886789572E-04 +1.36288728997E-03 +7.64806904949E-01 +3.80842710279E-01
2.70000000000E+09 +7.62605477220E-01 +2.26833316436E-01 +1.01738310045E-03 +1.36069175545E-03 +1.00288003875E-03 +1.27754901428E-03 +7.67527903822E-01 +3.67274961853E-01
2.70500000000E+09 +7.63158714961E-01 +2.12835860258E-01 +1.29858480652E-03 +1.13218996816E-03 +1.26848455890E-03 +1.14962207099E-03 +7.70116352237E-01 +3.53769395118E-01
2.71000000000E+09 +7.63727542620E-01 +1.99138000697E-01 +1.29318598101E-03 +8.46427002645E-04 +1.29754523342E-03 +9.01692034027E-04 +7.73086573071E-01 +3.40505656325E-01
2.71500000000E+09 +7.64864906301E-01 +1.84898268978E-01 +1.24839427672E-03 +7.75830479438E-04 +1.23895936054E-03 +7.67616979574E-04 +7.75470679718E-01 +3.27445134694E-01
2.72000000000E+09 +7.65574851326E-01 +1.70267870078E-01 +1.25216208638E-03 +8.30773760113E-04 +1.37058368946E-03 +7.50167858924E-04 +7.77292992131E-01 +3.14534255673E-01
2.72500000000E+09 +7.65965696715E-01 +1.54954488388E-01 +1.49361211087E-03 +8.72461580321E-04 +1.51068524099E-03 +6.68338481145E-04 +7.78085594226E-01 +3.01504164080E-01
2.73000000000E+09 +7.65297066880E-01 +1.39564373116E-01 +1.58973349148E-03 +8.16633390461E-04 +1.51552882673E-03 +5.91698016760E-04 +7.79554105732E-01 +2.87783535032E-01
2.73500000000E+09 +7.64277468109E-01 +1.23345797952E-01 +1.80895901353E-03 +6.54104336180E-04 +1.57450348847E-03 +5.40087175537E-04 +7.80765090317E-01 +2.72738227466E-01
2.74000000000E+09 +7.61974596434E-01 +1.07048846675E-01 +2.04818288154E-03 +4.97346030642E-04 +1.74369005054E-03 +6.00050669884E-04 +7.81962726495E-01 +2.57056739294E-01
2.74500000000E+09 +7.58801272288E-01 +9.05649214069E-02 +2.11924814194E-03 +2.90337366651E-04 +1.96051732189E-03 +5.72764204617E-04 +7.82765780317E-01 +2.41800030022E-01
2.75000000000E+09 +7.54940320072E-01 +7.38231173960E-02 +2.38211908134E-03 +4.04960947171E-05 +2.37659632586E-03 +2.79326114839E-04 +7.83609133581E-01 +2.26507379652E-01
2.75500000000E+09 +7.50195426294E-01 +5.71515387828E-02 +2.21753814077E-03 -3.48049549830E-04 +2.33920822135E-03 -2.66879117930E-04 +7.83129299712E-01 +2.11381328422E-01
2.76000000000E+09 +7.45101174537E-01 +4.06270028428E-02 +2.12188069911E-03 -3.64222066946E-04 +2.26758857309E-03 -3.27851192701E-04 +7.82637998834E-01 +1.96309045889E-01
2.76500000000E+09 +7.40270548447E-01 +2.39245767103E-02 +2.35717190314E-03 -5.15849129564E-04 +2.42221294447E-03 -4.65253666603E-04 +7.81756717266E-01 +1.79471743959E-01
2.77000000000E+09 +7.35683960715E-01 +6.60943751562E-03 +2.53813882995E-03 -9.54184383458E-04 +2.60793578788E-03 -9.50915429229E-04 +7.80098077777E-01 +1.61530948178E-01
2.77500000000E+09 +7.30968663482E-01 -1.20197855845E-02 +2.34267639408E-03 -1.43675645528E-03 +2.37243224014E-03 -1.45575899157E-03 +7.77666577267E-01 +1.43530928910E-01
2.78000000000E+09 +7.25698431605E-01 -3.12596759612E-02 +2.20336187417E-03 -1.51358748475E-03 +2.19608021390E-03 -1.63452384189E-03 +7.75862408832E-01 +1.25592425167E-01
2.78500000000E+09 +7.19352828678E-01 -5.11123853321E-02 +2.01935105062E-03 -1.76673155658E-03 +1.90838852124E-03 -1.87133245931E-03 +7.73331115501E-01 +1.07437952280E-01
2.79000000000E+09 +7.12249867106E-01 -7.07074814405E-02 +2.15659422248E-03 -1.81982841611E-03 +1.97288219567E-03 -1.83196620585E-03 +7.70071361843E-01 +8.99213008236E-02
2.79500000000E+09 +7.04385230968E-01 -8.99478653349E-02 +2.17882086057E-03 -2.55284381665E-03 +2.06390211726E-03 -2.46197532879E-03 +7.65338871374E-01 +7.18167451153E-02
2.80000000000E+09 +6.95823165498E-01 -1.09254727544E-01 +1.60537991071E-03 -2.88307922529E-03 +1.69370617225E-03 -2.71614806828E-03 +7.59477418904E-01 +5.39079539917E-02
2.80500000000E+09 +6.86039341192E-01 -1.28087929122E-01 +1.10861412799E-03 -3.02920678598E-03 +1.31766213378E-03 -3.05795410457E-03 +7.53771600733E-01 +3.58904763898E-02
2.81000000000E+09 +6.74845992725E-01 -1.46104308688E-01 +1.06739984036E-03 -2.97382849961E-03 +1.15795984584E-03 -3.10741733745E-03 +7.47813879930E-01 +1.59273612515E-02
2.81500000000E+09 +6.62931072951E-01 -1.63177197655E-01 +7.60261204339E-04 -3.36297621064E-03 +6.66232463805E-04 -3.52358016572E-03 +7.40352698972E-01 -4.10052122830E-03
2.82000000000E+09 +6.50120027725E-01 -1.80247166029E-01 +5.28246060195E-04 -3.60447763400E-03 +3.62452688941E-04 -3.68401094409E-03 +7.32194001801E-01 -2.38569234560E-02
2.82500000000E+09 +6.35815296355E-01 -1.97041070581E-01 -1.04929613400E-04 -4.03354993910E-03 -2.57076579467E-04 -3.95853333417E-03 +7.23399936520E-01 -4.32527305960E-02
2.83000000000E+09 +6.20370664079E-01 -2.14506130530E-01 -8.90546531332E-04 -3.80580232314E-03 -9.05218101451E-04 -3.63887094998E-03 +7.13840994166E-01 -6.27097857955E-02
2.83500000000E+09 +6.03066306628E-01 -2.32442436134E-01 -1.22362080257E-03 -3.34766938560E-03 -1.14465658766E-03 -3.35650013022E-03 +7.03716131145E-01 -8.24841764462E-02
2.84000000000E+09 +5.83559033900E-01 -2.50059831585E-01 -1.10944096889E-03 -3.53158526289E-03 -1.02715106328E-03 -3.53905297580E-03 +6.92101499365E-01 -1.03528092856E-01
2.84500000000E+09 +5.62682863296E-01 -2.67629104303E-01 -1.84033868099E-03 -3.78215575933E-03 -1.83333595115E-03 -3.84262947404E-03 +6.78953134703E-01 -1.24271167908E-01
2.85000000000E+09 +5.40660293168E-01 -2.85155275384E-01 -2.37354348507E-03 -3.59583320228E-03 -2.45661785919E-03 -3.57914723454E-03 +6.64684217549E-01 -1.44598403613E-01
2.85500000000E+09 +5.16990207156E-01 -3.02224521970E-01 -3.22878607886E-03 -3.31694241088E-03 -3.23635499861E-03 -3.23724207606E-03 +6.50231529960E-01 -1.64743249817E-01
2.86000000000E+09 +4.92932463715E-01 -3.18658055149E-01 -3.50925758002E-03 -2.68200905040E-03 -3.46690542053E-03 -2.65287915648E-03 +6.34121203195E-01 -1.86210268554E-01
2.86500000000E+09 +4.67586883669E-01 -3.34359339618E-01 -3.90913861292E-03 -2.27284265152E-03 -3.87042756950E-03 -2.19698242348E-03 +6.15723150274E-01 -2.06743036503E-01
2.87000000000E+09 +4.41515990947E-01 -3.48195040091E-01 -4.14758544538E-03 -1.63866835120E-03 -4.18812088988E-03 -1.59219549193E-03 +5.95991705607E-01 -2.26353971480E-01
2.87500000000E+09 +4.15779729487E-01 -3.60429534273E-01 -4.08450688297E-03 -1.06155369362E-03 -4.03120044993E-03 -9.39147426945E-04 +5.75494817460E-01 -2.45415353866E-01
2.88000000000E+09 +3.89916826951E-01 -3.71944017741E-01 -3.97485755828E-03 -8.68214776642E-04 -3.81217899616E-03 -7.11123588169E-04 +5.53685453259E-01 -2.64059533247E-01
2.88500000000E+09 +3.62760967914E-01 -3.82352199073E-01 -4.41034884347E-03 -5.99819817844E-04 -4.06943634354E-03 -5.15822213885E-04 +5.30756600358E-01 -2.82595030554E-01
2.89000000000E+09 +3.34575102119E-01 -3.90624534709E-01 -4.25564869948E-03 +1.16989815938E-04 -3.96329303684E-03 -3.54031233384E-05 +5.04947060871E-01 -3.00646782031E-01
2.89500000000E+09 +3.05521467438E-01 -3.97371346157E-01 -4.32151087698E-03 +3.53385848579E-04 -4.18930552160E-03 +9.97395160532E-05 +4.76426116251E-01 -3.17523376472E-01
2.90000000000E+09 +2.75042446628E-01 -4.02561296322E-01 -4.53333245847E-03 +7.94244895402E-04 -4.50468450681E-03 +6.17631698390E-04 +4.47762708758E-01 -3.31985507028E-01
2.90500000000E+09 +2.42684536232E-01 -4.05640742145E-01 -4.36012447554E-03 +1.55513034225E-03 -4.36823681413E-03 +1.48416805172E-03 +4.18605766675E-01 -3.46609722081E-01
2.91000000000E+09 +2.08846596733E-01 -4.06188795686E-01 -4.10712284918E-03 +1.85595662171E-03 -4.00499327534E-03 +1.90372577112E-03 +3.87055688532E-01 -3.60545511452E-01
2.91500000000E+09 +1.74825166615E-01 -4.03428113616E-01 -3.63828307637E-03 +2.37498723798E-03 -3.49761196206E-03 +2.30775273456E-03 +3.54294620859E-01 -3.71873591974E-01
2.92000000000E+09 +1.40628713745E-01 -3.98171514957E-01 -3.46401085684E-03 +2.15796663650E-03 -3.34546677991E-03 +1.94216194936E-03 +3.20039745397E-01 -3.79980801616E-01
2.92500000000E+09 +1.08495181930E-01 -3.91406036346E-01 -3.78090470205E-03 +2.37999624022E-03 -3.71939634634E-03 +2.13728773919E-03 +2.85550548533E-01 -3.86367494108E-01
2.93000000000E+09 +7.55533984501E-02 -3.84840474026E-01 -4.03120370458E-03 +3.21723827211E-03 -4.18871336401E-03 +2.97671151286E-03 +2.50136439348E-01 -3.91465666561E-01
2.93500000000E+09 +4.14973830714E-02 -3.76179789142E-01 -3.36232858030E-03 +4.17446297974E-03 -3.65827507973E-03 +4.09720750268E-03 +2.12620328317E-01 -3.96221154694E-01
2.94000000000E+09 +7.39114396696E-03 -3.64206355054E-01 -2.75045620558E-03 +4.35483380651E-03 -2.80728582804E-03 +4.36937324537E-03 +1.73525751731E-01 -3.97616470689E-01
2.94500000000E+09 -2.50498751143E-02 -3.48541117702E-01 -2.41074712623E-03 +4.47644791240E-03 -2.48554368766E-03 +4.44623747909E-03 +1.35424334805E-01 -3.96733479264E-01
2.95000000000E+09 -5.51337465663E-02 -3.30920061357E-01 -2.18711617382E-03 +5.15678530241E-03 -2.38947920777E-03 +5.05228367313E-03 +9.77230615865E-02 -3.93709335459E-01
2.95500000000E+09 -8.33649149735E-02 -3.12210253291E-01 -1.31972663041E-03 +5.49753722266E-03 -1.59501520926E-03 +5.54768224109E-03 +5.92540549260E-02 -3.89359267579E-01
2.96000000000E+09 -1.11806162552E-01 -2.91643297494E-01 -9.58106972244E-04 +5.66586236843E-03 -1.11340954191E-03 +5.89506962387E-03 +1.88913063680E-02 -3.81550902571E-01
2.96500000000E+09 -1.39072245281E-01 -2.67949074304E-01 -1.85810788607E-04 +6.00798283171E-03 -5.37177346664E-05 +6.26150672195E-03 -2.24015500169E-02 -3.69551149628E-01
2.97000000000E+09 -1.64781475937E-01 -2.41302331436E-01 +3.91729869286E-04 +5.73538055396E-03 +5.46584439125E-04 +5.75123578387E-03 -6.22875306013E-02 -3.53940130846E-01
2.97500000000E+09 -1.87661575830E-01 -2.12327758583E-01 +6.18463799488E-04 +6.58759239306E-03 +7.37999417473E-04 +6.40160019969E-03 -1.01215321167E-01 -3.36499075906E-01
2.98000000000E+09 -2.09040202532E-01 -1.82774792420E-01 +2.45665581594E-03 +6.64987696758E-03 +2.23118754377E-03 +6.57343142165E-03 -1.38419394777E-01 -3.16772976882E-01
2.98500000000E+09 -2.28939649261E-01 -1.52106262615E-01 +3.00131105463E-03 +5.66230834801E-03 +2.85174755837E-03 +5.83916061592E-03 -1.75540905175E-01 -2.95612431935E-01
2.99000000000E+09 -2.47511455973E-01 -1.20766396026E-01 +3.27583038216E-03 +5.71268861208E-03 +3.36080956667E-03 +6.07300865343E-03 -2.11841705436E-01 -2.68800923771E-01
2.99500000000E+09 -2.64087727140E-01 -8.84363807486E-02 +4.44922592139E-03 +5.77451238370E-03 +4.77521773441E-03 +5.95168625602E-03 -2.43918549931E-01 -2.38763049409E-01
3.00000000000E+09 -2.78961564715E-01 -5.56580554611E-02 +5.21995146192E-03 +5.24086173753E-03 +5.45816712102E-03 +4.97349379696E-03 -2.74576981044E-01 -2.08048025448E-01
3.00500000000E+09 -2.90738930740E-01 -2.30725955820E-02 +6.53864526951E-03 +5.17266102704E-03 +6.50030152948E-03 +4.82820616994E-03 -3.04378769091E-01 -1.74049920755E-01
3.01000000000E+09 -2.99989211493E-01 +8.73360020438E-03 +7.92370499284E-03 +3.29165378043E-03 +7.53715922731E-03 +3.23582035799E-03 -3.29817739824E-01 -1.38539144750E-01
3.01500000000E+09 -3.07386114384E-01 +3.95625137831E-02 +7.94988616880E-03 +1.62869373662E-03 +7.85629359319E-03 +1.89472750101E-03 -3.53286072478E-01 -1.01782002619E-01
3.02000000000E+09 -3.12191468718E-01 +7.09489791845E-02 +7.57354986007E-03 +4.32072614893E-04 +7.70777955282E-03 +5.68809931213E-04 -3.72150874774E-01 -6.43606035224E-02
3.02500000000E+09 -3.13582188942E-01 +1.02125259052E-01 +7.33286563670E-03 +8.75023385647E-06 +7.46810856878E-03 -3.67569410150E-05 -3.88097338585E-01 -2.69014166625E-02
3.03000000000E+09 -3.11750681988E-01 +1.32270395379E-01 +7.51848450735E-03 -7.31926405296E-04 +7.44740946544E-03 -7.80972511091E-04 -4.03638010546E-01 +1.09259371321E-02
3.03500000000E+09 -3.08111536658E-01 +1.61228457654E-01 +7.93299382139E-03 -1.74470754675E-03 +7.94236298335E-03 -1.57590508880E-03 -4.16261572964E-01 +5.23116921612E-02
3.04000000000E+09 -3.02087113812E-01 +1.91427687771E-01 +7.67716343830E-03 -3.61088141511E-03 +7.87128313595E-03 -3.48766099143E-03 -4.24328240746E-01 +9.40224990214E-02
3.04500000000E+09 -2.93665236395E-01 +2.19380636925E-01 +6.63721186686E-03 -4.43313136202E-03 +7.01258558963E-03 -4.58530688162E-03 -4.28835071206E-01 +1.34776220490E-01
3.05000000000E+09 -2.84436720387E-01 +2.47632066801E-01 +5.93287282945E-03 -5.51311813933E-03 +6.03038356784E-03 -5.98519727646E-03 -4.31030279345E-01 +1.72677789089E-01
3.05500000000E+09 -2.73666308675E-01 +2.75217863354E-01 +4.77919882097E-03 -5.89517842608E-03 +4.43199917118E-03 -6.21371829868E-03 -4.33143287617E-01 +2.11063578432E-01
3.06000000000E+09 -2.61826020982E-01 +3.02051347885E-01 +4.05048287825E-03 -6.66050262128E-03 +3.59007043585E-03 -6.52963542806E-03 -4.31270175594E-01 +2.50745139825E-01
3.06500000000E+09 -2.48961408673E-01 +3.27353735926E-01 +2.65208994768E-03 -7.10838567941E-03 +2.58860277979E-03 -6.67657757537E-03 -4.25565978543E-01 +2.88271398902E-01
3.07000000000E+09 -2.36194580254E-01 +3.51473132355E-01 +1.13338180265E-03 -7.02819622724E-03 +1.47422660556E-03 -6.75919752689E-03 -4.18489884291E-01 +3.23248697933E-01
