# Hz S RI R 50
! CMT, C1220, 16058040, 17.2.0/1
! Date: 15/08/2018 09:57:06
! Data: Format (Calibration Info)
! Freq                      S11: Re/Im (F2)                       S21: Re/Im (F2)                       S12: Re/Im (F2)                       S22: Re/Im (F2)            
2.50000000000E+09 +5.98447354997E-01 +6.32480357533E-01 -7.14300675172E-05 -1.48198928626E-03 -5.68072964540E-05 -1.56349083522E-03 +5.77169236163E-01 +7.14158125828E-01
2.50500000000E+09 +6.04646626331E-01 +6.25118679983E-01 -2.63430169525E-04 -1.50088263551E-03 -3.19533310471E-04 -1.54221378023E-03 +5.82882729916E-01 +7.08543685526E-01
2.51000000000E+09 +6.11180162887E-01 +6.17388956889E-01 -4.08468196795E-04 -1.44736755188E-03 -4.31724253248E-04 -1.43482633001E-03 +5.88347171775E-01 +7.03216287766E-01
2.51500000000E+09 +6.17989290182E-01 +6.09705887534E-01 -4.99362526558E-04 -1.47867269827E-03 -4.95579438377E-04 -1.46484329882E-03 +5.93550176164E-01 +6.97816407980E-01
2.52000000000E+09 +6.24169095904E-01 +6.01612389572E-01 -7.33035297146E-04 -1.48774214226E-03 -6.98389210965E-04 -1.50367159076E-03 +5.98651746968E-01 +6.91913771797E-01
2.52500000000E+09 +6.29667304268E-01 +5.94072387991E-01 -9.34419105967E-04 -1.34423625085E-03 -9.33391247623E-04 -1.38264276729E-03 +6.04393452376E-01 +6.85460024581E-01
2.53000000000E+09 +6.34998233136E-01 +5.86866787150E-01 -1.07380107576E-03 -1.12370954820E-03 -1.07543362089E-03 -1.14843883655E-03 +6.10283074427E-01 +6.78190983107E-01
2.53500000000E+09 +6.39663439820E-01 +5.79939089061E-01 -9.90476078949E-04 -1.00406174922E-03 -9.85562386792E-04 -1.00845383556E-03 +6.16244940164E-01 +6.71345330681E-01
2.54000000000E+09 +6.44056994456E-01 +5.73286614517E-01 -1.04796091956E-03 -1.05449741138E-03 -9.58888835101E-04 -1.09038223030E-03 +6.22102904693E-01 +6.64729983715E-01
2.54500000000E+09 +6.48532235953E-01 +5.66850991811E-01 -1.24455867305E-03 -1.09219997042E-03 -1.15913919943E-03 -1.18831037779E-03 +6.28178086888E-01 +6.58200408026E-01
2.55000000000E+09 +6.53189024903E-01 +5.60034704454E-01 -1.44780454127E-03 -9.15145036715E-04 -1.46993208838E-03 -1.10547124361E-03 +6.33233106188E-01 +6.51838843877E-01
2.55500000000E+09 +6.58067088949E-01 +5.52604342107E-01 -1.52180076757E-03 -6.66248129824E-04 -1.74205523000E-03 -8.52988704179E-04 +6.38296670486E-01 +6.45601019554E-01
2.56000000000E+09 +6.63582968510E-01 +5.45214223626E-01 -1.42021751637E-03 -5.04011333206E-04 -1.72122472325E-03 -4.60632673609E-04 +6.43404454910E-01 +6.38433386326E-01
2.56500000000E+09 +6.69631824135E-01 +5.36990212514E-01 -1.30716484458E-03 -5.74257611682E-04 -1.56382397746E-03 -3.62651812221E-04 +6.48705332030E-01 +6.30890762050E-01
2.57000000000E+09 +6.75881336101E-01 +5.28464156532E-01 -1.49151814128E-03 -7.17554329551E-04 -1.58961948092E-03 -4.11130822012E-04 +6.54437874184E-01 +6.22997308104E-01
2.57500000000E+09 +6.82120489446E-01 +5.19304453873E-01 -1.94866587842E-03 -6.39257244844E-04 -1.71585618829E-03 -2.97057062293E-04 +6.60038670973E-01 +6.14914691942E-01
2.58000000000E+09 +6.87963506213E-01 +5.10418737518E-01 -2.12889531556E-03 -1.84760508975E-04 -1.80781737144E-03 -2.21409219277E-05 +6.64942570921E-01 +6.07266587688E-01
2.58500000000E+09 +6.93463645468E-01 +5.01576828635E-01 -1.95816623419E-03 +1.44080857984E-04 -1.72269724807E-03 +5.80313682140E-05 +6.69749168236E-01 +5.99875982869E-01
2.59000000000E+09 +6.98490211851E-01 +4.93109895215E-01 -1.84152486972E-03 +2.22982546333E-04 -1.74572818560E-03 +6.20438498516E-05 +6.74578624436E-01 +5.92502805568E-01
2.59500000000E+09 +7.03419327558E-01 +4.84634803061E-01 -1.84667182485E-03 +2.14437434725E-04 -1.88800341031E-03 +9.73474746859E-05 +6.79391575015E-01 +5.84203674093E-01
2.60000000000E+09 +7.07788649158E-01 +4.76115311875E-01 -2.02730697937E-03 +2.70031889182E-04 -2.07089989050E-03 +2.15688162479E-04 +6.84189291875E-01 +5.75566078651E-01
2.60500000000E+09 +7.12108648650E-01 +4.67170207099E-01 -2.38933347420E-03 +6.90277226832E-04 -2.37361367910E-03 +6.36098657665E-04 +6.89379810673E-01 +5.66620655856E-01
2.61000000000E+09 +7.16330451870E-01 +4.57601016001E-01 -2.29026902089E-03 +1.32657696221E-03 -2.31284578866E-03 +1.29463000677E-03 +6.94198530690E-01 +5.57588927775E-01
2.61500000000E+09 +7.20724337980E-01 +4.47308716947E-01 -1.75625830852E-03 +1.59538467904E-03 -1.87395447483E-03 +1.59309901494E-03 +6.99102035428E-01 +5.49042998464E-01
2.62000000000E+09 +7.24729249574E-01 +4.35874607094E-01 -1.54598119630E-03 +1.53678859520E-03 -1.63447867216E-03 +1.57617171231E-03 +7.03885795265E-01 +5.39901764593E-01
2.62500000000E+09 +7.28845264712E-01 +4.23845290467E-01 -1.49627485339E-03 +1.55296434446E-03 -1.45195569040E-03 +1.77185832948E-03 +7.08249295118E-01 +5.30958199100E-01
2.63000000000E+09 +7.32909091331E-01 +4.11335874057E-01 -1.40956050609E-03 +1.62768871501E-03 -1.14078052355E-03 +1.80207210960E-03 +7.12645116965E-01 +5.22102816894E-01
2.63500000000E+09 +7.36401181173E-01 +3.98581114911E-01 -1.48205486670E-03 +1.79245876056E-03 -1.17413806768E-03 +1.75189994991E-03 +7.17476455553E-01 +5.12905918425E-01
2.64000000000E+09 +7.39832171398E-01 +3.86145471671E-01 -1.26282688498E-03 +2.24367174821E-03 -1.03061772550E-03 +1.92365245670E-03 +7.22225988758E-01 +5.03078848312E-01
2.64500000000E+09 +7.43445993028E-01 +3.74173288002E-01 -8.76976059564E-04 +2.22575692171E-03 -8.99619387459E-04 +1.89704059813E-03 +7.27050409062E-01 +4.93185568685E-01
2.65000000000E+09 +7.46615889598E-01 +3.62504355964E-01 -7.04152671408E-04 +2.22535103254E-03 -9.01915204588E-04 +1.99811728530E-03 +7.31199165099E-01 +4.83037239025E-01
2.65500000000E+09 +7.49660584029E-01 +3.50704065252E-01 -6.27635599467E-04 +2.20268152988E-03 -8.20011026835E-04 +2.23194065022E-03 +7.34729923792E-01 +4.72943444689E-01
2.66000000000E+09 +7.52568084735E-01 +3.39021392195E-01 -5.74840194670E-04 +2.35651467485E-03 -6.45107949767E-04 +2.54222443911E-03 +7.39004716681E-01 +4.62411196982E-01
2.66500000000E+09 +7.55273503509E-01 +3.27618932776E-01 -4.24697076080E-04 +2.45217316062E-03 -3.08153834686E-04 +2.61986351079E-03 +7.43606255991E-01 +4.51151834259E-01
2.67000000000E+09 +7.57703659812E-01 +3.15379907176E-01 -1.54016883313E-04 +2.73386114512E-03 -1.62504854687E-05 +2.72179387712E-03 +7.47667743847E-01 +4.39768475705E-01
2.67500000000E+09 +7.59862317006E-01 +3.02195349852E-01 +2.98915759961E-04 +2.79979438769E-03 +3.68784520791E-04 +2.60409748362E-03 +7.51600254966E-01 +4.28347473807E-01
2.68000000000E+09 +7.60927921836E-01 +2.88414519586E-01 +4.59044623883E-04 +2.59907713785E-03 +3.69717107372E-04 +2.46022035679E-03 +7.55386693117E-01 +4.17099184174E-01
2.68500000000E+09 +7.61492283617E-01 +2.74566026207E-01 +4.49764535320E-04 +2.69935970810E-03 +3.55992596433E-04 +2.67183817239E-03 +7.58339770150E-01 +4.05665041863E-01
2.69000000000E+09 +7.62065501201E-01 +2.60763271788E-01 +8.21235692052E-04 +2.87500832510E-03 +7.69041954620E-04 +2.90969721870E-03 +7.61378923140E-01 +3.93856741087E-01
2.69500000000E+09 +7.62806391293E-01 +2.46710292331E-01 +1.09944402168E-03 +2.83037758987E-03 +1.10607431452E-03 +2.79343272997E-03 +7.63902778697E-01 +3.80943066565E-01
2.70000000000E+09 +7.63577027136E-01 +2.32470349604E-01 +1.49239191293E-03 +3.01760641949E-03 +1.43977765221E-03 +2.89979240358E-03 +7.66317822232E-01 +3.67437298294E-01
2.70500000000E+09 +7.64239244037E-01 +2.18396944168E-01 +2.10382866530E-03 +2.76987156721E-03 +1.91989787172E-03 +2.71593467577E-03 +7.69026170826E-01 +3.54096405559E-01
2.71000000000E+09 +7.65121386475E-01 +2.04770389435E-01 +2.33036154820E-03 +2.35791941129E-03 +2.19978344156E-03 +2.57054007155E-03 +7.72098659983E-01 +3.40873569858E-01
2.71500000000E+09 +7.66470695668E-01 +1.90503013655E-01 +2.38303038226E-03 +2.12740916269E-03 +2.46646828860E-03 +2.29675142023E-03 +7.74534367423E-01 +3.27734997075E-01
2.72000000000E+09 +7.67467124504E-01 +1.75743432056E-01 +2.47470335820E-03 +2.13755295720E-03 +2.72610259030E-03 +2.08458962790E-03 +7.76223316182E-01 +3.14696552404E-01
2.72500000000E+09 +7.67757038152E-01 +1.60646528843E-01 +2.81917103140E-03 +2.04091903394E-03 +2.95414674477E-03 +1.70738048185E-03 +7.77088522053E-01 +3.01458964472E-01
2.73000000000E+09 +7.67119041852E-01 +1.45125744401E-01 +3.00245628091E-03 +1.91273302542E-03 +2.88035341078E-03 +1.50229921122E-03 +7.78109790059E-01 +2.87991491767E-01
2.73500000000E+09 +7.65959887864E-01 +1.29150952577E-01 +3.44160979714E-03 +1.67730244515E-03 +2.98398795300E-03 +1.47259346505E-03 +7.79119177448E-01 +2.73003887690E-01
2.74000000000E+09 +7.63562103453E-01 +1.13026469723E-01 +3.77501842737E-03 +1.35274989578E-03 +3.22561127161E-03 +1.49364603086E-03 +7.80071474830E-01 +2.57642402421E-01
2.74500000000E+09 +7.60544513796E-01 +9.65468939655E-02 +3.90361942583E-03 +1.03987421310E-03 +3.65823275223E-03 +1.49111348571E-03 +7.80743042488E-01 +2.42579005930E-01
2.75000000000E+09 +7.56883742487E-01 +7.95865164787E-02 +4.25227803249E-03 +6.19944160521E-04 +4.38885496474E-03 +1.10399824128E-03 +7.81515178955E-01 +2.27633212609E-01
2.75500000000E+09 +7.52324991375E-01 +6.23585135229E-02 +4.34442404035E-03 +2.81553768573E-05 +4.62118117292E-03 +3.61958524635E-04 +7.81149557808E-01 +2.12515633302E-01
2.76000000000E+09 +7.47282413365E-01 +4.53135970999E-02 +4.36687117297E-03 -1.60783781078E-04 +4.69234021561E-03 -1.29085053517E-04 +7.80466134497E-01 +1.97624279217E-01
2.76500000000E+09 +7.42254515996E-01 +2.84198201367E-02 +4.76931121056E-03 -5.20301144820E-04 +5.00933570231E-03 -6.65164696968E-04 +7.79493019017E-01 +1.81311906260E-01
2.77000000000E+09 +7.37701104902E-01 +1.08398419234E-02 +4.98938582102E-03 -1.31781650883E-03 +5.16944339222E-03 -1.43883738692E-03 +7.78338227553E-01 +1.63875184963E-01
2.77500000000E+09 +7.33068677075E-01 -7.59521054068E-03 +4.76979525481E-03 -2.19929019641E-03 +4.86381480464E-03 -2.51360580837E-03 +7.75995332564E-01 +1.45781045945E-01
2.78000000000E+09 +7.28111297842E-01 -2.69503027201E-02 +4.37160466223E-03 -2.61703671741E-03 +4.22154917179E-03 -2.92969313224E-03 +7.74145165613E-01 +1.28282058338E-01
2.78500000000E+09 +7.21896401641E-01 -4.69962820934E-02 +4.13855264464E-03 -2.79944117567E-03 +3.92795668214E-03 -3.06532616484E-03 +7.71984603420E-01 +1.10497051285E-01
2.79000000000E+09 +7.14773694764E-01 -6.72296216741E-02 +4.30651665334E-03 -3.32485607119E-03 +3.92466386189E-03 -3.35811719652E-03 +7.69281424594E-01 +9.28038900752E-02
2.79500000000E+09 +7.06493486169E-01 -8.67520011717E-02 +4.18930984136E-03 -4.28575296753E-03 +3.86554214096E-03 -4.07446974570E-03 +7.64658869850E-01 +7.45914307088E-02
2.80000000000E+09 +6.97423727939E-01 -1.06325717876E-01 +3.42751829453E-03 -5.06411124694E-03 +3.47405112568E-03 -4.67238222038E-03 +7.59133236917E-01 +5.64781674768E-02
2.80500000000E+09 +6.87177282380E-01 -1.25191078619E-01 +2.58622197489E-03 -5.48085064606E-03 +2.82148943569E-03 -5.33940302004E-03 +7.53325546927E-01 +3.85159736592E-02
2.81000000000E+09 +6.76033021308E-01 -1.43110596264E-01 +2.13493205575E-03 -5.39755898721E-03 +2.34632047668E-03 -5.58589210493E-03 +7.47597634516E-01 +1.88024274870E-02
2.81500000000E+09 +6.64158048514E-01 -1.60211277703E-01 +1.66322351622E-03 -5.87297274007E-03 +1.54269577873E-03 -6.10918352599E-03 +7.40387898041E-01 -1.28387202999E-03
2.82000000000E+09 +6.51705370370E-01 -1.77820697274E-01 +1.10142788162E-03 -6.19054636254E-03 +8.77689866203E-04 -6.19122991878E-03 +7.32234052022E-01 -2.12668586071E-02
2.82500000000E+09 +6.37606639234E-01 -1.95079862757E-01 +1.20554368656E-04 -6.64551177731E-03 -3.44490552615E-05 -6.37288816785E-03 +7.23229686911E-01 -4.02823630143E-02
2.83000000000E+09 +6.22068707031E-01 -2.13036147308E-01 -8.93984685893E-04 -6.28211290285E-03 -8.79132343506E-04 -5.96933910582E-03 +7.13848777572E-01 -5.95328224798E-02
2.83500000000E+09 +6.04652104130E-01 -2.31255545207E-01 -1.23218075659E-03 -5.78675203248E-03 -1.03799404771E-03 -5.63275964968E-03 +7.04109530240E-01 -7.92808439393E-02
2.84000000000E+09 +5.85027860287E-01 -2.48745269437E-01 -1.28130291215E-03 -5.88374308668E-03 -1.05708966929E-03 -5.87610376954E-03 +6.92744754143E-01 -1.00475323782E-01
2.84500000000E+09 +5.64397815474E-01 -2.66102964692E-01 -1.98250271641E-03 -6.35493812705E-03 -2.02212187308E-03 -6.44602591823E-03 +6.79635052765E-01 -1.21045547010E-01
2.85000000000E+09 +5.42325037169E-01 -2.83729256317E-01 -2.81123900398E-03 -6.47502451255E-03 -2.85404685376E-03 -6.52546543441E-03 +6.65535677819E-01 -1.41322199279E-01
2.85500000000E+09 +5.18684144568E-01 -3.01049122541E-01 -4.04068555978E-03 -6.31578049485E-03 -4.00382712219E-03 -6.24019010328E-03 +6.51623374642E-01 -1.60958796468E-01
2.86000000000E+09 +4.94341264057E-01 -3.17887807582E-01 -4.99504969832E-03 -5.81295716128E-03 -4.86855845358E-03 -5.74152973902E-03 +6.36133997405E-01 -1.82541475750E-01
2.86500000000E+09 +4.68782301709E-01 -3.34330898138E-01 -5.80830298730E-03 -4.87452772253E-03 -5.70119912888E-03 -4.93266286836E-03 +6.18165164295E-01 -2.03120543631E-01
2.87000000000E+09 +4.41519147870E-01 -3.48812458870E-01 -6.13084311847E-03 -3.92837828157E-03 -6.13119034143E-03 -3.95793079798E-03 +5.98986467705E-01 -2.23145917626E-01
2.87500000000E+09 +4.15263433364E-01 -3.60950548980E-01 -6.10505333295E-03 -3.44306783815E-03 -6.17496378148E-03 -3.31986104905E-03 +5.79001728221E-01 -2.42310129272E-01
2.88000000000E+09 +3.89140772736E-01 -3.72519395133E-01 -6.46032873316E-03 -3.37430833008E-03 -6.32516217676E-03 -3.07005127417E-03 +5.57444639801E-01 -2.61411747739E-01
2.88500000000E+09 +3.62202643676E-01 -3.83252164464E-01 -7.50953190549E-03 -3.08497375270E-03 -7.12492703073E-03 -2.80387933511E-03 +5.35004541551E-01 -2.80106865343E-01
2.89000000000E+09 +3.34126366561E-01 -3.92388271107E-01 -8.04838607513E-03 -1.78027650709E-03 -7.55471061327E-03 -1.93629974154E-03 +5.09452642636E-01 -2.98838625906E-01
2.89500000000E+09 +3.04735848933E-01 -3.99958699011E-01 -8.47615625702E-03 -7.83592344889E-04 -8.18638968239E-03 -1.19747859353E-03 +4.81890210621E-01 -3.16051246960E-01
2.90000000000E+09 +2.73439583770E-01 -4.05838311826E-01 -8.57434352968E-03 +4.80101411793E-04 -8.65211446080E-03 +1.48184430913E-04 +4.52986688107E-01 -3.31710322119E-01
2.90500000000E+09 +2.40201646630E-01 -4.08911263643E-01 -8.31713285289E-03 +1.46652697114E-03 -8.52187033649E-03 +1.51485471349E-03 +4.24033995647E-01 -3.46612141982E-01
2.91000000000E+09 +2.05688856422E-01 -4.09518200396E-01 -8.10630289202E-03 +2.34040377357E-03 -8.06776395621E-03 +2.50409733151E-03 +3.92842266908E-01 -3.61371412894E-01
2.91500000000E+09 +1.70590707017E-01 -4.06579991815E-01 -7.85628184528E-03 +3.40655984087E-03 -7.45078090072E-03 +3.38136729282E-03 +3.60065639526E-01 -3.73792480684E-01
2.92000000000E+09 +1.35623625549E-01 -4.01442475836E-01 -7.21656956986E-03 +3.99092628590E-03 -6.88417349930E-03 +3.65941233581E-03 +3.25281374409E-01 -3.83008368726E-01
2.92500000000E+09 +1.02104174066E-01 -3.95002307582E-01 -7.05681966787E-03 +4.36574297071E-03 -6.99772824192E-03 +3.92717779840E-03 +2.90564181648E-01 -3.90229323701E-01
2.93000000000E+09 +6.79814566581E-02 -3.88187175966E-01 -7.24043918944E-03 +5.40341928147E-03 -7.45232462199E-03 +4.94045025197E-03 +2.54067919471E-01 -3.96103072534E-01
2.93500000000E+09 +3.30119115372E-02 -3.79557906398E-01 -6.36610461060E-03 +6.74689813286E-03 -6.66481841241E-03 +6.63284398772E-03 +2.16013201173E-01 -4.01096675323E-01
2.94000000000E+09 -1.94343436983E-03 -3.67788726650E-01 -5.38195673849E-03 +7.26495690389E-03 -5.53541015016E-03 +7.22186989877E-03 +1.76240422624E-01 -4.03111334567E-01
2.94500000000E+09 -3.54342125075E-02 -3.52624206556E-01 -5.09842549495E-03 +7.82534305051E-03 -5.16587257214E-03 +7.78626016364E-03 +1.36832491913E-01 -4.02703316943E-01
2.95000000000E+09 -6.67527605040E-02 -3.35167623957E-01 -3.91582331829E-03 +9.20468992793E-03 -4.20173074363E-03 +9.07334637976E-03 +9.80115270191E-02 -3.99512464769E-01
2.95500000000E+09 -9.57598431198E-02 -3.15952985230E-01 -2.26630523909E-03 +9.19622422768E-03 -2.60062007464E-03 +9.24964696803E-03 +5.89301250544E-02 -3.94709748882E-01
2.96000000000E+09 -1.24982855097E-01 -2.94956677060E-01 -1.58092927380E-03 +9.02240770999E-03 -1.83758273489E-03 +9.32931325874E-03 +1.78488991493E-02 -3.86922310323E-01
2.96500000000E+09 -1.52621124035E-01 -2.70766774489E-01 -1.05653304658E-03 +9.29167026599E-03 -8.73712645820E-04 +9.68242392179E-03 -2.39774084623E-02 -3.74872997081E-01
2.97000000000E+09 -1.79155803899E-01 -2.43279936619E-01 -3.30780236133E-04 +9.63754622393E-03 +1.79827601344E-05 +9.53897413650E-03 -6.48004139563E-02 -3.58944493523E-01
2.97500000000E+09 -2.02953662107E-01 -2.13557896225E-01 +4.08518154614E-04 +1.06986054052E-02 +5.05363226116E-04 +1.03584551564E-02 -1.04696506576E-01 -3.41178337153E-01
2.98000000000E+09 -2.25336759078E-01 -1.82530145036E-01 +3.05169494226E-03 +1.12330920911E-02 +2.61973641903E-03 +1.10051510624E-02 -1.42680195833E-01 -3.20159815752E-01
2.98500000000E+09 -2.45620246592E-01 -1.50396603513E-01 +4.70420983133E-03 +9.73385660642E-03 +4.33899421121E-03 +1.00079531120E-02 -1.79431520471E-01 -2.98047476693E-01
2.99000000000E+09 -2.64774057815E-01 -1.18190709516E-01 +5.23547598623E-03 +9.00783617796E-03 +5.27875409213E-03 +9.43794392716E-03 -2.15835166385E-01 -2.70786725852E-01
2.99500000000E+09 -2.82559124592E-01 -8.46254041456E-02 +6.04265545772E-03 +9.06662635406E-03 +6.47638815417E-03 +9.26295183598E-03 -2.48073874871E-01 -2.40431924791E-01
3.00000000000E+09 -2.97805566196E-01 -5.00509060382E-02 +7.53510731443E-03 +8.78509998497E-03 +7.84164281341E-03 +8.41056110472E-03 -2.79007840216E-01 -2.09174824697E-01
3.00500000000E+09 -3.09291965088E-01 -1.63719283363E-02 +9.54046114690E-03 +8.28583014649E-03 +9.36844076585E-03 +7.79182363844E-03 -3.08652687884E-01 -1.74819430754E-01
3.01000000000E+09 -3.18406749709E-01 +1.62427694631E-02 +1.13721995424E-02 +5.65062366246E-03 +1.07613822455E-02 +5.59676795036E-03 -3.34227925950E-01 -1.38624219823E-01
3.01500000000E+09 -3.25592332055E-01 +4.76985190785E-02 +1.12332613130E-02 +3.50657335575E-03 +1.08670840018E-02 +3.92013353146E-03 -3.57583375596E-01 -1.01686970152E-01
3.02000000000E+09 -3.30465547846E-01 +7.95347896790E-02 +1.09364458536E-02 +2.20799475646E-03 +1.09837251066E-02 +2.57608400286E-03 -3.76771434657E-01 -6.29484286148E-02
3.02500000000E+09 -3.32323574277E-01 +1.12244127817E-01 +1.10711255226E-02 +1.60415612044E-03 +1.12896471269E-02 +1.75748317104E-03 -3.92404242802E-01 -2.45142291322E-02
3.03000000000E+09 -3.29741741280E-01 +1.44431850910E-01 +1.15560121890E-02 +1.48299738424E-04 +1.16466886962E-02 +1.79231445308E-04 -4.06575227046E-01 +1.45092107262E-02
3.03500000000E+09 -3.24930752303E-01 +1.74165000515E-01 +1.19072051169E-02 -1.48192150567E-03 +1.20059135017E-02 -1.26739270740E-03 -4.18181687425E-01 +5.55975020656E-02
3.04000000000E+09 -3.18328278737E-01 +2.05168269842E-01 +1.16491549524E-02 -3.84996643498E-03 +1.21185072528E-02 -3.53055138746E-03 -4.25482342956E-01 +9.64967785756E-02
3.04500000000E+09 -3.09872822660E-01 +2.33568119945E-01 +1.00345073217E-02 -5.23815623565E-03 +1.07361488222E-02 -5.36276819713E-03 -4.30775072463E-01 +1.37086538944E-01
3.05000000000E+09 -3.00823351546E-01 +2.62649976595E-01 +9.22555452460E-03 -6.10938293897E-03 +9.65031310707E-03 -6.73934868971E-03 -4.32485020653E-01 +1.76283039125E-01
3.05500000000E+09 -2.90154606350E-01 +2.91158333888E-01 +8.47808984897E-03 -6.91862517819E-03 +8.21860349740E-03 -7.61857868960E-03 -4.33354959922E-01 +2.14738537590E-01
3.06000000000E+09 -2.77775771576E-01 +3.19019177996E-01 +7.52840614572E-03 -8.26945213127E-03 +6.92510007295E-03 -8.40742968862E-03 -4.30683126734E-01 +2.53832455027E-01
3.06500000000E+09 -2.64314731790E-01 +3.44778538975E-01 +5.83375634783E-03 -9.48579246908E-03 +5.61457815572E-03 -9.04011100897E-03 -4.24720013157E-01 +2.91285345172E-01
3.07000000000E+09 -2.51032757782E-01 +3.69224395095E-01 +3.63781009154E-03 -9.55516305617E-03 +4.00856965929E-03 -9.19826673414E-03 -4.16754466166E-01 +3.25967165464E-01
