# Hz S RI R 50
! CMT, C1220, 16058040, 17.2.0/1
! Date: 15/08/2018 09:54:39
! Data: Format (Calibration Info)
! Freq                      S11: Re/Im (F2)                       S21: Re/Im (F2)                       S12: Re/Im (F2)                       S22: Re/Im (F2)            
2.50000000000E+09 +5.97945051382E-01 +6.28725806245E-01 -3.74939815781E-04 -7.41828281759E-04 -4.04629953449E-04 -8.24730245322E-04 +5.78174102337E-01 +7.13139401647E-01
2.50500000000E+09 +6.04082606609E-01 +6.21629758118E-01 -4.71787857204E-04 -6.84015868781E-04 -5.30007607231E-04 -7.00653306896E-04 +5.83814634892E-01 +7.07569257847E-01
2.51000000000E+09 +6.10608616043E-01 +6.14165758880E-01 -4.97435138602E-04 -6.60259665111E-04 -5.04277356766E-04 -6.22208423886E-04 +5.89429114488E-01 +7.02294265005E-01
2.51500000000E+09 +6.17242782412E-01 +6.06644080932E-01 -5.21664541825E-04 -6.53179692253E-04 -5.15940598720E-04 -6.73158763112E-04 +5.94515060653E-01 +6.96937626391E-01
2.52000000000E+09 +6.23389077552E-01 +5.98772145375E-01 -6.55806224863E-04 -6.67653144797E-04 -6.64603210745E-04 -6.71787339111E-04 +5.99483271132E-01 +6.91017515485E-01
2.52500000000E+09 +6.28993473971E-01 +5.91141796895E-01 -7.75833347421E-04 -6.02074590835E-04 -7.67868029022E-04 -5.89475513357E-04 +6.05192520248E-01 +6.84555074523E-01
2.53000000000E+09 +6.34259979086E-01 +5.83694518503E-01 -8.66990376977E-04 -4.08391565093E-04 -9.10537126070E-04 -4.02161042570E-04 +6.11322892009E-01 +6.77175295993E-01
2.53500000000E+09 +6.38971019207E-01 +5.76629200787E-01 -7.53042480271E-04 -2.73541905775E-04 -7.76674396095E-04 -3.09705555749E-04 +6.17265936396E-01 +6.70002668655E-01
2.54000000000E+09 +6.43469786033E-01 +5.69769376458E-01 -7.83722659502E-04 -3.51790015953E-04 -7.67442018748E-04 -2.92539931846E-04 +6.23247309338E-01 +6.63420063295E-01
2.54500000000E+09 +6.48172229442E-01 +5.63069072474E-01 -9.14380880547E-04 -2.80603019002E-04 -8.69334387936E-04 -3.31692268368E-04 +6.29014678920E-01 +6.56905046447E-01
2.55000000000E+09 +6.52835529376E-01 +5.56144970156E-01 -9.41609960740E-04 -9.81038495441E-05 -1.02492843785E-03 -1.49716657551E-04 +6.34042138898E-01 +6.50657634262E-01
2.55500000000E+09 +6.57854720106E-01 +5.48897260016E-01 -9.21266643732E-04 +5.93338342766E-05 -1.09809727223E-03 +1.34725820975E-05 +6.39095826219E-01 +6.44242054006E-01
2.56000000000E+09 +6.63368155113E-01 +5.41581020717E-01 -7.95226623329E-04 +1.13425559493E-04 -9.50883328720E-04 +2.25925697803E-04 +6.44204876531E-01 +6.37018995024E-01
2.56500000000E+09 +6.69407134520E-01 +5.33548727134E-01 -7.30457674259E-04 +8.38733314885E-05 -7.98802453276E-04 +2.32019754277E-04 +6.49337055901E-01 +6.29333423958E-01
2.57000000000E+09 +6.75584678009E-01 +5.25303754594E-01 -8.39811685901E-04 -5.69839829951E-05 -8.04526864411E-04 +1.68735394444E-04 +6.54799076627E-01 +6.21276599575E-01
2.57500000000E+09 +6.81772235907E-01 +5.16342230402E-01 -1.11153332600E-03 +6.82394541858E-05 -9.09229689152E-04 +2.48991647314E-04 +6.60233092695E-01 +6.13396339224E-01
2.58000000000E+09 +6.87297071189E-01 +5.07628469173E-01 -1.04761191355E-03 +4.73860042801E-04 -8.47325650700E-04 +4.18010299050E-04 +6.65288074262E-01 +6.05885875702E-01
2.58500000000E+09 +6.92860289017E-01 +4.98822615761E-01 -8.10348386691E-04 +4.81538264021E-04 -6.79051434192E-04 +4.36949848498E-04 +6.70058955929E-01 +5.98379031287E-01
2.59000000000E+09 +6.97952722876E-01 +4.90057120678E-01 -7.75507950586E-04 +3.87975875930E-04 -7.65800509490E-04 +3.35661213283E-04 +6.74617323724E-01 +5.90784001993E-01
2.59500000000E+09 +7.02580376018E-01 +4.81396089796E-01 -8.87545459700E-04 +4.18991991688E-04 -8.99388731049E-04 +3.64925525400E-04 +6.79005091193E-01 +5.82794461314E-01
2.60000000000E+09 +7.06978175670E-01 +4.72828670494E-01 -8.90218867438E-04 +4.82368792759E-04 -9.29015530878E-04 +4.70312114298E-04 +6.83853660018E-01 +5.74330524676E-01
2.60500000000E+09 +7.11292340249E-01 +4.63673787659E-01 -1.02485863275E-03 +7.33940954944E-04 -1.05632947345E-03 +7.50971128589E-04 +6.88782547162E-01 +5.65460667602E-01
2.61000000000E+09 +7.15555072510E-01 +4.53904558543E-01 -9.04264576971E-04 +1.11531060673E-03 -8.81556895529E-04 +1.06946173170E-03 +6.93737181801E-01 +5.56627801941E-01
2.61500000000E+09 +7.19775066595E-01 +4.43608115116E-01 -4.79740576961E-04 +1.10731164357E-03 -5.85032607746E-04 +1.13904178257E-03 +6.98564088137E-01 +5.48134113351E-01
2.62000000000E+09 +7.23916241813E-01 +4.32513725459E-01 -4.92849351091E-04 +1.11706402419E-03 -4.53821283638E-04 +1.11289605974E-03 +7.03381856687E-01 +5.39269125255E-01
2.62500000000E+09 +7.28170511152E-01 +4.20748308711E-01 -3.88475398252E-04 +1.13814700253E-03 -2.92262260949E-04 +1.18969094480E-03 +7.07788650727E-01 +5.30436434325E-01
2.63000000000E+09 +7.32376575210E-01 +4.08197825288E-01 -1.96633882290E-04 +1.10814690430E-03 -8.92983951200E-05 +1.08185425702E-03 +7.12288108239E-01 +5.21857726332E-01
2.63500000000E+09 +7.35856671148E-01 +3.95412991915E-01 -3.06391611773E-04 +1.08154517658E-03 -1.46882781093E-04 +9.82471101491E-04 +7.17129733147E-01 +5.12778629994E-01
2.64000000000E+09 +7.39056312485E-01 +3.82988822440E-01 -1.28842481545E-04 +1.26836642790E-03 -6.44155072218E-05 +1.08992505927E-03 +7.21973698913E-01 +5.03049199760E-01
2.64500000000E+09 +7.42659463012E-01 +3.71095751014E-01 +1.96101448155E-05 +1.13327133345E-03 -6.26996250145E-05 +1.01651516723E-03 +7.26869010280E-01 +4.93303041544E-01
2.65000000000E+09 +7.45637399513E-01 +3.59268608303E-01 +7.79720024291E-05 +1.25662305779E-03 -3.58628208627E-05 +1.22771240166E-03 +7.31409185408E-01 +4.83167552777E-01
2.65500000000E+09 +7.48897554856E-01 +3.47570571121E-01 +2.44564338090E-04 +1.15852137950E-03 +1.45127896099E-04 +1.25756184597E-03 +7.35329786605E-01 +4.72870839713E-01
2.66000000000E+09 +7.51937075795E-01 +3.35487874376E-01 +3.73648432298E-04 +1.18708470314E-03 +3.23438473873E-04 +1.30109347174E-03 +7.39497275027E-01 +4.62099547606E-01
2.66500000000E+09 +7.54499979348E-01 +3.23692678434E-01 +4.57790975345E-04 +1.12523043587E-03 +5.37435087027E-04 +1.10844445037E-03 +7.44037971099E-01 +4.50880812466E-01
2.67000000000E+09 +7.56881414537E-01 +3.11203385108E-01 +4.86060001507E-04 +1.06691118833E-03 +5.23648607576E-04 +1.04305267158E-03 +7.48270927967E-01 +4.39511207542E-01
2.67500000000E+09 +7.58828198722E-01 +2.97935816417E-01 +6.28067443825E-04 +1.01079525770E-03 +6.18162362295E-04 +9.92767444451E-04 +7.52297017764E-01 +4.27912620239E-01
2.68000000000E+09 +7.59900559602E-01 +2.84481130731E-01 +6.28041023984E-04 +8.78951861930E-04 +5.87869840043E-04 +8.91774513539E-04 +7.55692098199E-01 +4.16587761154E-01
2.68500000000E+09 +7.60654126890E-01 +2.70807034388E-01 +5.30741986230E-04 +9.48758092006E-04 +4.64569228431E-04 +9.16319751333E-04 +7.58689520428E-01 +4.05303180768E-01
2.69000000000E+09 +7.61430948388E-01 +2.57128097247E-01 +6.94655441275E-04 +1.10397781456E-03 +6.97691210836E-04 +1.15902273492E-03 +7.61691859134E-01 +3.93581482695E-01
2.69500000000E+09 +7.62110592067E-01 +2.43003401385E-01 +8.94816284771E-04 +1.10871668086E-03 +8.79093735881E-04 +1.08873665843E-03 +7.64202408094E-01 +3.80735192885E-01
2.70000000000E+09 +7.62854120698E-01 +2.28787541436E-01 +1.05775057709E-03 +1.04916360963E-03 +1.00303739418E-03 +1.03922319203E-03 +7.66970432799E-01 +3.67300002825E-01
2.70500000000E+09 +7.63489699799E-01 +2.14678713942E-01 +1.33771724380E-03 +8.30699674509E-04 +1.27891270136E-03 +8.85599420738E-04 +7.69555101004E-01 +3.53689363001E-01
2.71000000000E+09 +7.63979009204E-01 +2.00725754115E-01 +1.29484199758E-03 +4.95268290294E-04 +1.23016660771E-03 +6.03307825257E-04 +7.72454623066E-01 +3.40642517416E-01
2.71500000000E+09 +7.65070673266E-01 +1.86573765854E-01 +1.09449514647E-03 +4.46507824284E-04 +1.18813463771E-03 +4.79788312461E-04 +7.74984009340E-01 +3.27882636195E-01
2.72000000000E+09 +7.65881401057E-01 +1.71815393267E-01 +1.08508084430E-03 +5.58177820973E-04 +1.20999917437E-03 +5.14864139876E-04 +7.76905095093E-01 +3.14915321909E-01
2.72500000000E+09 +7.65959558096E-01 +1.56713229625E-01 +1.28253680398E-03 +5.83446706709E-04 +1.29044246638E-03 +4.46078921551E-04 +7.77935811778E-01 +3.01823921372E-01
2.73000000000E+09 +7.65316854249E-01 +1.41455757273E-01 +1.37701610614E-03 +5.95381981927E-04 +1.27343418412E-03 +4.29902453976E-04 +7.79410342064E-01 +2.88060138237E-01
2.73500000000E+09 +7.64171372688E-01 +1.25392614033E-01 +1.56680517633E-03 +4.91760180580E-04 +1.39046516638E-03 +3.67198172976E-04 +7.80638181080E-01 +2.73017695324E-01
2.74000000000E+09 +7.61810894229E-01 +1.09305852447E-01 +1.78727464661E-03 +3.62792042591E-04 +1.55211551714E-03 +4.86048453001E-04 +7.81944257690E-01 +2.57306476828E-01
2.74500000000E+09 +7.58718632229E-01 +9.29060080894E-02 +1.83079494910E-03 +1.94503710654E-04 +1.79221982223E-03 +3.88512032754E-04 +7.82799201676E-01 +2.41895255641E-01
2.75000000000E+09 +7.54712076367E-01 +7.62673807615E-02 +2.08794844793E-03 -8.05398209618E-05 +2.18947113706E-03 +2.19378067275E-04 +7.83533849422E-01 +2.26558631371E-01
2.75500000000E+09 +7.49900469327E-01 +5.96082599947E-02 +1.96647812024E-03 -3.95810165925E-04 +2.13979394126E-03 -3.37913907756E-04 +7.83073593490E-01 +2.11358053652E-01
2.76000000000E+09 +7.45113070938E-01 +4.32454052453E-02 +1.91695905894E-03 -4.78295372901E-04 +2.07185209432E-03 -4.61547549797E-04 +7.82464059547E-01 +1.96229240845E-01
2.76500000000E+09 +7.40364071915E-01 +2.65562929786E-02 +2.12154426769E-03 -6.74784015834E-04 +2.26372760361E-03 -6.53947616851E-04 +7.81407381061E-01 +1.79370198384E-01
2.77000000000E+09 +7.36131464327E-01 +9.01093178002E-03 +2.22343564945E-03 -1.00657163406E-03 +2.35477950301E-03 -1.09280864615E-03 +7.79640483940E-01 +1.61567585564E-01
2.77500000000E+09 +7.31717911030E-01 -9.65074749717E-03 +1.98358541039E-03 -1.42752276598E-03 +2.04943878712E-03 -1.53346496170E-03 +7.77070894491E-01 +1.43504598542E-01
2.78000000000E+09 +7.26609362518E-01 -2.90546067400E-02 +1.92440307157E-03 -1.47700681756E-03 +1.88708790674E-03 -1.58684032135E-03 +7.75040839465E-01 +1.25842630116E-01
2.78500000000E+09 +7.20255521036E-01 -4.90105799385E-02 +1.76899408300E-03 -1.78085943313E-03 +1.63141387956E-03 -1.81868846181E-03 +7.72559213697E-01 +1.07937409667E-01
2.79000000000E+09 +7.13248058740E-01 -6.88228681525E-02 +1.83573714171E-03 -1.85238812567E-03 +1.65734137685E-03 -1.82207550145E-03 +7.69310865347E-01 +9.04952689096E-02
2.79500000000E+09 +7.05416110999E-01 -8.81422141188E-02 +1.75192798052E-03 -2.49177880471E-03 +1.60290269951E-03 -2.35133056776E-03 +7.64750755115E-01 +7.27052435632E-02
2.80000000000E+09 +6.96878083761E-01 -1.07298955593E-01 +1.18174384612E-03 -2.79233029567E-03 +1.26528259958E-03 -2.59925133207E-03 +7.59094363404E-01 +5.48357429577E-02
2.80500000000E+09 +6.87279658476E-01 -1.26388415932E-01 +7.32388267607E-04 -2.83344275360E-03 +8.25030945161E-04 -2.83370924223E-03 +7.53564406639E-01 +3.70055700986E-02
2.81000000000E+09 +6.76029765857E-01 -1.44641562335E-01 +6.44857139163E-04 -2.77843503860E-03 +7.23139375403E-04 -2.82959519133E-03 +7.47795320291E-01 +1.71728568199E-02
2.81500000000E+09 +6.64022616256E-01 -1.61811314326E-01 +2.62630484254E-04 -3.03113495973E-03 +2.17271007312E-04 -3.12031602646E-03 +7.40589314686E-01 -2.96724139868E-03
2.82000000000E+09 +6.50972115654E-01 -1.78865883955E-01 +9.75644184617E-05 -3.18162808392E-03 -3.67658221929E-05 -3.12836473702E-03 +7.32745163286E-01 -2.28037342879E-02
2.82500000000E+09 +6.36660296373E-01 -1.95492180066E-01 -5.31022209472E-04 -3.45578042785E-03 -6.08991635739E-04 -3.29262167036E-03 +7.24151139547E-01 -4.23258753737E-02
2.83000000000E+09 +6.21436529517E-01 -2.12943823256E-01 -1.20113932327E-03 -3.16486319275E-03 -1.02594572351E-03 -3.00666017416E-03 +7.14741412826E-01 -6.19524144164E-02
2.83500000000E+09 +6.04311785624E-01 -2.30905450646E-01 -1.29159635036E-03 -2.60771588813E-03 -1.18211189295E-03 -2.55857131557E-03 +7.04654739471E-01 -8.18555229578E-02
2.84000000000E+09 +5.85073341457E-01 -2.48759520540E-01 -1.05010692224E-03 -2.87050991068E-03 -9.84276990024E-04 -2.80877291472E-03 +6.93246830069E-01 -1.03139845152E-01
2.84500000000E+09 +5.64219072113E-01 -2.66544493146E-01 -1.82552848880E-03 -3.00561451791E-03 -1.79809465266E-03 -3.05360972145E-03 +6.80069854349E-01 -1.24221677059E-01
2.85000000000E+09 +5.42312220175E-01 -2.84229786941E-01 -2.10636714305E-03 -2.80847739734E-03 -2.14297409704E-03 -2.80152437292E-03 +6.65532701825E-01 -1.44814625291E-01
2.85500000000E+09 +5.18759865420E-01 -3.01501912585E-01 -2.87069635462E-03 -2.47804277308E-03 -2.81055915002E-03 -2.46018508378E-03 +6.50981375419E-01 -1.65021638956E-01
2.86000000000E+09 +4.94690239089E-01 -3.18224992865E-01 -2.98615097488E-03 -1.86703467706E-03 -2.94727254761E-03 -1.86852094311E-03 +6.34762866835E-01 -1.86455239244E-01
2.86500000000E+09 +4.69208903889E-01 -3.34051445147E-01 -3.07432050590E-03 -1.47496243681E-03 -3.05803866410E-03 -1.57800405567E-03 +6.16382597732E-01 -2.07155666767E-01
2.87000000000E+09 +4.43497701701E-01 -3.48188646619E-01 -3.14921515699E-03 -1.10677698826E-03 -3.19836320500E-03 -1.11085346683E-03 +5.96379323097E-01 -2.26972032070E-01
2.87500000000E+09 +4.17704521762E-01 -3.60990519856E-01 -3.02419215123E-03 -7.57819796132E-04 -3.05352311760E-03 -6.63294690599E-04 +5.75657517210E-01 -2.45883076925E-01
2.88000000000E+09 +3.91799820380E-01 -3.73049853361E-01 -2.86271399348E-03 -7.37472411011E-04 -2.83400457270E-03 -6.17286503014E-04 +5.53725804457E-01 -2.64285384548E-01
2.88500000000E+09 +3.64374469895E-01 -3.83789536987E-01 -3.29397591091E-03 -6.36559045425E-04 -3.09249569943E-03 -5.55296282313E-04 +5.30852617555E-01 -2.82724705367E-01
2.89000000000E+09 +3.36080864294E-01 -3.92482260869E-01 -3.15964982795E-03 -3.07710482743E-04 -2.97730499391E-03 -3.09926658838E-04 +5.04973943986E-01 -3.00841064453E-01
2.89500000000E+09 +3.06685157892E-01 -3.99654727849E-01 -3.42598590780E-03 -1.98399130878E-04 -3.27311274937E-03 -3.16610978556E-04 +4.76658829051E-01 -3.17500594396E-01
2.90000000000E+09 +2.75794474478E-01 -4.05143309683E-01 -3.72118371217E-03 +1.42743972634E-04 -3.73033175614E-03 +8.91884219195E-05 +4.47864312801E-01 -3.31906019947E-01
2.90500000000E+09 +2.43171260326E-01 -4.08461849769E-01 -3.56514247421E-03 +6.69951683117E-04 -3.58004105034E-03 +7.04144369577E-04 +4.19174722625E-01 -3.46513323159E-01
2.91000000000E+09 +2.09132961034E-01 -4.09224347996E-01 -3.74689077738E-03 +8.40889651044E-04 -3.67757988077E-03 +9.27672307538E-04 +3.87816683837E-01 -3.60694239639E-01
2.91500000000E+09 +1.74764436568E-01 -4.06882496324E-01 -3.59601070682E-03 +1.50347090410E-03 -3.36815302478E-03 +1.48322875369E-03 +3.55085571745E-01 -3.72171701883E-01
2.92000000000E+09 +1.40076640479E-01 -4.02073668126E-01 -3.42881389420E-03 +1.35587477639E-03 -3.22769734235E-03 +1.24498638361E-03 +3.20870691118E-01 -3.80634458971E-01
2.92500000000E+09 +1.07036573128E-01 -3.95729948675E-01 -3.85169063305E-03 +1.66500025619E-03 -3.76539113747E-03 +1.42851754082E-03 +2.86274183511E-01 -3.87376846815E-01
2.93000000000E+09 +7.34247214877E-02 -3.89078636934E-01 -4.22243087502E-03 +2.70282519319E-03 -4.32361191037E-03 +2.40861243894E-03 +2.50610166261E-01 -3.92703027656E-01
2.93500000000E+09 +3.87798867900E-02 -3.80406408841E-01 -3.55255781525E-03 +3.54219379635E-03 -3.68606133906E-03 +3.44419535599E-03 +2.12859406584E-01 -3.97697940769E-01
2.94000000000E+09 +4.01040832616E-03 -3.68308648019E-01 -2.95071194338E-03 +3.86619070742E-03 -3.06042537568E-03 +3.86562665666E-03 +1.73343503253E-01 -3.99303596734E-01
2.94500000000E+09 -2.86230624086E-02 -3.52656462535E-01 -2.62282219085E-03 +4.11083938671E-03 -2.68117697129E-03 +3.95260530723E-03 +1.34654687016E-01 -3.98311347442E-01
2.95000000000E+09 -5.93778554581E-02 -3.35385262203E-01 -2.43174372443E-03 +4.70011545436E-03 -2.56913463291E-03 +4.61615888464E-03 +9.65685051963E-02 -3.95082051094E-01
2.95500000000E+09 -8.85405626374E-02 -3.16523668971E-01 -1.58521212562E-03 +5.00624622338E-03 -1.84804139991E-03 +5.09154684899E-03 +5.78303583365E-02 -3.90400406080E-01
2.96000000000E+09 -1.17635796238E-01 -2.95745458437E-01 -1.25826938284E-03 +5.32149852459E-03 -1.46736834395E-03 +5.48737469694E-03 +1.72184967754E-02 -3.82048342691E-01
2.96500000000E+09 -1.45744292505E-01 -2.71523867485E-01 -4.72757466204E-04 +5.65077094387E-03 -4.07507404603E-04 +5.86988142116E-03 -2.40569738182E-02 -3.69652075273E-01
2.97000000000E+09 -1.71822754111E-01 -2.44357553969E-01 -8.57708228732E-07 +5.50417501689E-03 +1.61872661333E-04 +5.52343549845E-03 -6.38610490490E-02 -3.53623904140E-01
2.97500000000E+09 -1.95413236681E-01 -2.15142651342E-01 +4.95719691165E-04 +6.13994133995E-03 +4.64879665735E-04 +6.05386961765E-03 -1.02566657514E-01 -3.35847031150E-01
2.98000000000E+09 -2.17397195614E-01 -1.85182208447E-01 +1.99202155568E-03 +6.09219687474E-03 +1.78435018681E-03 +6.02686784138E-03 -1.39558329857E-01 -3.16034379048E-01
2.98500000000E+09 -2.37865972381E-01 -1.53807024277E-01 +2.27936467102E-03 +5.33551603488E-03 +2.07904944750E-03 +5.52481129093E-03 -1.76413301788E-01 -2.94709605582E-01
2.99000000000E+09 -2.56966367650E-01 -1.21800943882E-01 +2.68147292915E-03 +5.62216512105E-03 +2.72215476865E-03 +5.94558423856E-03 -2.12453931940E-01 -2.67710720118E-01
2.99500000000E+09 -2.73916358584E-01 -8.88194103890E-02 +3.96247217600E-03 +5.74579674926E-03 +4.27075587743E-03 +5.88563470599E-03 -2.44106970237E-01 -2.37794123387E-01
3.00000000000E+09 -2.89108660908E-01 -5.54115179032E-02 +4.72557850657E-03 +5.10690001999E-03 +4.99377632013E-03 +4.87181622304E-03 -2.74611770710E-01 -2.07284717555E-01
3.00500000000E+09 -3.01181770204E-01 -2.20706907815E-02 +5.92965558527E-03 +4.99859140538E-03 +5.84751260760E-03 +4.68206401725E-03 -3.04453044253E-01 -1.73469068595E-01
3.01000000000E+09 -3.10524396567E-01 +1.06290386692E-02 +7.02561486123E-03 +3.32199923423E-03 +6.75142754675E-03 +3.25422662326E-03 -3.30024634588E-01 -1.37954920427E-01
3.01500000000E+09 -3.17937745352E-01 +4.23524484211E-02 +7.17080016902E-03 +1.94402585933E-03 +6.98080105661E-03 +2.17711189613E-03 -3.53393139230E-01 -1.01164579485E-01
3.02000000000E+09 -3.22557713744E-01 +7.45250204932E-02 +6.94934138065E-03 +8.36044174073E-04 +7.05682438895E-03 +1.04457223284E-03 -3.72175257735E-01 -6.36146273267E-02
3.02500000000E+09 -3.23770953027E-01 +1.06467715301E-01 +6.76080033863E-03 +3.92001588179E-04 +6.92489439740E-03 +4.17214278336E-04 -3.87855937712E-01 -2.63043795504E-02
3.03000000000E+09 -3.21866330962E-01 +1.37337842762E-01 +6.82825110657E-03 -1.47939441209E-04 +6.86655632363E-03 -2.15799951192E-04 -4.03401941316E-01 +1.16005526654E-02
3.03500000000E+09 -3.18027715537E-01 +1.66989098829E-01 +7.49301947329E-03 -9.57467066568E-04 +7.51756430509E-03 -8.80603102876E-04 -4.15990445652E-01 +5.29026263242E-02
3.04000000000E+09 -3.11687953701E-01 +1.97943173578E-01 +7.28341180575E-03 -2.71521744920E-03 +7.54431794987E-03 -2.59992577425E-03 -4.24244385767E-01 +9.45840368422E-02
3.04500000000E+09 -3.03053126112E-01 +2.26540485394E-01 +6.49298542262E-03 -3.56081608573E-03 +6.88617450791E-03 -3.69646972855E-03 -4.28589816503E-01 +1.35590303786E-01
3.05000000000E+09 -2.93263984792E-01 +2.55378250782E-01 +5.96921418555E-03 -4.67095305623E-03 +6.08828969213E-03 -5.15405577874E-03 -4.30433287657E-01 +1.73650224748E-01
3.05500000000E+09 -2.82035411453E-01 +2.83412411851E-01 +4.89744062780E-03 -5.01702254231E-03 +4.60492611848E-03 -5.41049170361E-03 -4.32361380382E-01 +2.11775720820E-01
3.06000000000E+09 -2.69784752843E-01 +3.10737809374E-01 +4.32536470040E-03 -5.82998996310E-03 +3.89644829030E-03 -5.78466244063E-03 -4.30335023657E-01 +2.51027959091E-01
3.06500000000E+09 -2.56441785487E-01 +3.36369511218E-01 +3.15697899220E-03 -6.33557456818E-03 +3.07833168574E-03 -6.05645520158E-03 -4.24728972178E-01 +2.88530192415E-01
3.07000000000E+09 -2.43173784768E-01 +3.60929249808E-01 +1.87629318625E-03 -6.54149550241E-03 +2.15793772795E-03 -6.19921369901E-03 -4.17528487613E-01 +3.23286345410E-01
