# Hz S RI R 50
! CMT, C1220, 16058040, 17.2.0/1
! Date: 15/08/2018 09:59:30
! Data: Format (Calibration Info)
! Freq                      S11: Re/Im (F2)                       S21: Re/Im (F2)                       S12: Re/Im (F2)                       S22: Re/Im (F2)            
2.50000000000E+09 +5.98016636744E-01 +6.36962960803E-01 -1.25882822159E-04 -1.27801082226E-03 -1.12089990405E-04 -1.38401701972E-03 +5.77196168472E-01 +7.13982288380E-01
2.50500000000E+09 +6.04248822129E-01 +6.29651481091E-01 -2.44549327800E-04 -1.36295477122E-03 -3.43551125803E-04 -1.37908651637E-03 +5.82789553954E-01 +7.08481136015E-01
2.51000000000E+09 +6.10842239038E-01 +6.21904491760E-01 -3.92887298429E-04 -1.21945549004E-03 -4.50959910997E-04 -1.22667330775E-03 +5.88434478995E-01 +7.03084890724E-01
2.51500000000E+09 +6.17509870239E-01 +6.14210511443E-01 -4.86741922997E-04 -1.25549057607E-03 -4.61388715849E-04 -1.20357943278E-03 +5.93601984664E-01 +6.97654771041E-01
2.52000000000E+09 +6.23770311660E-01 +6.06059123500E-01 -6.48555207184E-04 -1.26317925481E-03 -6.10862874138E-04 -1.25132215263E-03 +5.98690922608E-01 +6.91853468969E-01
2.52500000000E+09 +6.29413501691E-01 +5.98555780766E-01 -8.84156846735E-04 -1.14071823763E-03 -8.08522678209E-04 -1.22950471545E-03 +6.04306773519E-01 +6.85337913361E-01
2.53000000000E+09 +6.34822675733E-01 +5.91220232188E-01 -9.47537644976E-04 -9.35434529123E-04 -9.84188958919E-04 -9.76221355746E-04 +6.10254886835E-01 +6.78031027735E-01
2.53500000000E+09 +6.39649527341E-01 +5.84449834382E-01 -9.04395902572E-04 -8.36522087357E-04 -9.04026928047E-04 -8.18874708223E-04 +6.16010180400E-01 +6.71268000244E-01
2.54000000000E+09 +6.44126078730E-01 +5.77700321085E-01 -9.39042237948E-04 -8.09333808572E-04 -9.30290440917E-04 -8.57186544349E-04 +6.22036096691E-01 +6.64603079784E-01
2.54500000000E+09 +6.48652629788E-01 +5.71045429617E-01 -1.03541819104E-03 -8.35775601896E-04 -9.71266677314E-04 -9.32289109710E-04 +6.28064485478E-01 +6.58168204158E-01
2.55000000000E+09 +6.53251399630E-01 +5.64188361688E-01 -1.21349318294E-03 -7.40977770281E-04 -1.22513059306E-03 -8.74792929191E-04 +6.33100864062E-01 +6.51862114340E-01
2.55500000000E+09 +6.58249531857E-01 +5.56741106372E-01 -1.29424820509E-03 -5.61160478990E-04 -1.49721658304E-03 -6.92564039758E-04 +6.38155236748E-01 +6.45603896058E-01
2.56000000000E+09 +6.63827034294E-01 +5.49235987933E-01 -1.22889884727E-03 -3.56355506201E-04 -1.51517998730E-03 -2.95657706277E-04 +6.43377585620E-01 +6.38389922064E-01
2.56500000000E+09 +6.69625375827E-01 +5.40772740389E-01 -1.17172937128E-03 -3.65480311731E-04 -1.37258751535E-03 -1.49850844087E-04 +6.48721333328E-01 +6.30886757013E-01
2.57000000000E+09 +6.75812271065E-01 +5.32251697269E-01 -1.22490028273E-03 -5.25374216446E-04 -1.28879112641E-03 -2.64090815027E-04 +6.54202861703E-01 +6.22867099914E-01
2.57500000000E+09 +6.82079062515E-01 +5.23096785173E-01 -1.60614602303E-03 -4.31079811167E-04 -1.44957584836E-03 -1.50378874454E-04 +6.59951770355E-01 +6.15149126958E-01
2.58000000000E+09 +6.87805333685E-01 +5.14205541420E-01 -1.69347763911E-03 -7.61317073217E-05 -1.46330583460E-03 +4.86297922223E-05 +6.64879376651E-01 +6.07541276121E-01
2.58500000000E+09 +6.93366262012E-01 +5.05414762155E-01 -1.65279073861E-03 +2.12960408719E-04 -1.42814628442E-03 +1.19211846262E-04 +6.69695019144E-01 +6.00004630405E-01
2.59000000000E+09 +6.98518762747E-01 +4.96852750353E-01 -1.55019701656E-03 +2.64145292279E-04 -1.47006386633E-03 +1.63809726888E-04 +6.74537412280E-01 +5.92454810992E-01
2.59500000000E+09 +7.03489497722E-01 +4.88469107582E-01 -1.50984861040E-03 +3.31322386579E-04 -1.53025729323E-03 +2.37743574896E-04 +6.79402888926E-01 +5.84306038173E-01
2.60000000000E+09 +7.07776468472E-01 +4.80013638977E-01 -1.58936433043E-03 +2.66792411987E-04 -1.60971358764E-03 +2.56408305283E-04 +6.84317294273E-01 +5.75710686229E-01
2.60500000000E+09 +7.12285720984E-01 +4.71073136320E-01 -1.88024028591E-03 +5.65164358286E-04 -1.83694897657E-03 +5.28933818241E-04 +6.89464912428E-01 +5.66682279162E-01
2.61000000000E+09 +7.16476832156E-01 +4.61510515319E-01 -1.88029145354E-03 +1.14856596121E-03 -1.89442472168E-03 +1.12698803985E-03 +6.94295375010E-01 +5.57834783043E-01
2.61500000000E+09 +7.20955509277E-01 +4.51018220270E-01 -1.35420572080E-03 +1.41329615248E-03 -1.42863758989E-03 +1.42853022333E-03 +6.99028875970E-01 +5.49280150267E-01
2.62000000000E+09 +7.25026161892E-01 +4.39665762454E-01 -1.10064058145E-03 +1.33484569116E-03 -1.17146831441E-03 +1.41879466340E-03 +7.04022104448E-01 +5.40221662207E-01
2.62500000000E+09 +7.29086399479E-01 +4.27518968837E-01 -1.07813433893E-03 +1.24115944722E-03 -1.00796406541E-03 +1.40927316862E-03 +7.08436058373E-01 +5.31292634258E-01
2.63000000000E+09 +7.32978628439E-01 +4.15006184585E-01 -1.01415209960E-03 +1.28662917704E-03 -8.46325090290E-04 +1.35448135485E-03 +7.12793864032E-01 +5.22351354453E-01
2.63500000000E+09 +7.36453829215E-01 +4.02214441971E-01 -1.11593157027E-03 +1.37643926748E-03 -8.78626188446E-04 +1.32304656448E-03 +7.17528562015E-01 +5.13221698989E-01
2.64000000000E+09 +7.39795183979E-01 +3.89745466332E-01 -1.03893231594E-03 +1.76047429914E-03 -8.06922659192E-04 +1.52247585361E-03 +7.22499253936E-01 +5.03543036613E-01
2.64500000000E+09 +7.43499498797E-01 +3.77597802544E-01 -5.91878496163E-04 +1.85980523327E-03 -6.67221632762E-04 +1.57881839658E-03 +7.27300223476E-01 +4.93594058144E-01
2.65000000000E+09 +7.46618444070E-01 +3.65828777959E-01 -4.85360015431E-04 +1.70407873587E-03 -6.50188210534E-04 +1.57570858408E-03 +7.31651351030E-01 +4.83462111473E-01
2.65500000000E+09 +7.49675364687E-01 +3.54160518748E-01 -4.54553670596E-04 +1.68599982898E-03 -6.15310150575E-04 +1.71646297309E-03 +7.35280714400E-01 +4.73060044459E-01
2.66000000000E+09 +7.52535057151E-01 +3.42516301837E-01 -4.27711154313E-04 +1.82922300415E-03 -4.81019322720E-04 +1.97983176520E-03 +7.39467530055E-01 +4.62502235229E-01
2.66500000000E+09 +7.55255648825E-01 +3.31107705833E-01 -2.66248369174E-04 +1.97646624271E-03 -1.40965607100E-04 +2.04744858790E-03 +7.44005046051E-01 +4.51273424705E-01
2.67000000000E+09 +7.57621074975E-01 +3.18766891764E-01 -1.15324215780E-04 +2.06309593687E-03 -4.22833474573E-05 +2.04504957377E-03 +7.48246287280E-01 +4.39903407346E-01
2.67500000000E+09 +7.59789309804E-01 +3.05667052766E-01 +2.05079368796E-04 +2.14122689127E-03 +2.86017422163E-04 +1.97783687097E-03 +7.52225587638E-01 +4.28215808438E-01
2.68000000000E+09 +7.60918184811E-01 +2.92057348996E-01 +3.57272655595E-04 +1.98983325329E-03 +3.01552667972E-04 +1.88355438351E-03 +7.55883356031E-01 +4.16920033659E-01
2.68500000000E+09 +7.61540448563E-01 +2.78166460965E-01 +2.77325253578E-04 +2.03132677821E-03 +2.14788084410E-04 +2.03023707181E-03 +7.58808577397E-01 +4.05463138265E-01
2.69000000000E+09 +7.62176127361E-01 +2.64330445265E-01 +5.61001252384E-04 +2.31891162526E-03 +5.75872990374E-04 +2.29479101022E-03 +7.61679074884E-01 +3.93778677061E-01
2.69500000000E+09 +7.62842236401E-01 +2.50097811344E-01 +9.20147402885E-04 +2.24242640726E-03 +9.10015193948E-04 +2.18348280164E-03 +7.64411543765E-01 +3.80691044587E-01
2.70000000000E+09 +7.63379503773E-01 +2.35759864983E-01 +1.16331265616E-03 +2.26849266959E-03 +1.12661917846E-03 +2.23862075436E-03 +7.66862900410E-01 +3.67184319775E-01
2.70500000000E+09 +7.63941501737E-01 +2.21725493034E-01 +1.58174838677E-03 +2.06871833477E-03 +1.45460571911E-03 +2.02248218577E-03 +7.69260220871E-01 +3.53699103608E-01
2.71000000000E+09 +7.64772533897E-01 +2.07945503312E-01 +1.69613637304E-03 +1.84778610410E-03 +1.62666242679E-03 +1.90807808616E-03 +7.72098418997E-01 +3.40745896254E-01
2.71500000000E+09 +7.65961441760E-01 +1.93850136942E-01 +1.71438985945E-03 +1.63631754871E-03 +1.81006878170E-03 +1.78985541548E-03 +7.74777605082E-01 +3.27738609497E-01
2.72000000000E+09 +7.67052597221E-01 +1.79249066585E-01 +1.79712300714E-03 +1.62893863868E-03 +1.97747683848E-03 +1.67671349347E-03 +7.76631239486E-01 +3.14646260505E-01
2.72500000000E+09 +7.67538204860E-01 +1.64175745037E-01 +2.17286465628E-03 +1.65029955135E-03 +2.34014973666E-03 +1.39931830727E-03 +7.77429511384E-01 +3.01527554107E-01
2.73000000000E+09 +7.66967901074E-01 +1.48678820096E-01 +2.25549274969E-03 +1.46238172181E-03 +2.18824087357E-03 +1.09057219522E-03 +7.78649774668E-01 +2.87755245509E-01
2.73500000000E+09 +7.65738894613E-01 +1.32764519034E-01 +2.44678415452E-03 +1.26204685950E-03 +2.15973246245E-03 +1.05304391889E-03 +7.79660056540E-01 +2.72942598285E-01
2.74000000000E+09 +7.63459519834E-01 +1.16785485068E-01 +2.68925616864E-03 +1.12030643780E-03 +2.25204795434E-03 +1.21227769397E-03 +7.80714222671E-01 +2.57441116825E-01
2.74500000000E+09 +7.60268659757E-01 +1.00625837742E-01 +2.90283986871E-03 +9.51504280499E-04 +2.60435294169E-03 +1.27830323596E-03 +7.81249797106E-01 +2.42041532004E-01
2.75000000000E+09 +7.56667653928E-01 +8.38651118847E-02 +3.23490457980E-03 +6.69645047546E-04 +3.28367418442E-03 +1.07905809761E-03 +7.81814158320E-01 +2.27175941548E-01
2.75500000000E+09 +7.52259661084E-01 +6.67233842708E-02 +3.31906052897E-03 +1.54815130193E-04 +3.56988190813E-03 +4.03098847699E-04 +7.81420871541E-01 +2.12038115896E-01
2.76000000000E+09 +7.47157763511E-01 +4.96036403591E-02 +3.19019653740E-03 -5.03362149726E-05 +3.50259975705E-03 -2.43354581713E-05 +7.80798190656E-01 +1.97028663837E-01
2.76500000000E+09 +7.42134989534E-01 +3.27062007499E-02 +3.51014753213E-03 -1.70264597177E-04 +3.71524541724E-03 -2.31689670897E-04 +7.79845169818E-01 +1.80594890960E-01
2.77000000000E+09 +7.37642114835E-01 +1.49962330324E-02 +3.80420668130E-03 -7.52950763262E-04 +4.01029640328E-03 -8.65259428835E-04 +7.78419638767E-01 +1.62877183764E-01
2.77500000000E+09 +7.32950108312E-01 -3.63218250222E-03 +3.64844817539E-03 -1.45570886558E-03 +3.77685539233E-03 -1.69050133614E-03 +7.75698147476E-01 +1.45051931476E-01
2.78000000000E+09 +7.27908874630E-01 -2.30533162886E-02 +3.30697296431E-03 -1.77330969369E-03 +3.31027239481E-03 -1.97148959782E-03 +7.73895401477E-01 +1.27703684973E-01
2.78500000000E+09 +7.21668707544E-01 -4.29046380732E-02 +3.12715843612E-03 -1.87453762891E-03 +2.98736932398E-03 -2.06280611384E-03 +7.71450129249E-01 +1.10114665636E-01
2.79000000000E+09 +7.14929535456E-01 -6.28427549884E-02 +3.35784643460E-03 -2.12583857387E-03 +3.11609888218E-03 -2.20915439049E-03 +7.68704164999E-01 +9.27491640300E-02
2.79500000000E+09 +7.07075333678E-01 -8.23545546569E-02 +3.36119739208E-03 -3.01439218943E-03 +3.14803349705E-03 -2.81168712558E-03 +7.64407820644E-01 +7.46437159472E-02
2.80000000000E+09 +6.98655658089E-01 -1.01892228128E-01 +2.83016229912E-03 -3.50155715707E-03 +2.80214105646E-03 -3.30815945223E-03 +7.58954808259E-01 +5.64611553774E-02
2.80500000000E+09 +6.88699323377E-01 -1.21027579300E-01 +2.22959051482E-03 -3.81964385826E-03 +2.37127805372E-03 -3.72007490177E-03 +7.53192258069E-01 +3.84913503433E-02
2.81000000000E+09 +6.77577759893E-01 -1.39154748731E-01 +1.89341896608E-03 -3.89564808448E-03 +2.04453470731E-03 -3.99638530966E-03 +7.47731058079E-01 +1.89952637904E-02
2.81500000000E+09 +6.65809323824E-01 -1.56259393743E-01 +1.43564270171E-03 -4.11555164326E-03 +1.36542217213E-03 -4.28470933153E-03 +7.40674694494E-01 -1.21256674874E-03
2.82000000000E+09 +6.53425660550E-01 -1.73690828295E-01 +1.21713103673E-03 -4.30321005695E-03 +1.06921867843E-03 -4.36649884688E-03 +7.32586984793E-01 -2.14094893839E-02
2.82500000000E+09 +6.39578331467E-01 -1.90957174115E-01 +6.34236605094E-04 -4.76324598836E-03 +4.28372314975E-04 -4.57360340750E-03 +7.23265127573E-01 -4.07226705330E-02
2.83000000000E+09 +6.24486364082E-01 -2.09335168340E-01 -7.23399812991E-05 -4.52305015885E-03 -7.95675390718E-05 -4.28537772495E-03 +7.13770531052E-01 -5.99999007945E-02
2.83500000000E+09 +6.07203544259E-01 -2.28065904460E-01 -2.59961085851E-04 -4.29860113513E-03 -1.25958535843E-04 -4.10217305112E-03 +7.03940953931E-01 -7.96140455613E-02
2.84000000000E+09 +5.87604440853E-01 -2.46113891263E-01 -3.08368515304E-04 -4.50825635628E-03 -1.86654874214E-04 -4.48876643345E-03 +6.92898429747E-01 -1.00878924633E-01
2.84500000000E+09 +5.66961112978E-01 -2.63757273200E-01 -9.62767037897E-04 -4.78796856882E-03 -9.28820368249E-04 -4.83073778979E-03 +6.79491440032E-01 -1.21820101665E-01
2.85000000000E+09 +5.45052618776E-01 -2.81829098495E-01 -1.34599939051E-03 -4.90678963579E-03 -1.32453494008E-03 -4.89628002181E-03 +6.64933146250E-01 -1.42079067404E-01
2.85500000000E+09 +5.21520419193E-01 -2.99387887421E-01 -2.22893072464E-03 -4.99276916636E-03 -2.17583815044E-03 -4.93403971394E-03 +6.50561043410E-01 -1.61395628433E-01
2.86000000000E+09 +4.97320189596E-01 -3.16282356895E-01 -2.98449150178E-03 -4.83771471115E-03 -2.89496229424E-03 -4.77190186368E-03 +6.35011115012E-01 -1.82505588009E-01
2.86500000000E+09 +4.72023340653E-01 -3.32876870289E-01 -3.67723815148E-03 -4.13939642541E-03 -3.59293585314E-03 -4.14691668450E-03 +6.17053384604E-01 -2.02781121316E-01
2.87000000000E+09 +4.45180463458E-01 -3.47649563764E-01 -3.89058901599E-03 -3.45303887700E-03 -3.88714572581E-03 -3.41103650296E-03 +5.98195270119E-01 -2.22529748450E-01
2.87500000000E+09 +4.18813376549E-01 -3.60427849680E-01 -3.86998155972E-03 -3.21015920565E-03 -3.88909022471E-03 -3.12167151095E-03 +5.78168948358E-01 -2.41611585912E-01
2.88000000000E+09 +3.92481087400E-01 -3.72366071928E-01 -4.05334564879E-03 -3.29968954330E-03 -4.04691219626E-03 -3.15213125604E-03 +5.56652010442E-01 -2.60662647617E-01
2.88500000000E+09 +3.65324667442E-01 -3.83384485563E-01 -4.97284556258E-03 -3.33266466551E-03 -4.68974540708E-03 -3.09687726649E-03 +5.34287576026E-01 -2.79118120062E-01
2.89000000000E+09 +3.37071852231E-01 -3.92895700933E-01 -5.61103634840E-03 -2.53394873943E-03 -5.22325990263E-03 -2.52510117339E-03 +5.09107897060E-01 -2.97508001349E-01
2.89500000000E+09 +3.07445017820E-01 -4.00858981539E-01 -6.00967582086E-03 -1.82717866989E-03 -5.79947589317E-03 -2.05105466381E-03 +4.81956833030E-01 -3.14695945746E-01
2.90000000000E+09 +2.76151808156E-01 -4.07096624320E-01 -6.15376254041E-03 -9.87645489432E-04 -6.14036927004E-03 -1.22328756973E-03 +4.53113052727E-01 -3.30405244906E-01
2.90500000000E+09 +2.42741997645E-01 -4.11068876061E-01 -6.14073064006E-03 -5.53274764898E-04 -6.27919187919E-03 -5.48652288087E-04 +4.24345051167E-01 -3.45123876914E-01
2.91000000000E+09 +2.07862466620E-01 -4.12284254285E-01 -6.45654897289E-03 +5.46408897050E-05 -6.44508781416E-03 +2.15800791991E-04 +3.93487791845E-01 -3.60114498856E-01
2.91500000000E+09 +1.72392180041E-01 -4.09688494948E-01 -6.41956039548E-03 +9.57403946204E-04 -6.15048352587E-03 +1.07029026004E-03 +3.60928410283E-01 -3.72751013975E-01
2.92000000000E+09 +1.37280130694E-01 -4.04891826086E-01 -6.13608563938E-03 +1.32322313217E-03 -5.83418831039E-03 +1.20806741375E-03 +3.26380514468E-01 -3.82326302476E-01
2.92500000000E+09 +1.03619464631E-01 -3.98909063191E-01 -6.34544522710E-03 +1.57347967367E-03 -6.14897018128E-03 +1.24553300243E-03 +2.91454708121E-01 -3.89797328430E-01
2.93000000000E+09 +6.89516324677E-02 -3.92793306520E-01 -6.93285034871E-03 +2.49334906234E-03 -6.93993139131E-03 +2.13517633835E-03 +2.54944038458E-01 -3.95615562805E-01
2.93500000000E+09 +3.32542266212E-02 -3.84423318991E-01 -6.61593117795E-03 +3.85359822059E-03 -6.77287872628E-03 +3.62903646056E-03 +2.16819363498E-01 -4.00764170180E-01
2.94000000000E+09 -2.12204843033E-03 -3.72738868746E-01 -5.96279804751E-03 +4.49052931572E-03 -6.07493652461E-03 +4.40836712368E-03 +1.76825347032E-01 -4.02699237462E-01
2.94500000000E+09 -3.63222900726E-02 -3.58092483858E-01 -5.95432205803E-03 +4.95246377899E-03 -5.98665247287E-03 +4.81978570087E-03 +1.37530881799E-01 -4.01909587868E-01
2.95000000000E+09 -6.86295217372E-02 -3.40777376074E-01 -5.66068086042E-03 +6.47427728273E-03 -5.87609447755E-03 +6.25346385793E-03 +9.87589673858E-02 -3.98705103726E-01
2.95500000000E+09 -9.85855858490E-02 -3.21733326960E-01 -4.23365143574E-03 +7.22207991450E-03 -4.64069831595E-03 +7.14811138903E-03 +5.98858508668E-02 -3.93459403798E-01
2.96000000000E+09 -1.28688844711E-01 -3.00760519681E-01 -3.59391972060E-03 +7.35323817256E-03 -3.85287279181E-03 +7.63265490151E-03 +1.95374752320E-02 -3.85600395031E-01
2.96500000000E+09 -1.57060160378E-01 -2.76695323842E-01 -2.99232700684E-03 +7.88073435434E-03 -2.92827840325E-03 +8.13667928340E-03 -2.16826815723E-02 -3.74201717327E-01
2.97000000000E+09 -1.84510868711E-01 -2.49334453654E-01 -2.56248494354E-03 +8.33169735414E-03 -2.28904404376E-03 +8.36106461131E-03 -6.24643195473E-02 -3.58716753187E-01
2.97500000000E+09 -2.09236811445E-01 -2.19344942820E-01 -1.99074388901E-03 +9.78353013603E-03 -1.87947912752E-03 +9.46399498393E-03 -1.01902476163E-01 -3.41112442789E-01
2.98000000000E+09 -2.32232857556E-01 -1.88290840721E-01 +5.58830223084E-04 +1.06647334578E-02 +2.45289886551E-04 +1.04400773459E-02 -1.39769503437E-01 -3.20859415291E-01
2.98500000000E+09 -2.53423466333E-01 -1.55933379463E-01 +2.25195838205E-03 +9.63151498910E-03 +1.86803571008E-03 +9.89366971472E-03 -1.76506372084E-01 -2.99331595033E-01
2.99000000000E+09 -2.73351919981E-01 -1.23227284641E-01 +3.06978599960E-03 +9.07604747664E-03 +3.00845372275E-03 +9.56518707441E-03 -2.13556952229E-01 -2.73026442589E-01
2.99500000000E+09 -2.91703655782E-01 -8.91003068394E-02 +3.86384827656E-03 +9.24101644246E-03 +4.29975784386E-03 +9.49927934017E-03 -2.46757323540E-01 -2.42687763837E-01
3.00000000000E+09 -3.07546672087E-01 -5.40387849775E-02 +5.30951844932E-03 +9.17605929007E-03 +5.68861762516E-03 +8.95837218692E-03 -2.77491005685E-01 -2.11103272921E-01
3.00500000000E+09 -3.19850425361E-01 -1.97267319755E-02 +7.31798874615E-03 +9.13237819942E-03 +7.25639350297E-03 +8.60652682030E-03 -3.07271785232E-01 -1.77483157695E-01
3.01000000000E+09 -3.29571495338E-01 +1.35341238033E-02 +9.47342707823E-03 +6.95588003551E-03 +8.93645478534E-03 +6.76580732010E-03 -3.33399207214E-01 -1.41627440938E-01
3.01500000000E+09 -3.37252583184E-01 +4.58415103591E-02 +9.56091838820E-03 +4.70831680272E-03 +9.22153492215E-03 +5.01549284627E-03 -3.57724115997E-01 -1.04778923992E-01
3.02000000000E+09 -3.42410134976E-01 +7.85624329385E-02 +9.31809343027E-03 +3.60192457119E-03 +9.31228188613E-03 +3.83571862655E-03 -3.77468265381E-01 -6.55525580747E-02
3.02500000000E+09 -3.44482341374E-01 +1.11635280826E-01 +9.48002316979E-03 +3.27727747915E-03 +9.62616942684E-03 +3.39485728341E-03 -3.93056516305E-01 -2.62347509428E-02
3.03000000000E+09 -3.42371896532E-01 +1.44476157430E-01 +1.05939892531E-02 +2.19420855178E-03 +1.06373335257E-02 +2.23770897432E-03 -4.07290243969E-01 +1.25211394326E-02
3.03500000000E+09 -3.37638907021E-01 +1.75124023293E-01 +1.12910495976E-02 +3.09529566104E-04 +1.13780222338E-02 +4.51856908858E-04 -4.19569531538E-01 +5.35675708465E-02
3.04000000000E+09 -3.31049634597E-01 +2.06640222674E-01 +1.10783802750E-02 -2.04451475563E-03 +1.14034807022E-02 -1.79999928638E-03 -4.27162427388E-01 +9.55011683873E-02
3.04500000000E+09 -3.22491776175E-01 +2.35928528774E-01 +9.65421769298E-03 -3.48236272260E-03 +1.02438634235E-02 -3.52032614475E-03 -4.31680640139E-01 +1.36265613160E-01
3.05000000000E+09 -3.13271744618E-01 +2.65603607447E-01 +9.04401295066E-03 -4.18079933477E-03 +9.33975637596E-03 -4.79139382082E-03 -4.33102736899E-01 +1.75017432846E-01
3.05500000000E+09 -3.02493029075E-01 +2.94890740632E-01 +8.50677048422E-03 -4.94901576559E-03 +8.30299124743E-03 -5.53585157140E-03 -4.34570870197E-01 +2.13341831771E-01
3.06000000000E+09 -2.89982759730E-01 +3.23473170016E-01 +8.07651260466E-03 -6.46883950381E-03 +7.47317720307E-03 -6.58697727737E-03 -4.31770258991E-01 +2.52936595257E-01
3.06500000000E+09 -2.76290987526E-01 +3.49901903674E-01 +6.59805079448E-03 -7.80531487233E-03 +6.27437170125E-03 -7.34528212616E-03 -4.26263796626E-01 +2.90406458262E-01
3.07000000000E+09 -2.62704677756E-01 +3.74978008044E-01 +4.52077081354E-03 -8.24905068567E-03 +4.83554638205E-03 -7.81158908068E-03 -4.18395320745E-01 +3.25625433911E-01
