# Hz S RI R 50
! CMT, C1220, 16058040, 17.2.0/1
! Date: 15/08/2018 09:57:17
! Data: Format (Calibration Info)
! Freq                      S11: Re/Im (F2)                       S21: Re/Im (F2)                       S12: Re/Im (F2)                       S22: Re/Im (F2)            
2.50000000000E+09 +5.98288248982E-01 +6.32554780062E-01 -6.38216994101E-05 -1.27853460449E-03 -6.53741631116E-05 -1.38122498212E-03 +5.77214415235E-01 +7.14155218142E-01
2.50500000000E+09 +6.04397373755E-01 +6.25270687804E-01 -1.85492672087E-04 -1.29342673082E-03 -2.34376335242E-04 -1.33448081152E-03 +5.82836564615E-01 +7.08513525874E-01
2.51000000000E+09 +6.10899931489E-01 +6.17661225457E-01 -2.75076126555E-04 -1.25821070961E-03 -3.18321971670E-04 -1.25212315657E-03 +5.88408084051E-01 +7.03190746857E-01
2.51500000000E+09 +6.17542285783E-01 +6.10026133215E-01 -3.73281100775E-04 -1.32852409077E-03 -2.94417893173E-04 -1.29417101887E-03 +5.93619647375E-01 +6.97784854333E-01
2.52000000000E+09 +6.23829713632E-01 +6.01965859525E-01 -6.01235656599E-04 -1.35593542330E-03 -5.24157122576E-04 -1.41294405686E-03 +5.98656984508E-01 +6.91920079043E-01
2.52500000000E+09 +6.29465830394E-01 +5.94559994445E-01 -8.16356773049E-04 -1.23958025637E-03 -7.60093359150E-04 -1.32761336094E-03 +6.04371120611E-01 +6.85486443948E-01
2.53000000000E+09 +6.34763692849E-01 +5.87233221500E-01 -9.00019848362E-04 -1.04583610906E-03 -9.34083039364E-04 -1.02107671303E-03 +6.10172776555E-01 +6.78162484885E-01
2.53500000000E+09 +6.39587300165E-01 +5.80387034265E-01 -8.28257010880E-04 -9.41800413782E-04 -7.98325450434E-04 -9.40928943025E-04 +6.16184257234E-01 +6.71195358710E-01
2.54000000000E+09 +6.44086848054E-01 +5.73794065835E-01 -9.31046545839E-04 -1.03966365304E-03 -8.91877704635E-04 -1.02080069588E-03 +6.22151963459E-01 +6.64654033338E-01
2.54500000000E+09 +6.48632199984E-01 +5.67189657945E-01 -1.10030287241E-03 -1.04507266707E-03 -1.06178202115E-03 -1.12618646006E-03 +6.28099830586E-01 +6.58134207961E-01
2.55000000000E+09 +6.53219723732E-01 +5.60337253021E-01 -1.36482970507E-03 -8.76617940865E-04 -1.36498478953E-03 -1.07173293376E-03 +6.33205453325E-01 +6.51924588960E-01
2.55500000000E+09 +6.58167640245E-01 +5.52896982031E-01 -1.42685530761E-03 -6.32093036523E-04 -1.64065929587E-03 -7.64395462743E-04 +6.38217857691E-01 +6.45562225802E-01
2.56000000000E+09 +6.63689263129E-01 +5.45447668068E-01 -1.32428122302E-03 -4.39137405726E-04 -1.56221280566E-03 -4.34240451427E-04 +6.43379964815E-01 +6.38485237512E-01
2.56500000000E+09 +6.69681304487E-01 +5.37038698198E-01 -1.21820963637E-03 -4.88520353725E-04 -1.40829515929E-03 -2.74383212464E-04 +6.48778746877E-01 +6.30742816024E-01
2.57000000000E+09 +6.75875712743E-01 +5.28470330390E-01 -1.30106410776E-03 -6.54398908172E-04 -1.37584822975E-03 -3.18424060426E-04 +6.54429592109E-01 +6.22879388083E-01
2.57500000000E+09 +6.82091619176E-01 +5.19337564873E-01 -1.67939840132E-03 -5.90043183620E-04 -1.58772370757E-03 -2.34921809132E-04 +6.60075740067E-01 +6.14801506689E-01
2.58000000000E+09 +6.87697655741E-01 +5.10440521714E-01 -1.87368410556E-03 -1.23096125433E-04 -1.58785124535E-03 -4.43760440296E-05 +6.64918900270E-01 +6.07196183968E-01
2.58500000000E+09 +6.93266690798E-01 +5.01700131915E-01 -1.74464828274E-03 +1.82873177198E-04 -1.49481006784E-03 +8.89142115162E-05 +6.69725995869E-01 +5.99824196403E-01
2.59000000000E+09 +6.98411592468E-01 +4.93248453545E-01 -1.51450401820E-03 +1.54481246047E-04 -1.50542426104E-03 +5.19910090969E-05 +6.74613397794E-01 +5.92310216698E-01
2.59500000000E+09 +7.03366230748E-01 +4.84859014609E-01 -1.58030078403E-03 +1.50495155166E-04 -1.59830739213E-03 +6.46878597531E-05 +6.79332796939E-01 +5.83973945115E-01
2.60000000000E+09 +7.07744594172E-01 +4.76383748466E-01 -1.74676748919E-03 +1.18280238881E-04 -1.75021005116E-03 +7.20440404263E-05 +6.84236884785E-01 +5.75368183491E-01
2.60500000000E+09 +7.12080219072E-01 +4.67504724373E-01 -2.12193770472E-03 +3.62283426362E-04 -2.09666512111E-03 +4.16328538465E-04 +6.89172966912E-01 +5.66241703741E-01
2.61000000000E+09 +7.16385498616E-01 +4.57938897178E-01 -2.09490843172E-03 +1.00596627272E-03 -2.07582748955E-03 +9.74357727625E-04 +6.93963101206E-01 +5.57350650496E-01
2.61500000000E+09 +7.20826824298E-01 +4.47552133206E-01 -1.62299653295E-03 +1.26752600089E-03 -1.66491730453E-03 +1.28353061097E-03 +6.98724854776E-01 +5.48812454006E-01
2.62000000000E+09 +7.24935270489E-01 +4.36177300229E-01 -1.46737856468E-03 +1.25724028823E-03 -1.52320879847E-03 +1.29231690466E-03 +7.03520514859E-01 +5.39762343125E-01
2.62500000000E+09 +7.28946413937E-01 +4.24157184950E-01 -1.43259393627E-03 +1.26670019289E-03 -1.39100657502E-03 +1.44197056024E-03 +7.07921672221E-01 +5.30804546483E-01
2.63000000000E+09 +7.33064248397E-01 +4.11507827389E-01 -1.36633042455E-03 +1.36554322922E-03 -1.18720142947E-03 +1.50393462565E-03 +7.12275015296E-01 +5.22095425292E-01
2.63500000000E+09 +7.36641153006E-01 +3.98670331927E-01 -1.52744517270E-03 +1.49190220053E-03 -1.20738653821E-03 +1.48504573601E-03 +7.17230816692E-01 +5.12944077913E-01
2.64000000000E+09 +7.39914836698E-01 +3.86172669717E-01 -1.32611066976E-03 +1.96925622136E-03 -1.10211971358E-03 +1.70588068183E-03 +7.21925126687E-01 +5.03185643358E-01
2.64500000000E+09 +7.43588129010E-01 +3.74200160705E-01 -9.76345907490E-04 +2.01770170898E-03 -9.85449985694E-04 +1.69437761913E-03 +7.26686986335E-01 +4.93172427845E-01
2.65000000000E+09 +7.46592268647E-01 +3.62424218718E-01 -7.97029384245E-04 +2.04915650775E-03 -1.00865139874E-03 +1.91182309772E-03 +7.30909859263E-01 +4.83063827181E-01
2.65500000000E+09 +7.49763980369E-01 +3.50889002007E-01 -6.94604367086E-04 +2.06507263522E-03 -8.97826152950E-04 +2.07296886929E-03 +7.34516672351E-01 +4.72965226757E-01
2.66000000000E+09 +7.52726461471E-01 +3.39134095842E-01 -6.37106713342E-04 +2.18128341426E-03 -7.19728744938E-04 +2.37925542216E-03 +7.38756741426E-01 +4.62457848244E-01
2.66500000000E+09 +7.55361247588E-01 +3.27682823404E-01 -4.73613083289E-04 +2.32729235805E-03 -3.57029074189E-04 +2.45486652866E-03 +7.43295710215E-01 +4.51107992949E-01
2.67000000000E+09 +7.57949078663E-01 +3.15327322376E-01 -2.53451019085E-04 +2.60862999446E-03 -6.65683353830E-05 +2.53174901871E-03 +7.47461255519E-01 +4.39633080594E-01
2.67500000000E+09 +7.59920284456E-01 +3.02178615520E-01 +2.31173176885E-04 +2.61636907722E-03 +2.75056453553E-04 +2.39356083102E-03 +7.51312071669E-01 +4.28280475096E-01
2.68000000000E+09 +7.61100386299E-01 +2.88440596704E-01 +3.79291763936E-04 +2.30875087682E-03 +3.01602141309E-04 +2.22361210414E-03 +7.54834415667E-01 +4.17019432167E-01
2.68500000000E+09 +7.61654272207E-01 +2.74485521023E-01 +3.23075116394E-04 +2.47798650978E-03 +2.52615894718E-04 +2.40745913480E-03 +7.57852065661E-01 +4.05794629564E-01
2.69000000000E+09 +7.62229638996E-01 +2.60542612479E-01 +6.72736820940E-04 +2.68280325482E-03 +6.65186081548E-04 +2.66627576993E-03 +7.60769057058E-01 +3.93954104539E-01
2.69500000000E+09 +7.63031192540E-01 +2.46482976735E-01 +9.14491928568E-04 +2.56936702756E-03 +9.40947007567E-04 +2.48944385592E-03 +7.63401558860E-01 +3.81072159434E-01
2.70000000000E+09 +7.63544914109E-01 +2.32129180128E-01 +1.18699361499E-03 +2.75992819956E-03 +1.17854198941E-03 +2.60690054011E-03 +7.65652783787E-01 +3.67736947012E-01
2.70500000000E+09 +7.64354638938E-01 +2.18188966905E-01 +1.74641623570E-03 +2.53855658592E-03 +1.59239245944E-03 +2.54687793920E-03 +7.68409567824E-01 +3.54503723835E-01
2.71000000000E+09 +7.65213469966E-01 +2.04337315298E-01 +1.92744079685E-03 +2.21468823654E-03 +1.82809366457E-03 +2.40038683357E-03 +7.71476241659E-01 +3.41433470220E-01
2.71500000000E+09 +7.66447781516E-01 +1.90168748515E-01 +1.94361461934E-03 +2.02819861973E-03 +2.02517710763E-03 +2.22478645315E-03 +7.74009079438E-01 +3.28390053002E-01
2.72000000000E+09 +7.67250118769E-01 +1.75416366573E-01 +2.04022128693E-03 +2.08763127349E-03 +2.31339289391E-03 +2.06647570390E-03 +7.75803948928E-01 +3.15433479634E-01
2.72500000000E+09 +7.67640274993E-01 +1.60337903040E-01 +2.37688639042E-03 +2.07153683499E-03 +2.56270418956E-03 +1.80753677032E-03 +7.76689120047E-01 +3.02323860247E-01
2.73000000000E+09 +7.66931611369E-01 +1.45033004195E-01 +2.58472277684E-03 +2.03017560500E-03 +2.54240568627E-03 +1.66530278185E-03 +7.77909892032E-01 +2.88888416703E-01
2.73500000000E+09 +7.65804151657E-01 +1.29019739841E-01 +3.01162313338E-03 +1.84935374784E-03 +2.64193866056E-03 +1.62882855138E-03 +7.79119509049E-01 +2.73969647673E-01
2.74000000000E+09 +7.63379973480E-01 +1.12756001809E-01 +3.38412612468E-03 +1.58759474645E-03 +2.90527226604E-03 +1.71520455700E-03 +7.80405501015E-01 +2.58461502289E-01
2.74500000000E+09 +7.60219594168E-01 +9.63410265162E-02 +3.72099456776E-03 +1.27462743326E-03 +3.34863123796E-03 +1.65425792014E-03 +7.81072879937E-01 +2.43109421799E-01
2.75000000000E+09 +7.56511886826E-01 +7.95422851217E-02 +4.04182823290E-03 +7.98825179945E-04 +4.07112529934E-03 +1.35106370951E-03 +7.81853086528E-01 +2.28133536402E-01
2.75500000000E+09 +7.51991607253E-01 +6.23224363253E-02 +4.03931981386E-03 +4.14996875897E-04 +4.39798190717E-03 +7.09972782836E-04 +7.81496253821E-01 +2.13004660693E-01
2.76000000000E+09 +7.46951313407E-01 +4.53156525500E-02 +4.20677554027E-03 +1.26674516438E-04 +4.48081215554E-03 +2.04938074092E-04 +7.80799683369E-01 +1.97854452990E-01
2.76500000000E+09 +7.42034375909E-01 +2.84723449562E-02 +4.63782518262E-03 -2.33358008209E-04 +4.80057615133E-03 -2.69811580124E-04 +7.79768498968E-01 +1.81558001874E-01
2.77000000000E+09 +7.37536360587E-01 +1.09074897532E-02 +4.88971288517E-03 -9.63063833871E-04 +5.07253131652E-03 -1.12932361620E-03 +7.78487296701E-01 +1.63969820545E-01
2.77500000000E+09 +7.32916518738E-01 -7.61353302492E-03 +4.69312085595E-03 -1.91771908515E-03 +4.82412336818E-03 -2.19593148389E-03 +7.76094387156E-01 +1.46222482871E-01
2.78000000000E+09 +7.27920155539E-01 -2.69235817542E-02 +4.24728773898E-03 -2.34983882295E-03 +4.16174134440E-03 -2.65145849500E-03 +7.74324467623E-01 +1.28720631305E-01
2.78500000000E+09 +7.21654649954E-01 -4.69833451903E-02 +4.00524089787E-03 -2.53444912161E-03 +3.79748066050E-03 -2.77666586924E-03 +7.72032245988E-01 +1.11011055789E-01
2.79000000000E+09 +7.14561714832E-01 -6.72853700885E-02 +4.10782918212E-03 -2.94316310703E-03 +3.81846629602E-03 -3.01708554696E-03 +7.69367681869E-01 +9.35007450074E-02
2.79500000000E+09 +7.06343890456E-01 -8.66936539612E-02 +4.02883701551E-03 -3.82667837842E-03 +3.81343405188E-03 -3.58870216180E-03 +7.64936637813E-01 +7.53767788209E-02
2.80000000000E+09 +6.97415316372E-01 -1.06386461051E-01 +3.49487331366E-03 -4.45401573639E-03 +3.45566650081E-03 -4.17583963001E-03 +7.59696034324E-01 +5.73682285156E-02
2.80500000000E+09 +6.87061977521E-01 -1.25310609881E-01 +2.69902960249E-03 -4.95144874511E-03 +2.94845084860E-03 -4.77778250892E-03 +7.54143043605E-01 +3.92479150380E-02
2.81000000000E+09 +6.75863615819E-01 -1.43339002597E-01 +2.39030429272E-03 -4.98771131644E-03 +2.54513314147E-03 -5.11882123687E-03 +7.48782669513E-01 +1.95795024947E-02
2.81500000000E+09 +6.63829799303E-01 -1.60603428879E-01 +1.74221629315E-03 -5.44785118820E-03 +1.77754942557E-03 -5.60603398677E-03 +7.41757791850E-01 -9.08187743789E-04
2.82000000000E+09 +6.51097885198E-01 -1.78027113050E-01 +1.38481883283E-03 -5.68967767569E-03 +1.09341700562E-03 -5.76159605413E-03 +7.33704186642E-01 -2.10142782407E-02
2.82500000000E+09 +6.37057611518E-01 -1.95048103629E-01 +6.38211252146E-04 -6.23174887200E-03 +4.24930966500E-04 -5.96314892062E-03 +7.24806088905E-01 -4.05343996228E-02
2.83000000000E+09 +6.21568021579E-01 -2.13118363311E-01 -3.09445945723E-04 -5.93843523153E-03 -3.24301182987E-04 -5.61509053698E-03 +7.15296882162E-01 -6.01889133644E-02
2.83500000000E+09 +6.03936426286E-01 -2.31308188796E-01 -6.80283760851E-04 -5.64811146275E-03 -5.11358369790E-04 -5.42706517775E-03 +7.05275839296E-01 -8.02912283097E-02
2.84000000000E+09 +5.84269849406E-01 -2.48654788072E-01 -7.26592176518E-04 -5.84784450008E-03 -4.70584584373E-04 -5.78502169715E-03 +6.93710005970E-01 -1.01445862517E-01
2.84500000000E+09 +5.63513423427E-01 -2.65849663017E-01 -1.54267492742E-03 -6.31674514665E-03 -1.49884830371E-03 -6.35467381500E-03 +6.80353030827E-01 -1.22116085655E-01
2.85000000000E+09 +5.41511819255E-01 -2.83476029882E-01 -2.27193479124E-03 -6.52266896557E-03 -2.32501344028E-03 -6.49143194101E-03 +6.66064759872E-01 -1.42545995312E-01
2.85500000000E+09 +5.17823778682E-01 -3.00495448191E-01 -3.55032192969E-03 -6.43462690847E-03 -3.57510016979E-03 -6.25988634174E-03 +6.51968444666E-01 -1.62230540561E-01
2.86000000000E+09 +4.93662943325E-01 -3.17247626662E-01 -4.57151855407E-03 -5.92458934274E-03 -4.41419426128E-03 -5.89014106677E-03 +6.36124637257E-01 -1.83782038381E-01
2.86500000000E+09 +4.68036577857E-01 -3.33493628488E-01 -5.39384070742E-03 -4.99385151059E-03 -5.31750267355E-03 -5.05324985789E-03 +6.18093357001E-01 -2.04229253266E-01
2.87000000000E+09 +4.41261687150E-01 -3.47617696923E-01 -5.68980796539E-03 -4.15034782999E-03 -5.72245495431E-03 -4.16313389673E-03 +5.98792272593E-01 -2.24051012197E-01
2.87500000000E+09 +4.15133847680E-01 -3.60226861698E-01 -5.71824679209E-03 -3.72847913987E-03 -5.84314967999E-03 -3.59954241989E-03 +5.78796331621E-01 -2.43117276901E-01
2.88000000000E+09 +3.88956599662E-01 -3.71756877410E-01 -6.04444309397E-03 -3.68184926793E-03 -6.03865021140E-03 -3.43320787885E-03 +5.57360028392E-01 -2.62529872026E-01
2.88500000000E+09 +3.62102903978E-01 -3.82555139194E-01 -7.20068213101E-03 -3.32674451186E-03 -6.90998160326E-03 -3.07479542586E-03 +5.34617774017E-01 -2.81493280003E-01
2.89000000000E+09 +3.34039979649E-01 -3.91608089968E-01 -7.82237785902E-03 -2.20535448210E-03 -7.33089109882E-03 -2.25980938702E-03 +5.08816919046E-01 -2.99822305374E-01
2.89500000000E+09 +3.04668379112E-01 -3.99210411134E-01 -8.29584477852E-03 -1.18005120426E-03 -8.04951582393E-03 -1.56213232016E-03 +4.81237256190E-01 -3.17069375951E-01
2.90000000000E+09 +2.73591253669E-01 -4.05096457825E-01 -8.52690623966E-03 +3.63605188609E-05 -8.58006491611E-03 -3.62112382630E-04 +4.52381298087E-01 -3.32500674037E-01
2.90500000000E+09 +2.40317691926E-01 -4.08356599325E-01 -8.48385882303E-03 +1.12163786839E-03 -8.65454510536E-03 +1.11879318398E-03 +4.23406484752E-01 -3.47558813596E-01
2.91000000000E+09 +2.05633379979E-01 -4.09014101565E-01 -8.24305819333E-03 +2.17994277744E-03 -8.10811138671E-03 +2.37677070690E-03 +3.91990083986E-01 -3.62655230958E-01
2.91500000000E+09 +1.70594415920E-01 -4.05888450937E-01 -7.79706346298E-03 +3.21051662334E-03 -7.40001503227E-03 +3.26503221682E-03 +3.58761460367E-01 -3.74859516220E-01
2.92000000000E+09 +1.35448393385E-01 -4.00822179135E-01 -7.19961031795E-03 +3.67281571546E-03 -6.74813827342E-03 +3.35030400486E-03 +3.23859908881E-01 -3.84047422506E-01
2.92500000000E+09 +1.02023776001E-01 -3.94166298007E-01 -7.14394774198E-03 +4.02041846090E-03 -6.99895942851E-03 +3.56585577829E-03 +2.88732177322E-01 -3.91173725509E-01
2.93000000000E+09 +6.80006321756E-02 -3.87334735531E-01 -7.50199665982E-03 +5.16689318857E-03 -7.61588350812E-03 +4.70918822669E-03 +2.51775315311E-01 -3.96608195640E-01
2.93500000000E+09 +3.29071172733E-02 -3.78473544601E-01 -6.52545354922E-03 +6.70482132361E-03 -6.82955737867E-03 +6.51874151476E-03 +2.13593605874E-01 -4.00951498363E-01
2.94000000000E+09 -1.98077594152E-03 -3.66542299951E-01 -5.36847070420E-03 +7.33971385785E-03 -5.57187778828E-03 +7.12536878753E-03 +1.73861454171E-01 -4.02516796637E-01
2.94500000000E+09 -3.50687945823E-02 -3.51203353623E-01 -4.83933936097E-03 +7.73060889571E-03 -4.98978280550E-03 +7.58431636689E-03 +1.34657130919E-01 -4.01637330097E-01
2.95000000000E+09 -6.60778387573E-02 -3.33682631014E-01 -3.96254504999E-03 +8.81446317076E-03 -4.33881907584E-03 +8.64026393590E-03 +9.59994700208E-02 -3.98106165383E-01
2.95500000000E+09 -9.49507537923E-02 -3.14683300780E-01 -2.42926958672E-03 +9.06834553901E-03 -2.82363531140E-03 +9.17496736401E-03 +5.69284423259E-02 -3.92822576209E-01
2.96000000000E+09 -1.23922248887E-01 -2.93638602964E-01 -1.64668333269E-03 +8.96279500321E-03 -1.90182274678E-03 +9.37223274901E-03 +1.65396664272E-02 -3.84387414056E-01
2.96500000000E+09 -1.51361136745E-01 -2.69564943507E-01 -7.97642820349E-04 +9.16409254764E-03 -6.60368462383E-04 +9.56241594546E-03 -2.47641934417E-02 -3.72230213488E-01
2.97000000000E+09 -1.77631687830E-01 -2.42257707402E-01 -9.16137201938E-05 +9.15972192234E-03 +1.76993519116E-04 +9.15098704347E-03 -6.47607831088E-02 -3.56009902934E-01
2.97500000000E+09 -2.01204545231E-01 -2.12799017978E-01 +2.96378703082E-04 +1.01637124454E-02 +3.51626131728E-04 +9.88698674987E-03 -1.03845907708E-01 -3.38808847031E-01
2.98000000000E+09 -2.23519475272E-01 -1.82153909199E-01 +2.92098086236E-03 +1.09113934708E-02 +2.54726214260E-03 +1.07808353756E-02 -1.41836125296E-01 -3.18422858202E-01
2.98500000000E+09 -2.43927572144E-01 -1.50330233044E-01 +4.54680162276E-03 +9.25551423618E-03 +4.20941401306E-03 +9.57814542660E-03 -1.78500878487E-01 -2.96337886403E-01
2.99000000000E+09 -2.63017591405E-01 -1.18179579056E-01 +4.87289489988E-03 +8.47895024521E-03 +4.97438941387E-03 +8.93161410657E-03 -2.14704995670E-01 -2.69358932419E-01
2.99500000000E+09 -2.80659386001E-01 -8.50506617831E-02 +5.58373977502E-03 +8.64978370249E-03 +6.02489117332E-03 +8.86847917065E-03 -2.47031977254E-01 -2.39090992800E-01
3.00000000000E+09 -2.96130336172E-01 -5.09655002361E-02 +6.86275640418E-03 +8.59198051108E-03 +7.27741224505E-03 +8.20653865743E-03 -2.77486156010E-01 -2.07828953619E-01
3.00500000000E+09 -3.08074781046E-01 -1.74942259389E-02 +9.05564257778E-03 +8.25334905276E-03 +8.88537860686E-03 +7.65914340871E-03 -3.07018437952E-01 -1.74014460294E-01
3.01000000000E+09 -3.17421723173E-01 +1.52468065806E-02 +1.07980975202E-02 +5.65085886066E-03 +1.02451818474E-02 +5.56997885391E-03 -3.32759497925E-01 -1.38034733839E-01
3.01500000000E+09 -3.24762763849E-01 +4.67502764415E-02 +1.07554190520E-02 +3.60646640399E-03 +1.03798244962E-02 +3.96950418499E-03 -3.56175519907E-01 -1.01163598651E-01
3.02000000000E+09 -3.29777560944E-01 +7.88649024965E-02 +1.04877339085E-02 +2.29723005654E-03 +1.05352737740E-02 +2.66360781984E-03 -3.75116522355E-01 -6.24026041430E-02
3.02500000000E+09 -3.31306960194E-01 +1.11347529641E-01 +1.05348956132E-02 +1.84820084064E-03 +1.07560329403E-02 +1.86428509217E-03 -3.90552886701E-01 -2.43770262305E-02
3.03000000000E+09 -3.28983834796E-01 +1.43188842461E-01 +1.11449983997E-02 +4.28271513244E-04 +1.12426811112E-02 +4.80078093402E-04 -4.04908970964E-01 +1.42012344559E-02
3.03500000000E+09 -3.24586360338E-01 +1.73097321286E-01 +1.15954953906E-02 -1.07363402107E-03 +1.15718552744E-02 -8.88761274339E-04 -4.16676092968E-01 +5.51803591864E-02
3.04000000000E+09 -3.18107865569E-01 +2.04292032913E-01 +1.14946923527E-02 -3.53775271491E-03 +1.18489048003E-02 -3.25171618798E-03 -4.23956003056E-01 +9.59849281067E-02
3.04500000000E+09 -3.09535828826E-01 +2.32885025400E-01 +9.91583033604E-03 -4.89778084631E-03 +1.05199754136E-02 -5.04477855298E-03 -4.29364496061E-01 +1.36307009812E-01
3.05000000000E+09 -3.00265214286E-01 +2.62171525016E-01 +9.17371524307E-03 -5.92921915985E-03 +9.55733354157E-03 -6.56863124341E-03 -4.31165650127E-01 +1.75524171959E-01
3.05500000000E+09 -2.89482183382E-01 +2.90431778635E-01 +8.33325920754E-03 -6.74010428950E-03 +8.02584811702E-03 -7.30326000999E-03 -4.31917436256E-01 +2.13680813368E-01
3.06000000000E+09 -2.77256630904E-01 +3.18104471525E-01 +7.52104355184E-03 -8.14886964546E-03 +6.89422433687E-03 -8.19963788353E-03 -4.29627220135E-01 +2.52387669518E-01
3.06500000000E+09 -2.63873371068E-01 +3.43723535079E-01 +5.69124895299E-03 -9.25907290117E-03 +5.44817329145E-03 -8.75352800814E-03 -4.23829669632E-01 +2.89879880073E-01
3.07000000000E+09 -2.50721528514E-01 +3.68263298087E-01 +3.59328367865E-03 -9.34129988671E-03 +4.05998346915E-03 -8.93546823004E-03 -4.16213567959E-01 +3.24419353919E-01
