# Hz S RI R 50
! CMT, C1220, 16058040, 17.2.0/1
! Date: 15/08/2018 09:57:51
! Data: Format (Calibration Info)
! Freq                      S11: Re/Im (F2)                       S21: Re/Im (F2)                       S12: Re/Im (F2)                       S22: Re/Im (F2)            
2.50000000000E+09 +5.97381375568E-01 +6.33108997178E-01 -3.45319048366E-04 -9.08252125150E-04 -3.09371569729E-04 -1.01954334704E-03 +5.77105911546E-01 +7.13597715992E-01
2.50500000000E+09 +6.03503309033E-01 +6.25840275685E-01 -3.65528240797E-04 -8.89395400117E-04 -3.86770396144E-04 -8.92289567593E-04 +5.82690104647E-01 +7.08013656517E-01
2.51000000000E+09 +6.10192335886E-01 +6.18098737460E-01 -3.82629080248E-04 -8.67778275696E-04 -4.74290540903E-04 -8.49860390284E-04 +5.88245063811E-01 +7.02759674340E-01
2.51500000000E+09 +6.16827816706E-01 +6.10280055941E-01 -5.09617206369E-04 -9.41624057997E-04 -4.95825187951E-04 -8.83631168847E-04 +5.93276614859E-01 +6.97364842237E-01
2.52000000000E+09 +6.22974099004E-01 +6.02351091031E-01 -6.75184130285E-04 -9.07346467305E-04 -6.27551841906E-04 -8.97418874463E-04 +5.98281451045E-01 +6.91461784818E-01
2.52500000000E+09 +6.28707035958E-01 +5.94775692619E-01 -8.22439970719E-04 -7.86178848858E-04 -8.33536515938E-04 -7.96621451129E-04 +6.03989555806E-01 +6.84969854382E-01
2.53000000000E+09 +6.33859542399E-01 +5.87631665496E-01 -9.11574331839E-04 -5.66615004563E-04 -9.13628337627E-04 -5.78910112757E-04 +6.10005160553E-01 +6.77785580737E-01
2.53500000000E+09 +6.38613596941E-01 +5.80976036895E-01 -7.44758013144E-04 -5.29444687289E-04 -7.46628131320E-04 -5.43155480845E-04 +6.15843902488E-01 +6.70757418098E-01
2.54000000000E+09 +6.43168490179E-01 +5.74321971190E-01 -8.58582032794E-04 -5.99451889720E-04 -7.97459712142E-04 -5.81437623307E-04 +6.21761640419E-01 +6.64171478442E-01
2.54500000000E+09 +6.47590466742E-01 +5.67639370349E-01 -9.82250534225E-04 -5.03026708491E-04 -9.76283375394E-04 -6.16048181233E-04 +6.27539098297E-01 +6.57655339899E-01
2.55000000000E+09 +6.52112191804E-01 +5.60836881462E-01 -1.07172994571E-03 -3.60642014259E-04 -1.15398178420E-03 -4.59496453050E-04 +6.32464858912E-01 +6.51557649086E-01
2.55500000000E+09 +6.57023827651E-01 +5.53511067957E-01 -1.04385593955E-03 -1.86038173154E-04 -1.27357916340E-03 -2.37020009824E-04 +6.37604671471E-01 +6.45271648885E-01
2.56000000000E+09 +6.62499277389E-01 +5.46135675608E-01 -9.72812813360E-04 -8.01152269795E-05 -1.13983219259E-03 +3.03740674802E-05 +6.42750616928E-01 +6.38093153457E-01
2.56500000000E+09 +6.68491076308E-01 +5.37861826733E-01 -9.00901763193E-04 -1.50903771984E-04 -1.04596905643E-03 +9.60446979417E-07 +6.47996263492E-01 +6.30496710809E-01
2.57000000000E+09 +6.74845580834E-01 +5.29302392787E-01 -1.05015117610E-03 -2.50169710398E-04 -1.07112928311E-03 +3.94599354376E-05 +6.53458892814E-01 +6.22641464995E-01
2.57500000000E+09 +6.81102830245E-01 +5.20128643275E-01 -1.31522111776E-03 -2.67002648615E-05 -1.11999174196E-03 +1.49513118756E-04 +6.59051805882E-01 +6.14856411372E-01
2.58000000000E+09 +6.86688986958E-01 +5.11382983622E-01 -1.29057776419E-03 +2.83249051427E-04 -1.08726535958E-03 +2.86669478075E-04 +6.64002165564E-01 +6.07317857757E-01
2.58500000000E+09 +6.92324879570E-01 +5.02606459145E-01 -1.11251384120E-03 +4.46159209323E-04 -9.84333699792E-04 +2.89232726314E-04 +6.68804911130E-01 +5.99983024179E-01
2.59000000000E+09 +6.97334505145E-01 +4.94107530836E-01 -1.02535616491E-03 +4.07955200560E-04 -9.77887744180E-04 +2.81908284796E-04 +6.73566524521E-01 +5.92597537889E-01
2.59500000000E+09 +7.02274005942E-01 +4.85713767936E-01 -1.07634504272E-03 +3.64480345744E-04 -1.08929299308E-03 +3.33901621513E-04 +6.78315012758E-01 +5.84598266750E-01
2.60000000000E+09 +7.06683757939E-01 +4.77530257902E-01 -1.22104062201E-03 +4.85119729552E-04 -1.23253923140E-03 +4.57044509049E-04 +6.83265587618E-01 +5.76017866856E-01
2.60500000000E+09 +7.11144535842E-01 +4.68619095453E-01 -1.26037876035E-03 +7.72249172701E-04 -1.27115031009E-03 +7.76274250024E-04 +6.88382229767E-01 +5.67119153986E-01
2.61000000000E+09 +7.15347332706E-01 +4.58985627707E-01 -1.09999134456E-03 +1.08166489012E-03 -1.12109459467E-03 +1.07187851045E-03 +6.93322085195E-01 +5.58304448246E-01
2.61500000000E+09 +7.19749796024E-01 +4.48770391637E-01 -7.80714947287E-04 +1.16756195353E-03 -8.58450785730E-04 +1.15157348367E-03 +6.98221041050E-01 +5.49782355461E-01
2.62000000000E+09 +7.23816083631E-01 +4.37476280444E-01 -6.82048976855E-04 +1.11879233517E-03 -7.46581031826E-04 +1.21514658451E-03 +7.03044005710E-01 +5.40835046235E-01
2.62500000000E+09 +7.28031407849E-01 +4.25470336119E-01 -5.42890999080E-04 +1.20574368246E-03 -4.90851713618E-04 +1.32572216550E-03 +7.07688065363E-01 +5.31972711418E-01
2.63000000000E+09 +7.32039217746E-01 +4.12894841197E-01 -4.00655591499E-04 +1.12306267383E-03 -2.96224783833E-04 +1.15015084233E-03 +7.12059738073E-01 +5.23310143433E-01
2.63500000000E+09 +7.35534715646E-01 +3.99939006858E-01 -4.82780127497E-04 +1.14477625295E-03 -3.30483670536E-04 +1.06013860739E-03 +7.17056072685E-01 +5.14093749012E-01
2.64000000000E+09 +7.38956851464E-01 +3.87689106754E-01 -3.29230551527E-04 +1.30970436943E-03 -2.89670860780E-04 +1.11820574230E-03 +7.21920126108E-01 +5.04281358668E-01
2.64500000000E+09 +7.42563132711E-01 +3.75676449595E-01 -2.47786546805E-04 +1.32488392969E-03 -2.97011451745E-04 +1.15347503120E-03 +7.26746321801E-01 +4.94491172606E-01
2.65000000000E+09 +7.45642475083E-01 +3.64079236345E-01 -7.25772532469E-05 +1.38092473908E-03 -3.04527633825E-04 +1.31952767384E-03 +7.31081519247E-01 +4.84312931383E-01
2.65500000000E+09 +7.48853316433E-01 +3.52543094156E-01 +3.38515867584E-05 +1.28806808223E-03 -1.06793942735E-04 +1.33887223203E-03 +7.34921132863E-01 +4.74174586847E-01
2.66000000000E+09 +7.51830816836E-01 +3.40779815283E-01 +6.56091661432E-05 +1.34005486379E-03 +1.65575465665E-05 +1.47083850687E-03 +7.39260830257E-01 +4.63483035215E-01
2.66500000000E+09 +7.54631853282E-01 +3.29301460906E-01 +2.60356483204E-04 +1.37351905207E-03 +3.63669927438E-04 +1.37604213690E-03 +7.43809227116E-01 +4.52155976673E-01
2.67000000000E+09 +7.56965922604E-01 +3.17138194154E-01 +3.24030393154E-04 +1.34958121649E-03 +3.79891159783E-04 +1.28625554164E-03 +7.48053723772E-01 +4.40833189440E-01
2.67500000000E+09 +7.59100150540E-01 +3.04044613504E-01 +4.98832560896E-04 +1.35018859302E-03 +4.89383853495E-04 +1.21529496752E-03 +7.52093255485E-01 +4.29333244160E-01
2.68000000000E+09 +7.60200158399E-01 +2.90547139458E-01 +5.62708459603E-04 +1.14087524147E-03 +4.97352557945E-04 +1.12526559563E-03 +7.55780636692E-01 +4.18110425060E-01
2.68500000000E+09 +7.60981513585E-01 +2.76792204547E-01 +4.56371318472E-04 +1.26000864604E-03 +3.63210427979E-04 +1.21128875948E-03 +7.58887396525E-01 +4.06876773258E-01
2.69000000000E+09 +7.61635444953E-01 +2.62888962356E-01 +6.30866440768E-04 +1.46162116892E-03 +6.54717081551E-04 +1.43405843920E-03 +7.61958729532E-01 +3.94934143773E-01
2.69500000000E+09 +7.62351257593E-01 +2.49049478953E-01 +9.11836317613E-04 +1.40703899190E-03 +8.06475800948E-04 +1.37321423934E-03 +7.64820772137E-01 +3.81899619506E-01
2.70000000000E+09 +7.63246148393E-01 +2.34846975130E-01 +1.04943559051E-03 +1.36490340980E-03 +1.03188214508E-03 +1.39486392268E-03 +7.67316055515E-01 +3.68333253814E-01
2.70500000000E+09 +7.64016333928E-01 +2.20840936589E-01 +1.43319491886E-03 +1.11992601496E-03 +1.31085249014E-03 +1.20730646665E-03 +7.70055545334E-01 +3.54759728556E-01
2.71000000000E+09 +7.64900007672E-01 +2.07237938249E-01 +1.39304662145E-03 +8.36590697068E-04 +1.36340484630E-03 +9.65417735279E-04 +7.73038711053E-01 +3.41519033167E-01
2.71500000000E+09 +7.66471668003E-01 +1.93093772560E-01 +1.22382777394E-03 +6.78659106169E-04 +1.30723882760E-03 +7.79787609793E-04 +7.75494481309E-01 +3.28472440286E-01
2.72000000000E+09 +7.67409601074E-01 +1.78451600083E-01 +1.19479223501E-03 +7.81243686913E-04 +1.34278301609E-03 +7.55902126340E-04 +7.77464184138E-01 +3.15451969687E-01
2.72500000000E+09 +7.68091583447E-01 +1.63600065965E-01 +1.39493669218E-03 +7.99363165174E-04 +1.48235870516E-03 +6.21411116665E-04 +7.78538869600E-01 +3.02040554756E-01
2.73000000000E+09 +7.67919997474E-01 +1.48304784080E-01 +1.41232682695E-03 +7.45344743379E-04 +1.36380663101E-03 +5.46114606363E-04 +7.79634049313E-01 +2.88122242923E-01
2.73500000000E+09 +7.67007090074E-01 +1.31950643008E-01 +1.65558544077E-03 +7.38106089517E-04 +1.43249982391E-03 +6.05433133883E-04 +7.80756005400E-01 +2.73087767349E-01
2.74000000000E+09 +7.64757098833E-01 +1.15734097444E-01 +1.82670308690E-03 +6.67246198119E-04 +1.58319763012E-03 +7.10958156890E-04 +7.81894273175E-01 +2.57471319732E-01
2.74500000000E+09 +7.61742859193E-01 +9.91430702383E-02 +1.97987436429E-03 +5.37312167803E-04 +1.79212059034E-03 +7.31826760131E-04 +7.82393154636E-01 +2.41908667550E-01
2.75000000000E+09 +7.58105487955E-01 +8.23143041370E-02 +2.24969260226E-03 +3.84783555246E-04 +2.24715006010E-03 +6.34273288309E-04 +7.82934436494E-01 +2.26764009659E-01
2.75500000000E+09 +7.53387687646E-01 +6.53012507212E-02 +2.39068277402E-03 -3.12228058348E-05 +2.53258878872E-03 +1.00437492518E-04 +7.82361180670E-01 +2.11686272977E-01
2.76000000000E+09 +7.48878762908E-01 +4.85001612103E-02 +2.21546704421E-03 -2.51048887253E-04 +2.41803838766E-03 -2.84828066120E-04 +7.81734815860E-01 +1.96585386636E-01
2.76500000000E+09 +7.43915797382E-01 +3.13645646703E-02 +2.35588150895E-03 -4.38272467170E-04 +2.49301670803E-03 -5.63669587766E-04 +7.80675239004E-01 +1.80057701645E-01
2.77000000000E+09 +7.39637011283E-01 +1.39085471355E-02 +2.43895662841E-03 -7.74039559498E-04 +2.50044823584E-03 -8.63242804627E-04 +7.79324884796E-01 +1.62475505583E-01
2.77500000000E+09 +7.35294757570E-01 -4.59594492080E-03 +2.25265366635E-03 -1.18256380385E-03 +2.31489127450E-03 -1.29677702095E-03 +7.76834065948E-01 +1.44174482435E-01
2.78000000000E+09 +7.30630141046E-01 -2.39999346839E-02 +2.16450613905E-03 -1.28581349056E-03 +2.13152769145E-03 -1.45925949141E-03 +7.74593701955E-01 +1.26507840646E-01
2.78500000000E+09 +7.24461738464E-01 -4.41020703213E-02 +2.05717124774E-03 -1.52324363591E-03 +1.89773299052E-03 -1.65702289350E-03 +7.72045135807E-01 +1.08742353890E-01
2.79000000000E+09 +7.17840001272E-01 -6.41486166685E-02 +2.14577511501E-03 -1.76170482472E-03 +1.97985294451E-03 -1.79877518622E-03 +7.68965825640E-01 +9.13931242682E-02
2.79500000000E+09 +7.10178507038E-01 -8.38373831341E-02 +1.99699845222E-03 -2.37968855080E-03 +1.83985291212E-03 -2.22118490269E-03 +7.64590660049E-01 +7.33380017254E-02
2.80000000000E+09 +7.01770240749E-01 -1.03536596462E-01 +1.45025491977E-03 -2.64302763796E-03 +1.48496544269E-03 -2.45373373276E-03 +7.59156582893E-01 +5.52130235684E-02
2.80500000000E+09 +6.92233081762E-01 -1.22856711350E-01 +9.83669531659E-04 -2.65012527018E-03 +1.13170178109E-03 -2.59704997349E-03 +7.53093325836E-01 +3.70739210523E-02
2.81000000000E+09 +6.81401126686E-01 -1.41487401642E-01 +9.89729149192E-04 -2.49635825579E-03 +1.03604704133E-03 -2.56305675156E-03 +7.47380519435E-01 +1.76501519376E-02
2.81500000000E+09 +6.69561913635E-01 -1.59225164854E-01 +6.83749856522E-04 -2.71047479119E-03 +6.29804838890E-04 -2.83972782793E-03 +7.40326060711E-01 -2.53506864539E-03
2.82000000000E+09 +6.56879174538E-01 -1.77024536714E-01 +6.28412218581E-04 -2.89857377004E-03 +4.59552341617E-04 -2.89800024115E-03 +7.31935030399E-01 -2.26390475909E-02
2.82500000000E+09 +6.43078768959E-01 -1.94373072540E-01 +7.59304222469E-05 -3.07286357647E-03 -1.81108518473E-05 -2.98055550382E-03 +7.22806295463E-01 -4.20798877962E-02
2.83000000000E+09 +6.28010154031E-01 -2.12693068381E-01 -3.54331435352E-04 -2.91501439702E-03 -3.50193971122E-04 -2.80177585784E-03 +7.13051781254E-01 -6.14697753710E-02
2.83500000000E+09 +6.10962775871E-01 -2.31232139069E-01 -3.88519136946E-04 -2.59203182354E-03 -2.78001534455E-04 -2.45230444473E-03 +7.02640834906E-01 -8.09727260566E-02
2.84000000000E+09 +5.91845933664E-01 -2.49746666790E-01 -2.85934074484E-04 -2.88107034593E-03 -2.11412490963E-04 -2.84196930547E-03 +6.91366945532E-01 -1.01604130794E-01
2.84500000000E+09 +5.70970185746E-01 -2.68001095310E-01 -7.65293966573E-04 -3.14721502933E-03 -7.53072417586E-04 -3.17797563910E-03 +6.78347368836E-01 -1.22478860774E-01
2.85000000000E+09 +5.48956507462E-01 -2.86262372197E-01 -1.09091936544E-03 -3.18191923253E-03 -1.10283694149E-03 -3.14628823914E-03 +6.63783388301E-01 -1.42942217503E-01
2.85500000000E+09 +5.25267615797E-01 -3.04354575307E-01 -1.70001196093E-03 -3.04541495597E-03 -1.70697090010E-03 -3.00248971042E-03 +6.49215865097E-01 -1.62350028555E-01
2.86000000000E+09 +5.00276682569E-01 -3.21788337818E-01 -2.00276766448E-03 -2.92517963429E-03 -1.96714078566E-03 -2.84152667304E-03 +6.33331439451E-01 -1.83434810013E-01
2.86500000000E+09 +4.74677615952E-01 -3.38110580168E-01 -2.61255914947E-03 -2.53403537368E-03 -2.56707520386E-03 -2.54560439566E-03 +6.14925322916E-01 -2.03569254442E-01
2.87000000000E+09 +4.48228766071E-01 -3.53253626909E-01 -2.69480339900E-03 -1.90230486114E-03 -2.75878767339E-03 -1.88809071940E-03 +5.95877934720E-01 -2.22647631608E-01
2.87500000000E+09 +4.21498990350E-01 -3.66565564370E-01 -2.33034494575E-03 -1.64859786594E-03 -2.39860685728E-03 -1.58247774185E-03 +5.76058372144E-01 -2.41673710181E-01
2.88000000000E+09 +3.94785844530E-01 -3.79055181421E-01 -2.39094378012E-03 -1.98492740069E-03 -2.36008025121E-03 -1.83591300489E-03 +5.54649664176E-01 -2.60469226575E-01
2.88500000000E+09 +3.67138376901E-01 -3.90307411285E-01 -2.94579884707E-03 -1.97419590994E-03 -2.80537509227E-03 -1.81228791622E-03 +5.32253606036E-01 -2.78887884444E-01
2.89000000000E+09 +3.38321989072E-01 -3.99799692066E-01 -3.10046795806E-03 -1.74537697449E-03 -2.91540007704E-03 -1.76132810123E-03 +5.06999284726E-01 -2.97064864088E-01
2.89500000000E+09 +3.08516022124E-01 -4.07793920838E-01 -3.77584887027E-03 -1.48803016324E-03 -3.56737743379E-03 -1.62150152400E-03 +4.79305346286E-01 -3.13798768748E-01
2.90000000000E+09 +2.76672867634E-01 -4.14341435105E-01 -4.08031921221E-03 -7.94761359118E-04 -4.08060006131E-03 -9.75531740118E-04 +4.51105563925E-01 -3.28862910848E-01
2.90500000000E+09 +2.42624476353E-01 -4.18136744974E-01 -3.73011807589E-03 -2.90642724419E-04 -3.82188236017E-03 -2.62783271047E-04 +4.22532216638E-01 -3.43790684120E-01
2.91000000000E+09 +2.06959518074E-01 -4.18661283851E-01 -3.95547044772E-03 -2.76086692108E-04 -3.94738067480E-03 -1.98555701359E-04 +3.91664746741E-01 -3.58443109471E-01
2.91500000000E+09 +1.71433214267E-01 -4.15858447302E-01 -4.02070866234E-03 +1.32074697978E-04 -3.86708242142E-03 +2.10156382544E-04 +3.59242444025E-01 -3.70802922398E-01
2.92000000000E+09 +1.35948436128E-01 -4.11224683157E-01 -4.10102261200E-03 +1.39541235372E-04 -3.91009463954E-03 +9.51131698382E-05 +3.24903380596E-01 -3.80102176177E-01
2.92500000000E+09 +1.01541692260E-01 -4.05192880034E-01 -4.54426373456E-03 +5.51599964691E-04 -4.35871690048E-03 +3.45349898845E-04 +2.90205553637E-01 -3.87103679756E-01
2.93000000000E+09 +6.62947278513E-02 -3.98600301798E-01 -5.01384502591E-03 +1.28758891951E-03 -4.98804826464E-03 +1.11367419668E-03 +2.53961129426E-01 -3.92880798577E-01
2.93500000000E+09 +3.01085222203E-02 -3.89839092194E-01 -4.81044497572E-03 +2.37123072127E-03 -4.91727637100E-03 +2.22084556392E-03 +2.16295832607E-01 -3.97553446529E-01
2.94000000000E+09 -6.15864794564E-03 -3.77343127104E-01 -4.39631717978E-03 +2.90419130760E-03 -4.47707909810E-03 +2.85335586132E-03 +1.77122337968E-01 -3.99442992835E-01
2.94500000000E+09 -3.96141963429E-02 -3.61875967283E-01 -4.09075276126E-03 +3.37988974438E-03 -4.19584707891E-03 +3.26153356491E-03 +1.38231115409E-01 -3.99287824142E-01
2.95000000000E+09 -7.20162735657E-02 -3.44470985891E-01 -3.96806765543E-03 +3.91839640973E-03 -4.07698327072E-03 +3.81446901820E-03 +9.94953405526E-02 -3.96015783332E-01
2.95500000000E+09 -1.02325873979E-01 -3.24923450117E-01 -3.27865566424E-03 +4.47783845235E-03 -3.52988430906E-03 +4.47846371846E-03 +6.08944348653E-02 -3.90970955286E-01
2.96000000000E+09 -1.32490494325E-01 -3.03343109274E-01 -3.16495331384E-03 +4.81939758446E-03 -3.42940326893E-03 +4.95800050051E-03 +2.07176489548E-02 -3.83216874916E-01
2.96500000000E+09 -1.61252324216E-01 -2.78050053515E-01 -2.64130121455E-03 +5.62822563313E-03 -2.57678650308E-03 +5.86208144894E-03 -2.03317249867E-02 -3.71254242076E-01
2.97000000000E+09 -1.88219849066E-01 -2.49547931057E-01 -2.03031612373E-03 +5.69489027643E-03 -1.82985931823E-03 +5.66745340263E-03 -6.00837213282E-02 -3.55946594748E-01
2.97500000000E+09 -2.12205489324E-01 -2.19504870507E-01 -1.73322535054E-03 +6.49809775136E-03 -1.62475736622E-03 +6.36228374817E-03 -9.89022655087E-02 -3.39060719010E-01
2.98000000000E+09 -2.35681106566E-01 -1.87581458462E-01 -2.28031281718E-04 +7.04149213183E-03 -3.79915560160E-04 +6.83321588105E-03 -1.36592753256E-01 -3.19653589995E-01
2.98500000000E+09 -2.56325338817E-01 -1.54233281897E-01 +2.38447056754E-04 +6.60186935360E-03 +1.48090395235E-06 +6.64510784857E-03 -1.73493859948E-01 -2.98739419024E-01
2.99000000000E+09 -2.75454967241E-01 -1.20544212352E-01 +9.66933013386E-04 +7.29637779245E-03 +9.06484301292E-04 +7.67954029563E-03 -2.10378382554E-01 -2.72754695793E-01
2.99500000000E+09 -2.92574248914E-01 -8.63753942321E-02 +2.58370760975E-03 +7.22533357621E-03 +2.87391018885E-03 +7.43157308805E-03 -2.43525617864E-01 -2.42876231240E-01
3.00000000000E+09 -3.08191195521E-01 -5.16325167671E-02 +3.08960959725E-03 +6.67516170220E-03 +3.34517269770E-03 +6.46077757156E-03 -2.74619963980E-01 -2.11718338126E-01
3.00500000000E+09 -3.20265123378E-01 -1.69904752840E-02 +4.21367200610E-03 +7.21129507143E-03 +4.24195697448E-03 +6.81828025504E-03 -3.04048122167E-01 -1.78346520457E-01
3.01000000000E+09 -3.29479092536E-01 +1.69991109373E-02 +6.15066171521E-03 +6.14616752998E-03 +5.82124363212E-03 +5.99117788560E-03 -3.30531848921E-01 -1.43235813177E-01
3.01500000000E+09 -3.36313155501E-01 +4.99434586597E-02 +6.87811973823E-03 +4.57574806098E-03 +6.61726557035E-03 +4.75745917211E-03 -3.55090676521E-01 -1.06993414109E-01
3.02000000000E+09 -3.40300737004E-01 +8.30464394297E-02 +6.97154774974E-03 +3.43219449665E-03 +7.00928096154E-03 +3.72047066219E-03 -3.75646335898E-01 -6.84189778986E-02
3.02500000000E+09 -3.41260413800E-01 +1.15673208405E-01 +7.01105139680E-03 +2.80344448964E-03 +7.09929715751E-03 +2.87148267273E-03 -3.92157481845E-01 -2.93887281164E-02
3.03000000000E+09 -3.38789508937E-01 +1.48142745261E-01 +7.24878606991E-03 +2.44026330894E-03 +7.30192302117E-03 +2.44551350749E-03 -4.06965112133E-01 +9.86545017786E-03
3.03500000000E+09 -3.33918872399E-01 +1.78941186180E-01 +8.56018391271E-03 +1.76698799912E-03 +8.51724523236E-03 +1.93624887770E-03 -4.19218949432E-01 +5.10856099688E-02
3.04000000000E+09 -3.26655604494E-01 +2.10580817560E-01 +9.12282155544E-03 -4.96520004730E-04 +9.32867806503E-03 -2.48987911834E-04 -4.27431081070E-01 +9.29877384732E-02
3.04500000000E+09 -3.17330277643E-01 +2.40068681499E-01 +8.32207286109E-03 -2.04705681525E-03 +8.78072350622E-03 -2.13295386873E-03 -4.32206480188E-01 +1.34326761113E-01
3.05000000000E+09 -3.06864441003E-01 +2.69291432756E-01 +7.46364932539E-03 -3.25500768012E-03 +7.78516766075E-03 -3.68600103437E-03 -4.33833498442E-01 +1.73092093260E-01
3.05500000000E+09 -2.95632691633E-01 +2.97648792772E-01 +6.59354573105E-03 -3.58208702098E-03 +6.45051842290E-03 -4.08334131460E-03 -4.35272288192E-01 +2.11615472976E-01
3.06000000000E+09 -2.82863692157E-01 +3.25894668567E-01 +6.52786628077E-03 -4.41577596649E-03 +6.12590237683E-03 -4.60929150100E-03 -4.33223969768E-01 +2.51026394682E-01
3.06500000000E+09 -2.68568718309E-01 +3.52029106451E-01 +5.62142126450E-03 -5.75403021153E-03 +5.35013002911E-03 -5.40738203744E-03 -4.27492433843E-01 +2.89170349166E-01
3.07000000000E+09 -2.54169745281E-01 +3.76632373375E-01 +4.17220519363E-03 -6.32832359637E-03 +4.32594605071E-03 -5.95421004735E-03 -4.19590229908E-01 +3.24451301860E-01
