# Hz S RI R 50
! CMT, C1220, 16058040, 17.2.0/1
! Date: 15/08/2018 09:55:48
! Data: Format (Calibration Info)
! Freq                      S11: Re/Im (F2)                       S21: Re/Im (F2)                       S12: Re/Im (F2)                       S22: Re/Im (F2)            
2.50000000000E+09 +5.96793806301E-01 +6.32770387489E-01 -1.93233456352E-04 -8.48403689911E-04 -3.00467080092E-04 -9.12869004410E-04 +5.77551339762E-01 +7.13684230223E-01
2.50500000000E+09 +6.03087886232E-01 +6.25585615216E-01 -3.34418721246E-04 -8.83880910685E-04 -4.47737765018E-04 -9.14226242156E-04 +5.83078459204E-01 +7.08122703138E-01
2.51000000000E+09 +6.09548792163E-01 +6.18204238149E-01 -4.44643367139E-04 -8.47036308132E-04 -4.80266449335E-04 -8.37207696497E-04 +5.88664779451E-01 +7.02885365227E-01
2.51500000000E+09 +6.16007163797E-01 +6.10641205557E-01 -5.70452597528E-04 -8.13777842957E-04 -5.67232658679E-04 -7.94689600607E-04 +5.93932207140E-01 +6.97599440296E-01
2.52000000000E+09 +6.22325013139E-01 +6.02856558340E-01 -6.61539136264E-04 -7.46288101225E-04 -6.48938534593E-04 -7.49808843512E-04 +5.99032020788E-01 +6.91742158461E-01
2.52500000000E+09 +6.27871823545E-01 +5.95249403217E-01 -7.69516332615E-04 -6.56927702827E-04 -7.61694376990E-04 -7.00821831836E-04 +6.04767016059E-01 +6.85169416184E-01
2.53000000000E+09 +6.33139392622E-01 +5.88001164092E-01 -8.13878102835E-04 -5.52760713733E-04 -8.13333592077E-04 -5.96099005078E-04 +6.10817896468E-01 +6.77917896250E-01
2.53500000000E+09 +6.38010923050E-01 +5.81087786020E-01 -7.95735698114E-04 -4.82456262497E-04 -7.92414171320E-04 -5.11323520522E-04 +6.16729426894E-01 +6.70852795917E-01
2.54000000000E+09 +6.42550337736E-01 +5.74317555814E-01 -8.56148583971E-04 -4.50073431855E-04 -8.10308367736E-04 -4.85678006846E-04 +6.22723349279E-01 +6.64358272512E-01
2.54500000000E+09 +6.47284396864E-01 +5.67686608490E-01 -9.36458632559E-04 -4.20594360724E-04 -8.86290364831E-04 -4.99996924288E-04 +6.28690861859E-01 +6.57806457840E-01
2.55000000000E+09 +6.52093048082E-01 +5.60876174169E-01 -1.00129741161E-03 -3.19208252205E-04 -1.01521481665E-03 -4.21797423361E-04 +6.33809045093E-01 +6.51570135279E-01
2.55500000000E+09 +6.57081799115E-01 +5.53533587372E-01 -1.05355472081E-03 -1.66904856490E-04 -1.25674090568E-03 -2.50603602949E-04 +6.38846975744E-01 +6.45075493159E-01
2.56000000000E+09 +6.62582552848E-01 +5.46477160149E-01 -1.01445302549E-03 -1.01745066756E-05 -1.20487970923E-03 -3.42820257819E-06 +6.43905328168E-01 +6.37853710342E-01
2.56500000000E+09 +6.68827480368E-01 +5.38468060854E-01 -9.06216915328E-04 -2.88239749841E-05 -1.03490262973E-03 +1.26460196591E-04 +6.49124098547E-01 +6.30310645285E-01
2.57000000000E+09 +6.75172784670E-01 +5.30302992462E-01 -1.02199669635E-03 -1.32072952204E-04 -1.00306641679E-03 +6.67825397211E-05 +6.54708149266E-01 +6.22301436032E-01
2.57500000000E+09 +6.81558002576E-01 +5.21469812130E-01 -1.21746490607E-03 -7.40496574565E-05 -1.10416914169E-03 +1.24979235121E-04 +6.60354230389E-01 +6.14443918579E-01
2.58000000000E+09 +6.87442635485E-01 +5.12698497796E-01 -1.33012966018E-03 +2.26415293944E-04 -1.07774363733E-03 +2.39164665523E-04 +6.65404983264E-01 +6.06856758751E-01
2.58500000000E+09 +6.93158421237E-01 +5.03724799602E-01 -1.13176273504E-03 +4.71791893173E-04 -9.96535330799E-04 +3.17788152692E-04 +6.70204591888E-01 +5.99365609251E-01
2.59000000000E+09 +6.98308281398E-01 +4.95109513061E-01 -1.04383879003E-03 +4.57066913482E-04 -1.05582676647E-03 +3.25431371537E-04 +6.75026223403E-01 +5.91906376401E-01
2.59500000000E+09 +7.03184709616E-01 +4.86578756878E-01 -1.10367661357E-03 +5.20537138146E-04 -1.11444465688E-03 +4.25780160911E-04 +6.79639540666E-01 +5.83674909747E-01
2.60000000000E+09 +7.07690924137E-01 +4.77862149389E-01 -1.12299182785E-03 +5.92514549941E-04 -1.16545376024E-03 +6.32684350099E-04 +6.84563193211E-01 +5.75084577942E-01
2.60500000000E+09 +7.12275940769E-01 +4.68651797494E-01 -1.17617963239E-03 +7.54265393155E-04 -1.18539074045E-03 +7.63741337528E-04 +6.89528424557E-01 +5.66141667468E-01
2.61000000000E+09 +7.16534368612E-01 +4.58886922995E-01 -1.14182697565E-03 +1.04051291980E-03 -1.11146127525E-03 +1.02674452306E-03 +6.94405345295E-01 +5.57304805321E-01
2.61500000000E+09 +7.20950208437E-01 +4.48630229655E-01 -8.11487594188E-04 +1.24035296542E-03 -8.35313058411E-04 +1.23693060326E-03 +6.99268230378E-01 +5.48811313892E-01
2.62000000000E+09 +7.25209487056E-01 +4.37373969521E-01 -6.58838841103E-04 +1.15310432694E-03 -6.40123097719E-04 +1.21848667321E-03 +7.04271665380E-01 +5.39884950793E-01
2.62500000000E+09 +7.29452839376E-01 +4.25345644618E-01 -5.49221552148E-04 +1.11233920896E-03 -4.60580806527E-04 +1.20338846263E-03 +7.08758462037E-01 +5.30880369532E-01
2.63000000000E+09 +7.33547033382E-01 +4.12901654634E-01 -4.90844397760E-04 +1.05810117171E-03 -2.97849584356E-04 +1.17841941266E-03 +7.13240830399E-01 +5.22039936137E-01
2.63500000000E+09 +7.37152036662E-01 +4.00202036557E-01 -6.21635438755E-04 +1.14057917622E-03 -4.52750707565E-04 +1.05805377068E-03 +7.18027256068E-01 +5.12786387088E-01
2.64000000000E+09 +7.40630188600E-01 +3.87877015820E-01 -5.47543525634E-04 +1.40655866728E-03 -4.43321340335E-04 +1.25004951866E-03 +7.22933410616E-01 +5.03071160307E-01
2.64500000000E+09 +7.44332762675E-01 +3.75983485729E-01 -2.49564914451E-04 +1.51947047386E-03 -3.59427252901E-04 +1.30950488434E-03 +7.27538578532E-01 +4.93197700389E-01
2.65000000000E+09 +7.47706430853E-01 +3.64114557895E-01 -9.05631067215E-05 +1.45832920417E-03 -2.50277743420E-04 +1.33583904667E-03 +7.32120243382E-01 +4.82955874161E-01
2.65500000000E+09 +7.50977621084E-01 +3.52066933432E-01 -5.46554013149E-05 +1.25662538179E-03 -1.82142108021E-04 +1.37104307733E-03 +7.35813575668E-01 +4.72733377506E-01
2.66000000000E+09 +7.53904820449E-01 +3.40018040650E-01 -1.19885805733E-04 +1.43611024676E-03 -1.02608360729E-04 +1.58424097265E-03 +7.40079396593E-01 +4.61950941846E-01
2.66500000000E+09 +7.56671002626E-01 +3.28352068936E-01 +1.08539648360E-04 +1.57379260247E-03 +1.40268112162E-04 +1.62327912273E-03 +7.44722240843E-01 +4.50581118245E-01
2.67000000000E+09 +7.59146414670E-01 +3.15872735156E-01 +1.59935203399E-04 +1.54382402300E-03 +2.37270394299E-04 +1.48596802113E-03 +7.48844030669E-01 +4.39093401821E-01
2.67500000000E+09 +7.61310426352E-01 +3.02722118628E-01 +3.57196810176E-04 +1.64593215833E-03 +4.06035029093E-04 +1.52501870678E-03 +7.52792791012E-01 +4.27455448816E-01
2.68000000000E+09 +7.62881852995E-01 +2.89198875548E-01 +5.33422433794E-04 +1.57689500234E-03 +4.38233567691E-04 +1.50318147708E-03 +7.56205850694E-01 +4.16259457845E-01
2.68500000000E+09 +7.63685155082E-01 +2.75129398523E-01 +5.63311605116E-04 +1.65712919498E-03 +4.96907468597E-04 +1.64270922495E-03 +7.59177239806E-01 +4.04790265293E-01
2.69000000000E+09 +7.64369085282E-01 +2.61384133317E-01 +7.67892693899E-04 +1.83208142891E-03 +8.04155325416E-04 +1.82923567393E-03 +7.62140800792E-01 +3.92752687716E-01
2.69500000000E+09 +7.65332949807E-01 +2.47261157431E-01 +1.11060996687E-03 +1.75385545384E-03 +1.16100845363E-03 +1.71582115118E-03 +7.64726209008E-01 +3.79763000204E-01
2.70000000000E+09 +7.66188779212E-01 +2.32984429517E-01 +1.36731499459E-03 +1.67386205522E-03 +1.35745881578E-03 +1.63578896902E-03 +7.67202528878E-01 +3.66326404637E-01
2.70500000000E+09 +7.66958442483E-01 +2.18644216930E-01 +1.71684715273E-03 +1.32420110895E-03 +1.63239468800E-03 +1.34943226922E-03 +7.69529327021E-01 +3.52704591210E-01
2.71000000000E+09 +7.67932311296E-01 +2.04503533865E-01 +1.66612989079E-03 +1.06152089343E-03 +1.65951126534E-03 +1.17900703078E-03 +7.72482429493E-01 +3.39676923997E-01
2.71500000000E+09 +7.69030555997E-01 +1.89855376869E-01 +1.62124748991E-03 +9.80092648127E-04 +1.71258588014E-03 +1.02670799647E-03 +7.74854726575E-01 +3.26846064423E-01
2.72000000000E+09 +7.69969885247E-01 +1.74816673068E-01 +1.59810697707E-03 +1.02711351354E-03 +1.76404351082E-03 +1.00434366803E-03 +7.76879379726E-01 +3.13841482624E-01
2.72500000000E+09 +7.70432815494E-01 +1.59488235319E-01 +1.88246729922E-03 +1.08043069995E-03 +1.99411968703E-03 +8.38559877408E-04 +7.77600614359E-01 +3.00481893426E-01
2.73000000000E+09 +7.70195474077E-01 +1.43456180953E-01 +2.10149492047E-03 +8.85182842693E-04 +2.01965717936E-03 +6.38506924865E-04 +7.78730639660E-01 +2.86790145043E-01
2.73500000000E+09 +7.68745180674E-01 +1.26896313752E-01 +2.30162657606E-03 +6.19663425308E-04 +1.97421118131E-03 +4.94853483549E-04 +7.79790431951E-01 +2.71833717489E-01
2.74000000000E+09 +7.66391458540E-01 +1.10310271953E-01 +2.33904280313E-03 +5.43363582872E-04 +2.00357857819E-03 +6.01343396616E-04 +7.80941993026E-01 +2.56201744046E-01
2.74500000000E+09 +7.62937101482E-01 +9.38422382371E-02 +2.51286938499E-03 +4.63837987143E-04 +2.31546688370E-03 +7.68541761542E-04 +7.81466080565E-01 +2.40731204428E-01
2.75000000000E+09 +7.59216748792E-01 +7.70814134212E-02 +2.90503929681E-03 +1.98162560560E-04 +2.95253974240E-03 +5.77390875027E-04 +7.81951188714E-01 +2.25645565776E-01
2.75500000000E+09 +7.54667664071E-01 +5.96734374363E-02 +2.95397573953E-03 -2.87294310049E-04 +3.15556292611E-03 -1.42629615001E-04 +7.81298561051E-01 +2.10926034588E-01
2.76000000000E+09 +7.49612943511E-01 +4.24767197972E-02 +2.92084337016E-03 -5.74688874956E-04 +3.15355143491E-03 -5.28577693780E-04 +7.80784537065E-01 +1.95748472978E-01
2.76500000000E+09 +7.44137338624E-01 +2.52934346064E-02 +3.07324495312E-03 -8.19129235256E-04 +3.25417492692E-03 -8.87402196510E-04 +7.79755595465E-01 +1.79041776552E-01
2.77000000000E+09 +7.39223397757E-01 +7.57863380728E-03 +3.29526640354E-03 -1.25900163707E-03 +3.42358088597E-03 -1.39367419390E-03 +7.77757681408E-01 +1.61217566678E-01
2.77500000000E+09 +7.34327801552E-01 -1.09871356724E-02 +3.11619713364E-03 -1.93197928193E-03 +3.23059614669E-03 -2.12318831297E-03 +7.74747453170E-01 +1.43607491935E-01
2.78000000000E+09 +7.29185059690E-01 -3.05860079192E-02 +2.87495572345E-03 -2.24229937410E-03 +2.83653620313E-03 -2.49165793437E-03 +7.72684564603E-01 +1.26547880223E-01
2.78500000000E+09 +7.22665028444E-01 -5.09174368099E-02 +2.53150230406E-03 -2.54384062930E-03 +2.40297375200E-03 -2.68981234855E-03 +7.70688436579E-01 +1.09182408119E-01
2.79000000000E+09 +7.15176862857E-01 -7.13007163974E-02 +2.60158951359E-03 -2.89300117514E-03 +2.34598504619E-03 -2.89110124825E-03 +7.67795410685E-01 +9.16000837400E-02
2.79500000000E+09 +7.06709444699E-01 -9.07169561961E-02 +2.46089730064E-03 -3.67862693346E-03 +2.22622990242E-03 -3.50112862334E-03 +7.62971034862E-01 +7.38543712916E-02
2.80000000000E+09 +6.97889795565E-01 -1.10048207313E-01 +1.56129707514E-03 -4.01639588168E-03 +1.68349470260E-03 -3.82652988292E-03 +7.57619177777E-01 +5.63011482940E-02
2.80500000000E+09 +6.87984286799E-01 -1.29137217719E-01 +8.90077832085E-04 -4.10953503635E-03 +1.07984841855E-03 -4.09424293855E-03 +7.52342629328E-01 +3.82795653916E-02
2.81000000000E+09 +6.76482187893E-01 -1.47642796492E-01 +7.34255022685E-04 -3.96575945343E-03 +7.57068328378E-04 -4.08385495518E-03 +7.46682748581E-01 +1.85629451283E-02
2.81500000000E+09 +6.63878040132E-01 -1.64786182476E-01 +3.54811827810E-04 -4.25205176215E-03 +1.69725688139E-04 -4.44075138318E-03 +7.39487283987E-01 -1.62771751780E-03
2.82000000000E+09 +6.50584878859E-01 -1.82022496827E-01 -1.43588549037E-04 -4.61579940653E-03 -4.26273103818E-04 -4.57317492131E-03 +7.31124020784E-01 -2.14554038712E-02
2.82500000000E+09 +6.35889580212E-01 -1.98947122482E-01 -9.65320814609E-04 -4.72835336610E-03 -1.08670150554E-03 -4.49154535877E-03 +7.22467666139E-01 -4.03309088515E-02
2.83000000000E+09 +6.20004661250E-01 -2.16720071005E-01 -1.81773170452E-03 -4.25708941002E-03 -1.74887481908E-03 -4.09816236814E-03 +7.13352146892E-01 -5.94588841482E-02
2.83500000000E+09 +6.02017097152E-01 -2.34711336087E-01 -2.03863305902E-03 -3.61689960849E-03 -1.86198018644E-03 -3.48935952436E-03 +7.03777926985E-01 -7.94330041157E-02
2.84000000000E+09 +5.81797264379E-01 -2.52451604633E-01 -1.86126306724E-03 -3.68026359796E-03 -1.73682169575E-03 -3.63881008430E-03 +6.92245942758E-01 -1.00468814366E-01
2.84500000000E+09 +5.60221503599E-01 -2.69442130689E-01 -2.58655598937E-03 -3.94859968665E-03 -2.49530780506E-03 -3.98500373344E-03 +6.79379137175E-01 -1.21217438114E-01
2.85000000000E+09 +5.37789355417E-01 -2.86798146706E-01 -3.09533421658E-03 -3.75594566622E-03 -3.06390634364E-03 -3.68885569648E-03 +6.65265566389E-01 -1.41559594871E-01
2.85500000000E+09 +5.14023499981E-01 -3.03596768661E-01 -3.84045037039E-03 -3.32218643680E-03 -3.76061643843E-03 -3.26281143061E-03 +6.51234561133E-01 -1.61606802935E-01
2.86000000000E+09 +4.89594099076E-01 -3.19915431771E-01 -4.24237926637E-03 -2.76486859383E-03 -4.18698146653E-03 -2.76072651897E-03 +6.35155974296E-01 -1.83093655230E-01
2.86500000000E+09 +4.64159726156E-01 -3.35832430237E-01 -4.53303692039E-03 -1.99437939931E-03 -4.50458880699E-03 -1.96089963742E-03 +6.17169661110E-01 -2.03411727117E-01
2.87000000000E+09 +4.37217896030E-01 -3.49912830551E-01 -4.56165746788E-03 -1.48165450692E-03 -4.58335562501E-03 -1.50152636108E-03 +5.98272434798E-01 -2.22959686219E-01
2.87500000000E+09 +4.10572246968E-01 -3.61601619122E-01 -4.55257001654E-03 -1.03662797641E-03 -4.55611827427E-03 -9.43535576928E-04 +5.78381143090E-01 -2.42571872713E-01
2.88000000000E+09 +3.84535344820E-01 -3.72310358654E-01 -4.54234687922E-03 -7.82417550343E-04 -4.42704388017E-03 -6.42210123932E-04 +5.56747862583E-01 -2.61644806737E-01
2.88500000000E+09 +3.57646849570E-01 -3.82570941223E-01 -4.86982023461E-03 -5.32491231218E-04 -4.64622644110E-03 -4.75303041507E-04 +5.33859099757E-01 -2.80636822539E-01
2.89000000000E+09 +3.29181998515E-01 -3.91113292962E-01 -5.13882680506E-03 -1.81928242943E-05 -4.90010387619E-03 -1.54651616143E-04 +5.07846815058E-01 -2.98660743802E-01
2.89500000000E+09 +2.99394163402E-01 -3.98067450307E-01 -5.23992969109E-03 +7.43380481180E-04 -5.10878368365E-03 +4.88519099884E-04 +4.80350853495E-01 -3.15311246584E-01
2.90000000000E+09 +2.68266471991E-01 -4.02885987564E-01 -5.17052658300E-03 +1.33216821950E-03 -5.29096311412E-03 +1.10677871318E-03 +4.51976000951E-01 -3.30408880933E-01
2.90500000000E+09 +2.35280889913E-01 -4.05403792610E-01 -4.98170932981E-03 +1.84833714145E-03 -5.11499960208E-03 +1.79288603498E-03 +4.23687342510E-01 -3.45663259389E-01
2.91000000000E+09 +2.01621477954E-01 -4.05485237791E-01 -5.01057633888E-03 +2.47218906828E-03 -5.04817440231E-03 +2.61544995394E-03 +3.92238829161E-01 -3.60605738214E-01
2.91500000000E+09 +1.67254894903E-01 -4.02673520884E-01 -4.52676250669E-03 +3.19325782949E-03 -4.33480014670E-03 +3.19188202543E-03 +3.59161182736E-01 -3.72559404080E-01
2.92000000000E+09 +1.32673492352E-01 -3.97558419823E-01 -4.12220737218E-03 +3.28402881600E-03 -3.87931744747E-03 +3.08295937066E-03 +3.25510748428E-01 -3.81184726126E-01
2.92500000000E+09 +9.93611441508E-02 -3.90197464895E-01 -4.19211161129E-03 +3.47437712090E-03 -4.16285959825E-03 +3.19908521861E-03 +2.91071187464E-01 -3.89147726479E-01
2.93000000000E+09 +6.66462072339E-02 -3.82293387241E-01 -4.38411322991E-03 +4.63154680294E-03 -4.50713810963E-03 +4.34792762671E-03 +2.54632658921E-01 -3.95356250244E-01
2.93500000000E+09 +3.32049194480E-02 -3.73583515985E-01 -3.29105032487E-03 +5.56583559587E-03 -3.50220606011E-03 +5.50614184261E-03 +2.16180311952E-01 -4.00764321581E-01
2.94000000000E+09 -1.28962999957E-03 -3.61691455914E-01 -2.27192108960E-03 +5.70585822577E-03 -2.35351347185E-03 +5.70707736608E-03 +1.76006241757E-01 -4.02320664677E-01
2.94500000000E+09 -3.42630242878E-02 -3.45811007227E-01 -1.96084719487E-03 +5.52283552210E-03 -1.98730411867E-03 +5.49308950376E-03 +1.37113965058E-01 -4.01445058541E-01
2.95000000000E+09 -6.46367668699E-02 -3.27615398682E-01 -1.69313538513E-03 +6.40155800367E-03 -1.88392074247E-03 +6.34602589807E-03 +9.89049811330E-02 -3.98418066839E-01
2.95500000000E+09 -9.25854965554E-02 -3.08075819773E-01 -2.51644649194E-04 +6.69438375517E-03 -5.11566343789E-04 +6.73660617158E-03 +5.96925519525E-02 -3.93875421837E-01
2.96000000000E+09 -1.21238292137E-01 -2.87637617891E-01 +5.61071237024E-04 +6.31313344419E-03 +5.76467127543E-04 +6.63163429646E-03 +1.88076020758E-02 -3.85591854799E-01
2.96500000000E+09 -1.48515466548E-01 -2.63421599872E-01 +1.23188439238E-03 +5.93358771354E-03 +1.38060218606E-03 +6.09788188194E-03 -2.22999540423E-02 -3.73546983611E-01
2.97000000000E+09 -1.74464719116E-01 -2.36397821388E-01 +1.18115472569E-03 +5.57261592922E-03 +1.38201456888E-03 +5.54819804117E-03 -6.26032593127E-02 -3.58622648678E-01
2.97500000000E+09 -1.97531410230E-01 -2.07035555481E-01 +1.22712787152E-03 +6.49872427215E-03 +1.22851355463E-03 +6.29355722742E-03 -1.02652155730E-01 -3.41469911786E-01
2.98000000000E+09 -2.18716603662E-01 -1.77058489758E-01 +3.22594590102E-03 +6.89773877364E-03 +2.98701130449E-03 +6.82087048914E-03 -1.41099614158E-01 -3.20864423802E-01
2.98500000000E+09 -2.38429610200E-01 -1.46037459505E-01 +4.14039933833E-03 +5.69551707569E-03 +3.96645952373E-03 +5.91646549341E-03 -1.78198822110E-01 -2.98663438708E-01
2.99000000000E+09 -2.56836231370E-01 -1.14792067770E-01 +4.49147332526E-03 +5.07724311581E-03 +4.63251902169E-03 +5.35263513785E-03 -2.14286485874E-01 -2.71562628097E-01
2.99500000000E+09 -2.73918565583E-01 -8.17214192365E-02 +4.72887426013E-03 +4.77275326120E-03 +5.07966643193E-03 +4.82582614483E-03 -2.46588247552E-01 -2.41630183704E-01
3.00000000000E+09 -2.88220712676E-01 -4.83052106869E-02 +5.27490912228E-03 +4.70034655429E-03 +5.43612070744E-03 +4.50166715883E-03 -2.77386898517E-01 -2.10464141701E-01
3.00500000000E+09 -2.99491273905E-01 -1.58563747049E-02 +6.73800211946E-03 +4.97228711516E-03 +6.56383701792E-03 +4.67461407830E-03 -3.07588369594E-01 -1.76788184452E-01
3.01000000000E+09 -3.08950264341E-01 +1.63454898514E-02 +8.35834323345E-03 +3.00251034472E-03 +7.98030688611E-03 +3.04381975065E-03 -3.33821754164E-01 -1.40663365893E-01
3.01500000000E+09 -3.16062322607E-01 +4.73345397520E-02 +8.00076317441E-03 +1.06022150348E-03 +7.87320336450E-03 +1.35422019464E-03 -3.57631267028E-01 -1.03471702812E-01
3.02000000000E+09 -3.21048436794E-01 +7.88417657524E-02 +7.46743557185E-03 +2.42146426717E-04 +7.55188813114E-03 +4.22795730189E-04 -3.76992134257E-01 -6.49559302914E-02
3.02500000000E+09 -3.22643606620E-01 +1.10380812158E-01 +7.20786940571E-03 +5.31749411719E-05 +7.36737970290E-03 +1.13766147325E-04 -3.92780741748E-01 -2.63648501135E-02
3.03000000000E+09 -3.20598351972E-01 +1.41220549696E-01 +7.84090442651E-03 -4.73620970970E-04 +7.90372465986E-03 -4.74306463066E-04 -4.07326932914E-01 +1.23200343976E-02
3.03500000000E+09 -3.16389859800E-01 +1.70204890428E-01 +8.66463831781E-03 -1.92048220791E-03 +8.74079773395E-03 -1.76840070438E-03 -4.19464582928E-01 +5.33860173579E-02
3.04000000000E+09 -3.10442165646E-01 +2.00002139075E-01 +7.86466374006E-03 -4.35614950731E-03 +8.23261810142E-03 -4.19090462360E-03 -4.27668258246E-01 +9.49276439009E-02
3.04500000000E+09 -3.02386341691E-01 +2.28082114311E-01 +6.25187748178E-03 -4.84086471702E-03 +6.62164745073E-03 -5.07442609975E-03 -4.32658844219E-01 +1.36223964474E-01
3.05000000000E+09 -2.93323043593E-01 +2.56612917255E-01 +5.73730004543E-03 -5.08023774181E-03 +5.84213260313E-03 -5.59441779471E-03 -4.34634943515E-01 +1.75093304606E-01
3.05500000000E+09 -2.82841872586E-01 +2.84413696408E-01 +5.37866972051E-03 -5.56769133987E-03 +5.06188423843E-03 -6.01859436769E-03 -4.36349606648E-01 +2.14466210405E-01
3.06000000000E+09 -2.70886023396E-01 +3.12107733868E-01 +4.82020756588E-03 -6.84777573099E-03 +4.29921364607E-03 -6.79917099016E-03 -4.33376606285E-01 +2.54658703745E-01
3.06500000000E+09 -2.57574826632E-01 +3.37876283470E-01 +3.25443693292E-03 -7.75158533102E-03 +3.15878042003E-03 -7.32289840593E-03 -4.27019811211E-01 +2.92528250254E-01
3.07000000000E+09 -2.44522418715E-01 +3.61912583758E-01 +1.32221953619E-03 -7.84310133710E-03 +1.81027633567E-03 -7.63091328440E-03 -4.18760242671E-01 +3.27514073286E-01
