# Hz S RI R 50
! CMT, C1220, 16058040, 17.2.0/1
! Date: 15/08/2018 09:58:00
! Data: Format (Calibration Info)
! Freq                      S11: Re/Im (F2)                       S21: Re/Im (F2)                       S12: Re/Im (F2)                       S22: Re/Im (F2)            
2.50000000000E+09 +5.96808640726E-01 +6.33264720890E-01 -3.33796824589E-04 -8.77538814032E-04 -3.45575078329E-04 -9.55449284487E-04 +5.77101919592E-01 +7.13636646848E-01
2.50500000000E+09 +6.03010639665E-01 +6.25979481067E-01 -3.23801617314E-04 -8.76734454444E-04 -3.94695689716E-04 -9.30088525222E-04 +5.82635496584E-01 +7.07978233817E-01
2.51000000000E+09 +6.09572356447E-01 +6.18258908052E-01 -3.97085807333E-04 -8.84959365433E-04 -3.46657526635E-04 -8.47498752372E-04 +5.88262431553E-01 +7.02648882642E-01
2.51500000000E+09 +6.16185274873E-01 +6.10575034261E-01 -4.85697825296E-04 -9.93277328321E-04 -4.81322036521E-04 -9.51484177275E-04 +5.93347765381E-01 +6.97375498029E-01
2.52000000000E+09 +6.22301811525E-01 +6.02667677481E-01 -6.87394162781E-04 -9.40011779652E-04 -6.43589665681E-04 -9.26720509812E-04 +5.98236234723E-01 +6.91458489638E-01
2.52500000000E+09 +6.28031667635E-01 +5.95087252956E-01 -8.63214972024E-04 -8.24118095386E-04 -8.07402047439E-04 -8.68160764929E-04 +6.03816710557E-01 +6.84986510918E-01
2.53000000000E+09 +6.33181828767E-01 +5.88047801908E-01 -9.06234006208E-04 -5.91787844594E-04 -9.47686110692E-04 -6.31013358690E-04 +6.09861077800E-01 +6.77796128057E-01
2.53500000000E+09 +6.37991728745E-01 +5.81438691292E-01 -7.81548061191E-04 -6.02593689375E-04 -8.15638014746E-04 -5.86646997601E-04 +6.15587768610E-01 +6.70771079664E-01
2.54000000000E+09 +6.42655078002E-01 +5.74766256095E-01 -9.52294505731E-04 -6.12698157669E-04 -9.12481035374E-04 -6.05191598841E-04 +6.21445196094E-01 +6.64122520663E-01
2.54500000000E+09 +6.47137808338E-01 +5.68107472868E-01 -1.10153414053E-03 -4.91705661507E-04 -1.03228607018E-03 -5.77829297220E-04 +6.27280120455E-01 +6.57761679429E-01
2.55000000000E+09 +6.51641624071E-01 +5.61513996735E-01 -1.14012663659E-03 -3.21857765704E-04 -1.19076712322E-03 -4.09610010829E-04 +6.32324772265E-01 +6.51735013061E-01
2.55500000000E+09 +6.56604569768E-01 +5.54188145715E-01 -1.12810404207E-03 -1.11185756310E-04 -1.33146650054E-03 -2.08658289631E-04 +6.37520748023E-01 +6.45442738112E-01
2.56000000000E+09 +6.62118089939E-01 +5.46759152588E-01 -1.04702662365E-03 -7.19453766990E-06 -1.25740660425E-03 +1.02435244645E-04 +6.42700892872E-01 +6.38260464406E-01
2.56500000000E+09 +6.68170197707E-01 +5.38481962671E-01 -9.70663804460E-04 -6.31484695172E-05 -1.04356092307E-03 +1.55368047035E-04 +6.47992966930E-01 +6.30787399073E-01
2.57000000000E+09 +6.74582183955E-01 +5.29840365371E-01 -1.07991067973E-03 -1.25273823511E-04 -1.07060524449E-03 +1.06431530914E-04 +6.53401466208E-01 +6.22822619132E-01
2.57500000000E+09 +6.80743236509E-01 +5.20798369473E-01 -1.34654810831E-03 +8.63460789809E-05 -1.09670790055E-03 +2.84216539847E-04 +6.58932025364E-01 +6.14969402490E-01
2.58000000000E+09 +6.86466082743E-01 +5.12025679649E-01 -1.27198771220E-03 +3.77687101226E-04 -9.96673066347E-04 +3.95626546329E-04 +6.64013836844E-01 +6.07593724001E-01
2.58500000000E+09 +6.92116490637E-01 +5.03168123776E-01 -1.09120800813E-03 +4.82727485301E-04 -9.50712520350E-04 +3.56434603182E-04 +6.68769249437E-01 +6.00089307792E-01
2.59000000000E+09 +6.97239869670E-01 +4.94646821437E-01 -9.85301986602E-04 +4.55469578710E-04 -9.48589650111E-04 +3.81191667584E-04 +6.73614345499E-01 +5.92721194406E-01
2.59500000000E+09 +7.02143436713E-01 +4.86335076525E-01 -1.06841610705E-03 +4.57947032980E-04 -1.05124976663E-03 +3.92379881607E-04 +6.78255637580E-01 +5.84694304050E-01
2.60000000000E+09 +7.06593968540E-01 +4.77954896848E-01 -1.06902824009E-03 +5.07843294221E-04 -1.11344966046E-03 +5.39669542820E-04 +6.83266129103E-01 +5.76176397996E-01
2.60500000000E+09 +7.11017880031E-01 +4.69088726076E-01 -1.15478022696E-03 +7.76808967166E-04 -1.18706484274E-03 +7.41886273885E-04 +6.88466192016E-01 +5.67223648504E-01
2.61000000000E+09 +7.15270924067E-01 +4.59567566884E-01 -1.06878627471E-03 +1.05885516323E-03 -1.03566964157E-03 +1.05976459834E-03 +6.93377861317E-01 +5.58268639000E-01
2.61500000000E+09 +7.19546043706E-01 +4.49240852874E-01 -7.33672648249E-04 +1.16910600998E-03 -7.44500530361E-04 +1.22554875870E-03 +6.98107283082E-01 +5.49913558016E-01
2.62000000000E+09 +7.23721140697E-01 +4.38115450077E-01 -6.17525652697E-04 +1.15145070308E-03 -6.58957988664E-04 +1.21361266907E-03 +7.03024997453E-01 +5.40958210370E-01
2.62500000000E+09 +7.27982479260E-01 +4.26075406647E-01 -5.61613819766E-04 +1.17930457145E-03 -4.48623362485E-04 +1.25142811034E-03 +7.07548765541E-01 +5.32201666700E-01
2.63000000000E+09 +7.31941379516E-01 +4.13433396291E-01 -3.90752159991E-04 +1.10775393584E-03 -2.23112879750E-04 +1.17594979253E-03 +7.12102174551E-01 +5.23410362371E-01
2.63500000000E+09 +7.35377623599E-01 +4.00774639178E-01 -4.84419174324E-04 +1.10541329487E-03 -3.61175700490E-04 +1.01273859804E-03 +7.16988013463E-01 +5.14159825809E-01
2.64000000000E+09 +7.38823668667E-01 +3.88498550373E-01 -3.35163722887E-04 +1.32388919081E-03 -2.93761519944E-04 +1.15231173367E-03 +7.21993217811E-01 +5.04566454679E-01
2.64500000000E+09 +7.42489071937E-01 +3.76666191762E-01 -2.09139291386E-04 +1.46709613862E-03 -3.25956321778E-04 +1.21368410821E-03 +7.26853428690E-01 +4.94661086196E-01
2.65000000000E+09 +7.45770758394E-01 +3.65082835263E-01 -6.04826636416E-06 +1.46515529323E-03 -1.65319078322E-04 +1.39224202639E-03 +7.31218218646E-01 +4.84510810402E-01
2.65500000000E+09 +7.49136804048E-01 +3.53551201234E-01 +1.32137173641E-04 +1.28260335727E-03 +1.51257398412E-06 +1.38565246940E-03 +7.35020157380E-01 +4.74343185226E-01
2.66000000000E+09 +7.52266041181E-01 +3.41915247726E-01 +1.46682960581E-04 +1.35219052864E-03 +1.45610496934E-04 +1.47069315217E-03 +7.39343576720E-01 +4.63562284494E-01
2.66500000000E+09 +7.55093115755E-01 +3.30449645367E-01 +3.47916650837E-04 +1.37989809028E-03 +4.23715238299E-04 +1.40229203801E-03 +7.43899569557E-01 +4.52285995610E-01
2.67000000000E+09 +7.57672955804E-01 +3.18114234906E-01 +4.18025485283E-04 +1.32554399576E-03 +4.70498948688E-04 +1.28778338882E-03 +7.48169037661E-01 +4.41082469479E-01
2.67500000000E+09 +7.59840593040E-01 +3.05021963440E-01 +5.91247834187E-04 +1.26525289924E-03 +6.32126430947E-04 +1.18186885599E-03 +7.52500905863E-01 +4.29547535466E-01
2.68000000000E+09 +7.61063236612E-01 +2.91449701363E-01 +6.85167056775E-04 +1.06369107439E-03 +5.96539053024E-04 +1.04958785785E-03 +7.56136001487E-01 +4.18003079523E-01
2.68500000000E+09 +7.62012884843E-01 +2.77462248326E-01 +5.12026285728E-04 +1.11427288861E-03 +4.81455147215E-04 +1.13033858990E-03 +7.59166728996E-01 +4.06719677613E-01
2.69000000000E+09 +7.62705817003E-01 +2.63476803322E-01 +7.07937681719E-04 +1.28717323985E-03 +7.63302085226E-04 +1.32867826719E-03 +7.62224655152E-01 +3.94855659583E-01
2.69500000000E+09 +7.63332913099E-01 +2.49394576447E-01 +8.82007131394E-04 +1.26008277136E-03 +9.46764807307E-04 +1.18321142187E-03 +7.65083062106E-01 +3.81967074709E-01
2.70000000000E+09 +7.64266840182E-01 +2.35068108580E-01 +1.06106104490E-03 +1.18709471740E-03 +1.06287731428E-03 +1.16457341105E-03 +7.67754859670E-01 +3.68224655658E-01
2.70500000000E+09 +7.64900995366E-01 +2.21054324391E-01 +1.40911095757E-03 +9.20423069945E-04 +1.32811004845E-03 +9.82947555033E-04 +7.70306446435E-01 +3.54509028575E-01
2.71000000000E+09 +7.65658437204E-01 +2.07387087953E-01 +1.26963686248E-03 +6.72405716592E-04 +1.29527576221E-03 +7.06630606289E-04 +7.73011802726E-01 +3.41239247299E-01
2.71500000000E+09 +7.67221630520E-01 +1.93214801468E-01 +1.10972096236E-03 +6.36019534172E-04 +1.17585530583E-03 +6.21663227080E-04 +7.75602932056E-01 +3.28201183819E-01
2.72000000000E+09 +7.68249171063E-01 +1.78714747613E-01 +1.10882007156E-03 +7.56894986658E-04 +1.14089542817E-03 +6.99725931006E-04 +7.77527204462E-01 +3.15274764039E-01
2.72500000000E+09 +7.68842657548E-01 +1.63843224925E-01 +1.31606898407E-03 +7.78552176834E-04 +1.35709200699E-03 +6.20475008533E-04 +7.78536858213E-01 +3.01923260842E-01
2.73000000000E+09 +7.68832319757E-01 +1.48542252527E-01 +1.37799973144E-03 +7.25810947266E-04 +1.23855500301E-03 +5.14238172838E-04 +7.79711482110E-01 +2.87961232593E-01
2.73500000000E+09 +7.67867711587E-01 +1.32341642077E-01 +1.57822355524E-03 +6.83646904388E-04 +1.35912086998E-03 +5.91625737858E-04 +7.80718620729E-01 +2.72991426211E-01
2.74000000000E+09 +7.65855333159E-01 +1.16193006586E-01 +1.80125314210E-03 +5.80779038114E-04 +1.55020455024E-03 +6.62394292625E-04 +7.81859874257E-01 +2.57443577254E-01
2.74500000000E+09 +7.62958807610E-01 +9.94569360802E-02 +1.84976236227E-03 +4.34613967247E-04 +1.72152661319E-03 +7.27097689355E-04 +7.82486092627E-01 +2.41989669559E-01
2.75000000000E+09 +7.59361253622E-01 +8.25008957348E-02 +2.15402842708E-03 +2.95521491701E-04 +2.17999394588E-03 +6.13622520186E-04 +7.83042066973E-01 +2.26755822341E-01
2.75500000000E+09 +7.54979958068E-01 +6.55599997597E-02 +2.30825626376E-03 -8.00013222318E-05 +2.45774411477E-03 +1.28135432026E-04 +7.82644308516E-01 +2.11596328694E-01
2.76000000000E+09 +7.50541854026E-01 +4.85048135410E-02 +2.29209811628E-03 -3.35719352954E-04 +2.44789673405E-03 -2.85188556607E-04 +7.81844044519E-01 +1.96419731885E-01
2.76500000000E+09 +7.45740333545E-01 +3.12703760900E-02 +2.37065009387E-03 -5.80499658842E-04 +2.47447529862E-03 -6.14015663662E-04 +7.80868914649E-01 +1.79773347433E-01
2.77000000000E+09 +7.41577839435E-01 +1.35397476131E-02 +2.39035171405E-03 -9.31565941015E-04 +2.54435597804E-03 -1.00171985771E-03 +7.79458683977E-01 +1.62040705961E-01
2.77500000000E+09 +7.37231690607E-01 -5.34444988144E-03 +2.19462885170E-03 -1.32863468852E-03 +2.29650746857E-03 -1.47983370206E-03 +7.76853784531E-01 +1.43758692293E-01
2.78000000000E+09 +7.32400948011E-01 -2.50256048164E-02 +2.07586813437E-03 -1.50112588951E-03 +2.13879066232E-03 -1.67073066068E-03 +7.74626561479E-01 +1.26085098904E-01
2.78500000000E+09 +7.26201284906E-01 -4.51073393299E-02 +1.79669835532E-03 -1.76719742098E-03 +1.71208679150E-03 -1.90424559544E-03 +7.71856960895E-01 +1.08390853231E-01
2.79000000000E+09 +7.19671818645E-01 -6.54564983200E-02 +1.80732906538E-03 -1.86473579025E-03 +1.65707939929E-03 -1.92298708153E-03 +7.68781309465E-01 +9.09924871100E-02
2.79500000000E+09 +7.11876550912E-01 -8.55793403762E-02 +1.71874354897E-03 -2.35226829577E-03 +1.65496482250E-03 -2.24811096743E-03 +7.64290164653E-01 +7.30891616925E-02
2.80000000000E+09 +7.03016375910E-01 -1.05398706246E-01 +1.22679424688E-03 -2.65556675955E-03 +1.22501178895E-03 -2.56814435599E-03 +7.58673616893E-01 +5.48407378894E-02
2.80500000000E+09 +6.93274984338E-01 -1.24736915335E-01 +6.22037851612E-04 -2.72266997876E-03 +7.35562059542E-04 -2.72826878923E-03 +7.52684654979E-01 +3.68643537887E-02
2.81000000000E+09 +6.82257974498E-01 -1.43457924603E-01 +5.29662311713E-04 -2.44827246072E-03 +6.11689267739E-04 -2.57541155488E-03 +7.46712360059E-01 +1.75035076088E-02
2.81500000000E+09 +6.70326033475E-01 -1.61147483226E-01 +2.97340469244E-04 -2.55525385756E-03 +1.96912012417E-04 -2.69597543698E-03 +7.39602332732E-01 -2.50438996061E-03
2.82000000000E+09 +6.57666034134E-01 -1.79001320364E-01 +2.56615480631E-04 -2.54296415398E-03 +7.67204837550E-05 -2.62763186170E-03 +7.31442729228E-01 -2.24889341829E-02
2.82500000000E+09 +6.43737383693E-01 -1.96639199677E-01 -1.45913304469E-04 -2.65407827199E-03 -3.12333342221E-04 -2.58848710754E-03 +7.22313179329E-01 -4.19113997758E-02
2.83000000000E+09 +6.28424348647E-01 -2.14946452176E-01 -4.48396790937E-04 -2.58648096354E-03 -5.46706862263E-04 -2.39605066548E-03 +7.12439028756E-01 -6.11736061464E-02
2.83500000000E+09 +6.11138071192E-01 -2.33534113635E-01 -5.25771096064E-04 -2.22429085802E-03 -4.89055530033E-04 -2.12261880141E-03 +7.02251242602E-01 -8.04961685507E-02
2.84000000000E+09 +5.91909982688E-01 -2.52076251593E-01 -4.20731755825E-04 -2.36248889930E-03 -3.98564199164E-04 -2.29577365801E-03 +6.90993180666E-01 -1.01144071075E-01
2.84500000000E+09 +5.70868782650E-01 -2.70448467955E-01 -6.95889677712E-04 -2.63817153218E-03 -7.00881168220E-04 -2.66678515277E-03 +6.78119976245E-01 -1.21952948078E-01
2.85000000000E+09 +5.48667040306E-01 -2.88809412023E-01 -9.12083564881E-04 -2.72444840251E-03 -9.75172159615E-04 -2.69521405782E-03 +6.63732345966E-01 -1.42316197121E-01
2.85500000000E+09 +5.24720011049E-01 -3.07033411773E-01 -1.56242551715E-03 -2.83682489213E-03 -1.53528981163E-03 -2.70463851192E-03 +6.49051529124E-01 -1.61887608595E-01
2.86000000000E+09 +4.99532578674E-01 -3.24361770155E-01 -1.82565166231E-03 -2.67382052338E-03 -1.68019370475E-03 -2.64287213077E-03 +6.33205280370E-01 -1.83103879132E-01
2.86500000000E+09 +4.73593920665E-01 -3.40672516455E-01 -2.35882184628E-03 -2.36272940596E-03 -2.27148963309E-03 -2.41788500337E-03 +6.14749990748E-01 -2.03038779926E-01
2.87000000000E+09 +4.46877394137E-01 -3.55826662871E-01 -2.49769585212E-03 -1.83936751280E-03 -2.48912937610E-03 -1.90750964350E-03 +5.95858120606E-01 -2.22231612932E-01
2.87500000000E+09 +4.19758597779E-01 -3.69049774904E-01 -2.22420673328E-03 -1.58863709531E-03 -2.21624202934E-03 -1.57650427016E-03 +5.75876120365E-01 -2.41147036847E-01
2.88000000000E+09 +3.92829528583E-01 -3.81375161739E-01 -2.37632943918E-03 -1.89408949084E-03 -2.26082130126E-03 -1.80464125569E-03 +5.54516350795E-01 -2.59607329069E-01
2.88500000000E+09 +3.64959424455E-01 -3.92289440407E-01 -2.86284399390E-03 -1.74761141465E-03 -2.73325600034E-03 -1.63098587935E-03 +5.32516795919E-01 -2.77994702641E-01
2.89000000000E+09 +3.35839913956E-01 -4.01794084774E-01 -3.05028755882E-03 -1.52117044160E-03 -2.84080798299E-03 -1.57100666336E-03 +5.07243698009E-01 -2.96407661431E-01
2.89500000000E+09 +3.05841595415E-01 -4.09485192826E-01 -3.58222543740E-03 -1.17397476586E-03 -3.46715888713E-03 -1.35387119192E-03 +4.79451554839E-01 -3.13130571728E-01
2.90000000000E+09 +2.73674796119E-01 -4.15797013740E-01 -3.62398623769E-03 -5.16705027829E-04 -3.66481515978E-03 -7.09489437218E-04 +4.51400344363E-01 -3.28241995538E-01
2.90500000000E+09 +2.39353267139E-01 -4.19180867837E-01 -3.26439291032E-03 -2.50053017277E-04 -3.43038119025E-03 -2.92178167374E-04 +4.22864312008E-01 -3.43076415920E-01
2.91000000000E+09 +2.03711170553E-01 -4.19313089576E-01 -3.68777708302E-03 -2.28931017168E-04 -3.79839872564E-03 -6.90054042640E-05 +3.92284120711E-01 -3.57452725374E-01
2.91500000000E+09 +1.68124196783E-01 -4.16303605449E-01 -3.58439243588E-03 +2.63595008235E-04 -3.52390288729E-03 +4.07682026635E-04 +3.60266104124E-01 -3.70124598713E-01
2.92000000000E+09 +1.32561032782E-01 -4.11233929781E-01 -3.47686642263E-03 +1.22270985434E-04 -3.38350642065E-03 +1.32912470177E-04 +3.25900887394E-01 -3.79814188449E-01
2.92500000000E+09 +9.80090208686E-02 -4.04800900429E-01 -4.05990724660E-03 +3.42161493856E-04 -3.88204855809E-03 +1.88615926666E-04 +2.91154047552E-01 -3.86830036630E-01
2.93000000000E+09 +6.27430032487E-02 -3.97730355721E-01 -4.56397890764E-03 +1.08152948263E-03 -4.57703668033E-03 +8.76996527830E-04 +2.55089753320E-01 -3.92784470799E-01
2.93500000000E+09 +2.66198128516E-02 -3.88446118236E-01 -4.37037023300E-03 +2.04153627913E-03 -4.52354267668E-03 +1.93630447397E-03 +2.17458683572E-01 -3.97819558226E-01
2.94000000000E+09 -9.17235455595E-03 -3.75450427495E-01 -4.07485980427E-03 +2.56113286802E-03 -4.12144566183E-03 +2.59073613150E-03 +1.78021907292E-01 -3.99860611000E-01
2.94500000000E+09 -4.25222426584E-02 -3.59851295919E-01 -3.77019676291E-03 +2.83197738190E-03 -3.74792901846E-03 +2.76363520536E-03 +1.38944966241E-01 -3.99787791076E-01
2.95000000000E+09 -7.47227427417E-02 -3.42143065198E-01 -3.90188494638E-03 +3.23168470633E-03 -3.89139099820E-03 +3.12868395732E-03 +1.00335858920E-01 -3.96287427693E-01
2.95500000000E+09 -1.04831912483E-01 -3.22047678232E-01 -3.60306194825E-03 +3.84157687698E-03 -3.73138840754E-03 +3.76776001028E-03 +6.18807075171E-02 -3.91286675372E-01
2.96000000000E+09 -1.34576687670E-01 -3.00162151487E-01 -3.43341786255E-03 +4.51110662684E-03 -3.60704240624E-03 +4.67429508282E-03 +2.16543784591E-02 -3.83830848517E-01
2.96500000000E+09 -1.62802755275E-01 -2.74679271251E-01 -2.79653450385E-03 +5.32753982384E-03 -2.69785387101E-03 +5.48593446215E-03 -1.93938863454E-02 -3.72192110351E-01
2.97000000000E+09 -1.89262379727E-01 -2.46391474290E-01 -2.19277791584E-03 +5.45867863312E-03 -2.05033692681E-03 +5.52943686460E-03 -5.93989598160E-02 -3.57125150074E-01
2.97500000000E+09 -2.13164356124E-01 -2.16295905375E-01 -1.99764152389E-03 +6.14743551203E-03 -1.92263890049E-03 +5.99490761317E-03 -9.86872649817E-02 -3.40455160346E-01
2.98000000000E+09 -2.36261243021E-01 -1.84016207549E-01 -7.64780263296E-04 +6.96593606999E-03 -8.81402280264E-04 +6.79023269433E-03 -1.36613548150E-01 -3.20681393757E-01
2.98500000000E+09 -2.56325424593E-01 -1.50567647609E-01 +7.44730729186E-05 +6.82545927840E-03 -3.01265585503E-04 +6.92703452708E-03 -1.73609263957E-01 -2.99748737378E-01
2.99000000000E+09 -2.74767165521E-01 -1.17138391362E-01 +1.18155264673E-03 +7.43480486840E-03 +1.06704421553E-03 +7.78760996367E-03 -2.10717806058E-01 -2.73692673895E-01
2.99500000000E+09 -2.91811606911E-01 -8.32794081972E-02 +2.70282571094E-03 +7.04287289063E-03 +2.93250180948E-03 +7.28111295824E-03 -2.43714339571E-01 -2.43579947046E-01
3.00000000000E+09 -3.07293685316E-01 -4.84590501882E-02 +3.08571964426E-03 +6.47617871856E-03 +3.32463014139E-03 +6.31882694259E-03 -2.74694516653E-01 -2.12581511735E-01
3.00500000000E+09 -3.18913687338E-01 -1.36691171026E-02 +4.11992467039E-03 +7.11818420937E-03 +4.11162061748E-03 +6.69583429862E-03 -3.04479242655E-01 -1.79266031464E-01
3.01000000000E+09 -3.27606727839E-01 +2.01474176958E-02 +6.07803691855E-03 +6.14488548943E-03 +5.75189925377E-03 +5.94525813239E-03 -3.31070621143E-01 -1.44133093145E-01
3.01500000000E+09 -3.34085824151E-01 +5.25401811421E-02 +7.05997613151E-03 +4.41226026271E-03 +6.76638436563E-03 +4.66509096583E-03 -3.55761317697E-01 -1.07793581306E-01
3.02000000000E+09 -3.37983976932E-01 +8.52027914265E-02 +7.11423252475E-03 +3.08278982452E-03 +7.12733052137E-03 +3.38189036915E-03 -3.76470725865E-01 -6.91191904218E-02
3.02500000000E+09 -3.38762316067E-01 +1.17756595723E-01 +6.77396676537E-03 +2.33676109670E-03 +6.86578633771E-03 +2.46112352136E-03 -3.92842201832E-01 -2.98017481785E-02
3.03000000000E+09 -3.36025086223E-01 +1.50048379818E-01 +6.94388678376E-03 +2.11275173211E-03 +6.98048195977E-03 +2.17365481175E-03 -4.07672556628E-01 +9.43150822298E-03
3.03500000000E+09 -3.30746479161E-01 +1.80427375964E-01 +8.28948651532E-03 +1.52750043122E-03 +8.20596933032E-03 +1.62705667647E-03 -4.19932571539E-01 +5.06147902235E-02
3.04000000000E+09 -3.23435363036E-01 +2.11572428552E-01 +8.71663864191E-03 -8.33273414455E-04 +8.96380075711E-03 -6.59927275402E-04 -4.28517092396E-01 +9.26586219413E-02
3.04500000000E+09 -3.14060802653E-01 +2.40566861490E-01 +7.74724290604E-03 -2.30711790225E-03 +8.21659662826E-03 -2.41397044832E-03 -4.33242483238E-01 +1.34192568699E-01
3.05000000000E+09 -3.03854411012E-01 +2.69564846135E-01 +6.81049909635E-03 -3.26255643374E-03 +7.01522337493E-03 -3.66718847023E-03 -4.34719646782E-01 +1.72965236674E-01
3.05500000000E+09 -2.92531791420E-01 +2.97677067430E-01 +6.02436674769E-03 -3.30202230837E-03 +5.87411170916E-03 -3.78245472586E-03 -4.36417557973E-01 +2.11429725795E-01
3.06000000000E+09 -2.79798368882E-01 +3.25690887947E-01 +6.13963773107E-03 -4.08817175607E-03 +5.73140175842E-03 -4.25482076452E-03 -4.34503464577E-01 +2.51300230008E-01
3.06500000000E+09 -2.65501064984E-01 +3.51560587928E-01 +5.43039620243E-03 -5.34640309228E-03 +5.15995751866E-03 -5.04648996146E-03 -4.28828962118E-01 +2.89637182173E-01
3.07000000000E+09 -2.51145366703E-01 +3.75723057139E-01 +3.89249980719E-03 -6.06009123803E-03 +4.18800784092E-03 -5.76304700266E-03 -4.20687161966E-01 +3.25491407235E-01
