# Hz S RI R 50
! CMT, C1220, 16058040, 17.2.0/1
! Date: 15/08/2018 09:56:38
! Data: Format (Calibration Info)
! Freq                      S11: Re/Im (F2)                       S21: Re/Im (F2)                       S12: Re/Im (F2)                       S22: Re/Im (F2)            
2.50000000000E+09 +5.99001731298E-01 +6.29554531617E-01 -1.95947119591E-04 -1.50760699649E-03 -2.06541814412E-04 -1.63474068598E-03 +5.77600092765E-01 +7.13575915276E-01
2.50500000000E+09 +6.05187366804E-01 +6.22016291981E-01 -3.16854424139E-04 -1.51818545296E-03 -4.77512053995E-04 -1.60219518853E-03 +5.83246262063E-01 +7.07844238461E-01
2.51000000000E+09 +6.11777652767E-01 +6.14318782053E-01 -5.21847223718E-04 -1.49978984552E-03 -6.05321930323E-04 -1.46303783902E-03 +5.88782495891E-01 +7.02767275496E-01
2.51500000000E+09 +6.18411495064E-01 +6.06571983710E-01 -6.65958590035E-04 -1.54209222442E-03 -6.90797300515E-04 -1.48652788132E-03 +5.94015810315E-01 +6.97350188508E-01
2.52000000000E+09 +6.24529896664E-01 +5.98737238498E-01 -9.41363828948E-04 -1.46513174613E-03 -8.80243118253E-04 -1.43406764866E-03 +5.98889797569E-01 +6.91281100541E-01
2.52500000000E+09 +6.29988767814E-01 +5.91366352058E-01 -1.15860784722E-03 -1.36829960652E-03 -1.10499988503E-03 -1.34960979342E-03 +6.04601939281E-01 +6.84940499329E-01
2.53000000000E+09 +6.35083071348E-01 +5.84286040468E-01 -1.28665086435E-03 -1.09261359406E-03 -1.25238209973E-03 -1.10888204343E-03 +6.10480191216E-01 +6.77720755121E-01
2.53500000000E+09 +6.39596139496E-01 +5.77673196249E-01 -1.22452848065E-03 -9.55046480220E-04 -1.21684601844E-03 -9.44697966672E-04 +6.16330046474E-01 +6.70696109165E-01
2.54000000000E+09 +6.43870354381E-01 +5.71251580724E-01 -1.31074299587E-03 -9.96472939669E-04 -1.18421447829E-03 -9.61185697597E-04 +6.22280340335E-01 +6.64069198093E-01
2.54500000000E+09 +6.48348513333E-01 +5.64731847996E-01 -1.46926775011E-03 -9.66960765370E-04 -1.41364876957E-03 -1.11175202344E-03 +6.28121045008E-01 +6.57751222452E-01
2.55000000000E+09 +6.53018639554E-01 +5.57840590355E-01 -1.71687520697E-03 -6.85841596118E-04 -1.74968562657E-03 -9.34956163367E-04 +6.33257689844E-01 +6.51638234080E-01
2.55500000000E+09 +6.57802604863E-01 +5.50363554098E-01 -1.78693500651E-03 -3.36205785445E-04 -2.02578029012E-03 -5.76008285040E-04 +6.38459980340E-01 +6.45246833827E-01
2.56000000000E+09 +6.63422318203E-01 +5.42830899688E-01 -1.56806823875E-03 -1.20901768736E-04 -1.93554165362E-03 -7.54088965013E-05 +6.43535326223E-01 +6.38155049853E-01
2.56500000000E+09 +6.69660319548E-01 +5.34370693953E-01 -1.39072597742E-03 -1.94884349091E-04 -1.66180335761E-03 +5.46940372940E-05 +6.48877587313E-01 +6.30673517428E-01
2.57000000000E+09 +6.76108568042E-01 +5.25690191444E-01 -1.48494977588E-03 -3.37559852444E-04 -1.55544554179E-03 -6.57043812849E-06 +6.54561970161E-01 +6.22816541872E-01
2.57500000000E+09 +6.82374222643E-01 +5.16351685194E-01 -1.89039207402E-03 -2.81156294548E-04 -1.71331862943E-03 +8.78754654399E-05 +6.60220915328E-01 +6.14838474163E-01
2.58000000000E+09 +6.88146693027E-01 +5.07567288282E-01 -1.99902044863E-03 +1.84473762657E-04 -1.70367678480E-03 +2.65484211636E-04 +6.65291150571E-01 +6.07167565543E-01
2.58500000000E+09 +6.93589303528E-01 +4.98690860628E-01 -1.84806601919E-03 +4.62859675672E-04 -1.62668938578E-03 +3.62214038870E-04 +6.70276811945E-01 +5.99700516944E-01
2.59000000000E+09 +6.98553590802E-01 +4.90277247286E-01 -1.68954483340E-03 +5.04806805153E-04 -1.60045045098E-03 +4.39642395848E-04 +6.75000765253E-01 +5.92261990236E-01
2.59500000000E+09 +7.03214239754E-01 +4.81918324893E-01 -1.66623641724E-03 +5.16497281545E-04 -1.67934327899E-03 +4.39473910800E-04 +6.79816480775E-01 +5.83899721316E-01
2.60000000000E+09 +7.07293447912E-01 +4.73537811952E-01 -1.80608316879E-03 +4.91183283474E-04 -1.80710451886E-03 +5.69722770310E-04 +6.84648850020E-01 +5.75290823316E-01
2.60500000000E+09 +7.11583268929E-01 +4.64863104132E-01 -2.07103230503E-03 +8.85763187158E-04 -1.98541662230E-03 +9.21230767736E-04 +6.89665162880E-01 +5.66215086800E-01
2.61000000000E+09 +7.15846953373E-01 +4.55323403899E-01 -1.91653557517E-03 +1.48225752959E-03 -1.90854710359E-03 +1.33623746805E-03 +6.94675187024E-01 +5.57325466259E-01
2.61500000000E+09 +7.20404096487E-01 +4.44944580283E-01 -1.52349574228E-03 +1.65728077773E-03 -1.56913883956E-03 +1.61191555086E-03 +6.99483821566E-01 +5.48609994509E-01
2.62000000000E+09 +7.24397656944E-01 +4.33505640408E-01 -1.35149468736E-03 +1.59723866971E-03 -1.35132933885E-03 +1.64182560108E-03 +7.04287145292E-01 +5.39487254859E-01
2.62500000000E+09 +7.28509191344E-01 +4.21335907438E-01 -1.23101745454E-03 +1.69875448939E-03 -1.14312855456E-03 +1.83254359649E-03 +7.08715756954E-01 +5.30496090677E-01
2.63000000000E+09 +7.32421500863E-01 +4.08990507810E-01 -1.11185628235E-03 +1.75541922963E-03 -8.67604531100E-04 +1.78240191075E-03 +7.12974152012E-01 +5.21755706151E-01
2.63500000000E+09 +7.36038807941E-01 +3.96322533690E-01 -1.19676430927E-03 +1.89904519938E-03 -9.45679868669E-04 +1.79227817032E-03 +7.17666681588E-01 +5.12653593837E-01
2.64000000000E+09 +7.39612595277E-01 +3.83936480983E-01 -9.10163501301E-04 +2.28375225208E-03 -8.38301440959E-04 +1.96150836187E-03 +7.22598151062E-01 +5.03001221965E-01
2.64500000000E+09 +7.43115643077E-01 +3.72129077912E-01 -5.29429630679E-04 +2.26749183492E-03 -6.41012375101E-04 +1.90266117616E-03 +7.27310823191E-01 +4.93093760891E-01
2.65000000000E+09 +7.46172835370E-01 +3.60497489418E-01 -4.34025011820E-04 +2.18169400726E-03 -6.93906429242E-04 +2.06248093409E-03 +7.31650585466E-01 +4.82903007999E-01
2.65500000000E+09 +7.49231318417E-01 +3.48791937063E-01 -3.48349882856E-04 +2.16968777438E-03 -5.61902444759E-04 +2.28340653861E-03 +7.35391110337E-01 +4.72737586154E-01
2.66000000000E+09 +7.52020174702E-01 +3.37229290778E-01 -2.89553557608E-04 +2.38360425872E-03 -3.15176854819E-04 +2.63152261804E-03 +7.39683505271E-01 +4.62357714708E-01
2.66500000000E+09 +7.54794774647E-01 +3.25762789333E-01 -7.39799563102E-05 +2.49050940233E-03 +1.72426777284E-04 +2.61415015444E-03 +7.44345773590E-01 +4.50981024460E-01
2.67000000000E+09 +7.57323598269E-01 +3.13258278418E-01 +1.99856897392E-04 +2.68924783897E-03 +4.65226465188E-04 +2.61840160303E-03 +7.48589286659E-01 +4.39606366409E-01
2.67500000000E+09 +7.59384070104E-01 +2.99864921707E-01 +7.66467348860E-04 +2.67011731591E-03 +8.42186757122E-04 +2.42713764425E-03 +7.52619293178E-01 +4.28053844514E-01
2.68000000000E+09 +7.60410705615E-01 +2.86182635101E-01 +9.35374441375E-04 +2.30496959888E-03 +8.11466305895E-04 +2.18352647094E-03 +7.56466438993E-01 +4.16740165693E-01
2.68500000000E+09 +7.61104440599E-01 +2.72264317576E-01 +8.74470343346E-04 +2.34977519988E-03 +7.95508554970E-04 +2.32311002979E-03 +7.59503236603E-01 +4.05110213251E-01
2.69000000000E+09 +7.61858131432E-01 +2.58380119423E-01 +1.13835182625E-03 +2.51408796999E-03 +1.15853318537E-03 +2.50255081856E-03 +7.62434902361E-01 +3.93130404250E-01
2.69500000000E+09 +7.62550336723E-01 +2.44373855481E-01 +1.48412376131E-03 +2.45598444432E-03 +1.42762291792E-03 +2.41383649138E-03 +7.64879130570E-01 +3.79975520085E-01
2.70000000000E+09 +7.63175293847E-01 +2.30451649840E-01 +1.82538665559E-03 +2.45143519341E-03 +1.72813787821E-03 +2.45547955998E-03 +7.67318740761E-01 +3.66491588817E-01
2.70500000000E+09 +7.63784878751E-01 +2.16925606901E-01 +2.35936147974E-03 +2.08338612172E-03 +2.14148033568E-03 +2.16060471474E-03 +7.69838026622E-01 +3.52856669586E-01
2.71000000000E+09 +7.64550979757E-01 +2.03517817371E-01 +2.40811251564E-03 +1.73502000823E-03 +2.29852171693E-03 +1.93110060128E-03 +7.72673183067E-01 +3.39702572185E-01
2.71500000000E+09 +7.66053022526E-01 +1.89671345939E-01 +2.37584193768E-03 +1.43408101128E-03 +2.51508207795E-03 +1.70344106015E-03 +7.74905714027E-01 +3.26613106080E-01
2.72000000000E+09 +7.66953715937E-01 +1.74965707614E-01 +2.41949467990E-03 +1.38793160296E-03 +2.71077896181E-03 +1.47418496195E-03 +7.76665119351E-01 +3.13572460357E-01
2.72500000000E+09 +7.67287571196E-01 +1.59761165387E-01 +2.69107371248E-03 +1.36750197402E-03 +2.87069325929E-03 +1.16155130477E-03 +7.77280618791E-01 +3.00435609173E-01
2.73000000000E+09 +7.66539488330E-01 +1.44161220603E-01 +2.81937754385E-03 +1.23877824448E-03 +2.74546270803E-03 +9.42094257973E-04 +7.78360208602E-01 +2.86753365459E-01
2.73500000000E+09 +7.65357707969E-01 +1.27981165009E-01 +3.02688704358E-03 +9.86564383497E-04 +2.75995058857E-03 +7.97826250744E-04 +7.79330440760E-01 +2.71974990527E-01
2.74000000000E+09 +7.63096737240E-01 +1.11615863763E-01 +3.28004090091E-03 +8.69687011957E-04 +2.93882979299E-03 +9.72997967560E-04 +7.80241303869E-01 +2.56574430737E-01
2.74500000000E+09 +7.60229279440E-01 +9.49585188663E-02 +3.54343113478E-03 +5.79288354202E-04 +3.34543641863E-03 +9.07763116768E-04 +7.80815388015E-01 +2.41397221713E-01
2.75000000000E+09 +7.56598590965E-01 +7.79191704619E-02 +3.83417321279E-03 +1.42021883848E-04 +3.98680545010E-03 +5.36225131492E-04 +7.81509955308E-01 +2.26580561074E-01
2.75500000000E+09 +7.52203570489E-01 +6.08500603377E-02 +3.80528263829E-03 -4.41024722606E-04 +4.10981095416E-03 -3.67078493627E-04 +7.81121207071E-01 +2.11557874076E-01
2.76000000000E+09 +7.47416977599E-01 +4.40078477059E-02 +3.64664294569E-03 -6.43250182659E-04 +3.92028950935E-03 -7.60377920457E-04 +7.80669960236E-01 +1.96768134724E-01
2.76500000000E+09 +7.42766888179E-01 +2.73800196571E-02 +3.91169513795E-03 -8.13162039505E-04 +4.01073233799E-03 -9.68612636070E-04 +7.79706006586E-01 +1.80305526431E-01
2.77000000000E+09 +7.38400464475E-01 +9.88587686368E-03 +4.18328941478E-03 -1.42853146624E-03 +4.20861976269E-03 -1.65393260691E-03 +7.78387236995E-01 +1.62554798690E-01
2.77500000000E+09 +7.33884074648E-01 -8.33376093340E-03 +3.94074431139E-03 -2.22952341842E-03 +3.89491260307E-03 -2.52559877610E-03 +7.75833171176E-01 +1.44681385765E-01
2.78000000000E+09 +7.28982223187E-01 -2.75019736231E-02 +3.62302621373E-03 -2.49913678985E-03 +3.34526473862E-03 -2.72366386094E-03 +7.73999928233E-01 +1.27146530384E-01
2.78500000000E+09 +7.22854012605E-01 -4.73745236304E-02 +3.49233125961E-03 -2.84622768416E-03 +3.19762580907E-03 -2.92696599710E-03 +7.71946702612E-01 +1.09365053641E-01
2.79000000000E+09 +7.15841628475E-01 -6.76483599021E-02 +3.44392764150E-03 -3.35210418922E-03 +3.04604575927E-03 -3.27904391006E-03 +7.69144076507E-01 +9.15742501668E-02
2.79500000000E+09 +7.07797877156E-01 -8.75687182944E-02 +3.16766949151E-03 -4.03215361513E-03 +2.99021504117E-03 -3.67502763348E-03 +7.64372825121E-01 +7.33262300507E-02
2.80000000000E+09 +6.98582169262E-01 -1.07555006714E-01 +2.48157820218E-03 -4.58400133125E-03 +2.61012220018E-03 -4.23228894723E-03 +7.58665002907E-01 +5.52557586385E-02
2.80500000000E+09 +6.88126505318E-01 -1.26541247581E-01 +1.68901793005E-03 -4.79187230791E-03 +1.91021426268E-03 -4.68132472855E-03 +7.52783223165E-01 +3.73394018310E-02
2.81000000000E+09 +6.77125997319E-01 -1.44477686000E-01 +1.49481766644E-03 -4.65972789079E-03 +1.70002466487E-03 -4.82189621666E-03 +7.47063316723E-01 +1.77819403619E-02
2.81500000000E+09 +6.65686258970E-01 -1.62034744157E-01 +1.02472898776E-03 -5.06637612690E-03 +9.49341867324E-04 -5.22939786848E-03 +7.39811970016E-01 -2.46879347260E-03
2.82000000000E+09 +6.53270856432E-01 -1.79732951548E-01 +5.49229859171E-04 -5.34203546847E-03 +3.40580824224E-04 -5.27237341955E-03 +7.31119409789E-01 -2.25956059638E-02
2.82500000000E+09 +6.39251885083E-01 -1.97205198027E-01 -2.10472898174E-04 -5.59044396907E-03 -3.60150180503E-04 -5.29803692238E-03 +7.21979615933E-01 -4.13520990720E-02
2.83000000000E+09 +6.23940732545E-01 -2.14921674129E-01 -1.08889447993E-03 -5.44213274292E-03 -9.23358627104E-04 -5.14126995966E-03 +7.12433345662E-01 -6.03141900277E-02
2.83500000000E+09 +6.06746702032E-01 -2.33106610927E-01 -1.60900744418E-03 -4.91338113204E-03 -1.30297063840E-03 -4.80438585112E-03 +7.02622558457E-01 -7.97457515756E-02
2.84000000000E+09 +5.87411534080E-01 -2.50788358297E-01 -1.66077569334E-03 -4.70304314372E-03 -1.43326963590E-03 -4.81458953115E-03 +6.91402444430E-01 -1.00577713840E-01
2.84500000000E+09 +5.66976655148E-01 -2.68433238343E-01 -2.00509582638E-03 -4.95226328607E-03 -1.96702514788E-03 -5.02318049686E-03 +6.78389687297E-01 -1.20986309150E-01
2.85000000000E+09 +5.44728532433E-01 -2.86482211711E-01 -2.38646186300E-03 -5.16398262932E-03 -2.38758090867E-03 -5.19304156122E-03 +6.64433094509E-01 -1.41166647081E-01
2.85500000000E+09 +5.21116303972E-01 -3.04151380846E-01 -3.51909074583E-03 -5.20305590952E-03 -3.49246155789E-03 -5.14119810851E-03 +6.50302896812E-01 -1.60841930489E-01
2.86000000000E+09 +4.96354623066E-01 -3.21236336383E-01 -4.44801104548E-03 -4.68190610386E-03 -4.20287266415E-03 -4.66483244143E-03 +6.34907652918E-01 -1.81893059052E-01
2.86500000000E+09 +4.70768692060E-01 -3.37853588877E-01 -5.10536728324E-03 -3.76906702879E-03 -5.04407619407E-03 -3.89132021913E-03 +6.17346056584E-01 -2.02458180748E-01
2.87000000000E+09 +4.43567191314E-01 -3.52785992818E-01 -5.15842127276E-03 -2.84483023435E-03 -5.23756980353E-03 -2.91346306558E-03 +5.98246417239E-01 -2.22419216292E-01
2.87500000000E+09 +4.16864578047E-01 -3.65462150607E-01 -4.87688438147E-03 -2.53867376300E-03 -4.95765384610E-03 -2.43981191077E-03 +5.78305885208E-01 -2.41337495493E-01
2.88000000000E+09 +3.90765308277E-01 -3.77182390941E-01 -5.03981038099E-03 -2.64962276464E-03 -5.00574959953E-03 -2.51479172681E-03 +5.57256800857E-01 -2.60601162374E-01
2.88500000000E+09 +3.63683995842E-01 -3.88214423127E-01 -5.88309521953E-03 -2.41748171109E-03 -5.66917126601E-03 -2.23309989947E-03 +5.34928458394E-01 -2.79542202746E-01
2.89000000000E+09 +3.35372572582E-01 -3.97668542477E-01 -6.38911976355E-03 -1.71003174728E-03 -6.04344406119E-03 -1.74682049309E-03 +5.09306861134E-01 -2.98170647115E-01
2.89500000000E+09 +3.05586878719E-01 -4.05400492573E-01 -6.74095911493E-03 -8.51492110025E-04 -6.64208675021E-03 -1.14401608161E-03 +4.81865479052E-01 -3.15525217703E-01
2.90000000000E+09 +2.74084106446E-01 -4.11394734994E-01 -6.70750380647E-03 -2.68040121569E-05 -6.82378889550E-03 -2.14491162573E-04 +4.52764168023E-01 -3.31354554293E-01
2.90500000000E+09 +2.40238656216E-01 -4.14449440400E-01 -6.66094647304E-03 +4.43461271057E-04 -6.90469302175E-03 +5.21289685069E-04 +4.24008532744E-01 -3.45827627735E-01
2.91000000000E+09 +2.05490321419E-01 -4.14992274262E-01 -6.90098126629E-03 +1.01931557975E-03 -6.90519772692E-03 +1.30995811434E-03 +3.93062097266E-01 -3.61002549143E-01
2.91500000000E+09 +1.69956400639E-01 -4.12276561581E-01 -6.98956625916E-03 +2.10598661367E-03 -6.72994788801E-03 +2.29431438643E-03 +3.59908547056E-01 -3.73556493092E-01
2.92000000000E+09 +1.34449504651E-01 -4.07362897324E-01 -6.47010255276E-03 +2.54171228967E-03 -6.09616259475E-03 +2.54646311982E-03 +3.25115092650E-01 -3.82406829447E-01
2.92500000000E+09 +1.00081934650E-01 -4.00941926670E-01 -6.60056415348E-03 +2.95198421333E-03 -6.33056332910E-03 +2.68807691610E-03 +2.90503810873E-01 -3.89396723201E-01
2.93000000000E+09 +6.54133394934E-02 -3.93759645089E-01 -6.99922927837E-03 +3.84664488622E-03 -6.87546726229E-03 +3.51528005870E-03 +2.54342217386E-01 -3.95276316446E-01
2.93500000000E+09 +3.02231911191E-02 -3.84717423471E-01 -6.64294118202E-03 +5.11815890999E-03 -6.67717969651E-03 +4.91076930981E-03 +2.16168702973E-01 -4.00311852089E-01
2.94000000000E+09 -4.78883742790E-03 -3.72924361142E-01 -6.15966431279E-03 +6.01605564308E-03 -6.09638840199E-03 +5.84752423841E-03 +1.76428575308E-01 -4.02104266804E-01
2.94500000000E+09 -3.87532159743E-02 -3.57954560529E-01 -5.71105583276E-03 +7.21761470096E-03 -5.65717574183E-03 +6.87521176156E-03 +1.37479537034E-01 -4.01489491739E-01
2.95000000000E+09 -7.06099154745E-02 -3.39818138745E-01 -4.22830072744E-03 +8.24962300790E-03 -4.50128191729E-03 +7.83850736267E-03 +9.92424213748E-02 -3.98430375483E-01
2.95500000000E+09 -9.98926577845E-02 -3.20127020420E-01 -3.04341571853E-03 +8.26329097997E-03 -3.45942524605E-03 +8.13606315637E-03 +6.04780290534E-02 -3.94011338907E-01
2.96000000000E+09 -1.28957222638E-01 -2.98564644254E-01 -2.48103154012E-03 +8.43396637825E-03 -2.81066632187E-03 +8.58854417729E-03 +1.96721832655E-02 -3.86567141681E-01
2.96500000000E+09 -1.56863966539E-01 -2.74156509158E-01 -1.76763327146E-03 +8.87154796243E-03 -1.84084088651E-03 +9.09330342194E-03 -2.20640642319E-02 -3.74892244459E-01
2.97000000000E+09 -1.83579026242E-01 -2.46398221576E-01 -1.13179093927E-03 +9.42031628438E-03 -1.03276419559E-03 +9.42429935668E-03 -6.29376083657E-02 -3.59411085498E-01
2.97500000000E+09 -2.07752614664E-01 -2.16125454583E-01 -3.75551151297E-05 +1.04739203474E-02 -8.30155396230E-05 +1.02181820787E-02 -1.02879497063E-01 -3.42260462265E-01
2.98000000000E+09 -2.30228645576E-01 -1.84696874962E-01 +2.39802300616E-03 +1.07524169209E-02 +1.89704711838E-03 +1.06098863643E-02 -1.41565692559E-01 -3.21572336299E-01
2.98500000000E+09 -2.50515013230E-01 -1.52078984098E-01 +3.65109915399E-03 +9.63092322115E-03 +3.21450820268E-03 +9.99626090741E-03 -1.78447264498E-01 -2.99277799602E-01
2.99000000000E+09 -2.69832679310E-01 -1.19519665381E-01 +4.51766564860E-03 +9.21520091523E-03 +4.50222232826E-03 +9.88222514375E-03 -2.14964332828E-01 -2.72479261952E-01
2.99500000000E+09 -2.87367210407E-01 -8.51361511920E-02 +5.57958296034E-03 +9.25296856011E-03 +6.12833492766E-03 +9.56420290416E-03 -2.47915083505E-01 -2.42135361766E-01
3.00000000000E+09 -3.02349071050E-01 -5.03185336318E-02 +7.10901816002E-03 +8.82426668348E-03 +7.55532310042E-03 +8.58535296534E-03 -2.78856792688E-01 -2.10451502518E-01
3.00500000000E+09 -3.13828754383E-01 -1.62350965463E-02 +9.05658162579E-03 +8.16229341581E-03 +9.00689141669E-03 +7.72271909808E-03 -3.08567008433E-01 -1.76379870259E-01
3.01000000000E+09 -3.22814682700E-01 +1.69257892611E-02 +1.05777655730E-02 +5.84478812791E-03 +1.00493734937E-02 +5.72814414029E-03 -3.34557490256E-01 -1.40169426366E-01
3.01500000000E+09 -3.29837464259E-01 +4.90380545573E-02 +1.07067683797E-02 +3.99297604572E-03 +1.04694951367E-02 +4.33537797653E-03 -3.58257521890E-01 -1.02949551197E-01
3.02000000000E+09 -3.34628786567E-01 +8.17125207801E-02 +1.06218954495E-02 +2.75081346562E-03 +1.07077642809E-02 +2.99013302651E-03 -3.77667452858E-01 -6.42348985427E-02
3.02500000000E+09 -3.35942704383E-01 +1.15059105980E-01 +1.08513761859E-02 +1.94332458254E-03 +1.09370721927E-02 +2.02488244101E-03 -3.93485414516E-01 -2.52268815910E-02
3.03000000000E+09 -3.32664649593E-01 +1.47521398643E-01 +1.13388835350E-02 +4.70845325884E-04 +1.14012975310E-02 +6.44355811756E-04 -4.07469725978E-01 +1.38755904069E-02
3.03500000000E+09 -3.27531361536E-01 +1.77444589160E-01 +1.16684571452E-02 -1.41572621585E-03 +1.17758975614E-02 -1.04192794122E-03 -4.19125605200E-01 +5.48588177074E-02
3.04000000000E+09 -3.20615913425E-01 +2.08130632829E-01 +1.10713876719E-02 -3.63453657726E-03 +1.17029731036E-02 -3.32366631542E-03 -4.26820317198E-01 +9.61298319334E-02
3.04500000000E+09 -3.11971773017E-01 +2.37022977374E-01 +9.59826602055E-03 -4.58837438405E-03 +1.02989868310E-02 -4.83240862955E-03 -4.31825002289E-01 +1.37320389948E-01
3.05000000000E+09 -3.02359822418E-01 +2.66217337373E-01 +9.18161754776E-03 -5.39570541852E-03 +9.54188470831E-03 -6.07413948752E-03 -4.33128662426E-01 +1.76223235996E-01
3.05500000000E+09 -2.91027364969E-01 +2.94769849822E-01 +8.45515614853E-03 -6.29648293551E-03 +8.18776659796E-03 -7.04776810629E-03 -4.34339906158E-01 +2.14478099644E-01
3.06000000000E+09 -2.78058649635E-01 +3.22676465859E-01 +7.65999387574E-03 -7.71063048640E-03 +7.11835437347E-03 -7.81057253078E-03 -4.31749094676E-01 +2.53771704411E-01
3.06500000000E+09 -2.63850005097E-01 +3.48421268818E-01 +6.08121825763E-03 -9.03529972481E-03 +5.93125177260E-03 -8.66311663811E-03 -4.25914336707E-01 +2.91416480611E-01
3.07000000000E+09 -2.49846122239E-01 +3.72711098645E-01 +3.99781268463E-03 -9.17973628977E-03 +4.43827403466E-03 -8.83245653162E-03 -4.18001327073E-01 +3.26584075985E-01
