# Hz S RI R 50
! CMT, C1220, 16058040, 17.2.0/1
! Date: 15/08/2018 09:54:12
! Data: Format (Calibration Info)
! Freq                      S11: Re/Im (F2)                       S21: Re/Im (F2)                       S12: Re/Im (F2)                       S22: Re/Im (F2)            
2.50000000000E+09 +5.98345872845E-01 +6.26761445190E-01 -3.06141846137E-04 -9.53259113916E-04 -3.30334034986E-04 -9.80394307880E-04 +5.78758877662E-01 +7.12989285566E-01
2.50500000000E+09 +6.04443845252E-01 +6.19595791398E-01 -4.03595026789E-04 -8.38510165459E-04 -4.67476896118E-04 -8.99875035105E-04 +5.84320353162E-01 +7.07326511657E-01
2.51000000000E+09 +6.11066586609E-01 +6.12239983021E-01 -4.76939085332E-04 -7.76200542918E-04 -5.07758786946E-04 -7.12491204873E-04 +5.89980997214E-01 +7.01996693873E-01
2.51500000000E+09 +6.17607585089E-01 +6.04692208912E-01 -5.29424015461E-04 -7.84225780524E-04 -4.98599971288E-04 -7.10900652532E-04 +5.94979309687E-01 +6.96547543323E-01
2.52000000000E+09 +6.23862330991E-01 +5.96649196177E-01 -5.75945684258E-04 -7.94041854814E-04 -5.33558815636E-04 -8.27234087019E-04 +6.00070222133E-01 +6.90667567261E-01
2.52500000000E+09 +6.29412847038E-01 +5.88911446576E-01 -7.50976952064E-04 -7.35869313702E-04 -7.23631034770E-04 -7.33307443052E-04 +6.05703316795E-01 +6.84219243166E-01
2.53000000000E+09 +6.34754081658E-01 +5.81453271692E-01 -8.75543621237E-04 -5.90348637105E-04 -8.75482455678E-04 -6.02571989882E-04 +6.11777948815E-01 +6.76837654073E-01
2.53500000000E+09 +6.39533948984E-01 +5.74395764295E-01 -7.94835178735E-04 -4.68185581834E-04 -8.10068164571E-04 -4.79090133895E-04 +6.17604095000E-01 +6.69725879625E-01
2.54000000000E+09 +6.44097864494E-01 +5.67468152066E-01 -8.34360452938E-04 -4.79351297967E-04 -7.64373223740E-04 -5.00019572761E-04 +6.23771445939E-01 +6.62982043761E-01
2.54500000000E+09 +6.48725883092E-01 +5.60866304093E-01 -9.20915244796E-04 -4.74804726716E-04 -8.93339328794E-04 -5.71413962539E-04 +6.29593733288E-01 +6.56492554996E-01
2.55000000000E+09 +6.53377756674E-01 +5.54000604522E-01 -1.03335122896E-03 -3.94528871660E-04 -1.07747988395E-03 -4.93048002772E-04 +6.34604585917E-01 +6.50131890719E-01
2.55500000000E+09 +6.58223843305E-01 +5.46899583494E-01 -1.08246025631E-03 -1.65222664591E-04 -1.25584004386E-03 -2.54996727664E-04 +6.39490566455E-01 +6.43751803073E-01
2.56000000000E+09 +6.63886133354E-01 +5.39797913320E-01 -1.02578119932E-03 -5.70576408199E-05 -1.20929141836E-03 +5.10295021771E-05 +6.44553145999E-01 +6.36561540144E-01
2.56500000000E+09 +6.69847538932E-01 +5.31784141771E-01 -8.83040028529E-04 -5.22977725783E-05 -1.01550852919E-03 +1.29216947703E-04 +6.49804145378E-01 +6.28953313068E-01
2.57000000000E+09 +6.76026795777E-01 +5.23772385686E-01 -9.51741604841E-04 -2.28897221946E-04 -9.48476783098E-04 -1.40656661379E-05 +6.55354823056E-01 +6.20817020108E-01
2.57500000000E+09 +6.82497445647E-01 +5.14837985282E-01 -1.33198638448E-03 -1.59378703804E-04 -1.16732265303E-03 +8.90624969713E-05 +6.60934971623E-01 +6.12864187380E-01
2.58000000000E+09 +6.88211392556E-01 +5.05952552221E-01 -1.31130844282E-03 +3.02058589428E-04 -1.08207143473E-03 +3.45779760925E-04 +6.65801689254E-01 +6.05272768559E-01
2.58500000000E+09 +6.93770593039E-01 +4.97068588637E-01 -1.10304862349E-03 +4.49986931629E-04 -1.01789624205E-03 +3.41374454240E-04 +6.70484723785E-01 +5.97902153692E-01
2.59000000000E+09 +6.98993624705E-01 +4.88275916722E-01 -1.00313626340E-03 +4.32522156027E-04 -9.92404888153E-04 +3.05471501182E-04 +6.75121524355E-01 +5.90446973627E-01
2.59500000000E+09 +7.03773869219E-01 +4.79398500375E-01 -1.07790064635E-03 +5.05207074713E-04 -1.11740520025E-03 +4.31573884541E-04 +6.79766717379E-01 +5.82243228061E-01
2.60000000000E+09 +7.08143937586E-01 +4.70601527665E-01 -1.13911232152E-03 +4.44678302367E-04 -1.16485010674E-03 +4.17605580917E-04 +6.84429762504E-01 +5.73677255408E-01
2.60500000000E+09 +7.12513536953E-01 +4.61427900078E-01 -1.32743214268E-03 +6.63708846202E-04 -1.31676203425E-03 +6.31600056500E-04 +6.89331907922E-01 +5.64734709148E-01
2.61000000000E+09 +7.16855670867E-01 +4.51525953272E-01 -1.25653267001E-03 +1.12595338429E-03 -1.25895569087E-03 +1.11393524325E-03 +6.94303801230E-01 +5.55892744457E-01
2.61500000000E+09 +7.21157173457E-01 +4.41034738110E-01 -8.18465111149E-04 +1.25492627201E-03 -8.51802470316E-04 +1.27232289306E-03 +6.99017319515E-01 +5.47520053171E-01
2.62000000000E+09 +7.25366593934E-01 +4.29825769770E-01 -6.72845443600E-04 +1.12467031352E-03 -7.49485244005E-04 +1.19002530550E-03 +7.03847759745E-01 +5.38494147929E-01
2.62500000000E+09 +7.29435077438E-01 +4.17889589726E-01 -6.02586999695E-04 +1.15599132639E-03 -5.66941155686E-04 +1.18871866714E-03 +7.08310728995E-01 +5.29682426827E-01
2.63000000000E+09 +7.33586874980E-01 +4.05334253119E-01 -5.70512296808E-04 +1.12904788810E-03 -4.43122474839E-04 +1.18966325970E-03 +7.12714152305E-01 +5.21079231010E-01
2.63500000000E+09 +7.37115068221E-01 +3.92568892288E-01 -6.85760508134E-04 +1.22524421327E-03 -4.60223228113E-04 +1.12581171831E-03 +7.17506296762E-01 +5.11898748913E-01
2.64000000000E+09 +7.40417704674E-01 +3.80009053263E-01 -5.10859569846E-04 +1.52543938048E-03 -4.17240214948E-04 +1.32571672522E-03 +7.22303651888E-01 +5.02225731973E-01
2.64500000000E+09 +7.44233947052E-01 +3.68012418364E-01 -1.40739528062E-04 +1.40108364323E-03 -2.89948469018E-04 +1.20662195430E-03 +7.26913230430E-01 +4.92277578656E-01
2.65000000000E+09 +7.47185204080E-01 +3.56153002153E-01 -2.04763960768E-04 +1.43344840669E-03 -3.88754825042E-04 +1.35022614946E-03 +7.31203350339E-01 +4.82208705957E-01
2.65500000000E+09 +7.50503146160E-01 +3.44356505875E-01 -1.42047082593E-04 +1.41226339875E-03 -2.51780800085E-04 +1.47065355336E-03 +7.34942664498E-01 +4.72248419332E-01
2.66000000000E+09 +7.53447295624E-01 +3.32273542537E-01 -1.12941697487E-04 +1.58256087819E-03 -1.13899187389E-04 +1.73362691366E-03 +7.39345604051E-01 +4.61588417486E-01
2.66500000000E+09 +7.56146231735E-01 +3.20534082362E-01 +1.03712610115E-04 +1.59516077522E-03 +1.86910799612E-04 +1.68318909058E-03 +7.43991147632E-01 +4.50438028603E-01
2.67000000000E+09 +7.58591730447E-01 +3.07932685432E-01 +2.00914266094E-04 +1.68247506146E-03 +3.33084317921E-04 +1.62108916819E-03 +7.48186915864E-01 +4.39059658235E-01
2.67500000000E+09 +7.60596773810E-01 +2.94828457899E-01 +4.69325978213E-04 +1.64576747979E-03 +4.91162950041E-04 +1.50818547873E-03 +7.52123660290E-01 +4.27611017792E-01
2.68000000000E+09 +7.61873851666E-01 +2.81085168658E-01 +5.28895155619E-04 +1.53931197037E-03 +4.92347577989E-04 +1.42054014600E-03 +7.55697021421E-01 +4.16296349242E-01
2.68500000000E+09 +7.62573564239E-01 +2.66992479854E-01 +4.94011316742E-04 +1.60159038046E-03 +4.83176797995E-04 +1.62936544712E-03 +7.58614651687E-01 +4.04992688842E-01
2.69000000000E+09 +7.63073437744E-01 +2.53161573242E-01 +7.96309700640E-04 +1.81093616455E-03 +7.56841845867E-04 +1.82295953681E-03 +7.61558504793E-01 +3.93271234295E-01
2.69500000000E+09 +7.63785539569E-01 +2.39047025789E-01 +1.07970709826E-03 +1.78596635256E-03 +1.10010156661E-03 +1.75867347356E-03 +7.64284639801E-01 +3.80453900799E-01
2.70000000000E+09 +7.64365463669E-01 +2.24550621466E-01 +1.34345147802E-03 +1.71976966706E-03 +1.27978618392E-03 +1.65689404748E-03 +7.66887556797E-01 +3.67046206649E-01
2.70500000000E+09 +7.64884205396E-01 +2.10307686716E-01 +1.72340809445E-03 +1.47009475561E-03 +1.59065700236E-03 +1.51888398535E-03 +7.69711766281E-01 +3.53691443282E-01
2.71000000000E+09 +7.65305157589E-01 +1.96319903497E-01 +1.75646372441E-03 +1.16431381621E-03 +1.78339878263E-03 +1.28460730125E-03 +7.72849505068E-01 +3.40414190199E-01
2.71500000000E+09 +7.66385987606E-01 +1.81998387926E-01 +1.72018834339E-03 +9.94564741202E-04 +1.80024501794E-03 +1.10502582958E-03 +7.75182548816E-01 +3.27306761383E-01
2.72000000000E+09 +7.67181247761E-01 +1.67169442950E-01 +1.79608206732E-03 +9.89952905050E-04 +1.95076340861E-03 +9.49041305268E-04 +7.77057925395E-01 +3.14483380174E-01
2.72500000000E+09 +7.67500807765E-01 +1.51852600230E-01 +1.99701192621E-03 +9.61112124896E-04 +2.07064063656E-03 +7.73358812655E-04 +7.77968509761E-01 +3.01469538654E-01
2.73000000000E+09 +7.66701375855E-01 +1.36219638520E-01 +2.12923094611E-03 +8.30507902391E-04 +2.05418844617E-03 +5.93486716098E-04 +7.79374467705E-01 +2.87823447664E-01
2.73500000000E+09 +7.65430932180E-01 +1.20213097558E-01 +2.35593328559E-03 +6.50110216118E-04 +2.07146052373E-03 +5.53776760305E-04 +7.80673543805E-01 +2.72802069052E-01
2.74000000000E+09 +7.62906047879E-01 +1.03981443962E-01 +2.58918820784E-03 +4.56748542215E-04 +2.29100417816E-03 +6.25542774134E-04 +7.82059726379E-01 +2.57114661779E-01
2.74500000000E+09 +7.59536086807E-01 +8.75531016783E-02 +2.63252796881E-03 +1.92686449620E-04 +2.51047809074E-03 +4.61306023168E-04 +7.82803560561E-01 +2.41730827080E-01
2.75000000000E+09 +7.55591389060E-01 +7.08485897554E-02 +2.85945293041E-03 -1.15456775947E-04 +2.94628322805E-03 +2.01522135351E-04 +7.83498172510E-01 +2.26427654386E-01
2.75500000000E+09 +7.50760073539E-01 +5.39009497379E-02 +2.73261142731E-03 -5.49244345278E-04 +2.99533990379E-03 -3.94813516145E-04 +7.83213592829E-01 +2.11452226031E-01
2.76000000000E+09 +7.45603987066E-01 +3.69689170949E-02 +2.61657930014E-03 -6.33308328705E-04 +2.85790709991E-03 -6.34668798047E-04 +7.82556817809E-01 +1.96238707218E-01
2.76500000000E+09 +7.40501397847E-01 +2.02017993273E-02 +2.86921034477E-03 -7.72181219868E-04 +3.03224825186E-03 -8.81986078113E-04 +7.81635857684E-01 +1.79603743512E-01
2.77000000000E+09 +7.35793589983E-01 +2.72435625591E-03 +3.04623057492E-03 -1.25841755412E-03 +3.12957348687E-03 -1.42382241060E-03 +7.80029954801E-01 +1.61734311075E-01
2.77500000000E+09 +7.31093203863E-01 -1.58055186452E-02 +2.84264055956E-03 -1.86410547792E-03 +2.84653386397E-03 -2.05920646545E-03 +7.77834922806E-01 +1.43661944620E-01
2.78000000000E+09 +7.25781326625E-01 -3.51422566794E-02 +2.56313310459E-03 -2.08581119807E-03 +2.47434892524E-03 -2.23884751665E-03 +7.76007134362E-01 +1.25830517021E-01
2.78500000000E+09 +7.19337007755E-01 -5.49550968773E-02 +2.37311651476E-03 -2.28929296436E-03 +2.18428514878E-03 -2.41914027938E-03 +7.73547289260E-01 +1.07838623370E-01
2.79000000000E+09 +7.12123536020E-01 -7.47830180575E-02 +2.41842114829E-03 -2.45628503246E-03 +2.20183051264E-03 -2.42528428157E-03 +7.70334156324E-01 +8.99779344621E-02
2.79500000000E+09 +7.04146087638E-01 -9.39834818720E-02 +2.39016082171E-03 -3.13486004599E-03 +2.17592491013E-03 -2.98389755560E-03 +7.65620973637E-01 +7.21222086963E-02
2.80000000000E+09 +6.95293268226E-01 -1.13225358353E-01 +1.87336789002E-03 -3.56448500732E-03 +1.86832049878E-03 -3.36318098706E-03 +7.59840749676E-01 +5.42860831234E-02
2.80500000000E+09 +6.85210063311E-01 -1.32280062254E-01 +1.31105189489E-03 -3.79137865090E-03 +1.48979714233E-03 -3.75417343404E-03 +7.54355371188E-01 +3.60785649918E-02
2.81000000000E+09 +6.73721127763E-01 -1.50259842897E-01 +1.07223409806E-03 -3.85148462924E-03 +1.20554171888E-03 -3.93837254571E-03 +7.48483519581E-01 +1.61414606328E-02
2.81500000000E+09 +6.61410014197E-01 -1.67302691747E-01 +6.65261166593E-04 -4.18934781775E-03 +5.99021491781E-04 -4.28373778567E-03 +7.41165138099E-01 -4.00029440818E-03
2.82000000000E+09 +6.48294033142E-01 -1.84312524827E-01 +3.05470988271E-04 -4.42218671401E-03 +1.54567579980E-04 -4.40334888214E-03 +7.33072208522E-01 -2.39096593681E-02
2.82500000000E+09 +6.33831200213E-01 -2.01101742303E-01 -4.74893400767E-04 -4.86647019315E-03 -5.57125518063E-04 -4.62351900547E-03 +7.24386252399E-01 -4.32919686087E-02
2.83000000000E+09 +6.18090496600E-01 -2.18788765556E-01 -1.30655646220E-03 -4.54891845275E-03 -1.26102211816E-03 -4.26061603104E-03 +7.14980257777E-01 -6.29969198829E-02
2.83500000000E+09 +6.00398398928E-01 -2.36784132376E-01 -1.65351433334E-03 -4.08441819976E-03 -1.47027658266E-03 -3.95908995663E-03 +7.04853488075E-01 -8.30102382373E-02
2.84000000000E+09 +5.80255623901E-01 -2.54172530366E-01 -1.71422172314E-03 -4.14654124893E-03 -1.54771486271E-03 -4.18497144766E-03 +6.93058477925E-01 -1.04211582552E-01
2.84500000000E+09 +5.59125602351E-01 -2.71102442338E-01 -2.51533136993E-03 -4.38957449471E-03 -2.39060666227E-03 -4.49242938338E-03 +6.79784224605E-01 -1.25096247814E-01
2.85000000000E+09 +5.36999876555E-01 -2.88202839554E-01 -3.12298064955E-03 -4.22027325407E-03 -3.13664438876E-03 -4.29118719357E-03 +6.65382234479E-01 -1.45666233709E-01
2.85500000000E+09 +5.13382358007E-01 -3.05026965443E-01 -4.14159748052E-03 -3.77017307074E-03 -4.07038876780E-03 -3.67233279589E-03 +6.50900434938E-01 -1.66009560234E-01
2.86000000000E+09 +4.89052752109E-01 -3.21164993531E-01 -4.41219735346E-03 -3.10184624938E-03 -4.33402695888E-03 -3.07414811320E-03 +6.34440273540E-01 -1.87544509853E-01
2.86500000000E+09 +4.63683552422E-01 -3.36696729614E-01 -4.81105549968E-03 -2.44854777807E-03 -4.77496196085E-03 -2.48706369630E-03 +6.15707492284E-01 -2.08023163987E-01
2.87000000000E+09 +4.37240503704E-01 -3.50240261936E-01 -5.06111903485E-03 -1.73862371798E-03 -5.11537703952E-03 -1.68639590031E-03 +5.95885427119E-01 -2.27433516109E-01
2.87500000000E+09 +4.11302411077E-01 -3.62154234796E-01 -5.01037314550E-03 -1.12034625626E-03 -5.04725342583E-03 -9.23659136458E-04 +5.75676396731E-01 -2.46124156411E-01
2.88000000000E+09 +3.85315024635E-01 -3.73120515503E-01 -5.01213754455E-03 -7.00688639683E-04 -4.86126455270E-03 -5.47883013949E-04 +5.53821704038E-01 -2.65216616058E-01
2.88500000000E+09 +3.58547326119E-01 -3.83047632574E-01 -5.40164956710E-03 -4.26517779282E-04 -5.10955310827E-03 -3.14172881940E-04 +5.30726873802E-01 -2.83780329313E-01
2.89000000000E+09 +3.30523889661E-01 -3.91297604151E-01 -5.29236516333E-03 +4.54743163959E-04 -4.92952598272E-03 +3.12823487463E-04 +5.04625794142E-01 -3.01834542809E-01
2.89500000000E+09 +3.01488363213E-01 -3.97997605708E-01 -5.26059380185E-03 +7.61208751873E-04 -5.12749132510E-03 +5.11600501743E-04 +4.76213443668E-01 -3.18609624653E-01
2.90000000000E+09 +2.71045391575E-01 -4.02883593325E-01 -5.49628271901E-03 +1.32963054970E-03 -5.60270806695E-03 +1.14724391117E-03 +4.47268902955E-01 -3.33050953622E-01
2.90500000000E+09 +2.38520173382E-01 -4.05713659118E-01 -5.41108008925E-03 +2.23126843992E-03 -5.50789432581E-03 +2.26861272664E-03 +4.18136847603E-01 -3.47517736520E-01
2.91000000000E+09 +2.04683298171E-01 -4.05869418761E-01 -5.02956003414E-03 +3.00507393515E-03 -4.90190402123E-03 +3.03928651863E-03 +3.86677933483E-01 -3.61534890022E-01
2.91500000000E+09 +1.70516067416E-01 -4.02571427506E-01 -4.32146603884E-03 +3.55036137618E-03 -4.08364284788E-03 +3.54210499219E-03 +3.53878369685E-01 -3.72816049890E-01
2.92000000000E+09 +1.36403628712E-01 -3.96943454570E-01 -3.76136107587E-03 +3.43281437977E-03 -3.61015383289E-03 +3.21419936256E-03 +3.19751361129E-01 -3.81141909535E-01
2.92500000000E+09 +1.04207961497E-01 -3.89812144887E-01 -3.99726055572E-03 +3.36574504973E-03 -3.94974112752E-03 +3.13722824766E-03 +2.85160629990E-01 -3.87986791746E-01
2.93000000000E+09 +7.15646711510E-02 -3.82910223847E-01 -4.43098130169E-03 +4.33795915990E-03 -4.56978452019E-03 +4.01854022313E-03 +2.49195760622E-01 -3.93201370138E-01
2.93500000000E+09 +3.75772495849E-02 -3.73916246048E-01 -3.64273981936E-03 +5.59357635592E-03 -3.90617585612E-03 +5.53785404307E-03 +2.11027022199E-01 -3.97732438032E-01
2.94000000000E+09 +3.68409341336E-03 -3.61572021678E-01 -2.46408023655E-03 +6.05751224883E-03 -2.64125150723E-03 +5.97382670717E-03 +1.71681188109E-01 -3.98688806744E-01
2.94500000000E+09 -2.87031956880E-02 -3.45640079758E-01 -1.86980533136E-03 +5.88802787287E-03 -2.00081558411E-03 +5.86182967638E-03 +1.33528285059E-01 -3.97498716187E-01
2.95000000000E+09 -5.82726822772E-02 -3.27592390539E-01 -1.38277387464E-03 +6.44476006586E-03 -1.58528715392E-03 +6.40960850521E-03 +9.56371670845E-02 -3.94264850715E-01
2.95500000000E+09 -8.59222692837E-02 -3.08499532905E-01 -3.00721105923E-04 +6.44857569691E-03 -5.43052874691E-04 +6.61115559052E-03 +5.71711567546E-02 -3.89548543655E-01
2.96000000000E+09 -1.13983697361E-01 -2.87840674111E-01 +1.54547808826E-04 +6.43321534846E-03 +1.26111466889E-04 +6.70864747295E-03 +1.64981284978E-02 -3.81422937256E-01
2.96500000000E+09 -1.40676172168E-01 -2.63840457040E-01 +8.79925838309E-04 +6.47929392678E-03 +1.03902069921E-03 +6.70967829721E-03 -2.48898327525E-02 -3.68956468849E-01
2.97000000000E+09 -1.66076618217E-01 -2.37116632782E-01 +1.43945290865E-03 +6.22923363628E-03 +1.64716809895E-03 +6.22525297442E-03 -6.44878274731E-02 -3.52709660895E-01
2.97500000000E+09 -1.88804754668E-01 -2.08008904838E-01 +1.66094919279E-03 +6.81157483348E-03 +1.68605725049E-03 +6.60591853137E-03 -1.03178618706E-01 -3.34814547264E-01
2.98000000000E+09 -2.09906703424E-01 -1.78125568066E-01 +3.49295201184E-03 +7.04798625793E-03 +3.30355467005E-03 +7.04913948958E-03 -1.39988232031E-01 -3.14887022285E-01
2.98500000000E+09 -2.29271508401E-01 -1.47260463030E-01 +4.50559783275E-03 +5.85569409377E-03 +4.36692624058E-03 +6.11421255444E-03 -1.76677363384E-01 -2.93434974161E-01
2.99000000000E+09 -2.47354312193E-01 -1.16031604424E-01 +4.79412225709E-03 +5.17666314322E-03 +4.93878360654E-03 +5.43653814818E-03 -2.12174090977E-01 -2.66394436900E-01
2.99500000000E+09 -2.63702747579E-01 -8.38175412578E-02 +5.28298580547E-03 +4.97056821522E-03 +5.65538483303E-03 +4.96739959569E-03 -2.43856957194E-01 -2.36795739158E-01
3.00000000000E+09 -2.78166880433E-01 -5.10674789174E-02 +5.69862368074E-03 +4.73653879663E-03 +5.93891336059E-03 +4.40187188878E-03 -2.74429103749E-01 -2.06313427066E-01
3.00500000000E+09 -2.89503898371E-01 -1.86928575990E-02 +7.24237452404E-03 +4.94015595104E-03 +7.15098391962E-03 +4.54155771428E-03 -3.03910981851E-01 -1.72343966190E-01
3.01000000000E+09 -2.98415787111E-01 +1.29797071470E-02 +8.84371399801E-03 +2.72669072565E-03 +8.43816788764E-03 +2.71750981111E-03 -3.29243774626E-01 -1.37176108643E-01
3.01500000000E+09 -3.05391658233E-01 +4.35267189825E-02 +8.61980155401E-03 +8.34391530135E-04 +8.41006539870E-03 +1.07471426553E-03 -3.52761464508E-01 -1.00583721976E-01
3.02000000000E+09 -3.10127266666E-01 +7.46462900918E-02 +7.98939069238E-03 -4.71785514772E-04 +8.10911093390E-03 -2.56605344871E-04 -3.71472539704E-01 -6.31225884986E-02
3.02500000000E+09 -3.11317592971E-01 +1.06072207378E-01 +7.50711354890E-03 -7.42031681049E-04 +7.67143266888E-03 -6.76995108701E-04 -3.87199753555E-01 -2.58558968473E-02
3.03000000000E+09 -3.08909715026E-01 +1.36350948024E-01 +7.73925299593E-03 -1.46095715124E-03 +7.65710712566E-03 -1.54034572271E-03 -4.02757673834E-01 +1.18814658202E-02
3.03500000000E+09 -3.04712680422E-01 +1.64851733858E-01 +8.05355503462E-03 -2.42864915254E-03 +8.06266802007E-03 -2.28532461452E-03 -4.15234925168E-01 +5.32344763909E-02
3.04000000000E+09 -2.98608110010E-01 +1.94800871740E-01 +7.71706740826E-03 -4.33294392553E-03 +7.93850031460E-03 -4.13432316735E-03 -4.23115920669E-01 +9.46080506966E-02
3.04500000000E+09 -2.90118211654E-01 +2.22374453306E-01 +6.43739428963E-03 -5.12594547065E-03 +6.79923510575E-03 -5.25539163651E-03 -4.28076016682E-01 +1.34926108354E-01
3.05000000000E+09 -2.81008450892E-01 +2.50449861677E-01 +5.79147359461E-03 -5.86399706784E-03 +5.95932871493E-03 -6.37057534360E-03 -4.30523142302E-01 +1.73342956897E-01
3.05500000000E+09 -2.70197581565E-01 +2.78142348393E-01 +4.82352741657E-03 -6.33092823612E-03 +4.49773105925E-03 -6.68891021290E-03 -4.32499916816E-01 +2.11949028161E-01
3.06000000000E+09 -2.57835550950E-01 +3.04942182990E-01 +4.01627272051E-03 -7.29163070962E-03 +3.59732906296E-03 -7.19302126474E-03 -4.30433915234E-01 +2.51363717776E-01
3.06500000000E+09 -2.44745671709E-01 +3.29796540298E-01 +2.46284060465E-03 -7.83018114750E-03 +2.38389259394E-03 -7.39995361035E-03 -4.24580121856E-01 +2.89130226186E-01
3.07000000000E+09 -2.31851385589E-01 +3.53590625806E-01 +7.42932886159E-04 -7.56419647045E-03 +1.15212869834E-03 -7.40662666403E-03 -4.16974822441E-01 +3.23779531726E-01
