# Hz S RI R 50
! CMT, C1220, 16058040, 17.2.0/1
! Date: 15/08/2018 09:58:33
! Data: Format (Calibration Info)
! Freq                      S11: Re/Im (F2)                       S21: Re/Im (F2)                       S12: Re/Im (F2)                       S22: Re/Im (F2)            
2.50000000000E+09 +5.96901468195E-01 +6.35554333282E-01 -1.48530971990E-04 -9.39796750505E-04 -1.54091938402E-04 -9.99563535694E-04 +5.77400785542E-01 +7.14051781124E-01
2.50500000000E+09 +6.03133084505E-01 +6.28273028264E-01 -2.24336114563E-04 -9.42119737340E-04 -2.81387823020E-04 -1.00250072012E-03 +5.82891217689E-01 +7.08467749820E-01
2.51000000000E+09 +6.09716750972E-01 +6.20711011669E-01 -3.07140575218E-04 -9.66627221878E-04 -3.17598710701E-04 -9.18807190408E-04 +5.88575836119E-01 +7.03126794818E-01
2.51500000000E+09 +6.16348912773E-01 +6.13054302054E-01 -3.74138336528E-04 -1.07394558967E-03 -3.57258717262E-04 -9.75538980135E-04 +5.93700404099E-01 +6.97696788153E-01
2.52000000000E+09 +6.22648795272E-01 +6.05176180604E-01 -5.69980589221E-04 -1.00254957945E-03 -6.01817807787E-04 -9.64387365670E-04 +5.98763778240E-01 +6.91798418183E-01
2.52500000000E+09 +6.28187613651E-01 +5.97600746994E-01 -7.14359986973E-04 -8.31333629904E-04 -7.21079180726E-04 -8.81740835660E-04 +6.04462030960E-01 +6.85299898327E-01
2.53000000000E+09 +6.33513499140E-01 +5.90574960406E-01 -7.76426890096E-04 -6.20077574040E-04 -7.91411262480E-04 -6.46237304806E-04 +6.10229092615E-01 +6.78143327777E-01
2.53500000000E+09 +6.38389008439E-01 +5.83791533853E-01 -6.57492383493E-04 -6.71887405609E-04 -6.38980469237E-04 -6.81921843289E-04 +6.16196306077E-01 +6.70998873885E-01
2.54000000000E+09 +6.42926040286E-01 +5.77121458170E-01 -7.50023428916E-04 -7.35943747529E-04 -7.02071806262E-04 -7.20625888441E-04 +6.22028465107E-01 +6.64411590485E-01
2.54500000000E+09 +6.47451480120E-01 +5.70574719557E-01 -9.46300681078E-04 -6.85982093819E-04 -8.70839738912E-04 -7.74195828502E-04 +6.27850957763E-01 +6.57889110412E-01
2.55000000000E+09 +6.52086411994E-01 +5.63754186856E-01 -1.02894936702E-03 -5.70925279325E-04 -1.02010941483E-03 -6.70573436907E-04 +6.33020040692E-01 +6.51792721532E-01
2.55500000000E+09 +6.57042391196E-01 +5.56366730243E-01 -1.05121658869E-03 -3.97168708888E-04 -1.21788404878E-03 -4.44732258927E-04 +6.38108574444E-01 +6.45524500502E-01
2.56000000000E+09 +6.62457409035E-01 +5.48990208609E-01 -9.64441982938E-04 -2.54110347751E-04 -1.17716931473E-03 -2.06923826521E-04 +6.43346559580E-01 +6.38199890289E-01
2.56500000000E+09 +6.68437451820E-01 +5.40592043340E-01 -8.99380935612E-04 -3.39820995771E-04 -1.10566112291E-03 -1.57408658784E-04 +6.48480444741E-01 +6.30568025197E-01
2.57000000000E+09 +6.74638516770E-01 +5.32143905243E-01 -1.02077382468E-03 -4.27046214073E-04 -1.12912371926E-03 -2.03709310068E-04 +6.54059602641E-01 +6.22654536612E-01
2.57500000000E+09 +6.80825359503E-01 +5.23110362068E-01 -1.35840873373E-03 -2.93725882797E-04 -1.21882240657E-03 -7.02699092509E-05 +6.59634957453E-01 +6.14883241391E-01
2.58000000000E+09 +6.86557419020E-01 +5.14291528248E-01 -1.39377642318E-03 -4.55677514353E-06 -1.19663819366E-03 +9.20842708931E-05 +6.64627879140E-01 +6.07301738708E-01
2.58500000000E+09 +6.92117820973E-01 +5.05577453119E-01 -1.31068980186E-03 +2.10181802908E-04 -1.13284230932E-03 +5.33916679098E-05 +6.69516319336E-01 +5.99784667355E-01
2.59000000000E+09 +6.97259234332E-01 +4.97141649894E-01 -1.15458733588E-03 +2.39678250801E-04 -1.16186802565E-03 +1.08371429949E-04 +6.74144770275E-01 +5.92322349845E-01
2.59500000000E+09 +7.02126231114E-01 +4.88928694428E-01 -1.22720931003E-03 +1.82748939901E-04 -1.30905275821E-03 +1.39252593323E-04 +6.78933918340E-01 +5.84130981836E-01
2.60000000000E+09 +7.06757936878E-01 +4.80648681902E-01 -1.38652495814E-03 +2.52290147864E-04 -1.42616366098E-03 +2.77822827024E-04 +6.83977574309E-01 +5.75582739078E-01
2.60500000000E+09 +7.11229060164E-01 +4.71883143386E-01 -1.61526388993E-03 +6.04808743166E-04 -1.55487615499E-03 +5.76001326179E-04 +6.89005094467E-01 +5.66589932428E-01
2.61000000000E+09 +7.15637743200E-01 +4.62316657803E-01 -1.44959064603E-03 +1.01901396634E-03 -1.43467268213E-03 +9.28073531605E-04 +6.93812501415E-01 +5.57509813566E-01
2.61500000000E+09 +7.20134978403E-01 +4.51997059953E-01 -1.14172661179E-03 +1.11157220746E-03 -1.14777345025E-03 +1.13285593105E-03 +6.98418420287E-01 +5.49078670162E-01
2.62000000000E+09 +7.24214318468E-01 +4.40730800875E-01 -9.72003264722E-04 +1.13311809963E-03 -1.08439326161E-03 +1.17786642364E-03 +7.03233427323E-01 +5.40115979769E-01
2.62500000000E+09 +7.28320829540E-01 +4.28664067609E-01 -9.14456153516E-04 +1.22911395373E-03 -8.79540061984E-04 +1.31396370489E-03 +7.07833345876E-01 +5.31166461328E-01
2.63000000000E+09 +7.32341805920E-01 +4.16007633873E-01 -7.63109223307E-04 +1.20736363561E-03 -6.30808480915E-04 +1.23188989646E-03 +7.12170918140E-01 +5.22308945926E-01
2.63500000000E+09 +7.36118612718E-01 +4.03429049801E-01 -8.80114668704E-04 +1.23193386123E-03 -6.48812077236E-04 +1.20873588966E-03 +7.16877844228E-01 +5.13053531785E-01
2.64000000000E+09 +7.39579691084E-01 +3.90997823095E-01 -7.07065028464E-04 +1.54732478549E-03 -5.99932812084E-04 +1.34743122767E-03 +7.21569379682E-01 +5.03544850676E-01
2.64500000000E+09 +7.43195473813E-01 +3.79028870101E-01 -4.30713700439E-04 +1.64035947855E-03 -4.88626844551E-04 +1.37300483536E-03 +7.26507271703E-01 +4.93894752322E-01
2.65000000000E+09 +7.46488947545E-01 +3.67515297101E-01 -2.52634358349E-04 +1.57222702097E-03 -4.43723514080E-04 +1.46817167777E-03 +7.30943217982E-01 +4.83692418725E-01
2.65500000000E+09 +7.49962202833E-01 +3.55898860904E-01 -1.64546810973E-04 +1.44052313365E-03 -3.44932083309E-04 +1.53404749418E-03 +7.34613829459E-01 +4.73455285562E-01
2.66000000000E+09 +7.52840551718E-01 +3.44096271254E-01 -1.46256574069E-04 +1.57740939028E-03 -2.45235278082E-04 +1.68275939728E-03 +7.38656894429E-01 +4.62764431014E-01
2.66500000000E+09 +7.55635514881E-01 +3.32764972626E-01 -3.83226283480E-05 +1.58088565005E-03 +5.25192109416E-05 +1.66900628578E-03 +7.43178144500E-01 +4.51564154712E-01
2.67000000000E+09 +7.58188981909E-01 +3.20514190304E-01 +7.49747451020E-05 +1.70662671015E-03 +1.77548183930E-04 +1.68309602021E-03 +7.47514767312E-01 +4.40262141575E-01
2.67500000000E+09 +7.60238781093E-01 +3.07483733951E-01 +3.13199713741E-04 +1.76677177586E-03 +4.19340782513E-04 +1.62119931731E-03 +7.51570049804E-01 +4.28832808654E-01
2.68000000000E+09 +7.61640464669E-01 +2.94036971466E-01 +5.04523099657E-04 +1.54978060980E-03 +4.97232821469E-04 +1.47321027409E-03 +7.55142986328E-01 +4.17515965379E-01
2.68500000000E+09 +7.62551265335E-01 +2.80029096664E-01 +3.84341646656E-04 +1.54188902961E-03 +4.18054971921E-04 +1.54117188464E-03 +7.58158700321E-01 +4.06241191276E-01
2.69000000000E+09 +7.63135180134E-01 +2.66222419188E-01 +5.58971953233E-04 +1.75915264288E-03 +6.00279473819E-04 +1.70755476664E-03 +7.61120957482E-01 +3.94437044477E-01
2.69500000000E+09 +7.64041569660E-01 +2.52178505596E-01 +7.67208559243E-04 +1.72794789890E-03 +7.64515780804E-04 +1.65020731042E-03 +7.63897257069E-01 +3.81502810588E-01
2.70000000000E+09 +7.65013573008E-01 +2.37997110576E-01 +9.64916984333E-04 +1.74527970848E-03 +9.42909749747E-04 +1.69866387885E-03 +7.66445643809E-01 +3.68009887814E-01
2.70500000000E+09 +7.65803566141E-01 +2.23871514250E-01 +1.38454953189E-03 +1.66467829103E-03 +1.30419807461E-03 +1.67634649822E-03 +7.68824847121E-01 +3.54350181404E-01
2.71000000000E+09 +7.66891054937E-01 +2.10264800537E-01 +1.51234172264E-03 +1.42918554637E-03 +1.42453287380E-03 +1.51887889873E-03 +7.71593737540E-01 +3.41228130907E-01
2.71500000000E+09 +7.68597725491E-01 +1.95975386445E-01 +1.58909127022E-03 +1.26315600136E-03 +1.62399136512E-03 +1.35145502296E-03 +7.74130813321E-01 +3.28433860239E-01
2.72000000000E+09 +7.69754878548E-01 +1.81212193471E-01 +1.57260387337E-03 +1.18153244468E-03 +1.71437959304E-03 +1.12527928554E-03 +7.76065400205E-01 +3.15642247228E-01
2.72500000000E+09 +7.70481750630E-01 +1.66248531756E-01 +1.71332950129E-03 +1.16361481095E-03 +1.81223542231E-03 +9.45980598483E-04 +7.76938104922E-01 +3.02279784559E-01
2.73000000000E+09 +7.70564145944E-01 +1.50739837408E-01 +1.75088266345E-03 +1.16385994669E-03 +1.67147366721E-03 +8.94993329393E-04 +7.77938834476E-01 +2.88712889332E-01
2.73500000000E+09 +7.69653663891E-01 +1.34340700951E-01 +2.04297904063E-03 +1.10291134902E-03 +1.78001342932E-03 +9.38708435351E-04 +7.79248723967E-01 +2.74018111292E-01
2.74000000000E+09 +7.67522974152E-01 +1.17866225100E-01 +2.33970086561E-03 +9.50381659117E-04 +1.95722543579E-03 +9.80764901784E-04 +7.80462524711E-01 +2.58676826313E-01
2.74500000000E+09 +7.64640095211E-01 +1.01241709909E-01 +2.52404948769E-03 +8.19750894589E-04 +2.24441142771E-03 +1.12538923582E-03 +7.81016348598E-01 +2.43256576098E-01
2.75000000000E+09 +7.61073123908E-01 +8.41763775362E-02 +2.98780334303E-03 +4.20232244834E-04 +3.00513090133E-03 +8.20599444111E-04 +7.81783213379E-01 +2.28338719921E-01
2.75500000000E+09 +7.56738275453E-01 +6.68270019602E-02 +2.91628038279E-03 -1.80366946563E-04 +3.16417231360E-03 +1.18647947872E-04 +7.81397714874E-01 +2.13510756430E-01
2.76000000000E+09 +7.52099090076E-01 +4.94939152288E-02 +2.79886660026E-03 -2.55395996526E-04 +3.00844199813E-03 -2.23305540729E-04 +7.81005208368E-01 +1.98486434244E-01
2.76500000000E+09 +7.47185858037E-01 +3.19490095089E-02 +3.04787771131E-03 -5.00351433012E-04 +3.20980853242E-03 -5.54735095319E-04 +7.80348237696E-01 +1.82137586837E-01
2.77000000000E+09 +7.42714931114E-01 +1.40262254130E-02 +3.12107488209E-03 -9.38247464440E-04 +3.13795522577E-03 -1.10818705851E-03 +7.79256250631E-01 +1.64317940363E-01
2.77500000000E+09 +7.38086633808E-01 -4.86456358447E-03 +2.92003416327E-03 -1.40536238374E-03 +2.97570246302E-03 -1.54555206194E-03 +7.76802026076E-01 +1.46265129049E-01
2.78000000000E+09 +7.33234578844E-01 -2.46715348040E-02 +2.84720595611E-03 -1.58739990976E-03 +2.89522161093E-03 -1.75519127684E-03 +7.74859891991E-01 +1.28770724082E-01
2.78500000000E+09 +7.27039519880E-01 -4.48232488399E-02 +2.76298097457E-03 -2.01252508683E-03 +2.63330591776E-03 -2.11484080665E-03 +7.72672170744E-01 +1.10981623760E-01
2.79000000000E+09 +7.20276734233E-01 -6.52527335285E-02 +2.72052024419E-03 -2.37322164702E-03 +2.48241567318E-03 -2.37871721982E-03 +7.69897575357E-01 +9.34243016683E-02
2.79500000000E+09 +7.12405064510E-01 -8.54540065573E-02 +2.57506903054E-03 -2.93904654193E-03 +2.46963840620E-03 -2.79656148207E-03 +7.65590490124E-01 +7.52631465687E-02
2.80000000000E+09 +7.03518276885E-01 -1.05352499577E-01 +1.99637229891E-03 -3.50481010850E-03 +2.11079476421E-03 -3.28709725514E-03 +7.60308123065E-01 +5.69071460197E-02
2.80500000000E+09 +6.93522271573E-01 -1.24748161378E-01 +1.22855174130E-03 -3.68680128658E-03 +1.36560497306E-03 -3.66952454289E-03 +7.54565842157E-01 +3.87723134058E-02
2.81000000000E+09 +6.82458378151E-01 -1.43287198169E-01 +9.60145302535E-04 -3.44034179810E-03 +1.07102653842E-03 -3.55166775787E-03 +7.48846539306E-01 +1.91657713861E-02
2.81500000000E+09 +6.70435240385E-01 -1.61095029850E-01 +6.96114607418E-04 -3.57654999320E-03 +6.21673299556E-04 -3.73796695308E-03 +7.41805404216E-01 -1.01667635223E-03
2.82000000000E+09 +6.57884833303E-01 -1.79095119562E-01 +5.57305425258E-04 -3.73725574235E-03 +3.54975496997E-04 -3.78853376643E-03 +7.33821883267E-01 -2.11547261418E-02
2.82500000000E+09 +6.43714559774E-01 -1.97096450565E-01 +6.03384736644E-05 -4.01020934457E-03 -1.35573922890E-04 -3.88555915215E-03 +7.24941937219E-01 -4.06546625144E-02
2.83000000000E+09 +6.28014320503E-01 -2.15477301940E-01 -5.72671379409E-04 -4.06231866409E-03 -5.96721914805E-04 -3.90389557963E-03 +7.15373411511E-01 -6.02778793669E-02
2.83500000000E+09 +6.10640430285E-01 -2.34382402122E-01 -1.11080413003E-03 -3.56873525859E-03 -1.03595952876E-03 -3.52666420523E-03 +7.05365484273E-01 -8.01186421208E-02
2.84000000000E+09 +5.90979922697E-01 -2.52975480631E-01 -1.03033650850E-03 -3.45134523163E-03 -9.80425077474E-04 -3.49080053466E-03 +6.94114654517E-01 -1.01332552655E-01
2.84500000000E+09 +5.69657282845E-01 -2.71302770720E-01 -1.48446025769E-03 -3.82017395298E-03 -1.47310226741E-03 -3.74889363700E-03 +6.81082026214E-01 -1.22319797592E-01
2.85000000000E+09 +5.47126461447E-01 -2.89639444390E-01 -1.88867038013E-03 -3.75138400750E-03 -1.89525190916E-03 -3.62914279100E-03 +6.66824280020E-01 -1.42951446793E-01
2.85500000000E+09 +5.22782026038E-01 -3.07236643395E-01 -2.72016899288E-03 -3.74067917901E-03 -2.68534235219E-03 -3.67642629518E-03 +6.52338591942E-01 -1.62884829617E-01
2.86000000000E+09 +4.97783615207E-01 -3.24384043038E-01 -3.20759116635E-03 -3.19297088980E-03 -3.11201230608E-03 -3.20713713064E-03 +6.36625975516E-01 -1.84285554773E-01
2.86500000000E+09 +4.71908431313E-01 -3.40678578648E-01 -3.56775387074E-03 -2.64917588481E-03 -3.53282909784E-03 -2.69048304723E-03 +6.18493195703E-01 -2.04889111719E-01
2.87000000000E+09 +4.45042907401E-01 -3.56021820601E-01 -3.58103275193E-03 -2.21510807764E-03 -3.61053900298E-03 -2.24923852962E-03 +5.99359850858E-01 -2.25089668309E-01
2.87500000000E+09 +4.17611494945E-01 -3.69194680372E-01 -3.67094453770E-03 -1.86541406696E-03 -3.74412340093E-03 -1.78627893441E-03 +5.78552522624E-01 -2.44663329522E-01
2.88000000000E+09 +3.90464656092E-01 -3.81207233797E-01 -3.83140333769E-03 -1.86281781032E-03 -3.79775997820E-03 -1.67855236810E-03 +5.56589480690E-01 -2.63625345846E-01
2.88500000000E+09 +3.62535905004E-01 -3.92005028569E-01 -4.42452948746E-03 -1.46495563758E-03 -4.22601759474E-03 -1.35074957542E-03 +5.34032269630E-01 -2.82037392909E-01
2.89000000000E+09 +3.33578151541E-01 -4.01459087489E-01 -4.48698219965E-03 -8.21064354193E-04 -4.26960231004E-03 -8.50679060897E-04 +5.08284791923E-01 -3.00796082679E-01
2.89500000000E+09 +3.03208031014E-01 -4.09187952974E-01 -4.53975631687E-03 -1.64184706447E-04 -4.45187125528E-03 -3.62776058514E-04 +4.80117128165E-01 -3.17651516677E-01
2.90000000000E+09 +2.71126486801E-01 -4.15347582789E-01 -4.34572497313E-03 +5.95423868231E-05 -4.37699764872E-03 -9.61768465879E-07 +4.51152852446E-01 -3.33082338165E-01
2.90500000000E+09 +2.36491799218E-01 -4.18925445487E-01 -4.44052654562E-03 +2.51656934545E-04 -4.45009667002E-03 +3.57901028726E-04 +4.21822554221E-01 -3.47696204827E-01
2.91000000000E+09 +2.00658178999E-01 -4.19119796795E-01 -4.85661197983E-03 +5.90439339688E-04 -4.78989944726E-03 +7.33839411739E-04 +3.90406266602E-01 -3.62085442414E-01
2.91500000000E+09 +1.64899684945E-01 -4.15828504926E-01 -4.83225622757E-03 +1.65976604983E-03 -4.56737970993E-03 +1.67498090125E-03 +3.57495763530E-01 -3.74075285967E-01
2.92000000000E+09 +1.29223667831E-01 -4.10886840869E-01 -4.16312425607E-03 +1.96335006139E-03 -3.98778326376E-03 +1.80241324113E-03 +3.22731312663E-01 -3.83191125567E-01
2.92500000000E+09 +9.43469339917E-02 -4.04442766022E-01 -4.21319898376E-03 +2.00336542287E-03 -4.06465686601E-03 +1.73384866841E-03 +2.87528455871E-01 -3.89871586502E-01
2.93000000000E+09 +5.86691552936E-02 -3.96842358126E-01 -4.58180143027E-03 +2.60485304371E-03 -4.64181018131E-03 +2.31999331363E-03 +2.51422553269E-01 -3.94998860207E-01
2.93500000000E+09 +2.28501244968E-02 -3.87240009483E-01 -4.28282343126E-03 +3.53626030835E-03 -4.40870595096E-03 +3.36181674545E-03 +2.13737963701E-01 -3.99668480416E-01
2.94000000000E+09 -1.29692342090E-02 -3.74589712795E-01 -3.71839299000E-03 +4.04502101314E-03 -3.82750319890E-03 +3.98352216263E-03 +1.74149149408E-01 -4.01508318990E-01
2.94500000000E+09 -4.70116615389E-02 -3.58860024481E-01 -3.25773643717E-03 +4.42353170005E-03 -3.32581320722E-03 +4.29563958135E-03 +1.34915139782E-01 -4.00872100818E-01
2.95000000000E+09 -7.95364902588E-02 -3.40552880405E-01 -2.73742816807E-03 +4.85457363626E-03 -2.96149319762E-03 +4.79174946819E-03 +9.61867996758E-02 -3.97175442519E-01
2.95500000000E+09 -1.09516666891E-01 -3.19972252590E-01 -2.15073385636E-03 +4.88620170773E-03 -2.33981853605E-03 +4.85721773483E-03 +5.72383819011E-02 -3.92110597705E-01
2.96000000000E+09 -1.39147040088E-01 -2.97741830003E-01 -2.14189254035E-03 +5.23505250388E-03 -2.40397695420E-03 +5.38040595944E-03 +1.66135503976E-02 -3.83581185811E-01
2.96500000000E+09 -1.67089921693E-01 -2.72330005274E-01 -1.42223277529E-03 +5.90140960326E-03 -1.37445878803E-03 +6.10705493583E-03 -2.42509263837E-02 -3.71164040934E-01
2.97000000000E+09 -1.93851765280E-01 -2.44090674476E-01 -7.72698556947E-04 +5.80006242681E-03 -6.25998326678E-04 +5.80640272174E-03 -6.44809783068E-02 -3.55494267894E-01
2.97500000000E+09 -2.17810108820E-01 -2.13410537065E-01 -5.48313924938E-04 +6.12670332465E-03 -4.46017791937E-04 +6.01790755445E-03 -1.03509952417E-01 -3.37654745848E-01
2.98000000000E+09 -2.40640156381E-01 -1.81148915089E-01 +4.43116507990E-04 +6.54432352895E-03 +2.94520297171E-04 +6.43505669426E-03 -1.40872505798E-01 -3.17039331306E-01
2.98500000000E+09 -2.60680494951E-01 -1.47510110468E-01 +1.06204160047E-03 +6.58832077170E-03 +8.51667965606E-04 +6.73285422772E-03 -1.77386674285E-01 -2.95580246558E-01
2.99000000000E+09 -2.78934324738E-01 -1.14225474816E-01 +2.06612438561E-03 +6.88568271504E-03 +2.05004468840E-03 +7.27304702369E-03 -2.13907831102E-01 -2.68865151925E-01
2.99500000000E+09 -2.96072793084E-01 -8.01263609324E-02 +3.39112605956E-03 +6.69782035505E-03 +3.73567489780E-03 +6.87733911975E-03 -2.46112617541E-01 -2.38223100881E-01
3.00000000000E+09 -3.11009936346E-01 -4.52894626285E-02 +4.00849621100E-03 +6.07844646424E-03 +4.34193663831E-03 +5.92475875606E-03 -2.76468607918E-01 -2.07014903389E-01
3.00500000000E+09 -3.22563339282E-01 -1.09698864197E-02 +5.19954057301E-03 +6.34361494971E-03 +5.17559442199E-03 +5.90130005198E-03 -3.05477912415E-01 -1.73087388719E-01
3.01000000000E+09 -3.31819128539E-01 +2.26209318131E-02 +6.49892566058E-03 +5.04386339151E-03 +6.21337825452E-03 +4.89818647805E-03 -3.30563022406E-01 -1.37430604850E-01
3.01500000000E+09 -3.38521276750E-01 +5.52984043316E-02 +7.09804642816E-03 +3.68565809758E-03 +6.82548084899E-03 +3.87646177598E-03 -3.53758664114E-01 -1.01323054348E-01
3.02000000000E+09 -3.42524103244E-01 +8.81151765282E-02 +7.19818565039E-03 +2.52381886768E-03 +7.23178375598E-03 +2.76537656050E-03 -3.72861604719E-01 -6.34454756058E-02
3.02500000000E+09 -3.43489509785E-01 +1.20885971168E-01 +6.95050189111E-03 +1.96430783143E-03 +7.02501461884E-03 +2.04990846880E-03 -3.88669717065E-01 -2.57455331508E-02
3.03000000000E+09 -3.40614865467E-01 +1.53363229156E-01 +7.44358268135E-03 +1.53513343734E-03 +7.48108610480E-03 +1.61786347204E-03 -4.03633523533E-01 +1.27620391235E-02
3.03500000000E+09 -3.35206342303E-01 +1.83787520396E-01 +8.47494554961E-03 +5.66539396067E-04 +8.50264579465E-03 +6.81981256373E-04 -4.15685362765E-01 +5.34040676259E-02
3.04000000000E+09 -3.27958002463E-01 +2.14890659417E-01 +8.67150167706E-03 -1.61343162924E-03 +8.94835940810E-03 -1.37237412112E-03 -4.23969187618E-01 +9.46122069685E-02
3.04500000000E+09 -3.18891778432E-01 +2.43975165588E-01 +7.70290037469E-03 -3.00655019951E-03 +8.19245246799E-03 -3.10382558748E-03 -4.28707024539E-01 +1.35857156340E-01
3.05000000000E+09 -3.08979468509E-01 +2.73300315146E-01 +6.70566492640E-03 -4.06319709475E-03 +6.93078121194E-03 -4.55124562242E-03 -4.29691950875E-01 +1.73954617404E-01
3.05500000000E+09 -2.97415319376E-01 +3.01886081199E-01 +5.66380545678E-03 -4.11927615197E-03 +5.47654231670E-03 -4.55948834378E-03 -4.31667034689E-01 +2.11082180022E-01
3.06000000000E+09 -2.84676995148E-01 +3.29947823203E-01 +5.62821989401E-03 -4.69726277983E-03 +5.20486677447E-03 -4.79278976558E-03 -4.30118710440E-01 +2.50413245255E-01
3.06500000000E+09 -2.70338707743E-01 +3.55923157580E-01 +4.91836547461E-03 -5.81901072452E-03 +4.67401703906E-03 -5.48113551054E-03 -4.24724339294E-01 +2.88238418111E-01
3.07000000000E+09 -2.56005593797E-01 +3.80382292140E-01 +3.48078897374E-03 -6.34485467676E-03 +3.76973948268E-03 -6.02072976468E-03 -4.17256755644E-01 +3.23683655169E-01
