# Hz S RI R 50
! CMT, C1220, 16058040, 17.2.0/1
! Date: 15/08/2018 09:55:39
! Data: Format (Calibration Info)
! Freq                      S11: Re/Im (F2)                       S21: Re/Im (F2)                       S12: Re/Im (F2)                       S22: Re/Im (F2)            
2.50000000000E+09 +5.96956954831E-01 +6.32214809388E-01 -2.91270874622E-04 -8.40393727451E-04 -2.67266789367E-04 -9.40152531343E-04 +5.77569625086E-01 +7.13820199298E-01
2.50500000000E+09 +6.03179945363E-01 +6.25060079345E-01 -3.57451351992E-04 -8.59213665724E-04 -4.14743356704E-04 -8.68745667132E-04 +5.83149417979E-01 +7.08254731875E-01
2.51000000000E+09 +6.09675048468E-01 +6.17631670875E-01 -4.46595255249E-04 -8.33999985591E-04 -4.93659353137E-04 -8.06134392007E-04 +5.88785995461E-01 +7.03004398415E-01
2.51500000000E+09 +6.16289894137E-01 +6.10082687981E-01 -5.77306146891E-04 -8.24716895022E-04 -5.87733797818E-04 -7.78511581046E-04 +5.94007513350E-01 +6.97688083404E-01
2.52000000000E+09 +6.22473594686E-01 +6.02284048648E-01 -6.50796959784E-04 -7.42112494665E-04 -6.50470940797E-04 -7.47037205415E-04 +5.99091075257E-01 +6.91808876468E-01
2.52500000000E+09 +6.28002058264E-01 +5.94822166064E-01 -7.81512251367E-04 -6.53307990729E-04 -7.60421505426E-04 -7.21727756883E-04 +6.04931961484E-01 +6.85208799511E-01
2.53000000000E+09 +6.33234226754E-01 +5.87559553882E-01 -7.85315229970E-04 -5.14408325957E-04 -8.24527357748E-04 -5.84899272426E-04 +6.10915529541E-01 +6.77954794745E-01
2.53500000000E+09 +6.38117457540E-01 +5.80661958092E-01 -7.83043568133E-04 -4.51035858020E-04 -7.88993703499E-04 -5.31172933389E-04 +6.16830695440E-01 +6.70955656685E-01
2.54000000000E+09 +6.42791550412E-01 +5.73868704938E-01 -8.45508878648E-04 -4.68814092662E-04 -8.45982399711E-04 -4.88843562215E-04 +6.22765878097E-01 +6.64270015822E-01
2.54500000000E+09 +6.47324961629E-01 +5.67266665735E-01 -9.33551530187E-04 -4.48451597123E-04 -9.15030350755E-04 -4.73432618869E-04 +6.28748349452E-01 +6.57804311397E-01
2.55000000000E+09 +6.52142326651E-01 +5.60423854936E-01 -1.00380894857E-03 -3.39405621844E-04 -9.85374817642E-04 -4.71022596513E-04 +6.33829380105E-01 +6.51534103573E-01
2.55500000000E+09 +6.57049975051E-01 +5.53032947412E-01 -1.04247546161E-03 -2.04018750351E-04 -1.19294938199E-03 -2.93737505072E-04 +6.39035932418E-01 +6.45142023137E-01
2.56000000000E+09 +6.62715969582E-01 +5.45850217500E-01 -1.04330409587E-03 -9.35960750702E-05 -1.25449648921E-03 -6.01467448230E-05 +6.44088822550E-01 +6.37844060078E-01
2.56500000000E+09 +6.68723237402E-01 +5.37759205478E-01 -9.91487088940E-04 -1.07916224604E-04 -1.06976675107E-03 +1.06858790961E-04 +6.49359516169E-01 +6.30262817718E-01
2.57000000000E+09 +6.75068246594E-01 +5.29477815575E-01 -1.04557199371E-03 -1.57210103689E-04 -1.06042530733E-03 +1.29471267701E-04 +6.54806196191E-01 +6.22123430195E-01
2.57500000000E+09 +6.81353184648E-01 +5.20752433766E-01 -1.29306994514E-03 -6.01911452186E-05 -1.09846386197E-03 +1.35989676703E-04 +6.60340842092E-01 +6.14379136006E-01
2.58000000000E+09 +6.87408935229E-01 +5.11989632641E-01 -1.33781487561E-03 +2.09266282198E-04 -1.15405533393E-03 +1.93917760869E-04 +6.65460249988E-01 +6.06837154444E-01
2.58500000000E+09 +6.92831603188E-01 +5.03100363994E-01 -1.25361147018E-03 +4.31234102430E-04 -1.10764967290E-03 +3.16163459122E-04 +6.70379574085E-01 +5.99302902822E-01
2.59000000000E+09 +6.97958114226E-01 +4.94713492496E-01 -1.18653881667E-03 +5.19933049696E-04 -1.12499317852E-03 +4.07846591249E-04 +6.75073599892E-01 +5.91712358530E-01
2.59500000000E+09 +7.02970194156E-01 +4.86210999750E-01 -1.16109097892E-03 +5.84911349463E-04 -1.23273188784E-03 +5.08461180609E-04 +6.79726729281E-01 +5.83705222502E-01
2.60000000000E+09 +7.07475488297E-01 +4.77596567131E-01 -1.15468037172E-03 +6.28653029889E-04 -1.21460044305E-03 +6.22096384596E-04 +6.84586252543E-01 +5.75061416658E-01
2.60500000000E+09 +7.11963416443E-01 +4.68578074622E-01 -1.23642777203E-03 +8.47535141986E-04 -1.22687628254E-03 +8.54399163892E-04 +6.89580812309E-01 +5.66124187131E-01
2.61000000000E+09 +7.16315412904E-01 +4.58857448893E-01 -1.13461883196E-03 +1.23386888064E-03 -1.15888099583E-03 +1.18432207362E-03 +6.94550617566E-01 +5.57119443113E-01
2.61500000000E+09 +7.20751786853E-01 +4.48568300368E-01 -7.67881579498E-04 +1.36437825650E-03 -7.65449921209E-04 +1.38356067764E-03 +6.99364480855E-01 +5.48593671158E-01
2.62000000000E+09 +7.25006300271E-01 +4.37298537617E-01 -5.02047503137E-04 +1.27018812717E-03 -5.61966448902E-04 +1.35977738369E-03 +7.04412880163E-01 +5.39694061729E-01
2.62500000000E+09 +7.29335659110E-01 +4.25319680553E-01 -4.60910806789E-04 +1.17715099468E-03 -3.10958182480E-04 +1.26786881338E-03 +7.08846755662E-01 +5.30684323404E-01
2.63000000000E+09 +7.33360335725E-01 +4.12784810610E-01 -4.20677023078E-04 +1.11568197074E-03 -2.82656509100E-04 +1.14742412341E-03 +7.13382617500E-01 +5.21783379128E-01
2.63500000000E+09 +7.37009739832E-01 +4.00079978518E-01 -5.46054399673E-04 +1.16677930782E-03 -4.05603094283E-04 +1.11827942227E-03 +7.18065580521E-01 +5.12494871588E-01
2.64000000000E+09 +7.40559191690E-01 +3.87696546459E-01 -4.85059123703E-04 +1.49027050378E-03 -3.93908697661E-04 +1.30561668750E-03 +7.22792893368E-01 +5.02692264074E-01
2.64500000000E+09 +7.44385016311E-01 +3.75775556565E-01 -1.20298344381E-04 +1.56972513240E-03 -1.94533987213E-04 +1.34201723700E-03 +7.27381165799E-01 +4.92814876879E-01
2.65000000000E+09 +7.47853808664E-01 +3.63863861564E-01 +3.24584715813E-05 +1.46309085833E-03 -9.21035697150E-05 +1.41427128915E-03 +7.31790814263E-01 +4.82588338939E-01
2.65500000000E+09 +7.51037778842E-01 +3.51876917085E-01 +8.91968936918E-05 +1.31978947357E-03 -3.77615435236E-05 +1.36125442106E-03 +7.35593503816E-01 +4.72543356844E-01
2.66000000000E+09 +7.53918553325E-01 +3.39876294020E-01 +7.44347343796E-06 +1.46347743270E-03 +1.07411503608E-05 +1.60742759322E-03 +7.39790756111E-01 +4.61772438376E-01
2.66500000000E+09 +7.56629259734E-01 +3.28125080938E-01 +2.79965160678E-04 +1.56755350395E-03 +4.44069422782E-04 +1.60487258842E-03 +7.44484399893E-01 +4.50492137596E-01
2.67000000000E+09 +7.59149103153E-01 +3.15759954828E-01 +3.24229138070E-04 +1.53422083048E-03 +5.02123827733E-04 +1.46399417492E-03 +7.48591398924E-01 +4.38971593177E-01
2.67500000000E+09 +7.61167256176E-01 +3.02542755397E-01 +5.82398902105E-04 +1.60944104073E-03 +5.59365628632E-04 +1.49001184326E-03 +7.52441964045E-01 +4.27474855555E-01
2.68000000000E+09 +7.62585781173E-01 +2.88897584056E-01 +7.15863044228E-04 +1.42777057669E-03 +6.44518884422E-04 +1.35566650527E-03 +7.56049187888E-01 +4.16158341304E-01
2.68500000000E+09 +7.63416726396E-01 +2.74993505814E-01 +6.90217867873E-04 +1.48782390812E-03 +6.33464321819E-04 +1.47383281725E-03 +7.59089287274E-01 +4.04714112835E-01
2.69000000000E+09 +7.64175677807E-01 +2.61156447415E-01 +9.03871310330E-04 +1.64377624684E-03 +8.97142825538E-04 +1.63242463133E-03 +7.61889508998E-01 +3.92769395507E-01
2.69500000000E+09 +7.65151963236E-01 +2.47212277151E-01 +1.29664073646E-03 +1.53524413118E-03 +1.23056595551E-03 +1.46393987391E-03 +7.64464912866E-01 +3.79890428358E-01
2.70000000000E+09 +7.66159509780E-01 +2.32937937879E-01 +1.48777633467E-03 +1.40407523156E-03 +1.41742334803E-03 +1.34991503702E-03 +7.66973077483E-01 +3.66318722208E-01
2.70500000000E+09 +7.66890763803E-01 +2.18695917547E-01 +1.73536016852E-03 +1.04486718471E-03 +1.65620961998E-03 +1.12138009289E-03 +7.69401280921E-01 +3.52813652801E-01
2.71000000000E+09 +7.67856012797E-01 +2.04634696445E-01 +1.58914601645E-03 +8.41022152526E-04 +1.62024030461E-03 +9.47083296694E-04 +7.72331721834E-01 +3.39677975357E-01
2.71500000000E+09 +7.69135925773E-01 +1.90198936346E-01 +1.50197446093E-03 +7.87845735147E-04 +1.57312093224E-03 +8.77962778638E-04 +7.74695791573E-01 +3.26715800860E-01
2.72000000000E+09 +7.70232377385E-01 +1.75255980140E-01 +1.55356592308E-03 +8.80560031172E-04 +1.73955430998E-03 +8.07248249517E-04 +7.76392697799E-01 +3.13856975671E-01
2.72500000000E+09 +7.70820746601E-01 +1.59855874463E-01 +1.84158488454E-03 +8.75670432936E-04 +1.88711175853E-03 +7.06579882634E-04 +7.77231186061E-01 +3.00623721489E-01
2.73000000000E+09 +7.70445952064E-01 +1.43842730539E-01 +2.05326003867E-03 +7.73275708099E-04 +1.94337276410E-03 +5.89044998691E-04 +7.78413826092E-01 +2.87001635048E-01
2.73500000000E+09 +7.69115804683E-01 +1.27283156757E-01 +2.20885614393E-03 +4.74191791508E-04 +1.95786631156E-03 +4.14908611516E-04 +7.79478247336E-01 +2.72157006161E-01
2.74000000000E+09 +7.66866191859E-01 +1.10598231665E-01 +2.24608636815E-03 +3.55758675619E-04 +1.99929113466E-03 +4.45640258200E-04 +7.80643874187E-01 +2.56528756421E-01
2.74500000000E+09 +7.63641369905E-01 +9.39149379687E-02 +2.41337015714E-03 +2.38591630735E-04 +2.26262710860E-03 +4.82533162730E-04 +7.81163461268E-01 +2.41208203173E-01
2.75000000000E+09 +7.59889462136E-01 +7.70115773410E-02 +2.71460048066E-03 +7.59681830557E-05 +2.83170005801E-03 +3.33421436946E-04 +7.81661041379E-01 +2.26143588461E-01
2.75500000000E+09 +7.55286442734E-01 +5.96742826951E-02 +2.82991770083E-03 -5.07427030887E-04 +3.03975382948E-03 -3.51336364489E-04 +7.81151514210E-01 +2.11313756760E-01
2.76000000000E+09 +7.50370234345E-01 +4.23123886241E-02 +2.76667924926E-03 -7.33410736773E-04 +2.95021706730E-03 -7.78585095633E-04 +7.80659142767E-01 +1.96249121976E-01
2.76500000000E+09 +7.44979706378E-01 +2.50805713031E-02 +2.84203169262E-03 -1.05340603445E-03 +2.94426716080E-03 -1.19921429425E-03 +7.79756485336E-01 +1.79643705704E-01
2.77000000000E+09 +7.40183080929E-01 +7.18992471588E-03 +2.93769304494E-03 -1.43063425222E-03 +3.07705595890E-03 -1.59163666919E-03 +7.77870048484E-01 +1.61770132891E-01
2.77500000000E+09 +7.35193552672E-01 -1.13650160185E-02 +2.70123107142E-03 -2.09445138626E-03 +2.76469795183E-03 -2.31574957136E-03 +7.75003879235E-01 +1.44013287461E-01
2.78000000000E+09 +7.30120620326E-01 -3.10807378517E-02 +2.42066573601E-03 -2.28154203870E-03 +2.36059761744E-03 -2.50626493574E-03 +7.73114937340E-01 +1.26817001413E-01
2.78500000000E+09 +7.23506703020E-01 -5.14833074138E-02 +2.15331700924E-03 -2.61776316602E-03 +1.92731296925E-03 -2.73910264760E-03 +7.70852419717E-01 +1.09371416426E-01
2.79000000000E+09 +7.15915093096E-01 -7.18219327664E-02 +2.03650342541E-03 -2.86285410199E-03 +1.79632211568E-03 -2.83079055079E-03 +7.67970146740E-01 +9.18789443015E-02
2.79500000000E+09 +7.07494521288E-01 -9.10790562252E-02 +1.82541975154E-03 -3.44451912366E-03 +1.67273299925E-03 -3.28081601831E-03 +7.63404238610E-01 +7.40548602342E-02
2.80000000000E+09 +6.98718322768E-01 -1.10566822637E-01 +1.13414403734E-03 -3.73498510347E-03 +1.14817363773E-03 -3.56345547514E-03 +7.58002909991E-01 +5.63148744482E-02
2.80500000000E+09 +6.88560595144E-01 -1.29805092287E-01 +4.94660233801E-04 -3.80841911879E-03 +6.35270499847E-04 -3.76343976285E-03 +7.52567401838E-01 +3.83643173290E-02
2.81000000000E+09 +6.77119889263E-01 -1.47989497546E-01 +2.66912050751E-04 -3.59001906168E-03 +3.07897708323E-04 -3.70841130924E-03 +7.46730085577E-01 +1.85020956843E-02
2.81500000000E+09 +6.64791964399E-01 -1.65350073185E-01 -1.69065905957E-04 -3.72023696138E-03 -2.24426658575E-04 -3.81910628504E-03 +7.39434333145E-01 -1.45054456615E-03
2.82000000000E+09 +6.51666117580E-01 -1.82549450055E-01 -4.64804735653E-04 -3.76799591995E-03 -6.06420467555E-04 -3.75152826934E-03 +7.31357693095E-01 -2.09685360869E-02
2.82500000000E+09 +6.37409478444E-01 -1.99658494047E-01 -9.39100380312E-04 -3.93246255096E-03 -1.08429882155E-03 -3.73884521324E-03 +7.22830096427E-01 -4.00466377869E-02
2.83000000000E+09 +6.21657378589E-01 -2.17700164575E-01 -1.76877781071E-03 -3.55819204964E-03 -1.63660681632E-03 -3.37061024275E-03 +7.13667976017E-01 -5.93011411125E-02
2.83500000000E+09 +6.03596744995E-01 -2.35996178930E-01 -1.76406989888E-03 -2.94950000541E-03 -1.62295376694E-03 -2.89224873725E-03 +7.04051456335E-01 -7.92892773311E-02
2.84000000000E+09 +5.83625445792E-01 -2.53705711376E-01 -1.54323625080E-03 -3.08752396671E-03 -1.42971802199E-03 -3.04786632995E-03 +6.92697635571E-01 -1.00314169899E-01
2.84500000000E+09 +5.62179141354E-01 -2.71346970339E-01 -2.19769199736E-03 -3.38219183754E-03 -2.16535628480E-03 -3.51540843670E-03 +6.79793901309E-01 -1.21185233713E-01
2.85000000000E+09 +5.39496882821E-01 -2.89109401737E-01 -2.64298516071E-03 -3.27532195993E-03 -2.62773015461E-03 -3.27548123612E-03 +6.65749842810E-01 -1.41467655894E-01
2.85500000000E+09 +5.15358841840E-01 -3.06240544262E-01 -3.30638172445E-03 -2.97038521929E-03 -3.27472827696E-03 -2.99628560323E-03 +6.51726744597E-01 -1.61583653318E-01
2.86000000000E+09 +4.90499690833E-01 -3.22809482968E-01 -3.78995442876E-03 -2.48803377807E-03 -3.70597282130E-03 -2.47354885811E-03 +6.35700962166E-01 -1.83097897996E-01
2.86500000000E+09 +4.64685730370E-01 -3.38900814689E-01 -4.00519850184E-03 -1.81595105517E-03 -4.05813179440E-03 -1.79313713267E-03 +6.17904648826E-01 -2.03477889285E-01
2.87000000000E+09 +4.37560854689E-01 -3.53090859295E-01 -4.04560962573E-03 -1.28478833790E-03 -4.07836748865E-03 -1.29559159549E-03 +5.98941543959E-01 -2.23529743605E-01
2.87500000000E+09 +4.10672010501E-01 -3.64981727916E-01 -4.00550499326E-03 -1.02805641882E-03 -3.99580261181E-03 -9.08755483191E-04 +5.78700986071E-01 -2.43071455932E-01
2.88000000000E+09 +3.84112517952E-01 -3.75993600409E-01 -4.05731266994E-03 -8.62935116022E-04 -3.96998821240E-03 -7.15452671857E-04 +5.57101207952E-01 -2.62144019090E-01
2.88500000000E+09 +3.56830511910E-01 -3.86047024680E-01 -4.44372516854E-03 -5.91977298099E-04 -4.24196829018E-03 -5.50720954749E-04 +5.34358096272E-01 -2.81224124023E-01
2.89000000000E+09 +3.28258059960E-01 -3.94469755568E-01 -4.72026730233E-03 -9.58889573331E-06 -4.40694372834E-03 -8.58870606629E-05 +5.08204485966E-01 -2.99472820039E-01
2.89500000000E+09 +2.98394369544E-01 -4.01451966657E-01 -4.78892324153E-03 +6.75935074113E-04 -4.68677960189E-03 +4.40160199991E-04 +4.80499752840E-01 -3.16168787102E-01
2.90000000000E+09 +2.67042017452E-01 -4.06226696220E-01 -4.64724868443E-03 +1.30487561468E-03 -4.67194750444E-03 +1.18166336040E-03 +4.51932718647E-01 -3.31294326039E-01
2.90500000000E+09 +2.33874805549E-01 -4.08690656811E-01 -4.29250511515E-03 +1.63413026061E-03 -4.31942912168E-03 +1.66888561534E-03 +4.23368854361E-01 -3.46415124618E-01
2.91000000000E+09 +1.99623134088E-01 -4.08628065513E-01 -4.43240108319E-03 +2.14278878992E-03 -4.30336150848E-03 +2.23431151237E-03 +3.91883410794E-01 -3.61167592103E-01
2.91500000000E+09 +1.65123385705E-01 -4.05443300536E-01 -4.05326730988E-03 +2.63654168781E-03 -3.79019500861E-03 +2.56192302252E-03 +3.59021671917E-01 -3.72934014568E-01
2.92000000000E+09 +1.30428692439E-01 -4.00366141101E-01 -3.66450728568E-03 +2.70948952288E-03 -3.49719520264E-03 +2.47698379407E-03 +3.25316098802E-01 -3.81862523975E-01
2.92500000000E+09 +9.68846100056E-02 -3.93367235870E-01 -3.90814337530E-03 +2.95065399848E-03 -3.85901402967E-03 +2.69469533335E-03 +2.90663985381E-01 -3.89628036944E-01
2.93000000000E+09 +6.33817938560E-02 -3.85674477770E-01 -3.97508941860E-03 +3.89864622875E-03 -4.14674794643E-03 +3.60071265986E-03 +2.54473113538E-01 -3.95707448461E-01
2.93500000000E+09 +2.91984750635E-02 -3.76387788293E-01 -3.32995065617E-03 +4.88247597417E-03 -3.55483291153E-03 +4.75151006477E-03 +2.16104670743E-01 -4.01322849323E-01
2.94000000000E+09 -5.08744729557E-03 -3.64053618265E-01 -2.31215063826E-03 +5.23249488287E-03 -2.42103682224E-03 +5.16386691839E-03 +1.75861294935E-01 -4.02948983081E-01
2.94500000000E+09 -3.81974470462E-02 -3.48346859828E-01 -1.90809305521E-03 +4.86571466746E-03 -2.04148114784E-03 +4.77644601970E-03 +1.36935311786E-01 -4.02313011196E-01
2.95000000000E+09 -6.93360847255E-02 -3.29999286412E-01 -1.91001506067E-03 +5.80535205546E-03 -2.18403100622E-03 +5.67937899543E-03 +9.82743511510E-02 -3.99489228684E-01
2.95500000000E+09 -9.77948385953E-02 -3.09724542484E-01 -5.71048550861E-04 +6.14254465693E-03 -8.08272250661E-04 +6.23892387464E-03 +5.87800048173E-02 -3.94799992757E-01
2.96000000000E+09 -1.26389845453E-01 -2.88439614617E-01 +1.24134917233E-04 +5.97065229504E-03 +5.27190651586E-05 +6.26906345270E-03 +1.75932812626E-02 -3.86505126127E-01
2.96500000000E+09 -1.53533061428E-01 -2.63813268276E-01 +8.57366598076E-04 +5.69113129418E-03 +9.91777930820E-04 +5.91964602716E-03 -2.38715709156E-02 -3.74311794194E-01
2.97000000000E+09 -1.79519358400E-01 -2.36541208416E-01 +8.77739473396E-04 +5.28861090578E-03 +1.09353308464E-03 +5.24315120212E-03 -6.44068281756E-02 -3.58843836630E-01
2.97500000000E+09 -2.03035098408E-01 -2.06741640356E-01 +9.51286359575E-04 +6.16679283567E-03 +9.36477619499E-04 +5.98990524897E-03 -1.04559998907E-01 -3.41180710867E-01
2.98000000000E+09 -2.24257080986E-01 -1.75689150098E-01 +2.73248692922E-03 +6.54801359397E-03 +2.52111922480E-03 +6.40357494087E-03 -1.42749303390E-01 -3.20213768577E-01
2.98500000000E+09 -2.43447347116E-01 -1.44211739244E-01 +3.54502567337E-03 +5.57175651078E-03 +3.29212632691E-03 +5.78721179699E-03 -1.79742636453E-01 -2.97744014341E-01
2.99000000000E+09 -2.61760776558E-01 -1.12621560833E-01 +4.10298871587E-03 +5.10389878506E-03 +4.17700552447E-03 +5.42534298264E-03 -2.15707852307E-01 -2.70311044641E-01
2.99500000000E+09 -2.78449775934E-01 -7.94253411255E-02 +4.51923547358E-03 +4.72092180794E-03 +4.80929903579E-03 +4.81212265596E-03 -2.47642675818E-01 -2.40077311970E-01
3.00000000000E+09 -2.92880543147E-01 -4.56017304825E-02 +4.75182485593E-03 +4.59201814544E-03 +4.98970906996E-03 +4.29088936425E-03 -2.77968309165E-01 -2.08954961923E-01
3.00500000000E+09 -3.03877874590E-01 -1.23310921873E-02 +6.11154530313E-03 +5.18788569598E-03 +6.02875603307E-03 +4.83609858526E-03 -3.07925853926E-01 -1.75647474387E-01
3.01000000000E+09 -3.12514439458E-01 +2.00906038272E-02 +7.95436117093E-03 +3.17196514892E-03 +7.58253669437E-03 +3.17701510421E-03 -3.34001312239E-01 -1.39670737416E-01
3.01500000000E+09 -3.19246894222E-01 +5.12124017120E-02 +7.72678849122E-03 +1.33815534516E-03 +7.58695174834E-03 +1.68410641117E-03 -3.58098210190E-01 -1.02382712446E-01
3.02000000000E+09 -3.23924815912E-01 +8.29174445485E-02 +7.27414597627E-03 +3.68274402656E-04 +7.40774559357E-03 +6.01888691096E-04 -3.77324975303E-01 -6.35299864055E-02
3.02500000000E+09 -3.25264524373E-01 +1.14964421423E-01 +6.97347270074E-03 +1.69835061101E-04 +7.14384136808E-03 +2.14076023040E-04 -3.92743142657E-01 -2.49317152649E-02
3.03000000000E+09 -3.22682712361E-01 +1.46073059603E-01 +7.62005583157E-03 -2.84362369718E-04 +7.63375456711E-03 -2.90655542661E-04 -4.07194507650E-01 +1.37099211163E-02
3.03500000000E+09 -3.17821828399E-01 +1.75211905206E-01 +8.53917581173E-03 -1.74939230484E-03 +8.53150262199E-03 -1.59731002961E-03 -4.19036899233E-01 +5.47700537052E-02
3.04000000000E+09 -3.11383190095E-01 +2.04891655658E-01 +7.74582527773E-03 -4.16250868558E-03 +8.07179045860E-03 -4.01985331527E-03 -4.26971006311E-01 +9.62288878783E-02
3.04500000000E+09 -3.02976325005E-01 +2.32845953745E-01 +6.14225630439E-03 -4.75229240666E-03 +6.49835149844E-03 -4.92160857885E-03 -4.31762510012E-01 +1.37318344309E-01
3.05000000000E+09 -2.93663555238E-01 +2.61270577249E-01 +5.58833556610E-03 -5.05289335674E-03 +5.70700878391E-03 -5.60282573034E-03 -4.33755561468E-01 +1.76107718859E-01
3.05500000000E+09 -2.82673876616E-01 +2.89118771158E-01 +5.09217791481E-03 -5.49724357152E-03 +4.76924647231E-03 -5.93739066548E-03 -4.35336843544E-01 +2.15144489624E-01
3.06000000000E+09 -2.70251510332E-01 +3.16492380111E-01 +4.50348412475E-03 -6.69690572268E-03 +4.10622971786E-03 -6.72039031737E-03 -4.32545158759E-01 +2.55196256436E-01
3.06500000000E+09 -2.56675436430E-01 +3.41869320831E-01 +2.88176126497E-03 -7.43176791065E-03 +2.83829531362E-03 -7.03439382691E-03 -4.25771860203E-01 +2.92919192721E-01
3.07000000000E+09 -2.43455989667E-01 +3.65749655008E-01 +1.25743564349E-03 -7.37018292465E-03 +1.58459584827E-03 -7.21202302312E-03 -4.17518568727E-01 +3.27444014814E-01
