# Hz S RI R 50
! CMT, C1220, 16058040, 17.2.0/1
! Date: 15/08/2018 09:58:44
! Data: Format (Calibration Info)
! Freq                      S11: Re/Im (F2)                       S21: Re/Im (F2)                       S12: Re/Im (F2)                       S22: Re/Im (F2)            
2.50000000000E+09 +5.97444520771E-01 +6.34251282821E-01 -6.65156018666E-05 -9.64219682005E-04 -2.59550646890E-05 -1.02707968566E-03 +5.77332071096E-01 +7.14196231309E-01
2.50500000000E+09 +6.03681115032E-01 +6.26740813014E-01 -1.37946339317E-04 -9.43784935149E-04 -2.03116322538E-04 -1.05798777869E-03 +5.82903296089E-01 +7.08725057771E-01
2.51000000000E+09 +6.10385526073E-01 +6.19085588122E-01 -2.12436418534E-04 -9.96142413557E-04 -2.75535376507E-04 -9.40190731967E-04 +5.88509901582E-01 +7.03301575587E-01
2.51500000000E+09 +6.16905492989E-01 +6.11405586178E-01 -2.92853455282E-04 -1.10216097785E-03 -3.12759740262E-04 -1.06486001579E-03 +5.93690751707E-01 +6.97882118701E-01
2.52000000000E+09 +6.23112220165E-01 +6.03520345299E-01 -5.52833479265E-04 -1.06308648113E-03 -5.20027115171E-04 -1.12512678929E-03 +5.98698954942E-01 +6.91965668138E-01
2.52500000000E+09 +6.28745017198E-01 +5.95986280028E-01 -7.24774096503E-04 -9.21070228457E-04 -6.88919533325E-04 -9.70382882625E-04 +6.04327464653E-01 +6.85472246561E-01
2.53000000000E+09 +6.33818216598E-01 +5.89021821919E-01 -7.79606507264E-04 -7.22622297218E-04 -7.40974576597E-04 -7.76586765314E-04 +6.10362712553E-01 +6.78312530490E-01
2.53500000000E+09 +6.38493775403E-01 +5.82470759919E-01 -6.38218544261E-04 -7.08091500077E-04 -6.32248031120E-04 -7.25252778435E-04 +6.16174812649E-01 +6.71255415166E-01
2.54000000000E+09 +6.43007649327E-01 +5.75885723853E-01 -7.53921693004E-04 -7.52867504233E-04 -7.10999632192E-04 -8.32474218975E-04 +6.22047590003E-01 +6.64621788131E-01
2.54500000000E+09 +6.47456149025E-01 +5.69334872711E-01 -8.96529689709E-04 -7.46145943364E-04 -8.59103470090E-04 -8.05449195525E-04 +6.27996807800E-01 +6.58212205122E-01
2.55000000000E+09 +6.51995402553E-01 +5.62525892729E-01 -1.04352120688E-03 -6.40534511814E-04 -1.05821212295E-03 -7.60386749967E-04 +6.33133972145E-01 +6.51953275825E-01
2.55500000000E+09 +6.56982091631E-01 +5.55059691127E-01 -1.13993265852E-03 -4.74947983138E-04 -1.32687279110E-03 -5.19895931732E-04 +6.38276637985E-01 +6.45665334329E-01
2.56000000000E+09 +6.62476364910E-01 +5.47561127573E-01 -1.01235435314E-03 -2.60670043696E-04 -1.26661780889E-03 -2.01793639077E-04 +6.43419746542E-01 +6.38334670422E-01
2.56500000000E+09 +6.68454846798E-01 +5.39228502667E-01 -9.50018649373E-04 -3.44128603484E-04 -1.06369482906E-03 -1.64750193801E-04 +6.48699475185E-01 +6.30697467837E-01
2.57000000000E+09 +6.74816015345E-01 +5.30668748972E-01 -1.07881874807E-03 -4.97780327779E-04 -1.10176878674E-03 -2.33743389606E-04 +6.54245248261E-01 +6.22770836965E-01
2.57500000000E+09 +6.81053232442E-01 +5.21610614675E-01 -1.32221062877E-03 -3.88651674342E-04 -1.21443290230E-03 -1.58774419385E-04 +6.59747677440E-01 +6.14948074188E-01
2.58000000000E+09 +6.86746405968E-01 +5.12844497832E-01 -1.45514144021E-03 -4.68405873939E-05 -1.20108271650E-03 +7.11071466650E-06 +6.64845943684E-01 +6.07390501654E-01
2.58500000000E+09 +6.92405586672E-01 +5.04088546178E-01 -1.35583992318E-03 +1.77228377338E-04 -1.15462149860E-03 +1.01360009355E-04 +6.69586631346E-01 +5.99783558223E-01
2.59000000000E+09 +6.97511427661E-01 +4.95757905754E-01 -1.18733084344E-03 +1.91856073819E-04 -1.17893904936E-03 +9.74577799184E-05 +6.74397224553E-01 +5.92299483274E-01
2.59500000000E+09 +7.02354613386E-01 +4.87662221395E-01 -1.27665394854E-03 +1.80555311925E-04 -1.28093449424E-03 +1.12872996494E-04 +6.79014491726E-01 +5.84151790384E-01
2.60000000000E+09 +7.06971603986E-01 +4.79206972446E-01 -1.39330968794E-03 +2.22322723002E-04 -1.45942854866E-03 +1.70345724091E-04 +6.84119129703E-01 +5.75524716444E-01
2.60500000000E+09 +7.11372117996E-01 +4.70331805835E-01 -1.60693327681E-03 +5.55226430003E-04 -1.50033598573E-03 +5.14323259653E-04 +6.88988985910E-01 +5.66474257161E-01
2.61000000000E+09 +7.15870867254E-01 +4.60783535873E-01 -1.42540556832E-03 +9.38108439654E-04 -1.42594936376E-03 +9.00418676226E-04 +6.93910168698E-01 +5.57530963386E-01
2.61500000000E+09 +7.20252238617E-01 +4.50339576276E-01 -1.13637320392E-03 +1.05088888401E-03 -1.16239808769E-03 +1.02791588621E-03 +6.98515558215E-01 +5.49134249210E-01
2.62000000000E+09 +7.24492827265E-01 +4.39017314978E-01 -1.01162067691E-03 +1.05843775222E-03 -1.06079865985E-03 +1.08706813004E-03 +7.03469792025E-01 +5.40142406022E-01
2.62500000000E+09 +7.28658817186E-01 +4.26913593724E-01 -9.69685028076E-04 +1.06311926618E-03 -9.54042027721E-04 +1.20043572512E-03 +7.07994228955E-01 +5.31262759507E-01
2.63000000000E+09 +7.32521715865E-01 +4.14392184343E-01 -8.92446541732E-04 +1.07238567191E-03 -8.01393249881E-04 +1.17670413061E-03 +7.12354025614E-01 +5.22382397865E-01
2.63500000000E+09 +7.36056600241E-01 +4.01825212892E-01 -1.02731410224E-03 +1.12371016270E-03 -8.19153338429E-04 +1.13301787530E-03 +7.17160814174E-01 +5.13141204055E-01
2.64000000000E+09 +7.39584495027E-01 +3.89555664784E-01 -9.24133187163E-04 +1.49831418900E-03 -7.60876365007E-04 +1.36435739254E-03 +7.21798048767E-01 +5.03429355026E-01
2.64500000000E+09 +7.43064411697E-01 +3.77663471354E-01 -5.83373957603E-04 +1.56926863279E-03 -6.20032936182E-04 +1.37362837928E-03 +7.26696850876E-01 +4.93806128560E-01
2.65000000000E+09 +7.46257657269E-01 +3.66192506732E-01 -4.30598388134E-04 +1.47970002628E-03 -5.91845719086E-04 +1.37307111607E-03 +7.31087198722E-01 +4.83539650537E-01
2.65500000000E+09 +7.49521774876E-01 +3.54558794301E-01 -3.89045373259E-04 +1.42482974425E-03 -5.54447845158E-04 +1.46036633453E-03 +7.34777610028E-01 +4.73267192678E-01
2.66000000000E+09 +7.52497734837E-01 +3.42788128628E-01 -4.22642570672E-04 +1.59132499835E-03 -4.52896199993E-04 +1.70692388132E-03 +7.38946444595E-01 +4.62629183237E-01
2.66500000000E+09 +7.55188681121E-01 +3.31289824354E-01 -2.85840228793E-04 +1.69386552757E-03 -2.17586119827E-04 +1.76243806543E-03 +7.43543889016E-01 +4.51379764908E-01
2.67000000000E+09 +7.57764358125E-01 +3.18924300740E-01 -1.92584175738E-04 +1.85014276937E-03 -5.19313711272E-06 +1.82875412036E-03 +7.47598785923E-01 +4.39964505655E-01
2.67500000000E+09 +7.59822870761E-01 +3.05712375726E-01 +2.03282053172E-04 +1.94598805823E-03 +2.05268701715E-04 +1.80573974968E-03 +7.51529106362E-01 +4.28419345033E-01
2.68000000000E+09 +7.61293812484E-01 +2.92127741976E-01 +3.67248804620E-04 +1.74364378456E-03 +3.18939618268E-04 +1.68641102817E-03 +7.55168795253E-01 +4.17078885204E-01
2.68500000000E+09 +7.62301633268E-01 +2.78099071260E-01 +3.31796610159E-04 +1.75509588792E-03 +3.32791890049E-04 +1.75498873651E-03 +7.58192597188E-01 +4.05759549477E-01
2.69000000000E+09 +7.63069572674E-01 +2.64219265880E-01 +4.72503569032E-04 +1.90386105961E-03 +5.28621611164E-04 +1.94107697302E-03 +7.60987230450E-01 +3.94091084649E-01
2.69500000000E+09 +7.63949309813E-01 +2.50279132073E-01 +6.99141333859E-04 +1.91255436385E-03 +7.24480237557E-04 +1.85053049222E-03 +7.63814488497E-01 +3.81161402371E-01
2.70000000000E+09 +7.64845215991E-01 +2.36202038048E-01 +9.29617485393E-04 +1.95599202030E-03 +9.10443045263E-04 +1.93940929723E-03 +7.66175542838E-01 +3.67650250329E-01
2.70500000000E+09 +7.65587504185E-01 +2.22462529848E-01 +1.39270989472E-03 +1.86478028322E-03 +1.27627428293E-03 +1.83357976139E-03 +7.68564645892E-01 +3.54116619827E-01
2.71000000000E+09 +7.66551705276E-01 +2.09085880618E-01 +1.48392730288E-03 +1.60510702917E-03 +1.38296981640E-03 +1.69577274621E-03 +7.71531083327E-01 +3.41141731958E-01
2.71500000000E+09 +7.68196652390E-01 +1.94986243509E-01 +1.52769073611E-03 +1.47428444180E-03 +1.57732441329E-03 +1.57683264413E-03 +7.73943199522E-01 +3.28223356960E-01
2.72000000000E+09 +7.69255506471E-01 +1.80335329736E-01 +1.56305154877E-03 +1.44455365387E-03 +1.74825105210E-03 +1.42856734810E-03 +7.75793006634E-01 +3.15419057472E-01
2.72500000000E+09 +7.69738205854E-01 +1.65082493104E-01 +1.80791407965E-03 +1.34732792799E-03 +1.90968717258E-03 +1.13506634299E-03 +7.76899216763E-01 +3.02211447692E-01
2.73000000000E+09 +7.69530958688E-01 +1.49425811051E-01 +1.85737356097E-03 +1.26613292931E-03 +1.75622823248E-03 +1.03078168615E-03 +7.77981117627E-01 +2.88485234472E-01
2.73500000000E+09 +7.68484502962E-01 +1.32867777778E-01 +2.04256774761E-03 +1.28033270713E-03 +1.80600785448E-03 +1.11144804604E-03 +7.79127537004E-01 +2.73862338426E-01
2.74000000000E+09 +7.66147011229E-01 +1.16409454660E-01 +2.33094281181E-03 +1.16159542410E-03 +1.97733915018E-03 +1.24521681949E-03 +7.80396409393E-01 +2.58362882723E-01
2.74500000000E+09 +7.63348428610E-01 +9.96746736220E-02 +2.59448472122E-03 +1.14099213105E-03 +2.29496860286E-03 +1.46107292617E-03 +7.80951713482E-01 +2.42921835847E-01
2.75000000000E+09 +7.59880093056E-01 +8.26499458405E-02 +3.11363939640E-03 +7.88440770537E-04 +3.04413963926E-03 +1.20526270671E-03 +7.81504978864E-01 +2.28106785618E-01
2.75500000000E+09 +7.55535702520E-01 +6.53841669890E-02 +3.18496535610E-03 +1.96460831402E-04 +3.38807245843E-03 +4.04514420633E-04 +7.81346460901E-01 +2.13037191460E-01
2.76000000000E+09 +7.51119503864E-01 +4.82166060280E-02 +3.10035539882E-03 -4.55883036638E-05 +3.30410353659E-03 +5.66936038005E-05 +7.80620053839E-01 +1.98023986080E-01
2.76500000000E+09 +7.46542155639E-01 +3.09719562324E-02 +3.37568251543E-03 -2.66629538362E-04 +3.59486612875E-03 -3.25005903636E-04 +7.79803585147E-01 +1.81593736892E-01
2.77000000000E+09 +7.42013177848E-01 +1.31886618378E-02 +3.45327136619E-03 -8.23627757853E-04 +3.57384306196E-03 -9.62673157739E-04 +7.78469527711E-01 +1.63928253505E-01
2.77500000000E+09 +7.37396352953E-01 -5.17699435379E-03 +3.25416103401E-03 -1.28323584719E-03 +3.35685548699E-03 -1.43637643079E-03 +7.75732444541E-01 +1.46103041493E-01
2.78000000000E+09 +7.32486564396E-01 -2.46940315151E-02 +3.19862462844E-03 -1.47702115030E-03 +3.18772816434E-03 -1.76010653194E-03 +7.73806370273E-01 +1.28741780669E-01
2.78500000000E+09 +7.26334807687E-01 -4.49455596253E-02 +3.13832964873E-03 -1.87072239008E-03 +3.02966054256E-03 -2.03432696943E-03 +7.71550546438E-01 +1.11119788503E-01
2.79000000000E+09 +7.19641994937E-01 -6.52849394872E-02 +3.19595582937E-03 -2.26089125476E-03 +2.94411163800E-03 -2.32743058531E-03 +7.68777286587E-01 +9.39276371032E-02
2.79500000000E+09 +7.11697137747E-01 -8.56468953156E-02 +3.07238886550E-03 -2.99132284229E-03 +2.90428178668E-03 -2.83467817766E-03 +7.64683479286E-01 +7.58158869359E-02
2.80000000000E+09 +7.02597036568E-01 -1.05603756947E-01 +2.50923395811E-03 -3.61428079936E-03 +2.52669660234E-03 -3.36986683806E-03 +7.59366831355E-01 +5.76455202431E-02
2.80500000000E+09 +6.92492228745E-01 -1.25005685122E-01 +1.72874716741E-03 -3.83336839352E-03 +1.87602174996E-03 -3.78420003516E-03 +7.53719290244E-01 +3.95989457351E-02
2.81000000000E+09 +6.81479555589E-01 -1.43547951645E-01 +1.44808623754E-03 -3.67462650274E-03 +1.52731481868E-03 -3.74424248709E-03 +7.48166660542E-01 +2.02681040632E-02
2.81500000000E+09 +6.69572633181E-01 -1.61356402304E-01 +1.09105874768E-03 -3.84076031748E-03 +9.92958152738E-04 -3.95329766992E-03 +7.41356567416E-01 +2.30473982496E-04
2.82000000000E+09 +6.56959344852E-01 -1.79128358079E-01 +9.57984345591E-04 -4.06411038603E-03 +7.44080449414E-04 -4.03426200563E-03 +7.33770623867E-01 -1.98999249868E-02
2.82500000000E+09 +6.43075529640E-01 -1.97003795801E-01 +4.76116737564E-04 -4.36391445144E-03 +2.51007348911E-04 -4.26438328513E-03 +7.25050355959E-01 -3.96145865292E-02
2.83000000000E+09 +6.27400357731E-01 -2.15291452357E-01 -1.57077247088E-04 -4.47894302633E-03 -1.67069462270E-04 -4.24329367249E-03 +7.15526361213E-01 -5.94104551992E-02
2.83500000000E+09 +6.10101847234E-01 -2.33774368475E-01 -7.21586826312E-04 -4.28492827545E-03 -5.98775656131E-04 -4.12038627825E-03 +7.05572313137E-01 -7.92459656770E-02
2.84000000000E+09 +5.90599243070E-01 -2.52072766923E-01 -8.56232260682E-04 -4.20308368147E-03 -7.53979525715E-04 -4.15109575863E-03 +6.94497943900E-01 -1.00546047108E-01
2.84500000000E+09 +5.69448958293E-01 -2.70295131504E-01 -1.44357351451E-03 -4.34837246127E-03 -1.34518308366E-03 -4.40615628320E-03 +6.81454864058E-01 -1.21663064522E-01
2.85000000000E+09 +5.47040740300E-01 -2.88462077888E-01 -1.74468848999E-03 -4.39848917383E-03 -1.82682213727E-03 -4.38051166871E-03 +6.67112100975E-01 -1.42369953368E-01
2.85500000000E+09 +5.23096156987E-01 -3.06298736024E-01 -2.64937451853E-03 -4.40962033419E-03 -2.61164507841E-03 -4.27651785716E-03 +6.52493261762E-01 -1.62196332338E-01
2.86000000000E+09 +4.98063427301E-01 -3.23593939990E-01 -3.23955703772E-03 -3.87844456552E-03 -3.18729288586E-03 -3.86402309584E-03 +6.36812422209E-01 -1.83514876401E-01
2.86500000000E+09 +4.72419035000E-01 -3.40034562003E-01 -3.68173917932E-03 -3.28186562603E-03 -3.67657622919E-03 -3.33087149978E-03 +6.18780517197E-01 -2.04084100689E-01
2.87000000000E+09 +4.45518812350E-01 -3.55566181135E-01 -3.72100423627E-03 -2.87056981889E-03 -3.84401144547E-03 -2.92468516457E-03 +5.99710460554E-01 -2.24124343953E-01
2.87500000000E+09 +4.18174212356E-01 -3.68999575721E-01 -3.88640958842E-03 -2.59010313437E-03 -3.97919027246E-03 -2.46488084129E-03 +5.79100979693E-01 -2.43672662531E-01
2.88000000000E+09 +3.91168729074E-01 -3.80886315152E-01 -4.18129913692E-03 -2.65598513781E-03 -4.17215451937E-03 -2.43824293916E-03 +5.57293767208E-01 -2.62600280072E-01
2.88500000000E+09 +3.63577213828E-01 -3.91716333054E-01 -5.01211572659E-03 -2.29541712809E-03 -4.78063385437E-03 -2.05036697459E-03 +5.34766458658E-01 -2.81046171982E-01
2.89000000000E+09 +3.34829244637E-01 -4.01332302048E-01 -5.37303153314E-03 -1.52668807036E-03 -4.99641106518E-03 -1.55215591081E-03 +5.09422475401E-01 -2.99544996526E-01
2.89500000000E+09 +3.04660866164E-01 -4.09197969624E-01 -5.50491674953E-03 -5.37220288556E-04 -5.32061518811E-03 -7.75798457434E-04 +4.81768680959E-01 -3.16609039318E-01
2.90000000000E+09 +2.72640096732E-01 -4.15423892493E-01 -5.23676606532E-03 -1.66972885232E-04 -5.25918792014E-03 -3.62278338435E-04 +4.53108545851E-01 -3.32241768230E-01
2.90500000000E+09 +2.38064049648E-01 -4.19113805615E-01 -5.34932360021E-03 +8.82338118139E-05 -5.44375335400E-03 -3.89776970627E-05 +4.24283880358E-01 -3.47196957282E-01
2.91000000000E+09 +2.02246348381E-01 -4.19177991132E-01 -5.88316565207E-03 +5.67048049209E-04 -5.86368039581E-03 +6.77292599837E-04 +3.93095493724E-01 -3.62391874436E-01
2.91500000000E+09 +1.66587163538E-01 -4.16195772756E-01 -5.81755667188E-03 +1.70356290844E-03 -5.51033608808E-03 +1.76618811883E-03 +3.60065619623E-01 -3.75005703516E-01
2.92000000000E+09 +1.30651695760E-01 -4.11328518227E-01 -5.40882209653E-03 +2.19512803011E-03 -5.08851707166E-03 +1.98340394258E-03 +3.25179098822E-01 -3.84817249807E-01
2.92500000000E+09 +9.56705591349E-02 -4.05045392227E-01 -5.25705157437E-03 +2.63516776811E-03 -5.09256922105E-03 +2.27714634217E-03 +2.89361669694E-01 -3.92061094608E-01
2.93000000000E+09 +6.01511016845E-02 -3.97578117770E-01 -5.34328121743E-03 +3.23675905981E-03 -5.40865117066E-03 +2.87123802483E-03 +2.52540246923E-01 -3.97105710974E-01
2.93500000000E+09 +2.44821023066E-02 -3.88277740932E-01 -5.07310126644E-03 +4.19846719762E-03 -5.24343977259E-03 +4.01160120142E-03 +2.14456781352E-01 -4.01947253209E-01
2.94000000000E+09 -1.13258611063E-02 -3.76066317667E-01 -4.49358372214E-03 +4.81370384873E-03 -4.58378104770E-03 +4.72249634312E-03 +1.74529712994E-01 -4.03689479051E-01
2.94500000000E+09 -4.55509407625E-02 -3.60753155994E-01 -3.96157755735E-03 +5.38503801265E-03 -4.10332156360E-03 +5.23247746845E-03 +1.34900793732E-01 -4.03187033903E-01
2.95000000000E+09 -7.80986713009E-02 -3.42697239356E-01 -3.27566144402E-03 +6.09328775703E-03 -3.52489680159E-03 +6.00035489470E-03 +9.55984229559E-02 -3.99360577863E-01
2.95500000000E+09 -1.08217909024E-01 -3.22257202066E-01 -2.21103474482E-03 +6.19127379404E-03 -2.48643784905E-03 +6.31311455994E-03 +5.63701080358E-02 -3.93805431469E-01
2.96000000000E+09 -1.37854736059E-01 -3.00125444793E-01 -1.97235938292E-03 +6.27166250025E-03 -2.19701836374E-03 +6.55799254981E-03 +1.55625805852E-02 -3.85020266471E-01
2.96500000000E+09 -1.65806784070E-01 -2.75011224598E-01 -1.19501997108E-03 +6.87808920538E-03 -1.10380867774E-03 +7.19089279652E-03 -2.53601665724E-02 -3.72338383522E-01
2.97000000000E+09 -1.92888765457E-01 -2.46992544222E-01 -4.87022461210E-04 +6.84473891795E-03 -2.81207853248E-04 +6.84549678613E-03 -6.55727573039E-02 -3.56366209192E-01
2.97500000000E+09 -2.17321166160E-01 -2.16261986802E-01 +5.94795377358E-05 +7.17013217519E-03 +1.70860720905E-04 +6.96289221346E-03 -1.04376840709E-01 -3.38336916955E-01
2.98000000000E+09 -2.40422072633E-01 -1.84110723058E-01 +1.28787955055E-03 +7.28123814982E-03 +1.08857020576E-03 +7.19084677923E-03 -1.41683976383E-01 -3.17832508701E-01
2.98500000000E+09 -2.60857166328E-01 -1.50347602617E-01 +1.82028876570E-03 +7.05885265014E-03 +1.54999780273E-03 +7.18482772876E-03 -1.78183757999E-01 -2.96247836763E-01
2.99000000000E+09 -2.79326502668E-01 -1.16976865985E-01 +2.71137319517E-03 +7.31737999537E-03 +2.73975527542E-03 +7.68074511802E-03 -2.14513632305E-01 -2.69615575808E-01
2.99500000000E+09 -2.96602480013E-01 -8.29187164002E-02 +4.20343612172E-03 +7.10365533718E-03 +4.55578321061E-03 +7.25500575928E-03 -2.46787637908E-01 -2.39185525056E-01
3.00000000000E+09 -3.12136889873E-01 -4.80250535067E-02 +4.78869527702E-03 +6.34265857130E-03 +5.12818663163E-03 +6.07028058431E-03 -2.77229097752E-01 -2.08138994966E-01
3.00500000000E+09 -3.23844755523E-01 -1.34034964718E-02 +5.88491639030E-03 +6.39828815172E-03 +5.83414374651E-03 +5.90464491207E-03 -3.06580129395E-01 -1.74406795980E-01
3.01000000000E+09 -3.33082685225E-01 +2.01467717777E-02 +7.19419951739E-03 +4.99093113690E-03 +6.80340313019E-03 +4.81365289757E-03 -3.32298696823E-01 -1.38758973436E-01
3.01500000000E+09 -3.39825034496E-01 +5.29048410783E-02 +7.67197380663E-03 +3.66406976787E-03 +7.39942389888E-03 +3.83514839466E-03 -3.56152849260E-01 -1.02188599009E-01
3.02000000000E+09 -3.44268908012E-01 +8.57889841788E-02 +7.73239078863E-03 +2.53677194111E-03 +7.73033704609E-03 +2.79780010598E-03 -3.75437073955E-01 -6.35633791645E-02
3.02500000000E+09 -3.45414156421E-01 +1.18890854937E-01 +7.55259350870E-03 +2.00973635566E-03 +7.67091571856E-03 +2.03197313342E-03 -3.91082152935E-01 -2.52509648655E-02
3.03000000000E+09 -3.42595348470E-01 +1.51827543638E-01 +8.12103402506E-03 +1.53841430488E-03 +8.15713943301E-03 +1.54659013345E-03 -4.05677401770E-01 +1.36364863431E-02
3.03500000000E+09 -3.37222817073E-01 +1.82362096643E-01 +9.20932485212E-03 +3.33522482562E-04 +9.15145466788E-03 +4.71357715074E-04 -4.17559563924E-01 +5.42843344701E-02
3.04000000000E+09 -3.29945283685E-01 +2.13663529363E-01 +9.19237497972E-03 -1.97305964387E-03 +9.40089224391E-03 -1.70124335704E-03 -4.26003130714E-01 +9.59903739343E-02
3.04500000000E+09 -3.21058984381E-01 +2.43072218744E-01 +8.15240620670E-03 -3.15954414617E-03 +8.58646976060E-03 -3.21648798082E-03 -4.30507006268E-01 +1.37640898945E-01
3.05000000000E+09 -3.11042995082E-01 +2.72667096786E-01 +7.40551384567E-03 -4.19945874048E-03 +7.61593340755E-03 -4.60124703923E-03 -4.31052298934E-01 +1.76321451041E-01
3.05500000000E+09 -2.99540728247E-01 +3.01350993592E-01 +6.42941659195E-03 -4.54765598519E-03 +6.26311487878E-03 -4.98215513267E-03 -4.32059235739E-01 +2.13855170790E-01
3.06000000000E+09 -2.86758887159E-01 +3.29630099533E-01 +6.22599466412E-03 -5.34901549696E-03 +5.73989990210E-03 -5.38218697164E-03 -4.29892594360E-01 +2.52782118488E-01
3.06500000000E+09 -2.72475088092E-01 +3.55785486602E-01 +5.36111040533E-03 -6.65259351816E-03 +5.10786897760E-03 -6.22068517828E-03 -4.24049870607E-01 +2.90348512035E-01
3.07000000000E+09 -2.57990546816E-01 +3.80432134163E-01 +3.61361817568E-03 -7.22710714363E-03 +4.02868082251E-03 -6.84860753569E-03 -4.16176565054E-01 +3.25176888270E-01
