# Hz S RI R 50
! CMT, C1220, 16058040, 17.2.0/1
! Date: 15/08/2018 09:55:57
! Data: Format (Calibration Info)
! Freq                      S11: Re/Im (F2)                       S21: Re/Im (F2)                       S12: Re/Im (F2)                       S22: Re/Im (F2)            
2.50000000000E+09 +5.96982189801E-01 +6.33542319271E-01 -1.19654574975E-04 -9.31072787963E-04 -1.60104555520E-04 -1.04436979109E-03 +5.77498555016E-01 +7.13529145870E-01
2.50500000000E+09 +6.03176044322E-01 +6.26407554892E-01 -2.24817171545E-04 -1.01627604805E-03 -2.90266569025E-04 -1.01489085061E-03 +5.83031800789E-01 +7.08001515904E-01
2.51000000000E+09 +6.09743544032E-01 +6.18909269029E-01 -3.61039929488E-04 -9.92715130411E-04 -4.00913626136E-04 -9.18715545578E-04 +5.88676422753E-01 +7.02777505936E-01
2.51500000000E+09 +6.16233190877E-01 +6.11592160809E-01 -4.80918828710E-04 -1.04276505945E-03 -4.58575126700E-04 -9.28057687514E-04 +5.93888935427E-01 +6.97333298220E-01
2.52000000000E+09 +6.22600651886E-01 +6.03626100116E-01 -6.26508653045E-04 -8.98559789810E-04 -5.57221347599E-04 -8.98794601417E-04 +5.98881005445E-01 +6.91371676558E-01
2.52500000000E+09 +6.28118699588E-01 +5.95990703946E-01 -6.52105792036E-04 -7.96726852178E-04 -6.58125995549E-04 -8.46554465558E-04 +6.04510332165E-01 +6.84961980546E-01
2.53000000000E+09 +6.33455042971E-01 +5.88659489034E-01 -7.51458670215E-04 -7.25986286614E-04 -8.08161271663E-04 -7.07081684197E-04 +6.10562070453E-01 +6.77776524111E-01
2.53500000000E+09 +6.38308307292E-01 +5.81698924228E-01 -7.50544780266E-04 -6.94715634461E-04 -7.53584441282E-04 -6.15485916178E-04 +6.16460630418E-01 +6.70642878713E-01
2.54000000000E+09 +6.43029098573E-01 +5.74836479076E-01 -7.88102727133E-04 -6.81409255427E-04 -7.67777396140E-04 -6.84874263682E-04 +6.22291732049E-01 +6.64077733249E-01
2.54500000000E+09 +6.47748104157E-01 +5.68099692071E-01 -9.22368453008E-04 -6.36400606366E-04 -8.80968362660E-04 -7.12369895589E-04 +6.28229568129E-01 +6.57605593659E-01
2.55000000000E+09 +6.52596648347E-01 +5.61313215687E-01 -1.07292922395E-03 -5.03589279750E-04 -1.14506631944E-03 -6.20030867197E-04 +6.33393734324E-01 +6.51562296386E-01
2.55500000000E+09 +6.57649338123E-01 +5.53943486232E-01 -1.09664082577E-03 -3.15033388927E-04 -1.28789520470E-03 -3.93282422626E-04 +6.38470577946E-01 +6.45095973447E-01
2.56000000000E+09 +6.63147490675E-01 +5.46882136784E-01 -1.01507883385E-03 -1.84271229847E-04 -1.21635065905E-03 -8.59448073900E-05 +6.43491268083E-01 +6.37872918090E-01
2.56500000000E+09 +6.69305623450E-01 +5.38933144625E-01 -9.06525100246E-04 -2.10205274280E-04 -1.05631870198E-03 -3.25978324217E-05 +6.48745088896E-01 +6.30373572664E-01
2.57000000000E+09 +6.75539229225E-01 +5.30660998257E-01 -1.05569891588E-03 -3.78791211202E-04 -1.09424045410E-03 -1.62322863481E-04 +6.54317960030E-01 +6.22485051827E-01
2.57500000000E+09 +6.81964351480E-01 +5.21747090020E-01 -1.37770617173E-03 -2.42458463762E-04 -1.20245122940E-03 -3.25276335270E-05 +6.59954111736E-01 +6.14722300011E-01
2.58000000000E+09 +6.87740901021E-01 +5.12991796777E-01 -1.41053025082E-03 +1.90500725392E-04 -1.21621253305E-03 +1.92357646234E-04 +6.65012824021E-01 +6.07147609425E-01
2.58500000000E+09 +6.93358193702E-01 +5.04076320104E-01 -1.24122386446E-03 +3.72263633700E-04 -1.08451687586E-03 +2.52971527754E-04 +6.69859813609E-01 +5.99722458627E-01
2.59000000000E+09 +6.98536001906E-01 +4.95542632777E-01 -1.13037319060E-03 +3.26591554484E-04 -1.09873935033E-03 +2.80208767306E-04 +6.74647836616E-01 +5.92270500206E-01
2.59500000000E+09 +7.03561634428E-01 +4.86775494464E-01 -1.11865101859E-03 +3.49527516502E-04 -1.17982319766E-03 +3.22311805944E-04 +6.79401167040E-01 +5.84183953914E-01
2.60000000000E+09 +7.07951703371E-01 +4.78095732793E-01 -1.23494044490E-03 +4.26052940284E-04 -1.27117739120E-03 +3.94120252996E-04 +6.84362691445E-01 +5.75510190368E-01
2.60500000000E+09 +7.12562282140E-01 +4.68969049909E-01 -1.34283722147E-03 +6.02954328821E-04 -1.27632350508E-03 +6.50412851753E-04 +6.89381650553E-01 +5.66501279757E-01
2.61000000000E+09 +7.16849314570E-01 +4.59125753508E-01 -1.26176118459E-03 +9.61807345859E-04 -1.25240458553E-03 +9.27497983683E-04 +6.94532303176E-01 +5.57629221463E-01
2.61500000000E+09 +7.21302415057E-01 +4.48736491281E-01 -9.72815677816E-04 +1.10121991352E-03 -1.03689611450E-03 +1.12024152173E-03 +6.99316235010E-01 +5.49144354037E-01
2.62000000000E+09 +7.25580471374E-01 +4.37435211062E-01 -8.12231920436E-04 +1.06330338231E-03 -8.41527395226E-04 +1.11036654012E-03 +7.04319076377E-01 +5.40060892852E-01
2.62500000000E+09 +7.29796259048E-01 +4.25474543712E-01 -7.24494523796E-04 +1.05690384001E-03 -6.83806668423E-04 +1.14145698172E-03 +7.08925052745E-01 +5.31074341975E-01
2.63000000000E+09 +7.33818980989E-01 +4.13020838079E-01 -6.56935256687E-04 +9.83013775235E-04 -4.94967067387E-04 +1.01229771442E-03 +7.13295418595E-01 +5.22083752017E-01
2.63500000000E+09 +7.37445872395E-01 +4.00406175044E-01 -8.46698725925E-04 +1.01850942858E-03 -6.53156445244E-04 +9.85184142839E-04 +7.18093799611E-01 +5.12843848227E-01
2.64000000000E+09 +7.40947676362E-01 +3.87999993972E-01 -7.85166647961E-04 +1.33195546829E-03 -6.38716765600E-04 +1.16219583530E-03 +7.22791398495E-01 +5.03199318367E-01
2.64500000000E+09 +7.44786300548E-01 +3.75938191610E-01 -5.00893735190E-04 +1.40919331594E-03 -5.20710952073E-04 +1.21302919564E-03 +7.27459195946E-01 +4.93235100465E-01
2.65000000000E+09 +7.47915144930E-01 +3.64075954009E-01 -3.47609980709E-04 +1.37984687697E-03 -5.24323371890E-04 +1.30338730422E-03 +7.31826484640E-01 +4.83144929370E-01
2.65500000000E+09 +7.51227287623E-01 +3.51959606415E-01 -3.37904174872E-04 +1.35762270891E-03 -5.08658999211E-04 +1.34235044366E-03 +7.35637952484E-01 +4.72792549480E-01
2.66000000000E+09 +7.54098987968E-01 +3.40006211879E-01 -3.34388021258E-04 +1.48604134465E-03 -3.84735746451E-04 +1.60824706523E-03 +7.39705135753E-01 +4.62199182877E-01
2.66500000000E+09 +7.56879857113E-01 +3.28203146999E-01 -1.70185839715E-04 +1.61463059227E-03 -1.20827652895E-04 +1.65183950272E-03 +7.44303742896E-01 +4.51121365179E-01
2.67000000000E+09 +7.59314223148E-01 +3.15729688790E-01 -8.02379029280E-05 +1.63250319904E-03 -2.01058717485E-05 +1.58977010275E-03 +7.48547938964E-01 +4.39705299412E-01
2.67500000000E+09 +7.61446958689E-01 +3.02646009355E-01 +2.06535083667E-04 +1.72988517545E-03 +1.92747238122E-04 +1.62444749348E-03 +7.52645707250E-01 +4.28316871437E-01
2.68000000000E+09 +7.62833595301E-01 +2.89007508830E-01 +3.54346329983E-04 +1.61186536070E-03 +3.14331142443E-04 +1.49947815160E-03 +7.56384481662E-01 +4.16953771516E-01
2.68500000000E+09 +7.63563744101E-01 +2.74967741933E-01 +2.85381905250E-04 +1.68919963027E-03 +1.74372521003E-04 +1.61927824444E-03 +7.59498534345E-01 +4.05556600431E-01
2.69000000000E+09 +7.64126767616E-01 +2.61164967501E-01 +5.30391878334E-04 +1.85537726111E-03 +5.05528506941E-04 +1.82969228047E-03 +7.62426131290E-01 +3.93532973331E-01
2.69500000000E+09 +7.64979260723E-01 +2.47067022336E-01 +8.09323109564E-04 +1.78277845808E-03 +7.85365858499E-04 +1.74957919013E-03 +7.65237803641E-01 +3.80574580691E-01
2.70000000000E+09 +7.65703527368E-01 +2.32753158025E-01 +1.02336215823E-03 +1.81885430574E-03 +9.80850628034E-04 +1.73434807010E-03 +7.67796958141E-01 +3.66906991333E-01
2.70500000000E+09 +7.66243034255E-01 +2.18578417889E-01 +1.38121553835E-03 +1.49071537767E-03 +1.26346949355E-03 +1.49067648656E-03 +7.70282648071E-01 +3.53231381580E-01
2.71000000000E+09 +7.67254584831E-01 +2.04575643850E-01 +1.34438544784E-03 +1.30333289585E-03 +1.32007987718E-03 +1.36941837132E-03 +7.73136151401E-01 +3.40071850530E-01
2.71500000000E+09 +7.68483303452E-01 +1.89910545879E-01 +1.26929297439E-03 +1.17090532141E-03 +1.31825959291E-03 +1.25894702031E-03 +7.75686579926E-01 +3.27045650174E-01
2.72000000000E+09 +7.69274112240E-01 +1.74936287279E-01 +1.23178399368E-03 +1.26193953416E-03 +1.37332970585E-03 +1.28263961833E-03 +7.77648951018E-01 +3.14032974476E-01
2.72500000000E+09 +7.69704124021E-01 +1.59655833847E-01 +1.38363442724E-03 +1.41497168877E-03 +1.52404411697E-03 +1.21959370099E-03 +7.78444359358E-01 +3.00439097837E-01
2.73000000000E+09 +7.69359388870E-01 +1.43833938910E-01 +1.65622932285E-03 +1.40047475960E-03 +1.57585391091E-03 +1.14527379564E-03 +7.79416625899E-01 +2.86557470880E-01
2.73500000000E+09 +7.68203057860E-01 +1.27422652975E-01 +1.94451790269E-03 +1.24293045831E-03 +1.66969335466E-03 +1.11931025414E-03 +7.80394537502E-01 +2.71538787895E-01
2.74000000000E+09 +7.65901763902E-01 +1.11030828633E-01 +2.10520690748E-03 +1.23681691687E-03 +1.80439959047E-03 +1.27970828103E-03 +7.81439698968E-01 +2.55933960063E-01
2.74500000000E+09 +7.62611650266E-01 +9.44684998882E-02 +2.41903012714E-03 +1.19564303104E-03 +2.12483486530E-03 +1.42299420173E-03 +7.81818419542E-01 +2.40537868790E-01
2.75000000000E+09 +7.58692646107E-01 +7.77536570271E-02 +2.87742660651E-03 +8.78316626727E-04 +2.83331912232E-03 +1.22123652774E-03 +7.82285332868E-01 +2.25433626987E-01
2.75500000000E+09 +7.54113118150E-01 +6.06685726251E-02 +3.00000786425E-03 +3.84001406512E-04 +3.20148838104E-03 +5.65722871479E-04 +7.81742455383E-01 +2.10396894126E-01
2.76000000000E+09 +7.49211790136E-01 +4.34092427026E-02 +3.02407256602E-03 +1.93773123784E-04 +3.23403523341E-03 +2.34386437656E-04 +7.80993439768E-01 +1.95547190527E-01
2.76500000000E+09 +7.43815240089E-01 +2.60973807266E-02 +3.29348852225E-03 -8.79594248733E-05 +3.49125314569E-03 -1.23079307195E-04 +7.79898950266E-01 +1.79058408236E-01
2.77000000000E+09 +7.38822442030E-01 +8.29621287159E-03 +3.54288686390E-03 -5.28829537978E-04 +3.67464246317E-03 -6.32877620552E-04 +7.78334250549E-01 +1.61231087415E-01
2.77500000000E+09 +7.33865406273E-01 -1.03179417348E-02 +3.56446463446E-03 -1.22112967662E-03 +3.62528893091E-03 -1.41679723432E-03 +7.75283661482E-01 +1.43262462596E-01
2.78000000000E+09 +7.28768542691E-01 -2.97977834945E-02 +3.32583359047E-03 -1.65821163532E-03 +3.29784102906E-03 -1.91687662702E-03 +7.73213607171E-01 +1.26174383191E-01
2.78500000000E+09 +7.22240704423E-01 -5.00952116363E-02 +3.03632550365E-03 -2.04767155921E-03 +2.84280847321E-03 -2.26118395344E-03 +7.71016472087E-01 +1.08753756495E-01
2.79000000000E+09 +7.14933077677E-01 -7.03734519181E-02 +3.00039372571E-03 -2.29988815316E-03 +2.74860906694E-03 -2.33769996957E-03 +7.68330803857E-01 +9.14393238874E-02
2.79500000000E+09 +7.06468847708E-01 -8.99029484215E-02 +2.87758555800E-03 -3.01913544440E-03 +2.69864991613E-03 -2.81835886048E-03 +7.64027377005E-01 +7.32519013786E-02
2.80000000000E+09 +6.97662244206E-01 -1.09100205258E-01 +2.25097907255E-03 -3.43749278241E-03 +2.28843248214E-03 -3.25501574253E-03 +7.58410192347E-01 +5.51287332880E-02
2.80500000000E+09 +6.87725605757E-01 -1.28098613138E-01 +1.52491926572E-03 -3.59430033517E-03 +1.69904984274E-03 -3.46686558667E-03 +7.52543305776E-01 +3.71309583625E-02
2.81000000000E+09 +6.76383349241E-01 -1.46407020309E-01 +1.40099115814E-03 -3.31622976709E-03 +1.51430226200E-03 -3.39458283808E-03 +7.46674344067E-01 +1.74283248867E-02
2.81500000000E+09 +6.63896103162E-01 -1.63539646423E-01 +1.18992712751E-03 -3.65153516483E-03 +1.10494509483E-03 -3.76468457408E-03 +7.39505380549E-01 -2.65651042609E-03
2.82000000000E+09 +6.50942221903E-01 -1.80826394150E-01 +9.98555980148E-04 -3.83196576757E-03 +8.85099177708E-04 -3.93367374056E-03 +7.31244194501E-01 -2.27296841777E-02
2.82500000000E+09 +6.36204940948E-01 -1.97897966447E-01 +4.84327270953E-04 -4.28584319328E-03 +3.80034095511E-04 -4.11593942570E-03 +7.21996953586E-01 -4.21066244660E-02
2.83000000000E+09 +6.20216316467E-01 -2.15574715142E-01 -2.91335160620E-04 -4.18007511589E-03 -2.90667669454E-04 -3.97498419827E-03 +7.12284684863E-01 -6.10803767703E-02
2.83500000000E+09 +6.02329539397E-01 -2.33756774816E-01 -4.56820649850E-04 -3.57735461507E-03 -3.31610416036E-04 -3.51251635492E-03 +7.02169438913E-01 -8.06009531284E-02
2.84000000000E+09 +5.82184859504E-01 -2.51669006696E-01 -1.34399000589E-04 -3.81761964208E-03 -2.14601853254E-05 -3.81926402957E-03 +6.90737218905E-01 -1.01202550108E-01
2.84500000000E+09 +5.60559947015E-01 -2.68778905914E-01 -7.50632970740E-04 -4.50534596871E-03 -6.99413804174E-04 -4.55369940315E-03 +6.77670589748E-01 -1.21741429349E-01
2.85000000000E+09 +5.38121244046E-01 -2.86111334218E-01 -1.34289541214E-03 -4.67775206675E-03 -1.37289330848E-03 -4.72365305625E-03 +6.63454889058E-01 -1.41799644003E-01
2.85500000000E+09 +5.14443168874E-01 -3.02907488848E-01 -2.32555582867E-03 -4.57554792897E-03 -2.35901764579E-03 -4.51869068545E-03 +6.49171156374E-01 -1.61148517344E-01
2.86000000000E+09 +4.89976549811E-01 -3.19264924363E-01 -2.90562081393E-03 -4.37864192292E-03 -2.84936242156E-03 -4.33480210979E-03 +6.33795026364E-01 -1.82188045176E-01
2.86500000000E+09 +4.64759016773E-01 -3.35057599582E-01 -3.62642828524E-03 -3.70860553473E-03 -3.61656468218E-03 -3.83427288362E-03 +6.16268083355E-01 -2.02453014066E-01
2.87000000000E+09 +4.37841548382E-01 -3.49407399195E-01 -3.98773918849E-03 -3.23705652441E-03 -4.03544782667E-03 -3.26868369361E-03 +5.97160752797E-01 -2.22317289216E-01
2.87500000000E+09 +4.10960015661E-01 -3.61173338983E-01 -4.09445019567E-03 -2.75341828876E-03 -4.18291200465E-03 -2.61323612665E-03 +5.77179813140E-01 -2.41431285603E-01
2.88000000000E+09 +3.84937616851E-01 -3.71671666960E-01 -4.20384032846E-03 -2.62126945192E-03 -4.19141257734E-03 -2.43101211243E-03 +5.55808461714E-01 -2.60318340220E-01
2.88500000000E+09 +3.58255458388E-01 -3.81848675824E-01 -4.81007478401E-03 -2.36997598731E-03 -4.50007392525E-03 -2.19594438548E-03 +5.33641001847E-01 -2.78757103863E-01
2.89000000000E+09 +3.29937974219E-01 -3.90770203762E-01 -5.11526112867E-03 -2.03722973076E-03 -4.78899410752E-03 -2.00938426395E-03 +5.08136189959E-01 -2.97434844566E-01
2.89500000000E+09 +3.00119671362E-01 -3.97775049109E-01 -5.75891189813E-03 -1.28242925603E-03 -5.45560008708E-03 -1.56383632465E-03 +4.80826860411E-01 -3.14359601728E-01
2.90000000000E+09 +2.68739840874E-01 -4.02869270154E-01 -5.99211698208E-03 -5.31463544609E-04 -6.01461219779E-03 -7.49440897266E-04 +4.52190855703E-01 -3.29954396598E-01
2.90500000000E+09 +2.35615616448E-01 -4.05303607393E-01 -5.93434810312E-03 +1.88352477762E-04 -6.02526692409E-03 +1.64555988805E-04 +4.23671791093E-01 -3.44767503878E-01
2.91000000000E+09 +2.01938262388E-01 -4.05361156715E-01 -6.04901784217E-03 +8.63408652393E-04 -6.03239805570E-03 +9.62260930626E-04 +3.92595729183E-01 -3.59769117801E-01
2.91500000000E+09 +1.67535037999E-01 -4.02630085334E-01 -5.79135681226E-03 +1.78164954787E-03 -5.48896876203E-03 +1.76761914658E-03 +3.59909260309E-01 -3.72335379900E-01
2.92000000000E+09 +1.32659171709E-01 -3.97504508473E-01 -5.35632542372E-03 +1.73621825069E-03 -5.05787906793E-03 +1.56401678954E-03 +3.25188367324E-01 -3.81457028631E-01
2.92500000000E+09 +9.94246620309E-02 -3.90005123830E-01 -5.83819336593E-03 +2.08990795556E-03 -5.66922852560E-03 +1.68945913132E-03 +2.90293440833E-01 -3.88578390478E-01
2.93000000000E+09 +6.66789318846E-02 -3.81970491220E-01 -6.38911577141E-03 +3.41623398223E-03 -6.45353189332E-03 +3.00564755310E-03 +2.54148131858E-01 -3.94169253982E-01
2.93500000000E+09 +3.33598467929E-02 -3.73286930153E-01 -5.49967300745E-03 +4.86043306941E-03 -5.72690201126E-03 +4.75951305606E-03 +2.16354951272E-01 -3.99493930980E-01
2.94000000000E+09 -9.27231102695E-04 -3.61458674102E-01 -4.49202587169E-03 +5.41406116266E-03 -4.62267367099E-03 +5.34213734192E-03 +1.76293851228E-01 -4.01362610149E-01
2.94500000000E+09 -3.38627793875E-02 -3.45726729458E-01 -3.74921066324E-03 +5.50940753965E-03 -3.90355892378E-03 +5.39367017723E-03 +1.36977767629E-01 -4.00527952779E-01
2.95000000000E+09 -6.44078391366E-02 -3.27555649217E-01 -3.53005471443E-03 +6.10664230920E-03 -3.73365832549E-03 +5.98201077121E-03 +9.87298292688E-02 -3.96662118970E-01
2.95500000000E+09 -9.23806937846E-02 -3.08143247753E-01 -2.62361340986E-03 +6.69339027172E-03 -2.90670489975E-03 +6.76636855394E-03 +6.03329758850E-02 -3.91642235066E-01
2.96000000000E+09 -1.20745841015E-01 -2.87351068119E-01 -1.71164191848E-03 +6.93428684595E-03 -1.89312967411E-03 +7.18046907614E-03 +2.04241109682E-02 -3.83897847227E-01
2.96500000000E+09 -1.47899583673E-01 -2.63712055775E-01 -7.80561448817E-04 +6.83317308996E-03 -7.52710429825E-04 +7.08398152384E-03 -2.04514616730E-02 -3.72383889659E-01
2.97000000000E+09 -1.74072216113E-01 -2.36984249607E-01 -6.75906674847E-04 +6.42359462612E-03 -4.88444612673E-04 +6.51155332121E-03 -6.06479347696E-02 -3.57688515003E-01
2.97500000000E+09 -1.97435645894E-01 -2.07719876949E-01 -7.89451029412E-04 +7.41008341837E-03 -6.94321123218E-04 +7.26544838484E-03 -1.00378175236E-01 -3.40864108716E-01
2.98000000000E+09 -2.19029530581E-01 -1.77767935441E-01 +1.09032122189E-03 +8.40939232296E-03 +8.48460098286E-04 +8.27454776717E-03 -1.38692460776E-01 -3.20776666406E-01
2.98500000000E+09 -2.38861875016E-01 -1.46571282620E-01 +2.41863390191E-03 +7.61047056481E-03 +2.17393487112E-03 +7.75153981582E-03 -1.75611903350E-01 -2.99303864108E-01
2.99000000000E+09 -2.57384962672E-01 -1.15268897723E-01 +2.99279745628E-03 +7.13462980385E-03 +3.03337292041E-03 +7.58915611423E-03 -2.12392273291E-01 -2.72980798864E-01
2.99500000000E+09 -2.74618256630E-01 -8.22478799508E-02 +3.65499352856E-03 +7.12378694569E-03 +4.03805009832E-03 +7.29111621970E-03 -2.45238289702E-01 -2.42831561638E-01
3.00000000000E+09 -2.89215102840E-01 -4.86546328035E-02 +4.41780506917E-03 +7.24757355037E-03 +4.81161674793E-03 +6.99292087050E-03 -2.76144706433E-01 -2.11605744684E-01
3.00500000000E+09 -3.00441985320E-01 -1.58117501025E-02 +6.13533540391E-03 +7.58901095411E-03 +6.06804707245E-03 +7.12746699278E-03 -3.06088029230E-01 -1.78514054430E-01
3.01000000000E+09 -3.09739477110E-01 +1.61206361304E-02 +8.26931677234E-03 +5.85680027975E-03 +7.84085556607E-03 +5.68042900875E-03 -3.32888000082E-01 -1.42817292246E-01
3.01500000000E+09 -3.17008706820E-01 +4.72510311756E-02 +8.54780507089E-03 +3.71654713409E-03 +8.30061042605E-03 +3.96466348195E-03 -3.57800402902E-01 -1.05671532416E-01
3.02000000000E+09 -3.22043538362E-01 +7.88738616868E-02 +8.22670187402E-03 +2.62815658856E-03 +8.20767134218E-03 +2.86184823132E-03 -3.77460868801E-01 -6.63577973081E-02
3.02500000000E+09 -3.23782996810E-01 +1.10659402311E-01 +8.21824785059E-03 +2.44269022411E-03 +8.32002519389E-03 +2.48973816546E-03 -3.93303429474E-01 -2.72888160728E-02
3.03000000000E+09 -3.21649558802E-01 +1.41546706309E-01 +9.34420227472E-03 +1.74156222595E-03 +9.32145731615E-03 +1.72853248316E-03 -4.07386780719E-01 +1.17847227808E-02
3.03500000000E+09 -3.17534472254E-01 +1.70488984286E-01 +1.04491320903E-02 +3.34643127467E-05 +1.04073065345E-02 +1.70931577665E-04 -4.19498856631E-01 +5.26786597229E-02
3.04000000000E+09 -3.11559813851E-01 +2.00476304711E-01 +1.00997771621E-02 -2.81063388180E-03 +1.03410960130E-02 -2.55480346458E-03 -4.27850226109E-01 +9.44011939174E-02
3.04500000000E+09 -3.03592342619E-01 +2.28726195001E-01 +8.37047151237E-03 -3.96583742799E-03 +8.89277811694E-03 -4.09958894123E-03 -4.32567662835E-01 +1.35973477657E-01
3.05000000000E+09 -2.94511172904E-01 +2.57364909596E-01 +7.52966255902E-03 -4.56450913257E-03 +7.72984230827E-03 -5.03952259963E-03 -4.33797349864E-01 +1.74649378572E-01
3.05500000000E+09 -2.84008709908E-01 +2.85336715238E-01 +7.10838170499E-03 -4.92916648479E-03 +6.86377964579E-03 -5.35148200874E-03 -4.35569473448E-01 +2.12972128345E-01
3.06000000000E+09 -2.72105735300E-01 +3.12866766742E-01 +6.91469658919E-03 -6.16285826259E-03 +6.33632191205E-03 -6.22432509877E-03 -4.33451372883E-01 +2.52848223446E-01
3.06500000000E+09 -2.58831231673E-01 +3.38892370020E-01 +5.46212564351E-03 -7.75023626898E-03 +5.29913471900E-03 -7.23149583117E-03 -4.27455911838E-01 +2.90765517195E-01
3.07000000000E+09 -2.45565804093E-01 +3.63073038424E-01 +3.38683988858E-03 -8.17000389634E-03 +3.77619499015E-03 -7.83029572634E-03 -4.19408580717E-01 +3.26283733144E-01
