# Hz S RI R 50
! CMT, C1220, 16058040, 17.2.0/1
! Date: 15/08/2018 09:56:06
! Data: Format (Calibration Info)
! Freq                      S11: Re/Im (F2)                       S21: Re/Im (F2)                       S12: Re/Im (F2)                       S22: Re/Im (F2)            
2.50000000000E+09 +5.96758892956E-01 +6.33635260314E-01 -1.92911549471E-04 -1.05575635099E-03 -1.41333886462E-04 -1.14136836121E-03 +5.77660890955E-01 +7.13519193872E-01
2.50500000000E+09 +6.02944731405E-01 +6.26593620601E-01 -3.16833365181E-04 -1.12953419119E-03 -3.54044471502E-04 -1.14113057010E-03 +5.83280021693E-01 +7.07957726661E-01
2.51000000000E+09 +6.09343656671E-01 +6.19184896455E-01 -3.71964831270E-04 -1.04068610890E-03 -3.90513333376E-04 -1.03322638279E-03 +5.88762668979E-01 +7.02682512945E-01
2.51500000000E+09 +6.15817709943E-01 +6.11651343824E-01 -5.54507013950E-04 -1.07748499700E-03 -5.13712375934E-04 -1.09411533318E-03 +5.93843287156E-01 +6.97293363433E-01
2.52000000000E+09 +6.22168760307E-01 +6.03805944539E-01 -7.00335870318E-04 -1.01821431530E-03 -6.46009445954E-04 -9.98688553379E-04 +5.98961972327E-01 +6.91460247745E-01
2.52500000000E+09 +6.27806232494E-01 +5.96145281691E-01 -8.08889327627E-04 -8.63757863452E-04 -8.10443681482E-04 -9.56692756869E-04 +6.04572064514E-01 +6.84857848686E-01
2.53000000000E+09 +6.33036979708E-01 +5.88854007321E-01 -8.50704692361E-04 -7.21298513070E-04 -8.91847182893E-04 -7.89669414099E-04 +6.10539185466E-01 +6.77672487839E-01
2.53500000000E+09 +6.37982569113E-01 +5.81841776677E-01 -8.83755746243E-04 -7.08702904529E-04 -8.50544958714E-04 -7.04160823543E-04 +6.16366719757E-01 +6.70649080607E-01
2.54000000000E+09 +6.42689449984E-01 +5.75029115697E-01 -9.85359326370E-04 -7.54764444064E-04 -9.42978443569E-04 -7.94013843477E-04 +6.22258560717E-01 +6.64071758631E-01
2.54500000000E+09 +6.47405824068E-01 +5.68374703694E-01 -1.16097878211E-03 -6.85003070761E-04 -1.12979711923E-03 -7.93704569637E-04 +6.28293498261E-01 +6.57597429139E-01
2.55000000000E+09 +6.52169990351E-01 +5.61457648222E-01 -1.30977325166E-03 -4.93475172491E-04 -1.33694891634E-03 -6.78302011059E-04 +6.33347145082E-01 +6.51443855305E-01
2.55500000000E+09 +6.57235714252E-01 +5.54224620569E-01 -1.33425624792E-03 -2.68418678104E-04 -1.53033583201E-03 -3.43826398766E-04 +6.38425859467E-01 +6.45115019231E-01
2.56000000000E+09 +6.62791362979E-01 +5.47106173394E-01 -1.14754175875E-03 -7.00120223335E-05 -1.41149326505E-03 -5.61708027110E-06 +6.43471036096E-01 +6.38044386109E-01
2.56500000000E+09 +6.68914136698E-01 +5.39165989781E-01 -1.01823028349E-03 -1.84862265496E-04 -1.18769388411E-03 +6.27442796897E-06 +6.48764481152E-01 +6.30422465632E-01
2.57000000000E+09 +6.75148443877E-01 +5.30975360014E-01 -1.15177714832E-03 -2.70315307877E-04 -1.17267190748E-03 -5.47160060975E-06 +6.54311740491E-01 +6.22622669555E-01
2.57500000000E+09 +6.81529059736E-01 +5.22057429897E-01 -1.47354841794E-03 -1.59814489127E-04 -1.33467596656E-03 +1.04249875221E-04 +6.60015235009E-01 +6.14730413819E-01
2.58000000000E+09 +6.87277738060E-01 +5.13323331242E-01 -1.55943881632E-03 +3.10554096738E-04 -1.28415237503E-03 +3.24064307159E-04 +6.65049219108E-01 +6.07220792786E-01
2.58500000000E+09 +6.92848759614E-01 +5.04431442961E-01 -1.25838199604E-03 +4.60813003447E-04 -1.19585275367E-03 +4.46702507912E-04 +6.70102075024E-01 +5.99777047287E-01
2.59000000000E+09 +6.98048653559E-01 +4.95934374339E-01 -1.14688129820E-03 +4.55293953617E-04 -1.13014483492E-03 +3.64509516042E-04 +6.74804715147E-01 +5.92353733315E-01
2.59500000000E+09 +7.03051901413E-01 +4.87373872864E-01 -1.18414027361E-03 +3.97734039741E-04 -1.21612650573E-03 +3.58177265131E-04 +6.79679562127E-01 +5.84100908334E-01
2.60000000000E+09 +7.07561151938E-01 +4.78583404618E-01 -1.28859633168E-03 +5.31629731196E-04 -1.30493670418E-03 +4.83557293732E-04 +6.84643737148E-01 +5.75468785461E-01
2.60500000000E+09 +7.12042909451E-01 +4.69361890284E-01 -1.37419307459E-03 +7.91965689811E-04 -1.37187095901E-03 +7.74122779521E-04 +6.89576026460E-01 +5.66434152849E-01
2.61000000000E+09 +7.16383740223E-01 +4.59639862650E-01 -1.25426121749E-03 +1.10003043694E-03 -1.26272134980E-03 +1.03476197802E-03 +6.94569871561E-01 +5.57567280713E-01
2.61500000000E+09 +7.20796818379E-01 +4.49234637343E-01 -9.63959275963E-04 +1.18705255839E-03 -1.02799404707E-03 +1.10560934858E-03 +6.99437900483E-01 +5.48899277664E-01
2.62000000000E+09 +7.24961181694E-01 +4.38053738123E-01 -8.39266265611E-04 +1.11454509763E-03 -9.12690358389E-04 +1.19505904703E-03 +7.04254780487E-01 +5.40003907915E-01
2.62500000000E+09 +7.29311831023E-01 +4.26142800670E-01 -8.00205206242E-04 +1.12997943426E-03 -7.32244530534E-04 +1.27316679663E-03 +7.08757211602E-01 +5.30918754024E-01
2.63000000000E+09 +7.33341597218E-01 +4.13725094047E-01 -7.14968137631E-04 +1.13629809913E-03 -5.66832801532E-04 +1.21794056548E-03 +7.13154314844E-01 +5.22126232437E-01
2.63500000000E+09 +7.37051841178E-01 +4.01135073129E-01 -8.63490398275E-04 +1.17581083972E-03 -6.57581153131E-04 +1.20909009920E-03 +7.17935524563E-01 +5.12885435696E-01
2.64000000000E+09 +7.40518796548E-01 +3.88746785005E-01 -7.37825360437E-04 +1.59611011470E-03 -6.15780872929E-04 +1.32264225249E-03 +7.22759660564E-01 +5.03123579441E-01
2.64500000000E+09 +7.44428564460E-01 +3.76668238774E-01 -3.81418858686E-04 +1.52093936012E-03 -4.37599575326E-04 +1.34239168040E-03 +7.27483861717E-01 +4.93357963140E-01
2.65000000000E+09 +7.47673624359E-01 +3.64784205186E-01 -3.19403298001E-04 +1.56348680784E-03 -5.08940779296E-04 +1.41525299130E-03 +7.31956449819E-01 +4.83200900534E-01
2.65500000000E+09 +7.50783986204E-01 +3.52829987008E-01 -2.85463808432E-04 +1.48898470264E-03 -3.91443514449E-04 +1.56999966015E-03 +7.35662904558E-01 +4.72811777283E-01
2.66000000000E+09 +7.53839408899E-01 +3.40836821071E-01 -2.41303951317E-04 +1.64920108884E-03 -2.27011282418E-04 +1.79612194567E-03 +7.39785840999E-01 +4.62185039232E-01
2.66500000000E+09 +7.56581374634E-01 +3.29227132463E-01 -5.03196000114E-05 +1.70604277371E-03 +2.49100147525E-05 +1.84006732821E-03 +7.44335349941E-01 +4.51157160079E-01
2.67000000000E+09 +7.59136862299E-01 +3.16706352605E-01 +9.83606909921E-05 +1.76265557074E-03 +1.93355249762E-04 +1.71863809647E-03 +7.48597745693E-01 +4.39658739885E-01
2.67500000000E+09 +7.61271493219E-01 +3.03603197918E-01 +3.70308547095E-04 +1.84395641352E-03 +4.10575726870E-04 +1.71807958077E-03 +7.52642277108E-01 +4.28092370196E-01
2.68000000000E+09 +7.62475080804E-01 +2.90013375412E-01 +5.34428831706E-04 +1.65966608604E-03 +5.04347439537E-04 +1.53549739272E-03 +7.56371186756E-01 +4.16905060861E-01
2.68500000000E+09 +7.63328889343E-01 +2.76201693205E-01 +4.23477667763E-04 +1.65121600135E-03 +3.69407434599E-04 +1.67678791909E-03 +7.59497025903E-01 +4.05524309684E-01
2.69000000000E+09 +7.64106592232E-01 +2.62276629750E-01 +6.93093860748E-04 +1.83344562433E-03 +6.83838434564E-04 +1.84116663281E-03 +7.62528185803E-01 +3.93532533614E-01
2.69500000000E+09 +7.64778426999E-01 +2.48125470774E-01 +9.08429187432E-04 +1.71850693898E-03 +8.71432476071E-04 +1.74695050032E-03 +7.65231899969E-01 +3.80482925228E-01
2.70000000000E+09 +7.65558332695E-01 +2.33745604684E-01 +1.12109263686E-03 +1.82438077658E-03 +1.01712301339E-03 +1.76409151358E-03 +7.67729756738E-01 +3.66838006379E-01
2.70500000000E+09 +7.66193398000E-01 +2.19627857393E-01 +1.56767238047E-03 +1.58754395398E-03 +1.48412470232E-03 +1.62664193384E-03 +7.70185548674E-01 +3.53212511252E-01
2.71000000000E+09 +7.67231906767E-01 +2.05634873597E-01 +1.53344288057E-03 +1.31053610945E-03 +1.53330912661E-03 +1.40613996029E-03 +7.73081498538E-01 +3.40093340705E-01
2.71500000000E+09 +7.68536568102E-01 +1.91044015503E-01 +1.48593384405E-03 +1.16994598144E-03 +1.60062321146E-03 +1.25981385286E-03 +7.75622802838E-01 +3.26983319578E-01
2.72000000000E+09 +7.69480358555E-01 +1.76011938525E-01 +1.44411038958E-03 +1.17749324791E-03 +1.61728129366E-03 +1.18121453498E-03 +7.77575434299E-01 +3.13985793757E-01
2.72500000000E+09 +7.69749259699E-01 +1.60804674030E-01 +1.60606025031E-03 +1.28607909402E-03 +1.77475559741E-03 +1.12986640308E-03 +7.78235872129E-01 +3.00443824921E-01
2.73000000000E+09 +7.69540790292E-01 +1.45147344494E-01 +1.79976721203E-03 +1.30590342885E-03 +1.76186414716E-03 +1.02794039896E-03 +7.79276005009E-01 +2.86605763792E-01
2.73500000000E+09 +7.68466973347E-01 +1.28761442595E-01 +2.14853366897E-03 +1.07979679005E-03 +1.88311493627E-03 +9.65808734741E-04 +7.80142903721E-01 +2.71703582773E-01
2.74000000000E+09 +7.66197770198E-01 +1.12564022323E-01 +2.33779992304E-03 +1.02143948600E-03 +1.97286203261E-03 +1.07424172362E-03 +7.81217648830E-01 +2.56255121681E-01
2.74500000000E+09 +7.63178935083E-01 +9.60078304802E-02 +2.62159512601E-03 +9.47351228456E-04 +2.31937762922E-03 +1.17921784246E-03 +7.81767553761E-01 +2.40880759304E-01
2.75000000000E+09 +7.59446424725E-01 +7.91740265460E-02 +2.96336871798E-03 +5.34560210825E-04 +3.00325211347E-03 +8.59668113902E-04 +7.82236862348E-01 +2.25917537878E-01
2.75500000000E+09 +7.54872069614E-01 +6.21093146785E-02 +2.91273029952E-03 +1.16540017842E-05 +3.19207202537E-03 +1.88863213312E-04 +7.81855115731E-01 +2.10926270857E-01
2.76000000000E+09 +7.50125963190E-01 +4.48107523073E-02 +2.82538050730E-03 -1.43633724912E-04 +3.09871562420E-03 -1.34232940259E-04 +7.81257821694E-01 +1.95891260538E-01
2.76500000000E+09 +7.44925705045E-01 +2.74296652251E-02 +3.10553478524E-03 -3.88752853869E-04 +3.21610993172E-03 -4.48978586414E-04 +7.80225289832E-01 +1.79361774301E-01
2.77000000000E+09 +7.39969836942E-01 +9.48269263833E-03 +3.24821551981E-03 -7.05669957094E-04 +3.30748039580E-03 -8.14219411522E-04 +7.78773439477E-01 +1.61556005803E-01
2.77500000000E+09 +7.35131186614E-01 -9.23726417111E-03 +3.23053449219E-03 -1.24606546506E-03 +3.32933712434E-03 -1.38317199039E-03 +7.76059862751E-01 +1.43473533267E-01
2.78000000000E+09 +7.29992772957E-01 -2.88339053578E-02 +3.10117776601E-03 -1.55359317965E-03 +3.06491809888E-03 -1.79138781967E-03 +7.73863270743E-01 +1.26162168510E-01
2.78500000000E+09 +7.23571446494E-01 -4.91647326917E-02 +2.87673802571E-03 -2.03676130144E-03 +2.70798996005E-03 -2.17849569728E-03 +7.71601453229E-01 +1.08519183153E-01
2.79000000000E+09 +7.16360419603E-01 -6.94690760588E-02 +2.84539328654E-03 -2.27791537709E-03 +2.63038499095E-03 -2.31916502921E-03 +7.68843046342E-01 +9.09743092682E-02
2.79500000000E+09 +7.08157135706E-01 -8.92199119997E-02 +2.78722122216E-03 -2.79232308183E-03 +2.58494076059E-03 -2.65563559561E-03 +7.64348009630E-01 +7.28189654870E-02
2.80000000000E+09 +6.99197608947E-01 -1.08569318695E-01 +2.28529734882E-03 -3.23848478652E-03 +2.26420136933E-03 -3.00069677189E-03 +7.58576313610E-01 +5.46607152016E-02
2.80500000000E+09 +6.89239548533E-01 -1.27479026217E-01 +1.66619053301E-03 -3.54001146335E-03 +1.82090146604E-03 -3.42596194372E-03 +7.52554243300E-01 +3.66234385480E-02
2.81000000000E+09 +6.78176785138E-01 -1.45705168507E-01 +1.57319608561E-03 -3.35940151816E-03 +1.68542343770E-03 -3.44627806756E-03 +7.46804828678E-01 +1.71555491587E-02
2.81500000000E+09 +6.65971725072E-01 -1.63001768337E-01 +1.25181496015E-03 -3.68104228956E-03 +1.15838535026E-03 -3.79168954385E-03 +7.39520093108E-01 -3.01215040928E-03
2.82000000000E+09 +6.52988220717E-01 -1.80548131397E-01 +1.11098635091E-03 -3.93787657127E-03 +8.77685610492E-04 -4.01721629850E-03 +7.31296452604E-01 -2.30100343524E-02
2.82500000000E+09 +6.38235519106E-01 -1.97881302765E-01 +5.80943742492E-04 -4.42303846757E-03 +3.93210442371E-04 -4.26660643652E-03 +7.21952462574E-01 -4.22756989616E-02
2.83000000000E+09 +6.22067297621E-01 -2.15641034917E-01 -3.31406990169E-04 -4.41575764004E-03 -3.55493743248E-04 -4.15921969188E-03 +7.12155386908E-01 -6.12849853491E-02
2.83500000000E+09 +6.04369161940E-01 -2.33806255697E-01 -7.25829740954E-04 -3.78030674747E-03 -5.75528290550E-04 -3.63740623056E-03 +7.02338681409E-01 -8.07264812025E-02
2.84000000000E+09 +5.84387020852E-01 -2.51754731261E-01 -4.18460318975E-04 -3.78023998369E-03 -3.47667323075E-04 -3.76302733696E-03 +6.90839106791E-01 -1.01509918661E-01
2.84500000000E+09 +5.62879066274E-01 -2.69317970884E-01 -8.70134199978E-04 -4.28906024610E-03 -8.31475466937E-04 -4.38080288254E-03 +6.77699973924E-01 -1.22058453628E-01
2.85000000000E+09 +5.40499635217E-01 -2.86890862923E-01 -1.22990379094E-03 -4.55202609443E-03 -1.28987760544E-03 -4.57210705631E-03 +6.63292545529E-01 -1.42302269906E-01
2.85500000000E+09 +5.16670614703E-01 -3.04040535367E-01 -2.34745921165E-03 -4.60855288448E-03 -2.33667357020E-03 -4.52874464618E-03 +6.48996849953E-01 -1.61539891922E-01
2.86000000000E+09 +4.92035615062E-01 -3.20597180801E-01 -2.83396367027E-03 -4.31953238589E-03 -2.84331774484E-03 -4.22504537225E-03 +6.33573053516E-01 -1.82426083395E-01
2.86500000000E+09 +4.66729119054E-01 -3.36553899482E-01 -3.58557367554E-03 -3.71722315000E-03 -3.58967348306E-03 -3.78905007369E-03 +6.15854172351E-01 -2.02767682854E-01
2.87000000000E+09 +4.39946285893E-01 -3.51154117198E-01 -3.92581965864E-03 -3.11089051617E-03 -4.00370711908E-03 -3.07670903728E-03 +5.96741597792E-01 -2.22495948446E-01
2.87500000000E+09 +4.12974368766E-01 -3.63356048872E-01 -3.81955709952E-03 -2.65914820641E-03 -3.88011571914E-03 -2.55115374966E-03 +5.76818336927E-01 -2.41423211857E-01
2.88000000000E+09 +3.86483781327E-01 -3.74255314316E-01 -3.86035903159E-03 -2.84490141166E-03 -3.85359985942E-03 -2.62111697062E-03 +5.55518214165E-01 -2.60216671086E-01
2.88500000000E+09 +3.59428022675E-01 -3.84250520665E-01 -4.70991665981E-03 -2.74633657054E-03 -4.42428319244E-03 -2.51200312201E-03 +5.33407042002E-01 -2.78824316050E-01
2.89000000000E+09 +3.31126417448E-01 -3.93201945486E-01 -5.16485550637E-03 -2.25753353091E-03 -4.70279594442E-03 -2.24173759644E-03 +5.08032096440E-01 -2.97559514324E-01
2.89500000000E+09 +3.01136176197E-01 -4.00375945527E-01 -5.84107355513E-03 -1.61576992103E-03 -5.53948098181E-03 -1.81879378449E-03 +4.80502805799E-01 -3.14602158897E-01
2.90000000000E+09 +2.69539699997E-01 -4.05791175295E-01 -6.08141871638E-03 -6.78552574091E-04 -6.01825532405E-03 -9.65647683349E-04 +4.51785510245E-01 -3.30023039471E-01
2.90500000000E+09 +2.35902561694E-01 -4.08310205775E-01 -6.04643434292E-03 -3.87796666433E-05 -6.11962900386E-03 -1.11362261907E-04 +4.23149665634E-01 -3.44985495436E-01
2.91000000000E+09 +2.01968319820E-01 -4.08230501932E-01 -6.28605138482E-03 +5.65562213804E-04 -6.26347322093E-03 +6.90408371405E-04 +3.91872503417E-01 -3.59788180192E-01
2.91500000000E+09 +1.67418636442E-01 -4.05421850466E-01 -6.11109523744E-03 +1.81903427132E-03 -5.80804263853E-03 +1.82395492166E-03 +3.58924453751E-01 -3.71956568109E-01
2.92000000000E+09 +1.32585600529E-01 -4.00402358306E-01 -5.43641810105E-03 +1.90164751245E-03 -5.19461797802E-03 +1.67022561883E-03 +3.24404261949E-01 -3.80710768538E-01
2.92500000000E+09 +9.89926853621E-02 -3.93309791878E-01 -5.71164341589E-03 +2.06829673622E-03 -5.60885095204E-03 +1.69672688051E-03 +2.89864078880E-01 -3.87447113897E-01
2.93000000000E+09 +6.56906186520E-02 -3.85456034745E-01 -6.22275947059E-03 +3.00686597066E-03 -6.33740353081E-03 +2.56352853541E-03 +2.54241938204E-01 -3.92947717543E-01
2.93500000000E+09 +3.19311097459E-02 -3.76236341604E-01 -5.78717019846E-03 +4.36736386340E-03 -6.06042965813E-03 +4.20928692017E-03 +2.16864016369E-01 -3.98473487547E-01
2.94000000000E+09 -2.47183394093E-03 -3.64531846522E-01 -5.06302795209E-03 +5.06049355394E-03 -5.22366915998E-03 +5.03584450339E-03 +1.76959667313E-01 -4.00444893851E-01
2.94500000000E+09 -3.57357138089E-02 -3.49002786952E-01 -4.37581550938E-03 +5.56428325046E-03 -4.45480848383E-03 +5.50597609647E-03 +1.38078184244E-01 -3.99797943879E-01
2.95000000000E+09 -6.68454583823E-02 -3.30726010462E-01 -3.83824075623E-03 +6.04731763928E-03 -3.98654051018E-03 +5.92059858009E-03 +9.98312979259E-02 -3.96536578746E-01
2.95500000000E+09 -9.56090798745E-02 -3.10860082239E-01 -3.11537832092E-03 +6.43024463142E-03 -3.47860046690E-03 +6.51637730227E-03 +6.14309726649E-02 -3.91820507174E-01
2.96000000000E+09 -1.24234201138E-01 -2.89371649220E-01 -2.61310999322E-03 +7.03875920789E-03 -2.77883339453E-03 +7.26379644730E-03 +2.13560610345E-02 -3.84466059650E-01
2.96500000000E+09 -1.51235551264E-01 -2.65256265568E-01 -1.55983209509E-03 +7.29827696813E-03 -1.43953587984E-03 +7.62883795703E-03 -1.99435425373E-02 -3.73231883237E-01
2.97000000000E+09 -1.77525074299E-01 -2.38531882859E-01 -1.20128879424E-03 +7.16703155346E-03 -9.51124657598E-04 +7.20458257330E-03 -6.03955384721E-02 -3.58389290251E-01
2.97500000000E+09 -2.01161638308E-01 -2.08874430487E-01 -1.05811414321E-03 +8.07174022379E-03 -9.05412066702E-04 +7.87288726309E-03 -1.00425660574E-01 -3.41450364517E-01
2.98000000000E+09 -2.23031576262E-01 -1.78352051163E-01 +8.14808929905E-04 +8.96915616788E-03 +6.53697422922E-04 +8.72430955829E-03 -1.38783168534E-01 -3.21223336514E-01
2.98500000000E+09 -2.42757026298E-01 -1.46386384725E-01 +2.16213146609E-03 +8.40728811018E-03 +1.82047447350E-03 +8.56328900867E-03 -1.75602323508E-01 -2.99656897839E-01
2.99000000000E+09 -2.60952261309E-01 -1.14741291273E-01 +2.96634206454E-03 +8.17142502370E-03 +3.08494032535E-03 +8.54257209914E-03 -2.12634771871E-01 -2.73380580650E-01
2.99500000000E+09 -2.77965562654E-01 -8.18048543283E-02 +4.17027975823E-03 +7.98671323281E-03 +4.52426996712E-03 +8.11420988260E-03 -2.45708681465E-01 -2.43042248936E-01
3.00000000000E+09 -2.92681047584E-01 -4.79929128704E-02 +4.91550320353E-03 +7.57622501575E-03 +5.23946267174E-03 +7.35468936973E-03 -2.76319197916E-01 -2.11645015912E-01
3.00500000000E+09 -3.03906559253E-01 -1.47112358953E-02 +6.44830164404E-03 +7.73927268089E-03 +6.39589357255E-03 +7.27219952321E-03 -3.06338041249E-01 -1.78555137279E-01
3.01000000000E+09 -3.12993920852E-01 +1.75024826304E-02 +8.31486575548E-03 +6.11405208815E-03 +7.90499258967E-03 +6.00617369040E-03 -3.33113906253E-01 -1.42838101580E-01
3.01500000000E+09 -3.20185108580E-01 +4.88461156974E-02 +8.87587464533E-03 +4.24812155307E-03 +8.55332533644E-03 +4.46715815699E-03 -3.57920586995E-01 -1.05548727992E-01
3.02000000000E+09 -3.25064386164E-01 +8.07029238134E-02 +8.69978076898E-03 +3.15279880732E-03 +8.78911004572E-03 +3.29274986504E-03 -3.77493539377E-01 -6.61993381281E-02
3.02500000000E+09 -3.26729254409E-01 +1.12586584950E-01 +8.79566329778E-03 +2.59458939612E-03 +8.94137997568E-03 +2.61833150467E-03 -3.93239535457E-01 -2.71588611451E-02
3.03000000000E+09 -3.24441470325E-01 +1.44025314556E-01 +9.46813731187E-03 +1.74488939556E-03 +9.47128614110E-03 +1.85005143215E-03 -4.07432412852E-01 +1.17593927658E-02
3.03500000000E+09 -3.19992506326E-01 +1.73268970241E-01 +1.05734931413E-02 +3.87838076510E-04 +1.05720520309E-02 +6.00843204571E-04 -4.19588792413E-01 +5.26810638973E-02
3.04000000000E+09 -3.13638095132E-01 +2.03426582971E-01 +1.05019930737E-02 -2.31000531871E-03 +1.08530821758E-02 -2.02485464434E-03 -4.27888671471E-01 +9.43147873628E-02
3.04500000000E+09 -3.05185995271E-01 +2.31729590697E-01 +9.09423971637E-03 -3.77882555995E-03 +9.64281806420E-03 -3.80451775709E-03 -4.32621425863E-01 +1.35894956648E-01
3.05000000000E+09 -2.95974835190E-01 +2.60483408131E-01 +8.24979998815E-03 -4.49244420986E-03 +8.54360971315E-03 -5.00254285380E-03 -4.34047263373E-01 +1.74673698273E-01
3.05500000000E+09 -2.85062147138E-01 +2.88607989360E-01 +7.66134110556E-03 -5.01452602885E-03 +7.48407706363E-03 -5.51633125845E-03 -4.35704603723E-01 +2.12942732282E-01
3.06000000000E+09 -2.72737954039E-01 +3.16152428796E-01 +7.41582469237E-03 -6.30349041109E-03 +6.88895920143E-03 -6.37937008886E-03 -4.33584016586E-01 +2.52839494951E-01
3.06500000000E+09 -2.59172191090E-01 +3.42026213255E-01 +6.22290845689E-03 -7.87444996704E-03 +5.94991221492E-03 -7.39738594168E-03 -4.27547993980E-01 +2.90960970699E-01
3.07000000000E+09 -2.45475183036E-01 +3.66313089042E-01 +4.11002491214E-03 -8.55620491091E-03 +4.56646560162E-03 -8.16036000708E-03 -4.19372811582E-01 +3.26428168449E-01
