# Hz S RI R 50
! CMT, C1220, 16058040, 17.2.0/1
! Date: 15/08/2018 09:55:29
! Data: Format (Calibration Info)
! Freq                      S11: Re/Im (F2)                       S21: Re/Im (F2)                       S12: Re/Im (F2)                       S22: Re/Im (F2)            
2.50000000000E+09 +5.96575575575E-01 +6.32863201910E-01 -2.84683448545E-04 -8.59728325561E-04 -3.21845658619E-04 -9.25925625694E-04 +5.77605573109E-01 +7.13740165869E-01
2.50500000000E+09 +6.02804926357E-01 +6.25811668146E-01 -3.43837445627E-04 -8.72426474386E-04 -3.85769712941E-04 -8.98471844569E-04 +5.83225030673E-01 +7.08257066376E-01
2.51000000000E+09 +6.09258852143E-01 +6.18380050136E-01 -4.22904966285E-04 -9.03265901946E-04 -4.88146932407E-04 -8.86228505185E-04 +5.88794002569E-01 +7.02983092129E-01
2.51500000000E+09 +6.15877987568E-01 +6.10906030889E-01 -5.90086485458E-04 -8.49399647971E-04 -6.08335890670E-04 -8.28565899969E-04 +5.94071424385E-01 +6.97643629764E-01
2.52000000000E+09 +6.22102681607E-01 +6.03123203315E-01 -7.59406537807E-04 -7.89378397127E-04 -6.77307738082E-04 -8.17468757967E-04 +5.99179449792E-01 +6.91666927731E-01
2.52500000000E+09 +6.27646853337E-01 +5.95385702593E-01 -8.10572173110E-04 -6.87023858631E-04 -8.09604093238E-04 -6.84186270874E-04 +6.04836584191E-01 +6.85141595921E-01
2.53000000000E+09 +6.32961615887E-01 +5.88124861223E-01 -8.79808608107E-04 -5.06217714043E-04 -8.95823822986E-04 -5.58287664166E-04 +6.10881547203E-01 +6.77932078269E-01
2.53500000000E+09 +6.37814440919E-01 +5.81032392684E-01 -8.13647861790E-04 -5.14795686922E-04 -8.65076709248E-04 -4.89758943707E-04 +6.16813541952E-01 +6.70932424291E-01
2.54000000000E+09 +6.42387522317E-01 +5.74245181690E-01 -9.54891156657E-04 -4.77582880814E-04 -9.36944630232E-04 -5.01856440371E-04 +6.22782401356E-01 +6.64308667705E-01
2.54500000000E+09 +6.47040082996E-01 +5.67551715382E-01 -9.88655321951E-04 -4.38950338456E-04 -9.87380864523E-04 -4.86754667563E-04 +6.28731614938E-01 +6.57795610352E-01
2.55000000000E+09 +6.51817036496E-01 +5.60793165996E-01 -1.03959073238E-03 -2.43404888015E-04 -1.11554140320E-03 -3.67048763638E-04 +6.33958932199E-01 +6.51518292478E-01
2.55500000000E+09 +6.56792300768E-01 +5.53463837603E-01 -1.10959065021E-03 -1.36317370438E-04 -1.28077981593E-03 -2.39276396272E-04 +6.38982418055E-01 +6.45077304586E-01
2.56000000000E+09 +6.62251821164E-01 +5.46452995945E-01 -1.04620969764E-03 -3.53851517257E-05 -1.26898878094E-03 +5.72990620731E-05 +6.44059581946E-01 +6.37876153611E-01
2.56500000000E+09 +6.68322843430E-01 +5.38515347007E-01 -9.87477716233E-04 -2.38166251324E-05 -1.14405563761E-03 +1.62726384903E-04 +6.49369501663E-01 +6.30152349221E-01
2.57000000000E+09 +6.74550804238E-01 +5.30268328413E-01 -1.08178070986E-03 -3.72481841439E-05 -1.02387773967E-03 +2.30189562431E-04 +6.54892882481E-01 +6.22055268110E-01
2.57500000000E+09 +6.80768829263E-01 +5.21517809508E-01 -1.27576952702E-03 +4.23067102679E-05 -1.08960981170E-03 +2.31047304134E-04 +6.60381652516E-01 +6.14117069126E-01
2.58000000000E+09 +6.86563962158E-01 +5.12950927167E-01 -1.31328502604E-03 +3.58789508308E-04 -1.10559045442E-03 +3.12165417730E-04 +6.65432487660E-01 +6.06668130468E-01
2.58500000000E+09 +6.92206412302E-01 +5.04014040078E-01 -1.16372325079E-03 +4.92857176460E-04 -1.04669014103E-03 +3.94721548043E-04 +6.70416107843E-01 +5.99139351169E-01
2.59000000000E+09 +6.97222900120E-01 +4.95441558545E-01 -1.13375106157E-03 +5.22197483972E-04 -1.08709745174E-03 +4.20611858710E-04 +6.75057491263E-01 +5.91556501748E-01
2.59500000000E+09 +7.02246333780E-01 +4.86923110749E-01 -1.16951684646E-03 +6.30679686374E-04 -1.18274798541E-03 +5.80375911817E-04 +6.79687076618E-01 +5.83467382693E-01
2.60000000000E+09 +7.06686389317E-01 +4.78258051649E-01 -1.14858112506E-03 +7.28865217062E-04 -1.14261733965E-03 +7.21936814738E-04 +6.84465588472E-01 +5.74869967674E-01
2.60500000000E+09 +7.11236770508E-01 +4.69226484951E-01 -1.23212030292E-03 +9.50712636992E-04 -1.19815445079E-03 +9.12323598629E-04 +6.89484583973E-01 +5.65833410664E-01
2.61000000000E+09 +7.15638391490E-01 +4.59485991931E-01 -1.05491230161E-03 +1.30407844077E-03 -1.09191253762E-03 +1.28184381739E-03 +6.94430456643E-01 +5.57009659023E-01
2.61500000000E+09 +7.20011416958E-01 +4.49206280543E-01 -7.08511555386E-04 +1.42593120148E-03 -7.24765932647E-04 +1.40811708098E-03 +6.99212357850E-01 +5.48534937953E-01
2.62000000000E+09 +7.24244877006E-01 +4.38140428200E-01 -4.92559185970E-04 +1.35356813590E-03 -4.71115414456E-04 +1.42390414871E-03 +7.04223373582E-01 +5.39554229026E-01
2.62500000000E+09 +7.28604156670E-01 +4.26206245944E-01 -3.54648551020E-04 +1.25798301979E-03 -2.64666310670E-04 +1.34501240448E-03 +7.08614338291E-01 +5.30586816726E-01
2.63000000000E+09 +7.32627625052E-01 +4.13773272479E-01 -2.97529383969E-04 +1.14883717970E-03 -1.29564988944E-04 +1.16590273524E-03 +7.13150376769E-01 +5.21701989526E-01
2.63500000000E+09 +7.36222445079E-01 +4.01102909812E-01 -4.38897832962E-04 +1.21002927560E-03 -3.07129260249E-04 +1.12006640466E-03 +7.17893578468E-01 +5.12468359985E-01
2.64000000000E+09 +7.39763584949E-01 +3.88780804996E-01 -3.11613320123E-04 +1.49076083816E-03 -2.48109784016E-04 +1.25438744508E-03 +7.22687389930E-01 +5.02601052706E-01
2.64500000000E+09 +7.43480895265E-01 +3.76869592911E-01 -6.15607334314E-05 +1.55253346541E-03 -1.85577342370E-04 +1.32680148751E-03 +7.27317278377E-01 +4.92735224066E-01
2.65000000000E+09 +7.46851771149E-01 +3.65131298564E-01 +1.35650334454E-04 +1.46044389895E-03 -3.54309708399E-05 +1.41993852171E-03 +7.31704622833E-01 +4.82742924967E-01
2.65500000000E+09 +7.50221628663E-01 +3.53137862473E-01 +1.72502854119E-04 +1.30900450927E-03 +6.16004863056E-05 +1.38208411468E-03 +7.35523777284E-01 +4.72382162828E-01
2.66000000000E+09 +7.53196378420E-01 +3.41160046886E-01 +8.62036305728E-05 +1.43192492067E-03 +9.34818036373E-05 +1.52544676225E-03 +7.39742430898E-01 +4.61645365731E-01
2.66500000000E+09 +7.56017413769E-01 +3.29511597057E-01 +3.56441340021E-04 +1.49371445567E-03 +4.20900922265E-04 +1.56861878207E-03 +7.44335110707E-01 +4.50370374772E-01
2.67000000000E+09 +7.58520556458E-01 +3.17079586462E-01 +3.84989613610E-04 +1.52626715381E-03 +4.63658003366E-04 +1.48813356840E-03 +7.48401487091E-01 +4.38884638031E-01
2.67500000000E+09 +7.60637858105E-01 +3.04012060515E-01 +6.44282649332E-04 +1.61363053250E-03 +6.39693946235E-04 +1.52811242873E-03 +7.52292641908E-01 +4.27391577432E-01
2.68000000000E+09 +7.61990171680E-01 +2.90613278879E-01 +8.23708800192E-04 +1.50710368980E-03 +7.30037377695E-04 +1.43523071228E-03 +7.55855569546E-01 +4.16023341606E-01
2.68500000000E+09 +7.62825212603E-01 +2.76780771358E-01 +8.21270331094E-04 +1.52299500422E-03 +7.46596492674E-04 +1.49594050371E-03 +7.58781858457E-01 +4.04624756522E-01
2.69000000000E+09 +7.63621233004E-01 +2.62971086593E-01 +1.11920876629E-03 +1.62414507229E-03 +1.05144123323E-03 +1.68723339632E-03 +7.61603056695E-01 +3.92655542004E-01
2.69500000000E+09 +7.64558733520E-01 +2.48986221384E-01 +1.47791356160E-03 +1.42332371067E-03 +1.49238299089E-03 +1.44327019279E-03 +7.64228004702E-01 +3.79859167216E-01
2.70000000000E+09 +7.65634275388E-01 +2.34663966639E-01 +1.73315602003E-03 +1.18668332457E-03 +1.66897146044E-03 +1.26315553515E-03 +7.66634174485E-01 +3.66453755543E-01
2.70500000000E+09 +7.66250741447E-01 +2.20346584636E-01 +1.95148729966E-03 +8.05254804163E-04 +1.93317629822E-03 +8.95560287979E-04 +7.69064149987E-01 +3.52952754563E-01
2.71000000000E+09 +7.67186546502E-01 +2.06300016377E-01 +1.80712255747E-03 +4.95375765177E-04 +1.84808904681E-03 +6.08669437574E-04 +7.71973784791E-01 +3.39888946861E-01
2.71500000000E+09 +7.68618769693E-01 +1.91839816416E-01 +1.60014633171E-03 +4.03064607336E-04 +1.80930989369E-03 +4.31367686324E-04 +7.74344080485E-01 +3.26907815899E-01
2.72000000000E+09 +7.69791020283E-01 +1.77061880529E-01 +1.63497818418E-03 +3.91335227630E-04 +1.77833794559E-03 +2.63186747553E-04 +7.76254537672E-01 +3.14092508956E-01
2.72500000000E+09 +7.70473288512E-01 +1.61593760568E-01 +1.74658012174E-03 +4.08381655580E-04 +1.76549963393E-03 +1.58223828612E-04 +7.76950527708E-01 +3.00900174882E-01
2.73000000000E+09 +7.70382610197E-01 +1.45943363837E-01 +1.81705192581E-03 +3.07117485776E-04 +1.65697435294E-03 +5.43641214294E-05 +7.78074448006E-01 +2.87288952413E-01
2.73500000000E+09 +7.69372756991E-01 +1.29410924876E-01 +1.88509348797E-03 +4.19847495134E-05 +1.68903715866E-03 -1.83463574258E-05 +7.79305198299E-01 +2.72403529068E-01
2.74000000000E+09 +7.67289958141E-01 +1.13086572098E-01 +1.85571001300E-03 -3.18556114844E-05 +1.69153889794E-03 +7.67415494107E-05 +7.80553641418E-01 +2.56883359360E-01
2.74500000000E+09 +7.64217635776E-01 +9.64832676843E-02 +1.85665520108E-03 +5.02575399194E-05 +1.78529800823E-03 +1.96973485201E-04 +7.81150790557E-01 +2.41430466464E-01
2.75000000000E+09 +7.60604924857E-01 +7.95840393765E-02 +2.20886595014E-03 -1.95573641812E-05 +2.27128062390E-03 +1.55960804445E-04 +7.81581303254E-01 +2.26303872406E-01
2.75500000000E+09 +7.56080648874E-01 +6.23651531699E-02 +2.33897172856E-03 -4.69014595054E-04 +2.49675108106E-03 -3.63307162235E-04 +7.81219474085E-01 +2.11641795799E-01
2.76000000000E+09 +7.51353278000E-01 +4.50487788205E-02 +2.35860929240E-03 -6.70214105844E-04 +2.44493167921E-03 -6.41066083682E-04 +7.80711731630E-01 +1.96487124820E-01
2.76500000000E+09 +7.46082379404E-01 +2.78239346844E-02 +2.51333409338E-03 -8.00341359684E-04 +2.56593633598E-03 -9.44386846675E-04 +7.79747683356E-01 +1.79753806408E-01
2.77000000000E+09 +7.41573100119E-01 +9.80364943305E-03 +2.64176876032E-03 -1.28980901061E-03 +2.59771622416E-03 -1.36251024560E-03 +7.77880827973E-01 +1.62033809120E-01
2.77500000000E+09 +7.36671134198E-01 -9.15028126945E-03 +2.52212015462E-03 -1.84343869202E-03 +2.47271156649E-03 -1.92046338254E-03 +7.74998324228E-01 +1.44224453305E-01
2.78000000000E+09 +7.31659237726E-01 -2.89614310421E-02 +2.28300147696E-03 -2.07848962183E-03 +2.23157357372E-03 -2.21568119539E-03 +7.73081919517E-01 +1.27117843290E-01
2.78500000000E+09 +7.25339441302E-01 -4.92625447602E-02 +2.04775565520E-03 -2.42586345856E-03 +1.86857241718E-03 -2.49688369538E-03 +7.70842941056E-01 +1.09600769905E-01
2.79000000000E+09 +7.18221432447E-01 -6.97572849594E-02 +1.95700815981E-03 -2.72765310555E-03 +1.74414177284E-03 -2.62570445340E-03 +7.68005193171E-01 +9.20956731634E-02
2.79500000000E+09 +7.10234563225E-01 -8.93597319868E-02 +1.71322181168E-03 -3.32660495277E-03 +1.64296833904E-03 -3.03456894713E-03 +7.63427696524E-01 +7.43651515254E-02
2.80000000000E+09 +7.01560486549E-01 -1.09062207847E-01 +1.12390790122E-03 -3.60029453083E-03 +1.22739667149E-03 -3.41659716407E-03 +7.58073176180E-01 +5.65647646570E-02
2.80500000000E+09 +6.91791289113E-01 -1.28421313531E-01 +3.98095319542E-04 -3.78896480420E-03 +6.34575779024E-04 -3.70090899665E-03 +7.52672628833E-01 +3.86426996332E-02
2.81000000000E+09 +6.80448232007E-01 -1.46785294105E-01 +9.62930349283E-05 -3.59171516743E-03 +2.37976841096E-04 -3.73775696394E-03 +7.46909255448E-01 +1.89400475277E-02
2.81500000000E+09 +6.68345104058E-01 -1.64355145887E-01 -4.69186309557E-04 -3.68582731298E-03 -4.34266640821E-04 -3.81551994307E-03 +7.39828200223E-01 -1.03673030203E-03
2.82000000000E+09 +6.55230378436E-01 -1.81989486647E-01 -8.63477556700E-04 -3.67835943429E-03 -8.68161173003E-04 -3.72971509068E-03 +7.31818041837E-01 -2.06902541756E-02
2.82500000000E+09 +6.40776348732E-01 -1.99307625440E-01 -1.33523683667E-03 -3.67510832594E-03 -1.38376334548E-03 -3.51599684336E-03 +7.23374650404E-01 -3.99709018267E-02
2.83000000000E+09 +6.24771148742E-01 -2.17624377331E-01 -2.06206192686E-03 -3.21641349350E-03 -1.93528002332E-03 -3.18203288388E-03 +7.14383753978E-01 -5.93111194059E-02
2.83500000000E+09 +6.06798452401E-01 -2.36021831459E-01 -2.03907133925E-03 -2.52316696825E-03 -1.94211412426E-03 -2.58878332422E-03 +7.04676607447E-01 -7.94738276117E-02
2.84000000000E+09 +5.86887666476E-01 -2.54263700922E-01 -1.89902402340E-03 -2.62478739373E-03 -1.82710653651E-03 -2.81000187858E-03 +6.93237918315E-01 -1.00755716945E-01
2.84500000000E+09 +5.65465404804E-01 -2.72378246006E-01 -2.47274880933E-03 -2.72532324214E-03 -2.48397558003E-03 -2.88528570065E-03 +6.80065907145E-01 -1.21663644655E-01
2.85000000000E+09 +5.42815742223E-01 -2.90678736404E-01 -2.69598694784E-03 -2.39675471374E-03 -2.81015324004E-03 -2.45794102497E-03 +6.65847949502E-01 -1.41900491150E-01
2.85500000000E+09 +5.18392887680E-01 -3.08114252634E-01 -3.23440220982E-03 -2.11231204560E-03 -3.28859528354E-03 -2.19696836339E-03 +6.51723814300E-01 -1.61951490780E-01
2.86000000000E+09 +4.93616957542E-01 -3.24671261310E-01 -3.47054406942E-03 -1.62314356540E-03 -3.54906932684E-03 -1.59882625769E-03 +6.35775759095E-01 -1.83415245569E-01
2.86500000000E+09 +4.67927694017E-01 -3.40837357440E-01 -3.61817372319E-03 -9.49881288837E-04 -3.61354127880E-03 -9.78469578278E-04 +6.17839885832E-01 -2.03750951232E-01
2.87000000000E+09 +4.40883041693E-01 -3.55528747373E-01 -3.36392802124E-03 -6.14297478180E-04 -3.45920405826E-03 -5.27844584972E-04 +5.98806156350E-01 -2.23648527126E-01
2.87500000000E+09 +4.13970830326E-01 -3.68112988904E-01 -3.12665105110E-03 -4.78813740780E-04 -3.17026996097E-03 -3.34701765115E-04 +5.78742378464E-01 -2.43170217064E-01
2.88000000000E+09 +3.86919724622E-01 -3.79576840671E-01 -3.23437840936E-03 -5.81053269079E-04 -3.18733497480E-03 -4.32141754737E-04 +5.57159828078E-01 -2.62314541307E-01
2.88500000000E+09 +3.59036871638E-01 -3.89780911417E-01 -3.68133942277E-03 -3.18960631150E-04 -3.48619620648E-03 -2.02294980348E-04 +5.34336141890E-01 -2.81268589927E-01
2.89000000000E+09 +3.30173332471E-01 -3.98567365427E-01 -3.78777487933E-03 +8.13955606490E-05 -3.51002228855E-03 +1.08606652440E-04 +5.08405073030E-01 -2.99424201333E-01
2.89500000000E+09 +2.99787532523E-01 -4.06024752950E-01 -3.89083150368E-03 +7.34947015883E-04 -3.74602796408E-03 +5.37201703865E-04 +4.80680749943E-01 -3.16390552915E-01
2.90000000000E+09 +2.67686972709E-01 -4.11189088614E-01 -3.62450137316E-03 +1.09696770465E-03 -3.61479988054E-03 +1.06086240392E-03 +4.52288148014E-01 -3.31592230311E-01
2.90500000000E+09 +2.33785181482E-01 -4.13825266816E-01 -3.47185989724E-03 +1.07765423844E-03 -3.44130457005E-03 +1.10918098421E-03 +4.23611034556E-01 -3.46713238037E-01
2.91000000000E+09 +1.98876264161E-01 -4.13518939965E-01 -3.81626973437E-03 +1.56628407914E-03 -3.65629968684E-03 +1.59202428956E-03 +3.92144031873E-01 -3.61728428327E-01
2.91500000000E+09 +1.64076102225E-01 -4.10383604350E-01 -3.49367971951E-03 +2.07871090697E-03 -3.27269224203E-03 +1.98981195360E-03 +3.59179938101E-01 -3.73582739763E-01
2.92000000000E+09 +1.28870965479E-01 -4.05275769742E-01 -3.27891624266E-03 +2.03929231371E-03 -3.02717163954E-03 +1.86344234723E-03 +3.25400811552E-01 -3.82635186319E-01
2.92500000000E+09 +9.48294940944E-02 -3.98121895279E-01 -3.52157631387E-03 +2.36523259629E-03 -3.45292291497E-03 +1.98218609328E-03 +2.90638446731E-01 -3.90570316433E-01
2.93000000000E+09 +6.05319238223E-02 -3.90158921156E-01 -3.75245008335E-03 +3.08494084109E-03 -3.84503971496E-03 +2.79137809832E-03 +2.54011073989E-01 -3.96830846081E-01
2.93500000000E+09 +2.58053913078E-02 -3.80097794990E-01 -3.29968882071E-03 +4.10042109883E-03 -3.48926126514E-03 +4.02279904881E-03 +2.15278513963E-01 -4.02206142106E-01
2.94000000000E+09 -8.39231239287E-03 -3.66947545789E-01 -2.23330810942E-03 +4.65532547209E-03 -2.36566978556E-03 +4.57216302073E-03 +1.74841873935E-01 -4.03777039966E-01
2.94500000000E+09 -4.15310962551E-02 -3.51369891566E-01 -1.75327983304E-03 +4.24029037863E-03 -1.86178538076E-03 +4.11593992479E-03 +1.35740923025E-01 -4.02853360203E-01
2.95000000000E+09 -7.31630761407E-02 -3.32730700746E-01 -1.95295870104E-03 +4.83389302876E-03 -2.15505338255E-03 +4.71805898921E-03 +9.69990196950E-02 -3.99696223510E-01
2.95500000000E+09 -1.02079444950E-01 -3.12061499515E-01 -1.02107701381E-03 +5.19628256811E-03 -1.25209767020E-03 +5.31068551760E-03 +5.75283222231E-02 -3.94892693230E-01
2.96000000000E+09 -1.30885903624E-01 -2.90316203924E-01 -4.19359946641E-04 +5.45063014230E-03 -6.05523483469E-04 +5.67561656445E-03 +1.63143552198E-02 -3.86298796219E-01
2.96500000000E+09 -1.58030188633E-01 -2.65178365297E-01 +4.25138473338E-04 +5.49916949229E-03 +4.95272193615E-04 +5.72404278783E-03 -2.49898646513E-02 -3.73793968586E-01
2.97000000000E+09 -1.83919283370E-01 -2.37781045343E-01 +7.02996471877E-04 +5.04694214595E-03 +8.19213626667E-04 +5.10566184039E-03 -6.53903256489E-02 -3.58194812715E-01
2.97500000000E+09 -2.07864301222E-01 -2.07790740644E-01 +7.36771864772E-04 +5.70708252048E-03 +7.98210899465E-04 +5.61254833727E-03 -1.05386550337E-01 -3.40333653986E-01
2.98000000000E+09 -2.29206797697E-01 -1.76041699191E-01 +2.34375413506E-03 +5.91419612885E-03 +2.14960749484E-03 +5.91147883288E-03 -1.43275007124E-01 -3.19342741706E-01
2.98500000000E+09 -2.48335854431E-01 -1.43899680674E-01 +2.80174208678E-03 +5.33771274105E-03 +2.68574880608E-03 +5.58510766031E-03 -1.80168208314E-01 -2.97000075310E-01
2.99000000000E+09 -2.66185062513E-01 -1.11828451856E-01 +3.75221596462E-03 +5.12114235155E-03 +3.82566201816E-03 +5.36906791238E-03 -2.16080365565E-01 -2.69465441244E-01
2.99500000000E+09 -2.82892112140E-01 -7.86129225784E-02 +4.36802049443E-03 +4.49439620156E-03 +4.63728012795E-03 +4.53482399821E-03 -2.47860329578E-01 -2.39332946811E-01
3.00000000000E+09 -2.97609851363E-01 -4.43565982895E-02 +4.31137932603E-03 +4.08479213017E-03 +4.55921279415E-03 +3.88864958303E-03 -2.78364739246E-01 -2.08360561179E-01
3.00500000000E+09 -3.08715199912E-01 -1.02728416666E-02 +5.41885472678E-03 +4.81537544893E-03 +5.39147266196E-03 +4.50382415319E-03 -3.08258268125E-01 -1.74520506554E-01
3.01000000000E+09 -3.16775805252E-01 +2.26688035740E-02 +7.17069842083E-03 +3.13605534860E-03 +6.87814196338E-03 +3.06417719757E-03 -3.33973180897E-01 -1.38574234810E-01
3.01500000000E+09 -3.23123633798E-01 +5.40310130270E-02 +7.03051217762E-03 +1.44088383553E-03 +6.92804333609E-03 +1.67476951063E-03 -3.57889901307E-01 -1.01333955160E-01
3.02000000000E+09 -3.27390255888E-01 +8.57969221570E-02 +6.70971213033E-03 +4.32461141474E-04 +6.81452590634E-03 +6.18891603137E-04 -3.76976162404E-01 -6.26189249951E-02
3.02500000000E+09 -3.28555983941E-01 +1.17869370322E-01 +6.29030651474E-03 +2.06267039861E-04 +6.37194877949E-03 +1.60388963220E-04 -3.92323837505E-01 -2.41715641786E-02
3.03000000000E+09 -3.25682481238E-01 +1.49220439045E-01 +6.71927192165E-03 +1.12138426119E-04 +6.67746542989E-03 +4.49069596130E-05 -4.06683194468E-01 +1.45500486158E-02
3.03500000000E+09 -3.20505169341E-01 +1.78581994681E-01 +7.81495951207E-03 -1.09086175292E-03 +7.84198682511E-03 -9.48657721410E-04 -4.18473570339E-01 +5.55178573333E-02
3.04000000000E+09 -3.13558848712E-01 +2.08449393653E-01 +7.46929923540E-03 -3.32599027446E-03 +7.61605333974E-03 -3.24298831346E-03 -4.26396017551E-01 +9.67957194768E-02
3.04500000000E+09 -3.04648880708E-01 +2.36509778086E-01 +6.01900706826E-03 -4.12954949871E-03 +6.35997365609E-03 -4.33590210264E-03 -4.31050506077E-01 +1.38023973397E-01
3.05000000000E+09 -2.95082271980E-01 +2.64861715752E-01 +5.32423280323E-03 -4.54385313872E-03 +5.42886343164E-03 -4.94960210285E-03 -4.32696094092E-01 +1.76639893963E-01
3.05500000000E+09 -2.83854224839E-01 +2.92818692771E-01 +4.87918930706E-03 -4.71677875729E-03 +4.58921383008E-03 -5.10435933364E-03 -4.34173897455E-01 +2.15450722322E-01
3.06000000000E+09 -2.70848059630E-01 +3.20189565855E-01 +4.58051180173E-03 -5.96343739304E-03 +4.07594140019E-03 -6.01988521030E-03 -4.31300962561E-01 +2.55098538726E-01
3.06500000000E+09 -2.57181950156E-01 +3.45371983713E-01 +3.12056632178E-03 -6.76337124375E-03 +2.96712641916E-03 -6.34827726955E-03 -4.24822588632E-01 +2.92662383233E-01
3.07000000000E+09 -2.43665860360E-01 +3.69268713716E-01 +1.55626150249E-03 -6.95678419814E-03 +1.85572421477E-03 -6.68419099315E-03 -4.16684026995E-01 +3.27217969446E-01
