# Hz S RI R 50
! CMT, C1220, 16058040, 17.2.0/1
! Date: 14/08/2018 12:55:25
! Data: Format (Calibration Info)
! Freq                      S11: Re/Im (F2)                       S21: Re/Im (F2)                       S12: Re/Im (F2)                       S22: Re/Im (F2)            
1.00000000000E+09 -6.45463082376E-01 +7.13568208119E-01 -2.67799263108E-06 +5.83412342971E-05 +9.07548326573E-06 +8.10945576426E-05 -7.19146943714E-01 +6.45548904722E-01
1.00500000000E+09 -6.38933017410E-01 +7.18294596675E-01 -1.60146660282E-05 +3.26270438815E-05 +2.74863897575E-05 -2.10037690679E-05 -7.15233679500E-01 +6.49380684286E-01
1.01000000000E+09 -6.32934671292E-01 +7.22710991608E-01 -3.47526949487E-05 +4.05064076338E-05 +2.89102153285E-05 -8.82749413645E-06 -7.11654098832E-01 +6.52931198681E-01
1.01500000000E+09 -6.27995870748E-01 +7.26617019565E-01 -2.06085734376E-05 +5.14719889390E-05 -4.89250563783E-05 -9.07546697590E-06 -7.08450513305E-01 +6.56599389727E-01
1.02000000000E+09 -6.24071960122E-01 +7.30231769021E-01 +7.58176089086E-06 +4.44255037429E-05 +6.31517043681E-05 +3.92325518725E-05 -7.04786877979E-01 +6.59922583156E-01
1.02500000000E+09 -6.20706889347E-01 +7.33527899992E-01 +2.85564043908E-06 -1.42388415436E-06 +4.78894591521E-05 +8.19859330064E-05 -7.01819943081E-01 +6.63463888638E-01
1.03000000000E+09 -6.17593437151E-01 +7.36415733590E-01 +3.05654165572E-07 +1.10183020750E-05 -6.30482649701E-06 +2.34000704682E-05 -6.98144931368E-01 +6.67213367283E-01
1.03500000000E+09 -6.13815672997E-01 +7.39526848594E-01 +1.95912610274E-05 -3.64849124419E-06 -2.29878978447E-05 +5.72061564761E-05 -6.94083183811E-01 +6.71043495155E-01
1.04000000000E+09 -6.09202652203E-01 +7.42754398814E-01 -1.54799687439E-05 -7.78278384629E-06 -6.80226827114E-06 +3.56787621153E-06 -6.89927237880E-01 +6.74443895688E-01
1.04500000000E+09 -6.03478695650E-01 +7.46565162014E-01 -8.72491295980E-06 +1.72278001044E-05 +2.82482329928E-05 +3.33712640422E-05 -6.86249397976E-01 +6.77921388571E-01
1.05000000000E+09 -5.96455076278E-01 +7.50723664120E-01 -1.77178203970E-05 +1.04008343389E-05 -4.79573916454E-05 +5.85805091077E-05 -6.82732315448E-01 +6.81113536582E-01
1.05500000000E+09 -5.88621235709E-01 +7.55071406094E-01 +4.90152211256E-05 +4.07166306426E-06 +4.55375834170E-05 +4.32832144046E-05 -6.79228749949E-01 +6.84757626082E-01
1.06000000000E+09 -5.80458669030E-01 +7.59736399236E-01 +3.45375177902E-05 -2.34540633114E-05 +2.49416341992E-05 +2.97225260071E-05 -6.75715438998E-01 +6.88403447864E-01
1.06500000000E+09 -5.72371093706E-01 +7.64424003008E-01 +3.87487522435E-05 +4.95268457032E-05 +2.30571733071E-06 -1.66883679770E-05 -6.71731891520E-01 +6.92207668178E-01
1.07000000000E+09 -5.64970687071E-01 +7.68464216984E-01 -4.54197690789E-06 +5.11069228038E-05 -6.43555778943E-06 +4.39677651402E-05 -6.67384692551E-01 +6.95715372681E-01
1.07500000000E+09 -5.58849921476E-01 +7.72362628529E-01 +1.83525982399E-05 +1.55162935123E-05 -2.35861545019E-06 +1.33950144283E-05 -6.62829211677E-01 +6.99112788316E-01
1.08000000000E+09 -5.53766851656E-01 +7.75612506351E-01 +2.23793171359E-05 +1.52453622722E-05 +2.98362365975E-05 +6.26805103890E-05 -6.58883393080E-01 +7.02865733793E-01
1.08500000000E+09 -5.49760388033E-01 +7.78290664513E-01 +3.96308503496E-05 +2.50199429636E-05 +8.72045630623E-06 +4.07194354051E-05 -6.54876524722E-01 +7.06342250301E-01
1.09000000000E+09 -5.46449902775E-01 +7.80702452660E-01 -1.39575718959E-06 +3.23172411556E-05 +5.04594772269E-05 +3.21810199615E-05 -6.50960405269E-01 +7.09910338035E-01
1.09500000000E+09 -5.43559514633E-01 +7.82835540380E-01 +1.88779920628E-05 +6.02108912632E-05 +3.08665225713E-05 +2.97256630052E-05 -6.47018681727E-01 +7.13655068565E-01
1.10000000000E+09 -5.39940956743E-01 +7.85099120472E-01 +2.55078166966E-05 +2.29466205464E-05 +7.29750952012E-05 +3.38717634051E-05 -6.42843258430E-01 +7.17409484591E-01
1.10500000000E+09 -5.35562827531E-01 +7.87801934505E-01 +2.07153087603E-05 -1.98695741727E-05 +4.83267936420E-05 -2.07106641464E-05 -6.38522327055E-01 +7.20589654514E-01
1.11000000000E+09 -5.30217520130E-01 +7.90826138459E-01 +4.37007674026E-05 +8.23800142111E-05 +5.54536664017E-05 +1.42417190463E-05 -6.34105419265E-01 +7.23715084404E-01
1.11500000000E+09 -5.23706019454E-01 +7.94362002649E-01 +6.73803841207E-05 +4.65131573972E-05 +2.36798621088E-05 +4.63119538388E-05 -6.29953613100E-01 +7.26930568859E-01
1.12000000000E+09 -5.16616201237E-01 +7.97767089955E-01 +4.50460353584E-05 +6.74982793880E-05 +8.40152987332E-05 -1.39073171074E-05 -6.25859344156E-01 +7.30431662091E-01
1.12500000000E+09 -5.09142851366E-01 +8.01355511947E-01 +9.24127386186E-05 +4.19213344362E-05 +9.71943192614E-05 +1.27806916113E-05 -6.21401878820E-01 +7.34271271148E-01
1.13000000000E+09 -5.01656105490E-01 +8.04618064113E-01 +4.54417744423E-05 +8.93780313251E-06 +7.16840663050E-05 +1.30913298927E-05 -6.16973293732E-01 +7.37751830008E-01
1.13500000000E+09 -4.94645586270E-01 +8.07215775793E-01 +9.22256965627E-05 -1.62316352729E-05 +5.57880351493E-05 +2.60246690094E-05 -6.11878635093E-01 +7.41459652499E-01
1.14000000000E+09 -4.88244383908E-01 +8.09619529307E-01 +1.23235226255E-04 -1.24332206140E-05 +1.23222466983E-04 -4.28104481969E-06 -6.07133928684E-01 +7.44631251419E-01
1.14500000000E+09 -4.82688175956E-01 +8.11339306676E-01 +9.08483027778E-05 -1.28035105402E-05 +9.76245938382E-05 -4.22471255893E-05 -6.02191555937E-01 +7.47914828602E-01
1.15000000000E+09 -4.77272545803E-01 +8.12982180735E-01 +3.36342019712E-05 -4.97348884466E-05 +5.04047314023E-05 -2.67980698936E-05 -5.97378658530E-01 +7.51785483792E-01
1.15500000000E+09 -4.72250709464E-01 +8.14863449651E-01 +9.10515699299E-05 -2.27159402028E-05 +1.04613171969E-04 +3.19381353292E-05 -5.92493599346E-01 +7.55283805588E-01
1.16000000000E+09 -4.66808996340E-01 +8.16593227652E-01 +6.53486597761E-05 +9.69530259385E-08 +1.00300087119E-04 -8.15689681055E-06 -5.87619377945E-01 +7.59028400797E-01
1.16500000000E+09 -4.60824974852E-01 +8.19293663516E-01 +1.29017363005E-04 -1.07140705903E-04 +1.04208938120E-04 -6.30694458708E-05 -5.82320841667E-01 +7.62329421785E-01
1.17000000000E+09 -4.54191464488E-01 +8.22032062569E-01 +1.04775427674E-04 -1.07302524915E-04 +1.19538757694E-04 -5.16446329090E-05 -5.76898433400E-01 +7.65455908303E-01
1.17500000000E+09 -4.46868982779E-01 +8.24986778295E-01 +9.12271424550E-05 -4.50360924371E-05 +9.87353098546E-05 -4.41875407477E-05 -5.71233712868E-01 +7.68347841089E-01
1.18000000000E+09 -4.39279402280E-01 +8.28093019203E-01 +1.01425964902E-04 -1.13992323485E-04 +7.71615579643E-05 -1.23097317147E-04 -5.65585251861E-01 +7.71282745126E-01
1.18500000000E+09 -4.31343927755E-01 +8.31077628848E-01 +1.27532255683E-04 -1.86585572672E-04 +1.64837855667E-04 -1.15362830032E-04 -5.59788141124E-01 +7.74030035869E-01
1.19000000000E+09 -4.23394244338E-01 +8.33525261800E-01 +5.39803193968E-05 -1.66507325509E-04 +1.30854971581E-04 -1.57596143801E-04 -5.53548291608E-01 +7.76368803755E-01
1.19500000000E+09 -4.15828347831E-01 +8.35275420973E-01 +1.40679919278E-04 -1.93438860656E-04 +7.77097570560E-05 -2.17109289550E-04 -5.47667037519E-01 +7.77330590150E-01
1.20000000000E+09 -4.08788635603E-01 +8.36158799361E-01 -3.60064019701E-05 -2.71547569522E-04 -4.65163906231E-05 -2.71605002865E-04 -5.43098866049E-01 +7.77443076647E-01
1.20500000000E+09 -4.01950210902E-01 +8.37279785872E-01 -1.21701883877E-04 -2.24415900303E-04 -1.25151192726E-04 -1.90047598971E-04 -5.40479340722E-01 +7.78133471657E-01
1.21000000000E+09 -3.95015299490E-01 +8.38554198516E-01 -1.00452117810E-04 -1.07699603330E-04 -5.96770008272E-05 -1.48651151915E-04 -5.38290238179E-01 +7.81192032739E-01
1.21500000000E+09 -3.87651625811E-01 +8.40031613393E-01 -5.18567170654E-05 -1.12670232004E-04 -5.90606755531E-05 -1.34642478908E-04 -5.35231537148E-01 +7.85639027153E-01
1.22000000000E+09 -3.79693411055E-01 +8.41856421572E-01 -4.69164817210E-05 -1.03087954574E-04 -1.72906262579E-05 -1.49091972939E-04 -5.30919017338E-01 +7.90826405418E-01
1.22500000000E+09 -3.71207460158E-01 +8.44182432049E-01 -3.29102512848E-05 -1.46857003278E-04 +2.09093655788E-06 -1.14920963019E-04 -5.25550565592E-01 +7.95502288186E-01
1.23000000000E+09 -3.62485711446E-01 +8.46851853724E-01 -6.83256462187E-05 -1.59131343902E-04 -5.07052883079E-05 -2.00503375367E-04 -5.19893313842E-01 +7.99898938962E-01
1.23500000000E+09 -3.53782611137E-01 +8.49805072515E-01 -7.99235984199E-05 -1.51786292418E-04 -8.69752781358E-05 -1.63012153526E-04 -5.13923183502E-01 +8.03867529833E-01
1.24000000000E+09 -3.45473163325E-01 +8.52763337554E-01 -6.37359150612E-05 -1.85597844058E-04 -4.88863780702E-05 -1.45158146763E-04 -5.07840878084E-01 +8.07397446743E-01
1.24500000000E+09 -3.37553040265E-01 +8.56017335500E-01 -9.35070098531E-05 -2.07060031112E-04 -6.71988078520E-05 -1.40384135653E-04 -5.01560910627E-01 +8.10965220567E-01
1.25000000000E+09 -3.29681207944E-01 +8.58557975978E-01 -1.71631584085E-04 -1.80167398813E-04 -1.20045275357E-04 -1.88392036519E-04 -4.94972571086E-01 +8.14773183392E-01
1.25500000000E+09 -3.22342122870E-01 +8.60122060888E-01 -1.59409845663E-04 -1.45726967299E-04 -1.24433713285E-04 -1.45561129306E-04 -4.88161168009E-01 +8.18533315723E-01
1.26000000000E+09 -3.14610865062E-01 +8.61168857926E-01 -1.33713116200E-04 -1.62771321255E-04 -1.54479984191E-04 -2.30706149563E-04 -4.81308766301E-01 +8.22397580390E-01
1.26500000000E+09 -3.06724633232E-01 +8.61667868497E-01 -1.81748235003E-04 -2.05102267798E-04 -1.92299624642E-04 -2.17480439273E-04 -4.74367390652E-01 +8.25804741749E-01
1.27000000000E+09 -2.98259708982E-01 +8.62004323747E-01 -2.61267201034E-04 -1.99632206925E-04 -2.88972837189E-04 -2.04134975677E-04 -4.67497833806E-01 +8.29403831994E-01
1.27500000000E+09 -2.89071872938E-01 +8.62315152339E-01 -2.59321391325E-04 -2.14084502312E-04 -2.73969146474E-04 -2.42519373296E-04 -4.60427021586E-01 +8.32564777027E-01
1.28000000000E+09 -2.78746690528E-01 +8.62960441827E-01 -3.13667251955E-04 -1.04240322833E-04 -3.30131577748E-04 -1.23251276605E-04 -4.53322975641E-01 +8.35843949420E-01
1.28500000000E+09 -2.67386779216E-01 +8.63937434665E-01 -3.36944959173E-04 -1.36465432119E-04 -3.91600128285E-04 -1.04899780526E-04 -4.45796890781E-01 +8.39410509551E-01
1.29000000000E+09 -2.56280453474E-01 +8.65395256883E-01 -3.28223069235E-04 -8.10803098885E-05 -3.94253656625E-04 -4.02949232302E-05 -4.38097764631E-01 +8.42759262375E-01
1.29500000000E+09 -2.45440309509E-01 +8.67484964769E-01 -3.94948174047E-04 -1.42008419732E-04 -4.33459279343E-04 -7.74248482337E-05 -4.30263603872E-01 +8.45676793050E-01
1.30000000000E+09 -2.34987924896E-01 +8.70023313880E-01 -4.59967056792E-04 -8.90946429042E-05 -4.88538391330E-04 -6.30152674461E-05 -4.22557960274E-01 +8.48991659969E-01
1.30500000000E+09 -2.25528378373E-01 +8.72756097732E-01 -5.39171915594E-04 -4.18504096405E-05 -5.12021814115E-04 +3.69757061350E-05 -4.14443119699E-01 +8.52058862314E-01
1.31000000000E+09 -2.16433896753E-01 +8.74710500274E-01 -5.82114492985E-04 +1.08992192286E-04 -5.49736464645E-04 +7.93138996508E-05 -4.06169855070E-01 +8.54970449031E-01
1.31500000000E+09 -2.08177096621E-01 +8.75804155581E-01 -5.46650711843E-04 +2.27966067597E-04 -5.72963773618E-04 +1.84593554184E-04 -3.97360713770E-01 +8.58121798877E-01
1.32000000000E+09 -2.00434221237E-01 +8.75852251219E-01 -5.13976139335E-04 +2.22934390698E-04 -5.66398089320E-04 +2.25617012923E-04 -3.88454662003E-01 +8.61183679106E-01
1.32500000000E+09 -1.92640491046E-01 +8.75152421646E-01 -5.82844943639E-04 +2.53189949810E-04 -6.32018117808E-04 +3.01962813181E-04 -3.79045328074E-01 +8.64100000201E-01
1.33000000000E+09 -1.84177347514E-01 +8.74281146851E-01 -6.37021496743E-04 +3.45279289364E-04 -5.95739144833E-04 +4.05210707377E-04 -3.69690334580E-01 +8.66922428080E-01
1.33500000000E+09 -1.74290255321E-01 +8.72838668974E-01 -6.25360406411E-04 +5.45069112601E-04 -5.67577285242E-04 +5.61578844070E-04 -3.60058498773E-01 +8.69718430685E-01
1.34000000000E+09 -1.62856153247E-01 +8.71792652730E-01 -5.76743048114E-04 +5.79200414780E-04 -4.89702709998E-04 +6.27114607299E-04 -3.50033645826E-01 +8.72544938756E-01
1.34500000000E+09 -1.49870793513E-01 +8.70916562398E-01 -4.78600757505E-04 +7.06456009884E-04 -5.21129991435E-04 +6.54804861695E-04 -3.39231041936E-01 +8.75157850576E-01
1.35000000000E+09 -1.35832750402E-01 +8.70584331407E-01 -4.44666145451E-04 +7.54967563367E-04 -4.52841254090E-04 +7.46621939816E-04 -3.28445412395E-01 +8.77787380799E-01
1.35500000000E+09 -1.21041067885E-01 +8.70745937955E-01 -4.04053979668E-04 +8.44630423448E-04 -4.23148982581E-04 +8.35334725022E-04 -3.16977208837E-01 +8.80120437804E-01
1.36000000000E+09 -1.05842836812E-01 +8.71090237354E-01 -3.51845768117E-04 +9.26075504962E-04 -3.48611572028E-04 +9.07595062011E-04 -3.05467123987E-01 +8.82242839038E-01
1.36500000000E+09 -9.05781131075E-02 +8.71008682642E-01 -3.19008972421E-04 +1.06169614145E-03 -3.24116942169E-04 +9.82094009717E-04 -2.93666922976E-01 +8.84169212319E-01
1.37000000000E+09 -7.61567303658E-02 +8.69782575461E-01 -2.14130661426E-04 +1.19930455902E-03 -2.38127743477E-04 +1.12925129538E-03 -2.81062363146E-01 +8.86097612133E-01
1.37500000000E+09 -6.29273646180E-02 +8.67684783994E-01 +5.06643454499E-06 +1.33386307999E-03 -1.86159023356E-04 +1.28119575539E-03 -2.67644366118E-01 +8.87881200759E-01
1.38000000000E+09 -5.03542353549E-02 +8.64687730901E-01 +1.25079936966E-04 +1.36418955561E-03 -7.07010421195E-05 +1.38016912668E-03 -2.53244293268E-01 +8.89451142903E-01
1.38500000000E+09 -3.78947835908E-02 +8.60865773419E-01 +1.99372109755E-04 +1.47830454053E-03 +1.05847623802E-04 +1.69425118617E-03 -2.38385144033E-01 +8.90685142233E-01
1.39000000000E+09 -2.53058697126E-02 +8.56344202979E-01 +3.62006736266E-04 +1.60139641061E-03 +4.69237283919E-04 +1.82408385053E-03 -2.23138043258E-01 +8.91570345124E-01
1.39500000000E+09 -1.15435029515E-02 +8.51560852825E-01 +6.06442198317E-04 +1.68846529802E-03 +7.61120053018E-04 +1.85725811246E-03 -2.07153226373E-01 +8.91928647898E-01
1.40000000000E+09 +3.61039443858E-03 +8.46112785657E-01 +8.89480593896E-04 +1.87842800858E-03 +1.06348554662E-03 +1.83858150778E-03 -1.90470557004E-01 +8.91868546169E-01
1.40500000000E+09 +1.95323811056E-02 +8.40714521657E-01 +1.34854643302E-03 +1.93465796816E-03 +1.43152572877E-03 +1.79350664143E-03 -1.72734837671E-01 +8.91156676732E-01
1.41000000000E+09 +3.66786253465E-02 +8.35614600284E-01 +1.76519691668E-03 +1.74076540250E-03 +1.73125887677E-03 +1.72847434396E-03 -1.53568059372E-01 +8.89900174662E-01
1.41500000000E+09 +5.52980116008E-02 +8.30671056081E-01 +2.00921777674E-03 +1.62360385851E-03 +2.02022395454E-03 +1.72659519314E-03 -1.32707900148E-01 +8.87919151862E-01
1.42000000000E+09 +7.57746724997E-02 +8.25000147635E-01 +2.32752663603E-03 +1.51312326550E-03 +2.52827558870E-03 +1.72163972350E-03 -1.10743245305E-01 +8.84783079428E-01
1.42500000000E+09 +9.67972778197E-02 +8.17376870561E-01 +2.75551122569E-03 +1.35079050439E-03 +3.12456775909E-03 +1.38996518039E-03 -8.82200752177E-02 +8.80536015843E-01
1.43000000000E+09 +1.17944667622E-01 +8.07272297626E-01 +3.25172002305E-03 +1.27140645735E-03 +3.64037211107E-03 +1.10467431359E-03 -6.48967233879E-02 +8.75585456302E-01
1.43500000000E+09 +1.38756088768E-01 +7.94486282722E-01 +4.12491346084E-03 +8.26167264411E-04 +4.29807991247E-03 +3.98000721030E-04 -3.97531253295E-02 +8.68736222878E-01
1.44000000000E+09 +1.59671025946E-01 +7.79988558709E-01 +4.69934143007E-03 -2.65433325895E-04 +4.71463596338E-03 -5.13199552475E-04 -1.31844381982E-02 +8.59683670921E-01
1.44500000000E+09 +1.81618185710E-01 +7.62828932426E-01 +4.57652910476E-03 -1.16788500261E-03 +4.58719288579E-03 -1.43070387597E-03 +1.53962053516E-02 +8.48334008738E-01
1.45000000000E+09 +2.04546376668E-01 +7.43096630909E-01 +4.46528859895E-03 -1.67101299745E-03 +4.46525206974E-03 -1.97806046826E-03 +4.56030658388E-02 +8.33904613151E-01
1.45500000000E+09 +2.28450954641E-01 +7.20768693238E-01 +4.74546695721E-03 -2.20178018122E-03 +4.55817943646E-03 -2.62169978223E-03 +7.67368510785E-02 +8.16830669530E-01
1.46000000000E+09 +2.53677731588E-01 +6.96183569039E-01 +5.13255697952E-03 -3.08860366503E-03 +4.63688839957E-03 -3.43944995200E-03 +1.09891035008E-01 +7.95846318348E-01
1.46500000000E+09 +2.80484485553E-01 +6.69389191081E-01 +5.43909899173E-03 -4.43778296520E-03 +4.80757828050E-03 -4.38042691819E-03 +1.43968755158E-01 +7.69808084872E-01
1.47000000000E+09 +3.09198436092E-01 +6.38829285292E-01 +5.36369890939E-03 -6.39758434824E-03 +4.92699084733E-03 -5.89885964117E-03 +1.78849420063E-01 +7.37275781570E-01
1.47500000000E+09 +3.38247591276E-01 +6.02259290279E-01 +4.09870906269E-03 -8.52293569432E-03 +4.23987744755E-03 -8.03231226592E-03 +2.13698873441E-01 +6.97422789287E-01
1.48000000000E+09 +3.65116129834E-01 +5.58378540015E-01 +2.28732846313E-03 -9.74032583887E-03 +2.57705185793E-03 -9.77564040726E-03 +2.48113524603E-01 +6.50269517808E-01
1.48500000000E+09 +3.87697401439E-01 +5.06208510350E-01 +7.53583781731E-04 -1.08845164313E-02 +5.64694890656E-04 -1.12252274003E-02 +2.80551768809E-01 +5.93905649341E-01
1.49000000000E+09 +4.03479293393E-01 +4.46432914775E-01 -1.50135206008E-03 -1.24079626662E-02 -2.06523040202E-03 -1.23769798917E-02 +3.08082206045E-01 +5.27456804839E-01
1.49500000000E+09 +4.11968556197E-01 +3.79509204651E-01 -5.18427185622E-03 -1.33941085515E-02 -5.52392235492E-03 -1.25625293345E-02 +3.26663848365E-01 +4.50118841796E-01
1.50000000000E+09 +4.11694450535E-01 +3.03463219331E-01 -9.09439344476E-03 -1.28201133641E-02 -8.57956525671E-03 -1.20461274529E-02 +3.32365890049E-01 +3.62999876266E-01
1.50500000000E+09 +3.98144321704E-01 +2.20083415265E-01 -1.33238468707E-02 -1.11958583977E-02 -1.23679813134E-02 -1.11503895969E-02 +3.21427500714E-01 +2.67945254946E-01
1.51000000000E+09 +3.69910419907E-01 +1.33156640223E-01 -1.71437442881E-02 -7.48971329124E-03 -1.66358813638E-02 -8.10550108327E-03 +2.89557323717E-01 +1.68057585597E-01
1.51500000000E+09 +3.23257001824E-01 +4.51360023383E-02 -1.97325410353E-02 -3.00457635866E-03 -1.98166748581E-02 -3.56926686988E-03 +2.34250195037E-01 +7.18956962745E-02
1.52000000000E+09 +2.56572038405E-01 -3.40515345857E-02 -2.12234243498E-02 +2.52285892436E-03 -2.14677621772E-02 +2.27453816509E-03 +1.56438179229E-01 -1.25201797493E-02
1.52500000000E+09 +1.73504033580E-01 -9.96124330050E-02 -2.05669334508E-02 +1.00722001899E-02 -2.08015829630E-02 +1.00454824786E-02 +6.21938639623E-02 -7.93953737627E-02
1.53000000000E+09 +7.64099923244E-02 -1.46162394384E-01 -1.53461798489E-02 +1.58051898359E-02 -1.54724926713E-02 +1.58624543133E-02 -4.78701075733E-02 -1.23188868478E-01
1.53500000000E+09 -2.93034713291E-02 -1.70031461857E-01 -1.02503982854E-02 +1.86690402599E-02 -1.02261691617E-02 +1.86695856653E-02 -1.60679943672E-01 -1.39724887045E-01
1.54000000000E+09 -1.39013453285E-01 -1.69189671886E-01 -4.73290653893E-03 +2.01913666306E-02 -4.79295187582E-03 +1.99368046024E-02 -2.71057106325E-01 -1.32445919558E-01
1.54500000000E+09 -2.42775171803E-01 -1.43522740901E-01 +1.68707614827E-03 +2.01249107587E-02 +1.19910300199E-03 +1.98990682838E-02 -3.69868887717E-01 -1.03508267538E-01
1.55000000000E+09 -3.34451663733E-01 -1.00425653900E-01 +6.37747885442E-03 +1.68748015638E-02 +5.72643682885E-03 +1.70752581740E-02 -4.52988263464E-01 -6.04127478542E-02
1.55500000000E+09 -4.11152842522E-01 -4.54310013424E-02 +9.22784033855E-03 +1.38454649188E-02 +8.82195514623E-03 +1.46126367288E-02 -5.20525293365E-01 -8.76410934131E-03
1.56000000000E+09 -4.71696037163E-01 +1.33102093259E-02 +1.15864148655E-02 +1.02486352083E-02 +1.17253274845E-02 +1.11810614696E-02 -5.73645951477E-01 +4.73601801808E-02
1.56500000000E+09 -5.19998194751E-01 +7.32275937151E-02 +1.20179366524E-02 +6.39434502859E-03 +1.26744345564E-02 +6.91284645517E-03 -6.14806515433E-01 +1.05064110246E-01
1.57000000000E+09 -5.56263223202E-01 +1.32520399022E-01 +1.14621893617E-02 +3.74886117067E-03 +1.21914668990E-02 +3.84957891793E-03 -6.44251027404E-01 +1.62461757601E-01
