# Hz S RI R 50
! CMT, C1220, 16058040, 17.2.0/1
! Date: 14/08/2018 12:56:47
! Data: Format (Calibration Info)
! Freq                      S11: Re/Im (F2)                       S21: Re/Im (F2)                       S12: Re/Im (F2)                       S22: Re/Im (F2)            
1.00000000000E+09 -6.47079681067E-01 +7.13070490412E-01 +4.96694049875E-05 -9.82952631586E-06 +1.27547185860E-05 +3.40820067673E-05 -7.19072740113E-01 +6.45695035084E-01
1.00500000000E+09 -6.40683227771E-01 +7.17662973938E-01 +1.84911735446E-05 -9.96502619226E-06 +2.22941012804E-05 +2.57935122266E-05 -7.15211768073E-01 +6.49859361993E-01
1.01000000000E+09 -6.34808731461E-01 +7.22219073012E-01 +6.24217922616E-07 +1.95860359051E-05 -3.45743050215E-05 +5.29194324778E-05 -7.11526894953E-01 +6.53218025599E-01
1.01500000000E+09 -6.29925689872E-01 +7.26061963627E-01 +1.61881455795E-05 +3.92734752643E-05 -5.13028537320E-05 +3.16221588665E-05 -7.08195093079E-01 +6.56785255894E-01
1.02000000000E+09 -6.26001614405E-01 +7.29629169470E-01 +2.19281274131E-05 +2.43537288209E-05 -3.28185913179E-05 +5.82922106065E-05 -7.04766287197E-01 +6.60001453916E-01
1.02500000000E+09 -6.22516731718E-01 +7.32985537248E-01 -1.66644912883E-05 +2.55536604836E-05 +5.76272299040E-05 +5.57438261357E-05 -7.01792627037E-01 +6.63674703772E-01
1.03000000000E+09 -6.19437265018E-01 +7.35912415471E-01 -5.85818545461E-06 -6.25490341614E-06 +1.57384945742E-05 +4.55527386989E-05 -6.97974549140E-01 +6.67439828410E-01
1.03500000000E+09 -6.15821158665E-01 +7.38867180608E-01 -2.77747401352E-05 +6.31404940387E-06 -2.64610017918E-05 -6.62391699019E-06 -6.93877322860E-01 +6.71329531552E-01
1.04000000000E+09 -6.11004987907E-01 +7.42122167483E-01 +4.15068286652E-06 +2.61799367213E-05 +2.84846038846E-06 +1.97379353878E-05 -6.89927200409E-01 +6.74867456754E-01
1.04500000000E+09 -6.05385176725E-01 +7.45642470375E-01 +5.33532461880E-06 -3.54130057247E-06 +4.33289024622E-05 -3.21824302766E-05 -6.86217187105E-01 +6.78171368326E-01
1.05000000000E+09 -5.98621974184E-01 +7.49829091429E-01 +4.65574795073E-05 +2.87400971652E-05 +7.58009542498E-06 -2.20536928380E-05 -6.82662579808E-01 +6.81432469492E-01
1.05500000000E+09 -5.90925532293E-01 +7.54271729452E-01 +3.04907396864E-05 +2.56912717982E-05 -3.04236473592E-05 +1.58644025871E-05 -6.79108084808E-01 +6.84988599153E-01
1.06000000000E+09 -5.82801452981E-01 +7.58850159460E-01 -2.94105305697E-05 +5.51838431010E-05 +8.64948136848E-06 +3.97015496741E-05 -6.75632007588E-01 +6.88851212583E-01
1.06500000000E+09 -5.74970902112E-01 +7.63417365191E-01 +2.07912676262E-05 +2.01538552497E-06 +1.41104885327E-05 +2.59507375297E-05 -6.71499611206E-01 +6.92408069029E-01
1.07000000000E+09 -5.67809656230E-01 +7.67601237920E-01 -2.79167031846E-05 +5.97559071808E-05 -3.24485372764E-05 +3.35140169516E-05 -6.67317087229E-01 +6.95839510678E-01
1.07500000000E+09 -5.61561706398E-01 +7.71247023351E-01 +1.10683959443E-05 +1.24008824006E-05 +3.53072784198E-05 +1.28284968417E-05 -6.62751198624E-01 +6.99417031514E-01
1.08000000000E+09 -5.56594957907E-01 +7.74624625779E-01 +7.48261087342E-05 +3.44517604027E-05 +1.86506439112E-05 +1.59547366561E-05 -6.58707569826E-01 +7.03074796487E-01
1.08500000000E+09 -5.52710066845E-01 +7.77260811313E-01 +3.73765767480E-05 +1.38870520829E-05 +5.14268200166E-05 +3.11559770008E-05 -6.54590390671E-01 +7.06555744697E-01
1.09000000000E+09 -5.49313034124E-01 +7.79628219907E-01 +4.52211033216E-05 +5.08356382900E-05 +9.75173702584E-06 +5.68204319743E-05 -6.50732460031E-01 +7.10145978663E-01
1.09500000000E+09 -5.46393697636E-01 +7.81625052319E-01 +2.14929096576E-05 +3.13075974512E-05 +6.06285974843E-05 +2.32957341993E-05 -6.46845588187E-01 +7.13915692723E-01
1.10000000000E+09 -5.42728220111E-01 +7.83989317041E-01 +6.42384988572E-05 +4.79777091371E-05 +7.46639894548E-05 +1.29117925395E-05 -6.42589311960E-01 +7.17386701813E-01
1.10500000000E+09 -5.38499978228E-01 +7.86588347704E-01 +5.10088505184E-05 +4.26103556747E-05 -4.96273052749E-06 +5.57951178586E-05 -6.38213451814E-01 +7.20879346491E-01
1.11000000000E+09 -5.33156821443E-01 +7.89617626038E-01 +5.13216970999E-05 +5.09464781330E-05 -1.21501563675E-05 +1.92738668233E-05 -6.33985273333E-01 +7.24094645615E-01
1.11500000000E+09 -5.26604265055E-01 +7.93195816210E-01 +7.41087719463E-05 +1.77044929556E-05 +5.32481589144E-05 +2.16312071554E-05 -6.29857443170E-01 +7.27127224317E-01
1.12000000000E+09 -5.19718300738E-01 +7.96723687698E-01 +7.05803398040E-05 -6.57489728381E-06 +5.58037509463E-05 +2.99359291560E-05 -6.25753554997E-01 +7.30730105349E-01
1.12500000000E+09 -5.12190571285E-01 +8.00353909153E-01 +5.67063262900E-05 +7.63759972984E-06 +6.31149204648E-05 -4.36903068175E-05 -6.21210032125E-01 +7.34457566184E-01
1.13000000000E+09 -5.04998892708E-01 +8.03633158417E-01 +7.25628993718E-05 -6.04249676953E-06 +7.13479500670E-05 -7.61577307484E-06 -6.16703198951E-01 +7.37936411991E-01
1.13500000000E+09 -4.97971163875E-01 +8.06133484784E-01 +9.21646475763E-05 -2.60972622925E-05 +7.71456803920E-05 +2.44690754423E-05 -6.11730694034E-01 +7.41671637615E-01
1.14000000000E+09 -4.91703137848E-01 +8.08502169686E-01 +8.59757434904E-05 -1.61314177137E-06 +7.20318745604E-05 -2.36053735606E-05 -6.06919690521E-01 +7.44933855699E-01
1.14500000000E+09 -4.86130475194E-01 +8.10096739212E-01 +9.31131534671E-05 -6.65298282210E-05 +7.76101368093E-05 -8.05655356215E-06 -6.02068874560E-01 +7.48222125130E-01
1.15000000000E+09 -4.80865285567E-01 +8.11735688037E-01 +8.01859617489E-05 -2.74091037524E-05 +5.61398960140E-05 -3.00209574671E-05 -5.97384669730E-01 +7.51824973830E-01
1.15500000000E+09 -4.75871378883E-01 +8.13609918728E-01 +7.36104691421E-05 -1.92577738751E-05 +1.14398842580E-04 -4.57023488468E-05 -5.92358157724E-01 +7.55453910737E-01
1.16000000000E+09 -4.70542253572E-01 +8.15497279813E-01 +8.93702903625E-05 -3.68329788148E-05 +1.07766311385E-04 -1.71046521720E-05 -5.87456122770E-01 +7.59224664085E-01
1.16500000000E+09 -4.64646776458E-01 +8.18010866549E-01 +1.01098635426E-04 -2.84330487808E-05 +1.30809583122E-04 -9.42631396941E-05 -5.82200665624E-01 +7.62428050559E-01
1.17000000000E+09 -4.58081797569E-01 +8.20810745643E-01 +1.24075219267E-04 -7.35192721910E-05 +1.36444550950E-04 -8.38090156323E-05 -5.76569469757E-01 +7.65649948307E-01
1.17500000000E+09 -4.50898999253E-01 +8.23759489907E-01 +1.56591635622E-04 -5.65402118840E-05 +1.57436993873E-04 -6.67698175815E-05 -5.70865196433E-01 +7.68604180052E-01
1.18000000000E+09 -4.43591438868E-01 +8.27017688382E-01 +1.24075162696E-04 -1.06605307275E-04 +1.54496657663E-04 -1.05184705690E-04 -5.65470296685E-01 +7.71333679141E-01
1.18500000000E+09 -4.35713550885E-01 +8.29823660544E-01 +9.99814520801E-05 -1.23462073777E-04 +1.10902560051E-04 -1.60560119995E-04 -5.59761580351E-01 +7.74264659136E-01
1.19000000000E+09 -4.28087464686E-01 +8.32163601057E-01 +1.05783440030E-04 -1.79793156693E-04 +7.54550502398E-05 -1.64659368348E-04 -5.53407522290E-01 +7.76517302040E-01
1.19500000000E+09 -4.20412221545E-01 +8.34185272744E-01 +1.13816890703E-04 -2.58729977480E-04 +1.18696677655E-04 -2.41543982003E-04 -5.47482864261E-01 +7.77523446079E-01
1.20000000000E+09 -4.13645457486E-01 +8.34846820647E-01 +5.47774170816E-06 -3.05120822597E-04 -6.34530295776E-06 -3.06883024795E-04 -5.42995627976E-01 +7.77583183427E-01
1.20500000000E+09 -4.06759206110E-01 +8.36201559291E-01 -8.17477915373E-05 -2.46733396247E-04 -1.21034947484E-04 -1.86939589482E-04 -5.40357695082E-01 +7.78399409145E-01
1.21000000000E+09 -4.00141988532E-01 +8.37295678418E-01 -1.08917801077E-04 -1.61519899616E-04 -7.20471909406E-05 -1.27116546067E-04 -5.38262267062E-01 +7.81352678527E-01
1.21500000000E+09 -3.92973257383E-01 +8.38981406130E-01 -3.32242307325E-05 -1.25491179914E-04 -8.46928640230E-05 -1.25984320770E-04 -5.35161583028E-01 +7.85889522436E-01
1.22000000000E+09 -3.85001431523E-01 +8.40755962075E-01 -3.03540689937E-05 -1.35753555842E-04 -1.74049188300E-05 -1.36050586685E-04 -5.30638311373E-01 +7.90938054393E-01
1.22500000000E+09 -3.76700710697E-01 +8.43125520127E-01 -1.01662634911E-05 -1.93635911375E-04 +2.67576240249E-06 -1.60422586194E-04 -5.25452586235E-01 +7.95683259931E-01
1.23000000000E+09 -3.68065915629E-01 +8.45906640340E-01 -7.32050492960E-05 -1.94963531200E-04 -8.63058001749E-05 -1.71648936402E-04 -5.19739602142E-01 +8.00144396550E-01
1.23500000000E+09 -3.59654251745E-01 +8.48867368961E-01 -2.78726276583E-05 -1.40604182935E-04 -7.66714780666E-05 -1.70872145703E-04 -5.13677087299E-01 +8.04077706017E-01
1.24000000000E+09 -3.51228819237E-01 +8.51859838056E-01 -6.54467242930E-05 -1.95084163442E-04 -1.43182115702E-04 -1.88882627866E-04 -5.07642769721E-01 +8.07611259965E-01
1.24500000000E+09 -3.43459817076E-01 +8.55156689836E-01 -1.42487511954E-04 -2.59047638530E-04 -1.27422441266E-04 -1.83322742485E-04 -5.01286766154E-01 +8.11047201576E-01
1.25000000000E+09 -3.35841612022E-01 +8.57671528104E-01 -1.50601341668E-04 -2.13000075009E-04 -1.35373226850E-04 -2.13756752520E-04 -4.94741657133E-01 +8.14964196846E-01
1.25500000000E+09 -3.28243280489E-01 +8.59391803422E-01 -1.28307016673E-04 -2.21987927760E-04 -1.64013115991E-04 -1.96794844517E-04 -4.87957780731E-01 +8.18592836168E-01
1.26000000000E+09 -3.20603711606E-01 +8.60373558225E-01 -1.57661985470E-04 -2.38503516444E-04 -1.98158024966E-04 -2.41178875619E-04 -4.81116433613E-01 +8.22427304710E-01
1.26500000000E+09 -3.12874983101E-01 +8.61042480145E-01 -2.48314217295E-04 -2.59904449779E-04 -2.55954390189E-04 -2.42195522654E-04 -4.74303770074E-01 +8.25915769137E-01
1.27000000000E+09 -3.04690737637E-01 +8.61344420344E-01 -2.80871125006E-04 -2.40786512618E-04 -2.85914027346E-04 -2.43099522793E-04 -4.67233501883E-01 +8.29407951266E-01
1.27500000000E+09 -2.95417901814E-01 +8.61813882981E-01 -3.36831794267E-04 -2.07446593652E-04 -3.04603556528E-04 -2.25406790098E-04 -4.60251750552E-01 +8.32654507652E-01
1.28000000000E+09 -2.85314264869E-01 +8.62639977855E-01 -4.07923289931E-04 -1.54881459137E-04 -4.01846539328E-04 -1.86779007484E-04 -4.53198878276E-01 +8.35917722184E-01
1.28500000000E+09 -2.74194693988E-01 +8.63677373861E-01 -3.82702980902E-04 -1.17006460463E-04 -4.54914957933E-04 -1.76826214872E-04 -4.45677935141E-01 +8.39442525844E-01
1.29000000000E+09 -2.63187974084E-01 +8.65349382075E-01 -4.66596996742E-04 -1.06372223263E-04 -4.56123454367E-04 -8.78499806663E-05 -4.38023627897E-01 +8.42859065336E-01
1.29500000000E+09 -2.52434156219E-01 +8.67462811648E-01 -4.33443948121E-04 -1.09404291625E-04 -5.23436065175E-04 -7.68811221997E-05 -4.30173808090E-01 +8.45847054245E-01
1.30000000000E+09 -2.42314706866E-01 +8.70199411792E-01 -5.53631390206E-04 -8.82264305655E-05 -5.48412684971E-04 -1.73567050915E-05 -4.22402391688E-01 +8.49003082914E-01
1.30500000000E+09 -2.32933200006E-01 +8.72887842584E-01 -6.48757472865E-04 +1.54605349019E-05 -5.73194915652E-04 +7.51800879806E-05 -4.14326509173E-01 +8.52119098140E-01
1.31000000000E+09 -2.24068693226E-01 +8.74993270693E-01 -6.74131829829E-04 +1.47101625520E-04 -6.00000337433E-04 +9.19941585598E-05 -4.06124823731E-01 +8.55264734176E-01
1.31500000000E+09 -2.15918111962E-01 +8.76304330929E-01 -5.98705303531E-04 +2.31017224282E-04 -6.66296293778E-04 +2.09824763989E-04 -3.97444336926E-01 +8.58287508931E-01
1.32000000000E+09 -2.08134628662E-01 +8.76532114966E-01 -6.02203452359E-04 +2.86207285496E-04 -6.53812551552E-04 +2.49410352877E-04 -3.88332892487E-01 +8.61313222325E-01
1.32500000000E+09 -2.00495418089E-01 +8.75982030373E-01 -6.03993141178E-04 +3.74978159820E-04 -6.58578680219E-04 +3.97817409846E-04 -3.78853795121E-01 +8.64296180715E-01
1.33000000000E+09 -1.92043172046E-01 +8.75189441980E-01 -6.49652459772E-04 +3.94237810781E-04 -6.87335076843E-04 +4.66713768180E-04 -3.69583495175E-01 +8.67135886700E-01
1.33500000000E+09 -1.82198934754E-01 +8.73977739457E-01 -7.03256555068E-04 +5.49699510949E-04 -6.21728151971E-04 +6.03974367428E-04 -3.60057349105E-01 +8.69945469321E-01
1.34000000000E+09 -1.70898309244E-01 +8.73059616594E-01 -6.35531125029E-04 +6.09996384417E-04 -5.07492854550E-04 +6.70046818271E-04 -3.49919253783E-01 +8.72748483743E-01
1.34500000000E+09 -1.57817537632E-01 +8.72470767410E-01 -5.81958548046E-04 +7.29719892384E-04 -5.44910592871E-04 +7.29118468764E-04 -3.39285063226E-01 +8.75531382849E-01
1.35000000000E+09 -1.43823272557E-01 +8.72118684647E-01 -4.89730822173E-04 +8.48918347861E-04 -5.07161949769E-04 +8.67959914518E-04 -3.28268992529E-01 +8.78169496405E-01
1.35500000000E+09 -1.29054603038E-01 +8.72436753244E-01 -4.74035149227E-04 +9.24700029303E-04 -4.66755604973E-04 +9.59857575915E-04 -3.16893088829E-01 +8.80459041585E-01
1.36000000000E+09 -1.13964853035E-01 +8.72725193116E-01 -4.12673414219E-04 +1.00003652366E-03 -3.78822972702E-04 +1.01846519249E-03 -3.05333170167E-01 +8.82649200486E-01
1.36500000000E+09 -9.88370079590E-02 +8.72849401655E-01 -3.86253045757E-04 +1.19991758893E-03 -3.22824073702E-04 +1.13024672413E-03 -2.93590474728E-01 +8.84598288579E-01
1.37000000000E+09 -8.45240824095E-02 +8.71818274259E-01 -1.89419621618E-04 +1.38667559975E-03 -2.93104645377E-04 +1.28243252249E-03 -2.81021355766E-01 +8.86558579234E-01
1.37500000000E+09 -7.13570136647E-02 +8.69898994965E-01 +4.37051520166E-05 +1.47379841121E-03 -1.43714369516E-04 +1.43574718074E-03 -2.67626879919E-01 +8.88337392647E-01
1.38000000000E+09 -5.90653553545E-02 +8.67157770302E-01 +1.52071283811E-04 +1.48980268418E-03 -3.92004343771E-05 +1.58757767902E-03 -2.53178753058E-01 +8.89836869854E-01
1.38500000000E+09 -4.64944070043E-02 +8.63485580043E-01 +2.58706204081E-04 +1.62772624928E-03 +1.61506200500E-04 +1.84779003211E-03 -2.38289608053E-01 +8.91256694775E-01
1.39000000000E+09 -3.38498129696E-02 +8.59484496268E-01 +4.30716348706E-04 +1.69216005716E-03 +4.85789025915E-04 +1.97591756378E-03 -2.22935523068E-01 +8.92212696124E-01
1.39500000000E+09 -1.99818002327E-02 +8.55078182920E-01 +6.48043301915E-04 +1.89455502458E-03 +8.77952668926E-04 +2.02909975309E-03 -2.06867166462E-01 +8.92442343025E-01
1.40000000000E+09 -4.76077171065E-03 +8.50114858059E-01 +9.56176035851E-04 +2.03289937292E-03 +1.18600129084E-03 +2.02981784125E-03 -1.89970078395E-01 +8.92533483245E-01
1.40500000000E+09 +1.15530646008E-02 +8.45063740899E-01 +1.44976936715E-03 +2.17550024686E-03 +1.57380278188E-03 +2.03018744791E-03 -1.72151824692E-01 +8.91805956344E-01
1.41000000000E+09 +2.89626876994E-02 +8.40126345889E-01 +2.02550680363E-03 +1.95186354187E-03 +1.97002032347E-03 +1.95048208639E-03 -1.52727743111E-01 +8.90651384476E-01
1.41500000000E+09 +4.78750492286E-02 +8.35430012413E-01 +2.24637555385E-03 +1.75926466165E-03 +2.21614523135E-03 +1.97499907605E-03 -1.31898297519E-01 +8.88517021895E-01
1.42000000000E+09 +6.84458811611E-02 +8.29826902525E-01 +2.60209569713E-03 +1.67362355989E-03 +2.85431479370E-03 +1.91258496132E-03 -1.10008477190E-01 +8.85296463193E-01
1.42500000000E+09 +8.94706077905E-02 +8.22281999924E-01 +3.03526124191E-03 +1.53230771802E-03 +3.48604731498E-03 +1.56909497868E-03 -8.71813046801E-02 +8.81224091383E-01
1.43000000000E+09 +1.10766847464E-01 +8.12363625948E-01 +3.60845314987E-03 +1.47697198937E-03 +3.99463428917E-03 +1.22800121581E-03 -6.35951924556E-02 +8.76071307370E-01
1.43500000000E+09 +1.31716706466E-01 +7.99969524441E-01 +4.56158388506E-03 +1.03165303705E-03 +4.73276090155E-03 +6.35763481412E-04 -3.83473260028E-02 +8.69005983485E-01
1.44000000000E+09 +1.52656407216E-01 +7.85711438399E-01 +5.24941315558E-03 -6.17379005821E-05 +5.26982000335E-03 -4.11033312704E-04 -1.15827033645E-02 +8.59822288754E-01
1.44500000000E+09 +1.75150062908E-01 +7.68884001971E-01 +5.33903624590E-03 -1.19064704593E-03 +5.36158641997E-03 -1.51134910189E-03 +1.71355656254E-02 +8.48200021542E-01
1.45000000000E+09 +1.98316543147E-01 +7.49173361292E-01 +5.29583085043E-03 -1.93686017084E-03 +5.26616584569E-03 -2.36863314373E-03 +4.71618840343E-02 +8.33336909405E-01
1.45500000000E+09 +2.22711071731E-01 +7.27151877181E-01 +5.47966101417E-03 -2.64807104063E-03 +5.29945012094E-03 -3.16407040338E-03 +7.83695219651E-02 +8.15983959967E-01
1.46000000000E+09 +2.48538021850E-01 +7.02807440591E-01 +5.81802028915E-03 -3.67528052987E-03 +5.25998147443E-03 -4.00590957016E-03 +1.11498488186E-01 +7.94764848896E-01
1.46500000000E+09 +2.75735341584E-01 +6.75906428281E-01 +6.05681730581E-03 -5.14535791311E-03 +5.35265521801E-03 -5.04409273883E-03 +1.45644854096E-01 +7.68325720618E-01
1.47000000000E+09 +3.04694507649E-01 +6.44940228957E-01 +6.03539205374E-03 -7.23103287179E-03 +5.58447867308E-03 -6.65237197907E-03 +1.80476503095E-01 +7.35207610522E-01
1.47500000000E+09 +3.34122800882E-01 +6.08222856427E-01 +4.70078945133E-03 -9.73521955692E-03 +4.87165240672E-03 -9.14256629731E-03 +2.14688024541E-01 +6.94796015246E-01
1.48000000000E+09 +3.61282603187E-01 +5.64120703035E-01 +2.64439140373E-03 -1.12010989609E-02 +3.02509292203E-03 -1.12606916942E-02 +2.48786523102E-01 +6.47185001741E-01
1.48500000000E+09 +3.84042470044E-01 +5.12204189798E-01 +8.24942016341E-04 -1.26859271926E-02 +6.76204088078E-04 -1.30159416722E-02 +2.80424000472E-01 +5.90350368496E-01
1.49000000000E+09 +4.00640598168E-01 +4.52554864600E-01 -2.02429323895E-03 -1.43737220828E-02 -2.62701201947E-03 -1.42987208360E-02 +3.07079325975E-01 +5.23615245235E-01
1.49500000000E+09 +4.09988691805E-01 +3.84967072531E-01 -6.19535921412E-03 -1.52930234596E-02 -6.50109652081E-03 -1.43808917660E-02 +3.24462720731E-01 +4.46368965754E-01
1.50000000000E+09 +4.10125477611E-01 +3.08605596650E-01 -1.06738510869E-02 -1.45463164926E-02 -1.00347138923E-02 -1.37104293270E-02 +3.28874630228E-01 +3.59667876142E-01
1.50500000000E+09 +3.97289663533E-01 +2.24558107377E-01 -1.54431137322E-02 -1.25859631545E-02 -1.43979108416E-02 -1.25755288521E-02 +3.16595475307E-01 +2.65483642002E-01
1.51000000000E+09 +3.69444251998E-01 +1.36571842938E-01 -1.94456483635E-02 -8.25377774483E-03 -1.89377477193E-02 -8.97127290414E-03 +2.84080061434E-01 +1.66808729170E-01
1.51500000000E+09 +3.22637434997E-01 +4.78830945076E-02 -2.24122183146E-02 -3.65222790090E-03 -2.25304615687E-02 -4.32538097621E-03 +2.27413192341E-01 +7.22201364781E-02
1.52000000000E+09 +2.56054041296E-01 -3.19204603205E-02 -2.45239458964E-02 +2.75193503268E-03 -2.48921632852E-02 +2.41253064088E-03 +1.49841441276E-01 -9.47941942730E-03
1.52500000000E+09 +1.72724349020E-01 -9.80612091802E-02 -2.39130373277E-02 +1.15828019342E-02 -2.42765053858E-02 +1.15267644856E-02 +5.69376963643E-02 -7.42461842244E-02
1.53000000000E+09 +7.56803682245E-02 -1.45524453645E-01 -1.80997205973E-02 +1.85277293829E-02 -1.82855470961E-02 +1.86750374723E-02 -5.14063037680E-02 -1.16699391708E-01
1.53500000000E+09 -3.05320873859E-02 -1.70271823678E-01 -1.18616131138E-02 +2.21283132355E-02 -1.18579030587E-02 +2.21208615221E-02 -1.61771558576E-01 -1.32260782564E-01
1.54000000000E+09 -1.41165866995E-01 -1.69896824937E-01 -5.02077395567E-03 +2.36338162233E-02 -5.08204572070E-03 +2.34353135513E-02 -2.69769999306E-01 -1.25420530718E-01
1.54500000000E+09 -2.45281806729E-01 -1.44209179484E-01 +2.00363353132E-03 +2.33889512405E-02 +1.46604012297E-03 +2.31337338908E-02 -3.66647021596E-01 -9.75932473266E-02
1.55000000000E+09 -3.37431010342E-01 -1.01642012522E-01 +7.63171253674E-03 +1.99592043319E-02 +6.85700689824E-03 +2.02204423685E-02 -4.48691879483E-01 -5.61170013593E-02
1.55500000000E+09 -4.14521737965E-01 -4.67079982002E-02 +1.13366105244E-02 +1.62704993024E-02 +1.08036086310E-02 +1.71104222679E-02 -5.16064905741E-01 -6.14854216075E-03
1.56000000000E+09 -4.75415170399E-01 +1.20489222252E-02 +1.39866534585E-02 +1.19033925633E-02 +1.41596156607E-02 +1.29456577046E-02 -5.69204553395E-01 +4.89643139958E-02
1.56500000000E+09 -5.23978691608E-01 +7.14549311850E-02 +1.44786596305E-02 +7.31387035758E-03 +1.52180911129E-02 +8.05076162689E-03 -6.10258966823E-01 +1.05703514645E-01
1.57000000000E+09 -5.61142566713E-01 +1.30931381806E-01 +1.39742943482E-02 +4.00645929543E-03 +1.48898713436E-02 +4.16087032584E-03 -6.40144312810E-01 +1.61852967954E-01
