# Hz S RI R 50
! CMT, C1220, 16058040, 17.2.0/1
! Date: 14/08/2018 12:58:50
! Data: Format (Calibration Info)
! Freq                      S11: Re/Im (F2)                       S21: Re/Im (F2)                       S12: Re/Im (F2)                       S22: Re/Im (F2)            
1.00000000000E+09 -6.47945488164E-01 +7.11717878505E-01 +1.23142937448E-05 +9.40590226919E-06 -2.69757738741E-05 +7.94996846222E-05 -7.19134485892E-01 +6.45886559464E-01
1.00500000000E+09 -6.41700726167E-01 +7.16358494580E-01 +5.90152186571E-05 -3.47493403676E-07 +1.52551545542E-05 -2.18461846183E-05 -7.15395161827E-01 +6.49779777943E-01
1.01000000000E+09 -6.35757050620E-01 +7.20704673373E-01 -1.72719407361E-05 -4.95269925761E-05 -1.88568007060E-05 +3.65573946597E-05 -7.11625143027E-01 +6.53386531277E-01
1.01500000000E+09 -6.31043960284E-01 +7.24620158170E-01 -7.21229711393E-07 -7.37450031131E-06 -2.92041709222E-05 +3.02306588996E-05 -7.08214694688E-01 +6.56862492682E-01
1.02000000000E+09 -6.27087323397E-01 +7.28144802058E-01 +4.06115743839E-05 +2.35079687000E-05 -3.09252083423E-05 +4.35800371254E-05 -7.04731454751E-01 +6.60195086649E-01
1.02500000000E+09 -6.23687704836E-01 +7.31299781694E-01 +1.36336598689E-05 +2.60857982861E-05 -2.14343278806E-05 +5.71691229055E-05 -7.01649759239E-01 +6.63871916759E-01
1.03000000000E+09 -6.20734235057E-01 +7.34356555272E-01 -1.28550345293E-05 +5.58680876568E-05 -2.95858949657E-05 -3.22443099825E-05 -6.97954014363E-01 +6.67578647118E-01
1.03500000000E+09 -6.17018398397E-01 +7.37206837941E-01 -1.53217803127E-05 +6.60529618756E-05 +8.83442125261E-06 +7.11745156925E-05 -6.93858024084E-01 +6.71447298412E-01
1.04000000000E+09 -6.12671823411E-01 +7.40345046608E-01 -1.07680165598E-05 +3.95148391983E-05 +4.19260721124E-05 +4.26964810223E-05 -6.89959739171E-01 +6.74961035479E-01
1.04500000000E+09 -6.06931569446E-01 +7.43914493113E-01 +1.41047182375E-05 +3.90830320322E-05 -2.78926178475E-05 +5.68437657265E-06 -6.86160793996E-01 +6.78280312678E-01
1.05000000000E+09 -6.00265775088E-01 +7.48075306391E-01 +3.27770184366E-05 +6.81086223450E-05 +3.35188993456E-05 +6.12086963717E-05 -6.82607517224E-01 +6.81544138607E-01
1.05500000000E+09 -5.92827273266E-01 +7.52363568538E-01 +1.94576252872E-05 +1.80186497160E-05 -2.14237495080E-05 +2.46169507084E-06 -6.79178148349E-01 +6.84914907081E-01
1.06000000000E+09 -5.84823889650E-01 +7.57136293307E-01 +2.47944932697E-05 +4.35844231585E-05 +2.73875420899E-05 +2.34990385749E-05 -6.75590260865E-01 +6.88771738089E-01
1.06500000000E+09 -5.77093788453E-01 +7.61575078582E-01 +1.95202725496E-05 +7.20846948393E-05 +4.26971758652E-05 +4.40826206200E-05 -6.71602228196E-01 +6.92364373028E-01
1.07000000000E+09 -5.70026065645E-01 +7.65713003603E-01 +5.42840503574E-06 +1.22287287810E-05 +7.49170542972E-05 +4.70136697844E-05 -6.67186011396E-01 +6.96046723931E-01
1.07500000000E+09 -5.64196900445E-01 +7.69490331432E-01 +3.22325322495E-05 +1.15967046092E-05 +9.33249496138E-06 +6.98205497492E-05 -6.62704943447E-01 +6.99566086042E-01
1.08000000000E+09 -5.59223396309E-01 +7.72579351127E-01 +1.87989314739E-05 +2.77037991202E-05 +6.57548492809E-05 +4.18887634384E-05 -6.58799154204E-01 +7.03220325396E-01
1.08500000000E+09 -5.55406771021E-01 +7.75320455214E-01 +5.72252999761E-05 +1.71172070500E-05 +1.05021134693E-04 +3.56157102571E-05 -6.54847547154E-01 +7.06572597224E-01
1.09000000000E+09 -5.52048571265E-01 +7.77513106943E-01 +3.61734920011E-05 +7.84244704205E-05 +1.31701861995E-05 +4.60562705428E-05 -6.50820253870E-01 +7.10381294545E-01
1.09500000000E+09 -5.49165200643E-01 +7.79631424189E-01 +4.61453774092E-05 +7.16410157500E-05 -2.09328828943E-05 +4.24784206502E-05 -6.46974774710E-01 +7.14040168047E-01
1.10000000000E+09 -5.45632372614E-01 +7.82016603209E-01 +4.29158613690E-05 +5.22640546591E-05 +2.44476865348E-05 +2.65650477844E-05 -6.42846790869E-01 +7.17636811051E-01
1.10500000000E+09 -5.41499698307E-01 +7.84769463245E-01 +5.28063370719E-05 -1.71211752093E-05 +9.79832102306E-06 +2.17088876770E-05 -6.38217766040E-01 +7.21063284372E-01
1.11000000000E+09 -5.36166137318E-01 +7.87606011293E-01 +1.10285007066E-05 +1.22855597836E-05 +8.19347065777E-05 +4.30559828615E-05 -6.34017365304E-01 +7.24072180057E-01
1.11500000000E+09 -5.29870028040E-01 +7.91100512470E-01 +9.75490017794E-05 -2.61388554684E-06 +9.27488380800E-05 +6.51273086003E-05 -6.29897624098E-01 +7.27278561850E-01
1.12000000000E+09 -5.23004684444E-01 +7.94646593351E-01 +6.03287177344E-05 +3.61101431258E-05 +6.29071634483E-05 -3.73119692859E-06 -6.25654167635E-01 +7.30822111683E-01
1.12500000000E+09 -5.15636322984E-01 +7.98232631020E-01 +5.67664923609E-05 -2.44148698549E-05 +3.95852253280E-05 +7.31392010919E-06 -6.21252637186E-01 +7.34456235332E-01
1.13000000000E+09 -5.08531135700E-01 +8.01450599891E-01 +9.74300109631E-05 +1.96483601267E-05 +9.66067129735E-05 -2.05531465173E-05 -6.16790882441E-01 +7.38080026100E-01
1.13500000000E+09 -5.01650505284E-01 +8.03998723275E-01 +9.82997679079E-05 -2.13786623557E-05 +9.51110869508E-05 +2.75677018801E-05 -6.11792622989E-01 +7.41710360857E-01
1.14000000000E+09 -4.95539150675E-01 +8.06252972230E-01 +4.22920473637E-05 +4.63872646894E-07 +5.50551272784E-05 -6.23936704717E-05 -6.06863817921E-01 +7.45137306848E-01
1.14500000000E+09 -4.90198014218E-01 +8.07913553754E-01 +6.20198957976E-05 -3.77117349758E-05 +1.17845246211E-04 -4.61616422257E-05 -6.01956028437E-01 +7.48422224401E-01
1.15000000000E+09 -4.85068543826E-01 +8.09711413535E-01 +5.94661838970E-05 -3.53864121134E-05 +4.59583581021E-05 -2.39777562818E-05 -5.97433480267E-01 +7.52098911058E-01
1.15500000000E+09 -4.80378810214E-01 +8.11450169758E-01 +7.19346515103E-05 -2.47825336326E-05 +6.59422915096E-05 -2.70380978719E-05 -5.92406119921E-01 +7.55640529896E-01
1.16000000000E+09 -4.74951056679E-01 +8.13314176048E-01 +7.83731228511E-05 -4.14057432624E-05 +3.60637866464E-05 +6.94911330093E-07 -5.87365147983E-01 +7.59249954757E-01
1.16500000000E+09 -4.69247833434E-01 +8.15930789714E-01 +1.06306148017E-04 -5.46669296409E-05 +1.44166048767E-04 -4.50784319703E-05 -5.82184391737E-01 +7.62677745131E-01
1.17000000000E+09 -4.62848207427E-01 +8.18725413053E-01 +5.16041229298E-05 -2.58814324891E-05 +8.12786877123E-05 -3.74447166146E-05 -5.76773144774E-01 +7.65804438946E-01
1.17500000000E+09 -4.55945306531E-01 +8.21797216630E-01 +1.06509934474E-04 -6.93335043982E-05 +1.21306489408E-04 -7.87818726982E-05 -5.71056830310E-01 +7.68744042336E-01
1.18000000000E+09 -4.48665610075E-01 +8.25129499388E-01 +7.85220646316E-05 -1.34976104065E-04 +1.02122782769E-04 -1.43233237593E-04 -5.65472848140E-01 +7.71814250729E-01
1.18500000000E+09 -4.40999286737E-01 +8.28110155724E-01 +1.07861394695E-04 -1.50658796928E-04 +1.56474302769E-04 -1.61251509601E-04 -5.59649388350E-01 +7.74294741112E-01
1.19000000000E+09 -4.33328030796E-01 +8.30506236336E-01 +1.21683108799E-04 -1.54808295948E-04 +9.74072404732E-05 -1.74772549690E-04 -5.53462339462E-01 +7.76819508591E-01
1.19500000000E+09 -4.26061138425E-01 +8.32483811376E-01 +1.07812227112E-04 -1.77610351038E-04 +5.58286939971E-05 -2.32407987592E-04 -5.47464326300E-01 +7.77710941499E-01
1.20000000000E+09 -4.19330832892E-01 +8.33211243412E-01 +4.20976710014E-06 -2.45135022164E-04 +2.21106274184E-05 -2.44257458659E-04 -5.42883198715E-01 +7.77727830688E-01
1.20500000000E+09 -4.12713123929E-01 +8.34408621544E-01 -5.71620338601E-05 -2.09626879542E-04 -1.38630781341E-04 -2.03651128212E-04 -5.40397350986E-01 +7.78399968425E-01
1.21000000000E+09 -4.06261560878E-01 +8.35709975976E-01 -6.41682026974E-05 -1.34817276820E-04 -1.06234132416E-04 -1.42446452618E-04 -5.38250427642E-01 +7.81546454768E-01
1.21500000000E+09 -3.99073345033E-01 +8.37387017982E-01 -6.88243065993E-05 -1.14827064759E-04 -3.21310678815E-05 -1.33221465078E-04 -5.35175064205E-01 +7.85857189156E-01
1.22000000000E+09 -3.91546557282E-01 +8.39190171974E-01 -2.47194616954E-05 -1.62418627564E-04 -3.77721175637E-05 -1.84997419522E-04 -5.30712511091E-01 +7.91072860552E-01
1.22500000000E+09 -3.83349923009E-01 +8.41829241878E-01 -3.59899231617E-05 -1.16239553766E-04 -4.17250196753E-05 -1.25469350692E-04 -5.25419110755E-01 +7.95866006389E-01
1.23000000000E+09 -3.74993625947E-01 +8.44658855579E-01 -6.37344140541E-05 -1.81743855368E-04 -6.28348533623E-05 -1.81529166400E-04 -5.19557181578E-01 +8.00348337539E-01
1.23500000000E+09 -3.66685269141E-01 +8.47728429924E-01 -6.59084765501E-05 -1.78192397999E-04 -8.58176747089E-05 -1.43928096874E-04 -5.13661293057E-01 +8.04286137448E-01
1.24000000000E+09 -3.58256358562E-01 +8.51002664561E-01 -8.75416036248E-05 -1.44382182567E-04 -6.33115752229E-05 -1.41666656081E-04 -5.07629849953E-01 +8.07826937690E-01
1.24500000000E+09 -3.50622987768E-01 +8.54276749966E-01 -1.21127548523E-04 -1.31757506448E-04 -1.28566466955E-04 -1.89176611620E-04 -5.01354959309E-01 +8.11265889344E-01
1.25000000000E+09 -3.43028798091E-01 +8.56906693184E-01 -9.56075167140E-05 -1.83223192622E-04 -9.22042979422E-05 -1.62081970584E-04 -4.94758901163E-01 +8.15317731210E-01
1.25500000000E+09 -3.35726866820E-01 +8.58645680224E-01 -1.34920790345E-04 -1.57630506877E-04 -6.99543948844E-05 -1.69356862790E-04 -4.88044275999E-01 +8.18770763239E-01
1.26000000000E+09 -3.28258012539E-01 +8.59906871824E-01 -1.38492176226E-04 -2.11203835138E-04 -1.08544883126E-04 -1.97907957124E-04 -4.81288456459E-01 +8.22664559211E-01
1.26500000000E+09 -3.20764804634E-01 +8.60434896853E-01 -2.06679412987E-04 -2.33972148854E-04 -2.10357304458E-04 -2.00900621448E-04 -4.74130313935E-01 +8.26052400895E-01
1.27000000000E+09 -3.12609587509E-01 +8.60935605315E-01 -2.17346234434E-04 -1.98782545526E-04 -2.37947660397E-04 -2.13672516803E-04 -4.67251077768E-01 +8.29608486351E-01
1.27500000000E+09 -3.03701179628E-01 +8.61626079813E-01 -2.66927451457E-04 -2.09883190409E-04 -2.65761573779E-04 -1.77380267394E-04 -4.60055882081E-01 +8.32782397064E-01
1.28000000000E+09 -2.93696316284E-01 +8.62581256095E-01 -3.17876117231E-04 -1.28019947844E-04 -3.55628873961E-04 -1.86304188076E-04 -4.52888787472E-01 +8.36136178543E-01
1.28500000000E+09 -2.82658182980E-01 +8.64040463619E-01 -3.27535783575E-04 -1.23589284113E-04 -3.30729238880E-04 -1.48511937113E-04 -4.45583555321E-01 +8.39703593409E-01
1.29000000000E+09 -2.71701441025E-01 +8.65935365470E-01 -3.26235952637E-04 -1.19953130658E-04 -4.29287317655E-04 -1.21220546968E-04 -4.37804704999E-01 +8.43052448729E-01
1.29500000000E+09 -2.61037562570E-01 +8.68283900589E-01 -3.74368133710E-04 -1.26471571939E-04 -4.52174226917E-04 -1.12519175707E-04 -4.30134866024E-01 +8.46081432930E-01
1.30000000000E+09 -2.50774990730E-01 +8.71038121403E-01 -4.50032605450E-04 -9.53197002325E-05 -5.00917965350E-04 +2.02148459668E-05 -4.22289879693E-01 +8.49148849532E-01
1.30500000000E+09 -2.41402924322E-01 +8.73824360597E-01 -5.29040513690E-04 -6.99463391331E-05 -5.42584463242E-04 +8.65447933288E-06 -4.14207298161E-01 +8.52209159562E-01
1.31000000000E+09 -2.32557522691E-01 +8.75984140054E-01 -6.12876300139E-04 +7.54603249501E-05 -5.58788408040E-04 +1.01944589628E-04 -4.05836073053E-01 +8.55401388741E-01
1.31500000000E+09 -2.24673557031E-01 +8.77337664872E-01 -6.08511803572E-04 +1.74668247553E-04 -5.28267318106E-04 +1.45313581141E-04 -3.97167587020E-01 +8.58473100333E-01
1.32000000000E+09 -2.17220175683E-01 +8.77618395858E-01 -5.26778782218E-04 +2.10600781142E-04 -5.69602149213E-04 +1.88043062297E-04 -3.88216925630E-01 +8.61373373715E-01
1.32500000000E+09 -2.09536067485E-01 +8.77211282721E-01 -5.24526148029E-04 +2.62574062410E-04 -5.98841852700E-04 +2.71131867423E-04 -3.78835743295E-01 +8.64250530567E-01
1.33000000000E+09 -2.01346902856E-01 +8.76663361427E-01 -5.80022144642E-04 +2.90329087337E-04 -6.04370843965E-04 +4.21114359555E-04 -3.69450894319E-01 +8.67192886867E-01
1.33500000000E+09 -1.91630995069E-01 +8.75756325187E-01 -6.61840034982E-04 +4.40743440802E-04 -5.66215125254E-04 +5.12534658691E-04 -3.59827366991E-01 +8.69956951345E-01
1.34000000000E+09 -1.80362105541E-01 +8.75192256563E-01 -5.60750041733E-04 +5.52030422587E-04 -5.19267258821E-04 +5.71455235792E-04 -3.49742780612E-01 +8.72732836009E-01
1.34500000000E+09 -1.67357410839E-01 +8.74846255988E-01 -5.70603479191E-04 +6.80261663684E-04 -5.49661462499E-04 +6.40424832395E-04 -3.38910456916E-01 +8.75391615919E-01
1.35000000000E+09 -1.53404286957E-01 +8.74850115432E-01 -5.02722368066E-04 +7.75858828495E-04 -4.68367931160E-04 +7.40171885355E-04 -3.28235617097E-01 +8.78046094797E-01
1.35500000000E+09 -1.38525449907E-01 +8.75351225972E-01 -4.29407381672E-04 +7.73681573740E-04 -4.23055512724E-04 +8.23310192694E-04 -3.16647026528E-01 +8.80355291653E-01
1.36000000000E+09 -1.23350259745E-01 +8.75841765456E-01 -3.72676988149E-04 +9.26566912640E-04 -3.68676120788E-04 +9.04363264113E-04 -3.05196726120E-01 +8.82440337657E-01
1.36500000000E+09 -1.08364335293E-01 +8.75992884526E-01 -3.58696780197E-04 +1.07076384837E-03 -3.60333544467E-04 +9.87559260793E-04 -2.93356438922E-01 +8.84406607806E-01
1.37000000000E+09 -9.39319362394E-02 +8.74998785241E-01 -2.65732029699E-04 +1.26434200604E-03 -2.78159308661E-04 +1.12648534073E-03 -2.80876640668E-01 +8.86230437320E-01
1.37500000000E+09 -8.09419118070E-02 +8.73511039766E-01 -5.06816036434E-05 +1.34379004329E-03 -1.43237196272E-04 +1.28131472321E-03 -2.67475940529E-01 +8.88112014875E-01
1.38000000000E+09 -6.87275154250E-02 +8.71036188996E-01 +9.27027015989E-05 +1.32366584428E-03 -1.13638805796E-04 +1.38302929064E-03 -2.53195469175E-01 +8.89530771785E-01
1.38500000000E+09 -5.62096957880E-02 +8.67910527109E-01 +1.78481442786E-04 +1.46526226109E-03 +9.02371583941E-05 +1.65098323780E-03 -2.38254879329E-01 +8.90842206642E-01
1.39000000000E+09 -4.35066295223E-02 +8.64244340723E-01 +3.43773787702E-04 +1.54060951241E-03 +4.07266874802E-04 +1.79904184961E-03 -2.22943470467E-01 +8.91823405394E-01
1.39500000000E+09 -2.93856597317E-02 +8.60272509027E-01 +5.15178193491E-04 +1.68006587126E-03 +7.23713470875E-04 +1.75504431576E-03 -2.07098443875E-01 +8.92056784458E-01
1.40000000000E+09 -1.37084566527E-02 +8.55742039255E-01 +8.23758857057E-04 +1.86290543294E-03 +1.02386891432E-03 +1.79081551095E-03 -1.90480310161E-01 +8.92026766960E-01
1.40500000000E+09 +3.07530064115E-03 +8.51092583587E-01 +1.22687791615E-03 +1.92648250559E-03 +1.28566802458E-03 +1.79257383194E-03 -1.72631337277E-01 +8.91320053210E-01
1.41000000000E+09 +2.09541986939E-02 +8.46298782634E-01 +1.65709247095E-03 +1.76690713734E-03 +1.56931184429E-03 +1.74359430866E-03 -1.53362312272E-01 +8.90252846829E-01
1.41500000000E+09 +4.02321393477E-02 +8.41411479259E-01 +1.84145553900E-03 +1.62635425953E-03 +1.90270828359E-03 +1.80529495383E-03 -1.32550477654E-01 +8.88218667239E-01
1.42000000000E+09 +6.09160084191E-02 +8.35590892718E-01 +2.25190190745E-03 +1.57929028478E-03 +2.41273070094E-03 +1.73999272415E-03 -1.10705450792E-01 +8.85261896909E-01
1.42500000000E+09 +8.18535248742E-02 +8.27890340733E-01 +2.66210350470E-03 +1.46663638337E-03 +2.98743224152E-03 +1.48350726741E-03 -8.81333473171E-02 +8.81052888972E-01
1.43000000000E+09 +1.03038977072E-01 +8.18232365930E-01 +3.18008110806E-03 +1.41949756349E-03 +3.49606234237E-03 +1.21323377112E-03 -6.47759880648E-02 +8.76144320852E-01
1.43500000000E+09 +1.23823592831E-01 +8.06060970431E-01 +3.98781789820E-03 +9.77872400431E-04 +4.22694863518E-03 +6.38665056537E-04 -3.97200052874E-02 +8.69191236952E-01
1.44000000000E+09 +1.45130307234E-01 +7.92228031797E-01 +4.59058813596E-03 -2.48697865966E-05 +4.57954697666E-03 -3.15541627309E-04 -1.30267088198E-02 +8.60317196143E-01
1.44500000000E+09 +1.67756420850E-01 +7.75941039630E-01 +4.56324956914E-03 -8.78286856318E-04 +4.57030658144E-03 -1.15558173100E-03 +1.55003614890E-02 +8.48996462486E-01
1.45000000000E+09 +1.91545815269E-01 +7.56667992477E-01 +4.47397020101E-03 -1.38310670269E-03 +4.46729880336E-03 -1.73754710784E-03 +4.58358314921E-02 +8.34584818154E-01
1.45500000000E+09 +2.16690233424E-01 +7.34737217065E-01 +4.80423485431E-03 -1.92378409456E-03 +4.66360993495E-03 -2.35497223328E-03 +7.71724954921E-02 +8.17443525067E-01
1.46000000000E+09 +2.43245264319E-01 +7.10273434356E-01 +5.25949690555E-03 -2.83747314619E-03 +4.75868490245E-03 -3.15577531612E-03 +1.10341539895E-01 +7.96580228667E-01
1.46500000000E+09 +2.71178815167E-01 +6.82746340304E-01 +5.57920163838E-03 -4.09058180845E-03 +4.90615463487E-03 -4.05726491686E-03 +1.44469983106E-01 +7.70451089076E-01
1.47000000000E+09 +3.00469247296E-01 +6.51433870734E-01 +5.66319507943E-03 -6.03378248693E-03 +5.19978944567E-03 -5.53675507011E-03 +1.79411251232E-01 +7.38032060492E-01
1.47500000000E+09 +3.29809806577E-01 +6.14113329404E-01 +4.49934773806E-03 -8.23454137864E-03 +4.61975989055E-03 -7.75279590951E-03 +2.14503940372E-01 +6.98397032447E-01
1.48000000000E+09 +3.56920149534E-01 +5.69937984844E-01 +2.79538049614E-03 -9.56354675027E-03 +3.10796914085E-03 -9.55081044221E-03 +2.49194958860E-01 +6.50993942887E-01
1.48500000000E+09 +3.79920762420E-01 +5.17578177052E-01 +1.37600160184E-03 -1.07979920683E-02 +1.26136043816E-03 -1.11012459590E-02 +2.81861512855E-01 +5.94467427188E-01
1.49000000000E+09 +3.96363729070E-01 +4.57398086431E-01 -6.97744396059E-04 -1.25304708960E-02 -1.28996935072E-03 -1.24706766313E-02 +3.09661900898E-01 +5.27703995723E-01
1.49500000000E+09 +4.05348974272E-01 +3.89771602746E-01 -4.34630191439E-03 -1.38224764521E-02 -4.72275023554E-03 -1.29981320615E-02 +3.28392826023E-01 +4.50039274793E-01
1.50000000000E+09 +4.05491925733E-01 +3.13693068244E-01 -8.44541879405E-03 -1.34718474924E-02 -7.99773937506E-03 -1.26417131421E-02 +3.34049085412E-01 +3.62639922030E-01
1.50500000000E+09 +3.92699300751E-01 +2.29496054248E-01 -1.28609326725E-02 -1.21293081647E-02 -1.18923860748E-02 -1.20365498638E-02 +3.23047159447E-01 +2.66834032475E-01
1.51000000000E+09 +3.64774252825E-01 +1.41808058892E-01 -1.69230406471E-02 -8.32500816825E-03 -1.63650356718E-02 -8.90926467551E-03 +2.90711298771E-01 +1.66606011724E-01
1.51500000000E+09 +3.18121816744E-01 +5.30985753415E-02 -1.95219059270E-02 -4.11597006637E-03 -1.95527627121E-02 -4.66756790964E-03 +2.34883386803E-01 +6.99960949822E-02
1.52000000000E+09 +2.51378444393E-01 -2.64996167978E-02 -2.13998310680E-02 +1.21048290344E-03 -2.16728875057E-02 +9.25278162145E-04 +1.56328729041E-01 -1.45766532694E-02
1.52500000000E+09 +1.68179364702E-01 -9.21352322932E-02 -2.13925945713E-02 +8.87703048331E-03 -2.16408080538E-02 +8.75209873073E-03 +6.13411102270E-02 -8.11201422721E-02
1.53000000000E+09 +7.19496752826E-02 -1.38498188873E-01 -1.64207492522E-02 +1.50898161508E-02 -1.66327048367E-02 +1.51402504407E-02 -4.92041677365E-02 -1.24593396214E-01
1.53500000000E+09 -3.29171813590E-02 -1.63351771348E-01 -1.14675660771E-02 +1.82844315728E-02 -1.15212196902E-02 +1.83020486136E-02 -1.62534533142E-01 -1.40536356107E-01
1.54000000000E+09 -1.42316437696E-01 -1.63450105351E-01 -6.01157985214E-03 +2.00884537313E-02 -6.07732835876E-03 +1.98977266791E-02 -2.72904706092E-01 -1.32232424421E-01
1.54500000000E+09 -2.45303439634E-01 -1.38957578174E-01 +3.24416260657E-04 +2.06704225742E-02 -1.19427977401E-04 +2.04212457606E-02 -3.71383764116E-01 -1.02887259300E-01
1.55000000000E+09 -3.37056431612E-01 -9.79129970906E-02 +5.58359695391E-03 +1.76955146877E-02 +4.88264370171E-03 +1.79095875269E-02 -4.54222700758E-01 -5.95488914721E-02
1.55500000000E+09 -4.14398365016E-01 -4.41533946966E-02 +8.76426822846E-03 +1.46862230722E-02 +8.29934501032E-03 +1.54276951025E-02 -5.21592742261E-01 -7.66879046210E-03
1.56000000000E+09 -4.75402543214E-01 +1.37399020929E-02 +1.13465842857E-02 +1.10103371939E-02 +1.15271029684E-02 +1.19384567303E-02 -5.74350552774E-01 +4.86731305807E-02
1.56500000000E+09 -5.24271955486E-01 +7.24068608119E-02 +1.17958752809E-02 +7.06503646976E-03 +1.23917176770E-02 +7.69969432263E-03 -6.15124965634E-01 +1.06528619386E-01
1.57000000000E+09 -5.61579126923E-01 +1.31149291379E-01 +1.14389750394E-02 +4.53542456161E-03 +1.22339481131E-02 +4.75251218944E-03 -6.44169336382E-01 +1.63751134735E-01
