# Hz S RI R 50
! CMT, C1220, 16058040, 17.2.0/1
! Date: 14/08/2018 12:55:14
! Data: Format (Calibration Info)
! Freq                      S11: Re/Im (F2)                       S21: Re/Im (F2)                       S12: Re/Im (F2)                       S22: Re/Im (F2)            
1.00000000000E+09 -6.45083094686E-01 +7.13495816016E-01 -1.54190221689E-05 +3.85406203213E-05 -2.84272704066E-06 -2.28261275566E-05 -7.19194449241E-01 +6.45462886591E-01
1.00500000000E+09 -6.38392294830E-01 +7.18235977984E-01 +3.00865026684E-05 -1.50664089419E-05 +2.60625940113E-05 -2.54845840460E-05 -7.15411864182E-01 +6.49569735528E-01
1.01000000000E+09 -6.32487250608E-01 +7.22739247572E-01 +5.35478668291E-06 +4.93689545008E-05 +3.05244109242E-05 +4.53612361950E-05 -7.11779105410E-01 +6.53030213831E-01
1.01500000000E+09 -6.27635527109E-01 +7.26559896842E-01 -5.80983273293E-06 -6.87765100451E-06 +1.69870171988E-05 +5.44226946153E-05 -7.08267164538E-01 +6.56552386198E-01
1.02000000000E+09 -6.23700120256E-01 +7.30146324814E-01 -6.03834840014E-05 -3.22040290235E-05 +3.42506611498E-05 +1.97386029097E-05 -7.04775822692E-01 +6.59806268658E-01
1.02500000000E+09 -6.20168230682E-01 +7.33601363755E-01 -2.03680834694E-05 +2.67307982261E-05 +2.08805385138E-05 -3.94685311925E-05 -7.01792471057E-01 +6.63351332182E-01
1.03000000000E+09 -6.17123419328E-01 +7.36561106737E-01 +4.48399436622E-06 +8.41744056352E-06 -4.34500592440E-05 +3.79718354292E-05 -6.98037395695E-01 +6.67176688617E-01
1.03500000000E+09 -6.13246148676E-01 +7.39628222301E-01 -2.41020791764E-05 +4.27473788750E-05 +4.77747576108E-05 +2.68397419942E-05 -6.94177278323E-01 +6.71081614816E-01
1.04000000000E+09 -6.08685437587E-01 +7.42976586829E-01 +1.81395832370E-05 -5.00632110882E-05 +8.68774656496E-06 -4.69384203874E-05 -6.90013617324E-01 +6.74649630040E-01
1.04500000000E+09 -6.02920340706E-01 +7.46618393109E-01 +2.63822576674E-05 +3.98882121619E-05 -1.56752609035E-06 +4.35740169186E-05 -6.86307606724E-01 +6.78057860686E-01
1.05000000000E+09 -5.95996563952E-01 +7.50748454219E-01 -3.27614531874E-05 +5.22135837468E-05 +3.78805950403E-05 +1.33833872103E-05 -6.82798300293E-01 +6.81283194468E-01
1.05500000000E+09 -5.88201436492E-01 +7.55130646216E-01 +1.27862403544E-05 +4.91658724734E-05 -4.29216847587E-06 -1.89508740745E-05 -6.79322260685E-01 +6.84710877373E-01
1.06000000000E+09 -5.79905876538E-01 +7.59826568942E-01 +3.15566958794E-05 +5.61607956267E-05 -3.48721134860E-09 +4.10135868392E-06 -6.75619589332E-01 +6.88313496369E-01
1.06500000000E+09 -5.71762198806E-01 +7.64428776176E-01 -1.07858941097E-05 +1.14247776681E-05 -2.40171427440E-07 +3.16316070433E-05 -6.71572811591E-01 +6.92134997097E-01
1.07000000000E+09 -5.64448926560E-01 +7.68472153793E-01 +2.29263889071E-05 +3.17495176005E-05 +1.08739540936E-05 +4.02063210407E-05 -6.67329388003E-01 +6.95784706854E-01
1.07500000000E+09 -5.58103305443E-01 +7.72350037277E-01 +2.93794859988E-05 +5.45788916950E-07 +2.68905857876E-05 +5.58178806699E-06 -6.62895750973E-01 +6.99092470004E-01
1.08000000000E+09 -5.53119389593E-01 +7.75628408267E-01 +1.69987008599E-06 +3.07386821986E-05 +2.92886854046E-05 +6.88473625913E-05 -6.58902747330E-01 +7.02891449608E-01
1.08500000000E+09 -5.49194341270E-01 +7.78437124597E-01 +3.48945373767E-05 +3.92522111039E-06 -1.49481792676E-05 +7.05533663953E-05 -6.54947643296E-01 +7.06307469917E-01
1.09000000000E+09 -5.45764922807E-01 +7.80816160950E-01 +3.22149897065E-05 -4.08432107019E-06 +3.64178775907E-05 -1.15770447388E-05 -6.51080409829E-01 +7.09991594888E-01
1.09500000000E+09 -5.42935743469E-01 +7.82839264410E-01 +8.99086224014E-06 +1.40197693895E-05 +1.96948104099E-06 +4.47790940617E-05 -6.47019332429E-01 +7.13657411592E-01
1.10000000000E+09 -5.39118873299E-01 +7.85287071651E-01 +4.05380447851E-05 +3.90469124725E-05 +4.49470239175E-05 +7.66813119538E-06 -6.42826850488E-01 +7.17306457885E-01
1.10500000000E+09 -5.34915140336E-01 +7.87948611363E-01 +4.03157067405E-05 +1.21629297251E-05 +3.98900223751E-05 +6.60661665384E-05 -6.38362985746E-01 +7.20548974796E-01
1.11000000000E+09 -5.29664041655E-01 +7.90951450566E-01 +5.11922152892E-05 +3.70199946910E-05 +4.72856947186E-05 +6.38062789373E-06 -6.34152647634E-01 +7.23856960682E-01
1.11500000000E+09 -5.23220353122E-01 +7.94395136689E-01 +6.48599268116E-05 +6.48342090832E-06 +3.41957646230E-06 -9.48192185777E-06 -6.29994564916E-01 +7.26992438573E-01
1.12000000000E+09 -5.16234921929E-01 +7.97912894790E-01 +7.59072459302E-05 +2.33970430500E-05 +6.41549275748E-05 -3.29632556703E-06 -6.25873986056E-01 +7.30540730588E-01
1.12500000000E+09 -5.08525016863E-01 +8.01527105700E-01 +7.59236189446E-05 +1.01597372502E-05 +3.67627138202E-05 +1.02324010787E-05 -6.21554623907E-01 +7.34322447169E-01
1.13000000000E+09 -5.01149511984E-01 +8.04731990204E-01 +6.28567790753E-05 -5.30314709368E-05 +4.29513226969E-05 +1.41199618336E-05 -6.16915493136E-01 +7.37767544586E-01
1.13500000000E+09 -4.94017109878E-01 +8.07163658964E-01 +6.06697568076E-05 -1.77280516348E-05 +2.92984645675E-05 +7.83523435157E-05 -6.12025623153E-01 +7.41395557290E-01
1.14000000000E+09 -4.87653165892E-01 +8.09664096103E-01 +9.67855619511E-05 +6.58452119783E-07 +8.76095475659E-05 -1.60015774516E-05 -6.07115602950E-01 +7.44623209060E-01
1.14500000000E+09 -4.82002667298E-01 +8.11397960921E-01 +5.00523723792E-05 -1.09305559208E-05 +7.81179133752E-05 -4.27071786653E-05 -6.02440602403E-01 +7.48030841531E-01
1.15000000000E+09 -4.76631756413E-01 +8.12895524960E-01 +9.99814299876E-05 -6.76724887759E-05 +7.76156260193E-05 -2.50288344609E-05 -5.97475652429E-01 +7.51615105710E-01
1.15500000000E+09 -4.71645159357E-01 +8.14790300589E-01 +9.50437621171E-05 -4.71403509999E-05 +8.88237729499E-05 -6.88882516296E-05 -5.92618069402E-01 +7.55310225478E-01
1.16000000000E+09 -4.66083373473E-01 +8.16727880665E-01 +6.76278300156E-05 -1.45476884072E-05 +7.04244322104E-05 -7.29164900966E-05 -5.87590630177E-01 +7.58968441710E-01
1.16500000000E+09 -4.60065086366E-01 +8.19233825627E-01 +9.59433898809E-05 -5.47433271086E-05 +8.39152348377E-05 -7.68960720788E-05 -5.82498511262E-01 +7.62296584963E-01
1.17000000000E+09 -4.53435748673E-01 +8.21973149333E-01 +5.16560146732E-05 -3.59180191803E-05 +6.55469443621E-05 -7.57845854563E-05 -5.76901512555E-01 +7.65435986549E-01
1.17500000000E+09 -4.46174096285E-01 +8.24913336634E-01 +1.11944796089E-04 -6.87919174970E-05 +1.35001613457E-04 -2.88272002018E-05 -5.71210642072E-01 +7.68281855230E-01
1.18000000000E+09 -4.38613253674E-01 +8.28207153667E-01 +1.25111204591E-04 -7.99199038242E-05 +1.16776305378E-04 -9.33364620541E-05 -5.65744621121E-01 +7.71246615660E-01
1.18500000000E+09 -4.30593975529E-01 +8.30982644153E-01 +1.39427046670E-04 -1.14253796630E-04 +1.33462395052E-04 -1.88586892926E-04 -5.59903424733E-01 +7.74002313829E-01
1.19000000000E+09 -4.22771731314E-01 +8.33386419848E-01 +9.59097639306E-05 -1.62165823236E-04 +6.01521831908E-05 -2.02658405050E-04 -5.53734704029E-01 +7.76336189276E-01
1.19500000000E+09 -4.15152389966E-01 +8.35189265862E-01 +8.19993197952E-05 -1.83021537599E-04 +1.08172204523E-04 -1.76513823979E-04 -5.47756647241E-01 +7.77268661859E-01
1.20000000000E+09 -4.08107344307E-01 +8.36099677457E-01 +6.56201896074E-06 -2.55894301055E-04 +8.84505086514E-06 -2.80010159295E-04 -5.43015648051E-01 +7.77453324182E-01
1.20500000000E+09 -4.01264479252E-01 +8.37257953864E-01 -5.08649097355E-05 -2.41030971650E-04 -1.26493864450E-04 -2.45090474328E-04 -5.40581674294E-01 +7.78164103599E-01
1.21000000000E+09 -3.94245918447E-01 +8.38550596048E-01 -1.00065152113E-04 -1.34354366723E-04 -1.01029101190E-04 -1.41788148770E-04 -5.38395780924E-01 +7.81132099295E-01
1.21500000000E+09 -3.86859319887E-01 +8.40022393620E-01 -1.06411178645E-04 -6.56889823480E-05 -7.34824370065E-05 -1.46768108107E-04 -5.35368448524E-01 +7.85652525176E-01
1.22000000000E+09 -3.78760522285E-01 +8.41984271180E-01 +3.56943896394E-05 -9.82979562862E-05 -4.10565432066E-05 -1.71218658324E-04 -5.30933067874E-01 +7.90769742583E-01
1.22500000000E+09 -3.70254948113E-01 +8.44359250186E-01 -5.37700791581E-05 -1.30273713022E-04 -7.56584727640E-05 -1.57399682747E-04 -5.25687243548E-01 +7.95594528000E-01
1.23000000000E+09 -3.61544094512E-01 +8.46857101587E-01 -5.59900192513E-05 -1.40979182524E-04 -1.39738674819E-04 -1.87665903113E-04 -5.19806308659E-01 +7.99927754525E-01
1.23500000000E+09 -3.53016273387E-01 +8.49703323274E-01 -6.36077739932E-05 -1.36927456347E-04 -4.27143323696E-05 -1.50420599217E-04 -5.14040785519E-01 +8.03878014103E-01
1.24000000000E+09 -3.44626226649E-01 +8.52757411049E-01 -9.86995691536E-05 -1.53682587415E-04 -1.01022647017E-04 -1.70447462342E-04 -5.07941367145E-01 +8.07398639668E-01
1.24500000000E+09 -3.36758783965E-01 +8.55988497901E-01 -1.10967728526E-04 -1.74143342877E-04 -1.20398798580E-04 -1.90465800766E-04 -5.01524173368E-01 +8.10966027257E-01
1.25000000000E+09 -3.28954027266E-01 +8.58308290661E-01 -1.36815165381E-04 -1.22949918836E-04 -1.30706872876E-04 -1.49741969218E-04 -4.95072465342E-01 +8.14848921266E-01
1.25500000000E+09 -3.21454751628E-01 +8.60042783468E-01 -1.16779834709E-04 -1.72107872783E-04 -7.12855172878E-05 -1.49681297953E-04 -4.88165540800E-01 +8.18517327205E-01
1.26000000000E+09 -3.13730216363E-01 +8.61105457320E-01 -1.51279140528E-04 -2.00139393968E-04 -1.31507150015E-04 -1.88442976109E-04 -4.81524112111E-01 +8.22440807890E-01
1.26500000000E+09 -3.05835760219E-01 +8.61507084940E-01 -1.75453761039E-04 -2.20090672993E-04 -2.26283373541E-04 -2.37183907672E-04 -4.74484591527E-01 +8.25780043502E-01
1.27000000000E+09 -2.97446041232E-01 +8.61713145545E-01 -2.43298723707E-04 -1.79962696786E-04 -2.28860299095E-04 -2.03096517780E-04 -4.67476685578E-01 +8.29314072692E-01
1.27500000000E+09 -2.88125468378E-01 +8.62203271071E-01 -2.57631009165E-04 -2.15829860781E-04 -2.80044790371E-04 -1.70785685703E-04 -4.60390880401E-01 +8.32565469445E-01
1.28000000000E+09 -2.77849425575E-01 +8.62710161216E-01 -2.71031512372E-04 -1.52991102785E-04 -3.10088282993E-04 -2.07873689261E-04 -4.53268901081E-01 +8.35880553897E-01
1.28500000000E+09 -2.66489364025E-01 +8.63729702347E-01 -3.29332287663E-04 -8.59587623136E-05 -3.69186952778E-04 -1.66153291006E-04 -4.45890529367E-01 +8.39315422841E-01
1.29000000000E+09 -2.55331316584E-01 +8.65220909272E-01 -3.08978523606E-04 -7.56135043116E-05 -4.27344344771E-04 -9.10463430426E-05 -4.38263441656E-01 +8.42642494759E-01
1.29500000000E+09 -2.44624493052E-01 +8.67223298685E-01 -3.68159661342E-04 -7.56012103324E-05 -4.19636768233E-04 -5.69647142965E-05 -4.30324874620E-01 +8.45783226362E-01
1.30000000000E+09 -2.34156961541E-01 +8.69866276159E-01 -4.72959872805E-04 -6.36308879952E-05 -4.55331389371E-04 -1.82101667683E-05 -4.22523673064E-01 +8.48912130559E-01
1.30500000000E+09 -2.24730790651E-01 +8.72384883001E-01 -5.11984672687E-04 +7.70147276007E-06 -5.17767185590E-04 +2.26595735575E-05 -4.14503780534E-01 +8.51992154217E-01
1.31000000000E+09 -2.15725832298E-01 +8.74477046527E-01 -6.15865277049E-04 +1.01246219069E-04 -5.71382015379E-04 +1.00910225400E-04 -4.06095547506E-01 +8.55132576711E-01
1.31500000000E+09 -2.07210544447E-01 +8.75670791610E-01 -5.43439355550E-04 +2.02002838315E-04 -5.79098877471E-04 +1.83394541639E-04 -3.97453817946E-01 +8.58133780477E-01
1.32000000000E+09 -1.99432123728E-01 +8.75757709995E-01 -4.78524135250E-04 +2.28630329724E-04 -5.26789950909E-04 +2.21445387025E-04 -3.88447534199E-01 +8.61188588442E-01
1.32500000000E+09 -1.91723075004E-01 +8.75062184956E-01 -5.34315664410E-04 +2.73853292462E-04 -5.47477890735E-04 +2.66034183720E-04 -3.79057695200E-01 +8.64060247233E-01
1.33000000000E+09 -1.83040410570E-01 +8.73954996863E-01 -5.74348282780E-04 +3.07343334454E-04 -6.06329721406E-04 +3.93047435109E-04 -3.69749852193E-01 +8.66780523402E-01
1.33500000000E+09 -1.73218581444E-01 +8.72728791656E-01 -6.40474082113E-04 +4.40642802896E-04 -5.76017827399E-04 +5.08171160916E-04 -3.60108451725E-01 +8.69725315177E-01
1.34000000000E+09 -1.61673754094E-01 +8.71626445330E-01 -5.50731217320E-04 +5.71889336812E-04 -4.90300083027E-04 +5.78168100560E-04 -3.50055964178E-01 +8.72446903751E-01
1.34500000000E+09 -1.48752826494E-01 +8.70843107136E-01 -5.10771967875E-04 +6.87072230092E-04 -4.82203488223E-04 +6.04866016515E-04 -3.39240293535E-01 +8.75366782452E-01
1.35000000000E+09 -1.34690639041E-01 +8.70334345205E-01 -4.77495169933E-04 +7.53201882565E-04 -4.43397291249E-04 +7.67877702565E-04 -3.28400893752E-01 +8.77852591525E-01
1.35500000000E+09 -1.19902655003E-01 +8.70433390867E-01 -4.00336656676E-04 +8.14082506940E-04 -4.28239737635E-04 +8.57435327386E-04 -3.16983838216E-01 +8.80085796690E-01
1.36000000000E+09 -1.04894080044E-01 +8.70776148433E-01 -3.62462737428E-04 +9.65946515884E-04 -3.49899068369E-04 +8.82094338385E-04 -3.05430769786E-01 +8.82192540393E-01
1.36500000000E+09 -8.96756931470E-02 +8.70596175469E-01 -3.65438381557E-04 +1.08050723614E-03 -2.67013111739E-04 +1.01530968570E-03 -2.93626127278E-01 +8.84157116368E-01
1.37000000000E+09 -7.53128570364E-02 +8.69388699363E-01 -2.16760317798E-04 +1.21189166772E-03 -2.32089857388E-04 +1.14463486237E-03 -2.81165825949E-01 +8.86094309775E-01
1.37500000000E+09 -6.20768746729E-02 +8.67232311396E-01 +2.24411785738E-05 +1.36028252528E-03 -1.45088811159E-04 +1.28255563719E-03 -2.67729083239E-01 +8.87888889595E-01
1.38000000000E+09 -4.96523685967E-02 +8.64316998982E-01 +1.42776280695E-04 +1.35752143991E-03 -1.65246738754E-05 +1.42366242772E-03 -2.53379919336E-01 +8.89405179783E-01
1.38500000000E+09 -3.72278595076E-02 +8.60431863657E-01 +2.70763099234E-04 +1.45169918622E-03 +1.50186664817E-04 +1.63135016633E-03 -2.38511447031E-01 +8.90635628749E-01
1.39000000000E+09 -2.45388572628E-02 +8.55998318481E-01 +4.10839519519E-04 +1.59632055615E-03 +4.83088101492E-04 +1.79640108233E-03 -2.23178701870E-01 +8.91602931798E-01
1.39500000000E+09 -1.09000360327E-02 +8.51217188628E-01 +5.81621806712E-04 +1.66446733553E-03 +7.60473331726E-04 +1.76385621624E-03 -2.07196644234E-01 +8.91865944215E-01
1.40000000000E+09 +4.21896290778E-03 +8.45787476560E-01 +8.61020828667E-04 +1.83072286751E-03 +1.08747860624E-03 +1.80713593173E-03 -1.90552125249E-01 +8.91815086161E-01
1.40500000000E+09 +2.02625086795E-02 +8.40516976417E-01 +1.31930636730E-03 +1.93245292764E-03 +1.39042625831E-03 +1.78186376497E-03 -1.72727634764E-01 +8.91042217186E-01
1.41000000000E+09 +3.73768808854E-02 +8.35366826060E-01 +1.75025789560E-03 +1.69958177891E-03 +1.74020605785E-03 +1.68027405644E-03 -1.53478492697E-01 +8.89963390829E-01
1.41500000000E+09 +5.61854977654E-02 +8.30601145903E-01 +1.98638532047E-03 +1.55254184257E-03 +1.99806770348E-03 +1.65337849058E-03 -1.32742501797E-01 +8.87859237830E-01
1.42000000000E+09 +7.65878785756E-02 +8.24799963173E-01 +2.30365825382E-03 +1.46530598826E-03 +2.49690646607E-03 +1.62860115081E-03 -1.10864403745E-01 +8.84832584567E-01
1.42500000000E+09 +9.75580334298E-02 +8.17191950155E-01 +2.65536647664E-03 +1.34777083324E-03 +3.05745815939E-03 +1.35310910025E-03 -8.82554419965E-02 +8.80460011405E-01
1.43000000000E+09 +1.18787146415E-01 +8.06955540141E-01 +3.15242556974E-03 +1.29218398493E-03 +3.55080624613E-03 +1.06041957982E-03 -6.49031853474E-02 +8.75487292452E-01
1.43500000000E+09 +1.39629465712E-01 +7.94188458632E-01 +4.04169098842E-03 +8.23017771087E-04 +4.22470360198E-03 +4.55642946287E-04 -3.97235755626E-02 +8.68504428520E-01
1.44000000000E+09 +1.60675763212E-01 +7.79657491972E-01 +4.57678083641E-03 -1.91311919644E-04 +4.59312660617E-03 -5.18210461935E-04 -1.32072843657E-02 +8.59669451408E-01
1.44500000000E+09 +1.82724396183E-01 +7.62492636309E-01 +4.48171227467E-03 -1.19568670893E-03 +4.45728274743E-03 -1.41394638223E-03 +1.53146715490E-02 +8.48310465927E-01
1.45000000000E+09 +2.05587294252E-01 +7.42549259836E-01 +4.41182523072E-03 -1.64674164540E-03 +4.40247573039E-03 -1.91209837532E-03 +4.54937340525E-02 +8.33836374477E-01
1.45500000000E+09 +2.29586340224E-01 +7.20381806387E-01 +4.70732864715E-03 -2.19045386489E-03 +4.52839847965E-03 -2.61018591284E-03 +7.68120458374E-02 +8.16810155293E-01
1.46000000000E+09 +2.54911547841E-01 +6.95853160217E-01 +5.11884598216E-03 -3.06028909336E-03 +4.55956043986E-03 -3.39403874818E-03 +1.09772813340E-01 +7.95805696160E-01
1.46500000000E+09 +2.81661391573E-01 +6.69011675400E-01 +5.29276715174E-03 -4.40597200205E-03 +4.62918120001E-03 -4.35040403248E-03 +1.43777553901E-01 +7.69670802223E-01
1.47000000000E+09 +3.10411553313E-01 +6.38577412126E-01 +5.21881926712E-03 -6.34557838456E-03 +4.82248929229E-03 -5.76446742156E-03 +1.78558909826E-01 +7.37229686865E-01
1.47500000000E+09 +3.39566407990E-01 +6.01929477263E-01 +3.94378261257E-03 -8.39052804990E-03 +4.09316228229E-03 -7.86443017687E-03 +2.13409177916E-01 +6.97533233892E-01
1.48000000000E+09 +3.66528585180E-01 +5.58110093894E-01 +2.19574768318E-03 -9.64941251253E-03 +2.52990104335E-03 -9.64981746146E-03 +2.47979845969E-01 +6.50355251793E-01
1.48500000000E+09 +3.89104570605E-01 +5.06089504921E-01 +7.03497452541E-04 -1.07226504419E-02 +5.26830001255E-04 -1.10358678990E-02 +2.80389219749E-01 +5.94183981983E-01
1.49000000000E+09 +4.05341339518E-01 +4.46201837197E-01 -1.55177089907E-03 -1.22339760216E-02 -2.10534065060E-03 -1.21390272483E-02 +3.08030841607E-01 +5.27629903063E-01
1.49500000000E+09 +4.14067290387E-01 +3.78904341459E-01 -5.19216271789E-03 -1.31046183937E-02 -5.44409913229E-03 -1.23507647390E-02 +3.26641788039E-01 +4.50302135880E-01
1.50000000000E+09 +4.13688513493E-01 +3.02572012374E-01 -8.98734288465E-03 -1.25181738077E-02 -8.43153244795E-03 -1.17701900289E-02 +3.32439344578E-01 +3.63242047800E-01
1.50500000000E+09 +4.00515450898E-01 +2.18717062580E-01 -1.30413370570E-02 -1.08361817652E-02 -1.21069381273E-02 -1.08354198010E-02 +3.21471018930E-01 +2.68042084343E-01
1.51000000000E+09 +3.72382559994E-01 +1.31073596087E-01 -1.67320161465E-02 -7.32022002021E-03 -1.62240270924E-02 -7.89647439040E-03 +2.89518931004E-01 +1.68119354616E-01
1.51500000000E+09 +3.25173678511E-01 +4.23340308734E-02 -1.92216335579E-02 -2.92729880706E-03 -1.92958282162E-02 -3.50710955832E-03 +2.34185330486E-01 +7.20442693692E-02
1.52000000000E+09 +2.57905260903E-01 -3.75086942113E-02 -2.06511451473E-02 +2.42549479194E-03 -2.09487913930E-02 +2.23227638372E-03 +1.56461376807E-01 -1.24255189870E-02
1.52500000000E+09 +1.73774058520E-01 -1.03378481910E-01 -2.00029927211E-02 +9.69968183458E-03 -2.02509723875E-02 +9.67220790175E-03 +6.21753833449E-02 -7.91776292261E-02
1.53000000000E+09 +7.53040376731E-02 -1.49883769086E-01 -1.51039946202E-02 +1.52262872596E-02 -1.51594513658E-02 +1.53607412870E-02 -4.78510408842E-02 -1.22934694300E-01
1.53500000000E+09 -3.13135062024E-02 -1.72773605983E-01 -1.02324375108E-02 +1.82083756096E-02 -1.01609782367E-02 +1.81898682918E-02 -1.60434474840E-01 -1.39634327637E-01
1.54000000000E+09 -1.41518191303E-01 -1.70909905292E-01 -4.75571384632E-03 +1.97694677715E-02 -4.79639923053E-03 +1.95590573997E-02 -2.70795153015E-01 -1.32248477082E-01
1.54500000000E+09 -2.45323693518E-01 -1.44374572276E-01 +1.53838203701E-03 +1.96420176826E-02 +1.07093887788E-03 +1.94525486109E-02 -3.69483514083E-01 -1.03590780058E-01
1.55000000000E+09 -3.36748644555E-01 -1.00497597281E-01 +6.04736783180E-03 +1.65770673664E-02 +5.39320688217E-03 +1.67824718855E-02 -4.52674059288E-01 -6.05537903732E-02
1.55500000000E+09 -4.13086485258E-01 -4.49456299859E-02 +8.86076865353E-03 +1.37722664402E-02 +8.41863472592E-03 +1.44831354037E-02 -5.20337079695E-01 -8.98337415527E-03
1.56000000000E+09 -4.73136652369E-01 +1.41147518085E-02 +1.13509529842E-02 +1.03248561128E-02 +1.14777666023E-02 +1.11873172013E-02 -5.73555659919E-01 +4.69844648418E-02
1.56500000000E+09 -5.21003361588E-01 +7.40763096449E-02 +1.18882394198E-02 +6.35336260464E-03 +1.24789280226E-02 +6.92439688773E-03 -6.14862469000E-01 +1.04718103396E-01
1.57000000000E+09 -5.57041715699E-01 +1.33537062815E-01 +1.12802566079E-02 +3.75526417286E-03 +1.20346373048E-02 +3.92416235071E-03 -6.44377593507E-01 +1.62184365959E-01
