# Hz S RI R 50
! CMT, C1220, 16058040, 17.2.0/1
! Date: 14/08/2018 12:55:46
! Data: Format (Calibration Info)
! Freq                      S11: Re/Im (F2)                       S21: Re/Im (F2)                       S12: Re/Im (F2)                       S22: Re/Im (F2)            
1.00000000000E+09 -6.46143823935E-01 +7.13415377105E-01 +3.99498794023E-05 +4.53699873400E-05 +3.48271085245E-05 +3.69161766091E-06 -7.19107953207E-01 +6.45666511403E-01
1.00500000000E+09 -6.39645615859E-01 +7.18102450721E-01 -4.30607128145E-05 -2.83680464616E-05 +4.32683415212E-05 +1.22115356984E-05 -7.15355524948E-01 +6.49605874232E-01
1.01000000000E+09 -6.33675827407E-01 +7.22610040810E-01 +1.18167609916E-05 -4.97842454044E-06 +1.11624084712E-05 +7.13271932411E-06 -7.11698955836E-01 +6.53165973688E-01
1.01500000000E+09 -6.28793818501E-01 +7.26459268983E-01 -4.79004369498E-05 -2.45630410619E-06 +1.18932102158E-06 +2.27800864499E-05 -7.08255561702E-01 +6.56638153238E-01
1.02000000000E+09 -6.24819223060E-01 +7.30066209524E-01 +9.23002389876E-06 +3.20472168237E-05 -3.17807747945E-06 +4.44614728951E-05 -7.04664446438E-01 +6.59937139728E-01
1.02500000000E+09 -6.21368527869E-01 +7.33220540219E-01 -3.29377910993E-05 +7.50976360683E-06 +1.35575454830E-05 +4.12511660593E-05 -7.01631432049E-01 +6.63505877021E-01
1.03000000000E+09 -6.18233811171E-01 +7.36408133403E-01 +2.94692256887E-05 +2.43166345979E-05 +3.28849003020E-05 +4.05386774553E-05 -6.97967260037E-01 +6.67191957679E-01
1.03500000000E+09 -6.14451059682E-01 +7.39442290717E-01 +2.80252420890E-05 -1.09988854620E-05 +3.33647745222E-05 +5.34548826385E-05 -6.93854272664E-01 +6.71318648667E-01
1.04000000000E+09 -6.09810271187E-01 +7.42759632795E-01 +1.86651725351E-05 +1.18397918008E-05 +2.90222163824E-05 +4.12999706281E-05 -6.89902241817E-01 +6.74754194736E-01
1.04500000000E+09 -6.04076609521E-01 +7.46377826824E-01 -6.24074801404E-06 +2.96327055499E-05 -3.54855206786E-07 -9.48040816235E-06 -6.86217346369E-01 +6.78046316537E-01
1.05000000000E+09 -5.97179538283E-01 +7.50426947632E-01 +7.73273992265E-06 +2.35381261426E-05 +3.23808038839E-05 +2.87668318328E-05 -6.82672043684E-01 +6.81305212177E-01
1.05500000000E+09 -5.89428580015E-01 +7.54781189498E-01 +4.14979879619E-05 +6.60813903872E-05 +2.62513881882E-05 +2.57182438662E-05 -6.79231492804E-01 +6.84887085532E-01
1.06000000000E+09 -5.81197474032E-01 +7.59571307068E-01 +5.46269101490E-05 +5.75724987549E-05 +5.08600240205E-05 +2.87980636743E-05 -6.75632885593E-01 +6.88509948431E-01
1.06500000000E+09 -5.73369447036E-01 +7.64219074502E-01 +1.48262968468E-05 +4.33412444109E-05 -1.97044548496E-05 -2.27399319523E-05 -6.71594583108E-01 +6.92161960399E-01
1.07000000000E+09 -5.65864278685E-01 +7.68327964168E-01 +9.69782962891E-06 +6.54459878022E-05 +1.73974340184E-05 +4.89270827038E-05 -6.67290907982E-01 +6.95681793294E-01
1.07500000000E+09 -5.59681978112E-01 +7.72091235608E-01 +3.15021122947E-05 -1.89493576897E-05 +4.48239021431E-05 +2.84276222832E-05 -6.62770087209E-01 +6.99354595676E-01
1.08000000000E+09 -5.54751384538E-01 +7.75359395568E-01 +3.80916364607E-05 +1.55828512204E-05 +1.18410727617E-05 +6.48321279317E-05 -6.58627788502E-01 +7.02877646382E-01
1.08500000000E+09 -5.50857840350E-01 +7.78080053077E-01 +1.44599843798E-06 +9.31082323847E-06 +1.21991152662E-05 +2.49432636305E-05 -6.54642711578E-01 +7.06406783008E-01
1.09000000000E+09 -5.47390565296E-01 +7.80530385728E-01 +1.29893185724E-05 +8.40316890653E-07 +4.88931674433E-05 +1.21732838600E-05 -6.50922916550E-01 +7.10066360624E-01
1.09500000000E+09 -5.44531560518E-01 +7.82672105522E-01 +4.54891176766E-07 +2.90655662778E-05 +4.90682381440E-05 +2.92956111101E-05 -6.46911475246E-01 +7.13772562259E-01
1.10000000000E+09 -5.40782071021E-01 +7.84974335911E-01 +6.73834929121E-05 +5.01720864308E-06 +3.73574196555E-05 +3.52490370071E-06 -6.42718237139E-01 +7.17472240840E-01
1.10500000000E+09 -5.36407994101E-01 +7.87560047587E-01 +5.29141381157E-05 +3.22661329277E-05 +2.69009730494E-05 +7.64463895973E-05 -6.38300990870E-01 +7.20744229638E-01
1.11000000000E+09 -5.31109547022E-01 +7.90638493956E-01 +6.35986661010E-05 -3.46130354090E-06 +6.35717864152E-05 +4.98856718316E-05 -6.33902382972E-01 +7.23910518318E-01
1.11500000000E+09 -5.24634088957E-01 +7.94091342539E-01 +5.98166119412E-05 +2.80036140332E-05 +6.73497307379E-05 -5.34809120174E-06 -6.29979980692E-01 +7.27053432276E-01
1.12000000000E+09 -5.17624780953E-01 +7.97685251505E-01 +1.69009436081E-05 +9.76020644603E-06 +9.57059697703E-05 +3.73756755141E-05 -6.25758363353E-01 +7.30491972114E-01
1.12500000000E+09 -5.10015932966E-01 +8.01311177089E-01 +5.14781153833E-05 +5.28243241028E-05 +4.16447886296E-05 +1.49300019877E-06 -6.21190996605E-01 +7.34385973442E-01
1.13000000000E+09 -5.02699024861E-01 +8.04638481881E-01 +7.31215028458E-05 -1.39796128453E-05 +3.76584485658E-05 +4.39415850520E-06 -6.16917772246E-01 +7.37952780986E-01
1.13500000000E+09 -4.95643732067E-01 +8.07184305190E-01 +4.60426292886E-05 -3.54122840564E-05 +5.26501372107E-05 +3.41743688437E-05 -6.11901752735E-01 +7.41621046965E-01
1.14000000000E+09 -4.89352137900E-01 +8.09561114928E-01 +7.69729094960E-05 +3.22794340486E-05 +1.02712301461E-04 +8.60156589602E-06 -6.06815193849E-01 +7.44770673434E-01
1.14500000000E+09 -4.83646295781E-01 +8.11234313010E-01 +6.71688064230E-05 -2.88105338228E-05 +1.09708575373E-04 -1.70080675558E-05 -6.02120121639E-01 +7.48104690969E-01
1.15000000000E+09 -4.78456352485E-01 +8.12882665467E-01 +1.08966020717E-04 -3.48465764398E-05 +7.92987141775E-05 -5.17134323143E-05 -5.97287355190E-01 +7.51677798193E-01
1.15500000000E+09 -4.73365603143E-01 +8.14774202173E-01 +1.10018457669E-04 -1.07003652574E-05 +5.64389639433E-05 -2.61978727648E-05 -5.92375459496E-01 +7.55501439999E-01
1.16000000000E+09 -4.67920734533E-01 +8.16575228827E-01 +6.34824186092E-05 -6.19505748827E-05 +8.49811493458E-05 -3.09389407327E-06 -5.87579568304E-01 +7.59021049047E-01
1.16500000000E+09 -4.62032739208E-01 +8.19190538868E-01 +9.04697738529E-05 -2.75384869557E-05 +1.41493364465E-04 -6.27519272359E-05 -5.82323564432E-01 +7.62469696070E-01
1.17000000000E+09 -4.55245823711E-01 +8.21892934092E-01 +1.08067622415E-04 +9.55054558050E-06 +1.18722876424E-04 -7.00401603865E-05 -5.76764546203E-01 +7.65501605437E-01
1.17500000000E+09 -4.47982741256E-01 +8.24949396434E-01 +1.20314478394E-04 -6.12871264580E-05 +1.43574073162E-04 -8.65289984221E-05 -5.70934859229E-01 +7.68535698811E-01
1.18000000000E+09 -4.40522121314E-01 +8.28221225758E-01 +1.69931988266E-04 -1.02368036185E-04 +1.20954660122E-04 -4.64688048950E-05 -5.65564331905E-01 +7.71415065168E-01
1.18500000000E+09 -4.32497443956E-01 +8.30967688171E-01 +1.24864186874E-04 -1.25097171261E-04 +1.25204325270E-04 -1.23214047821E-04 -5.59682121464E-01 +7.74129291604E-01
1.19000000000E+09 -4.24789033794E-01 +8.33256232000E-01 +5.75010077919E-05 -2.11071584521E-04 +1.46921039281E-04 -1.36487824029E-04 -5.53515304796E-01 +7.76503737728E-01
1.19500000000E+09 -4.17165867850E-01 +8.35248398339E-01 +1.04699231158E-04 -1.91184225335E-04 +1.26136183038E-04 -2.65705084149E-04 -5.47458593116E-01 +7.77561077509E-01
1.20000000000E+09 -4.10142515256E-01 +8.36113528741E-01 +3.38088971264E-05 -2.65845107729E-04 +2.22710178086E-06 -2.95266723836E-04 -5.43028088790E-01 +7.77469612262E-01
1.20500000000E+09 -4.03273915774E-01 +8.37304843316E-01 -7.47929100149E-05 -2.54422911109E-04 -1.33670345303E-04 -2.43775371156E-04 -5.40474690132E-01 +7.78369331942E-01
1.21000000000E+09 -3.96585506979E-01 +8.38655348988E-01 -1.17647415684E-04 -1.54616334215E-04 -1.23601351492E-04 -1.57863916747E-04 -5.38261271436E-01 +7.81311006593E-01
1.21500000000E+09 -3.89070393467E-01 +8.40150483368E-01 -9.51442172557E-05 -1.46308738116E-04 -6.13685120073E-05 -1.55107491413E-04 -5.35165438374E-01 +7.85785522400E-01
1.22000000000E+09 -3.80984177475E-01 +8.42077230190E-01 -3.01732608938E-05 -1.57154351054E-04 -7.27608539217E-05 -1.51978414742E-04 -5.30931562931E-01 +7.90886876503E-01
1.22500000000E+09 -3.72767783090E-01 +8.44401604825E-01 -4.44638666163E-05 -1.70478128210E-04 -4.76440198283E-05 -1.30850798572E-04 -5.25516207473E-01 +7.95590812154E-01
1.23000000000E+09 -3.64000930984E-01 +8.46972618773E-01 -5.36438673717E-05 -1.82969102172E-04 -8.12276716759E-05 -1.38685730150E-04 -5.19710512006E-01 +8.00052655060E-01
1.23500000000E+09 -3.55285787398E-01 +8.49983830069E-01 -8.72244182535E-05 -1.42228004208E-04 -7.64021256659E-05 -1.39024069167E-04 -5.13770966720E-01 +8.04000754123E-01
1.24000000000E+09 -3.46973077845E-01 +8.52938059901E-01 -6.39418279240E-05 -1.96393133716E-04 -1.11430984284E-04 -2.02742672881E-04 -5.07737984209E-01 +8.07595050392E-01
1.24500000000E+09 -3.38998301833E-01 +8.55998280015E-01 -1.42340856260E-04 -1.73504331803E-04 -1.48360760713E-04 -1.95013014240E-04 -5.01457610756E-01 +8.11036730012E-01
1.25000000000E+09 -3.31355665643E-01 +8.58689393624E-01 -1.02094840855E-04 -1.55068480386E-04 -1.21988366737E-04 -1.75767448344E-04 -4.94791305700E-01 +8.15080478852E-01
1.25500000000E+09 -3.23708155281E-01 +8.60316361592E-01 -1.15563298932E-04 -1.64964041613E-04 -1.35046502151E-04 -1.64788273362E-04 -4.88026109703E-01 +8.18593309291E-01
1.26000000000E+09 -3.16142608768E-01 +8.61498713781E-01 -1.41501204191E-04 -2.12158830363E-04 -1.44881202900E-04 -2.05736688954E-04 -4.81342024433E-01 +8.22487308950E-01
1.26500000000E+09 -3.08225995677E-01 +8.61965101198E-01 -1.77264966620E-04 -2.11396894004E-04 -2.04099758819E-04 -2.25794941011E-04 -4.74220118486E-01 +8.26015273090E-01
1.27000000000E+09 -2.99785552501E-01 +8.62272384343E-01 -2.73778112524E-04 -2.30096669117E-04 -2.40880831845E-04 -2.05400908907E-04 -4.67317371441E-01 +8.29492700656E-01
1.27500000000E+09 -2.90428834283E-01 +8.62564074650E-01 -3.20325907867E-04 -1.94803549336E-04 -2.72483637828E-04 -2.24235788098E-04 -4.60246080257E-01 +8.32653584649E-01
1.28000000000E+09 -2.80127269567E-01 +8.63311038346E-01 -3.59155514342E-04 -1.62781041985E-04 -3.45527461072E-04 -1.95750893649E-04 -4.53118128508E-01 +8.35891423751E-01
1.28500000000E+09 -2.68904622935E-01 +8.64243967720E-01 -3.75153748627E-04 -1.43382968676E-04 -3.71909155845E-04 -1.47754525143E-04 -4.45645629371E-01 +8.39279319003E-01
1.29000000000E+09 -2.57711215185E-01 +8.65753244895E-01 -3.79795461968E-04 -9.40797888419E-05 -4.27252273804E-04 -7.69637168959E-05 -4.37890503053E-01 +8.42630964349E-01
1.29500000000E+09 -2.46976095842E-01 +8.67762111423E-01 -3.98076022962E-04 -1.07576831912E-04 -4.81687242137E-04 -4.62372487782E-05 -4.30235061989E-01 +8.45780521252E-01
1.30000000000E+09 -2.36627952452E-01 +8.70472918223E-01 -5.33913627314E-04 -5.82745202945E-05 -5.43909385773E-04 -4.57154508784E-05 -4.22345988478E-01 +8.49045238456E-01
1.30500000000E+09 -2.27221925065E-01 +8.73135141989E-01 -5.48439173193E-04 -8.96929945799E-06 -5.74980318115E-04 +5.12646036874E-05 -4.14372651443E-01 +8.52154112507E-01
1.31000000000E+09 -2.18216133018E-01 +8.75302670433E-01 -6.16020270113E-04 +9.07561466629E-05 -5.78970746458E-04 +9.44249324393E-05 -4.05982553712E-01 +8.55215696609E-01
1.31500000000E+09 -2.09895456190E-01 +8.76373403627E-01 -5.58666415708E-04 +2.05464865711E-04 -5.76465477488E-04 +1.94670775684E-04 -3.97129537714E-01 +8.58248072400E-01
1.32000000000E+09 -2.02174270283E-01 +8.76691817464E-01 -5.56467933443E-04 +2.82434569000E-04 -5.77961220142E-04 +2.44703751402E-04 -3.88278328128E-01 +8.61233141566E-01
1.32500000000E+09 -1.94369307877E-01 +8.75902943514E-01 -5.44580322572E-04 +2.73121559145E-04 -6.47524311248E-04 +2.84227696320E-04 -3.78869428420E-01 +8.64140074114E-01
1.33000000000E+09 -1.85739729845E-01 +8.74971869348E-01 -6.18383765729E-04 +3.56555996445E-04 -5.93726427904E-04 +4.30737675451E-04 -3.69499981460E-01 +8.66972075807E-01
1.33500000000E+09 -1.75827574261E-01 +8.73597173591E-01 -6.52667127432E-04 +4.88454484751E-04 -6.16922319300E-04 +5.75804758537E-04 -3.59853420673E-01 +8.69813526156E-01
1.34000000000E+09 -1.64296044589E-01 +8.72530132157E-01 -6.21115431519E-04 +6.66090297968E-04 -5.40069274327E-04 +5.75372200997E-04 -3.49838116699E-01 +8.72614596181E-01
1.34500000000E+09 -1.51297342794E-01 +8.71714254218E-01 -5.66251618020E-04 +7.71085976195E-04 -5.14677643190E-04 +7.19272750514E-04 -3.39027766061E-01 +8.75434814778E-01
1.35000000000E+09 -1.37313250198E-01 +8.71386490676E-01 -4.80231587088E-04 +8.14147994168E-04 -4.50524383596E-04 +7.93823780424E-04 -3.28282860023E-01 +8.77971680864E-01
1.35500000000E+09 -1.22528849921E-01 +8.71453539420E-01 -4.61061991607E-04 +8.95885893559E-04 -4.11140010679E-04 +8.94307182147E-04 -3.16832258811E-01 +8.80272156328E-01
1.36000000000E+09 -1.07342937768E-01 +8.71833604192E-01 -4.25152832523E-04 +1.02839701245E-03 -3.75273673489E-04 +9.06312887773E-04 -3.05142997372E-01 +8.82428836402E-01
1.36500000000E+09 -9.22237729461E-02 +8.71689257776E-01 -3.63568724166E-04 +1.13029140986E-03 -3.27902498206E-04 +1.06039115163E-03 -2.93537999441E-01 +8.84200576038E-01
1.37000000000E+09 -7.77012633971E-02 +8.70523000264E-01 -2.39710901771E-04 +1.28732403508E-03 -2.84759793076E-04 +1.24135837090E-03 -2.80904171029E-01 +8.86148395483E-01
1.37500000000E+09 -6.45458571979E-02 +8.68394247929E-01 -1.72262579215E-05 +1.44143060561E-03 -1.25331553607E-04 +1.35920650458E-03 -2.67552229495E-01 +8.87901496534E-01
1.38000000000E+09 -5.19672985449E-02 +8.65563476088E-01 +1.34724803791E-04 +1.39784370666E-03 -5.51680402010E-05 +1.49387704803E-03 -2.53179328412E-01 +8.89490796845E-01
1.38500000000E+09 -3.94212602010E-02 +8.61758936245E-01 +2.78138000839E-04 +1.56835424722E-03 +1.43361339727E-04 +1.81237490627E-03 -2.38183918751E-01 +8.90849078361E-01
1.39000000000E+09 -2.68738407412E-02 +8.57362001148E-01 +4.07379615899E-04 +1.62603005581E-03 +4.91202712780E-04 +1.86975499387E-03 -2.22952517204E-01 +8.91681375661E-01
1.39500000000E+09 -1.28879784873E-02 +8.52614958923E-01 +6.26693756196E-04 +1.77337109240E-03 +8.68468453381E-04 +1.94458860236E-03 -2.06947393036E-01 +8.92091666559E-01
1.40000000000E+09 +2.29317507957E-03 +8.47288171351E-01 +9.12779103756E-04 +1.92214222687E-03 +1.13893883209E-03 +1.91834217105E-03 -1.90276873275E-01 +8.91933460908E-01
1.40500000000E+09 +1.83170114547E-02 +8.41810021609E-01 +1.46369251527E-03 +1.97828603923E-03 +1.52673993837E-03 +1.84217154502E-03 -1.72623207463E-01 +8.91203514716E-01
1.41000000000E+09 +3.54708276237E-02 +8.36778180257E-01 +1.84723109536E-03 +1.77724503583E-03 +1.78783610563E-03 +1.75211825247E-03 -1.53325006457E-01 +8.90103641018E-01
1.41500000000E+09 +5.42486276462E-02 +8.31803033504E-01 +2.05424558623E-03 +1.62280553866E-03 +2.09262216464E-03 +1.77847880528E-03 -1.32447711901E-01 +8.87968161393E-01
1.42000000000E+09 +7.45732278241E-02 +8.26172542478E-01 +2.41095164081E-03 +1.56942693638E-03 +2.60957265199E-03 +1.76339286335E-03 -1.10406455869E-01 +8.84873999425E-01
1.42500000000E+09 +9.56792966622E-02 +8.18471547752E-01 +2.80823214660E-03 +1.41634314876E-03 +3.19940330767E-03 +1.49688889238E-03 -8.78273397584E-02 +8.80648760849E-01
1.43000000000E+09 +1.16885175401E-01 +8.08527164696E-01 +3.34843051293E-03 +1.37760555714E-03 +3.78200643750E-03 +1.15247000192E-03 -6.44869873357E-02 +8.75620517079E-01
1.43500000000E+09 +1.37878263360E-01 +7.95630109996E-01 +4.23864820671E-03 +8.79684405033E-04 +4.44984224707E-03 +5.13473175956E-04 -3.95211626755E-02 +8.68782214982E-01
1.44000000000E+09 +1.58853598772E-01 +7.81141223667E-01 +4.84808399044E-03 -1.89928743619E-04 +4.84278180063E-03 -5.06252587248E-04 -1.28047899611E-02 +8.59764513371E-01
1.44500000000E+09 +1.80939675767E-01 +7.63814310625E-01 +4.79547683216E-03 -1.19828687329E-03 +4.78634928736E-03 -1.49378166903E-03 +1.56630055265E-02 +8.48372351569E-01
1.45000000000E+09 +2.03823863783E-01 +7.43923220186E-01 +4.67425664425E-03 -1.73855356646E-03 +4.69896974472E-03 -2.07198846563E-03 +4.58934227064E-02 +8.33818078620E-01
1.45500000000E+09 +2.27743563991E-01 +7.21377215373E-01 +4.97395044492E-03 -2.27776764428E-03 +4.76651247127E-03 -2.72970216523E-03 +7.71586561011E-02 +8.16763853781E-01
1.46000000000E+09 +2.52954310233E-01 +6.96785243653E-01 +5.37055420287E-03 -3.19120674571E-03 +4.86090342445E-03 -3.55105961363E-03 +1.10187231141E-01 +7.95848652010E-01
1.46500000000E+09 +2.79590587012E-01 +6.69702326507E-01 +5.73374671402E-03 -4.53383465523E-03 +5.01322841363E-03 -4.46936346994E-03 +1.44202594429E-01 +7.69674243541E-01
1.47000000000E+09 +3.07997732390E-01 +6.38983260046E-01 +5.67242540845E-03 -6.59205595899E-03 +5.25972300498E-03 -6.07661032157E-03 +1.79156644307E-01 +7.37079227799E-01
1.47500000000E+09 +3.36972257611E-01 +6.02250900787E-01 +4.37495349797E-03 -8.88809512885E-03 +4.54096399543E-03 -8.34979556073E-03 +2.14048656463E-01 +6.97200805355E-01
1.48000000000E+09 +3.63492702672E-01 +5.58584467045E-01 +2.47257006278E-03 -1.02635561939E-02 +2.77126977998E-03 -1.02740362310E-02 +2.48348918925E-01 +6.49892732938E-01
1.48500000000E+09 +3.85862123168E-01 +5.06413547034E-01 +8.78107380902E-04 -1.14200202780E-02 +7.24221674718E-04 -1.17426199016E-02 +2.80657353818E-01 +5.93564872663E-01
1.49000000000E+09 +4.01709650021E-01 +4.46772565815E-01 -1.45358951839E-03 -1.30741462471E-02 -2.11733542754E-03 -1.29272194854E-02 +3.08197357930E-01 +5.27045151823E-01
1.49500000000E+09 +4.09928431395E-01 +3.79784846047E-01 -5.35308110266E-03 -1.41325074295E-02 -5.66041944448E-03 -1.33008745335E-02 +3.26733529998E-01 +4.49717083270E-01
1.50000000000E+09 +4.09515413813E-01 +3.03957733756E-01 -9.50815324009E-03 -1.35427959001E-02 -8.94742370364E-03 -1.27390440090E-02 +3.32169179618E-01 +3.62529513818E-01
1.50500000000E+09 +3.95796379876E-01 +2.20562534578E-01 -1.39112831805E-02 -1.18254514533E-02 -1.29236040234E-02 -1.17889026129E-02 +3.20999131671E-01 +2.67422126777E-01
1.51000000000E+09 +3.67319518131E-01 +1.33810586792E-01 -1.78327928849E-02 -7.89159974771E-03 -1.72977429118E-02 -8.49699142601E-03 +2.88917874330E-01 +1.67703650497E-01
1.51500000000E+09 +3.20317845827E-01 +4.62735195451E-02 -2.04276387858E-02 -3.60650468251E-03 -2.05156820085E-02 -4.15870696211E-03 +2.33345199529E-01 +7.17811568178E-02
1.52000000000E+09 +2.53470882760E-01 -3.23013561772E-02 -2.24124678535E-02 +2.22258130694E-03 -2.27313489945E-02 +1.96117725847E-03 +1.55449379295E-01 -1.22070046630E-02
1.52500000000E+09 +1.70301546737E-01 -9.68993109828E-02 -2.18952763214E-02 +1.02767749414E-02 -2.21385700753E-02 +1.02543088590E-02 +6.12726652927E-02 -7.87086045752E-02
1.53000000000E+09 +7.40399320632E-02 -1.42628488843E-01 -1.64201118663E-02 +1.64656226385E-02 -1.65468372605E-02 +1.65774951804E-02 -4.85617204158E-02 -1.22131316595E-01
1.53500000000E+09 -3.08573187779E-02 -1.66278723548E-01 -1.10922468412E-02 +1.95358761845E-02 -1.10987065997E-02 +1.96005487276E-02 -1.60970065848E-01 -1.38566232166E-01
1.54000000000E+09 -1.39938896683E-01 -1.65185910716E-01 -5.29360591275E-03 +2.11983895117E-02 -5.34393417094E-03 +2.09905430231E-02 -2.70975893673E-01 -1.31048111792E-01
1.54500000000E+09 -2.42621010276E-01 -1.39483793261E-01 +1.37131357554E-03 +2.12932554467E-02 +8.45506120680E-04 +2.10746047657E-02 -3.69202364378E-01 -1.02293675358E-01
1.55000000000E+09 -3.33418454156E-01 -9.69583716459E-02 +6.36949012266E-03 +1.80219065066E-02 +5.68976634183E-03 +1.82553110772E-02 -4.52051334911E-01 -5.95401881302E-02
1.55500000000E+09 -4.09529503640E-01 -4.25758073719E-02 +9.63657479969E-03 +1.50237102849E-02 +9.18693215576E-03 +1.57829973993E-02 -5.19656876016E-01 -8.33271831334E-03
1.56000000000E+09 -4.69427314264E-01 +1.54577529080E-02 +1.22685712871E-02 +1.10606452474E-02 +1.24333907632E-02 +1.20068994864E-02 -5.72833451293E-01 +4.76672731497E-02
1.56500000000E+09 -5.17566967454E-01 +7.41324251289E-02 +1.26655965369E-02 +6.89695586895E-03 +1.33199444030E-02 +7.54592166399E-03 -6.13969455451E-01 +1.05155437245E-01
1.57000000000E+09 -5.54367663547E-01 +1.32732725858E-01 +1.21889869156E-02 +4.14401850144E-03 +1.30159102281E-02 +4.36901862891E-03 -6.43478461173E-01 +1.62413767428E-01
