# Hz S RI R 50
! CMT, C1220, 16058040, 17.2.0/1
! Date: 14/08/2018 12:58:18
! Data: Format (Calibration Info)
! Freq                      S11: Re/Im (F2)                       S21: Re/Im (F2)                       S12: Re/Im (F2)                       S22: Re/Im (F2)            
1.00000000000E+09 -6.47487928685E-01 +7.11793664813E-01 +1.12637826143E-05 +3.61832333317E-05 +2.94066248218E-05 -2.76117181652E-05 -7.19263602975E-01 +6.45550338924E-01
1.00500000000E+09 -6.41075275890E-01 +7.16346482237E-01 -3.17762750255E-05 +3.09976313454E-05 -1.59521793093E-05 +1.60977430463E-05 -7.15330730470E-01 +6.49700772470E-01
1.01000000000E+09 -6.35221899276E-01 +7.20742418951E-01 -1.07109628320E-05 -1.49853010732E-06 -1.66330033908E-05 +2.03414783814E-05 -7.11684437746E-01 +6.53123301704E-01
1.01500000000E+09 -6.30363635962E-01 +7.24520464750E-01 +1.20010405081E-05 -8.48468835012E-06 -2.71097134677E-05 +6.66447332749E-06 -7.08026292253E-01 +6.56753005215E-01
1.02000000000E+09 -6.26608545023E-01 +7.27946750747E-01 -4.98071748414E-06 -6.64640527842E-08 -7.23498590840E-05 +2.64814448357E-05 -7.04927560497E-01 +6.60068710074E-01
1.02500000000E+09 -6.23136406012E-01 +7.31419794261E-01 -3.70643967158E-05 +1.13137540347E-05 +1.03900903741E-05 +1.69443838989E-05 -7.01731352517E-01 +6.63597800627E-01
1.03000000000E+09 -6.20286901608E-01 +7.34295557798E-01 -1.02796446247E-05 +1.20997067395E-05 -1.37226695749E-05 -2.51759353164E-05 -6.98050725399E-01 +6.67270248753E-01
1.03500000000E+09 -6.16500446887E-01 +7.37237962778E-01 -2.82638170484E-05 +5.20177163102E-05 +2.21770626033E-06 +3.69124269543E-05 -6.94013932453E-01 +6.71139406652E-01
1.04000000000E+09 -6.12025018360E-01 +7.40451874629E-01 -1.93445023482E-05 +2.81797776256E-05 -4.94332065107E-06 +3.33449173241E-05 -6.89960577377E-01 +6.74754920946E-01
1.04500000000E+09 -6.06415078327E-01 +7.44041720574E-01 -1.71387142732E-05 +3.44339178503E-05 +8.99690148602E-06 +2.65585689131E-06 -6.86189481522E-01 +6.78132600017E-01
1.05000000000E+09 -5.99618781845E-01 +7.48107691775E-01 +1.70904601840E-05 +2.41636906875E-05 +5.04430551689E-05 +6.18798771956E-05 -6.82733845094E-01 +6.81447897744E-01
1.05500000000E+09 -5.92195728660E-01 +7.52379957074E-01 +5.53191449197E-06 +1.23713304071E-06 +1.74324190960E-05 -5.22968517082E-06 -6.79206826405E-01 +6.84900193984E-01
1.06000000000E+09 -5.84180158966E-01 +7.57065725284E-01 +2.54713629467E-05 +1.34683028321E-05 +3.51518289095E-05 +4.16787168392E-05 -6.75742430736E-01 +6.88561840082E-01
1.06500000000E+09 -5.76399255665E-01 +7.61594095458E-01 +3.85667547301E-05 +3.73740993416E-05 +3.30234659750E-05 +2.89019683165E-05 -6.71853186633E-01 +6.92301729577E-01
1.07000000000E+09 -5.69375626805E-01 +7.65593823781E-01 +3.73350567624E-06 +8.38841214528E-05 +5.55648057313E-05 +4.44733502897E-05 -6.67360020093E-01 +6.95882155427E-01
1.07500000000E+09 -5.63410727423E-01 +7.69341913770E-01 -2.32405729358E-05 +6.90654788050E-05 +3.58724562609E-05 -1.78709536866E-06 -6.62973288224E-01 +6.99412566466E-01
1.08000000000E+09 -5.58512381941E-01 +7.72494724970E-01 +4.65193905749E-05 +3.84854911249E-05 +1.08944831080E-05 +1.71089381445E-05 -6.58918281489E-01 +7.03069257749E-01
1.08500000000E+09 -5.54719667463E-01 +7.75150761991E-01 -6.10147658723E-06 +1.40734629530E-05 +4.28448529271E-05 +6.86771790438E-05 -6.54770450659E-01 +7.06463669546E-01
1.09000000000E+09 -5.51304985005E-01 +7.77650912026E-01 +3.76690173642E-05 +5.18454038115E-05 +3.92947031162E-05 +1.04192092755E-04 -6.50912359590E-01 +7.10127914843E-01
1.09500000000E+09 -5.48602522653E-01 +7.79705239686E-01 +5.37131235018E-05 +7.75662910199E-06 +4.65715990701E-05 -1.59137529280E-05 -6.46963147994E-01 +7.13846652169E-01
1.10000000000E+09 -5.44923921595E-01 +7.82010228906E-01 +3.11586395174E-05 +7.14355257351E-06 +2.91309060847E-06 -2.60434921558E-06 -6.42851093774E-01 +7.17624131341E-01
1.10500000000E+09 -5.40725028919E-01 +7.84521666624E-01 -3.41821698731E-06 -4.27509675829E-05 +5.21407226222E-05 +3.02917762243E-05 -6.38397247736E-01 +7.20895329872E-01
1.11000000000E+09 -5.35412013347E-01 +7.87493833767E-01 +4.88471491059E-05 +3.36198862217E-05 +6.99300439095E-05 +3.11467878335E-05 -6.33980212135E-01 +7.23971389642E-01
1.11500000000E+09 -5.29202282567E-01 +7.91049505168E-01 +5.34586111213E-05 -1.46947631983E-05 +3.22339640675E-05 +3.27771065464E-05 -6.29952940653E-01 +7.27180339929E-01
1.12000000000E+09 -5.22151000641E-01 +7.94487201488E-01 +7.12325362054E-05 -2.24774773545E-05 +9.21229996342E-05 +2.21191027782E-05 -6.25833734966E-01 +7.30668656408E-01
1.12500000000E+09 -5.14801573367E-01 +7.98127403366E-01 +5.74980734529E-05 +1.64324949740E-05 +8.81684397590E-05 +8.07419939861E-05 -6.21505670275E-01 +7.34440388546E-01
1.13000000000E+09 -5.07631637461E-01 +8.01281762950E-01 +6.84204018099E-05 +4.97392055867E-05 +4.37002465351E-05 -6.26500025879E-06 -6.16825820856E-01 +7.38012419581E-01
1.13500000000E+09 -5.00801613477E-01 +8.03919679329E-01 +8.15021404522E-05 +9.74018942576E-06 +7.67508901743E-05 +4.98789709513E-06 -6.11958472530E-01 +7.41547248891E-01
1.14000000000E+09 -4.94681171098E-01 +8.06179503983E-01 +1.05660206962E-04 +1.03887750013E-05 +7.78778551280E-05 +2.81219924389E-05 -6.07029045877E-01 +7.44861165571E-01
1.14500000000E+09 -4.89221256399E-01 +8.07925422817E-01 +5.45655735794E-05 -4.07289027911E-05 +9.60246036736E-05 -3.01471780968E-05 -6.02115361035E-01 +7.48207093528E-01
1.15000000000E+09 -4.84141407258E-01 +8.09562432704E-01 +1.07082250426E-04 -4.98435109795E-05 +1.30924826249E-04 +1.00859086946E-06 -5.97570430569E-01 +7.51843488190E-01
1.15500000000E+09 -4.79341017834E-01 +8.11218532240E-01 +5.33229911096E-05 -1.32865973574E-06 +2.27758849901E-05 -5.17616621572E-05 -5.92444562568E-01 +7.55380090777E-01
1.16000000000E+09 -4.73984289800E-01 +8.13306618287E-01 +1.23064686795E-04 +5.85886836946E-06 +6.95328050307E-05 -4.04574242658E-05 -5.87433913153E-01 +7.59078862188E-01
1.16500000000E+09 -4.68292314984E-01 +8.15841792767E-01 +8.52071360358E-05 -1.68284802896E-05 +9.10133906508E-05 -8.15787187494E-06 -5.82267026877E-01 +7.62513725069E-01
1.17000000000E+09 -4.61888815529E-01 +8.18718165452E-01 +1.09704419987E-04 -1.89002735816E-05 +6.26011851883E-05 -2.61712077311E-05 -5.76879750188E-01 +7.65633995976E-01
1.17500000000E+09 -4.54765862527E-01 +8.21675291911E-01 +1.36285940219E-04 -1.78021733810E-05 +8.82614466896E-05 -5.97841407688E-05 -5.71123992771E-01 +7.68579879296E-01
1.18000000000E+09 -4.47505016350E-01 +8.24869819527E-01 +1.50207348698E-04 -6.98005640895E-05 +9.87665854233E-05 -1.05131434791E-04 -5.65662932619E-01 +7.71506558238E-01
1.18500000000E+09 -4.39845311049E-01 +8.27962286419E-01 +1.26268619667E-04 -1.13115750798E-04 +8.22728002031E-05 -1.61295965914E-04 -5.59755590144E-01 +7.74165926047E-01
1.19000000000E+09 -4.32145213351E-01 +8.30333390425E-01 +7.36266151648E-05 -1.54775162923E-04 +9.98038802405E-05 -1.75518117330E-04 -5.53575610876E-01 +7.76501526579E-01
1.19500000000E+09 -4.24932101178E-01 +8.31993343064E-01 +1.05880462398E-04 -1.74853407714E-04 +1.38686881781E-04 -2.22287971566E-04 -5.47582725020E-01 +7.77595330855E-01
1.20000000000E+09 -4.18103629985E-01 +8.32979710812E-01 +1.44247410250E-05 -2.56230740488E-04 -1.17533926773E-05 -2.96743070070E-04 -5.43019525044E-01 +7.77520631089E-01
1.20500000000E+09 -4.11585783418E-01 +8.34265155756E-01 -8.95467110308E-05 -2.32370718182E-04 -1.07163062664E-04 -1.95535398953E-04 -5.40399718826E-01 +7.78393963437E-01
1.21000000000E+09 -4.05112045828E-01 +8.35469283238E-01 -7.97044987367E-05 -1.11201708624E-04 -5.00000969105E-05 -1.62903216362E-04 -5.38321497424E-01 +7.81420040543E-01
1.21500000000E+09 -3.97943941565E-01 +8.36984706132E-01 -8.30894103418E-05 -1.60869853631E-04 -5.59215753387E-05 -8.98195143075E-05 -5.35271358953E-01 +7.85758974998E-01
1.22000000000E+09 -3.90298127062E-01 +8.38941614487E-01 -5.54773372770E-05 -9.36607082331E-05 +3.80928345492E-06 -8.72387778615E-05 -5.30840969435E-01 +7.90946716329E-01
1.22500000000E+09 -3.82085675380E-01 +8.41469902942E-01 -3.03566656227E-05 -1.56574339616E-04 -9.41741892049E-06 -1.44553341295E-04 -5.25515604846E-01 +7.95794017010E-01
1.23000000000E+09 -3.73688477087E-01 +8.44296309089E-01 -4.13908167826E-05 -1.38536772044E-04 -3.74564394811E-05 -1.76120778950E-04 -5.19830830485E-01 +8.00096238930E-01
1.23500000000E+09 -3.65277242682E-01 +8.47361410354E-01 -8.93525622076E-05 -1.09236173745E-04 -6.56722533169E-05 -1.41265688804E-04 -5.13956406673E-01 +8.04059285140E-01
1.24000000000E+09 -3.57093369166E-01 +8.50462698989E-01 -7.54941856473E-05 -1.73062476479E-04 -4.15947807019E-05 -1.62479298951E-04 -5.07770833246E-01 +8.07682784240E-01
1.24500000000E+09 -3.49309710155E-01 +8.53779478230E-01 -6.29522809980E-05 -1.84812441391E-04 -8.44306937416E-05 -1.66018307983E-04 -5.01516159272E-01 +8.11108557631E-01
1.25000000000E+09 -3.41765474934E-01 +8.56339521017E-01 -6.98817592545E-05 -1.67432276980E-04 -8.46176468355E-05 -2.02047440711E-04 -4.94930493262E-01 +8.14957992710E-01
1.25500000000E+09 -3.34356314138E-01 +8.58217998945E-01 -9.02802393855E-05 -1.56070407013E-04 -1.06505848922E-04 -1.91673537816E-04 -4.87905611461E-01 +8.18698506438E-01
1.26000000000E+09 -3.26892618469E-01 +8.59365673192E-01 -1.03502793442E-04 -2.02795437795E-04 -1.39360059525E-04 -2.13678320171E-04 -4.81439979551E-01 +8.22494339151E-01
1.26500000000E+09 -3.19287003749E-01 +8.59955740083E-01 -1.49466569450E-04 -2.53754218030E-04 -1.82736880735E-04 -2.14143331561E-04 -4.74336546845E-01 +8.25993586444E-01
1.27000000000E+09 -3.11115185431E-01 +8.60253935046E-01 -1.78918514886E-04 -2.52991206805E-04 -2.00115510908E-04 -1.56691209518E-04 -4.67368592259E-01 +8.29388362125E-01
1.27500000000E+09 -3.02228874838E-01 +8.60990890191E-01 -2.57561287637E-04 -2.01670783959E-04 -2.54901910318E-04 -2.45391036521E-04 -4.60300191204E-01 +8.32725150063E-01
1.28000000000E+09 -2.92266872872E-01 +8.61907263603E-01 -3.02240286217E-04 -1.94410093166E-04 -3.33345005327E-04 -1.85625611951E-04 -4.53238924432E-01 +8.36052022244E-01
1.28500000000E+09 -2.81115707312E-01 +8.63163812867E-01 -3.41822808879E-04 -1.09812808555E-04 -3.34340111730E-04 -1.85198096473E-04 -4.45751045736E-01 +8.39423724991E-01
1.29000000000E+09 -2.70300969945E-01 +8.64958825974E-01 -3.64078565010E-04 -1.35132170530E-04 -4.59587705822E-04 -1.40999718627E-04 -4.38153410106E-01 +8.42714880640E-01
1.29500000000E+09 -2.59589442623E-01 +8.67468272822E-01 -3.98793434359E-04 -1.20973777682E-04 -4.36192001018E-04 -1.06290180684E-04 -4.30210608043E-01 +8.45852188400E-01
1.30000000000E+09 -2.49355787934E-01 +8.70334114977E-01 -4.89517443253E-04 -9.77026593837E-05 -4.72193690529E-04 -4.31038561495E-05 -4.22440122231E-01 +8.49051985661E-01
1.30500000000E+09 -2.40024632913E-01 +8.73100656209E-01 -5.30960012566E-04 -4.65538329815E-05 -5.29499851269E-04 -2.53406619847E-05 -4.14413407013E-01 +8.52145495593E-01
1.31000000000E+09 -2.31199892076E-01 +8.75273859914E-01 -6.25402786531E-04 +4.07491499151E-05 -5.23713893289E-04 +7.76725635380E-05 -4.06148510818E-01 +8.55167342059E-01
1.31500000000E+09 -2.23099227385E-01 +8.76601575713E-01 -5.87634720625E-04 +1.60265139723E-04 -5.34177638676E-04 +1.88613758277E-04 -3.97383221187E-01 +8.58309876529E-01
1.32000000000E+09 -2.15766618135E-01 +8.76845000558E-01 -5.30456263581E-04 +1.96561958274E-04 -5.33303683411E-04 +2.23770086273E-04 -3.88378512197E-01 +8.61318461153E-01
1.32500000000E+09 -2.08207294639E-01 +8.76384257072E-01 -5.26585051630E-04 +1.92591089675E-04 -5.91769110967E-04 +3.04754649277E-04 -3.79088509560E-01 +8.64300241376E-01
1.33000000000E+09 -1.99922154326E-01 +8.75752960777E-01 -5.41665210789E-04 +2.24150778454E-04 -5.90115671206E-04 +3.33788057091E-04 -3.69674278472E-01 +8.67045725605E-01
1.33500000000E+09 -1.90233378802E-01 +8.74818558608E-01 -6.66442505939E-04 +3.95293408208E-04 -6.00596433874E-04 +4.73105187540E-04 -3.60027675060E-01 +8.69881915559E-01
1.34000000000E+09 -1.78884772409E-01 +8.74206224970E-01 -5.96102197996E-04 +5.30613289271E-04 -5.07631289727E-04 +4.88999222104E-04 -3.50011822777E-01 +8.72704416152E-01
1.34500000000E+09 -1.66008683770E-01 +8.73778636435E-01 -5.39352610136E-04 +6.77108927341E-04 -5.34863207435E-04 +6.16300741081E-04 -3.39189836894E-01 +8.75424331023E-01
1.35000000000E+09 -1.51951658922E-01 +8.73769061478E-01 -4.77517998646E-04 +7.18273729032E-04 -4.73195984481E-04 +6.79470368870E-04 -3.28397730797E-01 +8.77981006807E-01
1.35500000000E+09 -1.37136254738E-01 +8.74238932254E-01 -3.94444078133E-04 +7.77922013658E-04 -4.14105290754E-04 +7.78703279482E-04 -3.16875824903E-01 +8.80396497716E-01
1.36000000000E+09 -1.22023062845E-01 +8.74801535149E-01 -4.50639710377E-04 +8.40361753026E-04 -4.19713106936E-04 +8.19708076634E-04 -3.05459131133E-01 +8.82479675052E-01
1.36500000000E+09 -1.07016921813E-01 +8.74765221838E-01 -4.32664436840E-04 +1.04229895928E-03 -4.04478067318E-04 +9.59660604878E-04 -2.93619475315E-01 +8.84521651263E-01
1.37000000000E+09 -9.26541181484E-02 +8.73801310351E-01 -2.72206756128E-04 +1.18380635730E-03 -3.12257917302E-04 +1.09866623630E-03 -2.81039909991E-01 +8.86329636524E-01
1.37500000000E+09 -7.97079078892E-02 +8.72129900602E-01 -8.74899406624E-05 +1.30604110112E-03 -2.14001142963E-04 +1.26070506281E-03 -2.67648785975E-01 +8.88214274166E-01
1.38000000000E+09 -6.73237930997E-02 +8.69645773861E-01 -4.45476090037E-05 +1.30912387483E-03 -1.23407933272E-04 +1.40429583547E-03 -2.53360970048E-01 +8.89725256335E-01
1.38500000000E+09 -5.49693062905E-02 +8.66523525444E-01 +1.36129043368E-04 +1.46990948461E-03 -7.07155355820E-06 +1.65575733847E-03 -2.38318840240E-01 +8.90990853046E-01
1.39000000000E+09 -4.21962146368E-02 +8.62821952920E-01 +2.84764554630E-04 +1.55538837359E-03 +2.84872071529E-04 +1.78679216408E-03 -2.23048686416E-01 +8.91994492802E-01
1.39500000000E+09 -2.82516269956E-02 +8.58832476986E-01 +4.40298741412E-04 +1.68030064914E-03 +6.28051563964E-04 +1.83337404483E-03 -2.07054115613E-01 +8.92224235056E-01
1.40000000000E+09 -1.26385243083E-02 +8.54187039204E-01 +7.01305977683E-04 +1.89077195817E-03 +9.61419358940E-04 +1.82097310987E-03 -1.90245163569E-01 +8.92256644669E-01
1.40500000000E+09 +4.02233922836E-03 +8.49366554062E-01 +1.15839528029E-03 +1.98381978665E-03 +1.19406005291E-03 +1.88597276912E-03 -1.72450267129E-01 +8.91499032537E-01
1.41000000000E+09 +2.18359825234E-02 +8.44715687249E-01 +1.60710280309E-03 +1.76353999603E-03 +1.54120470867E-03 +1.82076982682E-03 -1.53142520509E-01 +8.90264404481E-01
1.41500000000E+09 +4.09671462893E-02 +8.39836912043E-01 +1.82853061418E-03 +1.66372572336E-03 +1.86636422524E-03 +1.79823486978E-03 -1.32293177922E-01 +8.88294544964E-01
1.42000000000E+09 +6.15894748684E-02 +8.34106200381E-01 +2.16693130322E-03 +1.60836127652E-03 +2.34365570142E-03 +1.76183376062E-03 -1.10392439987E-01 +8.85200747233E-01
1.42500000000E+09 +8.24992987220E-02 +8.26584172488E-01 +2.53407098256E-03 +1.46370921464E-03 +2.85972145123E-03 +1.54600600959E-03 -8.77679495359E-02 +8.80923488404E-01
1.43000000000E+09 +1.03753767321E-01 +8.16782754414E-01 +2.97689542327E-03 +1.50390819089E-03 +3.34263739781E-03 +1.32362188740E-03 -6.42519117783E-02 +8.75826976715E-01
1.43500000000E+09 +1.24638950112E-01 +8.04707449345E-01 +3.90798084968E-03 +1.14001387265E-03 +4.14970009581E-03 +8.44899277311E-04 -3.90690332135E-02 +8.68995088417E-01
1.44000000000E+09 +1.45689264613E-01 +7.90875216201E-01 +4.55877449437E-03 +2.47426717963E-04 +4.61026343144E-03 -8.10371436304E-05 -1.25237661974E-02 +8.59822319694E-01
1.44500000000E+09 +1.68183748507E-01 +7.74505215557E-01 +4.61354844024E-03 -7.48534716206E-04 +4.63131118478E-03 -9.89139804771E-04 +1.60731260652E-02 +8.48234576348E-01
1.45000000000E+09 +1.91876522680E-01 +7.55338423223E-01 +4.61797778670E-03 -1.31538286146E-03 +4.63213480678E-03 -1.60984334420E-03 +4.63336678055E-02 +8.33649771075E-01
1.45500000000E+09 +2.16832417344E-01 +7.33641006580E-01 +4.91560130977E-03 -1.87564510411E-03 +4.72624763511E-03 -2.30410161553E-03 +7.75250199799E-02 +8.16495320397E-01
1.46000000000E+09 +2.43216565924E-01 +7.09245598865E-01 +5.32314378152E-03 -2.74445382421E-03 +4.85325502480E-03 -3.13102854969E-03 +1.10578013391E-01 +7.95317969275E-01
1.46500000000E+09 +2.70996880038E-01 +6.82117646501E-01 +5.61848515784E-03 -3.99443250121E-03 +4.98394535752E-03 -3.95141679363E-03 +1.44567964422E-01 +7.69128433116E-01
1.47000000000E+09 +3.00141893204E-01 +6.51077789088E-01 +5.81052956143E-03 -5.94104992123E-03 +5.30129617838E-03 -5.42709732065E-03 +1.79454020566E-01 +7.36274444487E-01
1.47500000000E+09 +3.29618395289E-01 +6.14103062169E-01 +4.70011584945E-03 -8.15204234057E-03 +4.81802030889E-03 -7.63106694974E-03 +2.14149534476E-01 +6.96397484816E-01
1.48000000000E+09 +3.56754301907E-01 +5.70149528429E-01 +3.02916211585E-03 -9.55727937239E-03 +3.32841420253E-03 -9.56995587787E-03 +2.48359727817E-01 +6.48923574287E-01
1.48500000000E+09 +3.79875427087E-01 +5.18186925592E-01 +1.49866657917E-03 -1.09010684068E-02 +1.40657196334E-03 -1.12291251222E-02 +2.80411970321E-01 +5.92326740898E-01
1.49000000000E+09 +3.96516546547E-01 +4.58339219624E-01 -7.06891240763E-04 -1.26329680229E-02 -1.25487322793E-03 -1.25842774094E-02 +3.07405626707E-01 +5.25832422694E-01
1.49500000000E+09 +4.06041750952E-01 +3.91242271313E-01 -4.40459011468E-03 -1.37928399856E-02 -4.78291454398E-03 -1.30065170212E-02 +3.25448192209E-01 +4.48680688658E-01
1.50000000000E+09 +4.06952739465E-01 +3.15091993206E-01 -8.33318422190E-03 -1.32762389615E-02 -7.86295305659E-03 -1.24825172722E-02 +3.30724315898E-01 +3.61915734113E-01
1.50500000000E+09 +3.94754493541E-01 +2.31007560128E-01 -1.25746470686E-02 -1.19009451207E-02 -1.16474947543E-02 -1.18055075771E-02 +3.19279909230E-01 +2.67070987906E-01
1.51000000000E+09 +3.67749440190E-01 +1.43138872140E-01 -1.64397204761E-02 -8.43094390283E-03 -1.59165000887E-02 -9.00465782763E-03 +2.87008953966E-01 +1.67818015730E-01
1.51500000000E+09 +3.21887740684E-01 +5.39706346408E-02 -1.91708517026E-02 -4.38454152230E-03 -1.92714712693E-02 -4.93341095963E-03 +2.31209098284E-01 +7.24920550440E-02
1.52000000000E+09 +2.55881776808E-01 -2.66051205484E-02 -2.12549803599E-02 +7.74274968312E-04 -2.15459144707E-02 +5.12608333770E-04 +1.53633841581E-01 -1.07745741591E-02
1.52500000000E+09 +1.72919134314E-01 -9.33166863237E-02 -2.14706607635E-02 +8.46386439730E-03 -2.17590564506E-02 +8.43684564138E-03 +6.01081738252E-02 -7.65485718841E-02
1.53000000000E+09 +7.64506714803E-02 -1.41148714304E-01 -1.66798358170E-02 +1.48515489063E-02 -1.68006495728E-02 +1.49240251176E-02 -4.90242876645E-02 -1.19831902165E-01
1.53500000000E+09 -2.91659073777E-02 -1.66819987933E-01 -1.16443915499E-02 +1.82104835867E-02 -1.16051297045E-02 +1.82349461056E-02 -1.60494347966E-01 -1.36277028241E-01
1.54000000000E+09 -1.39305550109E-01 -1.67600366308E-01 -6.14457681615E-03 +2.00640059310E-02 -6.18223989699E-03 +1.97875689852E-02 -2.69911865278E-01 -1.29461953657E-01
1.54500000000E+09 -2.43388085860E-01 -1.43607317257E-01 +2.86153338010E-04 +2.05660292191E-02 -2.07193174123E-04 +2.02752876563E-02 -3.68220078859E-01 -1.01014960102E-01
1.55000000000E+09 -3.36333521172E-01 -1.02305850215E-01 +5.31146659378E-03 +1.76541911509E-02 +4.64854686852E-03 +1.78286569294E-02 -4.50742266945E-01 -5.86400942819E-02
1.55500000000E+09 -4.14433072361E-01 -4.81283746870E-02 +8.62840120104E-03 +1.48194513434E-02 +8.12747688679E-03 +1.55506189441E-02 -5.18315666343E-01 -7.83115383871E-03
1.56000000000E+09 -4.75945118260E-01 +1.01548598116E-02 +1.13595773399E-02 +1.12510777748E-02 +1.14393238077E-02 +1.21408833186E-02 -5.71484931370E-01 +4.78164393475E-02
1.56500000000E+09 -5.25457647099E-01 +6.95414868938E-02 +1.20195766765E-02 +7.19957015757E-03 +1.26210237931E-02 +7.85833094384E-03 -6.12735183407E-01 +1.05006288756E-01
1.57000000000E+09 -5.62875236267E-01 +1.29032324063E-01 +1.16848140695E-02 +4.44240298920E-03 +1.24036006012E-02 +4.63372466822E-03 -6.42624354729E-01 +1.61881688012E-01
