# Hz S RI R 50
! CMT, C1220, 16058040, 17.2.0/1
! Date: 14/08/2018 12:59:30
! Data: Format (Calibration Info)
! Freq                      S11: Re/Im (F2)                       S21: Re/Im (F2)                       S12: Re/Im (F2)                       S22: Re/Im (F2)            
1.00000000000E+09 -6.48392127864E-01 +7.11773595131E-01 +1.72916918574E-05 +5.66613060445E-05 +4.41717202209E-05 +2.32680400682E-05 -7.19029786063E-01 +6.45887052577E-01
1.00500000000E+09 -6.41921595430E-01 +7.16350693348E-01 -1.77432205835E-05 +1.75821786506E-05 +3.31804687478E-06 -2.20927912200E-05 -7.15224246607E-01 +6.49803728385E-01
1.01000000000E+09 -6.36079383094E-01 +7.20646081273E-01 -2.50287835914E-05 +3.82659996139E-05 -1.83289813968E-05 +1.54955928822E-05 -7.11554850869E-01 +6.53336695382E-01
1.01500000000E+09 -6.31403792687E-01 +7.24497545060E-01 -2.89490360360E-05 +1.17196983864E-05 +4.20342258863E-06 -3.81072366967E-05 -7.08154748594E-01 +6.56789855349E-01
1.02000000000E+09 -6.27531824690E-01 +7.28002213568E-01 -1.47644167237E-05 +7.70495369988E-06 +1.80406205044E-05 +2.02204602834E-05 -7.04710500234E-01 +6.60307250999E-01
1.02500000000E+09 -6.24253163881E-01 +7.31178081011E-01 -2.78214426507E-07 -4.13445533447E-05 +5.58588466506E-06 +2.73575610476E-06 -7.01705148986E-01 +6.63822857423E-01
1.03000000000E+09 -6.21184654584E-01 +7.34257092239E-01 -5.61952155643E-05 -1.94401426793E-05 -3.27611045143E-05 +3.02938157275E-06 -6.97942952690E-01 +6.67522285461E-01
1.03500000000E+09 -6.17461500923E-01 +7.37197742631E-01 -3.22048564595E-05 -1.20703476103E-05 -3.18353138832E-05 +1.28829665670E-05 -6.93808802434E-01 +6.71408876512E-01
1.04000000000E+09 -6.13049099571E-01 +7.40531254630E-01 -1.13186020165E-05 -1.41252634802E-05 +1.40065078846E-05 +7.64394251356E-06 -6.89794579291E-01 +6.74930918618E-01
1.04500000000E+09 -6.07596803474E-01 +7.43925495558E-01 +8.46837758884E-06 +3.61583193215E-05 +1.75495406888E-05 +5.08517221823E-05 -6.86233933342E-01 +6.78321855158E-01
1.05000000000E+09 -6.00838357193E-01 +7.48070396133E-01 -1.63709421642E-05 +2.30400608060E-05 +3.29066888479E-05 -9.74384372355E-06 -6.82610206020E-01 +6.81520482487E-01
1.05500000000E+09 -5.93395948531E-01 +7.52332492198E-01 +3.05499011651E-05 +1.76785816815E-05 +2.51213175093E-05 +1.34524025922E-05 -6.79150901165E-01 +6.85134024475E-01
1.06000000000E+09 -5.85381958170E-01 +7.56941819049E-01 +9.83748619220E-06 +2.27163326497E-05 +5.64757217641E-06 +1.96028072691E-05 -6.75530717808E-01 +6.88793294858E-01
1.06500000000E+09 -5.77549711238E-01 +7.61566378250E-01 +3.15333164456E-05 +1.54633373354E-05 +6.24800913043E-05 +5.18713974202E-05 -6.71477086872E-01 +6.92556157213E-01
1.07000000000E+09 -5.70639644761E-01 +7.65578730833E-01 +2.59717856554E-05 +6.06007392542E-05 +1.74424035133E-05 +5.50681906807E-05 -6.67194078440E-01 +6.96017713593E-01
1.07500000000E+09 -5.64617196614E-01 +7.69192793061E-01 +3.08637410994E-05 +2.22750345283E-05 +5.07249996081E-05 +1.94742138268E-05 -6.62727593220E-01 +6.99512258724E-01
1.08000000000E+09 -5.59921410927E-01 +7.72413796693E-01 +2.98299414967E-06 +4.85376342021E-05 +4.00812374975E-05 +2.57025354780E-05 -6.58662405702E-01 +7.03160594806E-01
1.08500000000E+09 -5.56009318633E-01 +7.75096285129E-01 +4.38256140071E-05 +8.83792101945E-05 +3.18633649492E-05 +2.63059577369E-05 -6.54664380574E-01 +7.06735750328E-01
1.09000000000E+09 -5.52741776927E-01 +7.77520616669E-01 +4.01408273036E-05 +8.08701444677E-06 +1.91946339638E-05 -1.79427163561E-05 -6.50860254288E-01 +7.10324113930E-01
1.09500000000E+09 -5.50079802621E-01 +7.79597618563E-01 +1.02504285730E-04 -2.79807991722E-06 -6.99353109954E-06 -1.36353420248E-05 -6.46794917530E-01 +7.13945556271E-01
1.10000000000E+09 -5.46338491277E-01 +7.81886475467E-01 +5.32077107867E-05 +7.07686758613E-05 +4.42326464877E-05 +4.40540777150E-05 -6.42687925181E-01 +7.17643338193E-01
1.10500000000E+09 -5.42240699995E-01 +7.84563758768E-01 +5.62868341347E-05 +5.41065076563E-05 +4.95320118462E-05 +1.78671454305E-05 -6.38296182418E-01 +7.21024622971E-01
1.11000000000E+09 -5.36964003598E-01 +7.87481718731E-01 +4.10900354168E-05 +3.75775163715E-05 +6.90982023875E-05 +5.60994110782E-05 -6.34041347894E-01 +7.24204366663E-01
1.11500000000E+09 -5.30686552814E-01 +7.91050678676E-01 +4.45290898688E-05 +2.60917299051E-05 +5.95501659491E-05 -7.06520180234E-06 -6.29791972504E-01 +7.27264735335E-01
1.12000000000E+09 -5.24001767742E-01 +7.94500131781E-01 +5.36690980966E-05 +7.07860054373E-06 +1.15840242342E-04 -1.28872184214E-05 -6.25551577948E-01 +7.30900580263E-01
1.12500000000E+09 -5.16747647064E-01 +7.98214269393E-01 +7.54795655121E-05 -1.52429145432E-05 +3.91719839876E-05 +2.90709091916E-05 -6.21269469324E-01 +7.34641165217E-01
1.13000000000E+09 -5.09560784618E-01 +8.01263362484E-01 +4.44308079845E-05 -5.24521210115E-07 +6.00093260811E-05 +8.41341903148E-06 -6.16735740782E-01 +7.38206727921E-01
1.13500000000E+09 -5.02772005995E-01 +8.03728411172E-01 +7.93942266742E-05 +4.34561594347E-05 +9.53720961877E-05 -7.27901128747E-06 -6.11938471710E-01 +7.41851215730E-01
1.14000000000E+09 -4.96758131182E-01 +8.06192857711E-01 +1.03752379660E-04 -1.41743036105E-05 +1.15986894496E-04 -1.81378044033E-05 -6.07049895631E-01 +7.45151458870E-01
1.14500000000E+09 -4.91286360093E-01 +8.07905891846E-01 +1.03641174883E-04 -6.79993901688E-05 +1.21772009609E-04 -5.65358113600E-05 -6.02071111589E-01 +7.48406663725E-01
1.15000000000E+09 -4.86248541900E-01 +8.09479229001E-01 +1.07652956425E-04 -1.83202032596E-06 +6.91850604577E-05 +1.06425364082E-05 -5.97304442618E-01 +7.51946209760E-01
1.15500000000E+09 -4.81366317547E-01 +8.11237020194E-01 +8.80438918035E-05 -3.06275622396E-05 +9.71435941624E-05 -4.14496236575E-05 -5.92418117572E-01 +7.55585859101E-01
1.16000000000E+09 -4.76176172699E-01 +8.13250130042E-01 +4.65871642266E-05 -1.35983362667E-05 +1.21977877982E-04 -2.12214068873E-05 -5.87350394255E-01 +7.59321387854E-01
1.16500000000E+09 -4.70432372358E-01 +8.15871341960E-01 +5.86803035428E-05 -4.86846800366E-05 +1.22683301720E-04 -3.90594354694E-05 -5.82285426652E-01 +7.62678689639E-01
1.17000000000E+09 -4.64026368651E-01 +8.18770356160E-01 +1.45374817778E-04 -5.72242118187E-05 +9.05507426744E-05 -7.36430868365E-05 -5.76789660016E-01 +7.65788708051E-01
1.17500000000E+09 -4.57158240629E-01 +8.21788863136E-01 +1.40856299806E-04 -9.00510321704E-05 +9.17830988154E-05 -4.89011846368E-05 -5.70973022209E-01 +7.68795174284E-01
1.18000000000E+09 -4.49806073332E-01 +8.25115271236E-01 +1.11219356876E-04 -9.68129765069E-05 +1.56533727269E-04 -1.29474212243E-04 -5.65474490717E-01 +7.71600114804E-01
1.18500000000E+09 -4.42140265021E-01 +8.28030590787E-01 +1.43968881410E-04 -1.20944245005E-04 +1.30288088767E-04 -1.79539361439E-04 -5.59543884611E-01 +7.74379567298E-01
1.19000000000E+09 -4.34649196570E-01 +8.30439925028E-01 +1.32366786510E-04 -1.79335997511E-04 +7.05023815373E-05 -1.89799451602E-04 -5.53339729787E-01 +7.76720936373E-01
1.19500000000E+09 -4.27480934239E-01 +8.32201154488E-01 +5.85036757749E-05 -2.07490864845E-04 +1.33501792641E-04 -2.86071979907E-04 -5.47522148287E-01 +7.77792596484E-01
1.20000000000E+09 -4.20712148591E-01 +8.33205521340E-01 +2.50148567228E-05 -3.26933344425E-04 -3.90827853966E-05 -2.97912347328E-04 -5.42902434822E-01 +7.77715291030E-01
1.20500000000E+09 -4.14317260680E-01 +8.34290272117E-01 -1.06846594234E-04 -1.91998979286E-04 -1.40301526562E-04 -2.36453932522E-04 -5.40343137611E-01 +7.78571842766E-01
1.21000000000E+09 -4.07702275204E-01 +8.35658462613E-01 -8.56190939199E-05 -1.89250322454E-04 -9.23977116927E-05 -1.37637184293E-04 -5.38131397455E-01 +7.81528273426E-01
1.21500000000E+09 -4.00659554150E-01 +8.37220774862E-01 -7.56179521980E-05 -1.33080164767E-04 -7.21012064776E-05 -1.14206949779E-04 -5.35231406274E-01 +7.85935016932E-01
1.22000000000E+09 -3.93092360910E-01 +8.39321709143E-01 -3.63685935251E-05 -1.16288121017E-04 -5.38340534280E-05 -1.48208669918E-04 -5.30807181959E-01 +7.91066615659E-01
1.22500000000E+09 -3.84784336446E-01 +8.41925769172E-01 -5.49053325177E-05 -1.62683836202E-04 -1.77957033358E-05 -1.55777040566E-04 -5.25415616894E-01 +7.95908844164E-01
1.23000000000E+09 -3.76591172360E-01 +8.44643249281E-01 -5.55825910911E-05 -1.72658944433E-04 -8.23659857909E-05 -2.20718844621E-04 -5.19548967622E-01 +8.00288253277E-01
1.23500000000E+09 -3.68209055587E-01 +8.47849935524E-01 -6.23880354340E-05 -2.05601672890E-04 -2.72672928169E-05 -1.99484212541E-04 -5.13630888802E-01 +8.04324517183E-01
1.24000000000E+09 -3.60010363470E-01 +8.51106203773E-01 -1.33817155577E-04 -1.87828907212E-04 -1.11770897647E-04 -1.54494444108E-04 -5.07664832159E-01 +8.07866164239E-01
1.24500000000E+09 -3.52343999338E-01 +8.54379149134E-01 -1.25004865749E-04 -2.30353005858E-04 -9.84904302908E-05 -1.74858223942E-04 -5.01316100402E-01 +8.11283871401E-01
1.25000000000E+09 -3.44641052586E-01 +8.57101755099E-01 -1.51782430097E-04 -1.76306570755E-04 -1.41941350301E-04 -1.82424476044E-04 -4.94736881144E-01 +8.15420017749E-01
1.25500000000E+09 -3.37434045944E-01 +8.58951004815E-01 -1.66739401124E-04 -1.97157227704E-04 -1.67321032863E-04 -1.86480769778E-04 -4.87925031678E-01 +8.18854244889E-01
1.26000000000E+09 -3.29969231071E-01 +8.60231464182E-01 -1.78482740609E-04 -2.20525848965E-04 -2.14668370585E-04 -2.21306247773E-04 -4.81141320811E-01 +8.22753643308E-01
1.26500000000E+09 -3.22502536298E-01 +8.60703063657E-01 -2.20722669247E-04 -2.54143385366E-04 -2.04271539362E-04 -2.61886703107E-04 -4.74202690983E-01 +8.26121161045E-01
1.27000000000E+09 -3.14349935604E-01 +8.61264918127E-01 -2.86383167468E-04 -2.33601616444E-04 -2.79740780793E-04 -2.40392919816E-04 -4.67281806195E-01 +8.29689348740E-01
1.27500000000E+09 -3.05619505765E-01 +8.61836749332E-01 -3.48780881131E-04 -2.17139316997E-04 -3.54019304267E-04 -1.96975468600E-04 -4.60140756813E-01 +8.32890723246E-01
1.28000000000E+09 -2.95567839078E-01 +8.63013607005E-01 -3.69049451673E-04 -1.42502706980E-04 -3.99238116786E-04 -1.56718591000E-04 -4.52983768753E-01 +8.36129788915E-01
1.28500000000E+09 -2.84601834163E-01 +8.64382565030E-01 -3.67510449467E-04 -5.13907362590E-05 -4.07858134991E-04 -1.64306579395E-04 -4.45658590084E-01 +8.39688022712E-01
1.29000000000E+09 -2.73684516916E-01 +8.66349646186E-01 -4.06295726056E-04 -1.13872006710E-04 -4.62002209546E-04 -1.05614278681E-04 -4.37794783194E-01 +8.42991220661E-01
1.29500000000E+09 -2.62880758626E-01 +8.68755458737E-01 -4.51928682160E-04 -1.19968327349E-04 -5.16516017873E-04 -4.90272731337E-05 -4.30037783414E-01 +8.46177600209E-01
1.30000000000E+09 -2.52742083870E-01 +8.71650728488E-01 -5.54427046706E-04 -3.42602879360E-05 -5.67063039582E-04 +3.74719992629E-05 -4.22279457620E-01 +8.49249864872E-01
1.30500000000E+09 -2.43385603546E-01 +8.74416422413E-01 -6.08290686687E-04 -1.33835991768E-05 -5.31549959142E-04 +8.41923075236E-05 -4.14203859531E-01 +8.52344303392E-01
1.31000000000E+09 -2.34556580334E-01 +8.76493418377E-01 -6.25389453432E-04 +1.50760696154E-04 -6.12574852825E-04 +1.09175860603E-04 -4.05835101764E-01 +8.55323201019E-01
1.31500000000E+09 -2.26523939360E-01 +8.77899149803E-01 -6.03285591263E-04 +2.48474264011E-04 -6.37337641941E-04 +2.42148772540E-04 -3.97215320845E-01 +8.58379601875E-01
1.32000000000E+09 -2.19181152019E-01 +8.78364515852E-01 -5.98124396613E-04 +2.59465616391E-04 -5.73610082684E-04 +2.76864880120E-04 -3.88187518605E-01 +8.61409746422E-01
1.32500000000E+09 -2.11687849486E-01 +8.77927856958E-01 -5.62093518499E-04 +3.28342253508E-04 -6.18686094879E-04 +3.36818283291E-04 -3.78795810412E-01 +8.64400389093E-01
1.33000000000E+09 -2.03300097374E-01 +8.77396548819E-01 -6.08163098927E-04 +3.51042115624E-04 -6.32508648698E-04 +4.92541456205E-04 -3.69543973950E-01 +8.67203220204E-01
1.33500000000E+09 -1.93781166735E-01 +8.76716207567E-01 -6.22790355181E-04 +5.30110387941E-04 -6.33599494467E-04 +6.07239600459E-04 -3.59823497352E-01 +8.69944220976E-01
1.34000000000E+09 -1.82319264733E-01 +8.76046584633E-01 -5.95403672266E-04 +6.42526942734E-04 -5.38535958353E-04 +6.03544242036E-04 -3.49788869901E-01 +8.72772805777E-01
1.34500000000E+09 -1.69454155502E-01 +8.75909481905E-01 -5.63325269366E-04 +7.68968332105E-04 -5.79375862672E-04 +7.18993735493E-04 -3.38915407336E-01 +8.75471976616E-01
1.35000000000E+09 -1.55226859087E-01 +8.75923792863E-01 -5.26974291001E-04 +8.46936610473E-04 -5.29876427172E-04 +8.79913835014E-04 -3.28103671739E-01 +8.78130555838E-01
1.35500000000E+09 -1.40324695761E-01 +8.76295965468E-01 -4.37566656378E-04 +9.22521746039E-04 -4.57866026539E-04 +8.83816801367E-04 -3.16782610308E-01 +8.80468661888E-01
1.36000000000E+09 -1.25300998874E-01 +8.76888493111E-01 -3.89073030112E-04 +1.02845064906E-03 -3.56517660588E-04 +9.80763989562E-04 -3.05243862683E-01 +8.82531321375E-01
1.36500000000E+09 -1.10156432169E-01 +8.76925127498E-01 -3.49028200186E-04 +1.19415000581E-03 -3.08570974512E-04 +1.12586591783E-03 -2.93446317416E-01 +8.84491131139E-01
1.37000000000E+09 -9.59203039562E-02 +8.76064615444E-01 -2.27902374844E-04 +1.38428539268E-03 -2.47130740994E-04 +1.27681249564E-03 -2.80885989760E-01 +8.86449950180E-01
1.37500000000E+09 -8.28687395932E-02 +8.74466172303E-01 +3.46349186654E-05 +1.48216762347E-03 -1.21982056644E-04 +1.42755805710E-03 -2.67452479585E-01 +8.88292148248E-01
1.38000000000E+09 -7.05551036144E-02 +8.72138591374E-01 +1.51139838175E-04 +1.48416336262E-03 -5.72579868544E-05 +1.55960433566E-03 -2.53153849661E-01 +8.89738059307E-01
1.38500000000E+09 -5.81360406202E-02 +8.69035131356E-01 +3.13911081333E-04 +1.64046962595E-03 +1.82909228926E-04 +1.81228817501E-03 -2.38243400662E-01 +8.91138685727E-01
1.39000000000E+09 -4.53523589982E-02 +8.65570601453E-01 +4.53427632352E-04 +1.69427857495E-03 +5.77372775293E-04 +1.95135989892E-03 -2.22823119850E-01 +8.92085951947E-01
1.39500000000E+09 -3.13268654011E-02 +8.61678311861E-01 +6.95097486755E-04 +1.89403704461E-03 +9.15760431436E-04 +2.00588993704E-03 -2.07012261092E-01 +8.92261539787E-01
1.40000000000E+09 -1.56484188222E-02 +8.57172877370E-01 +1.01081391524E-03 +2.03282407282E-03 +1.21945256370E-03 +1.96172564585E-03 -1.90244933047E-01 +8.92277347191E-01
1.40500000000E+09 +1.21761370532E-03 +8.52591072394E-01 +1.45773049789E-03 +2.04371270702E-03 +1.55154553316E-03 +1.95496715181E-03 -1.72463865898E-01 +8.91613305552E-01
1.41000000000E+09 +1.93970402723E-02 +8.47841427878E-01 +1.97621085873E-03 +1.87773902175E-03 +1.91802629674E-03 +1.84370352583E-03 -1.53119254280E-01 +8.90457958331E-01
1.41500000000E+09 +3.85786257663E-02 +8.42849936555E-01 +2.23796300192E-03 +1.67694557862E-03 +2.19596903513E-03 +1.82516545352E-03 -1.32394194730E-01 +8.88375365831E-01
1.42000000000E+09 +5.93713459388E-02 +8.37185987562E-01 +2.57150343879E-03 +1.58801958940E-03 +2.77590308851E-03 +1.79303711783E-03 -1.10345378844E-01 +8.85305937755E-01
1.42500000000E+09 +8.03300589938E-02 +8.29484015625E-01 +3.01431108352E-03 +1.45848498008E-03 +3.43527807398E-03 +1.46984536792E-03 -8.76500236576E-02 +8.81108718569E-01
1.43000000000E+09 +1.01620531751E-01 +8.19801300587E-01 +3.52189908889E-03 +1.42815477250E-03 +3.95585667486E-03 +1.19297832217E-03 -6.43294989732E-02 +8.76124607440E-01
1.43500000000E+09 +1.22506290409E-01 +8.07657207744E-01 +4.53081083120E-03 +9.25703178659E-04 +4.72556000356E-03 +5.17917751886E-04 -3.90486810938E-02 +8.69223320482E-01
1.44000000000E+09 +1.43797153157E-01 +7.93779201166E-01 +5.14888937038E-03 -2.44113999882E-04 +5.18745647754E-03 -5.33969587810E-04 -1.23779590608E-02 +8.60192371030E-01
1.44500000000E+09 +1.66398197965E-01 +7.77524280869E-01 +5.14116364667E-03 -1.33222482301E-03 +5.14329380281E-03 -1.58513406859E-03 +1.62314593656E-02 +8.48762934654E-01
1.45000000000E+09 +1.90214215509E-01 +7.58347199381E-01 +5.04024285724E-03 -1.95437859435E-03 +5.05882055230E-03 -2.33870918010E-03 +4.64655941165E-02 +8.34200762217E-01
1.45500000000E+09 +2.15565465618E-01 +7.36553880860E-01 +5.28450075831E-03 -2.55388930606E-03 +5.12179701894E-03 -3.03614657542E-03 +7.77327285303E-02 +8.17116167211E-01
1.46000000000E+09 +2.42315867334E-01 +7.11853557020E-01 +5.70752359679E-03 -3.57718417189E-03 +5.14230970503E-03 -3.92603451449E-03 +1.10952435396E-01 +7.95985495176E-01
1.46500000000E+09 +2.70257574188E-01 +6.84431691784E-01 +6.04850795324E-03 -5.02913851649E-03 +5.27063048827E-03 -4.96605050888E-03 +1.45074619274E-01 +7.69724123411E-01
1.47000000000E+09 +2.99507398251E-01 +6.53039918971E-01 +5.93018808553E-03 -7.21114112054E-03 +5.43426602043E-03 -6.56231589244E-03 +1.80103583349E-01 +7.36948318398E-01
1.47500000000E+09 +3.28862629349E-01 +6.15716858512E-01 +4.53387286118E-03 -9.61817123817E-03 +4.72041488862E-03 -9.02875272245E-03 +2.14838259534E-01 +6.96878779601E-01
1.48000000000E+09 +3.55783269935E-01 +5.71554613782E-01 +2.43327325638E-03 -1.10564549479E-02 +2.78382559338E-03 -1.10924461502E-02 +2.49162460839E-01 +6.49417086603E-01
1.48500000000E+09 +3.78718438814E-01 +5.19387847453E-01 +7.11014372452E-04 -1.23058868560E-02 +5.41737141808E-04 -1.26651142260E-02 +2.81515294003E-01 +5.92863122697E-01
1.49000000000E+09 +3.95436942497E-01 +4.59591278277E-01 -1.90890398020E-03 -1.40779557385E-02 -2.55157657771E-03 -1.39418753808E-02 +3.08843809173E-01 +5.25785098242E-01
1.49500000000E+09 +4.04850126506E-01 +3.92038475157E-01 -6.10044486101E-03 -1.50200662656E-02 -6.39188901824E-03 -1.41260981239E-02 +3.26851345122E-01 +4.48276205441E-01
1.50000000000E+09 +4.05254661330E-01 +3.15760022632E-01 -1.05344144750E-02 -1.43135993501E-02 -9.89986987677E-03 -1.34192330620E-02 +3.31742307271E-01 +3.60882822540E-01
1.50500000000E+09 +3.92664424316E-01 +2.31639840620E-01 -1.52120103921E-02 -1.23573900468E-02 -1.41533046938E-02 -1.23675063102E-02 +3.19831485554E-01 +2.65879800646E-01
1.51000000000E+09 +3.65217841847E-01 +1.43733154688E-01 -1.92947282701E-02 -8.06503759616E-03 -1.87419744676E-02 -8.72307405865E-03 +2.87120491600E-01 +1.66581813119E-01
1.51500000000E+09 +3.18908149206E-01 +5.48301206889E-02 -2.20719861763E-02 -3.40354366863E-03 -2.21632467889E-02 -4.04659930478E-03 +2.30962408671E-01 +7.12546124465E-02
1.52000000000E+09 +2.52536466425E-01 -2.50447384237E-02 -2.40333222623E-02 +3.01431721572E-03 -2.43555306518E-02 +2.75596774468E-03 +1.53010893378E-01 -1.16554971955E-02
1.52500000000E+09 +1.69603076109E-01 -9.12827760951E-02 -2.32380891406E-02 +1.15390169314E-02 -2.35963200165E-02 +1.14705252034E-02 +5.92403052165E-02 -7.73208513040E-02
1.53000000000E+09 +7.34697106355E-02 -1.38465623201E-01 -1.73952841680E-02 +1.82279246741E-02 -1.75538346537E-02 +1.83789265594E-02 -5.01673224530E-02 -1.20301597899E-01
1.53500000000E+09 -3.16532573100E-02 -1.64028118879E-01 -1.14467930691E-02 +2.14557695115E-02 -1.14868820569E-02 +2.14825866197E-02 -1.62035111854E-01 -1.36039189181E-01
1.54000000000E+09 -1.41691527983E-01 -1.64758872727E-01 -4.97093941851E-03 +2.30254922458E-02 -5.06178835447E-03 +2.27877789151E-02 -2.71105622717E-01 -1.28158888893E-01
1.54500000000E+09 -2.45452604691E-01 -1.40252186843E-01 +1.92161197327E-03 +2.28549661389E-02 +1.34785432096E-03 +2.26566481592E-02 -3.68093491349E-01 -9.97968588816E-02
1.55000000000E+09 -3.37410684209E-01 -9.92622281032E-02 +7.40208286807E-03 +1.95774049535E-02 +6.66570540025E-03 +1.98417214435E-02 -4.50554134201E-01 -5.77709632029E-02
1.55500000000E+09 -4.15314808116E-01 -4.56273460954E-02 +1.11205956282E-02 +1.59538196151E-02 +1.05892350440E-02 +1.68525326271E-02 -5.18038222985E-01 -7.18731379289E-03
1.56000000000E+09 -4.76739976883E-01 +1.24321539766E-02 +1.37231982521E-02 +1.15604833533E-02 +1.39114221475E-02 +1.26284693173E-02 -5.71176423843E-01 +4.84097400362E-02
1.56500000000E+09 -5.25983027713E-01 +7.12222141978E-02 +1.41001007024E-02 +7.09950738500E-03 +1.48461276593E-02 +7.76034824493E-03 -6.12269664005E-01 +1.05583022781E-01
1.57000000000E+09 -5.63638014561E-01 +1.30264555708E-01 +1.35674055812E-02 +3.94792516199E-03 +1.44688286892E-02 +4.14639088512E-03 -6.41872864921E-01 +1.62276607789E-01
