# Hz S RI R 50
! CMT, C1220, 16058040, 17.2.0/1
! Date: 14/08/2018 12:53:43
! Data: Format (Calibration Info)
! Freq                      S11: Re/Im (F2)                       S21: Re/Im (F2)                       S12: Re/Im (F2)                       S22: Re/Im (F2)            
1.00000000000E+09 -6.41502655473E-01 +7.14065137165E-01 +3.22502423234E-06 +6.78478072544E-06 +1.22549874699E-05 +3.52395944851E-05 -7.19399622603E-01 +6.45099380815E-01
1.00500000000E+09 -6.34717821524E-01 +7.18939731597E-01 +1.07124286675E-05 -4.61660746839E-05 -5.40700896360E-05 +5.24747658738E-05 -7.15496995472E-01 +6.48937110837E-01
1.01000000000E+09 -6.28892744178E-01 +7.23454052922E-01 -3.08755847929E-06 -4.03087840583E-05 -2.01188456084E-05 +2.28284357702E-05 -7.11800348181E-01 +6.52514082199E-01
1.01500000000E+09 -6.24290545755E-01 +7.27406467172E-01 -7.49402886566E-05 +5.04749426274E-06 +7.57792521133E-06 +2.73044135441E-05 -7.08453005635E-01 +6.56034098135E-01
1.02000000000E+09 -6.20842788276E-01 +7.31083037210E-01 -2.42097102148E-05 -8.56555612244E-06 +2.15236197903E-05 +4.88394455104E-05 -7.04941391795E-01 +6.59363689457E-01
1.02500000000E+09 -6.17900153468E-01 +7.34282105723E-01 +3.14864448916E-05 +4.25351208709E-06 -4.79591084553E-05 +4.46926864485E-05 -7.01932836350E-01 +6.63008086709E-01
1.03000000000E+09 -6.15385282200E-01 +7.37251416207E-01 -1.46304862514E-05 +4.99449503761E-05 -1.59054216756E-05 +4.89696975218E-05 -6.98286626139E-01 +6.66769497979E-01
1.03500000000E+09 -6.11804379412E-01 +7.40268207549E-01 -1.61628830352E-05 +1.78476002006E-05 +1.20526540560E-05 +2.79271542256E-05 -6.94232840493E-01 +6.70617377010E-01
1.04000000000E+09 -6.07335772052E-01 +7.43493769893E-01 -8.45276257773E-06 -2.85575114092E-06 +1.27681575925E-05 +6.76782517455E-05 -6.90265804916E-01 +6.74197233145E-01
1.04500000000E+09 -6.01475626040E-01 +7.47234252070E-01 +3.94539516584E-05 +4.20082020781E-05 -2.04521544375E-05 +6.67711634163E-06 -6.86557979957E-01 +6.77572465646E-01
1.05000000000E+09 -5.94186266496E-01 +7.51238981392E-01 +9.19057852966E-06 +3.52369636176E-05 +2.28433822911E-05 +8.52074792008E-05 -6.82978669486E-01 +6.80705533493E-01
1.05500000000E+09 -5.85640569368E-01 +7.55664562170E-01 +3.10828538511E-05 +3.14357614595E-05 +4.02191224733E-05 +5.50344892092E-05 -6.79496409492E-01 +6.84311346604E-01
1.06000000000E+09 -5.76716419147E-01 +7.60246730165E-01 +1.33454236514E-05 -3.14828520136E-05 +2.46677376079E-05 +5.29279624466E-05 -6.75819494562E-01 +6.87985033338E-01
1.06500000000E+09 -5.68019509727E-01 +7.64935279212E-01 +4.16575987080E-05 +2.78989277019E-05 +1.71540169058E-05 +3.44114696646E-05 -6.71972483747E-01 +6.91659569528E-01
1.07000000000E+09 -5.60156131002E-01 +7.68982904436E-01 +3.29029658842E-05 +3.51706926753E-05 -8.25451002166E-06 +2.95444242475E-05 -6.67702660307E-01 +6.95229993843E-01
1.07500000000E+09 -5.53650346491E-01 +7.72687907632E-01 +2.33881147531E-05 +4.22479932061E-06 +1.91002365473E-05 +5.46689180720E-05 -6.63139894937E-01 +6.98661396161E-01
1.08000000000E+09 -5.48572908129E-01 +7.76118508202E-01 +3.46028065386E-05 +3.00661838877E-05 +9.10503866180E-05 +3.91315909180E-05 -6.59171256598E-01 +7.02367919270E-01
1.08500000000E+09 -5.44876196775E-01 +7.78795260216E-01 +6.24290271035E-05 +3.61542524825E-05 -2.74545078157E-05 +8.80311703720E-06 -6.55168385967E-01 +7.05777684370E-01
1.09000000000E+09 -5.41756954894E-01 +7.81359401690E-01 +6.35781707029E-05 +7.89129175795E-05 +5.62006261983E-05 +4.68094957130E-05 -6.51264272199E-01 +7.09382731963E-01
1.09500000000E+09 -5.39297862589E-01 +7.83715161079E-01 +6.75072607222E-05 -2.53168844322E-05 +1.01679088738E-04 -4.72779549161E-06 -6.47389852672E-01 +7.13113358554E-01
1.10000000000E+09 -5.35825278898E-01 +7.86094552938E-01 +5.58901494715E-05 +5.84088086371E-05 -7.17743443559E-06 +4.17588283038E-05 -6.43078564249E-01 +7.16768320597E-01
1.10500000000E+09 -5.31920483973E-01 +7.88902783934E-01 +3.63213062356E-05 +1.97304769589E-05 +3.97750777992E-05 +4.49132811011E-05 -6.38693557166E-01 +7.20140972085E-01
1.11000000000E+09 -5.26539161632E-01 +7.92082374264E-01 +6.13635500970E-05 -1.32686424524E-07 +3.65564275313E-05 +4.66065861364E-05 -6.34422368411E-01 +7.23243179424E-01
1.11500000000E+09 -5.20115739030E-01 +7.95612291843E-01 +8.94780474022E-05 +3.32717208984E-07 +8.27467605077E-05 +8.96029027306E-05 -6.30349247082E-01 +7.26542916596E-01
1.12000000000E+09 -5.12777325549E-01 +7.98993449781E-01 +8.34504144297E-06 -7.15115984324E-06 +3.08819458377E-05 +1.88888244699E-05 -6.26037079490E-01 +7.29891122423E-01
1.12500000000E+09 -5.04952941667E-01 +8.02395076162E-01 +6.25343807455E-05 +3.26882192094E-05 +7.62232705201E-05 +3.67822250935E-06 -6.21684068878E-01 +7.33762119304E-01
1.13000000000E+09 -4.97150132835E-01 +8.05226053205E-01 +9.13314661500E-05 +4.61558941632E-05 +1.04588746989E-04 +4.48579638920E-05 -6.17254141576E-01 +7.37216980786E-01
1.13500000000E+09 -4.89725298734E-01 +8.07567366198E-01 +1.09167014492E-04 -2.44687557764E-06 +2.78198003754E-05 +5.68767177660E-05 -6.12391423617E-01 +7.40949655725E-01
1.14000000000E+09 -4.83171071081E-01 +8.09697370833E-01 +6.98367775953E-05 -3.78035652417E-05 +1.33503554028E-04 -1.20169271737E-06 -6.07373036267E-01 +7.44260611070E-01
1.14500000000E+09 -4.77224032740E-01 +8.11338528131E-01 +8.72634961097E-05 -2.39502075057E-05 +1.23374180051E-04 -1.72609741753E-05 -6.02460290416E-01 +7.47383514932E-01
1.15000000000E+09 -4.71893082157E-01 +8.12920432385E-01 +8.44865848735E-05 -5.71501393219E-05 +1.10309601966E-04 -1.03799703198E-05 -5.97785969118E-01 +7.51039646825E-01
1.15500000000E+09 -4.66744741529E-01 +8.14789960795E-01 +1.04485139344E-04 -5.02406313475E-06 +9.13466266316E-05 +4.69984441375E-06 -5.92837599163E-01 +7.54783336934E-01
1.16000000000E+09 -4.61216419362E-01 +8.16746197072E-01 +7.80632254947E-05 -1.63620687957E-05 +1.53105067231E-04 -4.29413493664E-05 -5.87983346369E-01 +7.58444193446E-01
1.16500000000E+09 -4.55036951509E-01 +8.19606790198E-01 +1.15940825446E-04 -4.06411589626E-05 +1.33671797584E-04 -6.93499480150E-05 -5.82621279156E-01 +7.61739566984E-01
1.17000000000E+09 -4.48364035973E-01 +8.22687500995E-01 +1.11824518452E-04 -7.00504195673E-05 +1.20581229908E-04 -4.49010379736E-05 -5.77189401101E-01 +7.64874016000E-01
1.17500000000E+09 -4.41107569010E-01 +8.25955674384E-01 +1.80594247307E-04 -1.18191025178E-04 +1.77062047206E-04 -1.30340982502E-04 -5.71528157417E-01 +7.67881902737E-01
1.18000000000E+09 -4.33301463376E-01 +8.29352003827E-01 +1.24651896321E-04 -1.15026116989E-04 +1.21922840504E-04 -8.04120498527E-05 -5.65995859380E-01 +7.70726760281E-01
1.18500000000E+09 -4.25465242847E-01 +8.32314417630E-01 +1.00012752136E-04 -1.75559684620E-04 +1.41316397605E-04 -1.66262862768E-04 -5.60112223029E-01 +7.73564971232E-01
1.19000000000E+09 -4.17492370556E-01 +8.34575802243E-01 +1.00097168474E-04 -1.76218554069E-04 +1.05941774892E-04 -1.75803873331E-04 -5.54161227861E-01 +7.75864881453E-01
1.19500000000E+09 -4.09928433931E-01 +8.36177151205E-01 +9.06661615004E-05 -3.08030765547E-04 +9.82027104760E-05 -2.53559298778E-04 -5.48119383148E-01 +7.76851339838E-01
1.20000000000E+09 -4.02744971178E-01 +8.36716552353E-01 -2.60199457124E-05 -2.97094674705E-04 -2.59250323320E-05 -2.82201089086E-04 -5.43614981954E-01 +7.76858434549E-01
1.20500000000E+09 -3.95794310929E-01 +8.37580298453E-01 -9.75659164959E-05 -2.20502589998E-04 -1.19395125863E-04 -2.71627458616E-04 -5.41043997379E-01 +7.77766402462E-01
1.21000000000E+09 -3.88930904068E-01 +8.38490752994E-01 -6.89876081226E-05 -1.87305096284E-04 -6.92145860750E-05 -1.59706121288E-04 -5.38808210256E-01 +7.80773156823E-01
1.21500000000E+09 -3.81083364503E-01 +8.39757491028E-01 -1.99683545506E-05 -1.80665544470E-04 -1.71566299912E-05 -1.52260767251E-04 -5.35517752713E-01 +7.85189055707E-01
1.22000000000E+09 -3.72753628637E-01 +8.41328472024E-01 -2.95251185971E-05 -1.81195580672E-04 -3.83839020212E-05 -1.35608455328E-04 -5.31276506857E-01 +7.90318435369E-01
1.22500000000E+09 -3.63738799613E-01 +8.43710918262E-01 -7.44570878761E-05 -1.93544604138E-04 -9.99334254687E-05 -2.03868677253E-04 -5.26046611235E-01 +7.95149352385E-01
1.23000000000E+09 -3.54675682151E-01 +8.46385359040E-01 -7.92515719698E-05 -1.74124818637E-04 -1.12512990739E-04 -2.65981231859E-04 -5.20318193752E-01 +7.99396337832E-01
1.23500000000E+09 -3.45710069817E-01 +8.49367047845E-01 -1.02557443653E-04 -2.23093581847E-04 -1.03783102123E-04 -1.62787322746E-04 -5.14328662194E-01 +8.03375185552E-01
1.24000000000E+09 -3.37068746844E-01 +8.52555096901E-01 -1.44385199368E-04 -2.32327296978E-04 -9.60682841312E-05 -1.94520448709E-04 -5.08300506280E-01 +8.06880277298E-01
1.24500000000E+09 -3.29140931775E-01 +8.55813339871E-01 -1.37758055769E-04 -2.36691663288E-04 -1.89270392367E-04 -2.01506290813E-04 -5.02071133661E-01 +8.10331652157E-01
1.25000000000E+09 -3.21333509241E-01 +8.58472383909E-01 -1.59803914408E-04 -1.75722226308E-04 -1.55914688361E-04 -1.99100411872E-04 -4.95430293280E-01 +8.14248288893E-01
1.25500000000E+09 -3.13993566348E-01 +8.60080630961E-01 -1.62728893974E-04 -1.90868032748E-04 -1.50701411472E-04 -1.86157102726E-04 -4.88534377670E-01 +8.17981771682E-01
1.26000000000E+09 -3.06595198315E-01 +8.60989517219E-01 -1.77070491078E-04 -1.79895792223E-04 -2.33929767069E-04 -2.62721206957E-04 -4.81851797524E-01 +8.21862541701E-01
1.26500000000E+09 -2.98927547705E-01 +8.61328312751E-01 -2.72345638096E-04 -1.84827625539E-04 -2.66620397397E-04 -2.32588467781E-04 -4.74860481472E-01 +8.25326015567E-01
1.27000000000E+09 -2.90715877133E-01 +8.61216968133E-01 -2.99706095144E-04 -2.22779355220E-04 -3.25946899296E-04 -2.42887462433E-04 -4.67995235570E-01 +8.28810365338E-01
1.27500000000E+09 -2.81331928246E-01 +8.61371646071E-01 -4.11567007146E-04 -2.20284479981E-04 -3.87560982013E-04 -1.68141302527E-04 -4.60956493378E-01 +8.32096851118E-01
1.28000000000E+09 -2.70815308896E-01 +8.61743624648E-01 -3.96722680224E-04 -1.61876582348E-04 -4.41331857894E-04 -1.90359564437E-04 -4.53736030691E-01 +8.35185286893E-01
1.28500000000E+09 -2.59165412200E-01 +8.62484991408E-01 -4.15531995988E-04 -1.21343688536E-04 -4.29864549633E-04 -1.14177266291E-04 -4.46219085798E-01 +8.38730646650E-01
1.29000000000E+09 -2.47408804961E-01 +8.63651937379E-01 -4.66131650317E-04 -1.04899001633E-04 -4.95247942898E-04 -7.05274213015E-05 -4.38677254374E-01 +8.42072716240E-01
1.29500000000E+09 -2.36001659256E-01 +8.65583243509E-01 -4.97404045570E-04 -9.39261239554E-05 -5.22649287162E-04 -8.89560638063E-05 -4.30826848130E-01 +8.45139625764E-01
1.30000000000E+09 -2.25103716886E-01 +8.68010345811E-01 -5.93270273593E-04 -3.78934517363E-05 -5.61896310182E-04 +6.59959844180E-05 -4.23116848940E-01 +8.48268666823E-01
1.30500000000E+09 -2.15252548762E-01 +8.70254611969E-01 -6.23480859554E-04 +2.14358717193E-05 -6.33621671748E-04 +4.98672166917E-05 -4.15046089744E-01 +8.51503640887E-01
1.31000000000E+09 -2.06014831730E-01 +8.72077956652E-01 -7.14442941347E-04 +1.61854889055E-04 -7.09186545547E-04 +1.57452966476E-04 -4.06664849167E-01 +8.54657879842E-01
1.31500000000E+09 -1.98060164731E-01 +8.73108343748E-01 -6.61353355759E-04 +2.95778838252E-04 -6.74786577742E-04 +2.78882434971E-04 -3.98123318157E-01 +8.57723881935E-01
1.32000000000E+09 -1.90463093231E-01 +8.73090968860E-01 -5.80729922272E-04 +3.34890605300E-04 -6.69496184187E-04 +3.78309595468E-04 -3.89082293030E-01 +8.60730506241E-01
1.32500000000E+09 -1.83048442380E-01 +8.72402936213E-01 -6.06477456216E-04 +3.84411730721E-04 -6.68896641329E-04 +4.34568839438E-04 -3.79763359440E-01 +8.63722666507E-01
1.33000000000E+09 -1.74853348882E-01 +8.71315784948E-01 -6.53843074081E-04 +4.81112369430E-04 -6.37837909056E-04 +5.42369498082E-04 -3.70344167957E-01 +8.66539510578E-01
1.33500000000E+09 -1.65011324637E-01 +8.69830902617E-01 -6.75360780401E-04 +6.07011143383E-04 -6.37583775350E-04 +6.64636341706E-04 -3.60685180784E-01 +8.69264002662E-01
1.34000000000E+09 -1.53502618481E-01 +8.68739546681E-01 -6.03974938159E-04 +7.59139260302E-04 -5.21596530913E-04 +7.72755940651E-04 -3.50765898181E-01 +8.72122584206E-01
1.34500000000E+09 -1.40219201925E-01 +8.67558033967E-01 -5.08226208633E-04 +9.04786257209E-04 -5.10243447546E-04 +7.96133882739E-04 -3.39948086003E-01 +8.74935529993E-01
1.35000000000E+09 -1.25766803510E-01 +8.66923430377E-01 -4.49503487597E-04 +9.60401196196E-04 -4.56124388260E-04 +9.25261562132E-04 -3.29065661171E-01 +8.77591767259E-01
1.35500000000E+09 -1.10678894301E-01 +8.66791187376E-01 -3.58612473054E-04 +1.03954043585E-03 -4.63559332679E-04 +9.92773471279E-04 -3.17695425428E-01 +8.79933850620E-01
1.36000000000E+09 -9.53053356267E-02 +8.66678812441E-01 -3.73890889671E-04 +1.10944918817E-03 -3.50148078448E-04 +1.06442199680E-03 -3.06085390845E-01 +8.82033081676E-01
1.36500000000E+09 -7.98894397932E-02 +8.66127510435E-01 -2.72986683683E-04 +1.24866895442E-03 -2.43524555222E-04 +1.16684497330E-03 -2.94397873819E-01 +8.84043505172E-01
1.37000000000E+09 -6.54799055164E-02 +8.64480705914E-01 -1.65139665147E-04 +1.46100062005E-03 -2.11907565474E-04 +1.35117107697E-03 -2.81870531624E-01 +8.86034352751E-01
1.37500000000E+09 -5.24135574014E-02 +8.62051906357E-01 +1.04527442651E-04 +1.53915051797E-03 -7.21748906403E-05 +1.50832618819E-03 -2.68326865979E-01 +8.87920674410E-01
1.38000000000E+09 -4.02006086149E-02 +8.58807973696E-01 +2.60500113976E-04 +1.54683725403E-03 +7.72546154822E-05 +1.65274577308E-03 -2.54072863917E-01 +8.89373129205E-01
1.38500000000E+09 -2.81423513235E-02 +8.54641599991E-01 +3.92586255322E-04 +1.63874707812E-03 +2.73103211181E-04 +1.91782876588E-03 -2.39009435779E-01 +8.90838357384E-01
1.39000000000E+09 -1.58747572611E-02 +8.49899963399E-01 +5.26273632213E-04 +1.78187144068E-03 +6.44011892361E-04 +2.00187317217E-03 -2.23648745557E-01 +8.91716310450E-01
1.39500000000E+09 -2.37684560672E-03 +8.44875579228E-01 +7.62856062185E-04 +1.92530341232E-03 +1.03268655755E-03 +2.10411098470E-03 -2.07660524052E-01 +8.92232448759E-01
1.40000000000E+09 +1.24933292328E-02 +8.39232269117E-01 +1.14906760318E-03 +2.14276807247E-03 +1.38262723969E-03 +2.06243709909E-03 -1.90879927597E-01 +8.92010144062E-01
1.40500000000E+09 +2.81358693599E-02 +8.33755098846E-01 +1.67961799134E-03 +2.19137161072E-03 +1.70794729245E-03 +2.02513862840E-03 -1.72944064575E-01 +8.91346447754E-01
1.41000000000E+09 +4.53925954530E-02 +8.28564282578E-01 +2.23394266109E-03 +1.90683674025E-03 +2.15530280826E-03 +1.93472414011E-03 -1.53691910964E-01 +8.90315436786E-01
1.41500000000E+09 +6.41065373548E-02 +8.23524802223E-01 +2.48041442810E-03 +1.69339989420E-03 +2.50813162081E-03 +1.86555289744E-03 -1.32707373463E-01 +8.88097757743E-01
1.42000000000E+09 +8.46065326305E-02 +8.17527155585E-01 +2.87044364770E-03 +1.54398035593E-03 +3.13073288910E-03 +1.76905101726E-03 -1.10703776503E-01 +8.85004891560E-01
1.42500000000E+09 +1.05498369473E-01 +8.09484012167E-01 +3.31896018463E-03 +1.34305089223E-03 +3.73189840735E-03 +1.34269129383E-03 -8.80036328539E-02 +8.80742762861E-01
1.43000000000E+09 +1.26511723095E-01 +7.98814016528E-01 +3.84907045028E-03 +1.23076150183E-03 +4.27444926479E-03 +9.73308096297E-04 -6.44908480632E-02 +8.75710237202E-01
1.43500000000E+09 +1.46843082383E-01 +7.85782878476E-01 +4.78058544852E-03 +7.19160125817E-04 +4.92739183800E-03 +3.19695990068E-04 -3.91822999563E-02 +8.68678140608E-01
1.44000000000E+09 +1.67372394325E-01 +7.70796783507E-01 +5.42111881006E-03 -5.07857280007E-04 +5.45209223172E-03 -8.99434873473E-04 -1.23411418028E-02 +8.59548387253E-01
1.44500000000E+09 +1.88733919177E-01 +7.53190939998E-01 +5.38539873477E-03 -1.69121050842E-03 +5.38283310198E-03 -1.92235851987E-03 +1.62620994572E-02 +8.47761393006E-01
1.45000000000E+09 +2.10828405221E-01 +7.32879925655E-01 +5.26504039673E-03 -2.43208938223E-03 +5.27972640389E-03 -2.76825016536E-03 +4.64347035203E-02 +8.33127845102E-01
1.45500000000E+09 +2.34150018555E-01 +7.10375439431E-01 +5.42278311998E-03 -3.13767403057E-03 +5.22328901332E-03 -3.65860387074E-03 +7.76600247209E-02 +8.15789283357E-01
1.46000000000E+09 +2.58875800078E-01 +6.85790690683E-01 +5.70910643845E-03 -4.19582429988E-03 +5.09053814138E-03 -4.56374484442E-03 +1.10808717786E-01 +7.94577714925E-01
1.46500000000E+09 +2.85400174873E-01 +6.59017358774E-01 +5.89309634549E-03 -5.70671041112E-03 +5.10990705283E-03 -5.54213788805E-03 +1.44892765823E-01 +7.68122573445E-01
1.47000000000E+09 +3.13731445909E-01 +6.28554723926E-01 +5.67310449621E-03 -7.84145682117E-03 +5.18420646279E-03 -7.19401042798E-03 +1.79823847192E-01 +7.35164129013E-01
1.47500000000E+09 +3.42581164266E-01 +5.91904137051E-01 +4.12268742338E-03 -1.03290983199E-02 +4.35227084540E-03 -9.70540570085E-03 +2.14249527895E-01 +6.94741543246E-01
1.48000000000E+09 +3.68805468023E-01 +5.48157447447E-01 +1.94973482665E-03 -1.16772153057E-02 +2.34847282091E-03 -1.17482588146E-02 +2.48329196708E-01 +6.46981824176E-01
1.48500000000E+09 +3.90512101618E-01 +4.96459798329E-01 +2.20673151444E-05 -1.30472524164E-02 -1.55834911511E-04 -1.33911300377E-02 +2.79935049386E-01 +5.90317345587E-01
1.49000000000E+09 +4.05762481324E-01 +4.37189075159E-01 -2.92437215308E-03 -1.45375662362E-02 -3.65161556695E-03 -1.44189434090E-02 +3.06856376923E-01 +5.23458889177E-01
1.49500000000E+09 +4.13236099690E-01 +3.70298656693E-01 -7.30172709948E-03 -1.52852695778E-02 -7.55265967302E-03 -1.43928022304E-02 +3.24252002713E-01 +4.46021995878E-01
1.50000000000E+09 +4.11525774007E-01 +2.95170469162E-01 -1.18955325126E-02 -1.43309152915E-02 -1.11855618796E-02 -1.34677604219E-02 +3.28541661143E-01 +3.59145708028E-01
1.50500000000E+09 +3.96810948289E-01 +2.12565720208E-01 -1.67760229963E-02 -1.19328906239E-02 -1.56719411754E-02 -1.19564205839E-02 +3.16235056545E-01 +2.65018672193E-01
1.51000000000E+09 +3.67473082291E-01 +1.26740532168E-01 -2.06317254853E-02 -7.12929262701E-03 -2.01204026641E-02 -7.88038868592E-03 +2.83729775986E-01 +1.66132091451E-01
1.51500000000E+09 +3.20021863011E-01 +4.04518362885E-02 -2.32627748666E-02 -2.13243339298E-03 -2.34172797638E-02 -2.80632354268E-03 +2.26978235394E-01 +7.15687086090E-02
1.52000000000E+09 +2.53554970527E-01 -3.68719475220E-02 -2.49139660716E-02 +4.67157813147E-03 -2.52991800036E-02 +4.40248879441E-03 +1.49389560964E-01 -1.01566604882E-02
1.52500000000E+09 +1.71159557568E-01 -1.00867614712E-01 -2.36822044963E-02 +1.34336011222E-02 -2.39655015492E-02 +1.34519885055E-02 +5.62306214863E-02 -7.50037667682E-02
1.53000000000E+09 +7.55601896848E-02 -1.46097855717E-01 -1.71800336061E-02 +2.03290486519E-02 -1.74002356467E-02 +2.04286927805E-02 -5.21715354966E-02 -1.17312663256E-01
1.53500000000E+09 -2.83909541334E-02 -1.69451567348E-01 -1.04190068400E-02 +2.34142397565E-02 -1.03842160155E-02 +2.34439168995E-02 -1.62545682510E-01 -1.32904535971E-01
1.54000000000E+09 -1.37101375608E-01 -1.68225571653E-01 -3.35256331181E-03 +2.43239397219E-02 -3.44964075127E-03 +2.41041837778E-02 -2.70698608337E-01 -1.25853741072E-01
1.54500000000E+09 -2.39666146281E-01 -1.41951895864E-01 +3.64814398800E-03 +2.35305714844E-02 +3.07646814915E-03 +2.33635794909E-02 -3.67527578016E-01 -9.78533217584E-02
1.55000000000E+09 -3.30099070966E-01 -9.90399670077E-02 +9.08849465198E-03 +1.96742800072E-02 +8.33808172594E-03 +2.00438125518E-02 -4.49539513291E-01 -5.62493186902E-02
1.55500000000E+09 -4.06088265574E-01 -4.42613095159E-02 +1.25541415907E-02 +1.57210503842E-02 +1.20683108070E-02 +1.65713169698E-02 -5.16657109590E-01 -6.17850027442E-03
1.56000000000E+09 -4.66176121296E-01 +1.43164314039E-02 +1.48378295670E-02 +1.10791861893E-02 +1.50887287670E-02 +1.20967926769E-02 -5.69711626540E-01 +4.88550211112E-02
1.56500000000E+09 -5.14431564173E-01 +7.34887980488E-02 +1.50369161593E-02 +6.54961706451E-03 +1.58278343848E-02 +7.14348892517E-03 -6.10767230111E-01 +1.05504018895E-01
1.57000000000E+09 -5.51304844789E-01 +1.32843652805E-01 +1.43460590809E-02 +3.28877479659E-03 +1.52509189059E-02 +3.38621631021E-03 -6.40689073421E-01 +1.61733582053E-01
