# Hz S RI R 50
! CMT, C1220, 16058040, 17.2.0/1
! Date: 14/08/2018 12:57:30
! Data: Format (Calibration Info)
! Freq                      S11: Re/Im (F2)                       S21: Re/Im (F2)                       S12: Re/Im (F2)                       S22: Re/Im (F2)            
1.00000000000E+09 -6.46909194617E-01 +7.12147373160E-01 +1.14423109716E-05 -1.98631809017E-05 +2.54522206229E-05 +1.74071083728E-05 -7.19159863549E-01 +6.45724789005E-01
1.00500000000E+09 -6.40358621311E-01 +7.16761374709E-01 +1.15101829888E-05 +1.43331287149E-05 -3.69300871919E-06 -2.62481233694E-06 -7.15239261543E-01 +6.49615720659E-01
1.01000000000E+09 -6.34434754413E-01 +7.21060872712E-01 +2.26236185230E-05 -1.73805733170E-06 -2.10883840330E-06 +6.36945450633E-07 -7.11787427500E-01 +6.53139071587E-01
1.01500000000E+09 -6.29650413747E-01 +7.25035256363E-01 -1.33594963152E-05 +5.22707188637E-05 -1.33782292391E-05 +1.56712451539E-06 -7.08347161367E-01 +6.56858364732E-01
1.02000000000E+09 -6.25872731373E-01 +7.28581453721E-01 -1.40032805975E-06 +2.82102261689E-05 +9.32632446510E-06 +6.31052263655E-06 -7.04802065575E-01 +6.59954498173E-01
1.02500000000E+09 -6.22441823216E-01 +7.31793054855E-01 +3.50197573418E-06 +1.81753514274E-05 +1.47234907864E-05 -3.12290493520E-05 -7.01801724489E-01 +6.63521910205E-01
1.03000000000E+09 -6.19382807650E-01 +7.34753332717E-01 +1.90209541466E-05 +3.05451550160E-05 +5.63561558474E-06 +5.36720138346E-05 -6.98065350808E-01 +6.67326481720E-01
1.03500000000E+09 -6.15701662383E-01 +7.37733135193E-01 -2.84036937715E-05 +4.52888473426E-05 +4.81141170114E-05 -1.54804573653E-06 -6.94109089267E-01 +6.71251480392E-01
1.04000000000E+09 -6.10982610980E-01 +7.41106440514E-01 -6.84679102560E-05 +3.58916944704E-06 +1.13442976224E-05 -2.11467550420E-05 -6.89936051614E-01 +6.74701050865E-01
1.04500000000E+09 -6.05357842775E-01 +7.44371589288E-01 -2.29175959136E-05 +5.76276906879E-05 -1.07154476466E-05 +5.14716104991E-05 -6.86386276408E-01 +6.78143817285E-01
1.05000000000E+09 -5.98642053897E-01 +7.48689133693E-01 +1.68612212721E-05 +3.98433439822E-05 -6.10407529531E-07 +5.72474793533E-06 -6.82678072691E-01 +6.81377508916E-01
1.05500000000E+09 -5.91134954677E-01 +7.52874969203E-01 +2.29275190904E-05 -6.19031064924E-06 +8.28219901531E-06 +1.35042368174E-05 -6.79294209407E-01 +6.84991346792E-01
1.06000000000E+09 -5.83061135337E-01 +7.57463361389E-01 +3.07078095068E-05 +9.85350312549E-06 +2.10532793685E-05 +5.05918256804E-05 -6.75738480081E-01 +6.88660907891E-01
1.06500000000E+09 -5.75224356479E-01 +7.62226560980E-01 +6.12883969885E-06 +1.36431232617E-05 +1.20368354269E-05 +3.78873068325E-05 -6.71769066503E-01 +6.92447539962E-01
1.07000000000E+09 -5.68086679915E-01 +7.66053805190E-01 +1.72090275209E-05 +2.43819852167E-05 -8.33085802422E-06 +5.60819651344E-05 -6.67440113822E-01 +6.95858612782E-01
1.07500000000E+09 -5.62068808295E-01 +7.69841854212E-01 +1.41953526415E-05 +3.94834829867E-05 +1.73390513664E-05 +5.61686606736E-05 -6.62826124645E-01 +6.99389345180E-01
1.08000000000E+09 -5.57074756803E-01 +7.73085830654E-01 +3.29921948631E-05 +6.41427001066E-05 -1.84277120114E-05 +9.10305804628E-06 -6.58791877029E-01 +7.03086632118E-01
1.08500000000E+09 -5.53234519866E-01 +7.75781131232E-01 +1.25309445135E-05 +2.03696172783E-05 -8.70488081197E-06 +1.33228347765E-05 -6.54859784375E-01 +7.06423146439E-01
1.09000000000E+09 -5.49919693610E-01 +7.78076436552E-01 +3.33163022045E-05 +4.50245130019E-05 +2.54304254221E-05 +8.52738790358E-05 -6.50829213883E-01 +7.10300018515E-01
1.09500000000E+09 -5.47111090603E-01 +7.80254315632E-01 +6.49933991272E-05 +3.74098851428E-05 +6.38957312977E-05 -1.11774095239E-05 -6.46927379925E-01 +7.13894038902E-01
1.10000000000E+09 -5.43463561635E-01 +7.82396596309E-01 +4.10741014448E-05 +4.22322259679E-05 -9.18887260576E-06 +5.07192709069E-05 -6.42802591984E-01 +7.17563410768E-01
1.10500000000E+09 -5.39130961280E-01 +7.85069029091E-01 +9.22846274588E-05 +1.90451105802E-05 +4.98072254974E-05 +2.62830311114E-05 -6.38284790224E-01 +7.20792475842E-01
1.11000000000E+09 -5.33854620018E-01 +7.88161586145E-01 +8.25944951341E-07 +4.12800825710E-05 +8.69262319007E-05 +9.00916019882E-06 -6.34047210890E-01 +7.24045323568E-01
1.11500000000E+09 -5.27527247278E-01 +7.91618780147E-01 +1.19091203054E-05 +6.35689676018E-06 +5.03606230292E-05 +1.12106918275E-05 -6.29917411573E-01 +7.27257855100E-01
1.12000000000E+09 -5.20615080218E-01 +7.95080415228E-01 +5.19575424289E-05 -1.89259305908E-05 +5.25530224275E-05 +1.67389356709E-05 -6.25800288870E-01 +7.30638310156E-01
1.12500000000E+09 -5.13132875144E-01 +7.98688159463E-01 +6.03684371236E-05 +1.54885761874E-06 +3.58570349269E-05 -5.32980245710E-06 -6.21426868881E-01 +7.34526652921E-01
1.13000000000E+09 -5.05904953447E-01 +8.02030203121E-01 +7.76361521635E-05 +2.80513468852E-05 +2.56916331744E-05 -1.20457888956E-05 -6.16970142005E-01 +7.38013663978E-01
1.13500000000E+09 -4.99073641143E-01 +8.04416802908E-01 +7.53397927909E-05 +2.73030321087E-05 +4.23161722648E-05 -1.22520951905E-05 -6.11957556712E-01 +7.41622625277E-01
1.14000000000E+09 -4.92776967170E-01 +8.06771640313E-01 +1.26091817019E-04 -1.93542598072E-05 +6.20539328450E-05 +3.55629148593E-05 -6.07057610210E-01 +7.44903670909E-01
1.14500000000E+09 -4.87406108576E-01 +8.08410047023E-01 +1.10619190607E-04 -1.80276425962E-05 +7.42891721374E-05 -1.34352684916E-05 -6.02173736475E-01 +7.48269625938E-01
1.15000000000E+09 -4.82128671493E-01 +8.10021815199E-01 +8.69236210210E-05 -2.37590848261E-05 +7.43080698514E-05 -1.18767956867E-06 -5.97283190617E-01 +7.51806658779E-01
1.15500000000E+09 -4.77278443005E-01 +8.11888041526E-01 +3.57449302170E-05 -4.51186169062E-05 +9.88479937063E-05 -9.12566716786E-06 -5.92528678807E-01 +7.55432806941E-01
1.16000000000E+09 -4.72026796862E-01 +8.13800731516E-01 +1.17094747141E-04 -9.86387713208E-06 +8.70356663363E-05 -4.21263883351E-05 -5.87574320708E-01 +7.59013201391E-01
1.16500000000E+09 -4.66041034311E-01 +8.16370517296E-01 +7.62012103652E-05 -2.01598065445E-05 +1.14286575820E-04 +7.60697683257E-06 -5.82306589961E-01 +7.62492040567E-01
1.17000000000E+09 -4.59620991890E-01 +8.19260780193E-01 +6.96326149834E-05 -6.54600326791E-05 +9.11623112939E-05 -5.27985968985E-05 -5.76827761554E-01 +7.65631662641E-01
1.17500000000E+09 -4.52569207230E-01 +8.22170430734E-01 +1.15882110518E-04 -4.24392231363E-05 +8.76828477157E-05 -6.61949058650E-05 -5.71092169483E-01 +7.68450324730E-01
1.18000000000E+09 -4.45235993452E-01 +8.25410057275E-01 +1.30615401926E-04 -7.71916462746E-05 +1.42825901716E-04 -6.03304043784E-05 -5.65622651939E-01 +7.71428120972E-01
1.18500000000E+09 -4.37444455797E-01 +8.28287337722E-01 +1.50699191106E-04 -1.43776111733E-04 +1.67739380411E-04 -1.78531382551E-04 -5.59734647738E-01 +7.74105961003E-01
1.19000000000E+09 -4.29823176107E-01 +8.30589296885E-01 +1.17436669029E-04 -1.56338755906E-04 +1.19859992159E-04 -2.42050252312E-04 -5.53630664861E-01 +7.76591052459E-01
1.19500000000E+09 -4.22485986105E-01 +8.32528428782E-01 +1.43673267289E-04 -2.31942324393E-04 +5.89590948338E-05 -2.26562081408E-04 -5.47512478944E-01 +7.77356509863E-01
1.20000000000E+09 -4.15567943963E-01 +8.33330403007E-01 +1.27678354513E-05 -2.26989457178E-04 +9.67917188516E-06 -2.77031786259E-04 -5.43071542529E-01 +7.77583814941E-01
1.20500000000E+09 -4.09030217219E-01 +8.34545766940E-01 -5.82971722746E-05 -2.16962612384E-04 -1.05068243723E-04 -2.12583854366E-04 -5.40490201021E-01 +7.78490804813E-01
1.21000000000E+09 -4.02460298721E-01 +8.35827920857E-01 -7.92127773364E-05 -1.41632616694E-04 -9.57738144395E-05 -1.41483600190E-04 -5.38356526553E-01 +7.81483244033E-01
1.21500000000E+09 -3.95196483776E-01 +8.37321567450E-01 -4.58384980530E-05 -1.47210271428E-04 -3.60793875462E-05 -1.50381527208E-04 -5.35291201279E-01 +7.85887513930E-01
1.22000000000E+09 -3.87542450083E-01 +8.39215116113E-01 -2.56388725179E-05 -1.56756695220E-04 -3.69424266968E-05 -1.04078945334E-04 -5.30856637158E-01 +7.90861346108E-01
1.22500000000E+09 -3.79226968182E-01 +8.41594545280E-01 -6.12900000099E-05 -1.47188151726E-04 -5.22181620097E-05 -1.89572106757E-04 -5.25450261360E-01 +7.95715578196E-01
1.23000000000E+09 -3.70752030775E-01 +8.44358567762E-01 -3.82018376059E-05 -1.97663237566E-04 -6.04996470036E-05 -1.58910761666E-04 -5.19643153156E-01 +7.99997798953E-01
1.23500000000E+09 -3.62367447728E-01 +8.47375681951E-01 -5.12474321040E-05 -2.23170850350E-04 -5.35822934808E-05 -1.73677867140E-04 -5.13859995778E-01 +8.03820380161E-01
1.24000000000E+09 -3.54088278915E-01 +8.50550147335E-01 -5.64479236091E-05 -2.10242185357E-04 -9.17888884829E-05 -1.64603256424E-04 -5.07783109181E-01 +8.07619983057E-01
1.24500000000E+09 -3.46354735948E-01 +8.53803796355E-01 -1.18978875998E-04 -1.80138210937E-04 -4.43758258866E-05 -1.92903211555E-04 -5.01454776726E-01 +8.11023793980E-01
1.25000000000E+09 -3.38755453583E-01 +8.56491353410E-01 -1.35823489149E-04 -1.63402766188E-04 -6.91668176249E-05 -1.51102899344E-04 -4.94898246648E-01 +8.14943270822E-01
1.25500000000E+09 -3.31260677054E-01 +8.58068631565E-01 -1.31577109530E-04 -1.62266736216E-04 -8.46989064197E-05 -1.72514954335E-04 -4.88085885775E-01 +8.18714182947E-01
1.26000000000E+09 -3.23848541298E-01 +8.59394997356E-01 -2.21517717139E-04 -1.99424417192E-04 -1.59777334803E-04 -2.32797862616E-04 -4.81331549434E-01 +8.22542158104E-01
1.26500000000E+09 -3.16202809524E-01 +8.59810712593E-01 -1.94877876065E-04 -1.98605780777E-04 -2.13585222448E-04 -2.15017409342E-04 -4.74437676489E-01 +8.25891650964E-01
1.27000000000E+09 -3.07866849958E-01 +8.60213038754E-01 -2.42791723196E-04 -2.41060433834E-04 -2.44134495239E-04 -2.16148158364E-04 -4.67491245425E-01 +8.29421756376E-01
1.27500000000E+09 -2.98922064909E-01 +8.60711739560E-01 -3.14261396054E-04 -2.28372423064E-04 -3.33396155769E-04 -1.92419458299E-04 -4.60337983566E-01 +8.32609460122E-01
1.28000000000E+09 -2.88849289790E-01 +8.61678238830E-01 -3.64808569890E-04 -1.55155069709E-04 -3.75916613890E-04 -1.80420336808E-04 -4.53325725920E-01 +8.35922047260E-01
1.28500000000E+09 -2.77758168464E-01 +8.62907953378E-01 -3.43555445103E-04 -1.18674789019E-04 -3.76349630695E-04 -1.82699426715E-04 -4.45793697174E-01 +8.39472509685E-01
1.29000000000E+09 -2.66886066886E-01 +8.64644686161E-01 -3.83113531066E-04 -9.51602156515E-05 -3.85412102748E-04 -1.24717938736E-04 -4.38145294468E-01 +8.42777020072E-01
1.29500000000E+09 -2.56201928763E-01 +8.66892312812E-01 -3.90543610387E-04 -8.69373827176E-05 -4.50737563863E-04 -8.01919893415E-05 -4.30325545208E-01 +8.45895966171E-01
1.30000000000E+09 -2.45984205339E-01 +8.69647702622E-01 -5.13300674569E-04 -9.56940166918E-05 -5.21549687559E-04 -4.34569341615E-05 -4.22497412353E-01 +8.49092435804E-01
1.30500000000E+09 -2.36669400276E-01 +8.72271623996E-01 -5.84623515855E-04 -1.80627086177E-05 -5.15709371026E-04 +4.23157782703E-05 -4.14367895700E-01 +8.52157245096E-01
1.31000000000E+09 -2.27755604701E-01 +8.74568081746E-01 -5.84762547844E-04 +1.11246603310E-04 -5.48035932065E-04 +1.04009083076E-04 -4.06204050025E-01 +8.55247296801E-01
1.31500000000E+09 -2.19691034688E-01 +8.75726309661E-01 -6.03272356485E-04 +1.92876624201E-04 -5.92766829330E-04 +2.13137455523E-04 -3.97445989832E-01 +8.58286130076E-01
1.32000000000E+09 -2.12269877144E-01 +8.76147355367E-01 -5.65080856686E-04 +2.57482641830E-04 -5.66035520671E-04 +2.67128451260E-04 -3.88549217683E-01 +8.61306480656E-01
1.32500000000E+09 -2.04725102643E-01 +8.75602465427E-01 -5.40088754450E-04 +2.76718924725E-04 -5.98027667553E-04 +3.10381869139E-04 -3.79063514725E-01 +8.64232231876E-01
1.33000000000E+09 -1.96375738171E-01 +8.74823471930E-01 -6.29511930263E-04 +3.76490900549E-04 -6.07952599410E-04 +4.20614896223E-04 -3.69746220104E-01 +8.67160040095E-01
1.33500000000E+09 -1.86706521522E-01 +8.73901574151E-01 -6.59682296317E-04 +4.76031528853E-04 -6.03364940773E-04 +5.16563783065E-04 -3.60096882029E-01 +8.69881719275E-01
1.34000000000E+09 -1.75292530276E-01 +8.73190637272E-01 -5.86105881025E-04 +6.01382846301E-04 -5.25226213347E-04 +6.22306055017E-04 -3.50039458325E-01 +8.72668075063E-01
1.34500000000E+09 -1.62413389068E-01 +8.72717011389E-01 -5.47036372667E-04 +7.22851848643E-04 -5.03822253820E-04 +6.81383132296E-04 -3.39357504738E-01 +8.75497462256E-01
1.35000000000E+09 -1.48362766709E-01 +8.72579166435E-01 -4.76307460981E-04 +7.89494896216E-04 -4.73945786547E-04 +7.89591866157E-04 -3.28445189440E-01 +8.78129101682E-01
1.35500000000E+09 -1.33542386984E-01 +8.72942189852E-01 -4.75178103494E-04 +8.45652186484E-04 -4.13135985356E-04 +8.36995213850E-04 -3.16926014010E-01 +8.80504589997E-01
1.36000000000E+09 -1.18564559306E-01 +8.73476707658E-01 -4.01313141270E-04 +9.53411810897E-04 -3.48361375050E-04 +9.02027565803E-04 -3.05347023316E-01 +8.82587393946E-01
1.36500000000E+09 -1.03508350544E-01 +8.73591806133E-01 -3.35145032611E-04 +1.10088584734E-03 -3.03276826190E-04 +1.04520897041E-03 -2.93693809396E-01 +8.84655579050E-01
1.37000000000E+09 -8.91847336278E-02 +8.72640469820E-01 -2.35936934487E-04 +1.27248464642E-03 -2.80538939219E-04 +1.16224888304E-03 -2.81105882446E-01 +8.86482559348E-01
1.37500000000E+09 -7.61040386951E-02 +8.70852305011E-01 +7.66275149807E-06 +1.33857511175E-03 -1.98837727088E-04 +1.33604328164E-03 -2.67693142620E-01 +8.88388453816E-01
1.38000000000E+09 -6.37364483771E-02 +8.68238027879E-01 +1.11082500998E-04 +1.35319890568E-03 -4.57925729560E-05 +1.46218206357E-03 -2.53332647294E-01 +8.89832692264E-01
1.38500000000E+09 -5.13828131419E-02 +8.64960764605E-01 +2.43963046612E-04 +1.48460935016E-03 +1.25328480715E-04 +1.65678674697E-03 -2.38307739561E-01 +8.91224563553E-01
1.39000000000E+09 -3.87095717629E-02 +8.61138439012E-01 +3.53997853020E-04 +1.57576956505E-03 +4.40726790849E-04 +1.79588306619E-03 -2.22934291980E-01 +8.92178629122E-01
1.39500000000E+09 -2.48216555089E-02 +8.57067930839E-01 +5.65433467447E-04 +1.67095620863E-03 +7.93623003230E-04 +1.79838733095E-03 -2.07103386367E-01 +8.92417274455E-01
1.40000000000E+09 -9.32658350934E-03 +8.52265975725E-01 +8.02582684033E-04 +1.89032989388E-03 +1.05137815026E-03 +1.86188846738E-03 -1.90164879999E-01 +8.92460834854E-01
1.40500000000E+09 +6.99045467268E-03 +8.47552138042E-01 +1.30312578591E-03 +1.96856551816E-03 +1.32805868847E-03 +1.86176195562E-03 -1.72246538245E-01 +8.91743128512E-01
1.41000000000E+09 +2.46674843899E-02 +8.42900849201E-01 +1.76315754664E-03 +1.81794085990E-03 +1.70918976568E-03 +1.79438681687E-03 -1.52908494114E-01 +8.90629765551E-01
1.41500000000E+09 +4.37120210137E-02 +8.38258811037E-01 +2.01024083888E-03 +1.59618951182E-03 +2.01962227013E-03 +1.79049397008E-03 -1.31980416983E-01 +8.88495593686E-01
1.42000000000E+09 +6.43230074164E-02 +8.32709628884E-01 +2.29843374996E-03 +1.53457589064E-03 +2.47389003263E-03 +1.70886693706E-03 -1.10130293484E-01 +8.85443704293E-01
1.42500000000E+09 +8.54211855070E-02 +8.25277245025E-01 +2.69672146753E-03 +1.41730949550E-03 +3.07582577872E-03 +1.43723171325E-03 -8.73226014919E-02 +8.81093063130E-01
1.43000000000E+09 +1.06641850410E-01 +8.15747738514E-01 +3.18234867372E-03 +1.37527962678E-03 +3.56684737000E-03 +1.17469894515E-03 -6.38588449634E-02 +8.75994428707E-01
1.43500000000E+09 +1.27698699667E-01 +8.03509431100E-01 +4.07813309897E-03 +9.99906737393E-04 +4.22332625689E-03 +6.18982597484E-04 -3.85041730273E-02 +8.69079267432E-01
1.44000000000E+09 +1.48950787415E-01 +7.89824675016E-01 +4.68512190252E-03 +7.79864664457E-06 +4.71445861311E-03 -2.90587122344E-04 -1.17280191509E-02 +8.59892193485E-01
1.44500000000E+09 +1.71595708020E-01 +7.73401285124E-01 +4.71303696616E-03 -9.72291840158E-04 +4.72961124139E-03 -1.20641788774E-03 +1.68297009750E-02 +8.48255837339E-01
1.45000000000E+09 +1.95347334724E-01 +7.54217120983E-01 +4.70236637740E-03 -1.59449911090E-03 +4.70136753779E-03 -1.89162099898E-03 +4.70233583959E-02 +8.33448216995E-01
1.45500000000E+09 +2.20448729965E-01 +7.32541367961E-01 +4.93320351541E-03 -2.24395126207E-03 +4.72190453819E-03 -2.64440117080E-03 +7.83006190421E-02 +8.16236421973E-01
1.46000000000E+09 +2.47061330682E-01 +7.08068700480E-01 +5.26415855530E-03 -3.12477720416E-03 +4.71193442831E-03 -3.45048423621E-03 +1.11400444948E-01 +7.95000365909E-01
1.46500000000E+09 +2.74987813418E-01 +6.81043863037E-01 +5.43298686253E-03 -4.37629922711E-03 +4.78535999739E-03 -4.30165979620E-03 +1.45501418327E-01 +7.68630318597E-01
1.47000000000E+09 +3.04701934697E-01 +6.50114952265E-01 +5.53970857936E-03 -6.15588545240E-03 +5.07842367658E-03 -5.61259427859E-03 +1.80445164839E-01 +7.35594009517E-01
1.47500000000E+09 +3.34732664144E-01 +6.12989101185E-01 +4.44195214846E-03 -8.31599817839E-03 +4.60162989604E-03 -7.79555983672E-03 +2.14945093587E-01 +6.95095785917E-01
1.48000000000E+09 +3.62406918267E-01 +5.68499497207E-01 +2.83370106654E-03 -9.80317949932E-03 +3.12322058944E-03 -9.82503055479E-03 +2.49027786384E-01 +6.47347546966E-01
1.48500000000E+09 +3.85896555187E-01 +5.16091186556E-01 +1.22107440312E-03 -1.11527615645E-02 +1.08366447358E-03 -1.14730085323E-02 +2.80629339095E-01 +5.90474970874E-01
1.49000000000E+09 +4.03287050848E-01 +4.55744314631E-01 -1.19052843589E-03 -1.27922821792E-02 -1.85191029596E-03 -1.26775514823E-02 +3.07291512342E-01 +5.23752845499E-01
1.49500000000E+09 +4.13321119166E-01 +3.87418468963E-01 -4.98444731331E-03 -1.37166078690E-02 -5.24991804184E-03 -1.29820249706E-02 +3.24763299050E-01 +4.46466962128E-01
1.50000000000E+09 +4.14080637731E-01 +3.09801856266E-01 -8.88337837468E-03 -1.31580790687E-02 -8.36517778974E-03 -1.23844064360E-02 +3.29352926915E-01 +3.59551165739E-01
1.50500000000E+09 +4.01718322794E-01 +2.24399222934E-01 -1.30803768321E-02 -1.16186296907E-02 -1.21410108890E-02 -1.15931266338E-02 +3.17112740003E-01 +2.65116412323E-01
1.51000000000E+09 +3.73786133837E-01 +1.34570368753E-01 -1.67957115528E-02 -8.11686004370E-03 -1.63032211184E-02 -8.71348501999E-03 +2.84336637651E-01 +1.66324759394E-01
1.51500000000E+09 +3.26382869405E-01 +4.39082135304E-02 -1.96053034111E-02 -4.04619924211E-03 -1.96461671194E-02 -4.56869003294E-03 +2.27648054470E-01 +7.16127459366E-02
1.52000000000E+09 +2.58220295568E-01 -3.77829236412E-02 -2.14885914891E-02 +1.34017050600E-03 -2.17725293854E-02 +1.11484194617E-03 +1.49705794562E-01 -1.03414335178E-02
1.52500000000E+09 +1.72793851442E-01 -1.05024385249E-01 -2.14616041543E-02 +9.06009729457E-03 -2.17035893736E-02 +9.04336236436E-03 +5.63912734463E-02 -7.48288476205E-02
1.53000000000E+09 +7.30231973189E-02 -1.52756543565E-01 -1.66710743189E-02 +1.51998179776E-02 -1.67399262451E-02 +1.53423170432E-02 -5.20902139274E-02 -1.16991512655E-01
1.53500000000E+09 -3.54446047215E-02 -1.76439583845E-01 -1.15937556940E-02 +1.86628428698E-02 -1.15390338749E-02 +1.87122125822E-02 -1.62359424712E-01 -1.32439190958E-01
1.54000000000E+09 -1.47639670509E-01 -1.74599336927E-01 -5.71357077199E-03 +2.05228700916E-02 -5.76217848150E-03 +2.02309069525E-02 -2.70273008821E-01 -1.25486992471E-01
1.54500000000E+09 -2.52837073331E-01 -1.47345057003E-01 +6.13056812265E-04 +2.06456836830E-02 +1.46066343353E-04 +2.03540704002E-02 -3.67402907811E-01 -9.74626230803E-02
1.55000000000E+09 -3.45397330839E-01 -1.02777114873E-01 +5.62043549837E-03 +1.77795709161E-02 +4.86527665983E-03 +1.79673649705E-02 -4.49159375060E-01 -5.56032002125E-02
1.55500000000E+09 -4.22102319310E-01 -4.61143927882E-02 +8.75830084223E-03 +1.48459399504E-02 +8.25703207811E-03 +1.55613966580E-02 -5.16089511881E-01 -5.64020232187E-03
1.56000000000E+09 -4.82211370613E-01 +1.37666532265E-02 +1.15082221296E-02 +1.14018523542E-02 +1.15531629400E-02 +1.23277048812E-02 -5.69180694510E-01 +4.92800703366E-02
1.56500000000E+09 -5.29906506363E-01 +7.43148342576E-02 +1.22662147557E-02 +7.35438901422E-03 +1.28690788721E-02 +8.01910605126E-03 -6.10189042923E-01 +1.05956049678E-01
1.57000000000E+09 -5.65715599080E-01 +1.34245007518E-01 +1.19945886470E-02 +4.48690816288E-03 +1.28025871387E-02 +4.72360296060E-03 -6.40234636432E-01 +1.62011850248E-01
