# Hz S RI R 50
! CMT, C1220, 16058040, 17.2.0/1
! Date: 14/08/2018 12:53:34
! Data: Format (Calibration Info)
! Freq                      S11: Re/Im (F2)                       S21: Re/Im (F2)                       S12: Re/Im (F2)                       S22: Re/Im (F2)            
1.00000000000E+09 -6.45693886799E-01 +7.13549584129E-01 -5.77557775993E-05 +2.07154096290E-05 +3.68885608959E-05 -3.76485898841E-05 -7.19452987862E-01 +6.44953372798E-01
1.00500000000E+09 -6.39328424151E-01 +7.18278916186E-01 -3.26659303443E-06 +4.30602980409E-05 -1.98424799116E-05 +5.61681182788E-05 -7.15430808677E-01 +6.49001099778E-01
1.01000000000E+09 -6.33523288447E-01 +7.22734820374E-01 -2.69133337596E-05 +2.57231721292E-05 +2.78545820068E-06 -1.41529359865E-05 -7.11699757952E-01 +6.52435226215E-01
1.01500000000E+09 -6.28677028577E-01 +7.26660987140E-01 +2.36553260464E-05 +5.24547994661E-05 -4.65783922803E-05 +6.00627696292E-05 -7.08411225747E-01 +6.55981530630E-01
1.02000000000E+09 -6.24644358605E-01 +7.30143425001E-01 -8.63630688837E-06 +5.26555963447E-05 +2.00228333823E-05 +2.18414609855E-05 -7.04995793071E-01 +6.59262244690E-01
1.02500000000E+09 -6.21002389874E-01 +7.33559016870E-01 -9.34551907588E-07 +2.03491743670E-05 +1.56062271543E-05 +3.96619466236E-05 -7.01956168300E-01 +6.62952164536E-01
1.03000000000E+09 -6.17779847845E-01 +7.36677709412E-01 -4.47548375593E-06 +2.10358663839E-05 -3.01613806569E-05 +3.21194368833E-06 -6.98258485000E-01 +6.66641661899E-01
1.03500000000E+09 -6.13623619309E-01 +7.39848027800E-01 +3.75670176803E-06 +3.17555290722E-05 -2.15563519763E-05 +7.09269968731E-05 -6.94212373367E-01 +6.70438353610E-01
1.04000000000E+09 -6.08853140322E-01 +7.43169424224E-01 +1.72254859873E-05 +5.04811237151E-05 -3.97311922986E-05 +8.38345183623E-06 -6.90155363337E-01 +6.73988791633E-01
1.04500000000E+09 -6.02819404394E-01 +7.46900662581E-01 +2.96178747776E-05 -2.68615837107E-05 +4.49573907540E-05 +9.06769884094E-05 -6.86493820249E-01 +6.77424474930E-01
1.05000000000E+09 -5.95737536841E-01 +7.50940850688E-01 +3.87746124853E-05 +2.55649385335E-05 +3.00176315512E-05 -2.44209072989E-07 -6.82988910216E-01 +6.80657073504E-01
1.05500000000E+09 -5.87897755375E-01 +7.55490962539E-01 +8.52519822353E-06 +3.02654998651E-05 -3.82133221544E-05 +1.84853599453E-05 -6.79565320718E-01 +6.84208067211E-01
1.06000000000E+09 -5.79755907146E-01 +7.60075852787E-01 +5.91215764410E-05 +7.07188010826E-05 -7.78934165879E-06 +2.79274007582E-05 -6.76011768979E-01 +6.87856747879E-01
1.06500000000E+09 -5.72077169606E-01 +7.64844971174E-01 +4.31523348337E-05 +7.27848054324E-06 +2.05140348243E-06 +1.34402845362E-05 -6.71966941060E-01 +6.91647144747E-01
1.07000000000E+09 -5.64816631837E-01 +7.68749404924E-01 +4.25610708986E-05 +5.63419967702E-05 +2.32682435971E-05 +5.43988703378E-05 -6.67645382427E-01 +6.95196918379E-01
1.07500000000E+09 -5.58358298184E-01 +7.72610043180E-01 +4.37760113842E-05 +5.85321777477E-05 +6.35975509361E-06 +6.20657408371E-05 -6.63183125504E-01 +6.98695103702E-01
1.08000000000E+09 -5.53367732164E-01 +7.75847098739E-01 +2.25955616778E-05 +2.67872791919E-05 +2.36595851114E-05 +2.01393026757E-05 -6.59029808276E-01 +7.02212966072E-01
1.08500000000E+09 -5.49196937191E-01 +7.78618112811E-01 +2.52241182457E-05 +2.82090936628E-05 +1.53174907128E-05 +1.50929893664E-06 -6.55099441362E-01 +7.05734913422E-01
1.09000000000E+09 -5.45510799739E-01 +7.81174077141E-01 +2.29846552607E-05 -1.36702334586E-06 +5.14951391799E-05 +4.87688025999E-05 -6.51113738037E-01 +7.09522384148E-01
1.09500000000E+09 -5.42366498736E-01 +7.83454932536E-01 +3.82373397013E-05 -2.25525804574E-05 +2.24777078487E-05 +3.70272639653E-05 -6.47355024119E-01 +7.13055410661E-01
1.10000000000E+09 -5.38452821675E-01 +7.85942060588E-01 +3.56143802777E-05 +6.20081745548E-05 +7.17418291516E-05 +4.51893639313E-05 -6.43097694645E-01 +7.16839335187E-01
1.10500000000E+09 -5.33807645600E-01 +7.88648361615E-01 +4.35466024846E-05 +1.88869506469E-05 +3.64942895921E-05 +2.10602046845E-06 -6.38607760471E-01 +7.20038452849E-01
1.11000000000E+09 -5.28375466191E-01 +7.91796940439E-01 +7.70651417980E-05 +5.36198495396E-05 +3.62289853876E-05 +2.29960337423E-05 -6.34425591883E-01 +7.23314185609E-01
1.11500000000E+09 -5.21866378719E-01 +7.95296117328E-01 +8.96906866806E-05 +4.83081121141E-05 +8.90521170871E-05 +3.65257777320E-05 -6.30342123010E-01 +7.26394926077E-01
1.12000000000E+09 -5.14927581658E-01 +7.98698656151E-01 +5.58080508748E-05 -1.45553031053E-05 +8.78988058110E-05 +2.63040825715E-05 -6.26094143862E-01 +7.29856587333E-01
1.12500000000E+09 -5.07376003993E-01 +8.02368716034E-01 +7.61475035657E-05 +5.39745813143E-05 +3.58208439952E-05 +2.89262163746E-05 -6.21755869008E-01 +7.33730854149E-01
1.13000000000E+09 -5.00256289794E-01 +8.05480349129E-01 +1.06405089530E-04 +9.33592835507E-06 +7.82957778522E-05 +1.08688607130E-05 -6.17150189937E-01 +7.37238704248E-01
1.13500000000E+09 -4.93306019262E-01 +8.07921268966E-01 +6.07442016482E-05 -1.04252749884E-05 +1.05127353178E-04 -3.41466074859E-05 -6.12328168307E-01 +7.40911685562E-01
1.14000000000E+09 -4.86679866770E-01 +8.10120511376E-01 +1.12858845224E-04 +7.15636939234E-06 +8.51106958155E-05 +6.00117312560E-06 -6.07417302395E-01 +7.44150707605E-01
1.14500000000E+09 -4.80979767667E-01 +8.11770625175E-01 +1.30262478014E-04 -8.83768927304E-06 +7.55664506278E-05 -1.78046821288E-05 -6.02614849118E-01 +7.47549919180E-01
1.15000000000E+09 -4.75440155176E-01 +8.13365372491E-01 +8.11225286407E-05 -4.27607085971E-05 +1.35058154438E-04 -5.33265768849E-05 -5.97690465829E-01 +7.51082892835E-01
1.15500000000E+09 -4.69920383165E-01 +8.15182137868E-01 +1.17012074498E-04 -3.97937058641E-05 +1.07960873880E-04 -4.97554896686E-05 -5.92788746058E-01 +7.54723933885E-01
1.16000000000E+09 -4.64246179843E-01 +8.17296895753E-01 +1.04020106445E-04 -3.43374055965E-05 +8.69259195633E-05 -5.10988301311E-05 -5.87750585223E-01 +7.58369733239E-01
1.16500000000E+09 -4.58018913382E-01 +8.19913818497E-01 +1.10472476212E-04 -8.89468311709E-05 +1.15882160513E-04 -8.69153543411E-05 -5.82719230920E-01 +7.61780785165E-01
1.17000000000E+09 -4.51212743520E-01 +8.22871943064E-01 +1.32146763620E-04 -5.55937680333E-05 +8.70066127917E-05 -8.79818375885E-05 -5.77246409445E-01 +7.64922984603E-01
1.17500000000E+09 -4.43762063787E-01 +8.25929074171E-01 +1.72604848662E-04 -8.06349002218E-05 +1.24027091430E-04 -5.77514173284E-05 -5.71495000702E-01 +7.67744240831E-01
1.18000000000E+09 -4.36231105987E-01 +8.29132082740E-01 +1.17878959460E-04 -1.29799883775E-04 +9.18775169965E-05 -1.19365099222E-04 -5.66022255765E-01 +7.70709222757E-01
1.18500000000E+09 -4.28248656639E-01 +8.32182107899E-01 +1.37805057346E-04 -1.46580992996E-04 +1.39516237536E-04 -1.82976287586E-04 -5.60171998578E-01 +7.73426540114E-01
1.19000000000E+09 -4.20280861750E-01 +8.34409593419E-01 +1.24660815383E-04 -1.59747623512E-04 +8.28654485045E-05 -2.37637163776E-04 -5.53996404649E-01 +7.75718035991E-01
1.19500000000E+09 -4.12778975432E-01 +8.36183473515E-01 +1.05866661145E-04 -2.34937693620E-04 +7.60569369737E-05 -3.16448248690E-04 -5.48146803294E-01 +7.76738612641E-01
1.20000000000E+09 -4.05513552818E-01 +8.36926142836E-01 +6.87034571976E-05 -2.81783218667E-04 -2.91836723760E-05 -2.98014998224E-04 -5.43418730389E-01 +7.76753685938E-01
1.20500000000E+09 -3.98651312803E-01 +8.37910508834E-01 -9.11360713080E-05 -2.65332251971E-04 -1.22364815388E-04 -2.29591284080E-04 -5.40986926629E-01 +7.77634379343E-01
1.21000000000E+09 -3.91587145110E-01 +8.39020906465E-01 -5.21429741704E-05 -1.60467405933E-04 -4.98289986329E-05 -1.92772373912E-04 -5.38827892104E-01 +7.80755302344E-01
1.21500000000E+09 -3.83876684403E-01 +8.40347495975E-01 -5.97635412132E-05 -1.55963774464E-04 -7.88674343808E-05 -1.69475019001E-04 -5.35636320480E-01 +7.85088377211E-01
1.22000000000E+09 -3.75631031472E-01 +8.42297397134E-01 -4.09334095696E-05 -1.44277008773E-04 -3.58354224280E-05 -1.61843750510E-04 -5.31307258187E-01 +7.90243854738E-01
1.22500000000E+09 -3.66939065913E-01 +8.44739851920E-01 -3.46893336544E-05 -1.58769277292E-04 -3.01417110721E-05 -1.95122992576E-04 -5.25964191158E-01 +7.94998682024E-01
1.23000000000E+09 -3.58012324277E-01 +8.47325405757E-01 -5.95320080336E-05 -1.85009445383E-04 -9.67109628989E-05 -1.81951786668E-04 -5.20214184389E-01 +7.99349105117E-01
1.23500000000E+09 -3.49355314735E-01 +8.50182646930E-01 -1.08523758444E-04 -2.10004426478E-04 -1.18191163132E-04 -2.18271549573E-04 -5.14195652058E-01 +8.03303883750E-01
1.24000000000E+09 -3.40807769853E-01 +8.53261360158E-01 -1.19845466841E-04 -2.44447399227E-04 -1.01514094064E-04 -2.12707300816E-04 -5.08145419634E-01 +8.06843004061E-01
1.24500000000E+09 -3.32805302425E-01 +8.56441679672E-01 -1.65650512878E-04 -1.81551583012E-04 -1.40972113186E-04 -1.88144995950E-04 -5.01934227261E-01 +8.10509111767E-01
1.25000000000E+09 -3.25081086923E-01 +8.58772975297E-01 -1.67088411671E-04 -2.15639330389E-04 -1.79935082570E-04 -1.79699912026E-04 -4.95367015573E-01 +8.14297466347E-01
1.25500000000E+09 -3.17385946279E-01 +8.60338128277E-01 -1.44915521799E-04 -1.77862348703E-04 -1.77182992365E-04 -2.19171753079E-04 -4.88445626971E-01 +8.17853921156E-01
1.26000000000E+09 -3.09668184238E-01 +8.61281360466E-01 -2.11149832655E-04 -1.86076549276E-04 -1.66567617263E-04 -2.29862691438E-04 -4.81929441935E-01 +8.21783230665E-01
1.26500000000E+09 -3.01623811520E-01 +8.61534555379E-01 -2.11947228061E-04 -2.47222514464E-04 -2.75970344596E-04 -2.33708823057E-04 -4.74926268758E-01 +8.25308465086E-01
1.27000000000E+09 -2.93027304988E-01 +8.61615451508E-01 -3.15097415357E-04 -2.45068214322E-04 -2.95595473326E-04 -2.13083390717E-04 -4.68094986458E-01 +8.28723440047E-01
1.27500000000E+09 -2.83451639850E-01 +8.61694481154E-01 -3.90677609203E-04 -1.83432211650E-04 -3.59026532998E-04 -2.11300109149E-04 -4.60862322846E-01 +8.32022616320E-01
1.28000000000E+09 -2.72901215823E-01 +8.62263300774E-01 -4.14911230901E-04 -1.51743581347E-04 -4.24000533120E-04 -1.95341560857E-04 -4.53779620934E-01 +8.35272674843E-01
1.28500000000E+09 -2.61526787631E-01 +8.63156109585E-01 -3.75345517052E-04 -1.25165684415E-04 -4.61059931897E-04 -1.39048820548E-04 -4.46343716481E-01 +8.38776148091E-01
1.29000000000E+09 -2.50386033761E-01 +8.64517044999E-01 -4.92094938041E-04 -7.91130832910E-05 -5.23334402980E-04 -5.67935109381E-05 -4.38689137964E-01 +8.42022721257E-01
1.29500000000E+09 -2.39456670041E-01 +8.66467198548E-01 -4.70573013782E-04 -1.14428793012E-04 -5.74027502649E-04 -4.48432332042E-05 -4.30795042850E-01 +8.45117323354E-01
1.30000000000E+09 -2.29219082286E-01 +8.68998551218E-01 -5.78160263366E-04 +8.43919101304E-07 -5.23462008578E-04 +5.25440579075E-05 -4.23179794832E-01 +8.48390171314E-01
1.30500000000E+09 -2.19485664074E-01 +8.71565519144E-01 -6.50627490281E-04 +6.33919066928E-05 -5.97202668877E-04 +1.31418499391E-04 -4.15041755439E-01 +8.51514303090E-01
1.31000000000E+09 -2.10447640094E-01 +8.73480227161E-01 -6.93822939304E-04 +1.98090666737E-04 -6.50934585670E-04 +1.52851437085E-04 -4.06720428854E-01 +8.54550915292E-01
1.31500000000E+09 -2.02169700096E-01 +8.74504071357E-01 -6.21267566716E-04 +3.22718925511E-04 -6.64081403116E-04 +2.71222144467E-04 -3.98072597632E-01 +8.57543425206E-01
1.32000000000E+09 -1.94128735265E-01 +8.74667875018E-01 -6.09456517307E-04 +3.56565536887E-04 -6.29095293209E-04 +3.31678046388E-04 -3.89001498234E-01 +8.60631853305E-01
1.32500000000E+09 -1.86057127048E-01 +8.73621480755E-01 -6.27723528573E-04 +3.65807267515E-04 -6.53933942720E-04 +4.07738682176E-04 -3.79663656348E-01 +8.63528091053E-01
1.33000000000E+09 -1.77170164624E-01 +8.72528503901E-01 -6.29568223773E-04 +4.42342146776E-04 -6.40548212472E-04 +5.34352655696E-04 -3.70242627763E-01 +8.66445867453E-01
1.33500000000E+09 -1.67048965124E-01 +8.70735233084E-01 -6.78514208423E-04 +6.05867937466E-04 -6.02973364758E-04 +6.57299271384E-04 -3.60701249144E-01 +8.69276237862E-01
1.34000000000E+09 -1.55340230568E-01 +8.69437810207E-01 -6.07689138164E-04 +7.39661367279E-04 -5.43602066110E-04 +7.03869507033E-04 -3.50731865036E-01 +8.72096858060E-01
1.34500000000E+09 -1.42254818414E-01 +8.68260788063E-01 -5.47608001575E-04 +8.22955755704E-04 -5.41498202099E-04 +8.17563020172E-04 -3.39812007101E-01 +8.74779154696E-01
1.35000000000E+09 -1.28154439035E-01 +8.67601771533E-01 -4.47671184939E-04 +9.66091939090E-04 -4.57672780129E-04 +8.98834384243E-04 -3.29064428126E-01 +8.77429447553E-01
1.35500000000E+09 -1.13514276699E-01 +8.67455159424E-01 -4.37458181789E-04 +9.99166345515E-04 -3.81051147212E-04 +1.02460682264E-03 -3.17619443019E-01 +8.79831612880E-01
1.36000000000E+09 -9.85277127162E-02 +8.67676786355E-01 -3.50102474303E-04 +1.08154130931E-03 -2.86183127548E-04 +1.11455082288E-03 -3.06116822745E-01 +8.81931654133E-01
1.36500000000E+09 -8.34447252068E-02 +8.67378267275E-01 -3.15779120224E-04 +1.23437642837E-03 -2.68258448691E-04 +1.19655205345E-03 -2.94349850705E-01 +8.84058558643E-01
1.37000000000E+09 -6.89734719703E-02 +8.66028413337E-01 -1.69375913025E-04 +1.44563326875E-03 -2.22034761698E-04 +1.34931195800E-03 -2.81920145782E-01 +8.85928448743E-01
1.37500000000E+09 -5.57341514472E-02 +8.63758974390E-01 +8.34202561529E-05 +1.53876116696E-03 -3.48764878386E-05 +1.51596216823E-03 -2.68345874902E-01 +8.87774338554E-01
1.38000000000E+09 -4.30898996495E-02 +8.60432649278E-01 +2.86605294517E-04 +1.54378970827E-03 +4.04925007007E-05 +1.66181119281E-03 -2.54067328950E-01 +8.89317418736E-01
1.38500000000E+09 -3.04494319320E-02 +8.56161811956E-01 +3.61279930193E-04 +1.67082587138E-03 +2.93593784313E-04 +1.93151993305E-03 -2.38991558888E-01 +8.90606776449E-01
1.39000000000E+09 -1.77539651054E-02 +8.51366498429E-01 +5.67729567984E-04 +1.73479499243E-03 +6.53141538725E-04 +2.01109563203E-03 -2.23627896110E-01 +8.91625966731E-01
1.39500000000E+09 -4.14394764426E-03 +8.46217735580E-01 +8.11956371181E-04 +1.89800017047E-03 +1.05949894227E-03 +2.06420058827E-03 -2.07825177048E-01 +8.92029263364E-01
1.40000000000E+09 +1.07269293676E-02 +8.40558520534E-01 +1.11147249193E-03 +2.09963362510E-03 +1.36667108886E-03 +1.99440835580E-03 -1.90973062949E-01 +8.91990432187E-01
1.40500000000E+09 +2.64998628012E-02 +8.34962407785E-01 +1.67224058555E-03 +2.17144330150E-03 +1.78633405934E-03 +2.03923821237E-03 -1.73115097891E-01 +8.91162949272E-01
1.41000000000E+09 +4.31372187505E-02 +8.29664439502E-01 +2.20507612896E-03 +1.90667208426E-03 +2.15196771494E-03 +1.87120709305E-03 -1.53728866796E-01 +8.90171074885E-01
1.41500000000E+09 +6.14814396739E-02 +8.24810670931E-01 +2.46657691426E-03 +1.66487270862E-03 +2.49550641108E-03 +1.83588146345E-03 -1.32903791244E-01 +8.88097253918E-01
1.42000000000E+09 +8.16201023572E-02 +8.19102773787E-01 +2.84454334488E-03 +1.50648829476E-03 +3.06943989178E-03 +1.72050475958E-03 -1.10851785930E-01 +8.84949002141E-01
1.42500000000E+09 +1.02552193433E-01 +8.11157202271E-01 +3.26582331498E-03 +1.34465241791E-03 +3.64607129824E-03 +1.32226622795E-03 -8.80919327732E-02 +8.80693593129E-01
1.43000000000E+09 +1.23650047491E-01 +8.00843891751E-01 +3.78204764042E-03 +1.24079372166E-03 +4.22272064517E-03 +9.66928301543E-04 -6.44983628553E-02 +8.75602923538E-01
1.43500000000E+09 +1.44649393724E-01 +7.87526158882E-01 +4.77983902351E-03 +7.26637970687E-04 +4.95393204671E-03 +2.58266711220E-04 -3.92760434092E-02 +8.68669340526E-01
1.44000000000E+09 +1.65485213064E-01 +7.72165807058E-01 +5.39123350909E-03 -4.51923719784E-04 +5.36760531777E-03 -7.94325381419E-04 -1.25520913704E-02 +8.59456959594E-01
1.44500000000E+09 +1.87331531889E-01 +7.54402173376E-01 +5.39947074737E-03 -1.60707856941E-03 +5.39082501034E-03 -1.86079990490E-03 +1.60977400620E-02 +8.47878854128E-01
1.45000000000E+09 +2.09687303560E-01 +7.34036807379E-01 +5.22748141790E-03 -2.37658598786E-03 +5.18875896008E-03 -2.72422549345E-03 +4.62996518278E-02 +8.33257878605E-01
1.45500000000E+09 +2.32969149126E-01 +7.11451962732E-01 +5.39539069013E-03 -3.06605942800E-03 +5.23267357510E-03 -3.51185319570E-03 +7.76516675871E-02 +8.15887658810E-01
1.46000000000E+09 +2.57365981959E-01 +6.86953459542E-01 +5.75336412977E-03 -4.12762806069E-03 +5.16155020317E-03 -4.43735280011E-03 +1.10746671000E-01 +7.94745597292E-01
1.46500000000E+09 +2.83297980395E-01 +6.60374627919E-01 +5.96225050098E-03 -5.60475200218E-03 +5.17144001171E-03 -5.49806412160E-03 +1.44797434828E-01 +7.68323290061E-01
1.47000000000E+09 +3.11145337528E-01 +6.30205757991E-01 +5.69569498002E-03 -7.81855658295E-03 +5.25613852025E-03 -7.17613402383E-03 +1.79758441390E-01 +7.35261566314E-01
1.47500000000E+09 +3.39398358983E-01 +5.94043516206E-01 +4.19949256038E-03 -1.02785535725E-02 +4.45721643161E-03 -9.68581475322E-03 +2.14165756613E-01 +6.94881659582E-01
1.48000000000E+09 +3.65536895466E-01 +5.50645272905E-01 +1.94975509449E-03 -1.16611382455E-02 +2.34822449121E-03 -1.17610561721E-02 +2.48283327564E-01 +6.47299372191E-01
1.48500000000E+09 +3.87325569619E-01 +4.99013165285E-01 +2.65979596923E-05 -1.29796993335E-02 -1.24871687445E-04 -1.33427097585E-02 +2.80119718068E-01 +5.90605604603E-01
1.49000000000E+09 +4.02917799806E-01 +4.39690110426E-01 -2.89553714721E-03 -1.46239531466E-02 -3.60708472596E-03 -1.44323815083E-02 +3.06976159957E-01 +5.23738764908E-01
1.49500000000E+09 +4.10955575213E-01 +3.72539678903E-01 -7.32620108130E-03 -1.53242603047E-02 -7.57100261532E-03 -1.43560918067E-02 +3.24484253617E-01 +4.46420452071E-01
1.50000000000E+09 +4.09799635383E-01 +2.97101341705E-01 -1.19390229253E-02 -1.42492732257E-02 -1.11826936971E-02 -1.34015726668E-02 +3.28977837532E-01 +3.59304922548E-01
1.50500000000E+09 +3.95820290785E-01 +2.14491657334E-01 -1.67140109161E-02 -1.18352473526E-02 -1.56205525805E-02 -1.19056374713E-02 +3.16749132069E-01 +2.64985882625E-01
1.51000000000E+09 +3.67058823349E-01 +1.28609334527E-01 -2.04936245537E-02 -7.06521762515E-03 -1.99638136819E-02 -7.77764197672E-03 +2.84080816226E-01 +1.66037497127E-01
1.51500000000E+09 +3.20176913486E-01 +4.24929278891E-02 -2.30844908185E-02 -2.23084286589E-03 -2.32378988806E-02 -2.91157100208E-03 +2.27365784764E-01 +7.13838922267E-02
1.52000000000E+09 +2.54207722130E-01 -3.48343929343E-02 -2.47868142090E-02 +4.46946403536E-03 -2.51636643182E-02 +4.16553962378E-03 +1.49708166483E-01 -1.04697773399E-02
1.52500000000E+09 +1.71986873445E-01 -9.88515530478E-02 -2.36411843063E-02 +1.32967403764E-02 -2.39294795740E-02 +1.32971072062E-02 +5.65279789156E-02 -7.53673750016E-02
1.53000000000E+09 +7.64680425175E-02 -1.44314588781E-01 -1.71619892688E-02 +2.01188651096E-02 -1.73447938524E-02 +2.02462636820E-02 -5.19542752197E-02 -1.17836653301E-01
1.53500000000E+09 -2.81125118709E-02 -1.68147126911E-01 -1.05591542936E-02 +2.32770801282E-02 -1.05194562311E-02 +2.32939903432E-02 -1.62730327283E-01 -1.33443403137E-01
1.54000000000E+09 -1.37451082203E-01 -1.67084918470E-01 -3.49827099380E-03 +2.42280710097E-02 -3.60876812183E-03 +2.39560738162E-02 -2.70913392011E-01 -1.26141562915E-01
1.54500000000E+09 -2.40168754571E-01 -1.41157617457E-01 +3.45005112998E-03 +2.34689937748E-02 +2.87284266395E-03 +2.32472737984E-02 -3.67694154084E-01 -9.81538723752E-02
1.55000000000E+09 -3.30727200137E-01 -9.88090301566E-02 +8.86965304974E-03 +1.97178316275E-02 +8.16044893215E-03 +2.00799041952E-02 -4.49759407605E-01 -5.65562035989E-02
1.55500000000E+09 -4.06903266943E-01 -4.46095214605E-02 +1.24759272738E-02 +1.58724660792E-02 +1.19742472902E-02 +1.67615040761E-02 -5.16891421666E-01 -6.43857144685E-03
1.56000000000E+09 -4.66812409189E-01 +1.34809148595E-02 +1.48445448758E-02 +1.12137887928E-02 +1.51015798460E-02 +1.22431729873E-02 -5.70063371836E-01 +4.86893665224E-02
1.56500000000E+09 -5.14905938090E-01 +7.22901860911E-02 +1.51015480784E-02 +6.54957643859E-03 +1.58961177630E-02 +7.22581064421E-03 -6.11107362041E-01 +1.05422263446E-01
1.57000000000E+09 -5.51685369920E-01 +1.31565352206E-01 +1.43286725036E-02 +3.29893183177E-03 +1.52729114737E-02 +3.40107341099E-03 -6.40859496370E-01 +1.61686515211E-01
