# Hz S RI R 50
! CMT, C1220, 16058040, 17.2.0/1
! Date: 14/08/2018 12:56:58
! Data: Format (Calibration Info)
! Freq                      S11: Re/Im (F2)                       S21: Re/Im (F2)                       S12: Re/Im (F2)                       S22: Re/Im (F2)            
1.00000000000E+09 -6.47518160305E-01 +7.12892880590E-01 +2.54593107441E-05 +3.84689533930E-05 -2.43887353034E-05 +2.40894227018E-06 -7.19145267442E-01 +6.45872049551E-01
1.00500000000E+09 -6.40845501012E-01 +7.17597999874E-01 +1.22309888735E-05 -6.13842324696E-06 +1.47789703679E-05 +3.37049520078E-05 -7.15337039059E-01 +6.49649743279E-01
1.01000000000E+09 -6.34903417775E-01 +7.22044834486E-01 +9.01229692485E-07 +6.20529619630E-05 -4.97580550390E-05 +3.70615319997E-05 -7.11614094851E-01 +6.53244922031E-01
1.01500000000E+09 -6.30124250777E-01 +7.25831657456E-01 +9.97156985664E-06 +3.68067934609E-05 -1.88808457974E-05 +3.12736236252E-05 -7.08189241842E-01 +6.56742592571E-01
1.02000000000E+09 -6.26232211076E-01 +7.29403304989E-01 -1.41252127987E-05 +3.27099577086E-05 -6.19962462168E-06 +5.65227320714E-07 -7.04732740081E-01 +6.60032682555E-01
1.02500000000E+09 -6.22746188688E-01 +7.32748534385E-01 +2.00000567292E-05 +1.63467058018E-05 -1.00717567955E-05 +1.00477884988E-05 -7.01668633838E-01 +6.63639505561E-01
1.03000000000E+09 -6.19802835133E-01 +7.35652230183E-01 -1.51850737696E-05 +4.12978982548E-05 -7.11158315970E-06 +4.88938257431E-05 -6.98000992391E-01 +6.67332432883E-01
1.03500000000E+09 -6.15971495376E-01 +7.38694213364E-01 +9.93459872852E-06 +1.18592482259E-05 -2.86826838689E-05 -3.75486669094E-05 -6.93965237259E-01 +6.71346173535E-01
1.04000000000E+09 -6.11352330999E-01 +7.41843696106E-01 -1.92383453355E-05 +8.91728980483E-05 -4.27855037419E-06 +3.54234859415E-05 -6.90011821152E-01 +6.74801059834E-01
1.04500000000E+09 -6.05789609711E-01 +7.45491144811E-01 -2.43880119506E-05 +3.61063741122E-05 +7.73603270734E-06 +9.43244991129E-05 -6.86184551392E-01 +6.78245044244E-01
1.05000000000E+09 -5.98867118047E-01 +7.49628143230E-01 +1.63288635303E-05 +1.37056238303E-06 +1.22742932803E-05 +2.27485403335E-05 -6.82587384367E-01 +6.81502795570E-01
1.05500000000E+09 -5.91417404868E-01 +7.54028520303E-01 -2.92571067180E-05 +2.72286389419E-06 +6.31606845026E-06 +1.85629671386E-05 -6.79332806909E-01 +6.84998755546E-01
1.06000000000E+09 -5.83187433355E-01 +7.58626516766E-01 +2.30664773719E-05 -3.22184386253E-05 +1.31003657433E-06 +2.78396677394E-05 -6.75576943673E-01 +6.88724909392E-01
1.06500000000E+09 -5.75330203446E-01 +7.63210820106E-01 +4.70813118019E-05 -6.01588069793E-06 +5.82898754453E-05 +3.87888526814E-05 -6.71679338837E-01 +6.92448266358E-01
1.07000000000E+09 -5.68111162336E-01 +7.67261820280E-01 +3.68385181852E-05 +3.14494426959E-05 +2.99176849849E-05 +2.69579336507E-05 -6.67267021459E-01 +6.95943482608E-01
1.07500000000E+09 -5.61935561467E-01 +7.71112649217E-01 -4.56549624679E-06 +2.19629302189E-05 -1.22810454995E-05 +6.58375082385E-05 -6.62764248297E-01 +6.99489313330E-01
1.08000000000E+09 -5.57063311292E-01 +7.74327066122E-01 +6.54883392944E-05 +8.36582356125E-05 +6.01791318984E-05 +3.27560601048E-05 -6.58708713085E-01 +7.03128519375E-01
1.08500000000E+09 -5.53231663705E-01 +7.76974955343E-01 +3.02708890615E-05 +1.52746296805E-06 +2.99287249275E-05 +3.02846277872E-05 -6.54853866616E-01 +7.06611547235E-01
1.09000000000E+09 -5.49868457208E-01 +7.79217390979E-01 +4.33136943607E-05 +1.13619442415E-05 +4.90294327994E-05 +4.23069173700E-05 -6.50844618924E-01 +7.10282758053E-01
1.09500000000E+09 -5.46938330762E-01 +7.81505961485E-01 +8.58375777524E-05 +2.72019354229E-05 -1.95440202621E-05 +1.87211035630E-05 -6.46993832809E-01 +7.14004296160E-01
1.10000000000E+09 -5.43312605058E-01 +7.83648469024E-01 +3.33424127213E-05 +4.00188657959E-05 +7.13518207286E-05 +1.53393311966E-05 -6.42812228975E-01 +7.17520268787E-01
1.10500000000E+09 -5.38961232000E-01 +7.86384292703E-01 +1.28830115244E-04 +2.65522481496E-05 +2.84096735937E-05 +6.06166863725E-05 -6.38270061328E-01 +7.20871187409E-01
1.11000000000E+09 -5.33672690597E-01 +7.89338042113E-01 +5.95552136193E-05 +3.48286968029E-05 -6.89831379039E-06 -4.32066684930E-05 -6.33894394152E-01 +7.24221669641E-01
1.11500000000E+09 -5.27373879580E-01 +7.92919838830E-01 +7.24583358469E-05 +4.06878468780E-05 +4.99835213889E-05 -9.22010110644E-06 -6.29831543943E-01 +7.27179786760E-01
1.12000000000E+09 -5.20393018015E-01 +7.96344048413E-01 +2.63321180860E-05 +1.75825860334E-05 +9.45783255671E-05 +2.07468370946E-05 -6.25728981995E-01 +7.30633205903E-01
1.12500000000E+09 -5.12691753714E-01 +7.99963674137E-01 +2.35466331129E-05 -6.55691317125E-06 +6.24722720956E-06 +3.78639713972E-05 -6.21327072119E-01 +7.34486022452E-01
1.13000000000E+09 -5.05412621310E-01 +8.03265222157E-01 +9.15850416560E-05 +3.31869725813E-05 +4.09344132815E-05 +1.79295904784E-05 -6.16759605716E-01 +7.38007635569E-01
1.13500000000E+09 -4.98629218512E-01 +8.05661211482E-01 +8.95901701506E-05 -4.35273378713E-05 +1.11023854790E-04 +4.22758663771E-05 -6.11936818372E-01 +7.41699055204E-01
1.14000000000E+09 -4.92304839573E-01 +8.08082668880E-01 +1.05514297385E-04 -3.37542405133E-06 +5.18549756839E-05 +4.60132467647E-06 -6.06964437596E-01 +7.44981963250E-01
1.14500000000E+09 -4.86859444303E-01 +8.09753905316E-01 +7.50807940078E-05 -4.28501100989E-05 +1.38194291147E-04 +2.83533045552E-06 -6.02223284850E-01 +7.48218463799E-01
1.15000000000E+09 -4.81571492534E-01 +8.11296786878E-01 +1.39772679645E-04 -6.21383336560E-05 +6.13130526835E-05 -2.99506618981E-05 -5.97262960463E-01 +7.51917745650E-01
1.15500000000E+09 -4.76735849751E-01 +8.13155973179E-01 +1.08504122910E-04 -3.02680248720E-05 +8.77299021755E-05 -1.15753545083E-05 -5.92370661439E-01 +7.55613725485E-01
1.16000000000E+09 -4.71173508412E-01 +8.15028344193E-01 +1.27663097304E-04 -2.98842019631E-05 +7.14807537625E-05 -1.74539328486E-05 -5.87395799105E-01 +7.59143601763E-01
1.16500000000E+09 -4.65347988237E-01 +8.17565159081E-01 +8.26035447473E-05 -5.35454236780E-05 +8.12054959687E-05 -5.09398436679E-05 -5.82288896288E-01 +7.62557811095E-01
1.17000000000E+09 -4.58938048306E-01 +8.20372429088E-01 +7.67328686654E-05 -6.89699374230E-05 +1.10445754094E-04 -3.03104908843E-05 -5.76804121291E-01 +7.65616741853E-01
1.17500000000E+09 -4.51784513303E-01 +8.23359456071E-01 +1.43608404090E-04 -6.95954017628E-05 +1.34507918641E-04 -6.33874215137E-05 -5.70973832550E-01 +7.68514323080E-01
1.18000000000E+09 -4.44310613432E-01 +8.26626888942E-01 +1.48764681102E-04 -6.67668191150E-05 +1.07828464891E-04 -1.37992212320E-04 -5.65502768246E-01 +7.71309337551E-01
1.18500000000E+09 -4.36496173012E-01 +8.29578309575E-01 +1.07160975590E-04 -1.22424767352E-04 +1.96710507230E-04 -1.32905539633E-04 -5.59660460166E-01 +7.74122057923E-01
1.19000000000E+09 -4.28779974758E-01 +8.31983667884E-01 +1.46267392067E-04 -1.77837296212E-04 +1.29669799143E-04 -1.83385853362E-04 -5.53486030895E-01 +7.76706367963E-01
1.19500000000E+09 -4.21476264416E-01 +8.33718408870E-01 +8.64535423833E-05 -1.96037246257E-04 +1.25421184594E-04 -3.13530777914E-04 -5.47650837794E-01 +7.77550406335E-01
1.20000000000E+09 -4.14369010292E-01 +8.34654841207E-01 -7.13165428236E-06 -2.80411847776E-04 +1.87640809231E-05 -2.91327255681E-04 -5.42981060540E-01 +7.77601008884E-01
1.20500000000E+09 -4.07861751337E-01 +8.35850831692E-01 -6.26005829895E-05 -1.99850888050E-04 -1.64748646891E-04 -2.09244750447E-04 -5.40465893821E-01 +7.78340496190E-01
1.21000000000E+09 -4.01222680144E-01 +8.37064465872E-01 -7.04333587120E-05 -1.56233132063E-04 -5.32599214685E-05 -1.66630542065E-04 -5.38237491214E-01 +7.81339568434E-01
1.21500000000E+09 -3.93901972278E-01 +8.38582971174E-01 -5.67371555191E-05 -1.40146978417E-04 -5.34937112782E-05 -1.54072127973E-04 -5.35167660931E-01 +7.85866330543E-01
1.22000000000E+09 -3.85970444255E-01 +8.40446485841E-01 -6.32734063361E-05 -1.55828339127E-04 +1.32799539754E-06 -1.71818154764E-04 -5.30834178272E-01 +7.90944901394E-01
1.22500000000E+09 -3.77810762349E-01 +8.42737413907E-01 -1.71137812468E-05 -1.83069663992E-04 -3.12098038688E-05 -1.92560392421E-04 -5.25473957350E-01 +7.95799118923E-01
1.23000000000E+09 -3.69221664661E-01 +8.45459150190E-01 -4.51636418922E-05 -1.94300882605E-04 -6.53618480538E-05 -2.12226404932E-04 -5.19687603623E-01 +8.00191290751E-01
1.23500000000E+09 -3.60744899173E-01 +8.48465311457E-01 -5.98866201772E-05 -1.88719140311E-04 -8.23606712370E-05 -1.74361560690E-04 -5.13716440108E-01 +8.04092449701E-01
1.24000000000E+09 -3.52452100929E-01 +8.51540614133E-01 -8.58934910692E-05 -2.03293522283E-04 -9.79260299500E-05 -1.74105487807E-04 -5.07618742723E-01 +8.07688522954E-01
1.24500000000E+09 -3.44678180957E-01 +8.54658155942E-01 -1.04512109734E-04 -2.36226269748E-04 -9.85573778743E-05 -1.92044853390E-04 -5.01362534739E-01 +8.11079160955E-01
1.25000000000E+09 -3.36935522041E-01 +8.57422337259E-01 -1.65492568478E-04 -2.44366679493E-04 -1.15710674421E-04 -1.94981814787E-04 -4.94762992892E-01 +8.15031095974E-01
1.25500000000E+09 -3.29531415682E-01 +8.59114084757E-01 -1.39230743166E-04 -1.75520404362E-04 -1.62813287263E-04 -1.95170855320E-04 -4.88048723625E-01 +8.18609138661E-01
1.26000000000E+09 -3.22010322460E-01 +8.60302745363E-01 -1.71172921667E-04 -2.21257058959E-04 -1.54220782538E-04 -2.53118486409E-04 -4.81233072649E-01 +8.22740698249E-01
1.26500000000E+09 -3.14286178717E-01 +8.60772964686E-01 -2.08291986737E-04 -2.54181501016E-04 -2.58321136613E-04 -1.80197731977E-04 -4.74323688981E-01 +8.26003599566E-01
1.27000000000E+09 -3.05868010586E-01 +8.61147329934E-01 -2.83009778989E-04 -2.43014640643E-04 -3.14247915061E-04 -2.36340044649E-04 -4.67388279267E-01 +8.29494706596E-01
1.27500000000E+09 -2.96898579069E-01 +8.61713258318E-01 -3.70009563641E-04 -1.97197391928E-04 -3.42179489979E-04 -2.32032943559E-04 -4.60348411975E-01 +8.32771885963E-01
1.28000000000E+09 -2.86844880200E-01 +8.62385871837E-01 -3.97951605121E-04 -1.56288722900E-04 -4.34572152014E-04 -2.00046078758E-04 -4.53236255481E-01 +8.35936247132E-01
1.28500000000E+09 -2.75711549256E-01 +8.63596004827E-01 -3.38512117275E-04 -1.03138853302E-04 -4.16688255593E-04 -1.18035246058E-04 -4.45713111985E-01 +8.39440135959E-01
1.29000000000E+09 -2.64770360082E-01 +8.65098009979E-01 -3.88311220140E-04 -1.50511679702E-04 -5.08881099668E-04 -1.05879014678E-04 -4.38104773957E-01 +8.42756342860E-01
1.29500000000E+09 -2.53965623771E-01 +8.67385372680E-01 -4.47910959133E-04 -1.50395036410E-04 -4.94269709449E-04 -3.14728969887E-05 -4.30316364393E-01 +8.45897189305E-01
1.30000000000E+09 -2.43696155809E-01 +8.70151258437E-01 -5.38670703006E-04 -6.87186138679E-05 -5.02446166650E-04 +7.78312398875E-07 -4.22582895363E-01 +8.49028247084E-01
1.30500000000E+09 -2.34353052579E-01 +8.72876437759E-01 -6.14053648827E-04 -2.07321608972E-05 -5.42645530174E-04 +3.82141542112E-07 -4.14458776859E-01 +8.52205165513E-01
1.31000000000E+09 -2.25424856742E-01 +8.75059545534E-01 -6.51850330194E-04 +1.03495053445E-04 -6.21731060387E-04 +1.63901186769E-04 -4.06060847812E-01 +8.55247625050E-01
1.31500000000E+09 -2.17350244774E-01 +8.76287431396E-01 -5.57727292845E-04 +2.28088028176E-04 -6.19815927300E-04 +2.38079682139E-04 -3.97376768548E-01 +8.58259752239E-01
1.32000000000E+09 -2.09811755160E-01 +8.76515493739E-01 -5.77105850966E-04 +2.99667729764E-04 -6.47163313431E-04 +2.53661468250E-04 -3.88452452084E-01 +8.61262500874E-01
1.32500000000E+09 -2.02057274429E-01 +8.75994893428E-01 -5.91629131111E-04 +2.90585061266E-04 -6.28724164927E-04 +3.84620639964E-04 -3.79090252030E-01 +8.64276199401E-01
1.33000000000E+09 -1.93719770087E-01 +8.75189298446E-01 -6.72718054247E-04 +4.22944794960E-04 -6.45150212305E-04 +4.31161475571E-04 -3.69730003483E-01 +8.67130802074E-01
1.33500000000E+09 -1.83915717498E-01 +8.73910807921E-01 -7.13300618116E-04 +5.35498320560E-04 -6.16194591501E-04 +5.83612742019E-04 -3.60001261618E-01 +8.70019598953E-01
1.34000000000E+09 -1.72550572925E-01 +8.73220502258E-01 -6.05350006360E-04 +6.50212700524E-04 -5.15362229341E-04 +6.61073829038E-04 -3.50039053251E-01 +8.72739424560E-01
1.34500000000E+09 -1.59608612880E-01 +8.72475188890E-01 -5.57762999488E-04 +7.46773087159E-04 -5.18509495028E-04 +7.09411572959E-04 -3.39215389100E-01 +8.75666170238E-01
1.35000000000E+09 -1.45661036379E-01 +8.72411448305E-01 -5.00168574148E-04 +8.74242687586E-04 -4.78638635370E-04 +8.28262649345E-04 -3.28260535207E-01 +8.78123189631E-01
1.35500000000E+09 -1.30846183076E-01 +8.72599470261E-01 -4.12159422671E-04 +9.41919566556E-04 -4.15624054772E-04 +8.91016767972E-04 -3.16926684611E-01 +8.80555361884E-01
1.36000000000E+09 -1.15854365685E-01 +8.73098528583E-01 -4.30873499465E-04 +9.93824234393E-04 -3.34526670340E-04 +1.01472854796E-03 -3.05387881065E-01 +8.82593619718E-01
1.36500000000E+09 -1.00694006549E-01 +8.73225564206E-01 -3.54732403941E-04 +1.17392552260E-03 -3.63852511903E-04 +1.09354446628E-03 -2.93509959063E-01 +8.84651226640E-01
1.37000000000E+09 -8.64244949477E-02 +8.72161520533E-01 -1.82245391440E-04 +1.37053336180E-03 -2.85181350906E-04 +1.25406807619E-03 -2.81083802821E-01 +8.86540662279E-01
1.37500000000E+09 -7.31506544834E-02 +8.70412355781E-01 +4.05626418803E-05 +1.47496187664E-03 -1.33024606581E-04 +1.38440702304E-03 -2.67567506879E-01 +8.88322492119E-01
1.38000000000E+09 -6.08287824835E-02 +8.67728082830E-01 +1.47286159652E-04 +1.47007012088E-03 -8.27592868113E-05 +1.52699551318E-03 -2.53152112122E-01 +8.89970185164E-01
1.38500000000E+09 -4.83232320496E-02 +8.64225166007E-01 +2.67114187272E-04 +1.56927034666E-03 +1.34719084967E-04 +1.79545762471E-03 -2.38240549474E-01 +8.91316006022E-01
1.39000000000E+09 -3.57965461018E-02 +8.60222011590E-01 +3.99309574621E-04 +1.69777804356E-03 +4.55344238589E-04 +1.94718070813E-03 -2.22878081222E-01 +8.92266888536E-01
1.39500000000E+09 -2.18618966118E-02 +8.55926851291E-01 +6.25111796747E-04 +1.83165617923E-03 +8.38570587863E-04 +2.00181578663E-03 -2.06752783876E-01 +8.92570415863E-01
1.40000000000E+09 -6.50379213477E-03 +8.51025945915E-01 +9.02365758175E-04 +2.01052135852E-03 +1.10203478619E-03 +2.03658643908E-03 -1.89996968696E-01 +8.92548212056E-01
1.40500000000E+09 +9.74554789232E-03 +8.46061532819E-01 +1.44545161914E-03 +2.15474363064E-03 +1.45572543055E-03 +2.05017919215E-03 -1.72195029257E-01 +8.91824972003E-01
1.41000000000E+09 +2.73819593515E-02 +8.41200403368E-01 +1.96447140778E-03 +1.94934825211E-03 +1.90193688515E-03 +1.90334443094E-03 -1.52827808945E-01 +8.90636495099E-01
1.41500000000E+09 +4.62785004635E-02 +8.36426504037E-01 +2.22219271671E-03 +1.75671597703E-03 +2.27357819748E-03 +1.92908066034E-03 -1.31998899038E-01 +8.88566430921E-01
1.42000000000E+09 +6.68484598817E-02 +8.30979932178E-01 +2.57072758949E-03 +1.61865296592E-03 +2.77875808898E-03 +1.85179789930E-03 -1.09876917126E-01 +8.85339515505E-01
1.42500000000E+09 +8.78763932339E-02 +8.23329174206E-01 +3.00588015718E-03 +1.46829667157E-03 +3.41370496877E-03 +1.53107686000E-03 -8.71687748329E-02 +8.81203373008E-01
1.43000000000E+09 +1.09136391878E-01 +8.13710290809E-01 +3.51397121212E-03 +1.40782988724E-03 +3.95076036642E-03 +1.21363090534E-03 -6.36655432531E-02 +8.76064267308E-01
1.43500000000E+09 +1.30146181829E-01 +8.01324276873E-01 +4.40893503320E-03 +9.75502196183E-04 +4.64209324507E-03 +5.90620594383E-04 -3.84513611744E-02 +8.68875303307E-01
1.44000000000E+09 +1.51215913614E-01 +7.87200032111E-01 +5.14025056593E-03 -6.39978352434E-05 +5.17223503249E-03 -4.13114081961E-04 -1.16002714142E-02 +8.59786909096E-01
1.44500000000E+09 +1.73623972025E-01 +7.70598347315E-01 +5.22529347493E-03 -1.17792772531E-03 +5.23878606087E-03 -1.46210696442E-03 +1.71908834507E-02 +8.48045256239E-01
1.45000000000E+09 +1.96981691061E-01 +7.51211595029E-01 +5.17055317981E-03 -1.89746694484E-03 +5.10396531208E-03 -2.28623216585E-03 +4.72455929238E-02 +8.33257993140E-01
1.45500000000E+09 +2.21646536019E-01 +7.29314166851E-01 +5.37728284082E-03 -2.57160576579E-03 +5.14182285054E-03 -3.07784211026E-03 +7.84612130577E-02 +8.15947557901E-01
1.46000000000E+09 +2.47667957758E-01 +7.04765428900E-01 +5.65475301832E-03 -3.56247473910E-03 +5.11480557329E-03 -3.93585325265E-03 +1.11548656605E-01 +7.94729230559E-01
1.46500000000E+09 +2.75202068267E-01 +6.77914470447E-01 +5.91017877451E-03 -4.97022499394E-03 +5.15845605279E-03 -4.86763569397E-03 +1.45694676720E-01 +7.68423276768E-01
1.47000000000E+09 +3.04660805253E-01 +6.47136806944E-01 +5.87126443789E-03 -6.94330968752E-03 +5.41981627056E-03 -6.37014486443E-03 +1.80538397212E-01 +7.35247691703E-01
1.47500000000E+09 +3.34274608908E-01 +6.10080597933E-01 +4.72375188461E-03 -9.37162755146E-03 +4.83155748517E-03 -8.83687008039E-03 +2.15005472866E-01 +6.94713995305E-01
1.48000000000E+09 +3.61594287206E-01 +5.65920170020E-01 +2.76764229521E-03 -1.09109555288E-02 +3.13434189131E-03 -1.09123393562E-02 +2.49003092020E-01 +6.46945775482E-01
1.48500000000E+09 +3.84567378619E-01 +5.13636353349E-01 +9.94621373021E-04 -1.23625234629E-02 +8.50010025876E-04 -1.27174083995E-02 +2.80532310030E-01 +5.90199177928E-01
1.49000000000E+09 +4.01493245696E-01 +4.53737152503E-01 -1.77889180084E-03 -1.40871073035E-02 -2.42661100076E-03 -1.40009858578E-02 +3.07131234567E-01 +5.23328815397E-01
1.49500000000E+09 +4.11063247571E-01 +3.85824187552E-01 -5.88131255671E-03 -1.50481224512E-02 -6.19091624132E-03 -1.41346583254E-02 +3.24300809525E-01 +4.46075087796E-01
1.50000000000E+09 +4.11408861271E-01 +3.09033328246E-01 -1.02997679464E-02 -1.44080854151E-02 -9.67983329711E-03 -1.36042583977E-02 +3.28626034067E-01 +3.59405814022E-01
1.50500000000E+09 +3.98610459634E-01 +2.24493158051E-01 -1.50720266388E-02 -1.25415434577E-02 -1.40405918497E-02 -1.24984591671E-02 +3.16295706922E-01 +2.65318280508E-01
1.51000000000E+09 +3.70639117439E-01 +1.35958392039E-01 -1.90616749566E-02 -8.30347691403E-03 -1.85465761268E-02 -8.92038493378E-03 +2.83786536825E-01 +1.66820241814E-01
1.51500000000E+09 +3.23729874866E-01 +4.67048210253E-02 -2.19731891573E-02 -3.74510469871E-03 -2.21134323794E-02 -4.32513542915E-03 +2.27173220589E-01 +7.21853703340E-02
1.52000000000E+09 +2.56775300964E-01 -3.36925430638E-02 -2.40617038208E-02 +2.55278532279E-03 -2.43612475225E-02 +2.30766659428E-03 +1.49617625990E-01 -9.39587879857E-03
1.52500000000E+09 +1.72816669865E-01 -1.00225348596E-01 -2.35276322341E-02 +1.11806765097E-02 -2.38093218022E-02 +1.11655055315E-02 +5.67494940308E-02 -7.41699166737E-02
1.53000000000E+09 +7.49095886581E-02 -1.47819327053E-01 -1.78577536743E-02 +1.80056018755E-02 -1.79741338023E-02 +1.80946403587E-02 -5.16559486630E-02 -1.16533649999E-01
1.53500000000E+09 -3.19148684317E-02 -1.72424590479E-01 -1.17681558169E-02 +2.16133286070E-02 -1.16791245513E-02 +2.16660597878E-02 -1.61810246151E-01 -1.32064547870E-01
1.54000000000E+09 -1.43110959480E-01 -1.71780735898E-01 -4.96053807394E-03 +2.30361193796E-02 -5.02728073955E-03 +2.27705554102E-02 -2.69808800139E-01 -1.25295015355E-01
1.54500000000E+09 -2.47765159682E-01 -1.45759064523E-01 +1.84088686680E-03 +2.28365395610E-02 +1.29949517854E-03 +2.25817217513E-02 -3.66775276847E-01 -9.74552811038E-02
1.55000000000E+09 -3.40218373615E-01 -1.02534072101E-01 +7.32850604381E-03 +1.94663357821E-02 +6.54699470097E-03 +1.96894650797E-02 -4.48702778355E-01 -5.58451423117E-02
1.55500000000E+09 -4.17369603028E-01 -4.70047008523E-02 +1.08879051427E-02 +1.58500569454E-02 +1.03819446840E-02 +1.67085349010E-02 -5.15794941313E-01 -5.83536780843E-03
1.56000000000E+09 -4.77992295554E-01 +1.21499285298E-02 +1.33904872921E-02 +1.16438854996E-02 +1.35873585837E-02 +1.26697120873E-02 -5.69003700882E-01 +4.89914970940E-02
1.56500000000E+09 -5.26511591263E-01 +7.19115913867E-02 +1.39580388971E-02 +7.31829566867E-03 +1.46610423406E-02 +7.99348158612E-03 -6.10164406900E-01 +1.05793360767E-01
1.57000000000E+09 -5.63417060250E-01 +1.31657564955E-01 +1.34836489707E-02 +4.10674465606E-03 +1.43927248818E-02 +4.35070499773E-03 -6.40101283011E-01 +1.61894824016E-01
