# Hz S RI R 50
! CMT, C1220, 16058040, 17.2.0/1
! Date: 14/08/2018 12:55:01
! Data: Format (Calibration Info)
! Freq                      S11: Re/Im (F2)                       S21: Re/Im (F2)                       S12: Re/Im (F2)                       S22: Re/Im (F2)            
1.00000000000E+09 -6.45989504376E-01 +7.13345923367E-01 -3.46235473780E-05 +1.23033488431E-05 -5.51590733460E-06 -3.38604434508E-05 -7.19208009411E-01 +6.45599833476E-01
1.00500000000E+09 -6.39566430589E-01 +7.17867969257E-01 -2.82898631784E-07 -2.79743777680E-06 +2.47607335033E-05 +2.87919243029E-05 -7.15353756498E-01 +6.49487187440E-01
1.01000000000E+09 -6.33882507276E-01 +7.22304456968E-01 +3.99747351332E-05 +1.48958115687E-05 +2.18140665810E-05 +1.81344700660E-05 -7.11634662078E-01 +6.53005983422E-01
1.01500000000E+09 -6.29110268677E-01 +7.26289024159E-01 -1.30699166527E-05 +2.84784136352E-05 +2.55769436217E-05 +6.22548277563E-06 -7.08176228373E-01 +6.56526306590E-01
1.02000000000E+09 -6.25112928588E-01 +7.29747158947E-01 -3.75030503483E-06 +2.40784561612E-05 -3.33695396142E-05 +3.96445381160E-06 -7.04776133496E-01 +6.59801315794E-01
1.02500000000E+09 -6.21509446786E-01 +7.33080053476E-01 -3.66378273270E-05 +5.13486365852E-05 +1.81507480662E-05 -3.60561891966E-05 -7.01679919246E-01 +6.63404442731E-01
1.03000000000E+09 -6.18283165947E-01 +7.36258316922E-01 +3.87081892485E-05 +8.14596110144E-06 -2.48715944722E-05 +5.53492116910E-05 -6.98025811545E-01 +6.67166003379E-01
1.03500000000E+09 -6.14202890723E-01 +7.39220295556E-01 +2.99408585973E-05 +2.09840505544E-05 +2.26222100082E-05 +1.70288630150E-05 -6.93961317224E-01 +6.71008900755E-01
1.04000000000E+09 -6.09517148528E-01 +7.42641487123E-01 +1.96979201893E-05 +4.97809841068E-05 +3.16472448013E-06 +1.03229946461E-05 -6.89922896844E-01 +6.74409795341E-01
1.04500000000E+09 -6.03540328048E-01 +7.46497356801E-01 +4.90787334684E-05 -1.95598868985E-05 -1.65559602411E-05 -2.62526997355E-05 -6.86221615398E-01 +6.78059615124E-01
1.05000000000E+09 -5.96585937506E-01 +7.50392470995E-01 -2.86622423781E-05 +3.39510077702E-05 +1.87846849106E-05 -3.62956828667E-05 -6.82728542877E-01 +6.81203613858E-01
1.05500000000E+09 -5.88654566334E-01 +7.54697926472E-01 -8.50181634433E-06 +2.49682659716E-05 -1.61827723152E-05 -2.84085453710E-05 -6.79308438762E-01 +6.84685024785E-01
1.06000000000E+09 -5.80655786437E-01 +7.59481870261E-01 +1.33884914847E-05 +2.91871405549E-05 +4.86709678191E-06 -7.91486636417E-06 -6.75648953516E-01 +6.88425642226E-01
1.06500000000E+09 -5.72848923093E-01 +7.64070061930E-01 +1.30482488937E-05 +1.45810065133E-05 +5.26477619633E-05 -2.54217442588E-05 -6.71720951283E-01 +6.92159778645E-01
1.07000000000E+09 -5.65483786049E-01 +7.68033231655E-01 +2.77606988901E-07 +4.87774467232E-06 -1.61516358060E-05 +4.95585718076E-06 -6.67414346270E-01 +6.95678693470E-01
1.07500000000E+09 -5.59506666315E-01 +7.71759564974E-01 +3.27161513192E-05 +2.10715706643E-05 -1.02006894640E-05 +5.37836809757E-05 -6.62902230932E-01 +6.99201778091E-01
1.08000000000E+09 -5.54477960949E-01 +7.75032763897E-01 +5.32847261101E-05 -9.56488321721E-06 -1.04948406189E-05 +3.15474516188E-05 -6.58775815535E-01 +7.02775628649E-01
1.08500000000E+09 -5.50557075040E-01 +7.77682134939E-01 +2.05617291658E-05 +4.91954051287E-05 +2.17918247089E-06 +1.27257973954E-05 -6.54809093906E-01 +7.06277828098E-01
1.09000000000E+09 -5.46797936017E-01 +7.80353699153E-01 +3.92584517166E-05 +5.43698530273E-05 +9.71543642374E-05 +1.65385168628E-05 -6.50827651506E-01 +7.10047468521E-01
1.09500000000E+09 -5.43768042251E-01 +7.82432320043E-01 +2.19581621335E-05 +4.02246373399E-06 +7.96292718890E-05 +7.83768061844E-06 -6.46933688881E-01 +7.13670988355E-01
1.10000000000E+09 -5.39684529409E-01 +7.84886654748E-01 +8.14612703818E-06 +5.10190484042E-05 +4.44418580113E-06 +3.72027746495E-05 -6.42774002886E-01 +7.17229169227E-01
1.10500000000E+09 -5.35139813591E-01 +7.87682938365E-01 +6.67672390050E-05 +5.27848648352E-05 +2.21368509563E-05 +2.95227666381E-05 -6.38445363014E-01 +7.20599738075E-01
1.11000000000E+09 -5.29701694314E-01 +7.90770454610E-01 +7.79308894594E-05 -7.41792722910E-06 +5.44879366461E-05 -4.54374296290E-06 -6.34019132205E-01 +7.23737547762E-01
1.11500000000E+09 -5.23269658785E-01 +7.94325097235E-01 +2.04612130788E-05 +6.16539589597E-06 +7.56867657836E-05 +3.14925215921E-05 -6.30066297085E-01 +7.26945641326E-01
1.12000000000E+09 -5.16327081658E-01 +7.97663304307E-01 +4.43829462921E-05 +3.42127972946E-05 +2.81785500292E-05 +2.22866570925E-05 -6.25832775527E-01 +7.30389264819E-01
1.12500000000E+09 -5.08981677510E-01 +8.01208277010E-01 +3.17945467749E-05 +1.48761388403E-05 +7.09012608129E-05 +1.58679204813E-06 -6.21428584238E-01 +7.34199441461E-01
1.13000000000E+09 -5.01731886941E-01 +8.04348365986E-01 +7.33254909497E-05 -2.47585969417E-06 +5.98143467035E-05 -3.66276146313E-05 -6.16803065643E-01 +7.37824597694E-01
1.13500000000E+09 -4.94813828528E-01 +8.06738148088E-01 +7.95049247991E-05 -4.24384492554E-05 +1.02896416889E-04 -1.13096669315E-05 -6.12052300823E-01 +7.41404050882E-01
1.14000000000E+09 -4.88411607729E-01 +8.08959794199E-01 +8.04477042275E-05 +1.16142928988E-05 +1.04120042210E-04 -8.58769331403E-07 -6.07048346643E-01 +7.44663960239E-01
1.14500000000E+09 -4.82840115954E-01 +8.10710343484E-01 +5.27337411520E-05 -2.41903949267E-05 +7.87459640270E-05 -3.56549507621E-05 -6.02303227783E-01 +7.47919199663E-01
1.15000000000E+09 -4.77377390705E-01 +8.12390287730E-01 +9.93672213106E-05 -2.91173146449E-05 +3.44221086906E-05 +1.40176960085E-05 -5.97563961943E-01 +7.51587409370E-01
1.15500000000E+09 -4.71954743721E-01 +8.14283072439E-01 +6.58462922198E-05 -4.96417502998E-05 +1.34100381353E-04 +5.65192621548E-05 -5.92605985659E-01 +7.55344122580E-01
1.16000000000E+09 -4.66424309080E-01 +8.16056627964E-01 +8.64728663712E-05 -7.23473495300E-05 +1.23228657374E-04 -2.58882060278E-05 -5.87714808942E-01 +7.58867474487E-01
1.16500000000E+09 -4.60277368391E-01 +8.18871732854E-01 +4.84130277782E-05 +1.39894187200E-06 +7.88562162848E-05 -5.16513307666E-05 -5.82514044836E-01 +7.62264368693E-01
1.17000000000E+09 -4.53442524560E-01 +8.21649548633E-01 +9.22725504339E-05 -5.51761500985E-05 +9.36488264234E-05 -9.46310443408E-05 -5.76778657865E-01 +7.65406440457E-01
1.17500000000E+09 -4.46258379288E-01 +8.24748777700E-01 +8.58425088739E-05 -1.86926223045E-05 +1.37849534278E-04 -2.26420697945E-05 -5.71094623723E-01 +7.68430564918E-01
1.18000000000E+09 -4.38723646478E-01 +8.27947581184E-01 +1.12154672902E-04 -7.57832111025E-05 +7.31797592147E-05 -1.01093123175E-04 -5.65856952009E-01 +7.71186631752E-01
1.18500000000E+09 -4.30907281392E-01 +8.30706698475E-01 +1.39837966312E-04 -1.72734016484E-04 +1.06928523559E-04 -1.07011392196E-04 -5.59734059207E-01 +7.73998473065E-01
1.19000000000E+09 -4.23154836381E-01 +8.33017434742E-01 +1.14543320916E-04 -1.71291409705E-04 +9.78066714068E-05 -1.99415580467E-04 -5.53698040856E-01 +7.76265268182E-01
1.19500000000E+09 -4.15566238792E-01 +8.34775798516E-01 +1.14224142599E-04 -2.26460755523E-04 +8.92327933116E-05 -2.75266792966E-04 -5.47755933738E-01 +7.77425790024E-01
1.20000000000E+09 -4.08403946236E-01 +8.35588131194E-01 +8.38611736398E-06 -2.67660885698E-04 -1.28143594816E-05 -2.43469024856E-04 -5.43041321103E-01 +7.77515681557E-01
1.20500000000E+09 -4.01714781168E-01 +8.36607049939E-01 -1.06106504539E-04 -2.32873376011E-04 -1.13960265983E-04 -2.13410018247E-04 -5.40505465071E-01 +7.78212078201E-01
1.21000000000E+09 -3.94765803214E-01 +8.37686683151E-01 -1.17017823081E-04 -1.55201338728E-04 -1.17464284901E-04 -1.68967629998E-04 -5.38408777305E-01 +7.81174875570E-01
1.21500000000E+09 -3.87257976752E-01 +8.39145774024E-01 +1.01589074161E-05 -1.28446800623E-04 -7.57170799906E-05 -1.00245546633E-04 -5.35310949063E-01 +7.85646894964E-01
1.22000000000E+09 -3.79012117027E-01 +8.41044164784E-01 -2.44030325419E-05 -8.72242389460E-05 -1.25149425693E-05 -9.09053589108E-05 -5.30858350537E-01 +7.90659197550E-01
1.22500000000E+09 -3.70409275355E-01 +8.43378444356E-01 -4.30712625550E-05 -1.45118498768E-04 -5.28553615671E-05 -1.52357076359E-04 -5.25700040294E-01 +7.95531514488E-01
1.23000000000E+09 -3.61706177249E-01 +8.46237971945E-01 -4.53253596985E-05 -1.78572350845E-04 -9.12047841561E-05 -1.75579650559E-04 -5.19920066115E-01 +7.99905517443E-01
1.23500000000E+09 -3.53191205120E-01 +8.49026637543E-01 -6.70971919077E-05 -1.51313311745E-04 -3.87641951138E-05 -1.20884569309E-04 -5.13905139990E-01 +8.04012745059E-01
1.24000000000E+09 -3.44697592315E-01 +8.51975533948E-01 -3.98778986970E-05 -1.71501826619E-04 -1.31566317098E-04 -1.54442365692E-04 -5.07879801395E-01 +8.07388374871E-01
1.24500000000E+09 -3.36926002952E-01 +8.55146886503E-01 -1.58287971366E-04 -1.91238036331E-04 -1.35225765602E-04 -1.29861499214E-04 -5.01548457767E-01 +8.10879656213E-01
1.25000000000E+09 -3.29167226789E-01 +8.57623138926E-01 -9.32345191666E-05 -1.83744421711E-04 -1.20879116160E-04 -1.81790902650E-04 -4.94893280335E-01 +8.14832550815E-01
1.25500000000E+09 -3.21541406332E-01 +8.59232549132E-01 -1.59464722733E-04 -1.67598076007E-04 -7.55316712673E-05 -1.49025704989E-04 -4.88276881675E-01 +8.18521991152E-01
1.26000000000E+09 -3.13931837592E-01 +8.60248063537E-01 -1.51819930698E-04 -2.37432582603E-04 -1.56564309000E-04 -1.82152396294E-04 -4.81389686205E-01 +8.22296353497E-01
1.26500000000E+09 -3.06041215644E-01 +8.60525999977E-01 -2.24882218894E-04 -2.16439888859E-04 -2.17531160555E-04 -2.08118873285E-04 -4.74389998851E-01 +8.25796424166E-01
1.27000000000E+09 -2.97541313210E-01 +8.60581683792E-01 -2.36542190400E-04 -2.42234852287E-04 -2.51084328874E-04 -2.12457840811E-04 -4.67564332707E-01 +8.29284690300E-01
1.27500000000E+09 -2.88092838597E-01 +8.60863339279E-01 -3.07558543743E-04 -1.89998807564E-04 -2.67297568922E-04 -1.64557213564E-04 -4.60470885963E-01 +8.32539893372E-01
1.28000000000E+09 -2.77800961271E-01 +8.61493690199E-01 -3.14493149578E-04 -1.39380690918E-04 -3.55526871816E-04 -1.67412923713E-04 -4.53222251431E-01 +8.35734763531E-01
1.28500000000E+09 -2.66547500911E-01 +8.62482526505E-01 -3.41111841457E-04 -1.13075486936E-04 -3.89838306966E-04 -1.31733844214E-04 -4.45821927707E-01 +8.39272207321E-01
1.29000000000E+09 -2.55447794611E-01 +8.63990845511E-01 -3.50996353482E-04 -1.13636645620E-04 -4.29309027944E-04 -9.60649323104E-05 -4.38153974680E-01 +8.42674921350E-01
1.29500000000E+09 -2.44631601697E-01 +8.65942538730E-01 -3.67020578629E-04 -9.72385680776E-05 -4.68902907392E-04 -4.07978848502E-05 -4.30417792700E-01 +8.45620676627E-01
1.30000000000E+09 -2.34375462599E-01 +8.68608730720E-01 -4.93435453898E-04 -1.11303025230E-04 -4.91892808010E-04 +8.13098738502E-06 -4.22481006617E-01 +8.48749938053E-01
1.30500000000E+09 -2.25059193019E-01 +8.71202035311E-01 -5.44934192032E-04 +1.37212460825E-05 -5.02195810305E-04 -1.16647882570E-05 -4.14425302920E-01 +8.52017890074E-01
1.31000000000E+09 -2.16173551506E-01 +8.73269963604E-01 -5.65669184140E-04 +1.13986286297E-04 -5.20051812854E-04 +6.54962006568E-05 -4.06081198259E-01 +8.55085694287E-01
1.31500000000E+09 -2.07900348181E-01 +8.74347513881E-01 -5.79925149814E-04 +2.29028068656E-04 -5.61868387489E-04 +2.32593868260E-04 -3.97456255769E-01 +8.58033060303E-01
1.32000000000E+09 -1.99928787523E-01 +8.74538985003E-01 -4.97449629639E-04 +2.52504798935E-04 -5.30714612133E-04 +1.96906091154E-04 -3.88454708692E-01 +8.61229528869E-01
1.32500000000E+09 -1.92162426319E-01 +8.73633832984E-01 -5.17667427416E-04 +2.61496759188E-04 -5.88358680967E-04 +3.09264876560E-04 -3.79059176096E-01 +8.64064614214E-01
1.33000000000E+09 -1.83346189575E-01 +8.72606937142E-01 -6.00994610920E-04 +3.25480484812E-04 -5.50435815591E-04 +4.07268360496E-04 -3.69646617670E-01 +8.67006864792E-01
1.33500000000E+09 -1.73402295466E-01 +8.71091952368E-01 -5.82809322956E-04 +4.37277533542E-04 -5.66466634044E-04 +5.35379887900E-04 -3.60037966569E-01 +8.69647242058E-01
1.34000000000E+09 -1.61982420129E-01 +8.69974214811E-01 -5.75097064844E-04 +5.82304098955E-04 -5.04550526230E-04 +5.53574832137E-04 -3.50031937015E-01 +8.72538036061E-01
1.34500000000E+09 -1.49042747260E-01 +8.69023295025E-01 -5.21139477686E-04 +6.78880259564E-04 -4.86571525400E-04 +6.61379017451E-04 -3.39204956895E-01 +8.75238404825E-01
1.35000000000E+09 -1.35106065297E-01 +8.68500765235E-01 -4.34719664840E-04 +7.68347827551E-04 -4.50386308353E-04 +7.44286250365E-04 -3.28343444642E-01 +8.77862158455E-01
1.35500000000E+09 -1.20431743667E-01 +8.68568709491E-01 -3.69954153922E-04 +8.18650519079E-04 -3.86181218174E-04 +8.22112731498E-04 -3.16923557045E-01 +8.80126959347E-01
1.36000000000E+09 -1.05489130140E-01 +8.69020418115E-01 -4.21420045264E-04 +9.03733080347E-04 -3.40299817526E-04 +9.12251593693E-04 -3.05288565370E-01 +8.82235884475E-01
1.36500000000E+09 -9.02936221964E-02 +8.69052445908E-01 -3.21578008127E-04 +1.07320713064E-03 -2.95310586289E-04 +9.44408082252E-04 -2.93515195535E-01 +8.84199975331E-01
1.37000000000E+09 -7.58366391074E-02 +8.67703147094E-01 -2.03894448878E-04 +1.22527296579E-03 -2.74279668365E-04 +1.10508658662E-03 -2.81053282595E-01 +8.86119140292E-01
1.37500000000E+09 -6.24511495435E-02 +8.65587734797E-01 +1.32996265439E-05 +1.31217497284E-03 -1.36400825878E-04 +1.24287103995E-03 -2.67636178835E-01 +8.87893302565E-01
1.38000000000E+09 -4.98462316882E-02 +8.62558377959E-01 +1.24898928297E-04 +1.32739051858E-03 -4.71643861914E-05 +1.41619864903E-03 -2.53354816386E-01 +8.89405031000E-01
1.38500000000E+09 -3.71815217037E-02 +8.58661272164E-01 +2.75898577835E-04 +1.44186457140E-03 +1.28918881659E-04 +1.63729850749E-03 -2.38379552900E-01 +8.90628719577E-01
1.39000000000E+09 -2.45544391064E-02 +8.54221632303E-01 +4.20673817222E-04 +1.52485527555E-03 +4.99964189936E-04 +1.75141354290E-03 -2.23114289538E-01 +8.91580854716E-01
1.39500000000E+09 -1.08352621702E-02 +8.49268250764E-01 +6.42789521067E-04 +1.60559773302E-03 +8.00771655680E-04 +1.71866336732E-03 -2.07079379194E-01 +8.91744622075E-01
1.40000000000E+09 +4.10779444066E-03 +8.43827116744E-01 +8.50341422548E-04 +1.80448448464E-03 +1.01486114901E-03 +1.75360220623E-03 -1.90391199829E-01 +8.91847063903E-01
1.40500000000E+09 +1.97465848942E-02 +8.38572481037E-01 +1.30760736953E-03 +1.87958675508E-03 +1.33515185006E-03 +1.77234412774E-03 -1.72626700137E-01 +8.91057794451E-01
1.41000000000E+09 +3.65927766058E-02 +8.33526052620E-01 +1.78561983127E-03 +1.70289612854E-03 +1.69824070443E-03 +1.64655291159E-03 -1.53409449916E-01 +8.89927350707E-01
1.41500000000E+09 +5.47905455193E-02 +8.28903005281E-01 +2.00579863206E-03 +1.54491773141E-03 +2.02344433314E-03 +1.65618578219E-03 -1.32607893134E-01 +8.87714393616E-01
1.42000000000E+09 +7.50801206076E-02 +8.23394221754E-01 +2.27994640290E-03 +1.39999850056E-03 +2.42386981890E-03 +1.58273805949E-03 -1.10744276012E-01 +8.84643765348E-01
1.42500000000E+09 +9.60540601980E-02 +8.16074867954E-01 +2.65019530104E-03 +1.31159364605E-03 +3.00237938615E-03 +1.32572253746E-03 -8.81966928469E-02 +8.80399166183E-01
1.43000000000E+09 +1.17578029612E-01 +8.05964544238E-01 +3.10658431620E-03 +1.19727179123E-03 +3.46485426928E-03 +1.00642005665E-03 -6.47340456727E-02 +8.75359071200E-01
1.43500000000E+09 +1.38637466112E-01 +7.93113315179E-01 +3.97301388668E-03 +8.38052849460E-04 +4.13891841731E-03 +4.32470649897E-04 -3.97186126719E-02 +8.68459752672E-01
1.44000000000E+09 +1.59920209763E-01 +7.78389865086E-01 +4.57312117146E-03 -2.12069815565E-04 +4.48880050113E-03 -5.35409604135E-04 -1.31224948358E-02 +8.59495169285E-01
1.44500000000E+09 +1.82060455075E-01 +7.61009903826E-01 +4.43826026157E-03 -1.16845020693E-03 +4.39439929073E-03 -1.39073368488E-03 +1.53727308772E-02 +8.48035871702E-01
1.45000000000E+09 +2.05114317444E-01 +7.41129901544E-01 +4.36070864536E-03 -1.62084740451E-03 +4.34956308168E-03 -1.92033750911E-03 +4.55207036734E-02 +8.33685170809E-01
1.45500000000E+09 +2.29064917767E-01 +7.18981036970E-01 +4.60665540259E-03 -2.24408230032E-03 +4.44746928175E-03 -2.62468189099E-03 +7.67197155555E-02 +8.16462987842E-01
1.46000000000E+09 +2.54148762426E-01 +6.94474233669E-01 +5.01871800751E-03 -3.04160834570E-03 +4.47551000689E-03 -3.41220594583E-03 +1.09862782171E-01 +7.95564732197E-01
1.46500000000E+09 +2.80755510710E-01 +6.68055660316E-01 +5.16417073977E-03 -4.37436245412E-03 +4.49275229435E-03 -4.30246947923E-03 +1.43763642458E-01 +7.69339172543E-01
1.47000000000E+09 +3.09341386473E-01 +6.37935163179E-01 +5.13378181983E-03 -6.14486793285E-03 +4.68190939203E-03 -5.69661989100E-03 +1.78600903565E-01 +7.36957389253E-01
1.47500000000E+09 +3.38608299865E-01 +6.01801358575E-01 +3.90212535475E-03 -8.20011742116E-03 +4.06669152566E-03 -7.69172550501E-03 +2.13301846279E-01 +6.97141388077E-01
1.48000000000E+09 +3.65862960978E-01 +5.58053919986E-01 +2.20819325961E-03 -9.44627165884E-03 +2.50507347746E-03 -9.48975370005E-03 +2.47751819229E-01 +6.49978805435E-01
1.48500000000E+09 +3.88840062086E-01 +5.05866294320E-01 +6.49677354117E-04 -1.05982681202E-02 +4.99314404638E-04 -1.08524417811E-02 +2.79920341065E-01 +5.93688769481E-01
1.49000000000E+09 +4.05473773965E-01 +4.45573836814E-01 -1.53642760039E-03 -1.20199032970E-02 -2.11134120355E-03 -1.19420394416E-02 +3.07430989550E-01 +5.27294102383E-01
1.49500000000E+09 +4.14781580338E-01 +3.77616344563E-01 -5.08142248324E-03 -1.28548015943E-02 -5.33524774804E-03 -1.21024467061E-02 +3.25912705076E-01 +4.50235704028E-01
1.50000000000E+09 +4.14561921546E-01 +3.00604169303E-01 -8.73325909769E-03 -1.22881659345E-02 -8.21018540330E-03 -1.15688274008E-02 +3.31622526976E-01 +3.63342954345E-01
1.50500000000E+09 +4.01483984542E-01 +2.16225746117E-01 -1.27410487266E-02 -1.08076308844E-02 -1.18554410204E-02 -1.07400597909E-02 +3.20770532553E-01 +2.68324448650E-01
1.51000000000E+09 +3.73008369208E-01 +1.27856163518E-01 -1.64134019300E-02 -7.36094598530E-03 -1.59400048921E-02 -7.98447533444E-03 +2.88913557121E-01 +1.68626135099E-01
1.51500000000E+09 +3.25572590069E-01 +3.91026915860E-02 -1.90031364546E-02 -2.96378338183E-03 -1.90798394915E-02 -3.51568727840E-03 +2.33566178424E-01 +7.27585593419E-02
1.52000000000E+09 +2.58068186170E-01 -4.08359789161E-02 -2.03845814253E-02 +2.27598644724E-03 -2.06934607132E-02 +2.03167501030E-03 +1.56145821782E-01 -1.14178764975E-02
1.52500000000E+09 +1.73386458572E-01 -1.06930056561E-01 -1.98303485742E-02 +9.42356549751E-03 -2.00991318176E-02 +9.38086340088E-03 +6.22164127095E-02 -7.80749173991E-02
1.53000000000E+09 +7.40841325743E-02 -1.53241749478E-01 -1.51058359650E-02 +1.50079762652E-02 -1.51945137353E-02 +1.50766562657E-02 -4.74177251648E-02 -1.21932775463E-01
1.53500000000E+09 -3.33736218521E-02 -1.75984431497E-01 -1.03218665347E-02 +1.79223751296E-02 -1.03044633128E-02 +1.79470266657E-02 -1.59778508790E-01 -1.38784365440E-01
1.54000000000E+09 -1.44382531395E-01 -1.73638171520E-01 -4.87724410781E-03 +1.95740869227E-02 -4.95986553264E-03 +1.93689849833E-02 -2.69883552367E-01 -1.31665083898E-01
1.54500000000E+09 -2.48697489270E-01 -1.46245433392E-01 +1.26270410388E-03 +1.95867898459E-02 +7.97563425983E-04 +1.93531926688E-02 -3.68669223255E-01 -1.03267636670E-01
1.55000000000E+09 -3.40224501163E-01 -1.01852886461E-01 +5.92532397575E-03 +1.66607030444E-02 +5.24092211702E-03 +1.68894168473E-02 -4.51824425908E-01 -6.05430657592E-02
1.55500000000E+09 -4.16362056132E-01 -4.57461490533E-02 +8.87629243405E-03 +1.37908939784E-02 +8.40789894619E-03 +1.44919139348E-02 -5.19626832320E-01 -9.23447110858E-03
1.56000000000E+09 -4.76046873423E-01 +1.36733077810E-02 +1.12940588866E-02 +1.03836530473E-02 +1.14186062897E-02 +1.12001233538E-02 -5.72810373329E-01 +4.67805165410E-02
1.56500000000E+09 -5.23370696646E-01 +7.41270247201E-02 +1.18738320627E-02 +6.36074115838E-03 +1.25002972230E-02 +6.94537044237E-03 -6.14106129282E-01 +1.04234531384E-01
1.57000000000E+09 -5.58649865830E-01 +1.33906777733E-01 +1.12908126951E-02 +3.77225619255E-03 +1.20600970033E-02 +3.88125841123E-03 -6.43903098387E-01 +1.61527050560E-01
