# Hz S RI R 50
! CMT, C1220, 16058040, 17.2.0/1
! Date: 15/08/2018 12:29:30
! Data: Format (Calibration Info)
! Freq                      S11: Re/Im (F2)                       S21: Re/Im (F2)                       S12: Re/Im (F2)                       S22: Re/Im (F2)            
4.00000000000E+09 +6.59740513636E-01 -3.58160717534E-01 -1.89067139435E-04 -5.90965633490E-04 -1.88284623364E-04 -5.75916542105E-04 +7.83289004290E-01 -3.17987169034E-01
4.00500000000E+09 +6.52115694529E-01 -3.64786747315E-01 -1.06341648874E-04 -4.68154327469E-04 -1.24111419198E-04 -4.89887214980E-04 +7.74932357104E-01 -3.29721217637E-01
4.01000000000E+09 +6.43437728595E-01 -3.71078536821E-01 -2.16678300010E-04 -6.62006738866E-04 -1.69712549133E-04 -6.47801114107E-04 +7.66036806470E-01 -3.41648381356E-01
4.01500000000E+09 +6.34203402747E-01 -3.77584864554E-01 -3.82613425116E-04 -5.54950579998E-04 -3.47857615230E-04 -5.26232143595E-04 +7.57260806341E-01 -3.52568905099E-01
4.02000000000E+09 +6.24066119727E-01 -3.85576564505E-01 -3.11896670613E-04 -4.74520682883E-04 -2.64331608560E-04 -4.73279895320E-04 +7.48194317415E-01 -3.63449399205E-01
4.02500000000E+09 +6.13419036990E-01 -3.94701466966E-01 -3.31235566497E-04 -5.08110952032E-04 -3.05196153832E-04 -4.39331305584E-04 +7.38362500879E-01 -3.73337249746E-01
4.03000000000E+09 +6.01890969577E-01 -4.04297534571E-01 -4.31968539789E-04 -6.38119192804E-04 -3.73475198020E-04 -6.63894937248E-04 +7.28459951960E-01 -3.83556951577E-01
4.03500000000E+09 +5.91126439912E-01 -4.14250557645E-01 -5.24876901469E-04 -5.16208375402E-04 -5.08149663447E-04 -5.75038724866E-04 +7.17480553226E-01 -3.94450136112E-01
4.04000000000E+09 +5.80094490553E-01 -4.24845673730E-01 -7.76951227817E-04 -4.76833593684E-04 -6.39935733337E-04 -5.07045578581E-04 +7.06673833190E-01 -4.05477878217E-01
4.04500000000E+09 +5.68453806621E-01 -4.34542340256E-01 -6.98753782980E-04 -2.67485389759E-04 -6.34966798443E-04 -3.25769850068E-04 +6.96107119234E-01 -4.16622994418E-01
4.05000000000E+09 +5.57090978868E-01 -4.42174220239E-01 -7.06048522499E-04 -1.81856126181E-04 -6.54701226552E-04 -2.88536602059E-04 +6.85102882689E-01 -4.27376455003E-01
4.05500000000E+09 +5.45550815278E-01 -4.49068512228E-01 -6.41986481513E-04 -2.20273553064E-04 -6.20656809900E-04 -2.81883125130E-04 +6.73870419108E-01 -4.36845487496E-01
4.06000000000E+09 +5.32927263577E-01 -4.54179238578E-01 -6.99816344847E-04 -2.21590946533E-04 -6.72118144256E-04 -3.17050660757E-04 +6.62606413925E-01 -4.46262105371E-01
4.06500000000E+09 +5.20675389883E-01 -4.58240283713E-01 -8.20115242166E-04 -2.57235615744E-04 -7.63226397271E-04 -3.16825471078E-04 +6.49932374576E-01 -4.55282168719E-01
4.07000000000E+09 +5.06826646288E-01 -4.63253729946E-01 -9.47591429104E-04 -6.70208127333E-05 -1.02217101662E-03 -1.56599041322E-04 +6.37002771452E-01 -4.64982959845E-01
4.07500000000E+09 +4.92287987304E-01 -4.68141080531E-01 -9.75421505693E-04 +1.19908013188E-04 -1.05715918960E-03 +1.78871353245E-05 +6.23446651958E-01 -4.75277832902E-01
4.08000000000E+09 +4.76384383701E-01 -4.74025482120E-01 -9.31335549080E-04 +1.75486775146E-04 -1.07224027193E-03 +1.26363647595E-04 +6.09832519513E-01 -4.85043060299E-01
4.08500000000E+09 +4.59835053795E-01 -4.80305497195E-01 -9.76598852793E-04 +4.65615807928E-04 -1.09158549127E-03 +4.74911752683E-04 +5.96698440482E-01 -4.94702897526E-01
4.09000000000E+09 +4.42984149799E-01 -4.87079861266E-01 -6.56224657888E-04 +4.71913607589E-04 -8.19091274510E-04 +5.67248620976E-04 +5.82963844525E-01 -5.03463661557E-01
4.09500000000E+09 +4.26524355586E-01 -4.93900012569E-01 -6.65943321732E-04 +3.34268631493E-04 -7.75803661575E-04 +4.05468804531E-04 +5.68730188349E-01 -5.11267852091E-01
4.10000000000E+09 +4.09415274032E-01 -4.99439783557E-01 -7.92786638443E-04 +4.82633712962E-04 -8.60256459265E-04 +5.86295261743E-04 +5.53555690608E-01 -5.19388377632E-01
4.10500000000E+09 +3.93819404033E-01 -5.03706010314E-01 -8.53557055674E-04 +6.08671268298E-04 -8.72252919509E-04 +7.04482052131E-04 +5.37440240819E-01 -5.26941443375E-01
4.11000000000E+09 +3.78221434476E-01 -5.07269113932E-01 -6.54211194587E-04 +7.94122152541E-04 -6.77703983993E-04 +8.67310465809E-04 +5.21195815218E-01 -5.34824647785E-01
4.11500000000E+09 +3.62340218229E-01 -5.09066111692E-01 -6.42001169804E-04 +1.03397496569E-03 -7.29126592887E-04 +9.93718621716E-04 +5.05105265197E-01 -5.42360053850E-01
4.12000000000E+09 +3.45839859459E-01 -5.10438476249E-01 -4.86318969699E-04 +1.09610141340E-03 -6.18210556995E-04 +1.02829480606E-03 +4.89231061945E-01 -5.49508613539E-01
4.12500000000E+09 +3.28975394432E-01 -5.10919430808E-01 -3.07695940921E-04 +1.24306252357E-03 -3.85861957139E-04 +1.22046626739E-03 +4.72902360146E-01 -5.56237999086E-01
4.13000000000E+09 +3.10786733772E-01 -5.12621202851E-01 -1.74091362954E-05 +9.26282574793E-04 -1.30190149629E-04 +8.80667490539E-04 +4.55898622319E-01 -5.62604356718E-01
4.13500000000E+09 +2.91301327342E-01 -5.13861095676E-01 -3.68132647754E-04 +9.28171381533E-04 -4.46579808562E-04 +8.09230809075E-04 +4.37668822127E-01 -5.68507337425E-01
4.14000000000E+09 +2.72657242979E-01 -5.16129448528E-01 -2.01223827794E-04 +1.16303956078E-03 -3.02095024311E-04 +1.20959620048E-03 +4.18641990724E-01 -5.74211503477E-01
4.14500000000E+09 +2.53012650732E-01 -5.20697436053E-01 -2.22814765193E-04 +1.17495500268E-03 -2.95245748659E-04 +1.25852931525E-03 +3.99757471265E-01 -5.79277346493E-01
4.15000000000E+09 +2.32808075059E-01 -5.24355987786E-01 -1.11307215224E-05 +1.61338948175E-03 -6.57997478355E-05 +1.77446841438E-03 +3.81958317515E-01 -5.84379969407E-01
4.15500000000E+09 +2.13865092084E-01 -5.27539487228E-01 +5.83309717181E-04 +1.61160880886E-03 +5.45626843139E-04 +1.72957343479E-03 +3.63653778731E-01 -5.89008670763E-01
4.16000000000E+09 +1.95685584286E-01 -5.30096581287E-01 +1.00943691704E-03 +1.23140715722E-03 +1.03681239230E-03 +1.32532485621E-03 +3.45676121858E-01 -5.91747828848E-01
4.16500000000E+09 +1.77877566655E-01 -5.30241332415E-01 +9.72807246047E-04 +7.52881980675E-04 +1.03087604625E-03 +8.41001354126E-04 +3.26776397524E-01 -5.95160026379E-01
4.17000000000E+09 +1.61172449144E-01 -5.28115449121E-01 +6.52811105191E-04 +7.29511352824E-04 +7.14702833642E-04 +8.69956964856E-04 +3.06740525664E-01 -5.97390127093E-01
4.17500000000E+09 +1.45672275569E-01 -5.23860350921E-01 +8.31161235034E-04 +8.40120315449E-04 +9.41881994353E-04 +8.96402393954E-04 +2.85637576481E-01 -5.99447281754E-01
4.18000000000E+09 +1.29800022984E-01 -5.19619042424E-01 +8.77972801360E-04 +4.66629443317E-04 +9.35933838600E-04 +4.32057480095E-04 +2.64955343104E-01 -6.01091857884E-01
4.18500000000E+09 +1.12439262522E-01 -5.14815417078E-01 +4.69075356540E-04 +9.16548909698E-04 +5.27745257494E-04 +9.36771995817E-04 +2.44145775198E-01 -6.02168684216E-01
4.19000000000E+09 +9.39926404743E-02 -5.09529904841E-01 +1.22773508644E-03 +1.20750609984E-03 +1.32502418089E-03 +1.21451305857E-03 +2.23862092038E-01 -6.02299201666E-01
4.19500000000E+09 +7.40983798769E-02 -5.04482008439E-01 +1.61252251600E-03 +5.13476532628E-04 +1.67095179368E-03 +4.72616012325E-04 +2.03026782225E-01 -6.01355579561E-01
4.20000000000E+09 +5.37856096180E-02 -4.99083206896E-01 +1.30817865632E-03 +3.34778477696E-04 +1.32016017417E-03 +2.84932390856E-04 +1.82419312131E-01 -5.99661186262E-01
4.20500000000E+09 +3.42261832895E-02 -4.94137262713E-01 +1.66600054181E-03 +2.36406745113E-04 +1.67125380233E-03 +2.15678853586E-04 +1.59966971765E-01 -5.97841832891E-01
4.21000000000E+09 +1.53091832334E-02 -4.89497356251E-01 +1.58300036226E-03 -3.72273686893E-04 +1.52798455601E-03 -4.52572797804E-04 +1.37496280995E-01 -5.95145035622E-01
4.21500000000E+09 -2.43087759158E-03 -4.84093428817E-01 +9.33492892969E-04 -1.76587271002E-04 +8.78848332965E-04 -2.61206671890E-04 +1.15490475036E-01 -5.92521341258E-01
4.22000000000E+09 -1.89517620472E-02 -4.77819799465E-01 +1.32817420896E-03 +1.34891886027E-05 +1.30601161475E-03 +2.05342721994E-05 +9.38686950771E-02 -5.89621199278E-01
4.22500000000E+09 -3.43062959533E-02 -4.69804674996E-01 +1.78578814114E-03 -2.50532457774E-04 +1.74506368654E-03 -2.19982327120E-04 +7.21689635290E-02 -5.85284573873E-01
4.23000000000E+09 -4.95360979883E-02 -4.60618374804E-01 +1.55156192325E-03 -9.84985413798E-04 +1.54883123424E-03 -9.05073131895E-04 +5.11308808569E-02 -5.79700338406E-01
4.23500000000E+09 -6.55081701989E-02 -4.48966055030E-01 +1.06483808487E-03 -1.03364289962E-03 +1.10496371137E-03 -9.00951491918E-04 +2.89788891170E-02 -5.72733574454E-01
4.24000000000E+09 -8.16302632001E-02 -4.35498352461E-01 +1.10646559599E-03 -8.67506014234E-04 +1.15524832960E-03 -7.90116531728E-04 +7.29723542283E-03 -5.64640110929E-01
4.24500000000E+09 -9.87969360887E-02 -4.22128191921E-01 +1.21607343079E-03 -1.17358667140E-03 +1.25136341105E-03 -1.10555938197E-03 -1.53149045612E-02 -5.56665202238E-01
4.25000000000E+09 -1.17818330972E-01 -4.08490352669E-01 +7.49889622259E-04 -1.75990597831E-03 +8.11564554902E-04 -1.67669045151E-03 -3.74435485274E-02 -5.47531148276E-01
4.25500000000E+09 -1.37448250795E-01 -3.95570926526E-01 +3.77319547593E-04 -1.02546874878E-03 +4.71796337160E-04 -9.10910633160E-04 -5.80211094674E-02 -5.38100116938E-01
4.26000000000E+09 -1.57750672976E-01 -3.83509131175E-01 +1.02137217355E-03 -1.23197372510E-03 +1.14191439192E-03 -1.30892302151E-03 -7.88824501114E-02 -5.27623229828E-01
4.26500000000E+09 -1.78332058738E-01 -3.71653076698E-01 +6.32789102799E-04 -2.03100960808E-03 +7.45216165578E-04 -2.09483067185E-03 -9.84415352247E-02 -5.16112781105E-01
4.27000000000E+09 -1.96289929459E-01 -3.59237250371E-01 -1.59490244889E-04 -1.93359669362E-03 -2.28687875525E-05 -2.10346552389E-03 -1.19781097949E-01 -5.04256877554E-01
4.27500000000E+09 -2.12008587594E-01 -3.47312124575E-01 -3.83739622456E-04 -1.92246238134E-03 -3.03086738174E-04 -2.00040614121E-03 -1.41030303221E-01 -4.89599629824E-01
4.28000000000E+09 -2.25567927567E-01 -3.34500285052E-01 -1.07496610133E-03 -1.64497875134E-03 -1.03977312495E-03 -1.70042169536E-03 -1.61220912379E-01 -4.75318960885E-01
4.28500000000E+09 -2.37392345174E-01 -3.20370788630E-01 -9.20131349913E-04 -8.05849141314E-04 -9.29305681179E-04 -8.79180449241E-04 -1.81454524914E-01 -4.61416602494E-01
4.29000000000E+09 -2.47948836059E-01 -3.04282312288E-01 -7.92978411602E-04 -7.06555885116E-04 -8.78097425367E-04 -7.70683796540E-04 -2.00761372247E-01 -4.46424744951E-01
4.29500000000E+09 -2.57917910921E-01 -2.86667613808E-01 -3.48613601675E-04 -3.93516283302E-04 -3.94401627710E-04 -4.51349374629E-04 -2.19035026362E-01 -4.30864667868E-01
4.30000000000E+09 -2.69133150874E-01 -2.67669263453E-01 -9.16825763140E-05 -1.07076634728E-03 -1.90100799644E-04 -1.12536601209E-03 -2.36420365451E-01 -4.14056142015E-01
4.30500000000E+09 -2.81115829130E-01 -2.46914962531E-01 -7.88782847629E-04 -1.52092503877E-03 -9.42094234431E-04 -1.52993080137E-03 -2.53230210624E-01 -3.95909224645E-01
4.31000000000E+09 -2.93677459373E-01 -2.26473515190E-01 -1.31861778716E-03 -6.98386949499E-04 -1.44139743463E-03 -6.58255798765E-04 -2.69729908279E-01 -3.77753017903E-01
4.31500000000E+09 -3.07521454181E-01 -2.06404597685E-01 -1.02874456884E-03 -5.13996234010E-04 -1.13152625057E-03 -4.52871648884E-04 -2.86338149892E-01 -3.58270415392E-01
4.32000000000E+09 -3.20625065299E-01 -1.87372327297E-01 -1.01452052397E-03 -2.56213818161E-04 -1.08142260721E-03 -1.75704609681E-04 -3.01136876627E-01 -3.38444832139E-01
4.32500000000E+09 -3.33295640778E-01 -1.69416621108E-01 -5.62682077206E-04 -1.12893583424E-04 -5.52483629918E-04 -4.42362225350E-05 -3.16384226394E-01 -3.18827272177E-01
4.33000000000E+09 -3.42904033439E-01 -1.52120233463E-01 -7.34521129722E-04 -5.07327209072E-04 -7.53010394530E-04 -4.41538534941E-04 -3.29568299593E-01 -2.96862582815E-01
4.33500000000E+09 -3.50662609081E-01 -1.36746400448E-01 -6.27998106326E-04 -1.76103677148E-04 -5.81729902821E-04 -6.55539167850E-05 -3.42281035569E-01 -2.75529334520E-01
4.34000000000E+09 -3.56744619920E-01 -1.20243378699E-01 -5.15421115529E-04 -6.06554523443E-04 -4.34790919327E-04 -5.76453568869E-04 -3.54527882965E-01 -2.51944285018E-01
4.34500000000E+09 -3.59601841749E-01 -1.02156368961E-01 -1.20535763044E-03 -9.72700613542E-04 -1.05411288224E-03 -9.93893689251E-04 -3.65550743500E-01 -2.29280606592E-01
4.35000000000E+09 -3.61825853552E-01 -8.35227421125E-02 -1.56710578873E-03 -9.56063457670E-05 -1.49277792340E-03 -1.58014974244E-04 -3.77342852225E-01 -2.06184497423E-01
4.35500000000E+09 -3.63214792687E-01 -6.18225903779E-02 -1.24411394642E-03 +2.16108890856E-04 -1.22932483201E-03 +1.43108700756E-04 -3.86968300418E-01 -1.82362305418E-01
4.36000000000E+09 -3.64550071061E-01 -3.93514722187E-02 -1.16803228030E-03 +3.57415167431E-04 -1.17162951569E-03 +2.77974797835E-04 -3.94995695159E-01 -1.59711045562E-01
4.36500000000E+09 -3.67478063763E-01 -1.59242133060E-02 -7.25776031646E-04 +5.94094197592E-04 -7.43328625748E-04 +5.80262166400E-04 -4.02878861721E-01 -1.36628348852E-01
4.37000000000E+09 -3.71175721945E-01 +7.73317753281E-03 -6.21955136847E-04 +1.76981989392E-04 -6.48472811613E-04 +1.02024252461E-04 -4.09006192550E-01 -1.12213560105E-01
4.37500000000E+09 -3.76067840419E-01 +3.01301313629E-02 -5.35913847493E-04 +4.23183401922E-06 -6.16315577515E-04 -7.95291051901E-05 -4.14229467146E-01 -8.73307819394E-02
4.38000000000E+09 -3.81154264295E-01 +5.17750832317E-02 -1.19377395099E-03 -1.68101830165E-04 -1.31802092289E-03 -1.96191757608E-04 -4.18510356312E-01 -6.29785559194E-02
4.38500000000E+09 -3.84400746287E-01 +7.04221533049E-02 -1.42470916186E-03 +7.50274765782E-04 -1.54187674529E-03 +7.78301926288E-04 -4.22420422051E-01 -3.82339907785E-02
4.39000000000E+09 -3.87680470049E-01 +8.69031883333E-02 -6.88161850016E-04 +9.89798965891E-04 -7.61372454648E-04 +1.03248586691E-03 -4.24934253766E-01 -1.37487680347E-02
4.39500000000E+09 -3.88067799606E-01 +1.02868025452E-01 -6.61497536041E-04 +5.38747347716E-04 -7.21421652109E-04 +6.15346836396E-04 -4.26815811074E-01 +1.03817998496E-02
4.40000000000E+09 -3.86152154117E-01 +1.18067791322E-01 -5.58293332279E-04 +9.84516713861E-04 -6.01735073217E-04 +1.02785038006E-03 -4.26536281874E-01 +3.43329300756E-02
4.40500000000E+09 -3.81914949578E-01 +1.34170004450E-01 -3.23500613146E-04 +5.25896240648E-04 -2.88012925371E-04 +6.08767492424E-04 -4.26649500633E-01 +5.83071869081E-02
4.41000000000E+09 -3.75747548651E-01 +1.51053890858E-01 -5.69720932384E-04 +4.85583352459E-04 -6.08859617159E-04 +5.75966599949E-04 -4.24960935086E-01 +8.33390331041E-02
4.41500000000E+09 -3.69508147990E-01 +1.70322898647E-01 -5.37799764746E-04 +6.97334846671E-04 -5.36410764692E-04 +8.12232115062E-04 -4.22846790388E-01 +1.06664470518E-01
4.42000000000E+09 -3.63361376585E-01 +1.91661036434E-01 -7.38326819988E-04 +6.08772939775E-04 -6.93308212143E-04 +6.66838662961E-04 -4.20316055191E-01 +1.31359396319E-01
4.42500000000E+09 -3.58169046345E-01 +2.13917320417E-01 -7.20771982909E-04 +9.06758904922E-04 -6.48632829107E-04 +9.60565773785E-04 -4.14933784530E-01 +1.54024655264E-01
4.43000000000E+09 -3.53950460078E-01 +2.37101297641E-01 -8.00094537529E-04 +1.26670476594E-03 -6.91347115272E-04 +1.23898344287E-03 -4.11537078664E-01 +1.76225790522E-01
4.43500000000E+09 -3.49583997842E-01 +2.59342009432E-01 -2.06514291809E-04 +1.46268540752E-03 -2.16771299237E-04 +1.41656220666E-03 -4.05205549014E-01 +1.99780411972E-01
4.44000000000E+09 -3.45605273825E-01 +2.78056692959E-01 +1.07176831161E-04 +1.27470889564E-03 +1.45861538576E-04 +1.22602926336E-03 -3.98851676626E-01 +2.21228806902E-01
4.44500000000E+09 -3.43040660424E-01 +2.94502563892E-01 +2.18745983155E-05 +8.97260049723E-04 +3.35492841648E-05 +8.77487892963E-04 -3.92187596144E-01 +2.43377789115E-01
4.45000000000E+09 -3.40032592560E-01 +3.08507902021E-01 -1.10035382090E-04 +1.10174459855E-03 -4.67905134371E-05 +1.09517163049E-03 -3.84872794355E-01 +2.64045417036E-01
4.45500000000E+09 -3.35348466425E-01 +3.21702377769E-01 -1.13606119427E-04 +1.37321872301E-03 -1.11850979583E-04 +1.32569723625E-03 -3.76721971270E-01 +2.84279793375E-01
4.46000000000E+09 -3.28244455118E-01 +3.34284512074E-01 +3.05008105708E-04 +1.41714481676E-03 +3.04207019525E-04 +1.36066386370E-03 -3.68523981501E-01 +3.03455106594E-01
4.46500000000E+09 -3.19377033890E-01 +3.47370638128E-01 +4.68818897436E-04 +1.31018540653E-03 +4.06976305161E-04 +1.24872044246E-03 -3.58835693697E-01 +3.23214181573E-01
4.47000000000E+09 -3.07564305722E-01 +3.62188064876E-01 +7.00429133149E-04 +1.23090459845E-03 +6.92859075086E-04 +1.24377288145E-03 -3.47483051590E-01 +3.42122420618E-01
4.47500000000E+09 -2.94183905165E-01 +3.77186060823E-01 +5.74869252049E-04 +1.22298365849E-03 +5.43180212483E-04 +1.18682886978E-03 -3.36772988429E-01 +3.60914622025E-01
4.48000000000E+09 -2.82048455062E-01 +3.93790075839E-01 +1.17406861174E-03 +1.37937434280E-03 +1.18377120919E-03 +1.34643033983E-03 -3.24905127811E-01 +3.79289952328E-01
4.48500000000E+09 -2.69525290937E-01 +4.11168133496E-01 +1.11836234098E-03 +7.55729833146E-04 +1.07682290068E-03 +7.22298673657E-04 -3.13297499034E-01 +3.96400051598E-01
4.49000000000E+09 -2.59445583946E-01 +4.27593409153E-01 +1.09252548193E-03 +9.42120997023E-04 +1.06767326279E-03 +9.49686150814E-04 -3.01973774201E-01 +4.12305493965E-01
4.49500000000E+09 -2.51129097544E-01 +4.44247370389E-01 +1.34393224440E-03 +8.10896097674E-04 +1.30645292151E-03 +8.60897561127E-04 -2.90860226500E-01 +4.27814860980E-01
4.50000000000E+09 -2.43940612987E-01 +4.57694988911E-01 +1.32497723073E-03 +7.22450712135E-04 +1.38102231813E-03 +7.75095463035E-04 -2.78423186327E-01 +4.43503967375E-01
4.50500000000E+09 -2.38738740426E-01 +4.70204251282E-01 +1.78006225126E-03 +5.66287948078E-04 +1.81070616327E-03 +5.78763844452E-04 -2.65383755115E-01 +4.58288003701E-01
4.51000000000E+09 -2.31726301999E-01 +4.80385818532E-01 +1.72513993785E-03 -1.31576500525E-05 +1.76237934727E-03 -1.68208609390E-05 -2.51974593089E-01 +4.73027955287E-01
4.51500000000E+09 -2.24229824737E-01 +4.88202886358E-01 +1.43859956548E-03 -1.78302628731E-04 +1.49716963780E-03 -2.20368578337E-04 -2.38213328470E-01 +4.87229971424E-01
4.52000000000E+09 -2.14474009325E-01 +4.96232898477E-01 +1.42856974071E-03 -2.22867032108E-04 +1.45071864342E-03 -2.95899944611E-04 -2.25077674420E-01 +5.00397074120E-01
4.52500000000E+09 -2.01873399506E-01 +5.02547500402E-01 +1.31886934691E-03 -3.58915067440E-04 +1.30534910870E-03 -3.32807226834E-04 -2.11481973147E-01 +5.12808217353E-01
4.53000000000E+09 -1.88394289385E-01 +5.10327257457E-01 +1.42294985500E-03 -4.11812669178E-04 +1.42049342885E-03 -4.94379571800E-04 -1.97562764379E-01 +5.24031556512E-01
4.53500000000E+09 -1.72778342361E-01 +5.19195796036E-01 +1.08276362856E-03 -6.04977961162E-04 +1.07276329671E-03 -6.83276896401E-04 -1.83441298636E-01 +5.35893945750E-01
4.54000000000E+09 -1.57234398751E-01 +5.28902174596E-01 +1.35126425295E-03 -4.27401662412E-04 +1.29620692913E-03 -4.26999624431E-04 -1.67336604320E-01 +5.46912219284E-01
4.54500000000E+09 -1.41639318357E-01 +5.40079995908E-01 +1.39608785948E-03 -1.02826312215E-03 +1.30706779003E-03 -9.92204755385E-04 -1.52415326148E-01 +5.56532475306E-01
4.55000000000E+09 -1.27547218237E-01 +5.50244052855E-01 +1.16676459466E-03 -9.54911341989E-04 +1.08361199566E-03 -9.47717972146E-04 -1.37663723823E-01 +5.67113223535E-01
4.55500000000E+09 -1.15730380633E-01 +5.60474676411E-01 +1.14635590826E-03 -1.19098201111E-03 +1.04015433472E-03 -1.25472712735E-03 -1.23063563384E-01 +5.76603837759E-01
4.56000000000E+09 -1.04960828511E-01 +5.69403276112E-01 +7.56578571333E-04 -1.28071102854E-03 +6.93574854938E-04 -1.31831185803E-03 -1.08508956355E-01 +5.85198650004E-01
4.56500000000E+09 -9.58512461061E-02 +5.76456447047E-01 +6.76112810510E-04 -1.30160351603E-03 +5.74053502233E-04 -1.19489760920E-03 -9.44798209317E-02 +5.93635160734E-01
4.57000000000E+09 -8.70203709794E-02 +5.82962062947E-01 +7.13230792702E-04 -1.36799450558E-03 +6.48567725322E-04 -1.32167660751E-03 -7.89640819887E-02 +6.02109557067E-01
