# Hz S RI R 50
! CMT, C1220, 16058040, 17.2.0/1
! Date: 15/08/2018 12:31:59
! Data: Format (Calibration Info)
! Freq                      S11: Re/Im (F2)                       S21: Re/Im (F2)                       S12: Re/Im (F2)                       S22: Re/Im (F2)            
4.00000000000E+09 +6.61681338565E-01 -3.58215345887E-01 -4.15701371040E-04 -5.11635202646E-04 -3.47072717772E-04 -5.26378776607E-04 +7.82579846864E-01 -3.17003127162E-01
4.00500000000E+09 +6.54025530614E-01 -3.65019995841E-01 -2.84201902317E-04 -3.35604068232E-04 -2.84533796161E-04 -2.79727657254E-04 +7.74153366252E-01 -3.28652958229E-01
4.01000000000E+09 +6.45098545556E-01 -3.71382532913E-01 -3.77429435144E-04 -4.37246408237E-04 -3.75472599339E-04 -4.47342532489E-04 +7.65367768257E-01 -3.40427224811E-01
4.01500000000E+09 +6.35814981688E-01 -3.78122353409E-01 -4.92099839119E-04 -3.72780786700E-04 -3.85560981561E-04 -2.85804309769E-04 +7.56667234208E-01 -3.51253097426E-01
4.02000000000E+09 +6.25731802926E-01 -3.86164820226E-01 -4.37964994777E-04 -2.65075882917E-04 -4.20720310277E-04 -3.14161398690E-04 +7.47623322964E-01 -3.61751076516E-01
4.02500000000E+09 +6.15028330067E-01 -3.95723369464E-01 -4.93113796464E-04 -2.54951696231E-04 -4.52229697010E-04 -2.77666116213E-04 +7.38270577416E-01 -3.71657490946E-01
4.03000000000E+09 +6.03622144872E-01 -4.05962328118E-01 -5.34185903593E-04 -2.92607731998E-04 -4.72905243221E-04 -3.46097996431E-04 +7.28413866338E-01 -3.82030980703E-01
4.03500000000E+09 +5.92410647909E-01 -4.16493345258E-01 -6.42252995594E-04 -2.35106610541E-04 -6.45448757688E-04 -3.26550521050E-04 +7.17510833608E-01 -3.92855167796E-01
4.04000000000E+09 +5.81367898956E-01 -4.27186179008E-01 -8.26289202325E-04 -6.68097824658E-05 -8.52811295002E-04 -1.31805327786E-04 +7.06914480170E-01 -4.03964610755E-01
4.04500000000E+09 +5.69774717810E-01 -4.37149668349E-01 -7.22920368015E-04 +1.93739145947E-04 -7.82105180401E-04 +1.38430270570E-04 +6.96259002316E-01 -4.15174376159E-01
4.05000000000E+09 +5.58652205504E-01 -4.45168013221E-01 -6.05146219778E-04 +2.87951272014E-04 -6.71680794592E-04 +2.29497400333E-04 +6.85488416259E-01 -4.25846768735E-01
4.05500000000E+09 +5.47423658556E-01 -4.52423100116E-01 -4.74274250101E-04 +3.24057436797E-04 -5.67023384600E-04 +3.47729088434E-04 +6.74438756700E-01 -4.35279771713E-01
4.06000000000E+09 +5.34877214027E-01 -4.58063540768E-01 -3.66525171459E-04 +3.73907510518E-04 -4.08091239865E-04 +3.21441422377E-04 +6.63324322567E-01 -4.44686434605E-01
4.06500000000E+09 +5.22362674728E-01 -4.62516059117E-01 -3.13032214364E-04 +2.10175211934E-04 -4.43499994889E-04 +2.00612323659E-04 +6.50950892954E-01 -4.54105642632E-01
4.07000000000E+09 +5.08375604462E-01 -4.67834385810E-01 -4.26655606741E-04 +2.40073957084E-04 -4.92590113689E-04 +2.76360803705E-04 +6.37827755378E-01 -4.63998383695E-01
4.07500000000E+09 +4.93405980332E-01 -4.73073441185E-01 -4.84411164625E-04 +3.56262547817E-04 -4.96680794069E-04 +4.07527255804E-04 +6.24309044059E-01 -4.74362967760E-01
4.08000000000E+09 +4.77298473395E-01 -4.79103950754E-01 -4.54790781000E-04 +4.65111146522E-04 -5.06230676698E-04 +4.52330041590E-04 +6.10814301722E-01 -4.84224725664E-01
4.08500000000E+09 +4.60474936820E-01 -4.85797084941E-01 -2.61077366272E-04 +6.34364958363E-04 -3.15545564605E-04 +7.06180984462E-04 +5.97599094096E-01 -4.93973926194E-01
4.09000000000E+09 +4.43503267116E-01 -4.92830423224E-01 -1.43669728684E-04 +4.89962013612E-04 -1.13466151164E-04 +5.96564236511E-04 +5.83988885423E-01 -5.02602226803E-01
4.09500000000E+09 +4.26910141960E-01 -5.00024170700E-01 -9.98782103880E-05 +3.27282486132E-04 -3.59162758160E-05 +4.35636532216E-04 +5.69785825207E-01 -5.10547075263E-01
4.10000000000E+09 +4.09763388125E-01 -5.06401735100E-01 -1.95413634447E-04 +4.45562795076E-04 -1.99585874472E-04 +4.39891169951E-04 +5.54911449462E-01 -5.18622833320E-01
4.10500000000E+09 +3.93510933408E-01 -5.11040797941E-01 -2.40843186681E-04 +5.03824679193E-04 -2.15800065860E-04 +5.65577125146E-04 +5.39009574036E-01 -5.26467141539E-01
4.11000000000E+09 +3.77826609653E-01 -5.14620625344E-01 -7.45248724900E-05 +6.51507741883E-04 -3.62416706182E-06 +5.99480047365E-04 +5.22781746411E-01 -5.34594603195E-01
4.11500000000E+09 +3.61055516508E-01 -5.17716296573E-01 -1.75991466415E-05 +6.56210064654E-04 +1.30054753085E-05 +6.42914947594E-04 +5.06820285420E-01 -5.42392480890E-01
4.12000000000E+09 +3.43946263630E-01 -5.19220497980E-01 +1.22155206775E-05 +6.81291839497E-04 -3.75757371442E-05 +6.33079402508E-04 +4.90842413150E-01 -5.50066325019E-01
4.12500000000E+09 +3.26649161237E-01 -5.19587635125E-01 +1.69999156104E-04 +7.09667050491E-04 +1.08468969763E-04 +7.38474923507E-04 +4.74294414996E-01 -5.56606365104E-01
4.13000000000E+09 +3.08229910696E-01 -5.21275663272E-01 +3.08026417950E-04 +5.32931492361E-04 +2.46590109090E-04 +5.11872753064E-04 +4.57403294810E-01 -5.63294256573E-01
4.13500000000E+09 +2.88398868757E-01 -5.22891163624E-01 +9.32625828018E-05 +4.77242357079E-04 +6.34030184732E-05 +4.81593221202E-04 +4.38981059742E-01 -5.69385376203E-01
4.14000000000E+09 +2.68756775642E-01 -5.25456135953E-01 +1.72442093949E-04 +6.22527105778E-04 +1.36481325642E-04 +6.72130616890E-04 +4.20223340124E-01 -5.75273939053E-01
4.14500000000E+09 +2.48419628149E-01 -5.29659415067E-01 +1.59031039625E-04 +6.01980972237E-04 +9.61295562113E-05 +6.68028032492E-04 +4.00901687464E-01 -5.81037092565E-01
4.15000000000E+09 +2.27876211566E-01 -5.33115683864E-01 +4.39633144642E-04 +9.71128224211E-04 +3.68796280270E-04 +1.08067560801E-03 +3.82694661280E-01 -5.86196035674E-01
4.15500000000E+09 +2.08698167568E-01 -5.36691036870E-01 +8.50246353525E-04 +7.95077460591E-04 +8.63812758438E-04 +9.36171246177E-04 +3.64124435323E-01 -5.90825144047E-01
4.16000000000E+09 +1.89962063302E-01 -5.39285904016E-01 +1.01434377887E-03 +4.11728317815E-04 +1.05571352244E-03 +4.49223421494E-04 +3.45687520473E-01 -5.93813061887E-01
4.16500000000E+09 +1.72011209095E-01 -5.39526536603E-01 +9.70281741986E-04 +5.65875881794E-06 +1.01404258897E-03 +5.38884258360E-05 +3.26312029432E-01 -5.96761346758E-01
4.17000000000E+09 +1.54911438915E-01 -5.37559751602E-01 +5.97160135821E-04 +4.26552281221E-05 +6.63049350479E-04 +1.37147194616E-04 +3.06395328562E-01 -5.98962656194E-01
4.17500000000E+09 +1.38796820662E-01 -5.33305233251E-01 +8.01613221582E-04 +1.09044843587E-05 +8.55968720895E-04 +3.51736136060E-05 +2.85050196298E-01 -6.01136845081E-01
4.18000000000E+09 +1.22460935744E-01 -5.29160964197E-01 +6.57388404159E-04 -3.01973405617E-04 +7.40752268462E-04 -3.37960571195E-04 +2.64109151764E-01 -6.02591369718E-01
4.18500000000E+09 +1.04165477739E-01 -5.23939739663E-01 +1.43252563324E-04 -1.00152472590E-05 +2.00433146501E-04 -4.87852305569E-05 +2.43397076806E-01 -6.03618888981E-01
4.19000000000E+09 +8.51373241018E-02 -5.18231562277E-01 +6.93509671154E-04 +4.11653100205E-04 +7.38596469202E-04 +3.93452711702E-04 +2.22756661987E-01 -6.03841114204E-01
4.19500000000E+09 +6.48850160140E-02 -5.12881036390E-01 +9.44208006606E-04 -1.75187990824E-04 +9.89049083514E-04 -2.28030533190E-04 +2.01854053668E-01 -6.02684789208E-01
4.20000000000E+09 +4.37298174400E-02 -5.07196778174E-01 +6.38412028190E-04 -2.45292222154E-04 +6.82224355348E-04 -2.76416837759E-04 +1.81010753324E-01 -6.00948862511E-01
4.20500000000E+09 +2.36436365499E-02 -5.01952023603E-01 +8.99005665993E-04 -2.25017162396E-04 +9.24118888018E-04 -2.84975047849E-04 +1.58665832620E-01 -5.99100744681E-01
4.21000000000E+09 +4.11149823500E-03 -4.97051179598E-01 +7.43936031198E-04 -7.32134792864E-04 +7.80949990767E-04 -8.05692262859E-04 +1.35845670347E-01 -5.96713790812E-01
4.21500000000E+09 -1.41470309590E-02 -4.91239268347E-01 +2.52610103885E-04 -5.14071833064E-04 +1.84445228469E-04 -5.47953988718E-04 +1.13448869382E-01 -5.94016366522E-01
4.22000000000E+09 -3.09182177342E-02 -4.84639329206E-01 +4.76011399522E-04 -3.38296959634E-04 +4.02077325457E-04 -2.88014023578E-04 +9.15824516017E-02 -5.90819782494E-01
4.22500000000E+09 -4.67880447254E-02 -4.76365513132E-01 +7.47572912066E-04 -3.35744682064E-04 +7.32056439183E-04 -3.81519882256E-04 +6.94037400523E-02 -5.86281058587E-01
4.23000000000E+09 -6.20564911320E-02 -4.66344114636E-01 +6.35087434896E-04 -8.97863212107E-04 +6.41465220719E-04 -8.39502646121E-04 +4.84259475924E-02 -5.80198423597E-01
4.23500000000E+09 -7.78969609049E-02 -4.54402869049E-01 +1.70921409544E-04 -8.41197647108E-04 +1.39201730338E-04 -7.87792350312E-04 +2.60976184403E-02 -5.73285133968E-01
4.24000000000E+09 -9.47403094828E-02 -4.40295816700E-01 +2.21181465575E-04 -5.19802137503E-04 +1.65907916167E-04 -5.20718481179E-04 +3.88346962853E-03 -5.64758180956E-01
4.24500000000E+09 -1.11527534691E-01 -4.25647293691E-01 +5.02201439969E-04 -6.69674127440E-04 +4.75211878596E-04 -6.14715524030E-04 -1.86500768252E-02 -5.56422088780E-01
4.25000000000E+09 -1.30284266584E-01 -4.11637740934E-01 +2.67563247764E-04 -1.31852096246E-03 +2.81835150762E-04 -1.26362626440E-03 -4.09589285706E-02 -5.46905153067E-01
4.25500000000E+09 -1.50078761451E-01 -3.97953865843E-01 -2.69369900609E-04 -8.60048225883E-04 -2.72836573266E-04 -8.06331588105E-04 -6.15325270787E-02 -5.36801452476E-01
4.26000000000E+09 -1.70508298498E-01 -3.85082318722E-01 +1.67849585623E-05 -7.61269225035E-04 +5.43564260242E-05 -7.62749465677E-04 -8.20590788922E-02 -5.26029835335E-01
4.26500000000E+09 -1.90752429116E-01 -3.72532444215E-01 -8.76497212016E-06 -1.08724799939E-03 -4.32491595120E-05 -1.08661022114E-03 -1.01657781137E-01 -5.14413005001E-01
4.27000000000E+09 -2.08690324856E-01 -3.59808929121E-01 -5.51251665160E-04 -1.08117030962E-03 -4.85309006237E-04 -1.16364962307E-03 -1.22620265546E-01 -5.01868648875E-01
4.27500000000E+09 -2.24210376922E-01 -3.47294784276E-01 -6.21692297558E-04 -8.67058889288E-04 -5.50094579889E-04 -9.27791462941E-04 -1.43579994400E-01 -4.87218002474E-01
4.28000000000E+09 -2.37478454903E-01 -3.34371978062E-01 -1.02494411746E-03 -7.92824335664E-04 -1.00627794390E-03 -7.75521949051E-04 -1.63687047969E-01 -4.72882137028E-01
4.28500000000E+09 -2.49029350737E-01 -3.19868240881E-01 -8.92708147493E-04 -3.31986932921E-04 -8.62960347582E-04 -3.15185801968E-04 -1.83682135159E-01 -4.58702677313E-01
4.29000000000E+09 -2.59128082877E-01 -3.03512131469E-01 -1.00261909437E-03 -2.67577695582E-04 -9.89668171248E-04 -3.16199250877E-04 -2.02914223474E-01 -4.43626158656E-01
4.29500000000E+09 -2.68924582976E-01 -2.85656721638E-01 -6.34442722357E-04 +2.25895778341E-04 -6.89996632674E-04 +2.47265001003E-04 -2.20852792966E-01 -4.27960074989E-01
4.30000000000E+09 -2.79793264195E-01 -2.65903170009E-01 -4.05487653081E-04 -1.06852283727E-04 -3.91515277146E-04 -1.35236204571E-04 -2.38260478089E-01 -4.11074931597E-01
4.30500000000E+09 -2.91192765023E-01 -2.44881510612E-01 -7.04439265017E-04 -4.27378833478E-04 -7.65666060335E-04 -4.45961033222E-04 -2.55199911422E-01 -3.92657508729E-01
4.31000000000E+09 -3.03743270251E-01 -2.23693579186E-01 -8.63440761770E-04 +2.07741768160E-04 -9.87052604849E-04 +2.38543185234E-04 -2.71251810069E-01 -3.74074487489E-01
4.31500000000E+09 -3.16822711386E-01 -2.02536378341E-01 -6.00021826552E-04 +7.37352934459E-05 -6.68640058453E-04 +1.00040651605E-04 -2.87663520576E-01 -3.54668623096E-01
4.32000000000E+09 -3.29228028569E-01 -1.83108877442E-01 -7.26512248274E-04 +4.68695580238E-04 -7.52506056121E-04 +5.04080097295E-04 -3.02445288100E-01 -3.34632158554E-01
4.32500000000E+09 -3.41307791854E-01 -1.64908800298E-01 -1.06861255898E-04 +3.83313678982E-04 -8.42247027416E-05 +4.60845255473E-04 -3.17334515544E-01 -3.14624953623E-01
4.33000000000E+09 -3.50598106451E-01 -1.47573747969E-01 -5.15116178761E-04 +1.45711328234E-04 -4.92265005771E-04 +1.60622305814E-04 -3.30079490684E-01 -2.92519330960E-01
4.33500000000E+09 -3.57864127327E-01 -1.32278767611E-01 -1.97026854662E-04 +6.86645368850E-04 -2.33133309619E-04 +7.67318505218E-04 -3.42097222309E-01 -2.70955736169E-01
4.34000000000E+09 -3.63940549585E-01 -1.15890067349E-01 +2.29709732155E-04 +1.56669632770E-04 +2.72411393456E-04 +2.02145854597E-04 -3.54144390265E-01 -2.47247726948E-01
4.34500000000E+09 -3.66565378654E-01 -9.75995000091E-02 -1.90129246006E-04 -3.34346035828E-04 -2.37870683246E-04 -3.03389809919E-04 -3.64381732546E-01 -2.24423026466E-01
4.35000000000E+09 -3.68402731106E-01 -7.85481941205E-02 -3.30298158654E-04 +1.86624461852E-04 -3.31508600188E-04 +2.95566232516E-04 -3.75320344527E-01 -2.01826800818E-01
4.35500000000E+09 -3.68907959901E-01 -5.66925390456E-02 -2.18872665054E-04 +6.18276372744E-05 -1.97394707361E-04 +1.31399330053E-04 -3.84763249189E-01 -1.78481935312E-01
4.36000000000E+09 -3.69547492709E-01 -3.41506482368E-02 -3.43460194617E-04 +2.00345293479E-04 -3.30034570112E-04 +1.77835150030E-04 -3.92184148706E-01 -1.56147875114E-01
4.36500000000E+09 -3.71714438895E-01 -1.09312635785E-02 -1.27838486420E-04 +2.86591472734E-04 -5.44674092875E-05 +3.39012288495E-04 -3.99988461730E-01 -1.33657193112E-01
4.37000000000E+09 -3.75115885919E-01 +1.26590866152E-02 -7.65452355819E-05 +2.82516380626E-04 -6.72204241338E-05 +2.34877151193E-04 -4.06009357497E-01 -1.09726073940E-01
4.37500000000E+09 -3.79942486214E-01 +3.53937327303E-02 +3.85678242275E-04 -1.81755682129E-04 +3.65956338892E-04 -2.31461018052E-04 -4.11384984756E-01 -8.51941782576E-02
4.38000000000E+09 -3.84572483344E-01 +5.72453883467E-02 -4.98905434574E-04 -6.35334342556E-04 -4.86937970607E-04 -6.53842354065E-04 -4.15693741231E-01 -6.12057090503E-02
4.38500000000E+09 -3.87300902055E-01 +7.64740478164E-02 -9.27198668259E-04 +2.51519789922E-04 -8.96139700414E-04 +2.47663853210E-04 -4.19676896392E-01 -3.66096749116E-02
4.39000000000E+09 -3.89807635271E-01 +9.28560732901E-02 -3.60283029883E-04 +4.43555080007E-04 -3.61963800907E-04 +3.97778494532E-04 -4.22103454645E-01 -1.24211492461E-02
4.39500000000E+09 -3.89698985592E-01 +1.08798750202E-01 -3.78231913069E-04 +2.14500978186E-04 -3.77153996624E-04 +2.28494959686E-04 -4.24373864216E-01 +1.12758729201E-02
4.40000000000E+09 -3.87025389440E-01 +1.23650128265E-01 -1.81283491125E-04 +6.27926195707E-04 -2.01099340165E-04 +5.92442959536E-04 -4.24212436223E-01 +3.55794624730E-02
4.40500000000E+09 -3.82273623990E-01 +1.39097391336E-01 -2.76379021588E-05 +2.16549478574E-04 -6.48595961468E-05 +2.68050829508E-04 -4.23964607083E-01 +5.89549765100E-02
4.41000000000E+09 -3.76069038399E-01 +1.55751751495E-01 -3.69215559025E-06 +1.81830830980E-04 -1.57939748595E-05 +1.44660038308E-04 -4.22781383467E-01 +8.37267067491E-02
4.41500000000E+09 -3.69141062356E-01 +1.74981605226E-01 -2.21646418868E-04 -8.67364928289E-05 -2.47575677407E-04 -9.54956873471E-05 -4.20613120530E-01 +1.07520489512E-01
4.42000000000E+09 -3.62270010494E-01 +1.96149795702E-01 -6.75762118627E-04 -1.52965718708E-05 -6.68170817663E-04 +2.78631874388E-05 -4.17862041632E-01 +1.31963368284E-01
4.42500000000E+09 -3.55850676501E-01 +2.17948038633E-01 -7.30344390764E-04 +3.80895842265E-04 -7.44304670610E-04 +4.67314334236E-04 -4.12461423955E-01 +1.54516924195E-01
4.43000000000E+09 -3.50951993465E-01 +2.40340974753E-01 -7.06695679945E-04 +8.56806218460E-04 -6.93200400332E-04 +8.95682966853E-04 -4.08817944750E-01 +1.76279029206E-01
4.43500000000E+09 -3.46453789688E-01 +2.61823035909E-01 -1.76490646450E-04 +1.05630589081E-03 -2.28831268186E-04 +1.06576947925E-03 -4.02699971873E-01 +1.99325226879E-01
4.44000000000E+09 -3.42529420334E-01 +2.79920133096E-01 +2.31067068553E-04 +8.91726931345E-04 +2.17074838695E-04 +9.44939734229E-04 -3.96453063056E-01 +2.20345551091E-01
4.44500000000E+09 -3.40279734386E-01 +2.95899121487E-01 +2.12906560674E-04 +3.95020925941E-04 +2.17585477035E-04 +4.21530088961E-04 -3.90481519849E-01 +2.42091279231E-01
4.45000000000E+09 -3.37262471139E-01 +3.09875215918E-01 -1.97139145629E-04 +4.18638943294E-04 -1.56450130952E-04 +4.28622389515E-04 -3.83457024635E-01 +2.63135550587E-01
4.45500000000E+09 -3.32370055675E-01 +3.22824488386E-01 -1.89177937671E-04 +7.98518608416E-04 -1.95891447347E-04 +8.31588787217E-04 -3.75528368332E-01 +2.83091328099E-01
4.46000000000E+09 -3.25300922168E-01 +3.34842033438E-01 +5.67023524895E-05 +8.41435164161E-04 +8.61891446457E-05 +8.45018955522E-04 -3.67685796969E-01 +3.02246013102E-01
4.46500000000E+09 -3.15775707358E-01 +3.47297190871E-01 +1.45196230785E-04 +9.05467947749E-04 +2.42171459834E-04 +8.78231420455E-04 -3.58122834344E-01 +3.22043994723E-01
4.47000000000E+09 -3.04149365616E-01 +3.61041932951E-01 +3.96994645268E-04 +9.88869687155E-04 +4.52130396168E-04 +9.48524733698E-04 -3.47325024003E-01 +3.40746953722E-01
4.47500000000E+09 -2.91243029120E-01 +3.75345344208E-01 +4.49673830416E-04 +8.66235338493E-04 +4.69329010666E-04 +8.19965658248E-04 -3.37085243740E-01 +3.59749450735E-01
4.48000000000E+09 -2.79385667247E-01 +3.91740715877E-01 +9.19156683797E-04 +1.00043532980E-03 +9.60169792808E-04 +9.10755579905E-04 -3.25331645589E-01 +3.78609916112E-01
4.48500000000E+09 -2.66894349056E-01 +4.09342681471E-01 +8.72653927245E-04 +2.42091980701E-04 +8.95083674084E-04 +1.92745300022E-04 -3.13944360172E-01 +3.95869494253E-01
4.49000000000E+09 -2.56293581307E-01 +4.25703925290E-01 +6.34802787634E-04 +4.15269092525E-04 +5.94494161872E-04 +3.54629085749E-04 -3.02702171515E-01 +4.12326719040E-01
4.49500000000E+09 -2.47747637548E-01 +4.41755411125E-01 +6.10174816885E-04 +4.35194475650E-04 +6.33148018660E-04 +3.63692351016E-04 -2.91200290028E-01 +4.27900653459E-01
4.50000000000E+09 -2.40621665062E-01 +4.54866901958E-01 +5.42050419474E-04 +7.03615595787E-04 +5.14242620712E-04 +6.86415774211E-04 -2.78866622648E-01 +4.43571665116E-01
4.50500000000E+09 -2.35753468652E-01 +4.66703625981E-01 +1.22050805392E-03 +7.90357879423E-04 +1.17745232320E-03 +7.17811577085E-04 -2.65674937057E-01 +4.58611580945E-01
4.51000000000E+09 -2.29481228805E-01 +4.77014081038E-01 +1.46058877201E-03 +1.24215277102E-04 +1.43428416961E-03 +8.96579609268E-05 -2.52387264939E-01 +4.73230579423E-01
4.51500000000E+09 -2.22104341360E-01 +4.84805667195E-01 +1.24345444282E-03 +2.39405511020E-05 +1.18504758796E-03 -4.04501995597E-05 -2.38753148746E-01 +4.87844753275E-01
4.52000000000E+09 -2.12398334980E-01 +4.92567797168E-01 +1.34296746879E-03 -3.05612197025E-04 +1.29625834884E-03 -3.16788467688E-04 -2.25287899980E-01 +5.00982183160E-01
4.52500000000E+09 -2.00173403198E-01 +4.98670085170E-01 +1.01369417904E-03 -4.77075766061E-04 +9.32332269637E-04 -4.67608585427E-04 -2.11643037877E-01 +5.13315094424E-01
4.53000000000E+09 -1.86656336705E-01 +5.05972888367E-01 +8.83980120935E-04 -3.66089725451E-04 +8.23429257953E-04 -3.32620054393E-04 -1.97900846859E-01 +5.24666253187E-01
4.53500000000E+09 -1.71320770366E-01 +5.14518482798E-01 +8.73134294639E-04 -2.81588616003E-04 +8.55870176835E-04 -2.47178479049E-04 -1.83679664970E-01 +5.36437271919E-01
4.54000000000E+09 -1.56000241732E-01 +5.23735031892E-01 +1.36143966361E-03 -2.92156048743E-04 +1.25804316818E-03 -2.08748756958E-04 -1.67838263272E-01 +5.47573354077E-01
4.54500000000E+09 -1.40872443130E-01 +5.34820605860E-01 +1.47513747887E-03 -1.03691298513E-03 +1.42687657936E-03 -9.51047770682E-04 -1.52842486669E-01 +5.57570413215E-01
4.55000000000E+09 -1.26788327446E-01 +5.45121161287E-01 +1.07281298794E-03 -1.14668994154E-03 +1.00232723304E-03 -1.08171028287E-03 -1.37886974495E-01 +5.68303014477E-01
4.55500000000E+09 -1.15181301331E-01 +5.55249196477E-01 +8.92606740773E-04 -1.37609304259E-03 +8.78536522520E-04 -1.36600270537E-03 -1.23366652011E-01 +5.77812010647E-01
4.56000000000E+09 -1.04907846130E-01 +5.64394426340E-01 +4.50919465563E-04 -1.33248500294E-03 +4.42660430197E-04 -1.35037127736E-03 -1.08743989273E-01 +5.86601718273E-01
4.56500000000E+09 -9.61582421378E-02 +5.71956845022E-01 +3.71139550581E-04 -1.54995530478E-03 +4.35832339988E-04 -1.53003786657E-03 -9.46592501785E-02 +5.95201410288E-01
4.57000000000E+09 -8.71114701215E-02 +5.78741098853E-01 +6.60607028956E-05 -1.46980476497E-03 +1.07307677445E-04 -1.49724917127E-03 -7.88427948695E-02 +6.03752786090E-01
