# Hz S RI R 50
! CMT, C1220, 16058040, 17.2.0/1
! Date: 15/08/2018 12:31:48
! Data: Format (Calibration Info)
! Freq                      S11: Re/Im (F2)                       S21: Re/Im (F2)                       S12: Re/Im (F2)                       S22: Re/Im (F2)            
4.00000000000E+09 +6.62668300124E-01 -3.58028170531E-01 -3.72798422775E-04 -4.00492739360E-04 -3.70485094936E-04 -4.29337298458E-04 +7.82487197960E-01 -3.17197918965E-01
4.00500000000E+09 +6.54892044571E-01 -3.65001329001E-01 -2.77936265860E-04 -2.19282232825E-04 -2.70794421609E-04 -2.38818819430E-04 +7.74000553072E-01 -3.28862838314E-01
4.01000000000E+09 +6.46019896140E-01 -3.71245657866E-01 -3.44084886631E-04 -3.23384357269E-04 -3.16686738041E-04 -3.32337157376E-04 +7.65174949586E-01 -3.40611805878E-01
4.01500000000E+09 +6.36738279858E-01 -3.77926703551E-01 -3.20281942346E-04 -1.61983623310E-04 -3.66258755389E-04 -1.25930555675E-04 +7.56422784436E-01 -3.51389710037E-01
4.02000000000E+09 +6.26787262859E-01 -3.86064574107E-01 -2.47313712825E-04 -2.03028803207E-04 -2.50179192486E-04 -1.75911183142E-04 +7.47383944673E-01 -3.61937566630E-01
4.02500000000E+09 +6.16140381299E-01 -3.95357117342E-01 -2.25978375422E-04 -2.77081624155E-04 -3.05145105446E-04 -1.95486768608E-04 +7.37872283609E-01 -3.71900812061E-01
4.03000000000E+09 +6.04174975629E-01 -4.06493087403E-01 -3.36428961282E-04 -5.13044232034E-04 -2.78499213604E-04 -4.15408215738E-04 +7.28013874369E-01 -3.81987312063E-01
4.03500000000E+09 +5.92750780280E-01 -4.17156779526E-01 -5.36830333478E-04 -4.81726717705E-04 -4.86943679443E-04 -4.56262471289E-04 +7.17111447400E-01 -3.92847178946E-01
4.04000000000E+09 +5.81748828754E-01 -4.27839527537E-01 -7.47934518248E-04 -2.53885328618E-04 -7.61062376931E-04 -3.13055207530E-04 +7.06411261235E-01 -4.03971908196E-01
4.04500000000E+09 +5.70226689950E-01 -4.37945167634E-01 -6.65753598018E-04 -5.14284622580E-05 -6.55333263603E-04 -9.27960745273E-05 +6.95736752027E-01 -4.15106173891E-01
4.05000000000E+09 +5.59075259206E-01 -4.45933652021E-01 -6.53830076154E-04 +1.17619077912E-05 -5.94792324510E-04 -7.28914805627E-05 +6.84958925967E-01 -4.25641129379E-01
4.05500000000E+09 +5.47875200460E-01 -4.53423790230E-01 -5.98150449135E-04 +1.70169746605E-04 -5.78082820282E-04 +6.38827348705E-05 +6.73970074214E-01 -4.34962046036E-01
4.06000000000E+09 +5.35262180534E-01 -4.59026234674E-01 -5.05355914974E-04 +1.43457038923E-04 -5.04736390779E-04 +1.17732183018E-04 +6.63031085278E-01 -4.44239074360E-01
4.06500000000E+09 +5.22606154332E-01 -4.63635491261E-01 -5.19873551894E-04 +3.40381384381E-05 -5.42872963537E-04 +2.32847797964E-05 +6.50624048870E-01 -4.53613171592E-01
4.07000000000E+09 +5.08667075942E-01 -4.69094536390E-01 -6.41289773981E-04 +8.08348602032E-05 -6.98057540645E-04 +6.78397401813E-05 +6.37560571514E-01 -4.63524073739E-01
4.07500000000E+09 +4.93554746772E-01 -4.74344089385E-01 -6.66951908765E-04 +2.65385101174E-04 -7.71693348260E-04 +1.91218900035E-04 +6.24067686520E-01 -4.73809558554E-01
4.08000000000E+09 +4.77441577180E-01 -4.80451731017E-01 -7.79826636862E-04 +4.85209781590E-04 -9.23392628269E-04 +4.09734741649E-04 +6.10686231184E-01 -4.83568119342E-01
4.08500000000E+09 +4.60523124169E-01 -4.87223259303E-01 -5.46347999492E-04 +7.80967079087E-04 -6.33900857144E-04 +7.84311171479E-04 +5.97574731749E-01 -4.93456984783E-01
4.09000000000E+09 +4.43499517299E-01 -4.94214277960E-01 -3.19708353946E-04 +6.77370039419E-04 -4.24053947695E-04 +7.14889623687E-04 +5.83804711410E-01 -5.02089793202E-01
4.09500000000E+09 +4.26962075342E-01 -5.01428258853E-01 -1.46373374783E-04 +5.36156459175E-04 -2.34915957864E-04 +6.09182553443E-04 +5.69818063436E-01 -5.10071306195E-01
4.10000000000E+09 +4.09737214571E-01 -5.07944816946E-01 -2.00485163311E-04 +5.38352063042E-04 -2.38754428904E-04 +6.04277536570E-04 +5.54835106802E-01 -5.18045957495E-01
4.10500000000E+09 +3.93384023793E-01 -5.12709351304E-01 -2.81505560526E-04 +6.17650161759E-04 -3.07441899678E-04 +7.05160608223E-04 +5.38982430320E-01 -5.26110174013E-01
4.11000000000E+09 +3.77585861805E-01 -5.16330034796E-01 -1.87712979705E-05 +7.13772562041E-04 -3.55373500380E-05 +8.02776129423E-04 +5.22640364260E-01 -5.34146197649E-01
4.11500000000E+09 +3.61463463732E-01 -5.18856515197E-01 +3.66167909006E-05 +5.78396276113E-04 +1.03016139915E-04 +6.06011230717E-04 +5.06598296659E-01 -5.41808873950E-01
4.12000000000E+09 +3.44242602381E-01 -5.20267769417E-01 -3.45592398057E-05 +6.29696719642E-04 -4.03014692498E-07 +6.64756352362E-04 +4.90554491825E-01 -5.49341604994E-01
4.12500000000E+09 +3.26916344151E-01 -5.20529562926E-01 +1.57448855859E-04 +6.35307636338E-04 +2.04145308021E-04 +6.98344552979E-04 +4.74082989996E-01 -5.55738004860E-01
4.13000000000E+09 +3.08570240949E-01 -5.22344059019E-01 +2.84503838823E-04 +3.84053093889E-04 +3.01684879502E-04 +4.18085694025E-04 +4.57289715233E-01 -5.62334269247E-01
4.13500000000E+09 +2.88661129378E-01 -5.24091320215E-01 +2.99050809137E-05 +3.51560861795E-04 +1.02159800806E-04 +3.87461047474E-04 +4.39208225259E-01 -5.68206335601E-01
4.14000000000E+09 +2.69004697898E-01 -5.26764093111E-01 +4.32302426614E-05 +5.07802127448E-04 +8.13289377464E-05 +4.62865980727E-04 +4.20605900071E-01 -5.74083157952E-01
4.14500000000E+09 +2.48419741758E-01 -5.31052808762E-01 -1.11238250799E-04 +5.40177642647E-04 -1.20100431671E-04 +4.89446839013E-04 +4.01661699034E-01 -5.79993891296E-01
4.15000000000E+09 +2.27753694564E-01 -5.34615005178E-01 +4.44155912761E-05 +1.12625705403E-03 +1.29303351965E-05 +1.01200289559E-03 +3.83679013372E-01 -5.85388959534E-01
4.15500000000E+09 +2.08384530947E-01 -5.38061530398E-01 +5.00800846658E-04 +1.03150598897E-03 +5.28297671244E-04 +1.00860509811E-03 +3.65195591460E-01 -5.90307606522E-01
4.16000000000E+09 +1.89636544460E-01 -5.40411986997E-01 +8.31357428851E-04 +7.38191122131E-04 +8.49411083411E-04 +7.04074087553E-04 +3.46812049901E-01 -5.93456861107E-01
4.16500000000E+09 +1.71637659600E-01 -5.40708869505E-01 +8.77897527451E-04 +3.36979831281E-04 +8.36370926685E-04 +3.07200013473E-04 +3.27583121118E-01 -5.96792823503E-01
4.17000000000E+09 +1.54466101723E-01 -5.38875578245E-01 +4.95983037827E-04 +5.32437716482E-04 +4.47913014467E-04 +5.43362588619E-04 +3.07430603615E-01 -5.99306122629E-01
4.17500000000E+09 +1.38241721081E-01 -5.34635419890E-01 +9.15182022667E-04 +5.04508741009E-04 +8.67298403181E-04 +5.20624603240E-04 +2.85818439909E-01 -6.01469851764E-01
4.18000000000E+09 +1.21909319766E-01 -5.30397260312E-01 +9.11660084527E-04 +1.21539691127E-04 +8.42855984928E-04 +1.50461555825E-04 +2.64675474991E-01 -6.03059971872E-01
4.18500000000E+09 +1.03465243654E-01 -5.25273265132E-01 +5.30892687576E-04 +3.34050610725E-04 +4.53415916428E-04 +4.78885997671E-04 +2.43640798510E-01 -6.04134547508E-01
4.19000000000E+09 +8.41667316492E-02 -5.19333143172E-01 +1.18732691344E-03 +6.63522541457E-04 +1.19961935823E-03 +7.72207414810E-04 +2.22985160761E-01 -6.04169464718E-01
4.19500000000E+09 +6.39001419727E-02 -5.13990133185E-01 +1.44767283069E-03 -1.26566346531E-04 +1.48230830406E-03 -4.86080368421E-05 +2.01808328047E-01 -6.02873267408E-01
4.20000000000E+09 +4.26095084157E-02 -5.08246452449E-01 +1.10991077665E-03 -2.65501977248E-04 +1.19743579826E-03 -1.87405580324E-04 +1.81089888606E-01 -6.00885168724E-01
4.20500000000E+09 +2.24011995668E-02 -5.03005711050E-01 +1.39716799144E-03 -4.66327122259E-04 +1.47358809749E-03 -3.61541603287E-04 +1.58780083301E-01 -5.98847806108E-01
4.21000000000E+09 +2.72215223452E-03 -4.97862144610E-01 +1.14150789658E-03 -1.14325798174E-03 +1.29818272328E-03 -1.10214297512E-03 +1.36120361890E-01 -5.96323191097E-01
4.21500000000E+09 -1.55657367014E-02 -4.92073371565E-01 +5.31625904213E-04 -9.13085407935E-04 +6.08479236364E-04 -9.63760595329E-04 +1.14022965664E-01 -5.93436706677E-01
4.22000000000E+09 -3.26074614019E-02 -4.85425184448E-01 +4.78514952283E-04 -8.96021779165E-04 +6.05526688920E-04 -8.83873109965E-04 +9.25503910875E-02 -5.90381124908E-01
4.22500000000E+09 -4.87742789866E-02 -4.76846926388E-01 +6.66456267145E-04 -7.09339242002E-04 +7.73637976840E-04 -8.06757842355E-04 +7.06976206036E-02 -5.86054015792E-01
4.23000000000E+09 -6.40917793386E-02 -4.66577117431E-01 +4.81870047805E-04 -1.16654107967E-03 +5.63965469575E-04 -1.25692536102E-03 +4.97525694541E-02 -5.80503424521E-01
4.23500000000E+09 -8.00921629411E-02 -4.54340650522E-01 -1.35314009026E-04 -1.12362783244E-03 -2.60575729706E-05 -1.28635510804E-03 +2.74718125401E-02 -5.73935097534E-01
4.24000000000E+09 -9.68794282817E-02 -4.39803513678E-01 -1.24957000139E-04 -6.77250254612E-04 -1.39959399585E-04 -7.60440521104E-04 +5.06863231581E-03 -5.65863987860E-01
4.24500000000E+09 -1.13475206561E-01 -4.24998817503E-01 +2.37025745096E-04 -7.55022152281E-04 +1.78521353192E-04 -8.10717510565E-04 -1.77374149474E-02 -5.57733358468E-01
4.25000000000E+09 -1.32255563856E-01 -4.10923443363E-01 +1.43301313120E-05 -1.20871784990E-03 -1.04652554314E-04 -1.29779700905E-03 -4.03667343080E-02 -5.48460358392E-01
4.25500000000E+09 -1.52256704634E-01 -3.97088285664E-01 -4.83630032056E-04 -6.64951637386E-04 -5.66982873657E-04 -8.04258359785E-04 -6.12781510148E-02 -5.38411569185E-01
4.26000000000E+09 -1.72805893858E-01 -3.83758511451E-01 -5.68293440790E-05 -5.79162674851E-04 -1.75171582478E-04 -5.93782953827E-04 -8.22046515213E-02 -5.27870989738E-01
4.26500000000E+09 -1.92836702956E-01 -3.70917399594E-01 -1.38019093674E-04 -9.20301090504E-04 -1.94223815657E-04 -9.60250309622E-04 -1.02327405120E-01 -5.16032148833E-01
4.27000000000E+09 -2.10544630671E-01 -3.57866012705E-01 -5.93893004557E-04 -8.58767356925E-04 -6.75191532169E-04 -8.58317164193E-04 -1.23783690991E-01 -5.03069919628E-01
4.27500000000E+09 -2.25881651023E-01 -3.45291065318E-01 -4.81690953013E-04 -6.06340716139E-04 -5.22891357365E-04 -6.00490959926E-04 -1.44905112860E-01 -4.87914419703E-01
4.28000000000E+09 -2.39184374668E-01 -3.32155741932E-01 -7.29250070432E-04 -6.29834678541E-04 -7.88769368023E-04 -5.45255434127E-04 -1.65018190113E-01 -4.73052198128E-01
4.28500000000E+09 -2.50597324228E-01 -3.17381482816E-01 -5.57805721372E-04 -3.89094492944E-04 -6.01251621384E-04 -2.99414823101E-04 -1.84627804991E-01 -4.58522839480E-01
4.29000000000E+09 -2.60618479738E-01 -3.00835260466E-01 -7.87981440757E-04 -4.39769233559E-04 -8.21332167562E-04 -3.16450927647E-04 -2.03507759702E-01 -4.43426681625E-01
4.29500000000E+09 -2.70235857201E-01 -2.82761863133E-01 -5.33619788341E-04 +9.11029376455E-05 -5.44807586915E-04 +1.72929914092E-04 -2.21457660786E-01 -4.27703251415E-01
4.30000000000E+09 -2.80859457977E-01 -2.62936470928E-01 -2.70442199631E-04 -3.04702425780E-04 -1.66135135462E-04 -2.63583459125E-04 -2.38518747232E-01 -4.10691570525E-01
4.30500000000E+09 -2.92186656809E-01 -2.41846097823E-01 -5.78654029706E-04 -7.38502181666E-04 -5.37689376156E-04 -7.45605037953E-04 -2.55385437465E-01 -3.92272698105E-01
4.31000000000E+09 -3.04731856463E-01 -2.20321599054E-01 -9.79727711310E-04 -2.14631446692E-04 -9.18880507270E-04 -1.43755477785E-04 -2.71048052672E-01 -3.73730315845E-01
4.31500000000E+09 -3.17605111191E-01 -1.98947136745E-01 -8.87521494504E-04 -2.25912701350E-04 -8.20262408310E-04 -2.82289086794E-04 -2.87106876026E-01 -3.54729427665E-01
4.32000000000E+09 -3.29701528091E-01 -1.79314039080E-01 -1.14921146523E-03 +2.13740215747E-04 -1.07351190890E-03 +1.44300637538E-04 -3.01922207632E-01 -3.35302048797E-01
4.32500000000E+09 -3.41535299256E-01 -1.60852220768E-01 -4.20584566943E-04 +3.60357810823E-04 -3.79396811865E-04 +2.66075391722E-04 -3.17216043062E-01 -3.15649122960E-01
4.33000000000E+09 -3.50375659924E-01 -1.43474818919E-01 -8.90265868906E-04 +1.04546066507E-04 -8.34734937937E-04 +7.25839046184E-06 -3.30440717326E-01 -2.93514192281E-01
4.33500000000E+09 -3.57396471649E-01 -1.28152531073E-01 -4.95485958468E-04 +7.71369209023E-04 -5.07697408765E-04 +6.95744525843E-04 -3.42944092922E-01 -2.72214792629E-01
4.34000000000E+09 -3.63250996734E-01 -1.11690284693E-01 -1.57588156470E-04 +2.21929024366E-04 -1.74974048924E-04 +1.81960874112E-04 -3.55485012232E-01 -2.48384227226E-01
4.34500000000E+09 -3.65561999094E-01 -9.31729512389E-02 -6.12141773117E-04 -3.95332915707E-05 -7.02176484425E-04 -1.83172848457E-04 -3.66211001045E-01 -2.24973100064E-01
4.35000000000E+09 -3.66959439682E-01 -7.40555326532E-02 -6.89610542875E-04 +6.59294814015E-04 -7.46293494310E-04 +5.81305841296E-04 -3.77373587648E-01 -2.01753457189E-01
4.35500000000E+09 -3.66895719452E-01 -5.22760487219E-02 -3.94100285859E-04 +6.03554723447E-04 -4.98082937801E-04 +5.70867524182E-04 -3.86698991953E-01 -1.77840226442E-01
4.36000000000E+09 -3.67204565978E-01 -2.98865513518E-02 -2.72100479700E-04 +7.17332554407E-04 -3.85539616515E-04 +7.24156456695E-04 -3.93879924367E-01 -1.54818446275E-01
4.36500000000E+09 -3.69087597218E-01 -6.87208207065E-03 +4.55065171149E-06 +7.11074942804E-04 -8.75603963910E-05 +7.44604815480E-04 -4.01104794352E-01 -1.32153103850E-01
4.37000000000E+09 -3.72213726194E-01 +1.65563794393E-02 +1.52208013308E-04 +5.70799155805E-04 +1.30962152890E-04 +6.59895292391E-04 -4.06844494029E-01 -1.08135773792E-01
4.37500000000E+09 -3.76862078965E-01 +3.90234612776E-02 +6.11271164246E-04 +4.81366700363E-05 +6.24124921227E-04 +1.48434921901E-04 -4.11777285202E-01 -8.34071412077E-02
4.38000000000E+09 -3.81241911020E-01 +6.07675936306E-02 -1.76417734259E-04 -3.27787645352E-04 -2.42366946841E-04 -2.90177929300E-04 -4.15564845176E-01 -5.94071084992E-02
4.38500000000E+09 -3.83689743163E-01 +7.96721253297E-02 -5.03458411490E-04 +3.61842633232E-04 -4.72391954981E-04 +4.72921247632E-04 -4.19125249743E-01 -3.49533278883E-02
4.39000000000E+09 -3.86062230188E-01 +9.59101358333E-02 +4.79372162140E-05 +3.92590234605E-04 +1.02065695956E-04 +4.56462577584E-04 -4.21106920026E-01 -1.10990929024E-02
4.39500000000E+09 -3.85858748440E-01 +1.11600898245E-01 -1.51736442184E-04 +1.23377139727E-04 +7.23007539375E-06 +1.45552394106E-04 -4.23077655881E-01 +1.20289048997E-02
4.40000000000E+09 -3.82882706271E-01 +1.26226320630E-01 +7.69839409589E-05 +4.47701117479E-04 +1.88228583497E-04 +4.70521996578E-04 -4.22965868630E-01 +3.57589687523E-02
4.40500000000E+09 -3.78050374327E-01 +1.41293741484E-01 +1.43016395498E-04 -2.88793788917E-05 +2.48519069559E-04 -1.44663416612E-06 -4.23021787849E-01 +5.85706211197E-02
4.41000000000E+09 -3.71803241625E-01 +1.57673131910E-01 +1.02892706330E-04 -5.63082456771E-05 +1.71624895947E-04 -5.02526969209E-05 -4.22540742911E-01 +8.33127161926E-02
4.41500000000E+09 -3.64978678935E-01 +1.76551551191E-01 -1.68492144505E-04 -2.93836611990E-04 -9.40620539444E-05 -3.52868164937E-04 -4.20451127325E-01 +1.07309229417E-01
4.42000000000E+09 -3.58169185256E-01 +1.97572048809E-01 -6.86656538501E-04 -2.05375789810E-04 -6.47959917543E-04 -2.53976082038E-04 -4.17901559316E-01 +1.31883583768E-01
4.42500000000E+09 -3.51761684969E-01 +2.19350669338E-01 -7.48538287965E-04 +2.46567836289E-04 -6.70659161606E-04 +2.21189784437E-04 -4.12787652144E-01 +1.54436530832E-01
4.43000000000E+09 -3.46791096351E-01 +2.41522490834E-01 -7.43133352204E-04 +6.37505302743E-04 -7.11085745285E-04 +5.38453736548E-04 -4.09277784102E-01 +1.76437423632E-01
4.43500000000E+09 -3.42136362924E-01 +2.62688279866E-01 -4.24489741831E-04 +8.96086618626E-04 -3.69535764204E-04 +8.21278382545E-04 -4.03267840515E-01 +1.99889812918E-01
4.44000000000E+09 -3.38386206263E-01 +2.80437027442E-01 +3.90105411489E-05 +8.73236097588E-04 +7.77159040875E-06 +7.79759026315E-04 -3.96818255917E-01 +2.21374025559E-01
4.44500000000E+09 -3.36170049474E-01 +2.96312555499E-01 +9.61187617117E-06 +4.44992171128E-04 -6.80678364972E-05 +3.50546256700E-04 -3.90460584054E-01 +2.43334558289E-01
4.45000000000E+09 -3.33280288977E-01 +3.10194063419E-01 -2.80674614208E-04 +5.79013033152E-04 -3.85646378113E-04 +5.54800368255E-04 -3.83079075065E-01 +2.64484267097E-01
4.45500000000E+09 -3.28368146283E-01 +3.23043865985E-01 -2.34377154046E-04 +9.24329162299E-04 -3.43529966745E-04 +8.91257135445E-04 -3.74653699603E-01 +2.84273515439E-01
4.46000000000E+09 -3.21308041602E-01 +3.34969840579E-01 +7.05932702799E-05 +9.81392116440E-04 -2.10373307006E-07 +9.81530835925E-04 -3.66497280785E-01 +3.03182186292E-01
4.46500000000E+09 -3.11701344932E-01 +3.47295580321E-01 +2.16750829671E-04 +1.02426197884E-03 +1.26539512964E-04 +1.02412958182E-03 -3.56624830817E-01 +3.22664621413E-01
4.47000000000E+09 -3.00113552563E-01 +3.60706396171E-01 +5.74607245458E-04 +1.09793408923E-03 +4.98573698287E-04 +1.18709960967E-03 -3.45751153639E-01 +3.41043313706E-01
4.47500000000E+09 -2.87180739547E-01 +3.74793331792E-01 +6.55101485497E-04 +9.18627791826E-04 +6.13124197040E-04 +9.92704509645E-04 -3.35375288444E-01 +3.59720356045E-01
4.48000000000E+09 -2.75449452359E-01 +3.91027689211E-01 +1.07516174885E-03 +9.70671268825E-04 +1.09665365462E-03 +9.91064442099E-04 -3.23638237711E-01 +3.78069554430E-01
4.48500000000E+09 -2.62987793797E-01 +4.08471133449E-01 +1.13216981765E-03 +1.58686516162E-04 +1.09502271256E-03 +2.70524361725E-04 -3.12556369346E-01 +3.94924611097E-01
4.49000000000E+09 -2.52373036799E-01 +4.24503874940E-01 +8.41768486081E-04 +2.31252663145E-04 +8.75918018346E-04 +2.70138093924E-04 -3.01758560358E-01 +4.11063200634E-01
4.49500000000E+09 -2.43956966202E-01 +4.40302174000E-01 +8.14257345798E-04 +1.97603212223E-04 +8.65213891034E-04 +2.20676118520E-04 -2.90725676338E-01 +4.26702171327E-01
4.50000000000E+09 -2.36907799506E-01 +4.53097990202E-01 +6.73405004710E-04 +4.23403852664E-04 +7.61219449472E-04 +4.74442029073E-04 -2.78681198831E-01 +4.42458556155E-01
4.50500000000E+09 -2.32428544956E-01 +4.64743175510E-01 +1.22583213556E-03 +3.62163014941E-04 +1.29840699827E-03 +3.01495688716E-04 -2.65801399050E-01 +4.57522959219E-01
4.51000000000E+09 -2.26200162661E-01 +4.74954581829E-01 +1.26617355441E-03 -2.56500262089E-04 +1.36504491058E-03 -3.15989114682E-04 -2.52556211371E-01 +4.72476448739E-01
4.51500000000E+09 -2.19116637216E-01 +4.82528533657E-01 +9.03366391842E-04 -3.48038935876E-04 +1.05633907984E-03 -3.71185799974E-04 -2.39010706440E-01 +4.87136048888E-01
4.52000000000E+09 -2.09664972839E-01 +4.90253255180E-01 +1.00386448372E-03 -4.76456941705E-04 +1.04983304008E-03 -5.85259293256E-04 -2.25770984839E-01 +5.00519071974E-01
4.52500000000E+09 -1.97659010223E-01 +4.96175601534E-01 +6.23391381652E-04 -6.05631272562E-04 +6.54844125111E-04 -7.37150257245E-04 -2.12013146184E-01 +5.13136416500E-01
4.53000000000E+09 -1.84563869567E-01 +5.03364833619E-01 +4.50756995164E-04 -4.21236306405E-04 +3.99723156724E-04 -4.65598647351E-04 -1.98079171096E-01 +5.24706462097E-01
4.53500000000E+09 -1.69310364570E-01 +5.11938093083E-01 +4.67286899832E-04 -1.68193416719E-04 +4.81374138086E-04 -3.18795536517E-04 -1.83437392374E-01 +5.36473757866E-01
4.54000000000E+09 -1.54182103313E-01 +5.21357652275E-01 +9.43704466205E-04 +4.72143364434E-06 +9.26131328098E-04 -1.60283874831E-04 -1.67573598063E-01 +5.47363315447E-01
4.54500000000E+09 -1.39121279086E-01 +5.32359775316E-01 +1.12720551995E-03 -7.20056533542E-04 +1.02188367064E-03 -7.54721428384E-04 -1.52509494419E-01 +5.57381369060E-01
4.55000000000E+09 -1.25333589187E-01 +5.42538572038E-01 +8.21432104125E-04 -6.98485183042E-04 +6.64610542150E-04 -6.45607241527E-04 -1.37524314984E-01 +5.67695259572E-01
4.55500000000E+09 -1.13943195989E-01 +5.52595129778E-01 +8.03149264788E-04 -9.50655222370E-04 +6.53552337361E-04 -9.28644453212E-04 -1.23136522808E-01 +5.77110349010E-01
4.56000000000E+09 -1.03826817000E-01 +5.61742060348E-01 +5.13964713294E-04 -8.70788582282E-04 +3.67626782812E-04 -8.28374897463E-04 -1.08579806501E-01 +5.85766734964E-01
4.56500000000E+09 -9.52442963077E-02 +5.69455365055E-01 +5.90939787553E-04 -1.08480924013E-03 +4.70049976867E-04 -1.00048966173E-03 -9.47012039845E-02 +5.94284061799E-01
4.57000000000E+09 -8.61485065879E-02 +5.76277792478E-01 +4.14285411633E-04 -1.10416707944E-03 +3.02272643909E-04 -1.05578548181E-03 -7.88930117610E-02 +6.02780212667E-01
