# Hz S RI R 50
! CMT, C1220, 16058040, 17.2.0/1
! Date: 15/08/2018 12:29:41
! Data: Format (Calibration Info)
! Freq                      S11: Re/Im (F2)                       S21: Re/Im (F2)                       S12: Re/Im (F2)                       S22: Re/Im (F2)            
4.00000000000E+09 +6.57827822951E-01 -3.62173520013E-01 -2.26222980925E-04 -7.66865574874E-04 -2.13131563932E-04 -7.74120347350E-04 +7.83535745219E-01 -3.17707644177E-01
4.00500000000E+09 +6.50125294353E-01 -3.68381764292E-01 -2.53763721573E-04 -6.83984371249E-04 -1.72414960635E-04 -7.13119727242E-04 +7.75038344640E-01 -3.29478476857E-01
4.01000000000E+09 +6.41369394273E-01 -3.74450013060E-01 -3.48864670298E-04 -7.76065274492E-04 -3.41959300625E-04 -8.54431995878E-04 +7.66375407969E-01 -3.41435044693E-01
4.01500000000E+09 +6.32072410059E-01 -3.80854864704E-01 -5.33389962872E-04 -6.25415144340E-04 -4.99000343737E-04 -6.68812637068E-04 +7.57663020892E-01 -3.52380079935E-01
4.02000000000E+09 +6.21592693167E-01 -3.88775179122E-01 -5.10131107107E-04 -5.88937852272E-04 -4.20102845118E-04 -6.15622458115E-04 +7.48566574073E-01 -3.63155607901E-01
4.02500000000E+09 +6.10590811407E-01 -3.97910107253E-01 -5.09085438281E-04 -5.79069414651E-04 -4.49808918997E-04 -6.41114068064E-04 +7.38846307804E-01 -3.73144917024E-01
4.03000000000E+09 +5.98553814794E-01 -4.07731469642E-01 -6.52174507757E-04 -6.46131865020E-04 -6.12445720651E-04 -7.33713965864E-04 +7.28958901634E-01 -3.83525290907E-01
4.03500000000E+09 +5.87268935141E-01 -4.17577242841E-01 -7.55619955766E-04 -4.89343462518E-04 -7.84635863597E-04 -5.32656488106E-04 +7.17952093759E-01 -3.94522499569E-01
4.04000000000E+09 +5.76177738505E-01 -4.28159539004E-01 -8.41243984187E-04 -3.88158656249E-04 -9.16510817720E-04 -4.64700277449E-04 +7.07177173321E-01 -4.05589761579E-01
4.04500000000E+09 +5.64219680474E-01 -4.38027872489E-01 -8.19866763918E-04 -1.27100198083E-04 -9.16282192760E-04 -1.78041474148E-04 +6.96457852942E-01 -4.16868477474E-01
4.05000000000E+09 +5.52539368460E-01 -4.45559861200E-01 -6.48052458985E-04 -8.42542392437E-05 -7.10895562914E-04 -1.00081617621E-04 +6.85387136771E-01 -4.27733126284E-01
4.05500000000E+09 +5.40868299818E-01 -4.52116711315E-01 -5.81855392379E-04 -1.23894029087E-04 -6.49712093034E-04 -1.38473209553E-04 +6.74151190957E-01 -4.37003115396E-01
4.06000000000E+09 +5.28199969785E-01 -4.56719698941E-01 -6.86125441354E-04 -1.94869734364E-04 -7.47260551953E-04 -2.11112286389E-04 +6.62940761522E-01 -4.46428133920E-01
4.06500000000E+09 +5.16021008399E-01 -4.60187874183E-01 -8.60459832496E-04 -1.92066702735E-04 -8.71244189064E-04 -1.58630807274E-04 +6.50311099738E-01 -4.55639202396E-01
4.07000000000E+09 +5.02425599595E-01 -4.65039540326E-01 -9.58892751533E-04 -1.09117994792E-04 -9.50794234645E-04 -6.94448907020E-05 +6.37276986208E-01 -4.65496044248E-01
4.07500000000E+09 +4.87614922742E-01 -4.69656898214E-01 -9.47915028329E-04 +2.31692676837E-05 -9.64453159588E-04 -7.24199176354E-06 +6.23530594469E-01 -4.75747555324E-01
4.08000000000E+09 +4.71476346187E-01 -4.75308268086E-01 -1.00826825773E-03 +1.81125102379E-04 -1.00868020836E-03 +1.74162340442E-04 +6.10008042584E-01 -4.85480484491E-01
4.08500000000E+09 +4.54484488062E-01 -4.81037994523E-01 -1.06066750645E-03 +3.98886972280E-04 -1.05101768973E-03 +4.20760677373E-04 +5.96847071477E-01 -4.94992816933E-01
4.09000000000E+09 +4.37696522392E-01 -4.87442506383E-01 -7.88416044521E-04 +4.71952810821E-04 -8.06108186810E-04 +4.50081654564E-04 +5.83145006287E-01 -5.03834672392E-01
4.09500000000E+09 +4.21085192176E-01 -4.94114861368E-01 -8.44310150355E-04 +2.26287277110E-04 -8.33223040935E-04 +3.03980626303E-04 +5.68828944297E-01 -5.11657491291E-01
4.10000000000E+09 +4.03543394333E-01 -4.99625323273E-01 -1.00995516245E-03 +4.61177372071E-04 -9.79512036782E-04 +4.85329565635E-04 +5.53745782398E-01 -5.19772876434E-01
4.10500000000E+09 +3.87667545549E-01 -5.03206096945E-01 -1.07194530558E-03 +6.60130249249E-04 -1.05440466834E-03 +5.92434095222E-04 +5.37706320758E-01 -5.27588769875E-01
4.11000000000E+09 +3.72396092906E-01 -5.06422816100E-01 -9.39452941351E-04 +9.19112806530E-04 -9.46721278348E-04 +8.91961754274E-04 +5.21398412110E-01 -5.35534905504E-01
4.11500000000E+09 +3.56686963931E-01 -5.08517301644E-01 -8.07482706049E-04 +1.31461938428E-03 -8.28477772652E-04 +1.24289132752E-03 +5.05018965845E-01 -5.43007217404E-01
4.12000000000E+09 +3.40293572745E-01 -5.09226550410E-01 -5.23052632654E-04 +1.30475432928E-03 -5.90397027800E-04 +1.32330284809E-03 +4.89081179598E-01 -5.50222191555E-01
4.12500000000E+09 +3.23389825465E-01 -5.09299068216E-01 -2.91905825311E-04 +1.48075021871E-03 -3.54788415103E-04 +1.53749124953E-03 +4.72616329870E-01 -5.56834148050E-01
4.13000000000E+09 +3.05207935545E-01 -5.10651377596E-01 +7.43065574111E-05 +1.11549847783E-03 -2.73544270057E-05 +1.21143926380E-03 +4.55521157921E-01 -5.63287477677E-01
4.13500000000E+09 +2.85634854038E-01 -5.11434901063E-01 -1.24275397543E-04 +1.07656067216E-03 -2.07954442660E-04 +1.10109757503E-03 +4.37381281005E-01 -5.69039584993E-01
4.14000000000E+09 +2.67148677448E-01 -5.13154251957E-01 -1.00818113133E-04 +1.18986515916E-03 -1.88246953700E-04 +1.31470058532E-03 +4.18472899640E-01 -5.74836028280E-01
4.14500000000E+09 +2.47704525217E-01 -5.17489011103E-01 -6.50896970640E-05 +1.38456928587E-03 -1.33339182283E-04 +1.47578346231E-03 +3.99425482833E-01 -5.79934933247E-01
4.15000000000E+09 +2.27386741198E-01 -5.20791469977E-01 +2.20778613298E-04 +1.69089359007E-03 +1.70650853705E-04 +1.87249211623E-03 +3.81485193375E-01 -5.85118742566E-01
4.15500000000E+09 +2.08498329670E-01 -5.23658442154E-01 +7.47496730099E-04 +1.64988484418E-03 +7.31822547996E-04 +1.80496664652E-03 +3.63028201286E-01 -5.89590583319E-01
4.16000000000E+09 +1.90531767018E-01 -5.25930310519E-01 +1.16243354279E-03 +1.24206861678E-03 +1.25717578227E-03 +1.35917979017E-03 +3.44973586807E-01 -5.92163898138E-01
4.16500000000E+09 +1.72660978868E-01 -5.25530873670E-01 +1.11457757946E-03 +7.18939139710E-04 +1.14511310927E-03 +7.36607172892E-04 +3.26108558966E-01 -5.95507971690E-01
4.17000000000E+09 +1.56318592941E-01 -5.22890628312E-01 +7.71663389077E-04 +7.53088634270E-04 +8.51990697353E-04 +7.63249964345E-04 +3.06099500708E-01 -5.97662680313E-01
4.17500000000E+09 +1.41291065150E-01 -5.18233222661E-01 +1.02384651684E-03 +8.75285955289E-04 +1.11836597416E-03 +9.47608956927E-04 +2.85040100881E-01 -5.99689239616E-01
4.18000000000E+09 +1.25948725630E-01 -5.14076021338E-01 +9.67635938149E-04 +3.76725149471E-04 +1.01898982184E-03 +4.09053738223E-04 +2.64299279792E-01 -6.01422427337E-01
4.18500000000E+09 +1.08522547199E-01 -5.08878739468E-01 +5.38509599004E-04 +9.25796720730E-04 +5.74226250466E-04 +9.27986734393E-04 +2.43304778982E-01 -6.02425088230E-01
4.19000000000E+09 +9.04368509832E-02 -5.03105748213E-01 +1.20373805252E-03 +1.26882469114E-03 +1.30044580062E-03 +1.21127939356E-03 +2.23034263894E-01 -6.02442165646E-01
4.19500000000E+09 +7.10345376238E-02 -4.97718596417E-01 +1.71407512191E-03 +5.97730478024E-04 +1.79099734325E-03 +5.73223544684E-04 +2.02198167772E-01 -6.01288024964E-01
4.20000000000E+09 +5.10403229374E-02 -4.92131621516E-01 +1.58356853747E-03 +3.85163043542E-04 +1.54377323808E-03 +3.79936068731E-04 +1.81672935696E-01 -5.99651143459E-01
4.20500000000E+09 +3.16663600092E-02 -4.86720815265E-01 +1.94647608616E-03 +1.67718624106E-04 +1.87121677531E-03 +1.31537500254E-04 +1.59261332224E-01 -5.97803085723E-01
4.21000000000E+09 +1.35544519563E-02 -4.81713417285E-01 +1.70681982462E-03 -4.30517220915E-04 +1.66276916582E-03 -4.57769110366E-04 +1.36755911311E-01 -5.95121766696E-01
4.21500000000E+09 -3.71799057096E-03 -4.76332524972E-01 +1.18814993938E-03 -3.10584963006E-04 +1.11758060768E-03 -3.34571999300E-04 +1.14597512300E-01 -5.92501763103E-01
4.22000000000E+09 -2.00669352797E-02 -4.69956075791E-01 +1.43152571060E-03 -3.03627328332E-05 +1.37479803825E-03 -2.97487671058E-05 +9.30147338857E-02 -5.89486453870E-01
4.22500000000E+09 -3.48273741463E-02 -4.61257912416E-01 +1.99450629931E-03 -2.93877235552E-04 +2.00831060390E-03 -2.84718085301E-04 +7.11628493908E-02 -5.84944689943E-01
4.23000000000E+09 -4.93185871000E-02 -4.52175774672E-01 +1.76839316056E-03 -1.22254404092E-03 +1.78363436212E-03 -1.12693962603E-03 +5.02674762115E-02 -5.79335983935E-01
4.23500000000E+09 -6.48094505915E-02 -4.40369977758E-01 +1.22381734409E-03 -1.16476459731E-03 +1.25614684695E-03 -1.05571510277E-03 +2.81905129374E-02 -5.72389306735E-01
4.24000000000E+09 -8.03285623142E-02 -4.26854458411E-01 +1.36215303510E-03 -1.11070453489E-03 +1.42862619693E-03 -9.93550846898E-04 +6.39466549152E-03 -5.64105638466E-01
4.24500000000E+09 -9.68076623038E-02 -4.13731675461E-01 +1.33952422957E-03 -1.57274053070E-03 +1.42535719581E-03 -1.52653417758E-03 -1.61376686856E-02 -5.55974910305E-01
4.25000000000E+09 -1.15429819035E-01 -4.00117827750E-01 +8.07215004142E-04 -2.15913605904E-03 +8.60252724520E-04 -2.12740504447E-03 -3.82509953390E-02 -5.46697915507E-01
4.25500000000E+09 -1.34761459755E-01 -3.87272921261E-01 +2.36577854345E-04 -1.32667287516E-03 +3.49970429346E-04 -1.31798122407E-03 -5.87859481267E-02 -5.37053283918E-01
4.26000000000E+09 -1.54631547007E-01 -3.74987976590E-01 +8.94001057332E-04 -1.50662068297E-03 +9.78081332668E-04 -1.53779490442E-03 -7.92664458981E-02 -5.26414698681E-01
4.26500000000E+09 -1.74698119759E-01 -3.63406379158E-01 +5.29495903880E-04 -2.30604224896E-03 +5.62112824853E-04 -2.36264859507E-03 -9.86702579734E-02 -5.15089685836E-01
4.27000000000E+09 -1.92277771347E-01 -3.51181552958E-01 -3.62894632141E-04 -2.22278311248E-03 -2.95268596032E-04 -2.30929293996E-03 -1.19941028868E-01 -5.03366840287E-01
4.27500000000E+09 -2.07636565755E-01 -3.39398027793E-01 -5.20577024152E-04 -2.13071164992E-03 -4.86419013679E-04 -2.21816002245E-03 -1.41304013056E-01 -4.88609941463E-01
4.28000000000E+09 -2.20658729464E-01 -3.26940550926E-01 -1.32413888642E-03 -1.82810752218E-03 -1.29464449110E-03 -1.97764276634E-03 -1.61178607480E-01 -4.74275906154E-01
4.28500000000E+09 -2.32015293284E-01 -3.13119312800E-01 -1.32252871247E-03 -1.04741203120E-03 -1.33267517538E-03 -1.11661869896E-03 -1.81425286514E-01 -4.60460419963E-01
4.29000000000E+09 -2.41962049990E-01 -2.97335408668E-01 -1.15878700032E-03 -7.07281488377E-04 -1.24308739641E-03 -7.99827967872E-04 -2.00642303703E-01 -4.45314798383E-01
4.29500000000E+09 -2.51438255414E-01 -2.80494823547E-01 -6.90351529008E-04 -5.03328880754E-04 -7.58381740237E-04 -5.46363074117E-04 -2.18628560235E-01 -4.29985222760E-01
4.30000000000E+09 -2.62550301312E-01 -2.61983131866E-01 -5.80566689263E-04 -9.13038625199E-04 -6.32485218766E-04 -9.42283512551E-04 -2.36139298382E-01 -4.13294400249E-01
4.30500000000E+09 -2.74364105396E-01 -2.41402675853E-01 -1.07122401883E-03 -1.21606109216E-03 -1.15909505860E-03 -1.27168593805E-03 -2.53103019751E-01 -3.95193792841E-01
4.31000000000E+09 -2.86213811355E-01 -2.21051526474E-01 -1.52145192121E-03 -5.55557939775E-04 -1.60343892425E-03 -5.54150931164E-04 -2.69491014135E-01 -3.76905122203E-01
4.31500000000E+09 -2.99518775122E-01 -2.01433890133E-01 -1.42928327177E-03 -3.07080271543E-04 -1.52141809225E-03 -3.59502711725E-04 -2.85865763243E-01 -3.57495238459E-01
4.32000000000E+09 -3.12204841332E-01 -1.83008843121E-01 -1.19602190942E-03 +1.66624876238E-04 -1.32709777430E-03 +2.78422885219E-04 -3.00934194762E-01 -3.37745477567E-01
4.32500000000E+09 -3.24658023462E-01 -1.65633548238E-01 -6.29648689746E-04 +7.86324015072E-05 -6.48893293778E-04 +1.86665458432E-04 -3.15956062765E-01 -3.17851681417E-01
4.33000000000E+09 -3.34256652159E-01 -1.48841887396E-01 -9.06515499252E-04 -1.53268753218E-04 -8.69138251112E-04 -1.11522598225E-04 -3.28894473174E-01 -2.96066180053E-01
4.33500000000E+09 -3.41841685272E-01 -1.34016778049E-01 -6.55317627491E-04 +1.90721775154E-04 -6.80868748573E-04 +2.39736304747E-04 -3.41533702154E-01 -2.74718820462E-01
4.34000000000E+09 -3.47697813716E-01 -1.17923425308E-01 -4.36689275650E-04 -1.65798900186E-04 -4.31359348260E-04 -1.32966938998E-04 -3.53607614328E-01 -2.51182572516E-01
4.34500000000E+09 -3.50152624777E-01 -1.00678243718E-01 -8.83088337997E-04 -5.92054265758E-04 -8.90707260635E-04 -5.18648234952E-04 -3.64444255362E-01 -2.28697998987E-01
4.35000000000E+09 -3.52475904300E-01 -8.28398534210E-02 -1.20124917874E-03 -1.65167591522E-05 -1.20996955884E-03 +5.55776301241E-05 -3.75997565096E-01 -2.05826544004E-01
4.35500000000E+09 -3.54168920316E-01 -6.17737220621E-02 -1.14875595428E-03 +1.75011232404E-04 -1.09360922666E-03 +1.87849140955E-04 -3.85725570123E-01 -1.82285774188E-01
4.36000000000E+09 -3.55447761949E-01 -3.97556916220E-02 -1.07527171379E-03 +3.74131615524E-04 -1.03963255960E-03 +4.17681715641E-04 -3.93708145138E-01 -1.59885614549E-01
4.36500000000E+09 -3.58669751578E-01 -1.69709653763E-02 -7.77957507606E-04 +7.81634073929E-04 -7.06291141182E-04 +7.69058986315E-04 -4.01826278872E-01 -1.36947624220E-01
4.37000000000E+09 -3.62526411827E-01 +6.37059908976E-03 -2.96701559998E-04 +3.55795913158E-04 -2.72588855038E-04 +3.23795107062E-04 -4.07909787582E-01 -1.12697072984E-01
4.37500000000E+09 -3.67444856059E-01 +2.83682242520E-02 -3.91747012572E-04 -1.42288802936E-04 -3.28253558027E-04 -1.84692386375E-04 -4.13356615225E-01 -8.80793785487E-02
4.38000000000E+09 -3.72895752935E-01 +4.96026891635E-02 -1.14499820062E-03 -2.53947930149E-04 -1.17593056154E-03 -3.36176703518E-04 -4.17783758071E-01 -6.38239558001E-02
4.38500000000E+09 -3.76296300288E-01 +6.79513680749E-02 -1.50229874548E-03 +6.97265680996E-04 -1.53017450592E-03 +6.40424220114E-04 -4.21860229940E-01 -3.92106698462E-02
4.39000000000E+09 -3.79814179288E-01 +8.40193213205E-02 -6.74313106547E-04 +1.10379762536E-03 -7.11838699486E-04 +1.07234970105E-03 -4.24743675427E-01 -1.48003241424E-02
4.39500000000E+09 -3.80524379049E-01 +9.96973616395E-02 -6.02862748135E-04 +5.92880348019E-04 -6.13575105612E-04 +5.95985934153E-04 -4.26820805592E-01 +9.57888743263E-03
4.40000000000E+09 -3.78772311518E-01 +1.14429255953E-01 -4.35955113983E-04 +9.48151192558E-04 -4.23188226526E-04 +9.88633772949E-04 -4.26775761763E-01 +3.36973837888E-02
4.40500000000E+09 -3.75121278926E-01 +1.30021733020E-01 -1.57775830576E-04 +4.71140363469E-04 -2.40288832605E-04 +5.89861541169E-04 -4.26853628088E-01 +5.77224359340E-02
4.41000000000E+09 -3.69365226340E-01 +1.46535001182E-01 -4.83071634687E-04 +4.57896581503E-04 -4.64440225178E-04 +5.40256707512E-04 -4.25272343473E-01 +8.27197645668E-02
4.41500000000E+09 -3.63645626331E-01 +1.65495817955E-01 -4.20935324045E-04 +6.68473408750E-04 -4.67979798959E-04 +7.67481876048E-04 -4.23225351907E-01 +1.06245034332E-01
4.42000000000E+09 -3.57739363519E-01 +1.86412685044E-01 -5.46072546906E-04 +5.22928273369E-04 -5.79364504115E-04 +5.67244406224E-04 -4.20612671992E-01 +1.31183451992E-01
4.42500000000E+09 -3.52897834090E-01 +2.08356009924E-01 -6.00308811339E-04 +8.05304659602E-04 -5.62470527875E-04 +8.33781539450E-04 -4.15180882191E-01 +1.53841717379E-01
4.43000000000E+09 -3.49032563824E-01 +2.31245665902E-01 -6.95348292660E-04 +1.06432946317E-03 -6.06392442732E-04 +1.07682473693E-03 -4.11796669243E-01 +1.75838524965E-01
4.43500000000E+09 -3.45009403236E-01 +2.53011929792E-01 -2.28355043648E-04 +1.35807956268E-03 -2.53253638224E-04 +1.39688680307E-03 -4.05637434312E-01 +1.99556466604E-01
4.44000000000E+09 -3.41898509322E-01 +2.71497366698E-01 +1.92785631453E-04 +1.17347849107E-03 +2.24286608205E-04 +1.17984274429E-03 -3.99085935472E-01 +2.20974947149E-01
4.44500000000E+09 -3.39628562308E-01 +2.88092934992E-01 +3.75524218448E-05 +7.34366367105E-04 +8.39980967678E-05 +7.61258224944E-04 -3.92516376688E-01 +2.42968222969E-01
4.45000000000E+09 -3.36958350945E-01 +3.01886486810E-01 -1.18990881675E-04 +8.94332351877E-04 -6.43770864558E-05 +9.25184869580E-04 -3.85420449156E-01 +2.63776598308E-01
4.45500000000E+09 -3.32964482887E-01 +3.15259583948E-01 -2.55634644633E-04 +1.14077949469E-03 -2.13048100302E-04 +1.09786517231E-03 -3.77505290119E-01 +2.84019172034E-01
4.46000000000E+09 -3.26111905498E-01 +3.27983403049E-01 +2.01931446656E-04 +1.32214967164E-03 +1.85831022328E-04 +1.28295158726E-03 -3.69403580122E-01 +3.03401478726E-01
4.46500000000E+09 -3.17683501096E-01 +3.40892646609E-01 +4.24855862509E-04 +1.20258608534E-03 +4.06727679020E-04 +1.21471934840E-03 -3.59609712190E-01 +3.23362844518E-01
4.47000000000E+09 -3.06400745261E-01 +3.55813123417E-01 +6.05607003887E-04 +1.14810069652E-03 +7.06460435794E-04 +1.10518820465E-03 -3.48367912689E-01 +3.42248459126E-01
4.47500000000E+09 -2.93519391128E-01 +3.70889305143E-01 +3.89005652208E-04 +1.04201145476E-03 +4.08688432532E-04 +1.01425344263E-03 -3.37644332427E-01 +3.61252531272E-01
4.48000000000E+09 -2.81629420840E-01 +3.87666957462E-01 +9.40439005678E-04 +1.35650261732E-03 +9.84808905496E-04 +1.26993201209E-03 -3.25814323678E-01 +3.79874304786E-01
4.48500000000E+09 -2.69246241903E-01 +4.05133359628E-01 +9.17850895384E-04 +7.70853507669E-04 +8.69435962434E-04 +7.47041820471E-04 -3.14156672736E-01 +3.97157299241E-01
4.49000000000E+09 -2.59614327230E-01 +4.21329865418E-01 +9.09399693739E-04 +9.47887953522E-04 +9.24964235874E-04 +8.84790170848E-04 -3.02646335698E-01 +4.13270834732E-01
4.49500000000E+09 -2.52018636161E-01 +4.38143241037E-01 +1.14123478065E-03 +8.26574537150E-04 +1.07958642759E-03 +7.94758920460E-04 -2.91402175767E-01 +4.28880273432E-01
4.50000000000E+09 -2.45156671450E-01 +4.51986203086E-01 +1.06191968739E-03 +7.95820447664E-04 +1.10451979638E-03 +7.35036229764E-04 -2.78728706430E-01 +4.44647008711E-01
4.50500000000E+09 -2.40327834027E-01 +4.64717412703E-01 +1.58483833131E-03 +6.93434438036E-04 +1.57996148727E-03 +6.74336808785E-04 -2.65414916580E-01 +4.59392975051E-01
4.51000000000E+09 -2.33534876159E-01 +4.75158519713E-01 +1.49764536307E-03 +2.05997004681E-04 +1.49516085111E-03 +9.72153374441E-05 -2.51958456627E-01 +4.74059242562E-01
4.51500000000E+09 -2.26301962347E-01 +4.83106094901E-01 +1.40123964152E-03 +1.97722816601E-04 +1.38585425865E-03 +1.83130946384E-04 -2.38019728267E-01 +4.88249727098E-01
4.52000000000E+09 -2.16980546369E-01 +4.91246560407E-01 +1.55867395410E-03 -2.98402820551E-05 +1.51192667173E-03 -8.30111261556E-05 -2.24718203112E-01 +5.01264498748E-01
4.52500000000E+09 -2.04789655865E-01 +4.97939987069E-01 +1.29850388449E-03 -2.54307510392E-04 +1.26693386556E-03 -3.20693527361E-04 -2.11126230286E-01 +5.13584356578E-01
4.53000000000E+09 -1.91472189177E-01 +5.05956116994E-01 +1.44465326950E-03 -1.20448380441E-04 +1.40254397427E-03 -2.07610604742E-04 -1.97131014034E-01 +5.24844774067E-01
4.53500000000E+09 -1.76094561285E-01 +5.15077847574E-01 +1.20960489075E-03 -4.27126133340E-04 +1.15951800077E-03 -4.16696945475E-04 -1.82925111756E-01 +5.36561721761E-01
4.54000000000E+09 -1.60504066520E-01 +5.24945639606E-01 +1.50990836793E-03 -2.62029906608E-04 +1.52384303653E-03 -2.70497847659E-04 -1.66878523379E-01 +5.47479247064E-01
4.54500000000E+09 -1.45094580854E-01 +5.36434848859E-01 +1.62291328883E-03 -9.40333627442E-04 +1.50215932808E-03 -9.68557490606E-04 -1.51997579640E-01 +5.57078982830E-01
4.55000000000E+09 -1.31007234219E-01 +5.46853282273E-01 +1.29067800659E-03 -1.05938076156E-03 +1.23403674593E-03 -1.00380671318E-03 -1.37295279769E-01 +5.67710016608E-01
4.55500000000E+09 -1.19350695629E-01 +5.57391355933E-01 +1.20012510627E-03 -1.21795582207E-03 +1.14753247392E-03 -1.20275889988E-03 -1.22618855931E-01 +5.77185384638E-01
4.56000000000E+09 -1.08879679117E-01 +5.66666272777E-01 +8.64491754958E-04 -1.31047637688E-03 +8.54656337802E-04 -1.28035577962E-03 -1.08008500702E-01 +5.85806289070E-01
4.56500000000E+09 -9.97348930243E-02 +5.74602576362E-01 +7.19427134385E-04 -1.34688839207E-03 +7.06815854387E-04 -1.30302966146E-03 -9.40902098451E-02 +5.94212150662E-01
4.57000000000E+09 -9.07281100133E-02 +5.81172212785E-01 +6.79227042018E-04 -1.42630832567E-03 +6.59617020029E-04 -1.40085297941E-03 -7.84955065329E-02 +6.02746913242E-01
