# Hz S RI R 50
! CMT, C1220, 16058040, 17.2.0/1
! Date: 15/08/2018 12:35:04
! Data: Format (Calibration Info)
! Freq                      S11: Re/Im (F2)                       S21: Re/Im (F2)                       S12: Re/Im (F2)                       S22: Re/Im (F2)            
4.00000000000E+09 +6.63957661863E-01 -3.66301122650E-01 -2.48211958167E-04 -7.57596976608E-04 -2.97980262285E-04 -7.78499322842E-04 +7.83101846967E-01 -3.17798060619E-01
4.00500000000E+09 +6.55753603557E-01 -3.73035059803E-01 -2.33042341003E-04 -6.66083220832E-04 -3.05462392622E-04 -6.57271855847E-04 +7.74646358935E-01 -3.29675281980E-01
4.01000000000E+09 +6.46568716947E-01 -3.79618565633E-01 -3.64583697880E-04 -7.54195613937E-04 -3.73021068690E-04 -6.57844832499E-04 +7.65756675305E-01 -3.41559650751E-01
4.01500000000E+09 +6.36595697901E-01 -3.86768556554E-01 -3.91843418332E-04 -5.57173930765E-04 -3.58568146683E-04 -5.69207012892E-04 +7.57073645365E-01 -3.52503548618E-01
4.02000000000E+09 +6.26293011741E-01 -3.95439266279E-01 -3.31699434741E-04 -5.81249837844E-04 -3.64401380492E-04 -5.43694871401E-04 +7.47812004742E-01 -3.63183126033E-01
4.02500000000E+09 +6.15218865525E-01 -4.05418401607E-01 -2.70221653112E-04 -6.61185305230E-04 -3.74408287449E-04 -6.22992131971E-04 +7.38142565139E-01 -3.73040327246E-01
4.03000000000E+09 +6.03525769099E-01 -4.16070791624E-01 -5.62912794614E-04 -7.79270662453E-04 -5.72617943806E-04 -8.22961138562E-04 +7.28318398548E-01 -3.83458415732E-01
4.03500000000E+09 +5.92378941939E-01 -4.26646330552E-01 -7.76575477638E-04 -6.72993671054E-04 -7.26548330687E-04 -7.02232426826E-04 +7.16973795639E-01 -3.94415604832E-01
4.04000000000E+09 +5.81486716257E-01 -4.37450226381E-01 -9.94222433665E-04 -5.96757759251E-04 -9.96511696870E-04 -6.28265169303E-04 +7.06377286634E-01 -4.05511399111E-01
4.04500000000E+09 +5.69992455384E-01 -4.47322789327E-01 -9.52520026154E-04 -3.01855575886E-04 -9.77477954863E-04 -3.89607343162E-04 +6.95576742827E-01 -4.16824021980E-01
4.05000000000E+09 +5.58621449071E-01 -4.55046733095E-01 -8.90920027146E-04 -1.66468348050E-04 -9.14471392627E-04 -2.35332899656E-04 +6.84309380862E-01 -4.27466708982E-01
4.05500000000E+09 +5.47124407929E-01 -4.61820854268E-01 -8.35897275917E-04 -8.92033535543E-05 -8.69563198368E-04 -2.24778002606E-04 +6.73070904329E-01 -4.36742748187E-01
4.06000000000E+09 +5.34471712664E-01 -4.66940343899E-01 -8.62101349586E-04 -1.71720439479E-04 -9.38982673375E-04 -2.38514082575E-04 +6.61759170791E-01 -4.45961574997E-01
4.06500000000E+09 +5.21642960732E-01 -4.71185963244E-01 -9.34303405073E-04 -1.64949172106E-04 -9.56492268586E-04 -1.94619418602E-04 +6.49098646922E-01 -4.54848305553E-01
4.07000000000E+09 +5.07428876358E-01 -4.76289644259E-01 -1.01395584794E-03 -4.06080820522E-05 -1.14283592384E-03 -8.35489140790E-05 +6.36202634226E-01 -4.64481836952E-01
4.07500000000E+09 +4.92255596229E-01 -4.81511645749E-01 -1.12026552984E-03 +1.45486646840E-04 -1.18269494446E-03 +6.67331323643E-05 +6.22748154235E-01 -4.74981043992E-01
4.08000000000E+09 +4.75956006628E-01 -4.87852498144E-01 -1.12322463377E-03 +3.52032213486E-04 -1.23718607771E-03 +3.36683662168E-04 +6.09172626122E-01 -4.84651817058E-01
4.08500000000E+09 +4.58778411005E-01 -4.94307375972E-01 -1.01947377647E-03 +5.95499030817E-04 -1.18725969267E-03 +5.81941553589E-04 +5.96127209942E-01 -4.94253700930E-01
4.09000000000E+09 +4.41960476310E-01 -5.01118492975E-01 -7.63114489812E-04 +6.54484498409E-04 -8.74930274015E-04 +6.55381908196E-04 +5.82344921024E-01 -5.03073077385E-01
4.09500000000E+09 +4.25588988737E-01 -5.08094102660E-01 -7.24784089110E-04 +5.41331880702E-04 -7.83739624335E-04 +5.75805939894E-04 +5.68148946101E-01 -5.10871151307E-01
4.10000000000E+09 +4.08394393860E-01 -5.14093861316E-01 -8.09903359895E-04 +6.21009512668E-04 -8.36882120029E-04 +6.93297717173E-04 +5.53064016404E-01 -5.18919634416E-01
4.10500000000E+09 +3.92219379923E-01 -5.18411928017E-01 -8.11908577683E-04 +7.26746287501E-04 -8.99002018414E-04 +8.18230022727E-04 +5.37032389592E-01 -5.26723647294E-01
4.11000000000E+09 +3.76215956973E-01 -5.21412860787E-01 -6.98615667949E-04 +9.16733922592E-04 -6.84441049493E-04 +9.92566455414E-04 +5.20555566950E-01 -5.34867627098E-01
4.11500000000E+09 +3.59779705350E-01 -5.23126248516E-01 -5.46327309048E-04 +1.05568061001E-03 -5.72546695064E-04 +1.14867733143E-03 +5.04200077820E-01 -5.42346494232E-01
4.12000000000E+09 +3.42469754050E-01 -5.23641498116E-01 -4.29583027819E-04 +1.03536271350E-03 -2.97489916765E-04 +1.14704076832E-03 +4.88120337136E-01 -5.49677341347E-01
4.12500000000E+09 +3.24859495987E-01 -5.23645263732E-01 -2.40296817863E-04 +1.05624592514E-03 -1.53238760544E-04 +1.05902161462E-03 +4.71508986655E-01 -5.56083869466E-01
4.13000000000E+09 +3.06150422289E-01 -5.25116110391E-01 -6.40698075713E-05 +8.58441041128E-04 +1.98232892380E-06 +8.36168999693E-04 +4.54412878250E-01 -5.62140614042E-01
4.13500000000E+09 +2.85982203169E-01 -5.26672844194E-01 -3.41379943904E-04 +8.01106905241E-04 -3.15135529092E-04 +8.52808037233E-04 +4.36204757268E-01 -5.67963301899E-01
4.14000000000E+09 +2.66224397398E-01 -5.29079183606E-01 -3.32293959344E-04 +1.08209146347E-03 -3.26704800355E-04 +1.04885276528E-03 +4.17338195017E-01 -5.73386110021E-01
4.14500000000E+09 +2.45801410511E-01 -5.33321003688E-01 -3.35471627616E-04 +1.21615661766E-03 -3.16526889497E-04 +1.17674865713E-03 +3.98694333689E-01 -5.78728369097E-01
4.15000000000E+09 +2.25022097619E-01 -5.36511598307E-01 -1.33228581691E-04 +1.60462648082E-03 -1.30072998787E-04 +1.56403893598E-03 +3.80740225775E-01 -5.84064285030E-01
4.15500000000E+09 +2.06084829469E-01 -5.39008286518E-01 +3.73321394313E-04 +1.68402092701E-03 +3.43980249036E-04 +1.62579239710E-03 +3.62301155208E-01 -5.88202664233E-01
4.16000000000E+09 +1.88302432293E-01 -5.40829106999E-01 +8.53876607688E-04 +1.37010512378E-03 +8.33141551348E-04 +1.34695667878E-03 +3.44519709698E-01 -5.91009431577E-01
4.16500000000E+09 +1.70525350073E-01 -5.40471206431E-01 +8.39812111286E-04 +8.96479982292E-04 +7.81625528079E-04 +9.16975409479E-04 +3.25482074349E-01 -5.94373186916E-01
4.17000000000E+09 +1.53627744827E-01 -5.37482581590E-01 +6.67299527752E-04 +1.08865758831E-03 +5.60983516874E-04 +1.09392120049E-03 +3.05495470248E-01 -5.96560802701E-01
4.17500000000E+09 +1.37635650526E-01 -5.32335040898E-01 +9.85669253673E-04 +1.11861490306E-03 +9.05534034718E-04 +1.11093170644E-03 +2.84638879284E-01 -5.98656625514E-01
4.18000000000E+09 +1.21290338410E-01 -5.27202679152E-01 +1.05487596297E-03 +6.69104120049E-04 +9.69978954486E-04 +6.98794261649E-04 +2.63814603894E-01 -6.00640121333E-01
4.18500000000E+09 +1.03156696939E-01 -5.21191281689E-01 +6.98101226606E-04 +1.04460842077E-03 +6.70918471155E-04 +1.09331182414E-03 +2.42769265288E-01 -6.01816790672E-01
4.19000000000E+09 +8.41525200929E-02 -5.15009251035E-01 +1.35921382596E-03 +1.10291743809E-03 +1.36204132450E-03 +1.26307577529E-03 +2.22368842107E-01 -6.01964423598E-01
4.19500000000E+09 +6.39469054068E-02 -5.09708588304E-01 +1.62118516735E-03 +5.76701174323E-04 +1.62485809834E-03 +7.05806489905E-04 +2.01205320592E-01 -6.00768607626E-01
4.20000000000E+09 +4.30336174711E-02 -5.03879164885E-01 +1.62683262142E-03 +4.62438464414E-04 +1.60305640225E-03 +5.59946922411E-04 +1.80555594314E-01 -5.99142223131E-01
4.20500000000E+09 +2.29793021546E-02 -4.98701420553E-01 +2.04097254623E-03 +7.99883090327E-05 +2.04994673894E-03 +2.27330979758E-04 +1.58019590768E-01 -5.97041037322E-01
4.21000000000E+09 +4.23720623849E-03 -4.93041847349E-01 +1.72318583660E-03 -5.59063361076E-04 +1.79234754376E-03 -5.23142905835E-04 +1.35521898816E-01 -5.94364875124E-01
4.21500000000E+09 -1.27441875240E-02 -4.87111958273E-01 +1.25098038632E-03 -4.73617740070E-04 +1.32966813182E-03 -4.23716715234E-04 +1.13419798778E-01 -5.91568299378E-01
4.22000000000E+09 -2.88461663574E-02 -4.80206768035E-01 +1.19114788425E-03 -5.37394334333E-04 +1.33128138832E-03 -4.60587007692E-04 +9.18564543632E-02 -5.88673979486E-01
4.22500000000E+09 -4.37614384938E-02 -4.70755790232E-01 +1.51132396845E-03 -4.50539055439E-04 +1.61840655245E-03 -4.39481468674E-04 +7.00877712599E-02 -5.84244531544E-01
4.23000000000E+09 -5.76961239703E-02 -4.60101939866E-01 +1.29656042748E-03 -1.25269576695E-03 +1.43570010958E-03 -1.28108212063E-03 +4.90210146451E-02 -5.78341950458E-01
4.23500000000E+09 -7.32587310917E-02 -4.47286057585E-01 +5.68520961985E-04 -1.15365510717E-03 +7.08722532210E-04 -1.24584173562E-03 +2.71697905903E-02 -5.71320390104E-01
4.24000000000E+09 -8.92226300613E-02 -4.32101950020E-01 +5.38360035978E-04 -6.48265309332E-04 +6.30900959356E-04 -7.39662358574E-04 +5.45841671677E-03 -5.63372710111E-01
4.24500000000E+09 -1.05486030329E-01 -4.17580071306E-01 +9.36098585030E-04 -7.92251387853E-04 +9.86173316421E-04 -9.42132870633E-04 -1.70973045049E-02 -5.55515851185E-01
4.25000000000E+09 -1.24767918475E-01 -4.03281779435E-01 +6.39418249202E-04 -1.37582585196E-03 +7.01669684992E-04 -1.52596002010E-03 -3.92885575532E-02 -5.46568652893E-01
4.25500000000E+09 -1.44477137469E-01 -3.89491567833E-01 +2.59409942345E-04 -8.46767548781E-04 +1.86529455315E-04 -9.65746011691E-04 -6.01192984507E-02 -5.37119978766E-01
4.26000000000E+09 -1.64507928450E-01 -3.76690861277E-01 +7.15808571009E-04 -1.04476825707E-03 +6.65010131538E-04 -1.05286874956E-03 -8.07948019071E-02 -5.26730141849E-01
4.26500000000E+09 -1.84209048072E-01 -3.64734619436E-01 +4.46187199137E-04 -1.58998232209E-03 +3.95081392102E-04 -1.61280258302E-03 -1.00739701963E-01 -5.15613952417E-01
4.27000000000E+09 -2.01341389944E-01 -3.52681970127E-01 -2.93459102605E-04 -1.33960859265E-03 -3.97912098120E-04 -1.36340995080E-03 -1.22739453454E-01 -5.03380073791E-01
4.27500000000E+09 -2.16058141004E-01 -3.41041906571E-01 -3.37413116034E-05 -9.58931460665E-04 -1.71568871295E-04 -9.47713321805E-04 -1.43960271039E-01 -4.88328936776E-01
4.28000000000E+09 -2.28288401077E-01 -3.28322914969E-01 -2.54973368256E-04 -1.04623386270E-03 -3.20954029903E-04 -9.73008685468E-04 -1.64318124430E-01 -4.74155267613E-01
4.28500000000E+09 -2.38677259490E-01 -3.14290530409E-01 -1.88542031633E-04 -7.48442691817E-04 -2.11014959143E-04 -6.76355027495E-04 -1.84830128759E-01 -4.59929062688E-01
4.29000000000E+09 -2.47951486297E-01 -2.97730048199E-01 -2.26269639569E-04 -6.78698231269E-04 -2.63732823441E-04 -6.17111364929E-04 -2.04016699456E-01 -4.44523061657E-01
4.29500000000E+09 -2.56156763931E-01 -2.79734834455E-01 +1.33695529911E-04 -8.01827467409E-04 +1.97656785360E-04 -7.33879577312E-04 -2.22272926681E-01 -4.29228388655E-01
4.30000000000E+09 -2.65903441430E-01 -2.60595545483E-01 -1.75117392826E-04 -1.22706580659E-03 -1.48366487149E-04 -1.15580705422E-03 -2.40094876125E-01 -4.11959873984E-01
4.30500000000E+09 -2.77473366019E-01 -2.39962865988E-01 -5.48475328972E-04 -1.16823046472E-03 -5.21832614607E-04 -1.06062125973E-03 -2.57130595550E-01 -3.93458709377E-01
4.31000000000E+09 -2.89738210514E-01 -2.18446586477E-01 -7.19692317708E-04 -7.22989461014E-04 -6.33515482762E-04 -6.71371380372E-04 -2.73535270182E-01 -3.74712360457E-01
4.31500000000E+09 -3.02620995848E-01 -1.97984913560E-01 -6.34724770911E-04 -8.29110917605E-04 -5.70556885578E-04 -7.96597431930E-04 -2.89807600444E-01 -3.55086719345E-01
4.32000000000E+09 -3.14961618617E-01 -1.78963052144E-01 -7.87927164505E-04 -4.53325002390E-04 -7.15684937238E-04 -4.47718735749E-04 -3.04643503163E-01 -3.35248808688E-01
4.32500000000E+09 -3.26441313988E-01 -1.61185402173E-01 -1.85922471171E-04 -5.65015461413E-04 -1.10818982123E-04 -6.93253445155E-04 -3.19802288428E-01 -3.15300495885E-01
4.33000000000E+09 -3.34917454501E-01 -1.44731280752E-01 -7.89780965255E-04 -8.31582372425E-04 -7.67481624370E-04 -9.08714842727E-04 -3.32860050031E-01 -2.93209137387E-01
4.33500000000E+09 -3.41531436975E-01 -1.30720459622E-01 -5.98317975363E-04 -4.33577745636E-04 -5.40466723205E-04 -4.88409890663E-04 -3.45364534928E-01 -2.71716943577E-01
4.34000000000E+09 -3.47083820284E-01 -1.14886900307E-01 -6.62339072370E-04 -5.75200805740E-04 -6.64345774558E-04 -6.58518645734E-04 -3.57851968450E-01 -2.48282687400E-01
4.34500000000E+09 -3.48431382870E-01 -9.71966510158E-02 -9.82113391851E-04 -6.66961943028E-04 -1.00997635975E-03 -6.90287906903E-04 -3.69077044138E-01 -2.25015873169E-01
4.35000000000E+09 -3.49452956579E-01 -7.88200924538E-02 -9.89779886262E-04 -5.98050599418E-05 -1.01918252807E-03 -1.39728496576E-04 -3.80466452796E-01 -2.01717351742E-01
4.35500000000E+09 -3.49282306267E-01 -5.78622119947E-02 -7.67988715674E-04 -1.73403387160E-04 -7.83074574601E-04 -1.83320587478E-04 -3.90090431272E-01 -1.77945375159E-01
4.36000000000E+09 -3.49992086484E-01 -3.54271575464E-02 -7.53340911586E-04 -2.74880553024E-04 -9.22149588545E-04 -3.01646184513E-04 -3.98147023718E-01 -1.54870282147E-01
4.36500000000E+09 -3.52097519650E-01 -1.22912566021E-02 -7.60137777109E-04 +2.25444817522E-05 -8.92992114942E-04 +2.06656157460E-05 -4.05801995775E-01 -1.31417049174E-01
4.37000000000E+09 -3.55193003554E-01 +1.09719067211E-02 -6.50722581258E-04 +8.46566272852E-06 -6.72128595710E-04 +3.02063526346E-05 -4.11569189798E-01 -1.07041646223E-01
4.37500000000E+09 -3.60067792650E-01 +3.30182944658E-02 -3.10030423149E-04 -3.70365455833E-04 -3.22043040943E-04 -3.40916228970E-04 -4.16995313181E-01 -8.19524387970E-02
4.38000000000E+09 -3.64771039947E-01 +5.41096193631E-02 -9.98083072504E-04 -5.44783349359E-04 -1.07875511759E-03 -5.27321166615E-04 -4.21014333319E-01 -5.70854237142E-02
4.38500000000E+09 -3.68066292798E-01 +7.16350298234E-02 -1.16408285467E-03 +6.13698611500E-05 -1.26516174867E-03 +8.86658389768E-05 -4.24760233160E-01 -3.21668463792E-02
4.39000000000E+09 -3.71411537302E-01 +8.73538937332E-02 -7.55422379562E-04 +1.80371206211E-04 -7.40736697905E-04 +2.52803425868E-04 -4.26960995764E-01 -7.27531168945E-03
4.39500000000E+09 -3.71613302981E-01 +1.02787975594E-01 -9.60268422544E-04 -2.09251641588E-04 -9.43855017179E-04 -1.15825525938E-04 -4.28189386200E-01 +1.71151127418E-02
4.40000000000E+09 -3.68886231896E-01 +1.16879356737E-01 -9.39999322801E-04 +3.08234256166E-04 -8.77155838304E-04 +3.92588891727E-04 -4.27798527424E-01 +4.10828780676E-02
4.40500000000E+09 -3.64174313423E-01 +1.31287927459E-01 -8.79060474265E-04 -1.05198302155E-04 -8.53007309722E-04 -8.45735232316E-05 -4.27160368805E-01 +6.51828766499E-02
4.41000000000E+09 -3.58554230929E-01 +1.46991555371E-01 -1.15510488637E-03 +2.47891672419E-04 -1.12211790896E-03 +2.53923723337E-04 -4.25215163469E-01 +8.97897529385E-02
4.41500000000E+09 -3.52529092003E-01 +1.65805049637E-01 -8.62226965259E-04 +2.33335859559E-04 -8.33342066496E-04 +2.36543449993E-04 -4.23076458048E-01 +1.13241497965E-01
4.42000000000E+09 -3.46668416208E-01 +1.86411452105E-01 -1.35716974439E-03 +1.65633179374E-04 -1.33999033976E-03 +1.97120085364E-04 -4.20206095424E-01 +1.38128513147E-01
4.42500000000E+09 -3.41952467073E-01 +2.08435428959E-01 -1.38471063601E-03 +6.01493644956E-04 -1.31665899563E-03 +5.73816426036E-04 -4.14369221473E-01 +1.60604195328E-01
4.43000000000E+09 -3.37614247683E-01 +2.31167843042E-01 -1.41447757168E-03 +8.33419390781E-04 -1.33973737797E-03 +8.87471874017E-04 -4.10823781561E-01 +1.82748736530E-01
4.43500000000E+09 -3.33622067515E-01 +2.51798119962E-01 -1.34635565453E-03 +1.17165866019E-03 -1.33202454614E-03 +1.15260658333E-03 -4.03981433768E-01 +2.06098310352E-01
4.44000000000E+09 -3.30907462942E-01 +2.69034513577E-01 -8.67236365248E-04 +1.39775753196E-03 -8.43730504377E-04 +1.37854390189E-03 -3.97479533139E-01 +2.27284354001E-01
4.44500000000E+09 -3.29524147102E-01 +2.84309642263E-01 -9.89697339352E-04 +1.23078698467E-03 -9.99457556859E-04 +1.18936725157E-03 -3.90709902405E-01 +2.49388125842E-01
4.45000000000E+09 -3.27595043500E-01 +2.97743094233E-01 -7.82989161544E-04 +1.68129824037E-03 -7.64450626918E-04 +1.60214322823E-03 -3.83436131066E-01 +2.69897226138E-01
4.45500000000E+09 -3.23242500450E-01 +3.10289194079E-01 -6.65425350513E-04 +1.84332820570E-03 -6.58618257706E-04 +1.82033067551E-03 -3.75079106348E-01 +2.90255084106E-01
4.46000000000E+09 -3.16174471595E-01 +3.22211718324E-01 -2.36422735726E-04 +1.82475501908E-03 -2.38292167208E-04 +1.84794680770E-03 -3.66501678516E-01 +3.09374442685E-01
4.46500000000E+09 -3.06915573872E-01 +3.34402531805E-01 -9.45385459598E-05 +1.79960944601E-03 -6.73121592113E-05 +1.76907189577E-03 -3.56319374682E-01 +3.29202068842E-01
4.47000000000E+09 -2.95417708632E-01 +3.48224132790E-01 +6.97523099754E-05 +1.85651971158E-03 +7.37256680976E-05 +1.81633368077E-03 -3.44760659852E-01 +3.47471770111E-01
4.47500000000E+09 -2.82871999285E-01 +3.62955801261E-01 +1.58879839842E-04 +1.96246250792E-03 +1.59901758185E-04 +1.92278133434E-03 -3.34180889854E-01 +3.66032021530E-01
4.48000000000E+09 -2.71343584042E-01 +3.80124060882E-01 +6.91945908642E-04 +2.17488741903E-03 +7.02746303069E-04 +2.16027457336E-03 -3.21948512396E-01 +3.84620392466E-01
4.48500000000E+09 -2.59242616638E-01 +3.97937608025E-01 +8.81226004733E-04 +1.75759193337E-03 +8.80422282026E-04 +1.73822217787E-03 -3.10124071850E-01 +4.01215777207E-01
4.49000000000E+09 -2.49495133458E-01 +4.14454790020E-01 +1.21608561841E-03 +1.87839794472E-03 +1.20909974396E-03 +1.83205234008E-03 -2.98821182921E-01 +4.17093109963E-01
4.49500000000E+09 -2.42023960144E-01 +4.30861096911E-01 +1.56712266656E-03 +1.46518515364E-03 +1.51380114460E-03 +1.40839605264E-03 -2.87320923633E-01 +4.32510646381E-01
4.50000000000E+09 -2.36036716071E-01 +4.44090525512E-01 +1.32305440476E-03 +1.40625211617E-03 +1.38971941278E-03 +1.43037234905E-03 -2.74629828989E-01 +4.47841951591E-01
4.50500000000E+09 -2.32067016651E-01 +4.56288172511E-01 +1.97497611275E-03 +1.25551909706E-03 +1.95674868085E-03 +1.28208889616E-03 -2.61354286779E-01 +4.62081480651E-01
4.51000000000E+09 -2.25930829158E-01 +4.66245677294E-01 +1.95299046062E-03 +6.55876275321E-04 +1.96041098391E-03 +6.35632427010E-04 -2.47897418617E-01 +4.76345675298E-01
4.51500000000E+09 -2.19326200365E-01 +4.73548468790E-01 +1.73679805580E-03 +6.63819714702E-04 +1.75628230148E-03 +6.41808281309E-04 -2.34329856714E-01 +4.90065716898E-01
4.52000000000E+09 -2.09843103589E-01 +4.81158579159E-01 +2.06961196528E-03 +4.66495738612E-04 +2.10738458581E-03 +4.01542192863E-04 -2.21361562069E-01 +5.02866575341E-01
4.52500000000E+09 -1.97942270169E-01 +4.87237677335E-01 +1.87297270956E-03 +8.22675042941E-05 +1.84294693340E-03 +8.49304919615E-06 -2.08094017831E-01 +5.15364236946E-01
4.53000000000E+09 -1.84595185725E-01 +4.95359229253E-01 +1.88339489823E-03 +1.30659626593E-04 +1.89900625453E-03 +1.06181869796E-04 -1.94351321362E-01 +5.26490421746E-01
4.53500000000E+09 -1.68870853619E-01 +5.04513253759E-01 +1.71483704356E-03 -1.44788641987E-04 +1.70615763173E-03 -2.20796900625E-04 -1.80013033566E-01 +5.38289883493E-01
4.54000000000E+09 -1.53285829808E-01 +5.14569043101E-01 +2.02383569538E-03 +6.67605957236E-05 +2.00511867110E-03 -1.02945170722E-05 -1.63936342231E-01 +5.48929811235E-01
4.54500000000E+09 -1.38256461248E-01 +5.26267676901E-01 +2.24461319919E-03 -7.43589226683E-04 +2.16566067492E-03 -7.72713686074E-04 -1.49380991100E-01 +5.58210972483E-01
4.55000000000E+09 -1.24930668454E-01 +5.37206761014E-01 +1.92555674893E-03 -8.61446542001E-04 +1.81346398147E-03 -9.15201778819E-04 -1.34740927930E-01 +5.68884164938E-01
4.55500000000E+09 -1.13922989816E-01 +5.48220637165E-01 +1.76129287129E-03 -1.12996861779E-03 +1.63536414694E-03 -1.14549418618E-03 -1.20380458347E-01 +5.78088339862E-01
4.56000000000E+09 -1.04380777697E-01 +5.57928245640E-01 +1.51004192822E-03 -1.18674820400E-03 +1.38789096356E-03 -1.15463259836E-03 -1.05975523432E-01 +5.86811467493E-01
4.56500000000E+09 -9.64687939960E-02 +5.65969574274E-01 +1.54619198858E-03 -1.41393612909E-03 +1.39739424709E-03 -1.41033541496E-03 -9.24935422425E-02 +5.95262286887E-01
4.57000000000E+09 -8.78989548424E-02 +5.72833855569E-01 +1.32136004127E-03 -1.59359474666E-03 +1.25287692031E-03 -1.61223100960E-03 -7.67235595762E-02 +6.03914763690E-01
