# Hz S RI R 50
! CMT, C1220, 16058040, 17.2.0/1
! Date: 15/08/2018 12:29:50
! Data: Format (Calibration Info)
! Freq                      S11: Re/Im (F2)                       S21: Re/Im (F2)                       S12: Re/Im (F2)                       S22: Re/Im (F2)            
4.00000000000E+09 +6.60647192489E-01 -3.62543360665E-01 -2.77482012034E-04 -8.70808251176E-04 -2.45710562322E-04 -8.85699415865E-04 +7.83347744622E-01 -3.17503262224E-01
4.00500000000E+09 +6.52737275464E-01 -3.69097325683E-01 -3.03111918204E-04 -7.68805652468E-04 -2.57846145975E-04 -7.83086504640E-04 +7.74982132274E-01 -3.29246777743E-01
4.01000000000E+09 +6.43694531854E-01 -3.75349996612E-01 -4.38199721391E-04 -8.82810461910E-04 -3.64921312914E-04 -8.89354991172E-04 +7.66358521320E-01 -3.41211242525E-01
4.01500000000E+09 +6.34258268666E-01 -3.81851175246E-01 -5.90851321940E-04 -6.99185168772E-04 -5.54759806136E-04 -7.19385485436E-04 +7.57596514686E-01 -3.52121565994E-01
4.02000000000E+09 +6.23851118734E-01 -3.90026699963E-01 -5.07889505379E-04 -5.81895250515E-04 -4.99601489308E-04 -6.41428472657E-04 +7.48637048314E-01 -3.62990499288E-01
4.02500000000E+09 +6.12898948318E-01 -3.99379892381E-01 -5.24074715606E-04 -6.12255242146E-04 -5.04232704753E-04 -6.87750433740E-04 +7.38878374222E-01 -3.73000876127E-01
4.03000000000E+09 +6.00797748166E-01 -4.09652552105E-01 -7.29794836834E-04 -7.08583238216E-04 -7.27736643697E-04 -8.06885279589E-04 +7.29013962037E-01 -3.83368216950E-01
4.03500000000E+09 +5.89183472213E-01 -4.19483901855E-01 -8.76541085743E-04 -5.46006717932E-04 -8.87165811129E-04 -6.38709173082E-04 +7.18067813558E-01 -3.94291569621E-01
4.04000000000E+09 +5.78112160327E-01 -4.29971814119E-01 -1.00154458547E-03 -4.02065477013E-04 -1.01588713966E-03 -4.77131400351E-04 +7.07343831542E-01 -4.05411816659E-01
4.04500000000E+09 +5.66300454719E-01 -4.40050098339E-01 -9.91199388717E-04 -9.58044369881E-05 -1.00621380127E-03 -1.71733361650E-04 +6.96626635714E-01 -4.16682062288E-01
4.05000000000E+09 +5.54536835700E-01 -4.47715882995E-01 -7.85376682175E-04 -5.45807295721E-05 -8.32475035060E-04 -1.19612536712E-04 +6.85660283726E-01 -4.27533723765E-01
4.05500000000E+09 +5.42762952502E-01 -4.54452218719E-01 -7.31231097009E-04 -8.87116280640E-05 -7.47479108743E-04 -1.28208024874E-04 +6.74411556679E-01 -4.37042424620E-01
4.06000000000E+09 +5.29845321282E-01 -4.59355014748E-01 -7.95153508297E-04 -1.91599700360E-04 -8.68289252089E-04 -1.88352060415E-04 +6.63312977035E-01 -4.46506149889E-01
4.06500000000E+09 +5.17086113461E-01 -4.62891527158E-01 -9.40286841465E-04 -1.61058166790E-04 -9.84078846753E-04 -1.87219752238E-04 +6.50681605585E-01 -4.55718271376E-01
4.07000000000E+09 +5.03309142200E-01 -4.67680443109E-01 -1.05083867379E-03 +1.78173121239E-05 -1.11145046551E-03 -1.81104197319E-07 +6.37563779704E-01 -4.65780873517E-01
4.07500000000E+09 +4.88204248843E-01 -4.72405613696E-01 -1.03110073889E-03 +8.13589614755E-05 -1.02586890331E-03 +1.26496815756E-04 +6.23756289058E-01 -4.75877015489E-01
4.08000000000E+09 +4.71979707073E-01 -4.78300365042E-01 -1.04000801899E-03 +2.69873265953E-04 -1.06607654144E-03 +2.62228614351E-04 +6.10206866961E-01 -4.85658045047E-01
4.08500000000E+09 +4.54638297524E-01 -4.84126715545E-01 -1.19181912588E-03 +4.67675690434E-04 -1.22621943705E-03 +4.70911210181E-04 +5.97114535141E-01 -4.95327243147E-01
4.09000000000E+09 +4.37676155064E-01 -4.90459148736E-01 -8.93531633486E-04 +5.84324396941E-04 -8.89167739521E-04 +6.27217542104E-04 +5.83290234988E-01 -5.04002696368E-01
4.09500000000E+09 +4.21063272987E-01 -4.97192079914E-01 -8.57027159863E-04 +4.57658117884E-04 -8.66613894141E-04 +4.40541285850E-04 +5.69229642507E-01 -5.11878652829E-01
4.10000000000E+09 +4.03433658584E-01 -5.03005036668E-01 -1.01435447650E-03 +6.90205019106E-04 -1.02922254352E-03 +6.50621674594E-04 +5.54164459761E-01 -5.20110904565E-01
4.10500000000E+09 +3.87278351747E-01 -5.06666097587E-01 -9.64147286361E-04 +8.31214670172E-04 -9.91641164879E-04 +7.92053032010E-04 +5.38085249685E-01 -5.28058814305E-01
4.11000000000E+09 +3.71743315578E-01 -5.09882373941E-01 -8.97140172084E-04 +1.05861764560E-03 -8.93414695473E-04 +1.04401063090E-03 +5.21567389101E-01 -5.36052949212E-01
4.11500000000E+09 +3.55125544059E-01 -5.12078537000E-01 -6.73559645577E-04 +1.39307574504E-03 -6.93643816926E-04 +1.39989685743E-03 +5.05265211965E-01 -5.43686376385E-01
4.12000000000E+09 +3.38501836177E-01 -5.12541475264E-01 -3.83641108362E-04 +1.36597760303E-03 -4.40510405270E-04 +1.37040618195E-03 +4.89261265687E-01 -5.51005454186E-01
4.12500000000E+09 +3.21508583199E-01 -5.12475272363E-01 -2.52737900222E-04 +1.45313163992E-03 -3.39182126982E-04 +1.50699182450E-03 +4.72678218198E-01 -5.57611754371E-01
4.13000000000E+09 +3.03177316751E-01 -5.13804038631E-01 +1.11641542791E-04 +1.23092137291E-03 +6.39436396452E-06 +1.27052616447E-03 +4.55590422097E-01 -5.64014019112E-01
4.13500000000E+09 +2.83169808946E-01 -5.14634484051E-01 -9.86882581970E-05 +1.07717996637E-03 -1.38048832300E-04 +1.11254848194E-03 +4.37266269623E-01 -5.69965808964E-01
4.14000000000E+09 +2.64141367066E-01 -5.16109795630E-01 -4.82638632882E-05 +1.18548367705E-03 -1.30630319064E-04 +1.29235442095E-03 +4.18224860387E-01 -5.75707463662E-01
4.14500000000E+09 +2.44492124188E-01 -5.20041887801E-01 -4.12821294182E-05 +1.35741364728E-03 -5.15958542601E-05 +1.44539787710E-03 +3.99148105429E-01 -5.80908747152E-01
4.15000000000E+09 +2.23838728719E-01 -5.23090071001E-01 +1.76060671916E-04 +1.69371153452E-03 +2.33408509451E-04 +1.83550693956E-03 +3.81049084184E-01 -5.86037060042E-01
4.15500000000E+09 +2.04983300775E-01 -5.25586077594E-01 +6.99477627065E-04 +1.77263905069E-03 +7.54350601127E-04 +1.84491382726E-03 +3.62261602354E-01 -5.90485405848E-01
4.16000000000E+09 +1.87102568989E-01 -5.27675856650E-01 +1.18825653444E-03 +1.41370381672E-03 +1.24315606994E-03 +1.44792633762E-03 +3.44226172566E-01 -5.92990690956E-01
4.16500000000E+09 +1.68929526844E-01 -5.27385541156E-01 +1.22254128621E-03 +8.74313433258E-04 +1.22882078306E-03 +9.19267637961E-04 +3.25383450694E-01 -5.96200649966E-01
4.17000000000E+09 +1.52357446688E-01 -5.24437626665E-01 +8.80874708767E-04 +8.56277097916E-04 +9.30430469581E-04 +9.55841482988E-04 +3.05238372262E-01 -5.98344531781E-01
4.17500000000E+09 +1.37228010947E-01 -5.19211113990E-01 +1.14175988684E-03 +9.68474876312E-04 +1.16779384792E-03 +1.01085209652E-03 +2.84105642570E-01 -6.00290941695E-01
4.18000000000E+09 +1.22132982383E-01 -5.14701594544E-01 +1.19451262511E-03 +4.08627626248E-04 +1.22234257025E-03 +4.73466100368E-04 +2.63408001154E-01 -6.01884063010E-01
4.18500000000E+09 +1.04548982798E-01 -5.09402912482E-01 +7.58667970765E-04 +8.86532712896E-04 +7.55665421080E-04 +8.78178067033E-04 +2.42358668913E-01 -6.02998592368E-01
4.19000000000E+09 +8.62764458187E-02 -5.03222101325E-01 +1.39695630717E-03 +1.11866049028E-03 +1.45184795819E-03 +1.15083134268E-03 +2.21968906004E-01 -6.02964273870E-01
4.19500000000E+09 +6.66340748800E-02 -4.97819112979E-01 +1.80603868397E-03 +5.49741915224E-04 +1.86228179796E-03 +5.22653736921E-04 +2.01021593967E-01 -6.01641388398E-01
4.20000000000E+09 +4.62984706578E-02 -4.91702134825E-01 +1.67550159922E-03 +3.00190597265E-04 +1.71382075252E-03 +2.79913325914E-04 +1.80484054992E-01 -5.99955228983E-01
4.20500000000E+09 +2.67352261271E-02 -4.85967602375E-01 +2.03135067026E-03 -1.50137705197E-06 +2.10817026999E-03 +2.63435511724E-05 +1.58030589853E-01 -5.97961214173E-01
4.21000000000E+09 +8.60034398201E-03 -4.80399478949E-01 +1.77461209736E-03 -5.39167229462E-04 +1.79942186427E-03 -6.01729116122E-04 +1.35417926296E-01 -5.95270272777E-01
4.21500000000E+09 -8.35863236415E-03 -4.74890122673E-01 +1.29198392249E-03 -5.11932769817E-04 +1.33041343685E-03 -5.04418322832E-04 +1.13309093257E-01 -5.92615991672E-01
4.22000000000E+09 -2.46951764575E-02 -4.68510745825E-01 +1.40791408123E-03 -3.35247044707E-04 +1.35837170521E-03 -2.68988370365E-04 +9.16202855121E-02 -5.89425204733E-01
4.22500000000E+09 -3.96786693087E-02 -4.59432052687E-01 +1.92605611042E-03 -4.37332110777E-04 +1.90911172366E-03 -3.99713087211E-04 +6.97574346136E-02 -5.84731092314E-01
4.23000000000E+09 -5.36939415333E-02 -4.49894789842E-01 +1.76607022742E-03 -1.36261315252E-03 +1.81050853363E-03 -1.38947041893E-03 +4.88007887941E-02 -5.78845992719E-01
4.23500000000E+09 -6.90583539088E-02 -4.37819839145E-01 +1.05175473166E-03 -1.33781374956E-03 +1.07794514299E-03 -1.29677418668E-03 +2.67780884367E-02 -5.71712724013E-01
4.24000000000E+09 -8.44380980286E-02 -4.23655049680E-01 +1.23344349902E-03 -1.09190854503E-03 +1.24363339760E-03 -1.02741749630E-03 +5.11582247610E-03 -5.63281874129E-01
4.24500000000E+09 -1.00349561811E-01 -4.10253590785E-01 +1.31930947999E-03 -1.60985079388E-03 +1.31093764762E-03 -1.54151536542E-03 -1.73382408172E-02 -5.55231119777E-01
4.25000000000E+09 -1.18913903400E-01 -3.96215776255E-01 +7.50426591241E-04 -2.17500876912E-03 +7.94555255933E-04 -2.17396121263E-03 -3.95616031574E-02 -5.45815910033E-01
4.25500000000E+09 -1.37932272621E-01 -3.82977867885E-01 +1.71373009115E-04 -1.37633748728E-03 +1.90296851434E-04 -1.46066644259E-03 -5.97965643778E-02 -5.35910176334E-01
4.26000000000E+09 -1.57600926372E-01 -3.70296506833E-01 +7.13974393924E-04 -1.50013381519E-03 +8.05346839890E-04 -1.53650617070E-03 -8.02467133614E-02 -5.25212656189E-01
4.26500000000E+09 -1.77292694879E-01 -3.58477974957E-01 +5.20623139407E-04 -2.29534083596E-03 +5.13249777351E-04 -2.31831272788E-03 -9.94995868176E-02 -5.13797222532E-01
4.27000000000E+09 -1.94610692802E-01 -3.46073523569E-01 -4.75933013707E-04 -2.19229458502E-03 -4.77350363028E-04 -2.19221890502E-03 -1.20616820166E-01 -5.01997031093E-01
4.27500000000E+09 -2.09594482438E-01 -3.34301996382E-01 -4.87963301431E-04 -1.97831768930E-03 -4.82777065706E-04 -2.04711007437E-03 -1.41728172335E-01 -4.87223696577E-01
4.28000000000E+09 -2.22358891689E-01 -3.21581159290E-01 -1.20218116785E-03 -1.82145916279E-03 -1.20979534466E-03 -1.91095249616E-03 -1.61571742777E-01 -4.73013256455E-01
4.28500000000E+09 -2.33297369501E-01 -3.07727948337E-01 -1.25999722511E-03 -1.09912305912E-03 -1.28113418032E-03 -1.12183304729E-03 -1.81682606551E-01 -4.59164121369E-01
4.29000000000E+09 -2.42593306862E-01 -2.91519960884E-01 -1.19036148853E-03 -7.83417188647E-04 -1.21440361335E-03 -8.36887971955E-04 -2.00911178894E-01 -4.44079013018E-01
4.29500000000E+09 -2.51191662276E-01 -2.74844841045E-01 -7.49980887510E-04 -6.02936299693E-04 -7.61493173797E-04 -6.28453789326E-04 -2.18690742190E-01 -4.28733866937E-01
4.30000000000E+09 -2.61696242472E-01 -2.56625276497E-01 -8.09738234187E-04 -8.91256917489E-04 -8.65729976934E-04 -9.53029251684E-04 -2.36264281713E-01 -4.12060158354E-01
4.30500000000E+09 -2.73582892632E-01 -2.36158170349E-01 -1.14021676591E-03 -1.11586782702E-03 -1.21060820841E-03 -1.13761532633E-03 -2.53102988768E-01 -3.93881867175E-01
4.31000000000E+09 -2.85027755937E-01 -2.15200954054E-01 -1.47887082793E-03 -5.42429907981E-04 -1.54650759209E-03 -5.54346053413E-04 -2.69362185181E-01 -3.75586364289E-01
4.31500000000E+09 -2.97888140401E-01 -1.95554595296E-01 -1.51533205958E-03 -4.08906961785E-04 -1.62531132448E-03 -4.40942256246E-04 -2.85618601839E-01 -3.56197441255E-01
4.32000000000E+09 -3.10048971892E-01 -1.76927336493E-01 -1.38653175320E-03 +2.91425911266E-04 -1.40985375583E-03 +3.49128335767E-04 -3.00526651464E-01 -3.36582398908E-01
4.32500000000E+09 -3.21906276596E-01 -1.59728183643E-01 -6.71650132586E-04 +8.15663297890E-05 -6.80055518616E-04 +1.57303816560E-04 -3.15535089087E-01 -3.16684447555E-01
4.33000000000E+09 -3.31115900207E-01 -1.43443978467E-01 -1.04232549215E-03 -4.98437349486E-05 -1.08232720311E-03 +1.23385304772E-05 -3.28357755200E-01 -2.94919505524E-01
4.33500000000E+09 -3.38780913454E-01 -1.29293745880E-01 -7.01008638500E-04 +3.12845927699E-04 -7.11510276562E-04 +3.81852167718E-04 -3.40825725004E-01 -2.73673401181E-01
4.34000000000E+09 -3.44861864410E-01 -1.13189188996E-01 -5.22392178014E-04 +1.85359121908E-05 -4.64187937423E-04 +9.08952315359E-05 -3.52841977159E-01 -2.50141973624E-01
4.34500000000E+09 -3.46863756994E-01 -9.59919821734E-02 -7.42251119315E-04 -3.84545550870E-04 -7.62519718808E-04 -3.73053494292E-04 -3.63541118160E-01 -2.27630176352E-01
4.35000000000E+09 -3.48654375630E-01 -7.83959753617E-02 -1.07664600979E-03 +5.65194668470E-05 -1.04206860228E-03 +9.44366255665E-05 -3.74829635762E-01 -2.05058187776E-01
4.35500000000E+09 -3.49933426758E-01 -5.79413931504E-02 -1.11555444627E-03 +2.06001510345E-04 -1.02334154390E-03 +2.13455682515E-04 -3.84618746055E-01 -1.81697592221E-01
4.36000000000E+09 -3.50871022533E-01 -3.59080237205E-02 -1.05583671486E-03 +4.68139260088E-04 -1.02096696952E-03 +4.43863703118E-04 -3.92703021514E-01 -1.59525107929E-01
4.36500000000E+09 -3.53715534311E-01 -1.36217091884E-02 -6.91868559297E-04 +8.46270991380E-04 -6.58274491676E-04 +8.49420375368E-04 -4.00848801889E-01 -1.36685353261E-01
4.37000000000E+09 -3.57172801635E-01 +9.50029185554E-03 -1.48590285645E-04 +5.73254599942E-04 -1.26906007123E-04 +5.57165568708E-04 -4.06877582017E-01 -1.12664462139E-01
4.37500000000E+09 -3.61994948877E-01 +3.13216914900E-02 -3.63647493530E-05 -1.41026640518E-04 -1.06838898420E-04 -2.45521090278E-04 -4.12545867483E-01 -8.81086725648E-02
4.38000000000E+09 -3.67201199986E-01 +5.20059726238E-02 -9.92580275548E-04 -4.02561949737E-04 -9.89862087423E-04 -3.88936439956E-04 -4.17064950089E-01 -6.38939432744E-02
4.38500000000E+09 -3.70699482271E-01 +7.00164904864E-02 -1.41022762627E-03 +4.91619984736E-04 -1.45067803774E-03 +5.00186849013E-04 -4.21219385430E-01 -3.93898560959E-02
4.39000000000E+09 -3.74153635740E-01 +8.58925254231E-02 -6.56992288390E-04 +1.01522681102E-03 -7.19365660076E-04 +1.01028806078E-03 -4.24175773743E-01 -1.51343118644E-02
4.39500000000E+09 -3.74784134491E-01 +1.01255578650E-01 -5.44393595571E-04 +6.53860388954E-04 -5.61816018293E-04 +6.01561420027E-04 -4.26383900280E-01 +9.29105965921E-03
4.40000000000E+09 -3.72638977871E-01 +1.15469986399E-01 -2.84012401042E-04 +8.77339544910E-04 -3.10841356850E-04 +9.28867090533E-04 -4.26430563470E-01 +3.33541019830E-02
4.40500000000E+09 -3.68945700269E-01 +1.29950545080E-01 -1.29586929549E-04 +3.56704116445E-04 -1.55237650858E-04 +3.28320261158E-04 -4.26653659951E-01 +5.73662794153E-02
4.41000000000E+09 -3.63662594051E-01 +1.46094955436E-01 -4.07897194303E-04 +3.35309672683E-04 -4.24801923266E-04 +3.50536620442E-04 -4.25100430939E-01 +8.25580419839E-02
4.41500000000E+09 -3.57910960365E-01 +1.64778349647E-01 -4.87106643409E-04 +5.09455361963E-04 -4.84525699741E-04 +5.00639761705E-04 -4.23034827589E-01 +1.06257530616E-01
4.42000000000E+09 -3.52042716610E-01 +1.85518038072E-01 -6.50233039166E-04 +4.50462103655E-04 -6.70392332195E-04 +4.89615953209E-04 -4.20388914177E-01 +1.31100159148E-01
4.42500000000E+09 -3.47332713283E-01 +2.07258211339E-01 -5.90512324936E-04 +7.44251741662E-04 -6.27049695241E-04 +8.32559185753E-04 -4.14790377479E-01 +1.53582516383E-01
4.43000000000E+09 -3.43168894934E-01 +2.30043231240E-01 -7.29075396996E-04 +9.48834053108E-04 -7.46487419949E-04 +1.01086155254E-03 -4.11571389966E-01 +1.75466795941E-01
4.43500000000E+09 -3.39118836839E-01 +2.51097801593E-01 -4.29329509435E-04 +1.28823676336E-03 -4.21118904876E-04 +1.31281260270E-03 -4.05485908404E-01 +1.99144697600E-01
4.44000000000E+09 -3.36585377535E-01 +2.68930546871E-01 +1.37530687404E-04 +1.20124607229E-03 +1.63398363141E-04 +1.21502527815E-03 -3.99215204937E-01 +2.20616262237E-01
4.44500000000E+09 -3.35020131472E-01 +2.85656723606E-01 +6.18169344048E-05 +7.40828491230E-04 +1.19467520361E-04 +7.91560954178E-04 -3.92677244668E-01 +2.42703092317E-01
4.45000000000E+09 -3.32378529158E-01 +2.99506130949E-01 -1.05150703929E-04 +8.75212682214E-04 -6.64484675981E-06 +8.21239873635E-04 -3.85631031938E-01 +2.63526900776E-01
4.45500000000E+09 -3.28588338601E-01 +3.12338052368E-01 -2.86927466323E-04 +1.08242434113E-03 -2.90124249922E-04 +1.09760387097E-03 -3.77710180798E-01 +2.83789179055E-01
4.46000000000E+09 -3.21963597556E-01 +3.24734895322E-01 +1.21905149630E-04 +1.28703228009E-03 +1.24405003428E-04 +1.24567809911E-03 -3.69646228672E-01 +3.03129290625E-01
4.46500000000E+09 -3.13624316805E-01 +3.36872851378E-01 +3.14555934640E-04 +1.13505026087E-03 +3.42490058876E-04 +1.13192367710E-03 -3.60017720174E-01 +3.23097035689E-01
4.47000000000E+09 -3.03040823824E-01 +3.51564993461E-01 +4.77250767280E-04 +1.16541304219E-03 +5.57919442604E-04 +1.11641851342E-03 -3.49054885809E-01 +3.42180316803E-01
4.47500000000E+09 -2.90390110582E-01 +3.66440151051E-01 +3.77916525258E-04 +1.01098759399E-03 +4.03118675795E-04 +9.96595988141E-04 -3.38403878403E-01 +3.61376567771E-01
4.48000000000E+09 -2.78842759718E-01 +3.83359177569E-01 +8.98107651672E-04 +1.37293589143E-03 +9.64637669324E-04 +1.30189961924E-03 -3.26457340788E-01 +3.80221638702E-01
4.48500000000E+09 -2.66548998651E-01 +4.00764968546E-01 +8.80772276959E-04 +7.97243105190E-04 +8.54726291848E-04 +6.78139876167E-04 -3.14739233567E-01 +3.97561414229E-01
4.49000000000E+09 -2.56985991780E-01 +4.16723781535E-01 +8.86744026045E-04 +8.94638683965E-04 +8.73148523223E-04 +8.98979709669E-04 -3.03191211543E-01 +4.13914835970E-01
4.49500000000E+09 -2.49765269198E-01 +4.33375035528E-01 +1.06790549658E-03 +8.35890615215E-04 +1.06222758315E-03 +7.35060252123E-04 -2.91795294108E-01 +4.29515188866E-01
4.50000000000E+09 -2.43404633000E-01 +4.47328986373E-01 +9.81721076574E-04 +8.92693251996E-04 +9.75711423025E-04 +8.63454655498E-04 -2.79092033500E-01 +4.45440115746E-01
4.50500000000E+09 -2.38905268510E-01 +4.60212575821E-01 +1.57846413636E-03 +7.89105659104E-04 +1.54405235103E-03 +7.43734335714E-04 -2.65683808157E-01 +4.60140464047E-01
4.51000000000E+09 -2.32444286188E-01 +4.70641047689E-01 +1.46501285849E-03 +1.38431078842E-04 +1.39911910101E-03 +1.18292933434E-04 -2.52053661461E-01 +4.74864343470E-01
4.51500000000E+09 -2.25631424007E-01 +4.78650652414E-01 +1.28181921583E-03 +3.40181838966E-04 +1.24904960876E-03 +3.04338043526E-04 -2.38091565492E-01 +4.89111429008E-01
4.52000000000E+09 -2.16446441319E-01 +4.86656527766E-01 +1.59201550341E-03 +7.28963197209E-06 +1.51612395038E-03 +1.53428835559E-05 -2.24734817124E-01 +5.02125109585E-01
4.52500000000E+09 -2.04727991463E-01 +4.93232861936E-01 +1.30367551580E-03 -2.71857133136E-04 +1.27680626236E-03 -2.50196777644E-04 -2.11020366489E-01 +5.14482443558E-01
4.53000000000E+09 -1.91701878795E-01 +5.01309356686E-01 +1.39342677699E-03 -1.03282878914E-04 +1.33984141391E-03 -7.58797824502E-05 -1.96958940877E-01 +5.25640013864E-01
4.53500000000E+09 -1.76481305007E-01 +5.10340674052E-01 +1.19785429176E-03 -4.09891360909E-04 +1.14797872444E-03 -3.99817055013E-04 -1.82820692006E-01 +5.37387128040E-01
4.54000000000E+09 -1.61250570710E-01 +5.20316519945E-01 +1.50701251503E-03 -1.55661279691E-04 +1.45341116723E-03 -1.54133073578E-04 -1.66695052072E-01 +5.48254622674E-01
4.54500000000E+09 -1.46151829141E-01 +5.31923428509E-01 +1.68684798237E-03 -8.24452706106E-04 +1.62250375112E-03 -8.35308956882E-04 -1.51725775135E-01 +5.57732997871E-01
4.55000000000E+09 -1.32169468295E-01 +5.42572703340E-01 +1.37151211688E-03 -9.98211156734E-04 +1.33757395497E-03 -9.97580892050E-04 -1.36993325237E-01 +5.68448237948E-01
4.55500000000E+09 -1.20652288271E-01 +5.53255741102E-01 +1.21985371107E-03 -1.17578599836E-03 +1.17432525657E-03 -1.13999652397E-03 -1.22271814052E-01 +5.78057358601E-01
4.56000000000E+09 -1.10484740259E-01 +5.62598182333E-01 +8.93084330164E-04 -1.23206326535E-03 +8.97769096947E-04 -1.18893132833E-03 -1.07544671920E-01 +5.86590635101E-01
4.56500000000E+09 -1.01816222331E-01 +5.70636489595E-01 +8.18763368328E-04 -1.31981578850E-03 +7.91220008612E-04 -1.30193322835E-03 -9.36402631961E-02 +5.94998666734E-01
4.57000000000E+09 -9.28353390799E-02 +5.77505750296E-01 +7.40742386171E-04 -1.35351173165E-03 +7.33958224062E-04 -1.35460823400E-03 -7.78839627757E-02 +6.03446437500E-01
