# Hz S RI R 50
! CMT, C1220, 16058040, 17.2.0/1
! Date: 15/08/2018 12:29:03
! Data: Format (Calibration Info)
! Freq                      S11: Re/Im (F2)                       S21: Re/Im (F2)                       S12: Re/Im (F2)                       S22: Re/Im (F2)            
4.00000000000E+09 +6.64147817479E-01 -3.60039756738E-01 -4.48204324641E-05 -3.71711949867E-04 -1.75922792305E-05 -3.15606700082E-04 +7.82669458242E-01 -3.17970398079E-01
4.00500000000E+09 +6.56216435172E-01 -3.66673900477E-01 +1.25099213818E-04 -3.44269761513E-04 +1.27343089192E-04 -3.40239723799E-04 +7.74139255953E-01 -3.29625154095E-01
4.01000000000E+09 +6.47414698931E-01 -3.73050913160E-01 -9.40727775036E-05 -5.52770500051E-04 -8.07103163280E-05 -5.34861681387E-04 +7.65186274122E-01 -3.41451759068E-01
4.01500000000E+09 +6.38129823858E-01 -3.79647211615E-01 -2.42396490802E-04 -2.98751223127E-04 -1.94959107517E-04 -2.94380903062E-04 +7.56389012506E-01 -3.52237084608E-01
4.02000000000E+09 +6.28315583121E-01 -3.88022354772E-01 -8.64407792312E-05 -3.47434231812E-04 -4.18714055084E-05 -3.09449646917E-04 +7.47228576363E-01 -3.62891225248E-01
4.02500000000E+09 +6.17490682746E-01 -3.97414378299E-01 -1.08666998091E-04 -4.00403239342E-04 -6.15814921769E-05 -4.11400151858E-04 +7.37531730585E-01 -3.72673100725E-01
4.03000000000E+09 +6.05938586294E-01 -4.07574218354E-01 -2.34701592137E-04 -5.35013577317E-04 -1.45516532393E-04 -6.12447108195E-04 +7.27756723155E-01 -3.82764813492E-01
4.03500000000E+09 +5.94449202217E-01 -4.18015029763E-01 -3.72268176807E-04 -4.83267260586E-04 -2.90163433367E-04 -6.06263995091E-04 +7.16762122333E-01 -3.93404838218E-01
4.04000000000E+09 +5.83416839590E-01 -4.28390772080E-01 -5.23903156452E-04 -4.10520450083E-04 -5.35036092340E-04 -4.71623669149E-04 +7.06167026359E-01 -4.04292867368E-01
4.04500000000E+09 +5.71824649967E-01 -4.38466685916E-01 -4.73934196518E-04 -2.31141859156E-04 -4.72671858620E-04 -3.42691378372E-04 +6.95739476688E-01 -4.15437227944E-01
4.05000000000E+09 +5.60132457005E-01 -4.46394200629E-01 -5.04932429773E-04 -2.14968385243E-04 -5.37296804061E-04 -3.36762661328E-04 +6.84915238700E-01 -4.26169418538E-01
4.05500000000E+09 +5.48269497389E-01 -4.53313565408E-01 -4.98172796029E-04 -4.66532714336E-05 -4.71585420091E-04 -1.50424608235E-04 +6.73826192563E-01 -4.35755441208E-01
4.06000000000E+09 +5.35478215049E-01 -4.58582758387E-01 -4.24475424873E-04 -2.02790342227E-04 -4.78874557283E-04 -2.20679456204E-04 +6.62576996350E-01 -4.45045526794E-01
4.06500000000E+09 +5.22630883451E-01 -4.62817687698E-01 -6.22677281117E-04 -2.00514770957E-04 -6.64687936514E-04 -2.33459027514E-04 +6.50283477091E-01 -4.54023383553E-01
4.07000000000E+09 +5.08913526973E-01 -4.67885162334E-01 -6.58164684166E-04 +6.87541398732E-06 -7.16618345409E-04 -3.70277563584E-05 +6.37467386857E-01 -4.64155263947E-01
4.07500000000E+09 +4.93847830731E-01 -4.73162618180E-01 -5.77374723524E-04 +1.67021150099E-05 -6.87174355290E-04 -2.35292988664E-05 +6.23819396316E-01 -4.74406810321E-01
4.08000000000E+09 +4.77646986856E-01 -4.79222785377E-01 -7.00768687458E-04 +1.59097619127E-04 -8.16151834822E-04 +1.18335600190E-04 +6.10288051480E-01 -4.84223826248E-01
4.08500000000E+09 +4.60428327568E-01 -4.85676048455E-01 -6.05646850677E-04 +3.39715210179E-04 -7.00272488495E-04 +3.77139771825E-04 +5.97194875764E-01 -4.93940361338E-01
4.09000000000E+09 +4.43289262863E-01 -4.92177731890E-01 -4.76852818475E-04 +3.21876200266E-04 -5.60069949172E-04 +3.36324405750E-04 +5.83407371974E-01 -5.02920466454E-01
4.09500000000E+09 +4.26641960971E-01 -4.99011578781E-01 -4.07537977161E-04 +2.51433278400E-04 -4.90847960224E-04 +2.81126886087E-04 +5.69027903998E-01 -5.10632617598E-01
4.10000000000E+09 +4.09357745359E-01 -5.05211408415E-01 -5.25841917918E-04 +3.12030258767E-04 -5.66556493686E-04 +3.38354628324E-04 +5.53853557735E-01 -5.18520122534E-01
4.10500000000E+09 +3.92685918281E-01 -5.09538053544E-01 -4.92720713788E-04 +4.16263739673E-04 -5.54262704362E-04 +4.58256428304E-04 +5.37936357942E-01 -5.25968219881E-01
4.11000000000E+09 +3.76802138148E-01 -5.12742130499E-01 -4.08821268478E-04 +5.28730673378E-04 -4.14619817028E-04 +5.33361117055E-04 +5.21919187605E-01 -5.33774140494E-01
4.11500000000E+09 +3.60332309017E-01 -5.14898964757E-01 -3.64648966697E-04 +4.47306160098E-04 -3.40550858216E-04 +5.33592191755E-04 +5.05822001373E-01 -5.41399816793E-01
4.12000000000E+09 +3.43156896051E-01 -5.15711006836E-01 -3.74772979185E-04 +5.33643665141E-04 -4.10383718493E-04 +5.71358547398E-04 +4.90126722662E-01 -5.48589859862E-01
4.12500000000E+09 +3.25965989047E-01 -5.15937661932E-01 -2.92298724343E-04 +5.12874379213E-04 -2.38624638037E-04 +6.02603738524E-04 +4.73916677921E-01 -5.55357897727E-01
4.13000000000E+09 +3.07556216007E-01 -5.17482085904E-01 -2.02861540386E-04 +4.81200585666E-04 -1.47497674948E-04 +4.65135271477E-04 +4.57079222568E-01 -5.61764650101E-01
4.13500000000E+09 +2.87734127994E-01 -5.18923358317E-01 -3.21528140880E-04 +5.40852287476E-04 -2.88381113132E-04 +5.56911515213E-04 +4.38994853976E-01 -5.67711558134E-01
4.14000000000E+09 +2.68006826796E-01 -5.21157883620E-01 -3.23489544110E-04 +5.63288729079E-04 -2.82672638383E-04 +5.81716641259E-04 +4.20384650846E-01 -5.73531420066E-01
4.14500000000E+09 +2.47781927035E-01 -5.25000788263E-01 -4.96742532597E-04 +7.60612524388E-04 -4.98326589699E-04 +7.73928934135E-04 +4.01734725851E-01 -5.78963564296E-01
4.15000000000E+09 +2.27006232217E-01 -5.28251441714E-01 -2.42625492727E-04 +1.21936905489E-03 -2.01477405744E-04 +1.16410246870E-03 +3.84147569873E-01 -5.84492994230E-01
4.15500000000E+09 +2.07460347526E-01 -5.31119421069E-01 +1.35936234266E-04 +1.18285693002E-03 +8.63101241072E-05 +1.11734791861E-03 +3.65743319105E-01 -5.89489234144E-01
4.16000000000E+09 +1.89081105715E-01 -5.32910832044E-01 +4.12164285354E-04 +1.13351662997E-03 +3.98125209333E-04 +1.09296441100E-03 +3.47564807311E-01 -5.92692825141E-01
4.16500000000E+09 +1.70739058118E-01 -5.32804300751E-01 +5.69934737491E-04 +6.98337921887E-04 +5.44190901712E-04 +6.55014968639E-04 +3.28414904130E-01 -5.96408997418E-01
4.17000000000E+09 +1.53431734414E-01 -5.30012876851E-01 +2.10316347427E-04 +8.46968553559E-04 +1.49265856248E-04 +8.27011045344E-04 +3.08040387517E-01 -5.98855128094E-01
4.17500000000E+09 +1.37690368535E-01 -5.24782033139E-01 +6.38271793970E-04 +1.03366690420E-03 +5.68444280918E-04 +1.04970538936E-03 +2.86603369425E-01 -6.00919329501E-01
4.18000000000E+09 +1.22066758957E-01 -5.20161002729E-01 +8.85960380043E-04 +5.56857777487E-04 +7.58716783294E-04 +5.45333968485E-04 +2.65752061368E-01 -6.02536683599E-01
4.18500000000E+09 +1.04126588313E-01 -5.15059571266E-01 +3.85985850276E-04 +8.64967790506E-04 +3.00910174746E-04 +9.00195088626E-04 +2.44697825576E-01 -6.03644494276E-01
4.19000000000E+09 +8.52090319542E-02 -5.08749853878E-01 +1.19632973785E-03 +1.15022795151E-03 +1.09036630035E-03 +1.26196102073E-03 +2.24261996400E-01 -6.03673511187E-01
4.19500000000E+09 +6.54697376201E-02 -5.02996633402E-01 +1.43055355908E-03 +3.73150015374E-04 +1.36773265386E-03 +5.21416862598E-04 +2.03257733515E-01 -6.02645549874E-01
4.20000000000E+09 +4.47874767464E-02 -4.96918349644E-01 +1.24934565459E-03 +2.77406843142E-04 +1.15954490367E-03 +4.18768997809E-04 +1.82440905271E-01 -6.00899553853E-01
4.20500000000E+09 +2.49783615185E-02 -4.91268615359E-01 +1.61764943100E-03 +9.39210807452E-05 +1.59411759587E-03 +2.69149986574E-04 +1.59990562418E-01 -5.98839645268E-01
4.21000000000E+09 +6.10493432604E-03 -4.85219714564E-01 +1.29739594357E-03 -5.32665727275E-04 +1.39513931694E-03 -3.96184556183E-04 +1.37513709542E-01 -5.96018692869E-01
4.21500000000E+09 -1.11746867865E-02 -4.79139912519E-01 +9.12699035615E-04 -2.71757972783E-04 +9.81062720757E-04 -1.86233903310E-04 +1.15799010744E-01 -5.93341242384E-01
4.22000000000E+09 -2.77705612136E-02 -4.72438815782E-01 +1.05521976686E-03 -3.71819106722E-04 +1.21654834224E-03 -3.00412042093E-04 +9.41685487896E-02 -5.90643868070E-01
4.22500000000E+09 -4.36330116844E-02 -4.63193766117E-01 +1.25224255604E-03 -4.70652639094E-04 +1.40857511565E-03 -4.68692992222E-04 +7.23934492710E-02 -5.86155048308E-01
4.23000000000E+09 -5.78848339897E-02 -4.52814294503E-01 +1.05326903909E-03 -1.11591624189E-03 +1.21134818683E-03 -1.16582684007E-03 +5.15803787968E-02 -5.80786862258E-01
4.23500000000E+09 -7.37306661568E-02 -4.40546127001E-01 +2.90159363959E-04 -1.01347820258E-03 +4.22594890434E-04 -1.12736597679E-03 +2.93665841996E-02 -5.74128707165E-01
4.24000000000E+09 -8.99229278523E-02 -4.25916834981E-01 +3.45585644868E-04 -4.17734484257E-04 +4.42721190108E-04 -5.40041667989E-04 +7.40594506267E-03 -5.66307635862E-01
4.24500000000E+09 -1.05642208642E-01 -4.11644060076E-01 +7.73079691957E-04 -7.43641184751E-04 +8.72071564869E-04 -8.60484199146E-04 -1.54455134427E-02 -5.58472631394E-01
4.25000000000E+09 -1.24328193606E-01 -3.97953953587E-01 +2.51018419172E-04 -1.32938967122E-03 +3.13853727830E-04 -1.51137952769E-03 -3.80678588247E-02 -5.49471528440E-01
4.25500000000E+09 -1.43793157468E-01 -3.84246509422E-01 -5.32021893795E-05 -4.21012276877E-04 -7.25585711452E-05 -5.51565945223E-04 -5.90075791529E-02 -5.39747594827E-01
4.26000000000E+09 -1.63431776647E-01 -3.71195736674E-01 +6.16177807076E-04 -7.55755357587E-04 +5.63890901859E-04 -8.89983324268E-04 -8.01197744875E-02 -5.29229487031E-01
4.26500000000E+09 -1.83147818026E-01 -3.58800952712E-01 +2.89583580078E-04 -1.16435513878E-03 +2.08351296561E-04 -1.25431015050E-03 -1.00033598207E-01 -5.17680964679E-01
4.27000000000E+09 -2.00291006713E-01 -3.45893144488E-01 -1.94371748448E-04 -1.00519427668E-03 -2.59228797992E-04 -1.04476512121E-03 -1.21622577983E-01 -5.05433811433E-01
4.27500000000E+09 -2.15155225543E-01 -3.33515273996E-01 -1.41283649693E-04 -9.71265145087E-04 -2.67167991947E-04 -1.01659623208E-03 -1.43173235885E-01 -4.90368043295E-01
4.28000000000E+09 -2.27927442485E-01 -3.20287674590E-01 -6.18806324603E-04 -7.21168391197E-04 -7.28461289886E-04 -6.91559167263E-04 -1.63415228050E-01 -4.75595871522E-01
4.28500000000E+09 -2.38502353318E-01 -3.05751033931E-01 -2.59635431475E-04 -2.70711934963E-04 -3.28528747900E-04 -2.23238599267E-04 -1.83639952332E-01 -4.61350073810E-01
4.29000000000E+09 -2.48157877525E-01 -2.89560739376E-01 -2.08495928977E-04 -3.60356187312E-04 -3.27298383679E-04 -2.61071821632E-04 -2.02762189602E-01 -4.45797170586E-01
4.29500000000E+09 -2.57241219872E-01 -2.71680498031E-01 +2.70254472862E-04 -2.76634912262E-04 +2.53413758356E-04 -1.83404812669E-04 -2.20629359252E-01 -4.29895376727E-01
4.30000000000E+09 -2.67239532713E-01 -2.52624804985E-01 +2.92181432651E-04 -9.77663740157E-04 +2.49961435505E-04 -9.12411083965E-04 -2.37663308385E-01 -4.13091691884E-01
4.30500000000E+09 -2.78529245120E-01 -2.32590923696E-01 -3.87403270906E-04 -1.30733029305E-03 -4.34871154806E-04 -1.20250636005E-03 -2.54235538591E-01 -3.94855232298E-01
4.31000000000E+09 -2.90833052677E-01 -2.11345531623E-01 -7.33937033571E-04 -5.96942727979E-04 -7.50629921079E-04 -5.69571990935E-04 -2.70547922046E-01 -3.76676987348E-01
4.31500000000E+09 -3.03129318838E-01 -1.91157639819E-01 -6.86339537424E-04 -6.50219774191E-04 -6.58761693605E-04 -5.37817647893E-04 -2.86911571487E-01 -3.57148233571E-01
4.32000000000E+09 -3.15240167168E-01 -1.72357670589E-01 -7.40340595136E-04 -1.44000308670E-04 -6.47196381867E-04 -7.58011599719E-05 -3.01489350135E-01 -3.37434995753E-01
4.32500000000E+09 -3.26644371410E-01 -1.54587280564E-01 +1.27840350558E-05 -3.73275332347E-04 +1.32773748547E-04 -3.78634037264E-04 -3.16632894615E-01 -3.18051551847E-01
4.33000000000E+09 -3.35137089280E-01 -1.38346984885E-01 -6.71720228074E-04 -6.97493413527E-04 -5.44805629594E-04 -7.54583284468E-04 -3.29828498133E-01 -2.96199823689E-01
4.33500000000E+09 -3.42549175852E-01 -1.23741012074E-01 -4.33942059677E-04 -3.97789463778E-04 -2.88335768030E-04 -4.93882277298E-04 -3.42474609920E-01 -2.75002609809E-01
4.34000000000E+09 -3.48142372265E-01 -1.07366864394E-01 -6.15999736700E-04 -7.92955050346E-04 -5.17188409947E-04 -9.31650580497E-04 -3.55033760038E-01 -2.51602194094E-01
4.34500000000E+09 -3.49936016786E-01 -8.96140401342E-02 -1.30822092305E-03 -8.01287927666E-04 -1.22556065287E-03 -8.77999048627E-04 -3.66308772168E-01 -2.28664773828E-01
4.35000000000E+09 -3.51248946812E-01 -7.13418732512E-02 -1.23160174707E-03 +9.68711792625E-05 -1.21844909491E-03 +3.71594892329E-05 -3.78075487165E-01 -2.05362018612E-01
4.35500000000E+09 -3.51498549562E-01 -5.07765242714E-02 -1.05524366886E-03 +1.74104362793E-04 -1.06888983481E-03 +2.96915351562E-05 -3.87744770635E-01 -1.81169299709E-01
4.36000000000E+09 -3.52576046640E-01 -2.89426224382E-02 -7.94215579862E-04 +3.45158802652E-04 -9.00142822762E-04 +2.33326255752E-04 -3.95605427377E-01 -1.58120436164E-01
4.36500000000E+09 -3.54931767609E-01 -6.45379898955E-03 -5.83866220064E-04 +4.39356018110E-04 -6.71530838769E-04 +3.74692605972E-04 -4.03104387304E-01 -1.34800561745E-01
4.37000000000E+09 -3.58068294430E-01 +1.65439501139E-02 -3.65757651420E-04 +4.49073160006E-04 -4.53682731843E-04 +3.65726276685E-04 -4.08856980093E-01 -1.10446671855E-01
4.37500000000E+09 -3.62716060190E-01 +3.82571493466E-02 -2.24092345358E-05 -1.99551684310E-04 -1.48171614190E-04 -1.96659821180E-04 -4.13850459600E-01 -8.55080078556E-02
4.38000000000E+09 -3.67445672677E-01 +5.88328318961E-02 -9.02020108243E-04 -4.51265729310E-04 -1.07445548239E-03 -4.52208993594E-04 -4.17755546502E-01 -6.13527637742E-02
4.38500000000E+09 -3.70472014705E-01 +7.67821306975E-02 -1.19359848785E-03 +4.55533634530E-04 -1.34336138331E-03 +6.00909467112E-04 -4.21527568132E-01 -3.64783656480E-02
4.39000000000E+09 -3.73498031189E-01 +9.26626277777E-02 -4.45496877150E-04 +6.82887441204E-04 -5.23202219432E-04 +8.56648460327E-04 -4.23425987376E-01 -1.20864877356E-02
4.39500000000E+09 -3.73477034946E-01 +1.07953406897E-01 -4.67258277145E-04 +3.71965663167E-04 -4.27465482261E-04 +4.95797931121E-04 -4.25015625358E-01 +1.15869697408E-02
4.40000000000E+09 -3.70852061394E-01 +1.22110327700E-01 -1.10336378493E-04 +6.52663554834E-04 -1.18251099462E-04 +7.62287844674E-04 -4.24538781257E-01 +3.54550863246E-02
4.40500000000E+09 -3.66632317153E-01 +1.36284799417E-01 -6.84460850140E-06 -9.47787362588E-05 +7.11595227587E-05 +1.18165906650E-05 -4.24259576842E-01 +5.86747904293E-02
4.41000000000E+09 -3.61242365676E-01 +1.52433611036E-01 -4.98530405174E-04 -6.73889728170E-05 -4.24438706431E-04 +4.35406702841E-07 -4.22662146757E-01 +8.30832253741E-02
4.41500000000E+09 -3.55227798958E-01 +1.70999215774E-01 -5.02893633611E-04 -5.47080842385E-05 -4.43820275937E-04 +6.19374683974E-05 -4.21192601556E-01 +1.06032143330E-01
4.42000000000E+09 -3.48995867603E-01 +1.91754027057E-01 -1.00235122007E-03 -3.60429958516E-05 -9.40361094218E-04 +6.43002670684E-05 -4.18855096768E-01 +1.30779677565E-01
4.42500000000E+09 -3.43722296369E-01 +2.12915494826E-01 -1.10736956719E-03 +4.57998941634E-04 -9.87282734949E-04 +4.36605560869E-04 -4.13563457955E-01 +1.53458414354E-01
4.43000000000E+09 -3.39693705964E-01 +2.35054525037E-01 -1.00036348738E-03 +8.37596750531E-04 -8.50124013500E-04 +8.42196953203E-04 -4.10197815957E-01 +1.75504242949E-01
4.43500000000E+09 -3.35621701609E-01 +2.56131485488E-01 -7.20539161023E-04 +9.47731507239E-04 -5.84452001558E-04 +8.68819599409E-04 -4.03966681816E-01 +1.99045203481E-01
4.44000000000E+09 -3.32658351615E-01 +2.73374322880E-01 -3.48837520275E-04 +9.95202909803E-04 -2.63474457164E-04 +8.93413824459E-04 -3.97793967453E-01 +2.20360088931E-01
4.44500000000E+09 -3.31299561624E-01 +2.89393839095E-01 -5.62305168748E-04 +6.00934796635E-04 -4.92903388103E-04 +4.14715007240E-04 -3.91249232179E-01 +2.42474772125E-01
4.45000000000E+09 -3.28695473279E-01 +3.03613931867E-01 -8.49379343182E-04 +1.01470713282E-03 -8.04341616626E-04 +8.45210398106E-04 -3.84064156966E-01 +2.63192442638E-01
4.45500000000E+09 -3.24216459543E-01 +3.16108193260E-01 -7.40680301045E-04 +1.42047833230E-03 -7.87643126814E-04 +1.34451865611E-03 -3.76105604611E-01 +2.83379504314E-01
4.46000000000E+09 -3.17869800790E-01 +3.28286758125E-01 -3.05297372955E-04 +1.56216509808E-03 -4.26699849670E-04 +1.48797905156E-03 -3.67812932634E-01 +3.02846988655E-01
4.46500000000E+09 -3.09018598634E-01 +3.40748282895E-01 -4.27633834881E-05 +1.70080204286E-03 -1.61405215543E-04 +1.69612772741E-03 -3.57777311072E-01 +3.22561106191E-01
4.47000000000E+09 -2.98172707987E-01 +3.54855096830E-01 +4.25633166098E-04 +1.81942461893E-03 +3.17556557709E-04 +1.79108476626E-03 -3.46432379425E-01 +3.41095055046E-01
4.47500000000E+09 -2.85778725002E-01 +3.69555079523E-01 +6.51654383119E-04 +1.66309269789E-03 +5.26105511147E-04 +1.64011450926E-03 -3.35721233133E-01 +3.59851868647E-01
4.48000000000E+09 -2.74207888138E-01 +3.86203275590E-01 +1.09539738417E-03 +1.56565717740E-03 +1.01365706569E-03 +1.56029483194E-03 -3.23644700550E-01 +3.77949023509E-01
4.48500000000E+09 -2.62206875325E-01 +4.03383320957E-01 +9.43943847813E-04 +1.09917050431E-03 +8.59766527968E-04 +1.17582625610E-03 -3.12283834673E-01 +3.94658571900E-01
4.49000000000E+09 -2.52559776753E-01 +4.19563342727E-01 +1.17624673830E-03 +1.16661392090E-03 +1.14693831445E-03 +1.24850732942E-03 -3.01341925620E-01 +4.10470991426E-01
4.49500000000E+09 -2.44974491117E-01 +4.35549428636E-01 +1.30675453292E-03 +9.33739100585E-04 +1.31996211207E-03 +1.06328929490E-03 -2.90260632973E-01 +4.25695980258E-01
4.50000000000E+09 -2.38581798058E-01 +4.49261510529E-01 +1.23685081238E-03 +9.73393621991E-04 +1.34529794212E-03 +1.00635938263E-03 -2.78274698309E-01 +4.41250037466E-01
4.50500000000E+09 -2.33795894744E-01 +4.61333608264E-01 +1.81433260546E-03 +8.79388565428E-04 +1.92304320721E-03 +9.56343684528E-04 -2.65421339824E-01 +4.56015108245E-01
4.51000000000E+09 -2.27572576526E-01 +4.71410283029E-01 +1.98918022454E-03 +6.13491123891E-05 +2.05059289194E-03 +1.15650741397E-04 -2.52421390694E-01 +4.70691375955E-01
4.51500000000E+09 -2.20823879210E-01 +4.79171884681E-01 +1.49724321320E-03 -3.59304613381E-05 +1.57792348066E-03 -3.88985811337E-05 -2.38995880153E-01 +4.85050455105E-01
4.52000000000E+09 -2.11563980051E-01 +4.86884406025E-01 +1.60530674452E-03 -1.98108340558E-04 +1.72979253903E-03 -2.63034626005E-04 -2.26202390278E-01 +4.98194865492E-01
4.52500000000E+09 -1.99986475433E-01 +4.93355054619E-01 +1.34096154371E-03 -5.37513840174E-04 +1.36095629828E-03 -6.41459613971E-04 -2.12894886301E-01 +5.10905074443E-01
4.53000000000E+09 -1.87010070557E-01 +5.01277360383E-01 +1.09996878398E-03 -3.63472828946E-04 +1.15755151211E-03 -4.36660610589E-04 -1.99190752602E-01 +5.22515934419E-01
4.53500000000E+09 -1.71827455107E-01 +5.10147720127E-01 +1.09903032125E-03 -3.27369016522E-04 +1.14661831047E-03 -4.07218207047E-04 -1.85060124758E-01 +5.34481914707E-01
4.54000000000E+09 -1.56952078887E-01 +5.19749459564E-01 +1.35178471777E-03 -2.27816301064E-04 +1.31383497055E-03 -3.41793487417E-04 -1.69210227079E-01 +5.45825749198E-01
4.54500000000E+09 -1.42130434894E-01 +5.31101549208E-01 +1.54230436829E-03 -7.13118151999E-04 +1.44134389813E-03 -8.08172033713E-04 -1.54240799002E-01 +5.55857589606E-01
4.55000000000E+09 -1.28606854505E-01 +5.41679318092E-01 +1.40756547831E-03 -8.78805724066E-04 +1.28148884909E-03 -9.36339279843E-04 -1.39242470631E-01 +5.66576576763E-01
4.55500000000E+09 -1.17261446101E-01 +5.52068424061E-01 +1.15934536672E-03 -1.19800120216E-03 +1.04283965683E-03 -1.28448621331E-03 -1.24617670239E-01 +5.76147328530E-01
4.56000000000E+09 -1.07220144439E-01 +5.61262030111E-01 +7.82208896961E-04 -1.06460966373E-03 +6.90785049956E-04 -1.06212368430E-03 -1.10043331295E-01 +5.84933133008E-01
4.56500000000E+09 -9.86830995739E-02 +5.68885837687E-01 +9.29742245701E-04 -1.24214331655E-03 +8.36741352171E-04 -1.28964855121E-03 -9.60144044320E-02 +5.93586858275E-01
4.57000000000E+09 -8.98104813639E-02 +5.75618822080E-01 +8.47240001208E-04 -1.25388303994E-03 +6.45508318084E-04 -1.17505252095E-03 -8.02655435059E-02 +6.02043981048E-01
