# Hz S RI R 50
! CMT, C1220, 16058040, 17.2.0/1
! Date: 15/08/2018 12:27:03
! Data: Format (Calibration Info)
! Freq                      S11: Re/Im (F2)                       S21: Re/Im (F2)                       S12: Re/Im (F2)                       S22: Re/Im (F2)            
4.00000000000E+09 +6.62992111418E-01 -3.58214147717E-01 -1.09682153738E-04 -6.36866945533E-04 -8.71824956257E-05 -6.49835137163E-04 +7.83637348321E-01 -3.17192314220E-01
4.00500000000E+09 +6.54715159061E-01 -3.64960621339E-01 -2.27709804276E-05 -6.04260840169E-04 -3.47918828617E-05 -5.99956278686E-04 +7.75263000110E-01 -3.28996410271E-01
4.01000000000E+09 +6.45697302614E-01 -3.71451514775E-01 -1.59072381891E-04 -7.33620624059E-04 -1.59558859020E-04 -7.41935361161E-04 +7.66434371822E-01 -3.40983241292E-01
4.01500000000E+09 +6.36181314619E-01 -3.78374935814E-01 -1.76257364596E-04 -5.34449356757E-04 -1.39508370562E-04 -5.28049759811E-04 +7.57701957550E-01 -3.51933048200E-01
4.02000000000E+09 +6.26080742597E-01 -3.86695988260E-01 -1.47576076687E-04 -6.38998633511E-04 -1.26928330162E-04 -6.31093593738E-04 +7.48681193903E-01 -3.62759828526E-01
4.02500000000E+09 +6.15230526552E-01 -3.96270513043E-01 -2.30601429681E-04 -6.96679438591E-04 -1.86323736974E-04 -7.23767270340E-04 +7.39042519562E-01 -3.72753578657E-01
4.03000000000E+09 +6.03486796926E-01 -4.06184489090E-01 -3.83675423506E-04 -7.62887440551E-04 -3.88303526484E-04 -7.54446744069E-04 +7.29262146643E-01 -3.83274272178E-01
4.03500000000E+09 +5.92379631984E-01 -4.15924149922E-01 -4.75135436221E-04 -6.41755366139E-04 -4.02140654919E-04 -6.31533267782E-04 +7.18060684093E-01 -3.94224494289E-01
4.04000000000E+09 +5.81347487902E-01 -4.26039606762E-01 -6.55342472645E-04 -6.25417592011E-04 -6.43707393202E-04 -6.19752303941E-04 +7.07286550066E-01 -4.05151190486E-01
4.04500000000E+09 +5.69507789696E-01 -4.35372808016E-01 -5.45242097266E-04 -3.30102174588E-04 -5.73806689330E-04 -3.86962056271E-04 +6.96675762495E-01 -4.16461809993E-01
4.05000000000E+09 +5.58127338415E-01 -4.42296949813E-01 -4.45647661165E-04 -3.74318189874E-04 -4.22374078028E-04 -4.11952840265E-04 +6.85460602929E-01 -4.27394763813E-01
4.05500000000E+09 +5.46563166885E-01 -4.48747095025E-01 -4.46433748395E-04 -4.76528777734E-04 -4.68467019153E-04 -4.85803002603E-04 +6.74334891402E-01 -4.36731213201E-01
4.06000000000E+09 +5.33726774838E-01 -4.53880836595E-01 -5.61925799838E-04 -5.90292963868E-04 -6.06319385474E-04 -6.10385953904E-04 +6.63228008904E-01 -4.46137024759E-01
4.06500000000E+09 +5.20637312943E-01 -4.57829012318E-01 -8.27606454601E-04 -6.15524652605E-04 -8.93647308885E-04 -6.45019078742E-04 +6.50524668794E-01 -4.55406935668E-01
4.07000000000E+09 +5.06635566846E-01 -4.62502367200E-01 -9.63363670289E-04 -3.44906271244E-04 -9.83841249269E-04 -3.68331583757E-04 +6.37577295121E-01 -4.65163637236E-01
4.07500000000E+09 +4.91741555926E-01 -4.67456155271E-01 -8.95934355254E-04 -2.64443664471E-04 -9.27650903183E-04 -2.85858374325E-04 +6.23817146668E-01 -4.75339267807E-01
4.08000000000E+09 +4.75465465901E-01 -4.73316828854E-01 -9.99588685608E-04 -1.59359779269E-04 -1.05676489549E-03 -1.98117620099E-04 +6.10365452388E-01 -4.85182313706E-01
4.08500000000E+09 +4.58710498395E-01 -4.79085785530E-01 -1.02062374539E-03 +1.76462105497E-04 -1.01399513224E-03 +1.11378661549E-04 +5.97311883262E-01 -4.94773391821E-01
4.09000000000E+09 +4.42235407334E-01 -4.85639264067E-01 -8.20852639194E-04 +5.29460817691E-05 -8.72366265589E-04 +7.00604953224E-05 +5.83333866951E-01 -5.03675886164E-01
4.09500000000E+09 +4.26030195960E-01 -4.92392227017E-01 -9.15372536673E-04 +2.08074346693E-05 -9.62735751744E-04 +2.12093242520E-05 +5.69350625974E-01 -5.11479564274E-01
4.10000000000E+09 +4.09033485902E-01 -4.98061786113E-01 -1.01568639934E-03 +1.61455547359E-04 -1.08062711955E-03 +1.94322614912E-04 +5.54370483739E-01 -5.19834621780E-01
4.10500000000E+09 +3.93125942209E-01 -5.02120044566E-01 -1.16703420024E-03 +2.56380180570E-04 -1.17736635478E-03 +2.46170960854E-04 +5.38177828755E-01 -5.27769387404E-01
4.11000000000E+09 +3.77168292331E-01 -5.05413150287E-01 -1.09330938490E-03 +6.26021868417E-04 -1.10604493899E-03 +5.99657297093E-04 +5.21671179981E-01 -5.35742107824E-01
4.11500000000E+09 +3.60584333993E-01 -5.06863073026E-01 -8.90631485700E-04 +7.66449370687E-04 -9.43259954180E-04 +8.36098231704E-04 +5.05157508240E-01 -5.43277654168E-01
4.12000000000E+09 +3.43784732085E-01 -5.07080210057E-01 -7.31182910226E-04 +9.04372321808E-04 -7.58375006910E-04 +9.18601994327E-04 +4.88995974970E-01 -5.50684884399E-01
4.12500000000E+09 +3.27122239242E-01 -5.06892204526E-01 -5.80293119564E-04 +9.33866160921E-04 -6.20136345670E-04 +9.02628036331E-04 +4.72321900534E-01 -5.57078513314E-01
4.13000000000E+09 +3.09215660584E-01 -5.08673524732E-01 -3.67900944402E-04 +6.28475395316E-04 -3.67316044627E-04 +5.93314465150E-04 +4.55384934478E-01 -5.63350450074E-01
4.13500000000E+09 +2.89720278732E-01 -5.10004532436E-01 -7.64237216320E-04 +6.65021341620E-04 -7.84631923257E-04 +6.32240651871E-04 +4.37134969779E-01 -5.69161363561E-01
4.14000000000E+09 +2.70498721144E-01 -5.12629751672E-01 -7.16834240445E-04 +9.63226966812E-04 -7.46845128344E-04 +1.01978606263E-03 +4.18227033351E-01 -5.74799689327E-01
4.14500000000E+09 +2.50042144752E-01 -5.16840645265E-01 -6.66702973462E-04 +1.17608481898E-03 -7.78832140831E-04 +1.26130105764E-03 +3.99511635893E-01 -5.79943916685E-01
4.15000000000E+09 +2.29380112348E-01 -5.19339262401E-01 -3.67486419315E-04 +1.53419286042E-03 -3.87942192926E-04 +1.60564899882E-03 +3.81351522461E-01 -5.85126231393E-01
4.15500000000E+09 +2.10673227429E-01 -5.21786736100E-01 +6.28726229125E-05 +1.42421634829E-03 -4.46728710083E-06 +1.53974173128E-03 +3.62587905707E-01 -5.89440126828E-01
4.16000000000E+09 +1.92798701584E-01 -5.23531098941E-01 +3.76181866660E-04 +1.28791024029E-03 +4.56216328240E-04 +1.35899110459E-03 +3.44705686678E-01 -5.91905708523E-01
4.16500000000E+09 +1.75306539496E-01 -5.23224987295E-01 +4.31927513972E-04 +8.63455323853E-04 +4.25278452510E-04 +9.55735427536E-04 +3.25990792288E-01 -5.95255036563E-01
4.17000000000E+09 +1.58667020524E-01 -5.20886079136E-01 +1.42075602355E-05 +1.05659201681E-03 +1.78893851598E-05 +1.11290829942E-03 +3.06160254479E-01 -5.97442908067E-01
4.17500000000E+09 +1.43170500374E-01 -5.16282207227E-01 +4.45625345493E-04 +1.28115873441E-03 +4.63885538652E-04 +1.36678486557E-03 +2.85135538126E-01 -5.99586983084E-01
4.18000000000E+09 +1.27396710600E-01 -5.12078391709E-01 +6.31825291665E-04 +8.52963236274E-04 +6.39188961930E-04 +8.59001126061E-04 +2.64397127839E-01 -6.01382100789E-01
4.18500000000E+09 +1.09790409811E-01 -5.06407147243E-01 +2.35865978261E-04 +1.14705696884E-03 +3.00379544575E-04 +1.13887216330E-03 +2.43147932076E-01 -6.02474214985E-01
4.19000000000E+09 +9.19235081101E-02 -5.00726592441E-01 +8.19679541822E-04 +1.43647453264E-03 +8.19732722043E-04 +1.48761466233E-03 +2.22765797451E-01 -6.02344977143E-01
4.19500000000E+09 +7.25629231753E-02 -4.95675663673E-01 +1.14382694890E-03 +8.21721314440E-04 +1.17195168895E-03 +8.64858015503E-04 +2.01842867570E-01 -6.01103008129E-01
4.20000000000E+09 +5.24378086658E-02 -4.89634970172E-01 +9.29895316492E-04 +8.59224363366E-04 +1.00213751795E-03 +9.21960586353E-04 +1.81262949554E-01 -5.99131574934E-01
4.20500000000E+09 +3.35377841115E-02 -4.84100723209E-01 +1.45938642045E-03 +7.07384469801E-04 +1.54854752650E-03 +7.92433585635E-04 +1.59128988450E-01 -5.97165259808E-01
4.21000000000E+09 +1.56268875149E-02 -4.79003681187E-01 +1.30759616044E-03 +1.02029505150E-04 +1.35160392094E-03 +1.11586723074E-04 +1.36868357915E-01 -5.94718892593E-01
4.21500000000E+09 -1.57439185190E-03 -4.73807560548E-01 +1.07699033948E-03 +3.29725328975E-04 +1.08632311419E-03 +3.73465869527E-04 +1.14672366955E-01 -5.92185238568E-01
4.22000000000E+09 -1.84593047320E-02 -4.67012369785E-01 +1.13854481886E-03 +1.41233136665E-04 +1.17398232227E-03 +1.09039331456E-04 +9.28510289775E-02 -5.88877699118E-01
4.22500000000E+09 -3.35116606980E-02 -4.57803461314E-01 +1.28681845638E-03 +2.15847646056E-04 +1.35667666411E-03 +1.95159850138E-04 +7.13186196821E-02 -5.84164481090E-01
4.23000000000E+09 -4.80157945555E-02 -4.47996941134E-01 +1.35591560070E-03 -3.96076068171E-04 +1.36957937028E-03 -4.26155701844E-04 +5.06004729424E-02 -5.78329625141E-01
4.23500000000E+09 -6.35475318602E-02 -4.35946055133E-01 +7.36135023327E-04 -3.61726750847E-04 +7.78150156450E-04 -3.88712391241E-04 +2.87658945512E-02 -5.71435181120E-01
4.24000000000E+09 -7.90211408560E-02 -4.22286739773E-01 +8.13221668612E-04 +1.71668980234E-04 +8.16081760267E-04 +1.66189476497E-04 +7.18860544386E-03 -5.63507140611E-01
4.24500000000E+09 -9.56067860785E-02 -4.09639487494E-01 +1.42740155184E-03 -9.53942303073E-05 +1.40643487487E-03 -8.76595593219E-05 -1.53061051618E-02 -5.55680160203E-01
4.25000000000E+09 -1.14989203999E-01 -3.96328390794E-01 +1.13829760616E-03 -7.24030015438E-04 +1.11262389624E-03 -6.91646694070E-04 -3.73315765510E-02 -5.46521615768E-01
4.25500000000E+09 -1.34717816397E-01 -3.83171944178E-01 +9.83712124614E-04 -4.01440893003E-04 +9.53740340821E-04 -3.86488768660E-04 -5.80864688932E-02 -5.36976574597E-01
4.26000000000E+09 -1.54291829098E-01 -3.70664403813E-01 +1.27109418776E-03 -7.32058420725E-04 +1.28532041344E-03 -7.82298468600E-04 -7.87541833125E-02 -5.26245585477E-01
4.26500000000E+09 -1.73959125064E-01 -3.58705394906E-01 +9.25553155583E-04 -1.36229679036E-03 +9.42669556210E-04 -1.28791294248E-03 -9.79062488674E-02 -5.14874604600E-01
4.27000000000E+09 -1.90955231967E-01 -3.46506658731E-01 +2.55103550785E-04 -1.09415018473E-03 +2.47112641509E-04 -1.01999968033E-03 -1.19216798227E-01 -5.03220945349E-01
4.27500000000E+09 -2.06069808217E-01 -3.34630235843E-01 +3.92388683247E-04 -8.70939382959E-04 +3.49916066158E-04 -8.78153428529E-04 -1.40397507023E-01 -4.88417177985E-01
4.28000000000E+09 -2.18554155533E-01 -3.21769691980E-01 -4.87894619503E-05 -8.14639582258E-04 -7.74399774681E-05 -7.63121569011E-04 -1.60244352952E-01 -4.74477244618E-01
4.28500000000E+09 -2.29767479707E-01 -3.07900090387E-01 +3.07623117817E-04 -3.62604959691E-04 +3.66989032112E-04 -2.99645157836E-04 -1.80749332131E-01 -4.60591268020E-01
4.29000000000E+09 -2.39839803978E-01 -2.91634759196E-01 +3.57438571636E-04 -5.14041329145E-04 +3.76531974089E-04 -5.00046244513E-04 -1.99737794243E-01 -4.45409928413E-01
4.29500000000E+09 -2.49274036905E-01 -2.74327618205E-01 +7.24307920374E-04 -6.73143107539E-04 +7.39234690091E-04 -6.27653021049E-04 -2.17805857044E-01 -4.30212515765E-01
4.30000000000E+09 -2.60014056620E-01 -2.55345766811E-01 +3.87402238109E-04 -1.15590980558E-03 +4.25002568301E-04 -1.20539127172E-03 -2.35355890639E-01 -4.13353130805E-01
4.30500000000E+09 -2.71668887350E-01 -2.35344709037E-01 -1.43429660085E-04 -1.07595007840E-03 -1.13558402761E-04 -1.12363981458E-03 -2.51995328022E-01 -3.95392986485E-01
4.31000000000E+09 -2.84233036873E-01 -2.14668690701E-01 -2.70844506483E-04 -4.98838601028E-04 -1.87654328657E-04 -6.09633403772E-04 -2.68181404473E-01 -3.77199856599E-01
4.31500000000E+09 -2.97125785688E-01 -1.94531910191E-01 -1.40601277823E-04 -4.98942386930E-04 -1.78479761037E-04 -5.85922823270E-04 -2.84495103439E-01 -3.58266220878E-01
4.32000000000E+09 -3.09259157925E-01 -1.76541362783E-01 +6.69218005093E-05 -4.28958202650E-05 +9.49811559209E-05 -8.67397429417E-05 -2.99862605522E-01 -3.38651848321E-01
4.32500000000E+09 -3.21354192640E-01 -1.59473273676E-01 +8.34952610499E-04 -6.18016517005E-04 +7.98528972111E-04 -6.57673804018E-04 -3.15057361310E-01 -3.18680921908E-01
4.33000000000E+09 -3.30494099037E-01 -1.43129329844E-01 +5.37191053158E-05 -9.79173727001E-04 +7.21670783894E-06 -1.07510549117E-03 -3.28121775606E-01 -2.96986687558E-01
4.33500000000E+09 -3.38478795186E-01 -1.28704007149E-01 +3.14807644300E-04 -6.41278457062E-04 +2.29625012081E-04 -6.51260159238E-04 -3.40847461576E-01 -2.75693238341E-01
4.34000000000E+09 -3.44346376864E-01 -1.11862994554E-01 +3.42709095894E-04 -9.96177658130E-04 +3.02955425023E-04 -1.00594903835E-03 -3.52936205396E-01 -2.52203837074E-01
4.34500000000E+09 -3.46035111660E-01 -9.43830213879E-02 -1.61415107543E-04 -1.33890537272E-03 -2.92113103366E-04 -1.40638046804E-03 -3.63611340558E-01 -2.29819577995E-01
4.35000000000E+09 -3.48081063475E-01 -7.62218346052E-02 -2.73634439038E-04 -6.81403023959E-04 -3.36973595689E-04 -6.68519683211E-04 -3.75137519547E-01 -2.07321939735E-01
4.35500000000E+09 -3.48805778299E-01 -5.52841678383E-02 -1.52470657057E-05 -8.52360506973E-04 -5.03213891267E-05 -8.22074605119E-04 -3.85281623775E-01 -1.84144501062E-01
4.36000000000E+09 -3.50132610415E-01 -3.36998432855E-02 -5.58477896368E-05 -9.45930254949E-04 -1.25635907826E-04 -8.87637010400E-04 -3.93799622556E-01 -1.61422971345E-01
4.36500000000E+09 -3.53444200093E-01 -1.08860641230E-02 -2.55550412183E-05 -1.00390250794E-03 +1.63594293425E-06 -9.48624607666E-04 -4.01913720003E-01 -1.38010303671E-01
4.37000000000E+09 -3.57085011013E-01 +1.21656756251E-02 -5.38898254246E-05 -1.16238010464E-03 -1.05683924381E-04 -1.15145748838E-03 -4.07685848791E-01 -1.13827957697E-01
4.37500000000E+09 -3.62212908530E-01 +3.40057376988E-02 +6.10391170101E-05 -1.77659493922E-03 +4.75946813178E-05 -1.73985341787E-03 -4.13165865279E-01 -8.95212249964E-02
4.38000000000E+09 -3.67181693936E-01 +5.49531679983E-02 -1.05830093063E-03 -2.01847651956E-03 -1.04510839508E-03 -1.93274623161E-03 -4.17662339360E-01 -6.52703247452E-02
4.38500000000E+09 -3.70898329473E-01 +7.23947184212E-02 -1.53486440673E-03 -1.24029843704E-03 -1.49813019623E-03 -1.14815194825E-03 -4.22003845596E-01 -4.09350692063E-02
4.39000000000E+09 -3.74633067028E-01 +8.87802547978E-02 -1.08671964101E-03 -9.04340251204E-04 -1.08697877763E-03 -8.44851454345E-04 -4.25214857313E-01 -1.61952414180E-02
4.39500000000E+09 -3.74845023349E-01 +1.04171092194E-01 -1.28217924745E-03 -1.07985705258E-03 -1.26274416837E-03 -1.09778817278E-03 -4.26961378858E-01 +8.21744749165E-03
4.40000000000E+09 -3.72768439042E-01 +1.18455539694E-01 -1.21810866165E-03 -8.29934705152E-04 -1.17765098751E-03 -8.64376113977E-04 -4.27118736956E-01 +3.21518102042E-02
4.40500000000E+09 -3.68979074527E-01 +1.33032655149E-01 -1.56390986881E-03 -1.25421895787E-03 -1.58517805908E-03 -1.30050890902E-03 -4.27171714084E-01 +5.63297296069E-02
4.41000000000E+09 -3.64243027288E-01 +1.49028638923E-01 -1.97029743000E-03 -8.73014276905E-04 -1.93765404612E-03 -8.87709802647E-04 -4.25784853266E-01 +8.09633494181E-02
4.41500000000E+09 -3.58799851489E-01 +1.68370948372E-01 -2.02539119662E-03 -6.24059529125E-04 -2.05675926642E-03 -6.59029291847E-04 -4.24109935711E-01 +1.04766295001E-01
4.42000000000E+09 -3.52811868775E-01 +1.89308880843E-01 -2.43752880742E-03 -5.60938040370E-04 -2.49294923572E-03 -5.56304592595E-04 -4.21665016875E-01 +1.29654476422E-01
4.42500000000E+09 -3.47808484974E-01 +2.11623001112E-01 -2.66793523536E-03 +1.49200582916E-04 -2.67278191814E-03 +1.52411927231E-04 -4.16358005960E-01 +1.52536707961E-01
4.43000000000E+09 -3.42862090000E-01 +2.33807736866E-01 -2.60185110812E-03 +7.05119613828E-04 -2.61072792280E-03 +7.44478121225E-04 -4.13011217927E-01 +1.74600170084E-01
4.43500000000E+09 -3.39261663649E-01 +2.54238379132E-01 -2.36309475313E-03 +1.07099112983E-03 -2.44184752151E-03 +1.02375023001E-03 -4.06865378637E-01 +1.98444595691E-01
4.44000000000E+09 -3.36737585580E-01 +2.72118616631E-01 -1.85887855242E-03 +1.41996520617E-03 -1.93007716036E-03 +1.47303332582E-03 -4.00469259523E-01 +2.20023105478E-01
4.44500000000E+09 -3.35242531029E-01 +2.88389204755E-01 -1.78333295796E-03 +1.14740011675E-03 -1.83960788830E-03 +1.16141724430E-03 -3.93899867172E-01 +2.42181138654E-01
4.45000000000E+09 -3.33168418692E-01 +3.02916009297E-01 -1.92156823734E-03 +1.42295351564E-03 -1.92161388270E-03 +1.46689205963E-03 -3.87077534763E-01 +2.63115421202E-01
4.45500000000E+09 -3.28619057899E-01 +3.16508435118E-01 -2.01784165512E-03 +1.85306656455E-03 -2.00631868699E-03 +1.93536450877E-03 -3.78762479658E-01 +2.83812415276E-01
4.46000000000E+09 -3.21458534232E-01 +3.28804748468E-01 -1.57655085136E-03 +2.17606211159E-03 -1.49952232361E-03 +2.24125050258E-03 -3.70311350768E-01 +3.02904604718E-01
4.46500000000E+09 -3.12687589726E-01 +3.41428098372E-01 -1.23775231130E-03 +2.47241802504E-03 -1.11745859026E-03 +2.54297310812E-03 -3.60516779828E-01 +3.22828463544E-01
4.47000000000E+09 -3.01667097681E-01 +3.55345853241E-01 -6.56861285742E-04 +2.59224121293E-03 -5.55199777878E-04 +2.65174004862E-03 -3.49494001288E-01 +3.41612858465E-01
4.47500000000E+09 -2.89747797253E-01 +3.70062075926E-01 -5.24334285518E-04 +2.52850042622E-03 -4.13694553562E-04 +2.56379261714E-03 -3.38968333209E-01 +3.60616547215E-01
4.48000000000E+09 -2.78243619676E-01 +3.87170721787E-01 +4.21087486623E-05 +2.63936102966E-03 +1.21554940956E-04 +2.65724038735E-03 -3.27048437482E-01 +3.79410388871E-01
4.48500000000E+09 -2.66231623202E-01 +4.04121151574E-01 -5.33888241695E-05 +2.24619661981E-03 +8.82768020626E-05 +2.19922095989E-03 -3.15468296663E-01 +3.96798859520E-01
4.49000000000E+09 -2.57032822348E-01 +4.20952900999E-01 +1.34929130364E-04 +2.70710397249E-03 +2.74011957134E-04 +2.64867128009E-03 -3.03722926086E-01 +4.13023567208E-01
4.49500000000E+09 -2.48602505658E-01 +4.37301580519E-01 +7.43528511639E-04 +2.57987732787E-03 +8.58346103658E-04 +2.47002241140E-03 -2.92496163299E-01 +4.28329621040E-01
4.50000000000E+09 -2.42169127243E-01 +4.50856004422E-01 +7.60195438322E-04 +2.64176882157E-03 +7.96149155046E-04 +2.50944043237E-03 -2.80127430601E-01 +4.44282475077E-01
4.50500000000E+09 -2.37008015048E-01 +4.63458637762E-01 +1.53003163530E-03 +2.58811583928E-03 +1.55052190515E-03 +2.54066364339E-03 -2.66829754603E-01 +4.59020338871E-01
4.51000000000E+09 -2.30317884921E-01 +4.73223897486E-01 +1.79251331365E-03 +1.93487047375E-03 +1.83362741604E-03 +1.84681533890E-03 -2.53245756808E-01 +4.73731654277E-01
4.51500000000E+09 -2.23847059469E-01 +4.81381383908E-01 +1.76605359283E-03 +1.84791505896E-03 +1.69204182375E-03 +1.78979548071E-03 -2.39604654775E-01 +4.87903136804E-01
4.52000000000E+09 -2.14263585029E-01 +4.89374164981E-01 +2.06313623174E-03 +1.62735476085E-03 +2.08411703472E-03 +1.56087285740E-03 -2.26392110821E-01 +5.01346725080E-01
4.52500000000E+09 -2.02890488433E-01 +4.96023713780E-01 +2.08851002756E-03 +1.26479057079E-03 +2.03098282064E-03 +1.15942926119E-03 -2.12520421117E-01 +5.13791778397E-01
4.53000000000E+09 -1.89834908267E-01 +5.04620814100E-01 +2.16898409947E-03 +1.36931092446E-03 +2.13935073974E-03 +1.18469682359E-03 -1.98499547299E-01 +5.25237868994E-01
4.53500000000E+09 -1.74431274974E-01 +5.13537642806E-01 +2.24089715882E-03 +1.07649526441E-03 +2.16641336913E-03 +9.99458007422E-04 -1.84111952005E-01 +5.36987147430E-01
4.54000000000E+09 -1.59246453146E-01 +5.23366353343E-01 +2.65457360814E-03 +1.11209930293E-03 +2.57498836586E-03 +1.06187148773E-03 -1.67930943737E-01 +5.47653010297E-01
4.54500000000E+09 -1.44377019902E-01 +5.34284968231E-01 +3.01698233634E-03 +3.83420733337E-04 +2.89773325854E-03 +3.65854847938E-04 -1.53255948027E-01 +5.57333654513E-01
4.55000000000E+09 -1.31465386490E-01 +5.44663048328E-01 +3.03973123959E-03 +5.60127972012E-05 +2.93086338719E-03 +5.38097696686E-05 -1.38360288405E-01 +5.68246710696E-01
4.55500000000E+09 -1.20136048309E-01 +5.55524084341E-01 +2.96527324696E-03 -6.42929078110E-04 +2.87346766440E-03 -6.50294049955E-04 -1.23618583049E-01 +5.77680659871E-01
4.56000000000E+09 -1.09820678642E-01 +5.64745231761E-01 +2.55071909557E-03 -8.78984741920E-04 +2.42341497260E-03 -8.54399387297E-04 -1.08683114269E-01 +5.86294465521E-01
4.56500000000E+09 -1.00988487715E-01 +5.72540035296E-01 +2.42941484088E-03 -1.15171139890E-03 +2.39015368458E-03 -1.07706789474E-03 -9.46412046550E-02 +5.94558774531E-01
4.57000000000E+09 -9.17648733080E-02 +5.79176979211E-01 +2.33995827343E-03 -1.29265459079E-03 +2.17196578253E-03 -1.25748633607E-03 -7.91464112901E-02 +6.02914885769E-01
