# Hz S RI R 50
! CMT, C1220, 16058040, 17.2.0/1
! Date: 15/08/2018 12:34:20
! Data: Format (Calibration Info)
! Freq                      S11: Re/Im (F2)                       S21: Re/Im (F2)                       S12: Re/Im (F2)                       S22: Re/Im (F2)            
4.00000000000E+09 +6.63027323364E-01 -3.66824642590E-01 -4.37572323722E-04 -4.16216350664E-04 -4.10383092703E-04 -4.30195722878E-04 +7.83429809362E-01 -3.18188306727E-01
4.00500000000E+09 +6.55145569849E-01 -3.73677535072E-01 -3.53127031063E-04 -3.77529589835E-04 -4.11567486273E-04 -4.15257449207E-04 +7.74785510655E-01 -3.30071595119E-01
4.01000000000E+09 +6.46222523729E-01 -3.80261467442E-01 -4.44086306380E-04 -3.90393316459E-04 -4.16181801942E-04 -3.80879218145E-04 +7.65872244847E-01 -3.42006498276E-01
4.01500000000E+09 +6.36692406942E-01 -3.87124853086E-01 -5.35674203615E-04 -1.94100258906E-04 -5.44707610168E-04 -2.65731815916E-04 +7.57100849454E-01 -3.52980236310E-01
4.02000000000E+09 +6.26322925404E-01 -3.95660562645E-01 -4.30209215004E-04 -1.71532943118E-04 -4.79959994206E-04 -2.66847944412E-04 +7.47826058886E-01 -3.63638435570E-01
4.02500000000E+09 +6.15264590212E-01 -4.05279143104E-01 -4.19499909983E-04 -2.07286509368E-04 -4.71538835434E-04 -2.54989297592E-04 +7.38004119080E-01 -3.73442619654E-01
4.03000000000E+09 +6.03285049605E-01 -4.15647032256E-01 -5.51956252687E-04 -2.78560295118E-04 -6.26406747651E-04 -3.32737830057E-04 +7.28129253376E-01 -3.83817048359E-01
4.03500000000E+09 +5.91654982697E-01 -4.25860325919E-01 -6.13617726208E-04 -2.03409359508E-04 -6.35808235212E-04 -1.81539330236E-04 +7.17113425856E-01 -3.94623571084E-01
4.04000000000E+09 +5.80320754217E-01 -4.36449989158E-01 -6.58143214306E-04 -2.75832036559E-05 -7.48499685270E-04 -6.67298857152E-05 +7.06326863457E-01 -4.05788867069E-01
4.04500000000E+09 +5.68652412706E-01 -4.46432762113E-01 -6.40354352821E-04 +1.08363666747E-04 -7.05879290518E-04 +1.33305244727E-04 +6.95662375567E-01 -4.16979936231E-01
4.05000000000E+09 +5.57075255137E-01 -4.54385775191E-01 -5.14605656250E-04 +1.96231929057E-04 -5.66865790355E-04 +2.05356272064E-04 +6.84648361253E-01 -4.27843154520E-01
4.05500000000E+09 +5.45289649201E-01 -4.61320766227E-01 -3.99649538145E-04 +1.63219455301E-04 -4.68999612444E-04 +1.52280788342E-04 +6.73302755772E-01 -4.37307725854E-01
4.06000000000E+09 +5.32441333942E-01 -4.66648326625E-01 -5.01792598759E-04 +3.70838921567E-05 -5.07067794394E-04 +9.37862327609E-05 +6.61924100668E-01 -4.46635140403E-01
4.06500000000E+09 +5.19703403445E-01 -4.70776167178E-01 -5.47096546296E-04 +8.65323043784E-05 -5.62074471472E-04 +1.12117533996E-04 +6.49233196661E-01 -4.55767961454E-01
4.07000000000E+09 +5.05768183088E-01 -4.75953333379E-01 -6.04608172099E-04 +2.32408509651E-04 -6.02735721825E-04 +1.84703965532E-04 +6.36204841720E-01 -4.65670482235E-01
4.07500000000E+09 +4.90538191685E-01 -4.80801944285E-01 -5.50083761683E-04 +2.84491449622E-04 -6.30334195717E-04 +2.45510735831E-04 +6.22242492191E-01 -4.76070718256E-01
4.08000000000E+09 +4.74331395349E-01 -4.86825223711E-01 -6.03840133291E-04 +3.78191721884E-04 -6.07969115678E-04 +3.64518729779E-04 +6.08599457265E-01 -4.85642063069E-01
4.08500000000E+09 +4.57031037800E-01 -4.92973223647E-01 -6.03259382399E-04 +5.10920325542E-04 -6.35757543695E-04 +5.08600210448E-04 +5.95400854794E-01 -4.95136106278E-01
4.09000000000E+09 +4.40166317644E-01 -4.99501311968E-01 -4.06970708072E-04 +6.06033838403E-04 -4.26860089832E-04 +5.85108356756E-04 +5.81522053068E-01 -5.03900010800E-01
4.09500000000E+09 +4.23580450644E-01 -5.06230667613E-01 -4.13431967510E-04 +3.31390867292E-04 -3.97455690605E-04 +3.85974627937E-04 +5.67114569802E-01 -5.11710612570E-01
4.10000000000E+09 +4.06301970558E-01 -5.12195684647E-01 -5.26985357309E-04 +5.56791397773E-04 -5.98317807547E-04 +5.40697983042E-04 +5.51830707072E-01 -5.19616724077E-01
4.10500000000E+09 +3.90142947541E-01 -5.16365755493E-01 -5.17296175714E-04 +7.32361346841E-04 -5.37852187905E-04 +7.44293085251E-04 +5.35762832455E-01 -5.27204430928E-01
4.11000000000E+09 +3.74205273706E-01 -5.19463486382E-01 -2.40170812110E-04 +8.55264508098E-04 -3.55709155898E-04 +8.56252651958E-04 +5.19421746068E-01 -5.35041527688E-01
4.11500000000E+09 +3.57580512634E-01 -5.21294427865E-01 -2.07989539687E-04 +9.83377866347E-04 -2.19186957214E-04 +9.46638290956E-04 +5.03084803992E-01 -5.42676677942E-01
4.12000000000E+09 +3.40885863226E-01 -5.21664370222E-01 -2.52229307692E-05 +9.02512786436E-04 -4.28942073090E-05 +8.85195486712E-04 +4.87112016096E-01 -5.49797901469E-01
4.12500000000E+09 +3.23706897872E-01 -5.21711794610E-01 +5.19051094285E-05 +9.34547336179E-04 +4.08566612519E-05 +9.52372868992E-04 +4.70611634041E-01 -5.56327183221E-01
4.13000000000E+09 +3.05224616410E-01 -5.23003955609E-01 +3.01996652054E-04 +6.99531295168E-04 +2.79091606498E-04 +6.94221752569E-04 +4.53616535729E-01 -5.62492595175E-01
4.13500000000E+09 +2.85123746575E-01 -5.24177359198E-01 +2.40744642988E-05 +6.75366250523E-04 -3.73250957859E-05 +6.63259209485E-04 +4.35357951073E-01 -5.68189181049E-01
4.14000000000E+09 +2.65146934432E-01 -5.25780745678E-01 +1.45078256452E-05 +8.44443398612E-04 -1.14172350794E-05 +8.85988667077E-04 +4.16531537059E-01 -5.73917271241E-01
4.14500000000E+09 +2.45109525065E-01 -5.29254261497E-01 +5.21427370064E-05 +9.76307485017E-04 +1.33875795879E-05 +9.92526577352E-04 +3.97542491336E-01 -5.79195738646E-01
4.15000000000E+09 +2.24608012238E-01 -5.32306729617E-01 +2.78778009890E-04 +1.37768953294E-03 +3.04503424038E-04 +1.36372916368E-03 +3.79769146985E-01 -5.84277347631E-01
4.15500000000E+09 +2.05582239573E-01 -5.34822027892E-01 +9.46631575489E-04 +1.32532834332E-03 +9.45196461424E-04 +1.34349910516E-03 +3.61196528080E-01 -5.88794413187E-01
4.16000000000E+09 +1.87696807418E-01 -5.37100432765E-01 +1.29368754107E-03 +8.66372193306E-04 +1.31449842497E-03 +8.31718902308E-04 +3.43124561066E-01 -5.91506062553E-01
4.16500000000E+09 +1.69522407138E-01 -5.37073288995E-01 +1.13746894444E-03 +2.58812097023E-04 +1.11853997293E-03 +2.84433334071E-04 +3.24011609394E-01 -5.94812692492E-01
4.17000000000E+09 +1.52579141003E-01 -5.34076471093E-01 +8.16580475845E-04 +4.06225880823E-04 +8.02799138883E-04 +4.47462903220E-04 +3.03857348173E-01 -5.96943922533E-01
4.17500000000E+09 +1.37126743237E-01 -5.29149821766E-01 +1.00810212369E-03 +4.58448693927E-04 +9.84026752276E-04 +4.68322433270E-04 +2.82684387910E-01 -5.98751105536E-01
4.18000000000E+09 +1.21337373018E-01 -5.24157543102E-01 +1.01223289794E-03 +1.07303736693E-04 +1.10160525697E-03 +1.57482142902E-04 +2.61948398892E-01 -6.00455821964E-01
4.18500000000E+09 +1.03915726044E-01 -5.18409371441E-01 +7.42169992415E-04 +3.32040942361E-04 +7.05414212963E-04 +3.68537291646E-04 +2.40892446548E-01 -6.01470017700E-01
4.19000000000E+09 +8.54272843128E-02 -5.12196172972E-01 +1.27824336267E-03 +4.78878678659E-04 +1.32155398845E-03 +5.01496937073E-04 +2.20473074639E-01 -6.01340415132E-01
4.19500000000E+09 +6.55565763564E-02 -5.06401484518E-01 +1.44005298994E-03 -5.89318255531E-05 +1.47791309807E-03 -5.26896450057E-05 +1.99750755747E-01 -6.00020722421E-01
4.20000000000E+09 +4.51214311724E-02 -4.99939172822E-01 +1.30149005774E-03 -2.30020701645E-04 +1.35997822107E-03 -2.02802482631E-04 +1.79217563507E-01 -5.98293349146E-01
4.20500000000E+09 +2.54685324635E-02 -4.94100116795E-01 +1.49704976201E-03 -5.03022129758E-04 +1.56332402893E-03 -4.14209434029E-04 +1.56824524229E-01 -5.96327681617E-01
4.21000000000E+09 +6.91657547042E-03 -4.88143439631E-01 +1.24861558490E-03 -9.31388061610E-04 +1.31539208876E-03 -9.01970264084E-04 +1.34208483641E-01 -5.93580830318E-01
4.21500000000E+09 -1.02816698750E-02 -4.82091227957E-01 +7.73971701736E-04 -8.47152036226E-04 +8.06045769966E-04 -8.51767927328E-04 +1.12443167905E-01 -5.91015755610E-01
4.22000000000E+09 -2.65051611489E-02 -4.75073492259E-01 +7.69058828752E-04 -6.67636044679E-04 +7.56466880690E-04 -6.81493835198E-04 +9.06689886174E-02 -5.88195152477E-01
4.22500000000E+09 -4.13528247026E-02 -4.65928772603E-01 +1.14232076882E-03 -6.95382807622E-04 +1.25797342149E-03 -6.38972742998E-04 +6.89396799567E-02 -5.83699245573E-01
4.23000000000E+09 -5.52662239102E-02 -4.56051049174E-01 +9.64696961700E-04 -1.49545243544E-03 +1.03512940358E-03 -1.46504700777E-03 +4.78894769133E-02 -5.78022499769E-01
4.23500000000E+09 -7.03698513718E-02 -4.43887231445E-01 +2.45556823137E-04 -1.25667139021E-03 +3.68137506850E-04 -1.29087863374E-03 +2.58825333323E-02 -5.71179639336E-01
4.24000000000E+09 -8.58418605516E-02 -4.29538121187E-01 +5.06329989281E-04 -8.44529940979E-04 +5.71842442423E-04 -9.19529172736E-04 +3.81446943516E-03 -5.63057246458E-01
4.24500000000E+09 -1.01513875877E-01 -4.15707494812E-01 +6.30719171415E-04 -1.33302402828E-03 +6.52381035687E-04 -1.36008527855E-03 -1.88900624076E-02 -5.55056424631E-01
4.25000000000E+09 -1.20010153790E-01 -4.01667242058E-01 +1.20212546678E-04 -1.70464599871E-03 +1.62538495317E-04 -1.79035690424E-03 -4.13321170925E-02 -5.45777096500E-01
4.25500000000E+09 -1.39039724714E-01 -3.88020424156E-01 -2.89331788231E-04 -1.09885162497E-03 -2.78314692191E-04 -1.18639378162E-03 -6.21099888233E-02 -5.35983242466E-01
4.26000000000E+09 -1.58264416016E-01 -3.75189636264E-01 +1.57084709978E-04 -1.18012945597E-03 +1.84507643420E-04 -1.27433067849E-03 -8.27150351892E-02 -5.25304303245E-01
4.26500000000E+09 -1.77426567300E-01 -3.63150717771E-01 -2.25269659502E-05 -1.65634921110E-03 -3.39906666486E-05 -1.75247896709E-03 -1.02415792649E-01 -5.13932476707E-01
4.27000000000E+09 -1.94451641275E-01 -3.50968177726E-01 -6.89397179776E-04 -1.64570895456E-03 -7.53664695172E-04 -1.68685386482E-03 -1.23934771120E-01 -5.01693545982E-01
4.27500000000E+09 -2.09240730131E-01 -3.39328934747E-01 -7.72746739219E-04 -1.48715681537E-03 -8.36722219132E-04 -1.55251578011E-03 -1.45392316333E-01 -4.86888971754E-01
4.28000000000E+09 -2.21860510324E-01 -3.26697297836E-01 -1.34749568007E-03 -1.31621426390E-03 -1.41179405865E-03 -1.34406067193E-03 -1.65734048701E-01 -4.72226886459E-01
4.28500000000E+09 -2.32689636765E-01 -3.13020792279E-01 -1.33530305954E-03 -6.81405998713E-04 -1.42155247457E-03 -7.23426997322E-04 -1.85635856812E-01 -4.58002300946E-01
4.29000000000E+09 -2.42116232633E-01 -2.96898920522E-01 -1.37076976898E-03 -5.25849008480E-04 -1.39218490844E-03 -5.33879713835E-04 -2.05021643279E-01 -4.43017820423E-01
4.29500000000E+09 -2.50673637488E-01 -2.79862830312E-01 -1.04541148632E-03 -3.10928155133E-04 -1.17869181011E-03 -2.25704668016E-04 -2.23049728011E-01 -4.27284799507E-01
4.30000000000E+09 -2.60623014920E-01 -2.61557872183E-01 -1.07478032652E-03 -4.28765520507E-04 -1.11448250909E-03 -3.32692190498E-04 -2.40536102997E-01 -4.10681685274E-01
4.30500000000E+09 -2.72147564486E-01 -2.41454581825E-01 -1.41304815510E-03 -4.82869732728E-04 -1.40210937626E-03 -3.92160754077E-04 -2.57932975011E-01 -3.92286263255E-01
4.31000000000E+09 -2.83664889921E-01 -2.20618474283E-01 -1.51766833078E-03 +1.34190660340E-04 -1.51670759977E-03 +2.32038025238E-04 -2.74358060140E-01 -3.73556193091E-01
4.31500000000E+09 -2.96329627627E-01 -2.01040441039E-01 -1.38492925146E-03 +1.81327804916E-04 -1.34852255036E-03 +1.85456461952E-04 -2.90836407830E-01 -3.53914326176E-01
4.32000000000E+09 -3.08301852737E-01 -1.82321739992E-01 -1.33226340819E-03 +7.13719306585E-04 -1.36802446419E-03 +8.22590372038E-04 -3.05968710702E-01 -3.34134149732E-01
4.32500000000E+09 -3.19803142860E-01 -1.65171277526E-01 -7.13685327398E-04 +6.08724902657E-04 -6.74632729519E-04 +5.86215157808E-04 -3.21316659426E-01 -3.13816751119E-01
4.33000000000E+09 -3.28815347050E-01 -1.48724640636E-01 -9.71448336153E-04 +5.58567312850E-04 -9.33486051673E-04 +6.08773278551E-04 -3.34443245524E-01 -2.91527103395E-01
4.33500000000E+09 -3.35712719879E-01 -1.34292067753E-01 -7.11126976777E-04 +9.34404746849E-04 -6.56252120982E-04 +8.67251067959E-04 -3.47122054798E-01 -2.69574973771E-01
4.34000000000E+09 -3.41263040522E-01 -1.18582966054E-01 -3.42708621847E-04 +8.42195364315E-04 -2.88499450608E-04 +7.33283414670E-04 -3.59199755781E-01 -2.45667451925E-01
4.34500000000E+09 -3.43322710704E-01 -1.01431291013E-01 -4.74357996074E-04 +3.41904838521E-04 -4.95079286072E-04 +2.71859696517E-04 -3.70029050798E-01 -2.22513116248E-01
4.35000000000E+09 -3.44780183692E-01 -8.33844075821E-02 -5.57150836844E-04 +8.98872422398E-04 -5.98692938515E-04 +8.32447887586E-04 -3.81525563210E-01 -1.98996436883E-01
4.35500000000E+09 -3.45491718608E-01 -6.30038391297E-02 -3.12027383874E-04 +7.80507027992E-04 -2.77206031369E-04 +7.15986347007E-04 -3.90871457084E-01 -1.74790562077E-01
4.36000000000E+09 -3.46483774637E-01 -4.08162001426E-02 -2.41800393030E-04 +6.72256896867E-04 -2.68771970951E-04 +6.26385591724E-04 -3.98271892975E-01 -1.51727390211E-01
4.36500000000E+09 -3.48732736723E-01 -1.82274607621E-02 -8.99555331099E-05 +9.90686879443E-04 -1.50634214776E-04 +9.42633014830E-04 -4.05634412876E-01 -1.28699669882E-01
4.37000000000E+09 -3.51991467292E-01 +4.60923976215E-03 +3.94156421923E-04 +7.17063664102E-04 +3.15254521049E-04 +6.83819611579E-04 -4.11355233701E-01 -1.04259057499E-01
4.37500000000E+09 -3.56806768398E-01 +2.61587592997E-02 +4.28555420961E-04 +5.77965779903E-05 +4.12331902715E-04 +9.78604459060E-05 -4.16333656097E-01 -7.93850357745E-02
4.38000000000E+09 -3.62013964746E-01 +4.67632328054E-02 -2.55415970439E-04 -1.17516727145E-04 -4.08200119685E-04 -5.54844426147E-05 -4.20438147522E-01 -5.50202094553E-02
4.38500000000E+09 -3.65719910137E-01 +6.48530221448E-02 -6.44429099384E-04 +5.78668671654E-04 -6.78335012680E-04 +6.42774864384E-04 -4.24285541721E-01 -2.99647790533E-02
4.39000000000E+09 -3.68811670792E-01 +8.05440220058E-02 +2.51057874066E-05 +8.64201169727E-04 +5.08164827623E-05 +9.39109145503E-04 -4.26254549444E-01 -5.44953781137E-03
4.39500000000E+09 -3.69685882835E-01 +9.56163207503E-02 +2.19682588235E-04 +3.79684653078E-04 +2.10856242514E-04 +4.28923640703E-04 -4.27842335574E-01 +1.85890790110E-02
4.40000000000E+09 -3.67538477795E-01 +1.09610657839E-01 +1.72215974747E-04 +6.10316130030E-04 +2.25864306269E-04 +6.87055290174E-04 -4.27612621565E-01 +4.28642678245E-02
4.40500000000E+09 -3.64083243273E-01 +1.24011125227E-01 +2.94824338194E-04 +2.07486376258E-04 +3.67738904175E-04 +2.87537239508E-04 -4.27109720986E-01 +6.68598786110E-02
4.41000000000E+09 -3.58879997726E-01 +1.40079088628E-01 +6.38206966874E-05 +2.30737049431E-04 +1.21231771577E-04 +3.26746959296E-04 -4.25170176711E-01 +9.18799926056E-02
4.41500000000E+09 -3.53220237132E-01 +1.58587626628E-01 +6.31644228717E-05 +2.33696456768E-04 +2.07252956255E-04 +2.83347504798E-04 -4.22980283725E-01 +1.15318711960E-01
4.42000000000E+09 -3.47448331863E-01 +1.79148969387E-01 -6.53059094420E-05 +1.50396231803E-04 +2.13919057629E-06 +1.28043203536E-04 -4.20054860605E-01 +1.40316221225E-01
4.42500000000E+09 -3.42517319975E-01 +2.00606622433E-01 -3.72717812513E-05 +4.25159518602E-04 -5.28611158432E-05 +3.44223965831E-04 -4.14075993668E-01 +1.63206185132E-01
4.43000000000E+09 -3.38739727838E-01 +2.22877268290E-01 -1.79015866098E-04 +4.90219497415E-04 -9.13907873703E-05 +4.46267684377E-04 -4.10001898341E-01 +1.85097450477E-01
4.43500000000E+09 -3.35375541278E-01 +2.43842276709E-01 -3.01023045424E-05 +7.14175802621E-04 +5.03054279750E-05 +6.60997244874E-04 -4.03429820551E-01 +2.08570706292E-01
4.44000000000E+09 -3.32896591931E-01 +2.61847560760E-01 +4.37486773442E-04 +5.77296785828E-04 +4.68073433034E-04 +4.45985945794E-04 -3.96489340535E-01 +2.30064698781E-01
4.44500000000E+09 -3.31692921762E-01 +2.78183788821E-01 +2.34648620298E-04 +2.34306617658E-04 +1.80739280321E-04 +1.93200809734E-04 -3.89290648143E-01 +2.51730183305E-01
4.45000000000E+09 -3.29390913332E-01 +2.92181635485E-01 +1.49303912091E-04 +3.38925793067E-04 +7.28317991928E-05 +3.13729332199E-04 -3.81613275027E-01 +2.72125184582E-01
4.45500000000E+09 -3.25390514438E-01 +3.04764781344E-01 +9.38066284116E-05 +4.71457429355E-04 +2.61179791827E-05 +4.41324163318E-04 -3.73290314661E-01 +2.91842160068E-01
4.46000000000E+09 -3.19160772195E-01 +3.16884422457E-01 +1.32476112930E-04 +4.84833972806E-04 +1.43407588098E-04 +4.93886727789E-04 -3.64887940221E-01 +3.10724842959E-01
4.46500000000E+09 -3.10701581310E-01 +3.28984577765E-01 +3.26782347803E-04 +5.28730915342E-04 +2.83488139116E-04 +5.75594229503E-04 -3.54930238776E-01 +3.30211293437E-01
4.47000000000E+09 -3.00250976988E-01 +3.43009813793E-01 +6.20417030094E-04 +5.43720469031E-04 +5.51979995839E-04 +5.09331784108E-04 -3.43499321751E-01 +3.48669950151E-01
4.47500000000E+09 -2.88052308207E-01 +3.57853496607E-01 +3.24448413248E-04 +2.32916423799E-04 +2.65555084822E-04 +2.29450349347E-04 -3.32723146519E-01 +3.67180704621E-01
4.48000000000E+09 -2.76522249957E-01 +3.74511496320E-01 +5.35018850276E-04 +6.44702303555E-04 +5.45632889104E-04 +6.75345869778E-04 -3.20638654572E-01 +3.85339881355E-01
4.48500000000E+09 -2.64607777435E-01 +3.92235154460E-01 +5.66031716428E-04 +2.64916503724E-04 +6.25555039114E-04 +3.05547081066E-04 -3.09145253177E-01 +4.01928676396E-01
4.49000000000E+09 -2.54745956203E-01 +4.08638273380E-01 +6.13801876343E-04 +3.96157977277E-04 +6.09850767986E-04 +4.00452300053E-04 -2.98031047216E-01 +4.17856133163E-01
4.49500000000E+09 -2.47144708565E-01 +4.25247752661E-01 +6.43823356695E-04 +1.58350687539E-04 +6.94800521706E-04 +1.37606751007E-04 -2.86785735447E-01 +4.33239977531E-01
4.50000000000E+09 -2.40478061234E-01 +4.39237573646E-01 +4.58116335884E-04 +3.69174806036E-04 +5.07967592555E-04 +4.26227796581E-04 -2.74453167963E-01 +4.48957905132E-01
4.50500000000E+09 -2.36040379000E-01 +4.51516692600E-01 +1.03302704149E-03 +4.60915686964E-04 +1.07615719399E-03 +3.95632506435E-04 -2.60914370858E-01 +4.63561227143E-01
4.51000000000E+09 -2.30255656799E-01 +4.62161609734E-01 +9.73136006423E-04 -2.43643026250E-04 +9.98871991192E-04 -2.13138410690E-04 -2.47361071344E-01 +4.77814961983E-01
4.51500000000E+09 -2.23545609788E-01 +4.70528593241E-01 +7.23979056726E-04 -9.66267305304E-05 +7.76118632162E-04 -6.62119671700E-05 -2.33787401692E-01 +4.91743057512E-01
4.52000000000E+09 -2.14756239920E-01 +4.78520048969E-01 +9.69458897694E-04 -2.64624362828E-04 +1.00351251459E-03 -2.46849896750E-04 -2.20489821515E-01 +5.04697537816E-01
4.52500000000E+09 -2.03439022542E-01 +4.85611852089E-01 +6.45102341464E-04 -4.68849272573E-04 +6.98725033516E-04 -5.12674300280E-04 -2.06920680476E-01 +5.16903218729E-01
4.53000000000E+09 -1.90434652170E-01 +4.93866103647E-01 +6.15694159965E-04 -2.17278477899E-04 +6.55382239592E-04 -2.90674722738E-04 -1.92998916885E-01 +5.28088932797E-01
4.53500000000E+09 -1.75406541628E-01 +5.02993175643E-01 +4.89800532255E-04 -2.97424291862E-04 +4.47943836941E-04 -3.65022372667E-04 -1.78676482504E-01 +5.39531165341E-01
4.54000000000E+09 -1.60185069740E-01 +5.12854593414E-01 +8.17051242596E-04 +1.22751106290E-04 +8.17305915223E-04 -2.44857023212E-06 -1.62740913545E-01 +5.49965214174E-01
4.54500000000E+09 -1.45606098848E-01 +5.24301788079E-01 +1.21989830522E-03 -6.11750702547E-04 +1.15540784702E-03 -6.73488876958E-04 -1.48089678200E-01 +5.59583415583E-01
4.55000000000E+09 -1.31967113690E-01 +5.35320245574E-01 +8.88567917729E-04 -8.10943298568E-04 +7.89139543516E-04 -8.66246969734E-04 -1.33246717668E-01 +5.69878538752E-01
4.55500000000E+09 -1.20500390476E-01 +5.46267884947E-01 +6.97628808698E-04 -9.23212558471E-04 +6.38371025431E-04 -9.84322108164E-04 -1.19049519877E-01 +5.79059780688E-01
4.56000000000E+09 -1.10265522987E-01 +5.55996027481E-01 +4.45260713948E-04 -9.71346362465E-04 +3.24332098559E-04 -9.81743180623E-04 -1.04629770533E-01 +5.87497330345E-01
4.56500000000E+09 -1.01511060824E-01 +5.64188363329E-01 +2.99887910332E-04 -1.15556777157E-03 +2.11931153001E-04 -1.06769705656E-03 -9.10889840180E-02 +5.96025566796E-01
4.57000000000E+09 -9.26445794481E-02 +5.71399909731E-01 +2.92702301609E-04 -1.02064237955E-03 +2.34437994765E-04 -9.47804918558E-04 -7.57027731965E-02 +6.04511730243E-01
