# Hz S RI R 50
! CMT, C1220, 16058040, 17.2.0/1
! Date: 15/08/2018 12:31:12
! Data: Format (Calibration Info)
! Freq                      S11: Re/Im (F2)                       S21: Re/Im (F2)                       S12: Re/Im (F2)                       S22: Re/Im (F2)            
4.00000000000E+09 +6.62719377237E-01 -3.58698893856E-01 -4.19925155491E-04 -3.56700904324E-04 -4.47376686433E-04 -3.53542904888E-04 +7.83091379025E-01 -3.18232278055E-01
4.00500000000E+09 +6.55205459999E-01 -3.65651361063E-01 -3.11779159620E-04 -2.34406839161E-04 -2.91754996684E-04 -2.20409930062E-04 +7.74481709039E-01 -3.30034297282E-01
4.01000000000E+09 +6.46310834458E-01 -3.72033511451E-01 -3.61438360130E-04 -2.80738394663E-04 -4.09927967099E-04 -3.00980248414E-04 +7.65464805600E-01 -3.41888271684E-01
4.01500000000E+09 +6.37265387005E-01 -3.78932599283E-01 -3.19709109716E-04 -1.26740571387E-04 -3.41752736809E-04 -1.30276259570E-04 +7.56729417812E-01 -3.52781296975E-01
4.02000000000E+09 +6.26866084857E-01 -3.87413521744E-01 -2.70490177037E-04 -2.56291576630E-04 -2.59733376000E-04 -2.86906440862E-04 +7.47625028482E-01 -3.63331093944E-01
4.02500000000E+09 +6.15984804991E-01 -3.96779012456E-01 -3.39026810954E-04 -2.79763027221E-04 -2.82627400180E-04 -3.07336514956E-04 +7.37924390574E-01 -3.73233169758E-01
4.03000000000E+09 +6.04680548214E-01 -4.07112607375E-01 -4.55858246611E-04 -3.89308645433E-04 -4.61723057184E-04 -3.73962376365E-04 +7.27985870580E-01 -3.83473269703E-01
4.03500000000E+09 +5.93354158154E-01 -4.17618486635E-01 -5.36206124835E-04 -2.39798697552E-04 -5.89179816775E-04 -2.71250156146E-04 +7.17138257015E-01 -3.94284484548E-01
4.04000000000E+09 +5.82431748148E-01 -4.28536312294E-01 -6.96494327451E-04 -1.40904604152E-04 -7.17958046921E-04 -1.11432693397E-04 +7.06431956190E-01 -4.05576031362E-01
4.04500000000E+09 +5.70728622912E-01 -4.38761350089E-01 -6.47275876319E-04 +1.37876407306E-04 -5.95625145396E-04 +1.27306864178E-04 +6.95550299373E-01 -4.16667883810E-01
4.05000000000E+09 +5.59433434220E-01 -4.46431788925E-01 -4.37350584950E-04 +1.56492258616E-04 -5.00459210842E-04 +1.52089037695E-04 +6.84590538801E-01 -4.27257377594E-01
4.05500000000E+09 +5.48451178628E-01 -4.53737458257E-01 -3.71345079167E-04 +1.02177385163E-04 -3.38952413025E-04 +8.79023273572E-05 +6.73378452025E-01 -4.36679216698E-01
4.06000000000E+09 +5.35875879791E-01 -4.59561230310E-01 -3.85697432251E-04 -6.22417663037E-05 -4.41268865836E-04 -4.70633695452E-05 +6.62106668151E-01 -4.45930624930E-01
4.06500000000E+09 +5.23277682744E-01 -4.64074581777E-01 -5.63524454313E-04 -1.85326528010E-05 -5.73509142344E-04 -3.15415334663E-05 +6.49656621396E-01 -4.55191779587E-01
4.07000000000E+09 +5.09217359226E-01 -4.69636625633E-01 -6.48208195262E-04 +6.87084607698E-05 -6.04911605240E-04 +2.49114626913E-05 +6.36559827333E-01 -4.65064477903E-01
4.07500000000E+09 +4.93766748975E-01 -4.74752784518E-01 -7.23927536795E-04 +2.16811892227E-04 -7.66306265096E-04 +1.61835334018E-04 +6.22893508350E-01 -4.75250161247E-01
4.08000000000E+09 +4.77746195133E-01 -4.80544570099E-01 -8.21145329757E-04 +4.75650981835E-04 -8.69984614136E-04 +4.36982862051E-04 +6.09455902832E-01 -4.84907777468E-01
4.08500000000E+09 +4.60843682918E-01 -4.87108043570E-01 -4.88891153800E-04 +7.12137050579E-04 -5.62838331067E-04 +7.41904234208E-04 +5.96257823883E-01 -4.94737512911E-01
4.09000000000E+09 +4.44068075259E-01 -4.94284774693E-01 -3.14611183462E-04 +5.63502167742E-04 -3.52027404025E-04 +6.22553164348E-04 +5.82255761643E-01 -5.03443273025E-01
4.09500000000E+09 +4.27503759894E-01 -5.01676285266E-01 -1.91016292109E-04 +4.96703848531E-04 -1.99227577394E-04 +5.02980843668E-04 +5.67930175908E-01 -5.11063748338E-01
4.10000000000E+09 +4.10104598229E-01 -5.08323848056E-01 -4.05147244557E-04 +4.19981546723E-04 -4.15186957180E-04 +3.89628139423E-04 +5.52898438971E-01 -5.18862001176E-01
4.10500000000E+09 +3.93534754037E-01 -5.12961697545E-01 -4.85019618795E-04 +6.48482178288E-04 -5.34737022735E-04 +6.76770264500E-04 +5.37055954731E-01 -5.26711538332E-01
4.11000000000E+09 +3.77557958913E-01 -5.16520177985E-01 -1.56412158511E-04 +8.37556098654E-04 -2.08517446876E-04 +8.77706793311E-04 +5.20648657428E-01 -5.34526831246E-01
4.11500000000E+09 +3.61425681377E-01 -5.18822019016E-01 -8.03105313235E-05 +7.44438835037E-04 -6.88533393151E-05 +8.18598042414E-04 +5.04538606204E-01 -5.42039446352E-01
4.12000000000E+09 +3.44272234093E-01 -5.19918186788E-01 -2.13187427046E-05 +8.95487343941E-04 -1.02195747971E-05 +9.22991884078E-04 +4.88456259976E-01 -5.49285882650E-01
4.12500000000E+09 +3.27096984619E-01 -5.20268521040E-01 +2.03937807150E-04 +9.26894824619E-04 +2.15974106669E-04 +9.61463101863E-04 +4.72152290044E-01 -5.55586366769E-01
4.13000000000E+09 +3.08803191185E-01 -5.21908498053E-01 +4.13767325238E-04 +5.64452065161E-04 +4.58512733020E-04 +6.09117642588E-04 +4.55477338841E-01 -5.61859442516E-01
4.13500000000E+09 +2.88987243781E-01 -5.23736481741E-01 +2.38005651944E-04 +4.25510012138E-04 +3.10577155081E-04 +5.27328628135E-04 +4.37353651338E-01 -5.67794866691E-01
4.14000000000E+09 +2.69286735651E-01 -5.26571358871E-01 +1.72484377530E-04 +4.68535551185E-04 +1.53898952833E-04 +4.77513964783E-04 +4.18878762805E-01 -5.73533942749E-01
4.14500000000E+09 +2.48584307763E-01 -5.30776320254E-01 -6.05283566085E-05 +6.15297936530E-04 -4.69824564297E-05 +6.04238028590E-04 +4.00037151915E-01 -5.79360657613E-01
4.15000000000E+09 +2.27752769414E-01 -5.34162702082E-01 +1.48666880109E-04 +1.05599010112E-03 +1.30872683697E-04 +1.07861521546E-03 +3.81733401443E-01 -5.84408162194E-01
4.15500000000E+09 +2.08324754051E-01 -5.37139385160E-01 +5.89841470274E-04 +1.07757012357E-03 +5.93008325185E-04 +1.07238376280E-03 +3.63602529921E-01 -5.88894640752E-01
4.16000000000E+09 +1.89917330844E-01 -5.39367571662E-01 +1.04725447282E-03 +7.96924526234E-04 +1.03841918747E-03 +8.43960838261E-04 +3.45470273750E-01 -5.91900290861E-01
4.16500000000E+09 +1.72293480614E-01 -5.39590125339E-01 +1.10411673586E-03 +2.17390824228E-04 +1.08859978863E-03 +1.90605170619E-04 +3.26451359877E-01 -5.95199938422E-01
4.17000000000E+09 +1.55260837471E-01 -5.38045343029E-01 +6.17941766976E-04 +2.85090008272E-04 +5.63028641142E-04 +3.01864843176E-04 +3.06415639630E-01 -5.97638229043E-01
4.17500000000E+09 +1.38921874649E-01 -5.34278314269E-01 +9.88420431685E-04 +2.97772327224E-04 +9.18213342272E-04 +3.24103774266E-04 +2.85130648241E-01 -5.99714498272E-01
4.18000000000E+09 +1.22145974244E-01 -5.30065441011E-01 +8.36574410659E-04 -1.33839560763E-04 +8.30329822206E-04 -7.97712113420E-05 +2.64196645812E-01 -6.01386016867E-01
4.18500000000E+09 +1.03533917450E-01 -5.24507698527E-01 +3.47495773468E-04 +3.68483121085E-04 +2.78425700149E-04 +3.63658280540E-04 +2.43089150794E-01 -6.02270940591E-01
4.19000000000E+09 +8.46650527528E-02 -5.18454785619E-01 +1.10915647025E-03 +6.63986517215E-04 +1.09999675148E-03 +7.79568117761E-04 +2.22727258672E-01 -6.02328474374E-01
4.19500000000E+09 +6.46190641874E-02 -5.13195422009E-01 +1.31428652872E-03 -1.16698859752E-04 +1.40678576798E-03 +3.61735322670E-07 +2.01827716274E-01 -6.00915312953E-01
4.20000000000E+09 +4.34431884556E-02 -5.07558510178E-01 +1.15193557798E-03 -2.30956802987E-04 +1.22320892967E-03 -1.17797440941E-04 +1.81390805406E-01 -5.98925992074E-01
4.20500000000E+09 +2.32602574572E-02 -5.02553724581E-01 +1.41143212603E-03 -4.88209390720E-04 +1.48092332092E-03 -4.96270792524E-04 +1.59282393059E-01 -5.97010507346E-01
4.21000000000E+09 +3.33504224246E-03 -4.97445819610E-01 +9.80151845492E-04 -1.11068503072E-03 +1.11553789795E-03 -1.06571565913E-03 +1.37076432026E-01 -5.94560926284E-01
4.21500000000E+09 -1.47549387705E-02 -4.91592224328E-01 +5.22165877829E-04 -7.56946545183E-04 +6.11733025191E-04 -7.70093414936E-04 +1.15181786113E-01 -5.92176865780E-01
4.22000000000E+09 -3.19993985787E-02 -4.85059313941E-01 +5.19265534188E-04 -8.74711056222E-04 +6.15920287069E-04 -9.42153322100E-04 +9.34743041246E-02 -5.89239018376E-01
4.22500000000E+09 -4.81934751673E-02 -4.76227792298E-01 +5.38386532741E-04 -7.26928155102E-04 +6.48660349275E-04 -7.27157827692E-04 +7.18334707735E-02 -5.84946596257E-01
4.23000000000E+09 -6.31302826527E-02 -4.65973485420E-01 +4.58694744071E-04 -1.08536299356E-03 +5.60225567516E-04 -1.19705704191E-03 +5.08980896323E-02 -5.79487895263E-01
4.23500000000E+09 -7.92950110639E-02 -4.53883262926E-01 -5.53865309414E-05 -1.03105146861E-03 +4.58049669030E-05 -1.13077697958E-03 +2.87500327815E-02 -5.73009222212E-01
4.24000000000E+09 -9.58336421236E-02 -4.39339191641E-01 +3.92905437131E-05 -5.92915626133E-04 +8.90704900554E-05 -6.88109196793E-04 +6.46143969476E-03 -5.64953773531E-01
4.24500000000E+09 -1.12353203063E-01 -4.24947703652E-01 +2.75059234007E-04 -8.96934990844E-04 +2.76285968537E-04 -9.48960014406E-04 -1.60733561783E-02 -5.57069049393E-01
4.25000000000E+09 -1.31649268778E-01 -4.11070169250E-01 -2.12093240828E-05 -1.16343870568E-03 -6.90773756752E-05 -1.27992706646E-03 -3.86401591660E-02 -5.48138937802E-01
4.25500000000E+09 -1.51817591235E-01 -3.97066348513E-01 -3.84298270241E-04 -7.37535985366E-04 -4.51129033203E-04 -8.06419820251E-04 -5.96728032999E-02 -5.38241838197E-01
4.26000000000E+09 -1.72420943959E-01 -3.83693227551E-01 -9.14091463503E-05 -7.56220839968E-04 -1.87518620995E-04 -7.56969526308E-04 -8.04764344322E-02 -5.27655274426E-01
4.26500000000E+09 -1.92160330693E-01 -3.70502192194E-01 -1.99757562736E-04 -9.67035210691E-04 -3.08539040420E-04 -1.01450602109E-03 -1.00572786930E-01 -5.16045142162E-01
4.27000000000E+09 -2.09849975944E-01 -3.57946964531E-01 -6.50670099722E-04 -9.00112018412E-04 -7.70826092055E-04 -8.85292866148E-04 -1.22068697387E-01 -5.03484709772E-01
4.27500000000E+09 -2.25375905627E-01 -3.45236215426E-01 -6.32447167625E-04 -5.64061456625E-04 -7.28420289193E-04 -5.25534252888E-04 -1.43136920141E-01 -4.88336422137E-01
4.28000000000E+09 -2.38265924626E-01 -3.32086681165E-01 -7.85394725357E-04 -5.14163814557E-04 -7.97704247681E-04 -4.07683603026E-04 -1.63139499285E-01 -4.73678107545E-01
4.28500000000E+09 -2.49860765039E-01 -3.17922827194E-01 -5.22720645512E-04 -2.19466524629E-04 -5.26545709558E-04 -1.30492860660E-04 -1.82814948749E-01 -4.59476776504E-01
4.29000000000E+09 -2.60482918978E-01 -3.01283437133E-01 -6.18454721297E-04 -4.09534629265E-04 -5.94546974046E-04 -2.57028917861E-04 -2.01742087861E-01 -4.44792542272E-01
4.29500000000E+09 -2.70063894170E-01 -2.82655116301E-01 -4.77059338104E-04 -1.25907824772E-04 -4.49440929034E-04 -9.10097991866E-05 -2.19842447258E-01 -4.29328556501E-01
4.30000000000E+09 -2.80308138827E-01 -2.62761689220E-01 -4.45978584751E-04 -3.65475011388E-04 -3.68090615709E-04 -3.65822239363E-04 -2.37171442602E-01 -4.12588655293E-01
4.30500000000E+09 -2.91592497375E-01 -2.41733157075E-01 -7.48603212760E-04 -4.64826966495E-04 -6.68451400365E-04 -4.44786462016E-04 -2.54240892280E-01 -3.94521400954E-01
4.31000000000E+09 -3.03876849348E-01 -2.20289286766E-01 -9.23850324310E-04 +1.28120440771E-04 -8.44403743032E-04 +1.31223171069E-04 -2.70372063910E-01 -3.76136251293E-01
4.31500000000E+09 -3.16840236972E-01 -1.99262017824E-01 -6.91659300469E-04 -4.36125527195E-05 -6.17409896778E-04 -5.75617253167E-05 -2.86759386942E-01 -3.57133463111E-01
4.32000000000E+09 -3.29152071180E-01 -1.79841044860E-01 -7.31226344670E-04 +4.56780253653E-04 -6.84062015438E-04 +3.73952328678E-04 -3.02068572014E-01 -3.37772942182E-01
4.32500000000E+09 -3.41069459617E-01 -1.61504738584E-01 -1.80841290417E-05 +1.61392149921E-04 +1.25725874727E-05 +1.06365517871E-04 -3.17688605009E-01 -3.17952165516E-01
4.33000000000E+09 -3.50505447205E-01 -1.44194660580E-01 -6.86884307247E-04 -1.07628195667E-04 -7.11209954717E-04 -1.90534534007E-04 -3.31073213197E-01 -2.95653351448E-01
4.33500000000E+09 -3.57570057378E-01 -1.28376282934E-01 -3.51546838306E-04 +5.35854580722E-04 -3.94200108619E-04 +4.73848124108E-04 -3.43642150441E-01 -2.74268507340E-01
4.34000000000E+09 -3.63254084785E-01 -1.11992957446E-01 -2.27593193473E-04 +1.51148032353E-04 -2.75676134314E-04 +7.54990839697E-05 -3.56589159648E-01 -2.50426423664E-01
4.34500000000E+09 -3.65352208411E-01 -9.36241313468E-02 -5.31725765563E-04 +8.21289626362E-05 -6.20517154568E-04 +9.36771466176E-05 -3.67580075487E-01 -2.26914017683E-01
4.35000000000E+09 -3.66823554785E-01 -7.48054534041E-02 -3.46615356715E-04 +6.34653427028E-04 -4.74129289327E-04 +6.23553950248E-04 -3.78933745251E-01 -2.03401432137E-01
4.35500000000E+09 -3.67121717488E-01 -5.32577098846E-02 -1.40138895045E-05 +3.82321166833E-04 -5.95047661014E-05 +4.16382550971E-04 -3.88395075964E-01 -1.79273119815E-01
4.36000000000E+09 -3.67793741732E-01 -3.07428114978E-02 -1.91180602929E-05 +2.21457552583E-04 -1.34481504501E-04 +2.20307873727E-04 -3.95854456444E-01 -1.56132278152E-01
4.36500000000E+09 -3.69916048560E-01 -7.40564303069E-03 -3.62878568177E-05 +2.92834897815E-04 -1.17434460718E-04 +3.86284967634E-04 -4.02947810795E-01 -1.33082787375E-01
4.37000000000E+09 -3.72789647927E-01 +1.62786099921E-02 +1.27198164679E-04 +2.73499761675E-04 +7.07574002753E-05 +2.83281934594E-04 -4.08751242253E-01 -1.08987161371E-01
4.37500000000E+09 -3.77331638894E-01 +3.87678337227E-02 +4.66483681724E-04 -1.82352935173E-04 +4.53916566594E-04 -1.38396035418E-04 -4.13567162815E-01 -8.42093776189E-02
4.38000000000E+09 -3.81674812237E-01 +6.05049851185E-02 -2.57589450407E-04 -5.53311961836E-04 -2.47075048931E-04 -4.38321429373E-04 -4.17555194940E-01 -6.02950043864E-02
4.38500000000E+09 -3.84451121249E-01 +7.91187610230E-02 -5.22087781566E-04 +3.02350329849E-05 -5.01841686593E-04 +8.00314404380E-05 -4.21572408561E-01 -3.56787344936E-02
4.39000000000E+09 -3.86906513385E-01 +9.57708471927E-02 -1.76125157556E-04 +2.05135137597E-04 -1.16989095000E-04 +2.50008433338E-04 -4.23819508845E-01 -1.14282904511E-02
4.39500000000E+09 -3.86731096472E-01 +1.11311061475E-01 -1.60119443357E-04 -1.14593898225E-04 -5.77726066270E-05 -1.74238962149E-05 -4.25809193043E-01 +1.21532610875E-02
4.40000000000E+09 -3.83884299328E-01 +1.26121288051E-01 -1.73832712668E-04 +4.37409009922E-05 -9.36303133095E-05 +6.91345812806E-05 -4.25662869765E-01 +3.61581941065E-02
4.40500000000E+09 -3.79216144481E-01 +1.41322278316E-01 -3.01278642902E-04 -2.26702345669E-04 -2.32413786092E-04 -2.58427863990E-04 -4.25732987694E-01 +5.95797559457E-02
4.41000000000E+09 -3.72964651548E-01 +1.57875434778E-01 -3.24430655924E-04 -1.05336228613E-04 -2.81184751328E-04 -1.40434466513E-04 -4.24681313422E-01 +8.44449165831E-02
4.41500000000E+09 -3.66077083291E-01 +1.76846846906E-01 -4.63950273207E-04 -3.29979369014E-04 -4.40258797227E-04 -3.98426739739E-04 -4.23060692142E-01 +1.08466697844E-01
4.42000000000E+09 -3.58936499298E-01 +1.97630076844E-01 -1.01508034247E-03 -1.44397428631E-04 -9.72830782471E-04 -2.16532622265E-04 -4.20497018201E-01 +1.33658918275E-01
4.42500000000E+09 -3.53112412053E-01 +2.19343741935E-01 -9.75097972439E-04 +4.00603052262E-04 -9.86407344304E-04 +3.63206247740E-04 -4.14810094567E-01 +1.56623549652E-01
4.43000000000E+09 -3.48124102152E-01 +2.41917732101E-01 -8.47197929230E-04 +5.94398105177E-04 -8.66925844223E-04 +5.19012362142E-04 -4.11051557854E-01 +1.78940918858E-01
4.43500000000E+09 -3.43261046004E-01 +2.63038491484E-01 -7.29877864886E-04 +8.13501261992E-04 -7.94861886682E-04 +7.32048308286E-04 -4.04606893101E-01 +2.02491691814E-01
4.44000000000E+09 -3.39595284391E-01 +2.81008454509E-01 -3.00097884436E-04 +8.82025307295E-04 -3.31384800535E-04 +8.47799432602E-04 -3.97877596788E-01 +2.24224364018E-01
4.44500000000E+09 -3.37230736304E-01 +2.97002847883E-01 -3.78700910586E-04 +5.77242733568E-04 -4.37401463039E-04 +5.52489850843E-04 -3.90644353018E-01 +2.46102050443E-01
4.45000000000E+09 -3.34315191524E-01 +3.11022887004E-01 -5.61510432058E-04 +8.51339117299E-04 -5.60340655662E-04 +8.63293224924E-04 -3.83247614423E-01 +2.67046419148E-01
4.45500000000E+09 -3.29315667193E-01 +3.23970729090E-01 -3.84309340847E-04 +9.99337831820E-04 -4.08509189561E-04 +1.10277329882E-03 -3.74337578294E-01 +2.86787852370E-01
4.46000000000E+09 -3.22019522589E-01 +3.36119790438E-01 -2.07979141841E-04 +1.06158608371E-03 -2.26522320926E-04 +1.15157921461E-03 -3.65991413349E-01 +3.05306179921E-01
4.46500000000E+09 -3.12426070325E-01 +3.48431321814E-01 +4.52704479796E-05 +1.15202152075E-03 +9.42094040933E-05 +1.18333600472E-03 -3.56189697345E-01 +3.24712169168E-01
4.47000000000E+09 -3.00789500152E-01 +3.61917776481E-01 +1.70118789873E-04 +1.24044781694E-03 +2.12710134463E-04 +1.25945713404E-03 -3.45197870802E-01 +3.43071937459E-01
4.47500000000E+09 -2.87784623217E-01 +3.76031881988E-01 +3.20804641302E-04 +1.12467373835E-03 +3.31805874191E-04 +1.13012453454E-03 -3.34689304429E-01 +3.61811135723E-01
4.48000000000E+09 -2.75887048310E-01 +3.92454602761E-01 +6.60081347015E-04 +1.29706279550E-03 +6.69968842161E-04 +1.30742975050E-03 -3.22810152076E-01 +3.79878739393E-01
4.48500000000E+09 -2.63452965253E-01 +4.09736220047E-01 +7.98730416846E-04 +7.71550790664E-04 +8.34406580302E-04 +8.40056175165E-04 -3.11756082942E-01 +3.96611057094E-01
4.49000000000E+09 -2.52735129438E-01 +4.25955654883E-01 +6.85921966365E-04 +8.43526919616E-04 +6.67122835405E-04 +8.75852822517E-04 -3.00730211706E-01 +4.12930330881E-01
4.49500000000E+09 -2.44180895619E-01 +4.41748781440E-01 +8.33837767444E-04 +7.84005374656E-04 +8.46446297170E-04 +7.63230432565E-04 -2.89595651455E-01 +4.28452768369E-01
4.50000000000E+09 -2.36846564543E-01 +4.54636286886E-01 +7.46375327673E-04 +9.42896954240E-04 +7.94600971186E-04 +9.42345626112E-04 -2.77408167560E-01 +4.44303860893E-01
4.50500000000E+09 -2.32106718763E-01 +4.66080351345E-01 +1.38975607557E-03 +9.57067329773E-04 +1.41439791631E-03 +8.80733197705E-04 -2.64095868073E-01 +4.59216590751E-01
4.51000000000E+09 -2.25899354950E-01 +4.76098235532E-01 +1.47973538459E-03 +2.02244856684E-04 +1.51010116582E-03 +1.45047800249E-04 -2.50749252703E-01 +4.73963760617E-01
4.51500000000E+09 -2.18858126325E-01 +4.83693731825E-01 +1.19354618012E-03 +2.76897046465E-04 +1.17826784121E-03 +1.95343036124E-04 -2.37054629980E-01 +4.88362018594E-01
4.52000000000E+09 -2.09191529811E-01 +4.91477854430E-01 +1.43574199233E-03 -5.40183160919E-05 +1.44012898265E-03 -8.33032113220E-05 -2.23728416059E-01 +5.01470057508E-01
4.52500000000E+09 -1.97158124640E-01 +4.97212804505E-01 +1.09184841604E-03 -1.65734976009E-04 +1.10483044628E-03 -2.34158988276E-04 -2.09960347607E-01 +5.13967995352E-01
4.53000000000E+09 -1.84019592842E-01 +5.04588258431E-01 +1.04894224159E-03 +3.12426298772E-05 +9.78074400551E-04 -8.41624019036E-05 -1.95911386055E-01 +5.25372669670E-01
4.53500000000E+09 -1.68673256024E-01 +5.12993872659E-01 +1.15194257911E-03 -1.27277224423E-04 +1.07001285558E-03 -1.57616532680E-04 -1.81188380410E-01 +5.36766838870E-01
4.54000000000E+09 -1.53319692473E-01 +5.22428646404E-01 +1.42410928298E-03 +1.06556073967E-04 +1.35047828936E-03 +2.55922337829E-05 -1.65254097475E-01 +5.47219673690E-01
4.54500000000E+09 -1.38505471958E-01 +5.33113298209E-01 +1.73247565509E-03 -6.39376973432E-04 +1.65750000547E-03 -6.13226846275E-04 -1.50433116581E-01 +5.56917381818E-01
4.55000000000E+09 -1.24772455809E-01 +5.43482292976E-01 +1.40614778932E-03 -8.53539848638E-04 +1.41475141331E-03 -8.32653656780E-04 -1.35668708051E-01 +5.67139780926E-01
4.55500000000E+09 -1.13175283161E-01 +5.53680121582E-01 +1.21536280623E-03 -1.15839320983E-03 +1.15810377173E-03 -1.15797086086E-03 -1.21447737422E-01 +5.76439194585E-01
4.56000000000E+09 -1.02942341088E-01 +5.62703258035E-01 +8.96938112442E-04 -1.10549740268E-03 +8.38781381083E-04 -1.11300164719E-03 -1.07045757348E-01 +5.84997694566E-01
4.56500000000E+09 -9.43447596587E-02 +5.70259001204E-01 +8.58095962381E-04 -1.26568435492E-03 +7.95650988977E-04 -1.20893170122E-03 -9.34219396826E-02 +5.93578125170E-01
4.57000000000E+09 -8.53592460328E-02 +5.76905732514E-01 +8.35547039556E-04 -1.29958216604E-03 +7.49777667598E-04 -1.27663100156E-03 -7.75579009460E-02 +6.02208386498E-01
