# Hz S RI R 50
! CMT, C1220, 16058040, 17.2.0/1
! Date: 15/08/2018 12:27:57
! Data: Format (Calibration Info)
! Freq                      S11: Re/Im (F2)                       S21: Re/Im (F2)                       S12: Re/Im (F2)                       S22: Re/Im (F2)            
4.00000000000E+09 +6.63402046184E-01 -3.59341547743E-01 -1.21854344615E-04 -4.56120882544E-04 -1.19305687621E-04 -4.04759029041E-04 +7.82676575363E-01 -3.16425961414E-01
4.00500000000E+09 +6.55602693363E-01 -3.66385479436E-01 -3.13922718115E-05 -4.50388115789E-04 -2.73081614410E-05 -4.14914142765E-04 +7.74273976469E-01 -3.28027235786E-01
4.01000000000E+09 +6.46627706433E-01 -3.72805362523E-01 -1.90909258008E-04 -4.95434984023E-04 -1.97925655845E-04 -5.04413603906E-04 +7.65513983332E-01 -3.39916212524E-01
4.01500000000E+09 +6.37237486772E-01 -3.79591409123E-01 -2.26154091854E-04 -3.75053693848E-04 -2.02985135000E-04 -3.97955488418E-04 +7.56866754015E-01 -3.50846524138E-01
4.02000000000E+09 +6.26854423619E-01 -3.87544322421E-01 -2.19780352901E-04 -5.31065941109E-04 -1.74410163422E-04 -5.02140283056E-04 +7.47839436876E-01 -3.61462297731E-01
4.02500000000E+09 +6.16153782252E-01 -3.96626134815E-01 -3.67596631276E-04 -4.70600137728E-04 -3.30135000804E-04 -4.81255720469E-04 +7.38260606785E-01 -3.71438219130E-01
4.03000000000E+09 +6.04914261378E-01 -4.06785616044E-01 -4.90168646701E-04 -4.63759277209E-04 -4.16798919883E-04 -4.57729622642E-04 +7.28498038626E-01 -3.81696335312E-01
4.03500000000E+09 +5.93781556427E-01 -4.17025683122E-01 -4.49117279749E-04 -3.93131945570E-04 -4.14173174992E-04 -4.32892499462E-04 +7.17479116790E-01 -3.92570892467E-01
4.04000000000E+09 +5.82866348756E-01 -4.27736665560E-01 -6.57938013079E-04 -3.68855205798E-04 -6.34184032648E-04 -4.13168411426E-04 +7.06724836592E-01 -4.03628998177E-01
4.04500000000E+09 +5.70801331366E-01 -4.37530358057E-01 -5.65520318959E-04 -1.22310805699E-04 -5.78533863457E-04 -1.83491151610E-04 +6.96255383017E-01 -4.14531694526E-01
4.05000000000E+09 +5.59496552223E-01 -4.45023229350E-01 -5.54479725322E-04 -1.91181523656E-04 -5.58938630557E-04 -2.51256246732E-04 +6.85462096822E-01 -4.25051083195E-01
4.05500000000E+09 +5.47956638530E-01 -4.51979243247E-01 -6.56972996138E-04 -1.77283047693E-04 -6.60004764345E-04 -2.27695690806E-04 +6.74389514752E-01 -4.34524130389E-01
4.06000000000E+09 +5.35283335846E-01 -4.57119329813E-01 -6.93311456820E-04 -1.19237636180E-04 -7.49867311811E-04 -1.53753815352E-04 +6.63613961351E-01 -4.43617334689E-01
4.06500000000E+09 +5.22603044402E-01 -4.61211156376E-01 -7.92225883607E-04 -7.76272110673E-05 -7.92920600589E-04 -4.45214518366E-05 +6.51446124143E-01 -4.53165430517E-01
4.07000000000E+09 +5.08732872417E-01 -4.66294128529E-01 -8.20639978865E-04 +6.88062670347E-05 -8.60756811732E-04 +3.96820165131E-05 +6.38586055547E-01 -4.63132161303E-01
4.07500000000E+09 +4.93742475514E-01 -4.71106965579E-01 -8.24806241940E-04 +2.27760676821E-04 -9.25389611496E-04 +2.17480240923E-04 +6.25046998675E-01 -4.73549196582E-01
4.08000000000E+09 +4.77787654861E-01 -4.76974367981E-01 -7.92466246434E-04 +4.48661369806E-04 -8.87307697467E-04 +4.08335622984E-04 +6.11647204933E-01 -4.83419845056E-01
4.08500000000E+09 +4.60961106697E-01 -4.83330818311E-01 -6.03950499306E-04 +6.46903061366E-04 -6.98371008262E-04 +6.45804439864E-04 +5.98714284032E-01 -4.93360532648E-01
4.09000000000E+09 +4.44235655348E-01 -4.90400179098E-01 -4.73973246224E-04 +5.51822431794E-04 -5.68018842287E-04 +5.62524513684E-04 +5.84902244897E-01 -5.02211945074E-01
4.09500000000E+09 +4.27312145935E-01 -4.97462786553E-01 -3.70276323336E-04 +4.43214852703E-04 -4.14142178285E-04 +3.99072486674E-04 +5.70782923636E-01 -5.10305362432E-01
4.10000000000E+09 +4.09996762708E-01 -5.03362738891E-01 -6.34540752486E-04 +4.68302097428E-04 -6.36980606612E-04 +4.47380629761E-04 +5.55947372807E-01 -5.18408066945E-01
4.10500000000E+09 +3.93800409305E-01 -5.07670584684E-01 -6.98909715927E-04 +8.56451519832E-04 -7.27797311915E-04 +8.88347530894E-04 +5.39978720603E-01 -5.26473466720E-01
4.11000000000E+09 +3.78039908389E-01 -5.11145786205E-01 -2.61038660182E-04 +1.06326997573E-03 -3.11008530913E-04 +1.09458289158E-03 +5.23473594660E-01 -5.34670688410E-01
4.11500000000E+09 +3.61895443153E-01 -5.13276561625E-01 +1.64132853074E-05 +1.04393743523E-03 -1.53701644677E-05 +1.04601096069E-03 +5.07231848386E-01 -5.42384604387E-01
4.12000000000E+09 +3.45010076408E-01 -5.14369181893E-01 +1.36987952812E-04 +8.69881284199E-04 +1.29167713508E-04 +8.96031564757E-04 +4.91041426795E-01 -5.49850902966E-01
4.12500000000E+09 +3.27842315205E-01 -5.14500946603E-01 +2.46792932414E-04 +7.55001019213E-04 +2.48517023851E-04 +8.17239393856E-04 +4.74354492886E-01 -5.56206998251E-01
4.13000000000E+09 +3.09778325175E-01 -5.16203494093E-01 +3.02488949322E-04 +4.20780339159E-04 +2.98707877580E-04 +5.03634365278E-04 +4.57684895238E-01 -5.62561677118E-01
4.13500000000E+09 +2.90074273545E-01 -5.17830645552E-01 -1.31836979159E-05 +4.45971774644E-04 +3.17852867124E-05 +4.54607676170E-04 +4.39513168232E-01 -5.68424648275E-01
4.14000000000E+09 +2.70467953345E-01 -5.20405837231E-01 -4.20469112451E-06 +6.68723072895E-04 -3.79676599555E-05 +6.97741816058E-04 +4.21053632468E-01 -5.74200489941E-01
4.14500000000E+09 +2.50039798197E-01 -5.24596313825E-01 -3.91953732647E-06 +7.04566334143E-04 +3.86440665102E-05 +7.20525239978E-04 +4.02206921579E-01 -5.79991983946E-01
4.15000000000E+09 +2.29401487553E-01 -5.27724170855E-01 +1.17867295138E-04 +1.14523624334E-03 +1.38221135541E-04 +1.12322057027E-03 +3.84252500287E-01 -5.85317885330E-01
4.15500000000E+09 +2.10258541331E-01 -5.30682987311E-01 +6.09519353600E-04 +1.12757496479E-03 +6.35146079499E-04 +1.13549457731E-03 +3.65837254183E-01 -5.90289847824E-01
4.16000000000E+09 +1.91834732942E-01 -5.32763389355E-01 +1.13481329856E-03 +7.68174552791E-04 +1.11332043692E-03 +7.79528656255E-04 +3.47478762227E-01 -5.93412707989E-01
4.16500000000E+09 +1.74229432411E-01 -5.32849224068E-01 +1.02529847868E-03 +8.62651181852E-05 +1.01736626831E-03 +8.68210800531E-05 +3.28547350700E-01 -5.96811556804E-01
4.17000000000E+09 +1.56977501876E-01 -5.30912117700E-01 +5.40419657375E-04 +2.17211332280E-04 +5.24695100636E-04 +2.09795662502E-04 +3.08387500426E-01 -5.99515499316E-01
4.17500000000E+09 +1.40680314166E-01 -5.26413471238E-01 +6.73023932456E-04 +2.88371524181E-04 +5.82608545187E-04 +3.16839977799E-04 +2.86853880414E-01 -6.01739889063E-01
4.18000000000E+09 +1.24450043441E-01 -5.21668440302E-01 +5.83594080762E-04 +1.34637581763E-04 +5.47318312895E-04 +1.44495161193E-04 +2.65835874701E-01 -6.03560333651E-01
4.18500000000E+09 +1.06731284062E-01 -5.15967775365E-01 +3.93096226069E-04 +5.29506856027E-04 +3.45062229443E-04 +6.15337665328E-04 +2.44532097901E-01 -6.04789279816E-01
4.19000000000E+09 +8.86744398301E-02 -5.09928996350E-01 +1.13441461836E-03 +7.68664605410E-04 +1.09889181479E-03 +7.94817281667E-04 +2.23765665886E-01 -6.04761167779E-01
4.19500000000E+09 +6.89703534602E-02 -5.04943190395E-01 +1.42832801546E-03 +3.88727594357E-05 +1.43864247329E-03 +1.91807861023E-06 +2.02656381137E-01 -6.03691526728E-01
4.20000000000E+09 +4.81855091290E-02 -4.99445289526E-01 +1.15990298589E-03 -1.73777317322E-04 +1.18843333889E-03 -1.27225839543E-04 +1.81572167753E-01 -6.01894431555E-01
4.20500000000E+09 +2.80164538176E-02 -4.94106563226E-01 +1.36440788680E-03 -4.55054917617E-04 +1.39384641927E-03 -3.97797378816E-04 +1.58915560028E-01 -5.99509831953E-01
4.21000000000E+09 +8.60169358752E-03 -4.88510271362E-01 +9.18572165509E-04 -9.68022202885E-04 +1.01250544815E-03 -9.74761838820E-04 +1.36409809394E-01 -5.96866024177E-01
4.21500000000E+09 -9.00036189522E-03 -4.82172899891E-01 +4.88974734112E-04 -7.49655341348E-04 +5.31354041336E-04 -7.69341505289E-04 +1.14262841524E-01 -5.93896392855E-01
4.22000000000E+09 -2.56935833340E-02 -4.75308901447E-01 +5.25850693278E-04 -6.07661158130E-04 +5.34228979194E-04 -5.73293103039E-04 +9.27230620258E-02 -5.90770408694E-01
4.22500000000E+09 -4.11863569569E-02 -4.66199553564E-01 +6.14115718145E-04 -5.20774371164E-04 +7.03518514879E-04 -5.56208431835E-04 +7.10347574647E-02 -5.86042877416E-01
4.23000000000E+09 -5.60248827049E-02 -4.56335938696E-01 +6.15414088419E-04 -9.69320233549E-04 +7.00694506492E-04 -9.69836910492E-04 +5.02913795481E-02 -5.80463039019E-01
4.23500000000E+09 -7.20070440182E-02 -4.43902775879E-01 +1.43783422522E-04 -9.51851450237E-04 +1.87163837694E-04 -1.00235855330E-03 +2.81699537228E-02 -5.73794404764E-01
4.24000000000E+09 -8.81196941549E-02 -4.29897173247E-01 +1.99275585930E-04 -7.15711554981E-04 +2.37413340938E-04 -7.24290852770E-04 +6.09849316931E-03 -5.65673034035E-01
4.24500000000E+09 -1.04998789261E-01 -4.15958007246E-01 +2.04836257533E-04 -9.72285359528E-04 +2.41300870716E-04 -1.00841824534E-03 -1.63916786507E-02 -5.57889086089E-01
4.25000000000E+09 -1.24530593062E-01 -4.01827669566E-01 -8.10698520970E-05 -1.25691154140E-03 -8.86131443835E-05 -1.32332401739E-03 -3.92926515586E-02 -5.48831260675E-01
4.25500000000E+09 -1.44245609165E-01 -3.88011591616E-01 -5.38381874768E-04 -6.55118168710E-04 -5.70327478466E-04 -7.30752223758E-04 -6.00558397087E-02 -5.38755319476E-01
4.26000000000E+09 -1.64494611439E-01 -3.74817499192E-01 -2.10221664241E-04 -5.85705253017E-04 -2.12428236149E-04 -6.21838112408E-04 -8.08413129960E-02 -5.28369038168E-01
4.26500000000E+09 -1.84157697231E-01 -3.62202704498E-01 -3.17538045783E-04 -7.82060869857E-04 -2.97546254637E-04 -8.61916548477E-04 -1.00976063751E-01 -5.16649748305E-01
4.27000000000E+09 -2.01469007385E-01 -3.49702339545E-01 -6.85913758964E-04 -6.16077252881E-04 -7.58735743458E-04 -6.45702999358E-04 -1.22463853574E-01 -5.04071724603E-01
4.27500000000E+09 -2.16867347064E-01 -3.37444395720E-01 -5.51223027702E-04 -3.78429663051E-04 -5.95773554532E-04 -3.50055899517E-04 -1.43794243978E-01 -4.89098485512E-01
4.28000000000E+09 -2.29701192265E-01 -3.24327039736E-01 -7.75042269417E-04 -3.49009014751E-04 -8.89386340021E-04 -3.55901268139E-04 -1.63946744081E-01 -4.74252931276E-01
4.28500000000E+09 -2.41309864886E-01 -3.09928167341E-01 -4.90922627883E-04 +1.13583762404E-04 -5.63976010032E-04 +1.27967831359E-04 -1.83933053497E-01 -4.59932970170E-01
4.29000000000E+09 -2.51176257589E-01 -2.92756013801E-01 -5.33173897709E-04 -2.57829489998E-05 -5.63934517829E-04 -6.69840850202E-05 -2.03146779646E-01 -4.44348048782E-01
4.29500000000E+09 -2.59897296604E-01 -2.74806952668E-01 -3.39038291847E-04 +3.18954838464E-04 -3.97093202171E-04 +3.15243543402E-04 -2.20817523347E-01 -4.28342783124E-01
4.30000000000E+09 -2.69989842721E-01 -2.55696513791E-01 -8.75187964879E-05 +1.62330394156E-04 -9.08939258523E-05 +1.63320727684E-04 -2.38021951622E-01 -4.11474494151E-01
4.30500000000E+09 -2.81423966601E-01 -2.35274342798E-01 -2.01617813687E-04 -1.47007969988E-04 -2.00154908990E-04 -1.42280115536E-04 -2.54585710909E-01 -3.92663292724E-01
4.31000000000E+09 -2.93887166230E-01 -2.14140969506E-01 -2.28067060478E-04 +2.42207180039E-04 -2.28262851999E-04 +2.78069339976E-04 -2.69969661931E-01 -3.74203953339E-01
4.31500000000E+09 -3.06751261714E-01 -1.93360486489E-01 -1.24865607323E-04 +2.74394300041E-05 -1.49747455224E-04 +5.47825852449E-05 -2.85769799031E-01 -3.55322335956E-01
4.32000000000E+09 -3.19045042070E-01 -1.74231015275E-01 -1.36060208674E-04 +3.36612354583E-04 -1.23443620460E-04 +3.77858435189E-04 -3.00539633063E-01 -3.35924816065E-01
4.32500000000E+09 -3.30642124493E-01 -1.56187700569E-01 +4.64298403998E-04 +4.07688576695E-05 +4.57761144826E-04 +9.79795462474E-05 -3.15595251046E-01 -3.16285817213E-01
4.33000000000E+09 -3.39436558103E-01 -1.39145140959E-01 -3.20829557047E-05 -1.89215330247E-04 +1.35418916083E-05 -1.38746503409E-04 -3.28628431100E-01 -2.94483238646E-01
4.33500000000E+09 -3.46296138650E-01 -1.24157947140E-01 +3.54590710573E-04 +3.15884446251E-05 +3.62042766332E-04 +3.20010140172E-05 -3.40989728613E-01 -2.73187277633E-01
4.34000000000E+09 -3.52042401399E-01 -1.08122220054E-01 +2.49607282069E-04 -2.62812407401E-04 +2.72916386232E-04 -3.22533671085E-04 -3.53129778503E-01 -2.49819793592E-01
4.34500000000E+09 -3.53756941946E-01 -9.01342645294E-02 +1.76920075314E-05 -5.54516293058E-04 +5.11505109434E-05 -5.82274464236E-04 -3.63808894459E-01 -2.27196789957E-01
4.35000000000E+09 -3.55206981805E-01 -7.19301604911E-02 -7.64891124564E-05 -1.32109758312E-04 -9.24435254413E-05 -1.50356761656E-04 -3.75115876078E-01 -2.04444789542E-01
4.35500000000E+09 -3.55579764212E-01 -5.09315539131E-02 +8.77738844790E-05 -3.45482309285E-04 +1.13391933067E-04 -3.74422943497E-04 -3.84862489172E-01 -1.80966493466E-01
4.36000000000E+09 -3.56413962238E-01 -2.87759310134E-02 -1.21380964238E-04 -4.49379796890E-04 -7.54107639233E-05 -4.70992539948E-04 -3.92520371093E-01 -1.58062949088E-01
4.36500000000E+09 -3.58569324081E-01 -5.77782049268E-03 -6.88972751627E-05 -3.63965557106E-04 -5.22916044930E-05 -3.88607509260E-04 -4.00389653090E-01 -1.35600755882E-01
4.37000000000E+09 -3.61487688854E-01 +1.71525017185E-02 -1.55980163588E-04 -4.37496686958E-04 -1.37065909793E-04 -5.02848182850E-04 -4.06374720527E-01 -1.11311596768E-01
4.37500000000E+09 -3.66313896926E-01 +3.91406081260E-02 +6.28732682591E-05 -7.04630141970E-04 +3.07504797224E-06 -7.49684892626E-04 -4.11385615464E-01 -8.66712541985E-02
4.38000000000E+09 -3.70785520123E-01 +6.05066860619E-02 -5.36992282231E-04 -9.57339876468E-04 -5.96785984049E-04 -9.94238963794E-04 -4.15617309839E-01 -6.25862598250E-02
4.38500000000E+09 -3.73830205944E-01 +7.85715212518E-02 -9.42549465167E-04 -3.85512561057E-04 -9.50472261546E-04 -3.70501583227E-04 -4.19170981147E-01 -3.78507220344E-02
4.39000000000E+09 -3.76787702507E-01 +9.46329859483E-02 -4.33685710331E-04 -1.87757225889E-04 -4.94785404120E-04 -1.20750812104E-04 -4.21079678274E-01 -1.41332705203E-02
4.39500000000E+09 -3.76888539212E-01 +1.10079872787E-01 -6.06284772820E-04 -5.93754976995E-04 -6.91239880434E-04 -5.49945645661E-04 -4.23257457294E-01 +8.88529387168E-03
4.40000000000E+09 -3.74592217239E-01 +1.24595706564E-01 -6.93670141281E-04 -1.89354941409E-04 -7.22931905697E-04 -1.08683628286E-04 -4.23592911377E-01 +3.29344904798E-02
4.40500000000E+09 -3.70114780874E-01 +1.39561428631E-01 -8.12592008271E-04 -4.69341059857E-04 -8.45452869312E-04 -4.29746507592E-04 -4.23451662078E-01 +5.61486934713E-02
4.41000000000E+09 -3.64304803066E-01 +1.55436941350E-01 -9.29312324924E-04 -8.64515035936E-05 -9.51998516072E-04 -4.53157006125E-05 -4.22434528959E-01 +8.06833785816E-02
4.41500000000E+09 -3.58228514400E-01 +1.74267854851E-01 -8.50019897110E-04 -3.00433956912E-04 -8.42046857392E-04 -2.16493077136E-04 -4.20767516116E-01 +1.04147697506E-01
4.42000000000E+09 -3.51758606620E-01 +1.94772423351E-01 -1.31839623940E-03 -2.40104324346E-04 -1.32921260871E-03 -1.36124474663E-04 -4.18399025519E-01 +1.28514313234E-01
4.42500000000E+09 -3.46490848842E-01 +2.16759403476E-01 -1.30362251760E-03 +1.13498279777E-04 -1.27396277253E-03 +1.63663985893E-04 -4.13241260390E-01 +1.51056742976E-01
4.43000000000E+09 -3.41474709621E-01 +2.39255440216E-01 -1.54943224688E-03 +3.07150691062E-04 -1.44201169415E-03 +4.07437517209E-04 -4.10121182731E-01 +1.72840180460E-01
4.43500000000E+09 -3.37109837913E-01 +2.59870290657E-01 -1.44990895856E-03 +8.97152564704E-04 -1.36362887979E-03 +8.64836070890E-04 -4.04381054060E-01 +1.96109560615E-01
4.44000000000E+09 -3.33779980942E-01 +2.77761986728E-01 -1.00234688082E-03 +9.86232099372E-04 -9.48579853935E-04 +1.02624922669E-03 -3.98589026136E-01 +2.17540734002E-01
4.44500000000E+09 -3.31689936830E-01 +2.93529998573E-01 -1.13279440112E-03 +9.50087886290E-04 -1.06371070337E-03 +9.26395457210E-04 -3.92519301201E-01 +2.39711833960E-01
4.45000000000E+09 -3.29297547696E-01 +3.07475313991E-01 -8.95891728600E-04 +1.28892788936E-03 -8.62959394304E-04 +1.28199952449E-03 -3.85761789950E-01 +2.60942864416E-01
4.45500000000E+09 -3.24610439740E-01 +3.20656133140E-01 -8.91563238708E-04 +1.35375602278E-03 -8.33936774203E-04 +1.29337850698E-03 -3.77632492149E-01 +2.81281556555E-01
4.46000000000E+09 -3.17436980001E-01 +3.32758356532E-01 -7.72389310360E-04 +1.51549493961E-03 -7.52932565011E-04 +1.47386763329E-03 -3.69536840675E-01 +3.00666965845E-01
4.46500000000E+09 -3.08500519523E-01 +3.44980209280E-01 -4.88133395699E-04 +1.67695606631E-03 -4.43426392463E-04 +1.59408275913E-03 -3.59797393723E-01 +3.20424451332E-01
4.47000000000E+09 -2.97374130460E-01 +3.58818755217E-01 -2.55165773165E-04 +2.01891793690E-03 -2.18779376440E-04 +1.92899974485E-03 -3.48890866809E-01 +3.39140786747E-01
4.47500000000E+09 -2.84652483519E-01 +3.73006581063E-01 +4.16719044032E-05 +1.98510105794E-03 +3.54362715419E-05 +1.86661517632E-03 -3.38496191489E-01 +3.58265788193E-01
4.48000000000E+09 -2.73215107644E-01 +3.89543465962E-01 +4.74689981005E-04 +2.16886312737E-03 +4.30619686500E-04 +2.12486271547E-03 -3.26799910230E-01 +3.76862155450E-01
4.48500000000E+09 -2.61228938609E-01 +4.06595574823E-01 +8.05406858078E-04 +1.89438681679E-03 +7.64277773070E-04 +1.84182310858E-03 -3.15539782469E-01 +3.93987272823E-01
4.49000000000E+09 -2.51438470307E-01 +4.22843434562E-01 +1.20636710421E-03 +1.87206888232E-03 +1.14923027992E-03 +1.81238030719E-03 -3.04404858102E-01 +4.10444083493E-01
4.49500000000E+09 -2.43265600943E-01 +4.38839746512E-01 +1.43775851828E-03 +1.41514293962E-03 +1.44370619496E-03 +1.42024994344E-03 -2.93060755550E-01 +4.26008449059E-01
4.50000000000E+09 -2.36710000314E-01 +4.52058762782E-01 +1.26785458660E-03 +1.43478492354E-03 +1.26620384740E-03 +1.45292959805E-03 -2.80873054845E-01 +4.41594986923E-01
4.50500000000E+09 -2.31987606500E-01 +4.64210103079E-01 +1.89407141355E-03 +1.29881475851E-03 +1.91400352476E-03 +1.33190573726E-03 -2.67891935956E-01 +4.56662588318E-01
4.51000000000E+09 -2.25579695738E-01 +4.74051906501E-01 +1.94723145356E-03 +6.43517295877E-04 +2.01346937856E-03 +6.42965559588E-04 -2.54772652571E-01 +4.71167594525E-01
4.51500000000E+09 -2.18918955632E-01 +4.81931309406E-01 +1.88967522583E-03 +5.49620702720E-04 +1.92350105813E-03 +5.43405801454E-04 -2.41609278889E-01 +4.85849958543E-01
4.52000000000E+09 -2.09291857545E-01 +4.89517119811E-01 +2.17378148965E-03 +2.01591150825E-04 +2.12478612344E-03 +2.56377451236E-04 -2.28474947878E-01 +4.99461684274E-01
4.52500000000E+09 -1.97850999841E-01 +4.95613830341E-01 +1.88657393189E-03 -1.25128274394E-04 +1.88082756271E-03 -1.42131829347E-04 -2.14741876594E-01 +5.12241260318E-01
4.53000000000E+09 -1.84860630305E-01 +5.03541084349E-01 +1.87046510704E-03 -2.87945954771E-04 +1.89182522113E-03 -3.16378864556E-04 -2.00946842749E-01 +5.23932523266E-01
4.53500000000E+09 -1.69854692416E-01 +5.12280269054E-01 +1.44176702444E-03 -4.21987670979E-04 +1.44814685375E-03 -4.62823089907E-04 -1.86450772786E-01 +5.35960608635E-01
4.54000000000E+09 -1.54619980583E-01 +5.22007119130E-01 +1.83817011213E-03 -1.29742109980E-04 +1.84089603741E-03 -2.01139753962E-04 -1.70563508682E-01 +5.47017975056E-01
4.54500000000E+09 -1.39805134879E-01 +5.32957668795E-01 +2.05618499978E-03 -9.84073949140E-04 +2.00178668261E-03 -1.02886886114E-03 -1.55637944662E-01 +5.57150015855E-01
4.55000000000E+09 -1.26292647214E-01 +5.43287052493E-01 +1.72898165352E-03 -1.03922663145E-03 +1.66176813944E-03 -1.10793272508E-03 -1.40579013805E-01 +5.68019861498E-01
4.55500000000E+09 -1.14780680337E-01 +5.53614588673E-01 +1.50824939351E-03 -1.41215574095E-03 +1.45431184435E-03 -1.46270267629E-03 -1.25950330415E-01 +5.77711098526E-01
4.56000000000E+09 -1.04688294279E-01 +5.62564827020E-01 +1.13343932547E-03 -1.41627670650E-03 +1.12499598988E-03 -1.41541840323E-03 -1.11076976949E-01 +5.86543355878E-01
4.56500000000E+09 -9.62518431983E-02 +5.70251680465E-01 +1.06032908313E-03 -1.55049951160E-03 +1.03676947310E-03 -1.58332883199E-03 -9.68428823761E-02 +5.95288501250E-01
4.57000000000E+09 -8.72140250377E-02 +5.76939548581E-01 +9.34026476741E-04 -1.70278828909E-03 +8.67145340289E-04 -1.71206222806E-03 -8.09277329751E-02 +6.03798134129E-01
