# Hz S RI R 50
! CMT, C1220, 16058040, 17.2.0/1
! Date: 15/08/2018 12:28:30
! Data: Format (Calibration Info)
! Freq                      S11: Re/Im (F2)                       S21: Re/Im (F2)                       S12: Re/Im (F2)                       S22: Re/Im (F2)            
4.00000000000E+09 +6.60010991749E-01 -3.60257430258E-01 -2.35509338825E-04 -1.83742173895E-04 -2.97401698082E-04 -1.80453197655E-04 +7.82539030498E-01 -3.16705169662E-01
4.00500000000E+09 +6.52073011567E-01 -3.66541207868E-01 -9.25188230837E-05 -8.18697577680E-05 -1.23736357629E-04 -1.15052751676E-04 +7.74175426628E-01 -3.28302750058E-01
4.01000000000E+09 +6.43232369852E-01 -3.72635182296E-01 -2.50512765680E-04 -2.36209594241E-04 -2.80168611198E-04 -2.58800592320E-04 +7.65358341170E-01 -3.40101534662E-01
4.01500000000E+09 +6.34069429091E-01 -3.79010821493E-01 -2.72199076740E-04 -3.94370893337E-06 -2.95188955006E-04 +3.89496875252E-05 +7.56751451832E-01 -3.50982705712E-01
4.02000000000E+09 +6.24012243689E-01 -3.87077161774E-01 -7.73635925740E-05 -8.42640625475E-05 -6.14855127769E-05 -2.38733116589E-05 +7.47832151420E-01 -3.61601158671E-01
4.02500000000E+09 +6.13438248334E-01 -3.96408285439E-01 -8.79631924931E-05 -5.93922896211E-05 -9.82827553908E-05 -9.28041275379E-05 +7.38106361628E-01 -3.71653039854E-01
4.03000000000E+09 +6.01344062707E-01 -4.06508082394E-01 -8.99341838175E-05 -1.81734894380E-04 -5.37946391883E-05 -1.44592115516E-04 +7.28303497592E-01 -3.81868892120E-01
4.03500000000E+09 +5.90052204558E-01 -4.16021800163E-01 -1.98708872821E-04 -2.49574055410E-04 -1.86214272793E-04 -2.22240470415E-04 +7.17296813439E-01 -3.92754272111E-01
4.04000000000E+09 +5.79182381096E-01 -4.26306647600E-01 -2.89562623282E-04 -1.42987287154E-04 -2.28508862321E-04 -9.25988641136E-05 +7.06653658031E-01 -4.03784127500E-01
4.04500000000E+09 +5.67294719296E-01 -4.36102110999E-01 -1.93785620630E-04 -8.61596109468E-05 -1.54774343555E-04 -5.92881874527E-05 +6.96150766814E-01 -4.14758049505E-01
4.05000000000E+09 +5.55917736241E-01 -4.43423654707E-01 -2.03860611494E-04 -1.27334507624E-04 -1.93891206955E-04 -7.97822439404E-05 +6.85338596316E-01 -4.25466729926E-01
4.05500000000E+09 +5.44463424098E-01 -4.50299466197E-01 -1.99323095189E-04 -9.31636928486E-05 -1.85713691234E-04 -8.65803047477E-05 +6.74030714296E-01 -4.34982656040E-01
4.06000000000E+09 +5.31627749654E-01 -4.55383063295E-01 -2.81794025491E-04 -1.30758220060E-04 -2.70646123849E-04 -1.39842141781E-04 +6.62941438718E-01 -4.43938852804E-01
4.06500000000E+09 +5.18990855559E-01 -4.59037349379E-01 -3.09384010818E-04 -1.71901831572E-04 -3.25688792317E-04 -1.60415646674E-04 +6.50735202651E-01 -4.53099056653E-01
4.07000000000E+09 +5.05433240132E-01 -4.63907740789E-01 -4.68617476223E-04 -1.35803228645E-04 -4.42109546933E-04 -2.07017995208E-04 +6.37978490593E-01 -4.62985683009E-01
4.07500000000E+09 +4.90434447397E-01 -4.68748664552E-01 -5.45872987128E-04 -2.07702190531E-05 -5.84855348609E-04 -4.12198440169E-05 +6.24649422624E-01 -4.73283207754E-01
4.08000000000E+09 +4.74300321217E-01 -4.74432707249E-01 -5.02835123387E-04 +1.69154544779E-04 -4.90926035837E-04 +1.13778715710E-04 +6.11238862643E-01 -4.83106309418E-01
4.08500000000E+09 +4.57380032492E-01 -4.80212112018E-01 -5.11867535405E-04 +3.09617230811E-04 -6.26487534369E-04 +2.91293808454E-04 +5.98403604383E-01 -4.92737404166E-01
4.09000000000E+09 +4.40924147625E-01 -4.86537174653E-01 -2.75988318100E-04 +3.29461683516E-04 -3.09056020157E-04 +3.23251076267E-04 +5.84995191178E-01 -5.01857590383E-01
4.09500000000E+09 +4.24616953887E-01 -4.93530255800E-01 -2.45284881507E-04 +2.14598619177E-04 -2.56170284931E-04 +1.86422486511E-04 +5.70746694751E-01 -5.09999654367E-01
4.10000000000E+09 +4.07240180944E-01 -4.99477290308E-01 -3.79393170940E-04 +3.35533232696E-04 -4.22884819489E-04 +3.32963926152E-04 +5.55863793053E-01 -5.18148210685E-01
4.10500000000E+09 +3.91086029706E-01 -5.03561916071E-01 -3.00456534353E-04 +4.10311424680E-04 -3.39658104458E-04 +4.55653525186E-04 +5.40022930429E-01 -5.26048146337E-01
4.11000000000E+09 +3.75240372073E-01 -5.06976433861E-01 -1.15641254510E-04 +4.70219976631E-04 -1.73601822958E-04 +5.21968985421E-04 +5.23784690106E-01 -5.34219241189E-01
4.11500000000E+09 +3.58816553129E-01 -5.08450429282E-01 -7.09268557382E-05 +4.24758853854E-04 -1.38420286810E-04 +4.27649272417E-04 +5.07582224573E-01 -5.42182625711E-01
4.12000000000E+09 +3.42349785761E-01 -5.08655385936E-01 -5.48483288054E-05 +4.57161832069E-04 -2.36087306228E-05 +4.82587379763E-04 +4.91366044257E-01 -5.49756130945E-01
4.12500000000E+09 +3.26091178011E-01 -5.08793589905E-01 +4.26695904200E-05 +4.23709788611E-04 +3.15221750453E-05 +5.11269952952E-04 +4.74825073764E-01 -5.56333617669E-01
4.13000000000E+09 +3.08443178510E-01 -5.10660854007E-01 +1.80135803926E-04 +1.71935024945E-04 +2.21333224296E-04 +1.75805075461E-04 +4.57918068775E-01 -5.62824372348E-01
4.13500000000E+09 +2.88754172415E-01 -5.12235250178E-01 -5.66601429802E-05 +1.55808361833E-04 -6.31012932849E-05 +1.92924454002E-04 +4.39508709163E-01 -5.68731422000E-01
4.14000000000E+09 +2.69450362232E-01 -5.14336731051E-01 -9.38771469598E-05 +2.49723732284E-04 -7.25835647973E-05 +2.85951970333E-04 +4.20914560068E-01 -5.74509879427E-01
4.14500000000E+09 +2.49511895008E-01 -5.18298538024E-01 -1.61775325451E-04 +2.20985237723E-04 -1.09120255585E-04 +3.00338974972E-04 +4.01953160478E-01 -5.79850709899E-01
4.15000000000E+09 +2.29328581937E-01 -5.21264887079E-01 -1.56654710303E-04 +4.93796568800E-04 -1.18432573700E-04 +5.31044438110E-04 +3.84235515666E-01 -5.85160422690E-01
4.15500000000E+09 +2.10586077506E-01 -5.24071756677E-01 +7.21098458777E-05 +5.88163088390E-04 +1.28790152763E-04 +5.85719303000E-04 +3.65867142798E-01 -5.90071558832E-01
4.16000000000E+09 +1.92625753047E-01 -5.26282533071E-01 +3.11044153884E-04 +4.38171591643E-04 +3.76102810067E-04 +4.24468849690E-04 +3.47597019469E-01 -5.93240367485E-01
4.16500000000E+09 +1.74739294683E-01 -5.26053017820E-01 +2.51578603679E-04 +1.20746029754E-04 +2.93988250398E-04 +1.22794767878E-04 +3.28726054714E-01 -5.96534622621E-01
4.17000000000E+09 +1.58378858847E-01 -5.23474223787E-01 -3.84964743291E-05 +3.30379745906E-04 -4.28178788057E-05 +3.63006661048E-04 +3.08511253293E-01 -5.99213509992E-01
4.17500000000E+09 +1.43316638684E-01 -5.19095740892E-01 +2.20729371471E-04 +4.42221712779E-04 +2.21795463791E-04 +3.66279379081E-04 +2.87134550863E-01 -6.01449594385E-01
4.18000000000E+09 +1.27556924563E-01 -5.15237687294E-01 +1.58418402901E-04 +1.70780659106E-04 +1.10037213870E-04 +1.91203417738E-04 +2.66348995608E-01 -6.03280058496E-01
4.18500000000E+09 +1.09843501076E-01 -5.09729840158E-01 -1.79740267099E-04 +6.71171482918E-04 -2.15663879748E-04 +6.60903431365E-04 +2.45162696836E-01 -6.04648133241E-01
4.19000000000E+09 +9.18504944901E-02 -5.03721090847E-01 +5.12128313293E-04 +9.34773233800E-04 +4.42016087468E-04 +9.32397678439E-04 +2.24648572985E-01 -6.04881745906E-01
4.19500000000E+09 +7.23174852332E-02 -4.98524858542E-01 +7.05674676923E-04 +3.88421827581E-04 +6.32180704225E-04 +4.40522757132E-04 +2.03445322327E-01 -6.04033072711E-01
4.20000000000E+09 +5.24386344739E-02 -4.92491667894E-01 +5.36000641793E-04 +3.97554773291E-04 +4.93410353434E-04 +4.89044605715E-04 +1.82233085678E-01 -6.02354283046E-01
4.20500000000E+09 +3.35062698332E-02 -4.87167747960E-01 +9.62990411587E-04 +4.16557414946E-04 +9.58854927248E-04 +4.63430900097E-04 +1.59454915624E-01 -6.00372204976E-01
4.21000000000E+09 +1.53736857873E-02 -4.82545622567E-01 +9.35335694203E-04 -5.93994678372E-05 +9.33749908411E-04 -7.15502522125E-05 +1.36676178966E-01 -5.97485447410E-01
4.21500000000E+09 -2.42300609371E-03 -4.77478626245E-01 +6.83597955570E-04 +9.05035759345E-05 +7.22148276906E-04 +9.40351286006E-05 +1.14344698471E-01 -5.94673447332E-01
4.22000000000E+09 -1.92780932400E-02 -4.70638894597E-01 +8.54527323470E-04 +2.87756985362E-08 +8.88129663524E-04 +6.16146730472E-05 +9.25424364901E-02 -5.91514484165E-01
4.22500000000E+09 -3.42517904318E-02 -4.61722376253E-01 +1.19020133306E-03 -2.36254082147E-04 +1.23956368585E-03 -2.61679818883E-04 +7.05918284614E-02 -5.86612330646E-01
4.23000000000E+09 -4.84930754803E-02 -4.52382431611E-01 +6.93328367122E-04 -8.96699706337E-04 +7.55384568761E-04 -8.76458871550E-04 +4.98639140936E-02 -5.80698963623E-01
4.23500000000E+09 -6.41424958423E-02 -4.40673618003E-01 +1.68266046934E-04 -5.43563564898E-04 +1.92617253897E-04 -5.63937423334E-04 +2.77997683758E-02 -5.74008651885E-01
4.24000000000E+09 -7.97925361961E-02 -4.26884130731E-01 +4.41337977315E-04 -3.69749040209E-05 +4.36745728717E-04 -9.55815065464E-05 +5.79621974680E-03 -5.65823055001E-01
4.24500000000E+09 -9.62373579773E-02 -4.14103359103E-01 +8.44759536540E-04 -4.83426600971E-04 +9.12734086120E-04 -5.35244047340E-04 -1.68595089972E-02 -5.57875632328E-01
4.25000000000E+09 -1.15276732126E-01 -4.00678687781E-01 +4.52561833700E-04 -1.07100858175E-03 +4.84579942006E-04 -1.12925003459E-03 -3.93421447580E-02 -5.48567648084E-01
4.25500000000E+09 -1.34917509935E-01 -3.87609432065E-01 +5.48231058999E-05 -5.47525151835E-04 +6.56628970101E-05 -5.78468392543E-04 -6.01055506553E-02 -5.38523270661E-01
4.26000000000E+09 -1.54748289884E-01 -3.75398340087E-01 +4.01324623292E-04 -6.81403364296E-04 +3.91387920023E-04 -7.59298108771E-04 -8.06465385679E-02 -5.27920432502E-01
4.26500000000E+09 -1.75157013505E-01 -3.63535609349E-01 +1.88717916423E-05 -1.13613389237E-03 +6.18141620742E-05 -1.11279958555E-03 -1.00365289060E-01 -5.16478742241E-01
4.27000000000E+09 -1.92418697089E-01 -3.51002466935E-01 -4.63938451666E-04 -6.60064117653E-04 -4.41168949201E-04 -7.28396366822E-04 -1.21594590438E-01 -5.04356939783E-01
4.27500000000E+09 -2.07663003215E-01 -3.39281131066E-01 -1.09841598173E-04 -6.40017817280E-04 -1.55356623206E-04 -5.94144005812E-04 -1.43153788542E-01 -4.89818530430E-01
4.28000000000E+09 -2.20555246810E-01 -3.26645920171E-01 -5.86288669572E-04 -5.76606809060E-04 -5.98095528683E-04 -5.69490460626E-04 -1.63713600892E-01 -4.75126882043E-01
4.28500000000E+09 -2.31751838294E-01 -3.13100897224E-01 -3.42098831549E-04 -5.12936115514E-05 -3.59367198820E-04 -4.56295572654E-05 -1.83939002888E-01 -4.60634045946E-01
4.29000000000E+09 -2.42157591774E-01 -2.97407374728E-01 -1.71966056380E-04 -1.14617300941E-04 -1.50243633276E-04 -1.34580778100E-04 -2.03263763114E-01 -4.45162308174E-01
4.29500000000E+09 -2.51898210602E-01 -2.80229720561E-01 +1.69740625999E-04 -1.52558536828E-04 +1.72044266124E-04 -1.35119810307E-04 -2.21219059932E-01 -4.29043051617E-01
4.30000000000E+09 -2.62756549188E-01 -2.61420761781E-01 +1.79156187993E-04 -5.55371241857E-04 +1.78185204290E-04 -5.70632727625E-04 -2.38235142271E-01 -4.11993417384E-01
4.30500000000E+09 -2.74682674026E-01 -2.41137508327E-01 -3.85232210837E-04 -7.87198038396E-04 -3.81870547634E-04 -8.49969614855E-04 -2.54881535881E-01 -3.93508692477E-01
4.31000000000E+09 -2.86770702225E-01 -2.20656143754E-01 -6.03451504761E-04 -1.90639441872E-04 -6.91271785992E-04 -2.25250365207E-04 -2.70925338344E-01 -3.74952770995E-01
4.31500000000E+09 -3.00266072693E-01 -2.01040630389E-01 -4.54439569682E-04 -3.34696729826E-06 -4.55667893060E-04 +4.90961299629E-05 -2.87013008852E-01 -3.55433592003E-01
4.32000000000E+09 -3.12963880013E-01 -1.82569712900E-01 -1.16638712304E-04 +2.20921414430E-04 -6.72765127633E-05 +2.96753854592E-04 -3.01457591857E-01 -3.35544071818E-01
4.32500000000E+09 -3.25422854400E-01 -1.65369511252E-01 +3.42258560700E-04 -2.55523496121E-04 +3.68562684322E-04 -2.22242774878E-04 -3.16260906123E-01 -3.15897855216E-01
4.33000000000E+09 -3.35334765263E-01 -1.48736043203E-01 -1.21830500084E-04 -5.53185634950E-04 -1.53433875235E-04 -5.95279186883E-04 -3.28910203489E-01 -2.93944757673E-01
4.33500000000E+09 -3.43210158382E-01 -1.33689490632E-01 -1.34445486196E-04 -3.66109107557E-04 -7.25879573115E-05 -3.36531035316E-04 -3.41080261028E-01 -2.72708392265E-01
4.34000000000E+09 -3.49194659673E-01 -1.17292828872E-01 -1.31245009797E-04 -6.18124317554E-04 -1.15051237784E-04 -5.86783447466E-04 -3.52937112831E-01 -2.49586540359E-01
4.34500000000E+09 -3.51937790961E-01 -9.97182727794E-02 -6.95769681781E-04 -7.14732632978E-04 -6.61329307810E-04 -6.64769583963E-04 -3.63890172193E-01 -2.27176834329E-01
4.35000000000E+09 -3.54010911478E-01 -8.11431031908E-02 -7.49791099489E-04 -5.59485298135E-05 -6.92430228482E-04 -4.81453159032E-05 -3.75384010885E-01 -2.04389179453E-01
4.35500000000E+09 -3.55037237668E-01 -6.02716013120E-02 -4.36215966907E-04 +5.62377803857E-06 -4.40933172278E-04 +4.47428486383E-05 -3.85162041024E-01 -1.80825032698E-01
4.36000000000E+09 -3.56478727463E-01 -3.81760541020E-02 -4.26781534721E-04 -8.16936373308E-05 -3.42639538587E-04 -7.26626466043E-05 -3.92764986358E-01 -1.58006401658E-01
4.36500000000E+09 -3.59590793549E-01 -1.54886592728E-02 -2.33277415662E-04 +6.70371646063E-05 -1.87860749323E-04 +2.17608032052E-05 -4.00442424510E-01 -1.35311532606E-01
4.37000000000E+09 -3.63754394104E-01 +7.96236498531E-03 -9.29543854657E-05 -2.02617275451E-04 -7.96900258879E-05 -2.30279523929E-04 -4.06508221255E-01 -1.11173745936E-01
4.37500000000E+09 -3.68921933185E-01 +3.02365293430E-02 -2.26816151129E-04 -6.95175824362E-04 -2.09098227957E-04 -7.62493479314E-04 -4.11514641798E-01 -8.65708640325E-02
4.38000000000E+09 -3.74120393498E-01 +5.15436713868E-02 -1.03818374096E-03 -5.59881371671E-04 -1.07141029743E-03 -6.57490958060E-04 -4.15770225350E-01 -6.27090648567E-02
4.38500000000E+09 -3.77737811653E-01 +7.01181117146E-02 -1.19858254105E-03 +3.25790192701E-04 -1.26821085406E-03 +3.00707586169E-04 -4.19801242656E-01 -3.78566888106E-02
4.39000000000E+09 -3.80732301226E-01 +8.66179635648E-02 -6.14097093079E-04 +5.65435821137E-04 -6.48606498228E-04 +5.71735219511E-04 -4.21712347844E-01 -1.37729219255E-02
4.39500000000E+09 -3.81136970302E-01 +1.02033773311E-01 -4.24392783402E-04 +3.51499690292E-04 -3.82622326116E-04 +3.39818909251E-04 -4.23863604601E-01 +9.73324165855E-03
4.40000000000E+09 -3.79356658077E-01 +1.16474627178E-01 -3.73762175382E-05 +4.24410958720E-04 -6.85570151409E-05 +4.45376147282E-04 -4.23597819657E-01 +3.38181338670E-02
4.40500000000E+09 -3.75824185234E-01 +1.31878897674E-01 -1.02031656272E-04 -1.66335610630E-04 -1.18006055862E-04 -1.49059475412E-04 -4.23382080913E-01 +5.70264825555E-02
4.41000000000E+09 -3.70503555386E-01 +1.48709478815E-01 -3.55834680176E-04 -1.05871008781E-04 -4.34283297318E-04 -8.09298485923E-05 -4.22050038377E-01 +8.14823872983E-02
4.41500000000E+09 -3.64629650940E-01 +1.68163794274E-01 -5.46117310273E-04 -1.90725525388E-04 -5.48075603284E-04 -2.20839448055E-04 -4.20352739305E-01 +1.04407842141E-01
4.42000000000E+09 -3.58449753124E-01 +1.89462868951E-01 -9.47593079760E-04 -3.66306340159E-05 -9.51407877788E-04 +4.58307022878E-05 -4.18213883271E-01 +1.28961776890E-01
4.42500000000E+09 -3.53293275873E-01 +2.11494253134E-01 -8.80437377843E-04 +4.16887900403E-04 -8.85228371564E-04 +4.44815746399E-04 -4.13032261789E-01 +1.51706787146E-01
4.43000000000E+09 -3.48940585762E-01 +2.34165223570E-01 -8.09586152733E-04 +6.43663041415E-04 -7.68801847835E-04 +7.36486854095E-04 -4.09518018590E-01 +1.73450470155E-01
4.43500000000E+09 -3.45211662678E-01 +2.55419102445E-01 -3.27920482294E-04 +7.61993430132E-04 -3.22911076729E-04 +8.27925143476E-04 -4.03611256756E-01 +1.96583898580E-01
4.44000000000E+09 -3.42441531656E-01 +2.73963158133E-01 -2.05597791845E-04 +3.24857181778E-04 -1.12871613547E-04 +3.88405942191E-04 -3.97802580625E-01 +2.17879898831E-01
4.44500000000E+09 -3.40491418577E-01 +2.90646758697E-01 -7.08731974190E-04 +2.78194293968E-04 -6.87601423782E-04 +2.39136604776E-04 -3.91603792504E-01 +2.39986251479E-01
4.45000000000E+09 -3.37678739661E-01 +3.05179384495E-01 -7.33675651258E-04 +5.07281180526E-04 -7.08537704412E-04 +5.15974883842E-04 -3.84542182502E-01 +2.60793446135E-01
4.45500000000E+09 -3.32950906406E-01 +3.18704535836E-01 -9.16178427155E-04 +8.79325259253E-04 -8.22900697676E-04 +8.31458111288E-04 -3.76863727034E-01 +2.80687323239E-01
4.46000000000E+09 -3.25691947814E-01 +3.31053966367E-01 -6.28156274550E-04 +1.07773197597E-03 -5.77853728192E-04 +1.07661117909E-03 -3.69179806156E-01 +3.00199755624E-01
4.46500000000E+09 -3.16962268412E-01 +3.43602628569E-01 -4.91634791657E-04 +1.25724137042E-03 -4.71942167896E-04 +1.21424199938E-03 -3.59564128534E-01 +3.20114187450E-01
4.47000000000E+09 -3.06037927438E-01 +3.58081675762E-01 -7.74815949038E-05 +1.56454370988E-03 -6.00593603279E-05 +1.51963953336E-03 -3.48664470155E-01 +3.39076283267E-01
4.47500000000E+09 -2.93469198978E-01 +3.73413570878E-01 +1.05365976351E-04 +1.42001827415E-03 +9.15127747376E-05 +1.36271197766E-03 -3.38101962213E-01 +3.58334734565E-01
4.48000000000E+09 -2.81703565293E-01 +3.90415983205E-01 +5.27985903248E-04 +1.49480541316E-03 +5.51639719395E-04 +1.43213055797E-03 -3.26116125878E-01 +3.76645737830E-01
4.48500000000E+09 -2.69488053880E-01 +4.08354954870E-01 +5.58664850412E-04 +9.76646732426E-04 +4.90914802746E-04 +9.28729865646E-04 -3.14844799432E-01 +3.93705843584E-01
4.49000000000E+09 -2.59398392516E-01 +4.25006050176E-01 +4.56100283570E-04 +1.22170469075E-03 +4.45720404319E-04 +1.16436413450E-03 -3.03890090936E-01 +4.09951075730E-01
4.49500000000E+09 -2.51142358683E-01 +4.41597831453E-01 +6.46809895623E-04 +1.26386963235E-03 +5.67182179015E-04 +1.21848630116E-03 -2.92759215499E-01 +4.25432388363E-01
4.50000000000E+09 -2.44054680052E-01 +4.55187140482E-01 +8.59037521990E-04 +1.43042675223E-03 +7.80673633271E-04 +1.45652542149E-03 -2.80764624394E-01 +4.41373373420E-01
4.50500000000E+09 -2.39144152331E-01 +4.67435894554E-01 +1.53604402846E-03 +1.33685029760E-03 +1.50451951814E-03 +1.31210100849E-03 -2.67606520823E-01 +4.56505537487E-01
4.51000000000E+09 -2.32672643147E-01 +4.77536614059E-01 +1.72078249360E-03 +6.52020517808E-04 +1.73495949770E-03 +6.42898351429E-04 -2.54468833175E-01 +4.71141235109E-01
4.51500000000E+09 -2.25572196225E-01 +4.85714071749E-01 +1.62378185131E-03 +4.18484850833E-04 +1.65419110197E-03 +4.43288336637E-04 -2.40896983861E-01 +4.85639074626E-01
4.52000000000E+09 -2.15967082823E-01 +4.93877625070E-01 +1.71684201771E-03 +1.73006474364E-05 +1.74017697134E-03 -1.01034319974E-05 -2.27757886228E-01 +4.99002940990E-01
4.52500000000E+09 -2.03514521854E-01 +5.00649026710E-01 +1.21840080759E-03 -1.64032132448E-04 +1.16948092416E-03 -1.91689033571E-04 -2.14395258026E-01 +5.11577025044E-01
4.53000000000E+09 -1.89778385892E-01 +5.08521298943E-01 +1.32560516044E-03 -1.55788681208E-05 +1.29471127189E-03 +2.33543653151E-05 -2.00670078187E-01 +5.23262373778E-01
4.53500000000E+09 -1.74129247373E-01 +5.17205469292E-01 +1.21633817271E-03 -8.71132183706E-05 +1.20485278508E-03 -9.07850190409E-05 -1.86380975783E-01 +5.35304896283E-01
4.54000000000E+09 -1.58710630198E-01 +5.26849278442E-01 +1.61259969256E-03 +1.04606262859E-04 +1.56220643315E-03 +2.43525363938E-05 -1.70515881677E-01 +5.46632417581E-01
4.54500000000E+09 -1.43658805180E-01 +5.37926260315E-01 +1.77795219230E-03 -6.35136041792E-04 +1.75153806293E-03 -6.82261427024E-04 -1.55574682524E-01 +5.56784405677E-01
4.55000000000E+09 -1.30034579511E-01 +5.48504104881E-01 +1.55160230042E-03 -8.37451179788E-04 +1.50486716351E-03 -8.33002208847E-04 -1.40459552391E-01 +5.67628932194E-01
4.55500000000E+09 -1.18359225215E-01 +5.59173230737E-01 +1.34449645868E-03 -1.13693847354E-03 +1.29837281071E-03 -1.10093137038E-03 -1.25854605709E-01 +5.77196268164E-01
4.56000000000E+09 -1.07684001453E-01 +5.68507965548E-01 +1.02855740177E-03 -1.15961975164E-03 +1.01666422759E-03 -1.13574603464E-03 -1.11028902538E-01 +5.86015223790E-01
4.56500000000E+09 -9.84912963225E-02 +5.75834393689E-01 +8.37563998967E-04 -1.47202241927E-03 +8.02719839214E-04 -1.47941139841E-03 -9.70562656718E-02 +5.94767904291E-01
4.57000000000E+09 -8.94995605221E-02 +5.82272782651E-01 +6.65433127045E-04 -1.24007339304E-03 +6.15139209999E-04 -1.27284837001E-03 -8.11709786269E-02 +6.03275013051E-01
