# Hz S RI R 50
! CMT, C1220, 16058040, 17.2.0/1
! Date: 15/08/2018 12:27:35
! Data: Format (Calibration Info)
! Freq                      S11: Re/Im (F2)                       S21: Re/Im (F2)                       S12: Re/Im (F2)                       S22: Re/Im (F2)            
4.00000000000E+09 +6.61963041195E-01 -3.57462931658E-01 -1.58703317378E-04 -6.35875783185E-04 -1.91654399434E-04 -7.39101852641E-04 +7.82868688466E-01 -3.17668277615E-01
4.00500000000E+09 +6.54295579801E-01 -3.64175864581E-01 -9.04659990146E-05 -5.75477750085E-04 -2.22250888014E-05 -6.06264793344E-04 +7.74418208345E-01 -3.29405974504E-01
4.01000000000E+09 +6.45287075612E-01 -3.70371292976E-01 -2.74559118946E-04 -7.11046012372E-04 -2.91346601445E-04 -7.51809100446E-04 +7.65397656030E-01 -3.41290219444E-01
4.01500000000E+09 +6.36208187310E-01 -3.76970770898E-01 -2.64243839639E-04 -5.67940644360E-04 -2.48706914375E-04 -6.13752473965E-04 +7.56548457453E-01 -3.52072130226E-01
4.02000000000E+09 +6.25994442711E-01 -3.85044333597E-01 -2.97803914372E-04 -7.36201434158E-04 -2.54119340277E-04 -7.29079979110E-04 +7.47439769022E-01 -3.62681036584E-01
4.02500000000E+09 +6.15171097064E-01 -3.94178685194E-01 -4.90648136627E-04 -6.82782200565E-04 -4.31406241720E-04 -7.52922416546E-04 +7.37865906659E-01 -3.72548135425E-01
4.03000000000E+09 +6.03813526584E-01 -4.03927540904E-01 -5.98630549939E-04 -6.78272187950E-04 -6.35134567606E-04 -7.24086849321E-04 +7.27957176370E-01 -3.82865683516E-01
4.03500000000E+09 +5.92725885964E-01 -4.14000947429E-01 -7.00008446341E-04 -5.83628948110E-04 -6.92104653929E-04 -6.14051670102E-04 +7.16940790812E-01 -3.93722020224E-01
4.04000000000E+09 +5.81831346958E-01 -4.24561580490E-01 -8.77232405765E-04 -4.17083069029E-04 -8.90836769075E-04 -4.21338658964E-04 +7.06123667279E-01 -4.04752056212E-01
4.04500000000E+09 +5.69970677295E-01 -4.34158737517E-01 -7.13300141394E-04 -6.95097524575E-05 -6.88832367554E-04 -1.07936174721E-04 +6.95329476642E-01 -4.15859450075E-01
4.05000000000E+09 +5.58772791538E-01 -4.41535796772E-01 -5.08343784471E-04 -2.41520275018E-04 -5.12282798692E-04 -3.08036233105E-04 +6.84279716060E-01 -4.26464085416E-01
4.05500000000E+09 +5.47322019977E-01 -4.48328198637E-01 -6.17262126871E-04 -3.14249936885E-04 -6.39917606574E-04 -3.78905306230E-04 +6.72930202312E-01 -4.35686184050E-01
4.06000000000E+09 +5.34524992470E-01 -4.53447882895E-01 -7.81642540526E-04 -3.75680884119E-04 -8.35989998962E-04 -3.84003463453E-04 +6.61874372734E-01 -4.44604964703E-01
4.06500000000E+09 +5.22014963167E-01 -4.57062471135E-01 -9.97488821388E-04 -1.85543763865E-04 -1.01229565799E-03 -1.87744578086E-04 +6.49592191208E-01 -4.53761932012E-01
4.07000000000E+09 +5.08418309335E-01 -4.61915813494E-01 -9.71806351815E-04 +4.46951862382E-05 -9.71380517863E-04 +2.89094130396E-05 +6.36801560653E-01 -4.63559710600E-01
4.07500000000E+09 +4.93401515096E-01 -4.66936546752E-01 -9.70697123600E-04 +6.79929855161E-05 -9.25803554806E-04 +9.95850990908E-05 +6.23267753158E-01 -4.73739681811E-01
4.08000000000E+09 +4.77385323615E-01 -4.72234284362E-01 -1.00227750265E-03 +2.42757320968E-04 -9.98585637136E-04 +2.16147575882E-04 +6.09791358193E-01 -4.83441549766E-01
4.08500000000E+09 +4.61123053557E-01 -4.78467973520E-01 -8.80382255726E-04 +5.20630940986E-04 -8.13930804890E-04 +5.38704445142E-04 +5.96891736646E-01 -4.93176138765E-01
4.09000000000E+09 +4.44584434548E-01 -4.85508588863E-01 -6.95823636985E-04 +3.32816231107E-04 -7.42272407211E-04 +3.26841790331E-04 +5.82988768605E-01 -5.01943706174E-01
4.09500000000E+09 +4.27772805936E-01 -4.92497824864E-01 -6.28265686890E-04 +3.24432400958E-04 -7.15316843610E-04 +3.50323393856E-04 +5.68956665763E-01 -5.09519220098E-01
4.10000000000E+09 +4.10667649267E-01 -4.98270067352E-01 -8.78717624049E-04 +3.82752294133E-04 -8.85840427882E-04 +3.56915484070E-04 +5.54212207861E-01 -5.17727674184E-01
4.10500000000E+09 +3.94609430492E-01 -5.02657563039E-01 -1.09076951268E-03 +5.99723422952E-04 -1.09609761942E-03 +6.34978369076E-04 +5.38295317463E-01 -5.25462197021E-01
4.11000000000E+09 +3.78829293158E-01 -5.05870461887E-01 -7.93674588404E-04 +1.00744350029E-03 -8.47183697250E-04 +1.01551956289E-03 +5.22046637755E-01 -5.33499242570E-01
4.11500000000E+09 +3.63001996430E-01 -5.07525222263E-01 -5.25609336808E-04 +1.13080312913E-03 -5.38218220332E-04 +1.15248324902E-03 +5.05871717343E-01 -5.41042164845E-01
4.12000000000E+09 +3.46491342804E-01 -5.08601125323E-01 -2.64305912013E-04 +1.09675673385E-03 -3.21808293694E-04 +1.12599394097E-03 +4.89821026433E-01 -5.48426900863E-01
4.12500000000E+09 +3.29775375773E-01 -5.08706525142E-01 -5.97662411084E-05 +1.10433332368E-03 -6.83327281115E-05 +1.11890054873E-03 +4.73457363536E-01 -5.54863630895E-01
4.13000000000E+09 +3.11907480740E-01 -5.10395280958E-01 +3.04546364404E-05 +6.83724197351E-04 +8.64177400625E-06 +6.84871847369E-04 +4.56699783828E-01 -5.61309359073E-01
4.13500000000E+09 +2.92782184659E-01 -5.11782670893E-01 -2.09978384346E-04 +7.62086269765E-04 -2.66120335708E-04 +7.94481455100E-04 +4.38479035754E-01 -5.67128086512E-01
4.14000000000E+09 +2.73710603785E-01 -5.14796427163E-01 -2.73020248375E-04 +9.16166359451E-04 -3.24124096645E-04 +9.44771223001E-04 +4.19866070527E-01 -5.72616618103E-01
4.14500000000E+09 +2.53276907203E-01 -5.19051562804E-01 -2.13602457971E-04 +1.15316648656E-03 -2.93028789916E-04 +1.19986559439E-03 +4.01248699006E-01 -5.78005394321E-01
4.15000000000E+09 +2.33076908301E-01 -5.22121534376E-01 +8.27735698664E-05 +1.46696122705E-03 +6.56190948677E-05 +1.53525100101E-03 +3.83516989787E-01 -5.83174532063E-01
4.15500000000E+09 +2.14093371124E-01 -5.25368020225E-01 +5.36106037976E-04 +1.50839591360E-03 +5.55287282015E-04 +1.55144616559E-03 +3.65450267196E-01 -5.87903917605E-01
4.16000000000E+09 +1.95968561837E-01 -5.27426181522E-01 +1.06187420279E-03 +1.24226493042E-03 +1.08827431117E-03 +1.27589434222E-03 +3.47461501282E-01 -5.90950647302E-01
4.16500000000E+09 +1.78731952812E-01 -5.27594980466E-01 +1.10095614980E-03 +4.74331740084E-04 +1.14859839845E-03 +5.45983075921E-04 +3.28801277451E-01 -5.94386629286E-01
4.17000000000E+09 +1.61867371165E-01 -5.25940295609E-01 +6.07794861075E-04 +4.94529256734E-04 +6.30446491945E-04 +5.34962861681E-04 +3.08930775443E-01 -5.97004814618E-01
4.17500000000E+09 +1.45977005783E-01 -5.21853373992E-01 +7.97552655242E-04 +5.49598070194E-04 +9.09524534646E-04 +5.43415494211E-04 +2.87799982619E-01 -5.99217894510E-01
4.18000000000E+09 +1.29899413613E-01 -5.17457796278E-01 +6.79309300309E-04 +1.93438476371E-04 +7.92961771198E-04 +2.28159507361E-04 +2.67086719618E-01 -6.01192265673E-01
4.18500000000E+09 +1.12351174565E-01 -5.11826751952E-01 +3.41756840593E-04 +6.86935740936E-04 +3.61259390715E-04 +6.73114356699E-04 +2.46140082138E-01 -6.02410946095E-01
4.19000000000E+09 +9.45291811301E-02 -5.06224058641E-01 +1.04854788527E-03 +9.44965556163E-04 +9.88160805978E-04 +1.00995424105E-03 +2.25909680259E-01 -6.02687611626E-01
4.19500000000E+09 +7.48707675569E-02 -5.01489228581E-01 +1.17685157911E-03 +3.08831696490E-04 +1.22374559823E-03 +4.06579780471E-04 +2.05032692433E-01 -6.01984514950E-01
4.20000000000E+09 +5.45027495353E-02 -4.96064375545E-01 +1.15449951803E-03 +3.90632573661E-04 +1.13624332311E-03 +4.18558332112E-04 +1.84182762091E-01 -6.00568802323E-01
4.20500000000E+09 +3.49316396299E-02 -4.91188315659E-01 +1.57562470647E-03 +1.49613717538E-05 +1.61922843791E-03 +3.54409378148E-05 +1.61635586763E-01 -5.98642692630E-01
4.21000000000E+09 +1.57063892829E-02 -4.86418371716E-01 +1.16341907389E-03 -6.71800718976E-04 +1.19148176417E-03 -6.37176100546E-04 +1.39139832130E-01 -5.96409992415E-01
4.21500000000E+09 -2.07464847481E-03 -4.80659255560E-01 +7.26787965884E-04 -3.98865198109E-04 +7.63250843689E-04 -3.84162557552E-04 +1.16804384009E-01 -5.94052331886E-01
4.22000000000E+09 -1.88341279111E-02 -4.73903435807E-01 +6.12497493385E-04 -2.72809898479E-04 +6.93357944558E-04 -2.91133389007E-04 +9.48717315625E-02 -5.90949144878E-01
4.22500000000E+09 -3.41080595017E-02 -4.65283108272E-01 +9.56484163789E-04 -8.96776910407E-05 +9.83201840746E-04 -8.55896904474E-05 +7.32444984580E-02 -5.86580649182E-01
4.23000000000E+09 -4.87725486136E-02 -4.55873083206E-01 +1.04956918703E-03 -6.38893988432E-04 +1.03161966558E-03 -6.44528678022E-04 +5.21826903961E-02 -5.80965069430E-01
4.23500000000E+09 -6.48713697889E-02 -4.44087916355E-01 +5.62804338978E-04 -6.22238152940E-04 +5.58806206181E-04 -6.20164070504E-04 +3.00457687266E-02 -5.74417395027E-01
4.24000000000E+09 -8.08778254522E-02 -4.30475729971E-01 +7.30609782718E-04 -3.29850678938E-04 +7.55585299419E-04 -3.38570715380E-04 +7.95125707245E-03 -5.66307986326E-01
4.24500000000E+09 -9.81702370007E-02 -4.17419318351E-01 +9.95822609258E-04 -7.64820302442E-04 +1.01952015768E-03 -8.71128767629E-04 -1.45402924205E-02 -5.58461839028E-01
4.25000000000E+09 -1.17781012296E-01 -4.03661259950E-01 +4.67686553345E-04 -1.24814369243E-03 +4.73479411545E-04 -1.29288496288E-03 -3.71917752853E-02 -5.49557027418E-01
4.25500000000E+09 -1.37780227962E-01 -3.90387060071E-01 +5.67073714217E-05 -7.14174538323E-04 +3.61491465388E-05 -6.82934393798E-04 -5.79590161241E-02 -5.39657333475E-01
4.26000000000E+09 -1.58238732249E-01 -3.77846448808E-01 +4.48446832881E-04 -6.69601486185E-04 +4.54285184591E-04 -6.58503579586E-04 -7.86718739511E-02 -5.29509811313E-01
4.26500000000E+09 -1.78481162037E-01 -3.65514652518E-01 +2.81352156608E-04 -1.01728878836E-03 +2.88894431284E-04 -1.09614483422E-03 -9.88660630409E-02 -5.18270188071E-01
4.27000000000E+09 -1.96204399270E-01 -3.53298052072E-01 -3.62523719594E-05 -9.71982543075E-04 -6.81428729433E-05 -9.83321463613E-04 -1.20306822278E-01 -5.05979345653E-01
4.27500000000E+09 -2.11864731133E-01 -3.41322947322E-01 -2.26743538211E-04 -9.45647339971E-04 -1.85492307020E-04 -9.98315100052E-04 -1.41767610007E-01 -4.91356759798E-01
4.28000000000E+09 -2.25023123106E-01 -3.28522029756E-01 -6.15325618042E-04 -6.93281471221E-04 -6.47019929126E-04 -6.67671732342E-04 -1.62123238840E-01 -4.76945251264E-01
4.28500000000E+09 -2.36981672910E-01 -3.14663445348E-01 -2.68947702792E-04 -2.09234249048E-04 -2.06247606996E-04 -1.92639099922E-04 -1.82314744621E-01 -4.62810854641E-01
4.29000000000E+09 -2.47260658376E-01 -2.97806168481E-01 -3.31950089296E-04 -4.52466570200E-04 -3.09339503845E-04 -4.95867722696E-04 -2.01809768263E-01 -4.47854692659E-01
4.29500000000E+09 -2.57006022570E-01 -2.80201363036E-01 -1.69383446907E-04 -1.49334648688E-04 -1.31437427044E-04 -1.96502924857E-04 -2.20151250168E-01 -4.32477951101E-01
4.30000000000E+09 -2.67455592482E-01 -2.60919052676E-01 -4.85211359745E-05 -4.23142442963E-04 -5.79120711728E-05 -4.52790946382E-04 -2.38143452008E-01 -4.15589007924E-01
4.30500000000E+09 -2.79312161915E-01 -2.40646397081E-01 -2.92219137557E-04 -4.90516729322E-04 -2.75398198776E-04 -4.64684152752E-04 -2.55601416451E-01 -3.96804895264E-01
4.31000000000E+09 -2.92260637537E-01 -2.19654721567E-01 -2.17087045048E-04 -3.62726717747E-05 -2.47839653519E-04 -6.36906000739E-05 -2.71734061516E-01 -3.77953861245E-01
4.31500000000E+09 -3.05566754376E-01 -1.98963558143E-01 -2.13467604830E-04 -2.49610234877E-04 -1.99104343141E-04 -3.27140583778E-04 -2.87951518735E-01 -3.58360386723E-01
4.32000000000E+09 -3.18379209403E-01 -1.80182297748E-01 -1.35200690186E-04 +1.42678180409E-04 -1.70916991176E-04 +1.39017118053E-04 -3.02811188568E-01 -3.38673397603E-01
4.32500000000E+09 -3.30673292929E-01 -1.62084916122E-01 +4.66196225342E-04 -2.34355221859E-04 +5.03794513640E-04 -2.52562736776E-04 -3.18136234382E-01 -3.18780573850E-01
4.33000000000E+09 -3.40126910278E-01 -1.44980676214E-01 -1.47179897304E-04 -4.34107049284E-04 -1.44834443527E-04 -4.24552516428E-04 -3.31341386623E-01 -2.96669589143E-01
4.33500000000E+09 -3.47859851268E-01 -1.29716577150E-01 +3.18770835838E-04 -3.91495457120E-05 +3.07515717228E-04 -4.52928076540E-05 -3.44068291694E-01 -2.75125725955E-01
4.34000000000E+09 -3.53472702650E-01 -1.13145426468E-01 +3.19562191084E-04 -5.88776183223E-04 +3.18625328526E-04 -5.57205108010E-04 -3.56520175235E-01 -2.51129329389E-01
4.34500000000E+09 -3.55715963797E-01 -9.53765403200E-02 -1.94311187275E-05 -7.24012048820E-04 +3.87559353890E-06 -7.07290274652E-04 -3.67018130142E-01 -2.27989249373E-01
4.35000000000E+09 -3.57708955938E-01 -7.66781651407E-02 +6.48055993923E-05 -4.04389204878E-04 +5.49328919038E-05 -3.69729923054E-04 -3.78259682267E-01 -2.04964180022E-01
4.35500000000E+09 -3.58240397735E-01 -5.55078098235E-02 +1.86191580403E-04 -8.30040315752E-04 +2.03185277007E-04 -8.13602958642E-04 -3.88122562519E-01 -1.81181067641E-01
4.36000000000E+09 -3.59694895266E-01 -3.35633064676E-02 -1.81421166047E-04 -8.89853519631E-04 -2.28374324205E-04 -9.27807520001E-04 -3.95791219203E-01 -1.58070736463E-01
4.36500000000E+09 -3.62574418154E-01 -9.84817714882E-03 -9.27353335758E-05 -7.32512171941E-04 -1.62073225449E-04 -7.42333858690E-04 -4.03265654748E-01 -1.35139141526E-01
4.37000000000E+09 -3.65541671380E-01 +1.37104077008E-02 -1.61642437199E-04 -7.93802777991E-04 -1.57556290274E-04 -8.73882036602E-04 -4.09216445846E-01 -1.10877581150E-01
4.37500000000E+09 -3.70434508691E-01 +3.59322882448E-02 -2.43040354781E-05 -1.27345004991E-03 -7.46678445905E-05 -1.31944313182E-03 -4.14348977155E-01 -8.63244679593E-02
4.38000000000E+09 -3.75105320218E-01 +5.75515158027E-02 -8.33698854129E-04 -1.38422612622E-03 -8.55124271966E-04 -1.40228187861E-03 -4.18817367968E-01 -6.19830623722E-02
4.38500000000E+09 -3.78785188966E-01 +7.55971899687E-02 -1.26677953726E-03 -8.72258582879E-04 -1.24016053060E-03 -8.42156857123E-04 -4.22680248651E-01 -3.66966264034E-02
4.39000000000E+09 -3.81984946120E-01 +9.24292356145E-02 -9.21743563576E-04 -6.04424091897E-04 -9.25402749063E-04 -5.25963839041E-04 -4.24501967286E-01 -1.22860052245E-02
4.39500000000E+09 -3.82061069037E-01 +1.08242193313E-01 -1.05431039121E-03 -8.27949468109E-04 -1.10422974343E-03 -8.17967384566E-04 -4.26226294236E-01 +1.15839646984E-02
4.40000000000E+09 -3.79922819911E-01 +1.22938337597E-01 -1.15198364564E-03 -5.13087692844E-04 -1.20102739598E-03 -5.59096900625E-04 -4.25874299300E-01 +3.56530911731E-02
4.40500000000E+09 -3.75559075638E-01 +1.38088135728E-01 -1.33234230114E-03 -6.81142792673E-04 -1.37803329108E-03 -6.99758274510E-04 -4.25608721401E-01 +5.91714613376E-02
4.41000000000E+09 -3.70489024739E-01 +1.54279619737E-01 -1.48950792211E-03 -3.07536388199E-04 -1.48270212736E-03 -2.83128426554E-04 -4.24266587611E-01 +8.37412742314E-02
4.41500000000E+09 -3.64596085839E-01 +1.74291021916E-01 -1.46433483530E-03 -3.81863093358E-04 -1.42363621418E-03 -3.93711427767E-04 -4.22504032584E-01 +1.07651405738E-01
4.42000000000E+09 -3.57694884444E-01 +1.95223108691E-01 -2.00403788879E-03 -2.41711038296E-04 -1.99386935573E-03 -2.85197460088E-04 -4.19489258028E-01 +1.32598042105E-01
4.42500000000E+09 -3.52525546939E-01 +2.17659299494E-01 -1.96490858219E-03 +3.85618966544E-04 -1.94490541502E-03 +4.09718601937E-04 -4.13693973025E-01 +1.55092973861E-01
4.43000000000E+09 -3.47356027924E-01 +2.40477977161E-01 -1.93391761348E-03 +5.59825801091E-04 -1.84329169927E-03 +6.23117001060E-04 -4.09952867949E-01 +1.76862906028E-01
4.43500000000E+09 -3.43090540037E-01 +2.61441202547E-01 -2.03670935551E-03 +1.02351078811E-03 -2.00414997116E-03 +1.05334574060E-03 -4.03572072378E-01 +2.00216766544E-01
4.44000000000E+09 -3.39747349638E-01 +2.79938730020E-01 -1.41883817011E-03 +1.42695565528E-03 -1.38524277983E-03 +1.40087460478E-03 -3.96988669160E-01 +2.21383210714E-01
4.44500000000E+09 -3.37344313469E-01 +2.96139111941E-01 -1.37279039991E-03 +1.12924548632E-03 -1.35581209236E-03 +1.16930106861E-03 -3.90368125135E-01 +2.42772666489E-01
4.45000000000E+09 -3.34792740311E-01 +3.10451188947E-01 -1.36178104959E-03 +1.51519356674E-03 -1.32021688399E-03 +1.56819236927E-03 -3.83551424361E-01 +2.63537990593E-01
4.45500000000E+09 -3.29692610652E-01 +3.24093840581E-01 -1.23763766466E-03 +1.74269499965E-03 -1.17817809366E-03 +1.79066855760E-03 -3.75168097516E-01 +2.83568901057E-01
4.46000000000E+09 -3.22400556247E-01 +3.36313319759E-01 -9.40655017861E-04 +1.76145431973E-03 -8.85107393381E-04 +1.79832954003E-03 -3.67010148089E-01 +3.02519146276E-01
4.46500000000E+09 -3.13186671446E-01 +3.49152013758E-01 -6.77122613663E-04 +1.91745890733E-03 -6.35578619537E-04 +1.95178919687E-03 -3.57256940784E-01 +3.22001690510E-01
4.47000000000E+09 -3.01524056866E-01 +3.63129496077E-01 -5.21732715011E-04 +2.10731078188E-03 -4.28884761995E-04 +2.13035295023E-03 -3.46379044367E-01 +3.40323009900E-01
4.47500000000E+09 -2.88523636028E-01 +3.77709722076E-01 -3.31685243719E-04 +2.13275960290E-03 -2.51089227990E-04 +2.07286067777E-03 -3.35964636575E-01 +3.59213665214E-01
4.48000000000E+09 -2.76456596890E-01 +3.94309228990E-01 +8.17179474264E-05 +2.31760287371E-03 +1.71644632493E-04 +2.27956793611E-03 -3.24212731888E-01 +3.77557417622E-01
4.48500000000E+09 -2.64397342029E-01 +4.11110509618E-01 +1.90962472403E-04 +2.17790416198E-03 +2.39875495013E-04 +2.06421363773E-03 -3.12922045971E-01 +3.94515584472E-01
4.49000000000E+09 -2.54527951344E-01 +4.27774691041E-01 +6.41756333755E-04 +2.42884182799E-03 +6.88384927584E-04 +2.32677122883E-03 -3.01654307639E-01 +4.10561238389E-01
4.49500000000E+09 -2.46031572854E-01 +4.43883696053E-01 +1.11884154116E-03 +2.01892401371E-03 +1.12789291473E-03 +1.97580610844E-03 -2.90731803178E-01 +4.25799316463E-01
4.50000000000E+09 -2.39374507746E-01 +4.57552849423E-01 +1.01110185099E-03 +2.04918401469E-03 +1.01269797213E-03 +1.96371256313E-03 -2.78524120333E-01 +4.41634079074E-01
4.50500000000E+09 -2.33530155664E-01 +4.69840008864E-01 +1.70232038625E-03 +1.99005393164E-03 +1.63571688395E-03 +1.97112773439E-03 -2.65458411760E-01 +4.56175609644E-01
4.51000000000E+09 -2.26847494546E-01 +4.79058387868E-01 +1.83592168209E-03 +1.37526260876E-03 +1.79365022139E-03 +1.31725740882E-03 -2.52426638445E-01 +4.70815610818E-01
4.51500000000E+09 -2.20075852184E-01 +4.86747366251E-01 +1.73313037732E-03 +1.42032926360E-03 +1.72269351840E-03 +1.39564183685E-03 -2.39160879724E-01 +4.84991026897E-01
4.52000000000E+09 -2.10627489923E-01 +4.94391156009E-01 +2.11761588351E-03 +1.12472526564E-03 +2.03551117805E-03 +1.12020247186E-03 -2.26248963853E-01 +4.98415253917E-01
4.52500000000E+09 -1.98852468614E-01 +5.00942373614E-01 +2.12697077883E-03 +9.64266446076E-04 +2.11705931158E-03 +9.17861035127E-04 -2.12639064941E-01 +5.10966999449E-01
4.53000000000E+09 -1.85166608657E-01 +5.08999077821E-01 +2.36005583882E-03 +7.33848904441E-04 +2.28597136377E-03 +6.62515227997E-04 -1.98989131083E-01 +5.22378130670E-01
4.53500000000E+09 -1.69675983666E-01 +5.17321505924E-01 +2.11174508013E-03 +3.08111466067E-04 +2.14227211959E-03 +3.09567611512E-04 -1.84707932835E-01 +5.34210980116E-01
4.54000000000E+09 -1.54319571323E-01 +5.27020677405E-01 +2.47347788094E-03 +5.18732968656E-04 +2.39981617297E-03 +4.88359171844E-04 -1.68940507828E-01 +5.45081176352E-01
4.54500000000E+09 -1.38988607277E-01 +5.37718136696E-01 +2.73481746690E-03 -3.64452043459E-04 +2.67535488297E-03 -3.67240251941E-04 -1.54269762633E-01 +5.54838860092E-01
4.55000000000E+09 -1.25760197845E-01 +5.47860175194E-01 +2.57919019541E-03 -4.97662157411E-04 +2.47255310837E-03 -5.24851015564E-04 -1.39735281513E-01 +5.65709417675E-01
4.55500000000E+09 -1.13917357526E-01 +5.58579518214E-01 +2.49328606699E-03 -1.05992214867E-03 +2.42369691115E-03 -1.05953494848E-03 -1.25313980787E-01 +5.75463114431E-01
4.56000000000E+09 -1.03441070980E-01 +5.67150637945E-01 +2.08416237100E-03 -1.22365992941E-03 +2.02583714527E-03 -1.23754951904E-03 -1.10758885696E-01 +5.84218731615E-01
4.56500000000E+09 -9.47990570828E-02 +5.74696558315E-01 +2.01618755871E-03 -1.37156582066E-03 +1.93527635037E-03 -1.39465012830E-03 -9.67957943956E-02 +5.93033439727E-01
4.57000000000E+09 -8.56896897961E-02 +5.81201944447E-01 +1.89518376713E-03 -1.68008015135E-03 +1.81584912234E-03 -1.68101716368E-03 -8.11435680851E-02 +6.01517534889E-01
