# Hz S RI R 50
! CMT, C1220, 16058040, 17.2.0/1
! Date: 15/08/2018 12:34:04
! Data: Format (Calibration Info)
! Freq                      S11: Re/Im (F2)                       S21: Re/Im (F2)                       S12: Re/Im (F2)                       S22: Re/Im (F2)            
4.00000000000E+09 +6.61114455612E-01 -3.65841500637E-01 -4.01733579603E-04 -3.68611999381E-04 -3.94640215505E-04 -3.95447961308E-04 +7.83278525026E-01 -3.18666684560E-01
4.00500000000E+09 +6.53378006534E-01 -3.72503065772E-01 -3.30953318351E-04 -2.92935648930E-04 -3.86083166666E-04 -2.79474176256E-04 +7.74728821073E-01 -3.30578049037E-01
4.01000000000E+09 +6.44421346210E-01 -3.78954085611E-01 -3.64875370108E-04 -3.42796371953E-04 -3.48966816519E-04 -3.02894025529E-04 +7.65732410048E-01 -3.42519769334E-01
4.01500000000E+09 +6.34982005553E-01 -3.85680570190E-01 -4.48050760784E-04 -2.11091455149E-04 -4.27992084506E-04 -2.48766828871E-04 +7.56852520258E-01 -3.53516777271E-01
4.02000000000E+09 +6.24599221226E-01 -3.93967130959E-01 -3.58811472612E-04 -2.33892115931E-04 -3.89689492526E-04 -2.49432604570E-04 +7.47537200259E-01 -3.64220865776E-01
4.02500000000E+09 +6.13652871008E-01 -4.03458180194E-01 -4.29534112606E-04 -2.20762932803E-04 -3.96212772288E-04 -2.72661426066E-04 +7.37761337712E-01 -3.74045827106E-01
4.03000000000E+09 +6.01614444928E-01 -4.13572265508E-01 -4.87021751656E-04 -3.30845418736E-04 -4.73632281719E-04 -3.43429357406E-04 +7.27755155622E-01 -3.84250710871E-01
4.03500000000E+09 +5.90338430946E-01 -4.23697450975E-01 -6.09534300624E-04 -1.82317878732E-04 -6.22782650591E-04 -2.32474875616E-04 +7.16659468347E-01 -3.95081230354E-01
4.04000000000E+09 +5.79283419194E-01 -4.34024249814E-01 -6.59802542408E-04 -9.92478180497E-05 -6.31575747584E-04 -7.60006291128E-05 +7.05992054524E-01 -4.06235175904E-01
4.04500000000E+09 +5.67634663552E-01 -4.44017133072E-01 -6.26043767531E-04 +4.62526019752E-05 -6.04235430477E-04 +1.68128601696E-05 +6.95122640310E-01 -4.17489411350E-01
4.05000000000E+09 +5.56164089045E-01 -4.51726267988E-01 -4.87534407890E-04 +1.39032211847E-04 -5.67199312740E-04 +1.46183385074E-04 +6.84148823283E-01 -4.28376424738E-01
4.05500000000E+09 +5.44655225211E-01 -4.58592232504E-01 -3.99161686698E-04 +4.60335376831E-05 -4.50356737234E-04 +3.84536190749E-05 +6.72633986324E-01 -4.37802924786E-01
4.06000000000E+09 +5.31960078306E-01 -4.63827078863E-01 -4.86640208720E-04 +1.90250938901E-05 -5.25620467048E-04 +2.67279386859E-05 +6.61239935300E-01 -4.47003719845E-01
4.06500000000E+09 +5.19499664463E-01 -4.67771675225E-01 -5.51210982132E-04 +4.43386178492E-05 -6.11278665145E-04 -1.47997276382E-05 +6.48654306450E-01 -4.56228700628E-01
4.07000000000E+09 +5.05811104086E-01 -4.73141325012E-01 -7.20920935062E-04 +1.36673060814E-04 -6.86419185393E-04 +1.13448443360E-04 +6.35525587735E-01 -4.66124463740E-01
4.07500000000E+09 +4.90649275114E-01 -4.78014409666E-01 -6.36365540203E-04 +2.84467949503E-04 -7.04253338074E-04 +2.53202071970E-04 +6.21600338623E-01 -4.76330432816E-01
4.08000000000E+09 +4.74520499048E-01 -4.83893689417E-01 -6.05243036056E-04 +4.17398698198E-04 -6.30535966081E-04 +3.79531729634E-04 +6.07999616030E-01 -4.85915331587E-01
4.08500000000E+09 +4.57562700876E-01 -4.90023099209E-01 -6.23235242263E-04 +5.40556239217E-04 -6.71271390712E-04 +5.43150240231E-04 +5.94763819169E-01 -4.95528397260E-01
4.09000000000E+09 +4.40875208789E-01 -4.96629878026E-01 -4.02534398663E-04 +5.53866022741E-04 -4.57633828922E-04 +5.77196936420E-04 +5.80773465119E-01 -5.04273709962E-01
4.09500000000E+09 +4.24516869762E-01 -5.03518568932E-01 -4.30293795271E-04 +3.79193923379E-04 -4.48168013951E-04 +4.13161736435E-04 +5.66479499759E-01 -5.12048837790E-01
4.10000000000E+09 +4.07270770552E-01 -5.09374439011E-01 -5.81788657140E-04 +5.73880115911E-04 -5.84152341028E-04 +5.80884705247E-04 +5.51156325214E-01 -5.19871613631E-01
4.10500000000E+09 +3.91130157957E-01 -5.13486952282E-01 -6.00437482457E-04 +7.50622492803E-04 -6.02501759413E-04 +8.03422970631E-04 +5.35066007059E-01 -5.27507811811E-01
4.11000000000E+09 +3.75458890305E-01 -5.16448872316E-01 -3.13506082991E-04 +8.86567561510E-04 -3.19250131877E-04 +9.85696716882E-04 +5.18509770982E-01 -5.35224801779E-01
4.11500000000E+09 +3.59604749076E-01 -5.18141458242E-01 -1.55433261412E-04 +9.96848714877E-04 -1.59902575807E-04 +1.01113438946E-03 +5.02210437752E-01 -5.42498926325E-01
4.12000000000E+09 +3.43044948652E-01 -5.18924197376E-01 +1.69599806595E-05 +9.11651242054E-04 +4.07464895929E-06 +9.25022411438E-04 +4.86220377712E-01 -5.49539378755E-01
4.12500000000E+09 +3.25984959077E-01 -5.19187243727E-01 +9.21521835809E-05 +9.20682109344E-04 +1.02430570696E-04 +9.32289035366E-04 +4.69922453581E-01 -5.55907254614E-01
4.13000000000E+09 +3.07455745970E-01 -5.20683076101E-01 +3.31617576774E-04 +6.62622727266E-04 +2.92687016639E-04 +7.43407042428E-04 +4.53081641010E-01 -5.62247126792E-01
4.13500000000E+09 +2.87581141708E-01 -5.21824574977E-01 +3.76571024942E-05 +6.50580706620E-04 +3.29605523884E-05 +6.57320666930E-04 +4.34888234353E-01 -5.68204066576E-01
4.14000000000E+09 +2.67924463523E-01 -5.23487458031E-01 +1.00837402408E-04 +8.40855043842E-04 +2.19533832096E-05 +8.32297937690E-04 +4.15877024529E-01 -5.73888616924E-01
4.14500000000E+09 +2.48041513676E-01 -5.27277907682E-01 +1.87362320951E-05 +9.49212283259E-04 +5.15525455507E-05 +9.14883756561E-04 +3.96869990525E-01 -5.79159502169E-01
4.15000000000E+09 +2.27585837025E-01 -5.30422961897E-01 +3.21344616878E-04 +1.44308449201E-03 +2.82617943186E-04 +1.49929502345E-03 +3.78869296876E-01 -5.84107193727E-01
4.15500000000E+09 +2.08718815922E-01 -5.33146379061E-01 +9.33016738680E-04 +1.34066136691E-03 +9.70090174359E-04 +1.38402541634E-03 +3.60589396035E-01 -5.88391298138E-01
4.16000000000E+09 +1.90794904783E-01 -5.35605497036E-01 +1.35986238665E-03 +8.62273558479E-04 +1.38107625122E-03 +9.61542023017E-04 +3.42652968926E-01 -5.91118535290E-01
4.16500000000E+09 +1.72734593930E-01 -5.35466919851E-01 +1.23655349852E-03 +2.95833234948E-04 +1.28448585560E-03 +2.84030060088E-04 +3.23739271266E-01 -5.94527247379E-01
4.17000000000E+09 +1.56177613855E-01 -5.32835583132E-01 +8.45013233460E-04 +3.25591123252E-04 +8.31737560361E-04 +3.82838200888E-04 +3.03381008564E-01 -5.97016785443E-01
4.17500000000E+09 +1.40772332012E-01 -5.28134406761E-01 +1.01930222738E-03 +4.67012501927E-04 +1.03161572552E-03 +5.02238902630E-04 +2.82082671254E-01 -5.98751390073E-01
4.18000000000E+09 +1.25036785970E-01 -5.23477152567E-01 +1.11526695067E-03 +1.25651315913E-04 +1.16285301816E-03 +2.06749146169E-04 +2.61298482089E-01 -6.00338022208E-01
4.18500000000E+09 +1.07596912782E-01 -5.17886320919E-01 +8.45986868305E-04 +3.90089426403E-04 +8.79768416673E-04 +4.47918793650E-04 +2.40227253187E-01 -6.01223046474E-01
4.19000000000E+09 +8.91861383879E-02 -5.11832065399E-01 +1.49943815502E-03 +5.17661606275E-04 +1.51943468498E-03 +5.54509280238E-04 +2.19830707715E-01 -6.00914307675E-01
4.19500000000E+09 +6.94577082010E-02 -5.06085154871E-01 +1.72086815202E-03 -1.99109166910E-04 +1.77473687307E-03 -1.64994401318E-04 +1.99192492978E-01 -5.99580461251E-01
4.20000000000E+09 +4.93310926894E-02 -5.00040148542E-01 +1.45156060080E-03 -5.25168512568E-04 +1.52056412650E-03 -4.38355683475E-04 +1.78705854760E-01 -5.97797412070E-01
4.20500000000E+09 +2.96403886802E-02 -4.94569515140E-01 +1.53857179053E-03 -6.84025978515E-04 +1.64832116923E-03 -6.61527242058E-04 +1.56557558989E-01 -5.95786746305E-01
4.21000000000E+09 +1.10687422048E-02 -4.89006556396E-01 +1.22958697498E-03 -1.22042587641E-03 +1.33905882890E-03 -1.25377968562E-03 +1.34006962749E-01 -5.93324172169E-01
4.21500000000E+09 -6.31555213971E-03 -4.83215178998E-01 +6.35362560448E-04 -1.02319559181E-03 +7.29079957352E-04 -1.07926859065E-03 +1.12286593793E-01 -5.90764794944E-01
4.22000000000E+09 -2.25870803653E-02 -4.76216141932E-01 +7.53382620640E-04 -7.84238147821E-04 +8.42456696523E-04 -8.31998576514E-04 +9.03660774908E-02 -5.88070776473E-01
4.22500000000E+09 -3.72558563422E-02 -4.67308473740E-01 +1.11629669807E-03 -9.38038223398E-04 +1.12093565919E-03 -9.80700781085E-04 +6.85291307575E-02 -5.83360985491E-01
4.23000000000E+09 -5.13300345811E-02 -4.57950747616E-01 +7.68100114551E-04 -1.68374183346E-03 +8.11481840472E-04 -1.84081641571E-03 +4.76561582204E-02 -5.77732568516E-01
4.23500000000E+09 -6.66911743151E-02 -4.45965970095E-01 +9.57246832755E-06 -1.47294390873E-03 +6.38659353867E-05 -1.55624852144E-03 +2.56819523759E-02 -5.70931272741E-01
4.24000000000E+09 -8.22953618981E-02 -4.31904306160E-01 +1.93975756357E-04 -1.05438803194E-03 +1.80540355289E-04 -1.15625000122E-03 +3.57715575143E-03 -5.63028193171E-01
4.24500000000E+09 -9.84596213575E-02 -4.18172915084E-01 +3.42534059021E-04 -1.41410825399E-03 +3.04489088529E-04 -1.46324550462E-03 -1.91506413328E-02 -5.55140861331E-01
4.25000000000E+09 -1.16856748733E-01 -4.04128536771E-01 -1.86096323167E-04 -1.81888835684E-03 -2.20664504349E-04 -1.85897743043E-03 -4.17813700742E-02 -5.46009840355E-01
4.25500000000E+09 -1.35768455322E-01 -3.90682462691E-01 -6.09380028174E-04 -1.05781714323E-03 -6.67923107581E-04 -1.06657748823E-03 -6.26313048005E-02 -5.36249153361E-01
4.26000000000E+09 -1.55163101589E-01 -3.78342809395E-01 -1.04659530508E-04 -1.10789318531E-03 -1.40458198830E-04 -1.07684073391E-03 -8.34345066797E-02 -5.25666164270E-01
4.26500000000E+09 -1.74681689957E-01 -3.66503418526E-01 -3.50346443521E-04 -1.44818829647E-03 -3.88309433628E-04 -1.49694063196E-03 -1.03380145727E-01 -5.14125089695E-01
4.27000000000E+09 -1.91844550932E-01 -3.54394721253E-01 -8.82074731982E-04 -1.36689731837E-03 -8.63289524601E-04 -1.39667633920E-03 -1.24950596960E-01 -5.01697348061E-01
4.27500000000E+09 -2.06881359236E-01 -3.42849331632E-01 -9.12025075990E-04 -1.28180542126E-03 -9.65133006039E-04 -1.34699461241E-03 -1.46448667249E-01 -4.86716123993E-01
4.28000000000E+09 -2.19601187287E-01 -3.30439047850E-01 -1.56502241927E-03 -1.11247870289E-03 -1.55379167703E-03 -1.05282100759E-03 -1.66631950814E-01 -4.72013843786E-01
4.28500000000E+09 -2.30656229155E-01 -3.16857617819E-01 -1.50221856262E-03 -3.88574052476E-04 -1.52516374961E-03 -3.99573054984E-04 -1.86699896025E-01 -4.57869225235E-01
4.29000000000E+09 -2.40167990822E-01 -3.01088401973E-01 -1.39935556416E-03 -1.83463610065E-04 -1.42349446864E-03 -1.90528173553E-04 -2.06148253253E-01 -4.42776499125E-01
4.29500000000E+09 -2.49234930912E-01 -2.84283840049E-01 -1.03307379719E-03 +1.50764202583E-05 -1.08228528170E-03 +7.12276485089E-05 -2.24261954690E-01 -4.26964972176E-01
4.30000000000E+09 -2.59592897750E-01 -2.65944228378E-01 -9.11105914667E-04 -1.26973338419E-04 -9.21304068201E-04 -1.38861472898E-04 -2.41804604293E-01 -4.10043277545E-01
4.30500000000E+09 -2.71274047936E-01 -2.45786138088E-01 -1.24930656097E-03 -2.53202273161E-04 -1.27980891782E-03 -2.31928124496E-04 -2.58959146160E-01 -3.91548467173E-01
4.31000000000E+09 -2.82813868067E-01 -2.25287936433E-01 -1.42141696629E-03 +3.30582343515E-04 -1.42755804821E-03 +3.23388221180E-04 -2.75217187605E-01 -3.72951263362E-01
4.31500000000E+09 -2.96020774964E-01 -2.05917965959E-01 -1.17168913808E-03 +3.72047776736E-04 -1.14356969398E-03 +3.91449681433E-04 -2.91782153927E-01 -3.53306402071E-01
4.32000000000E+09 -3.08435131424E-01 -1.87159696282E-01 -1.08372648910E-03 +7.65704505197E-04 -1.12072109393E-03 +8.29891104189E-04 -3.06894935460E-01 -3.33326337517E-01
4.32500000000E+09 -3.20255260968E-01 -1.69863602690E-01 -5.64285447380E-04 +6.36110784041E-04 -5.12307764945E-04 +6.51209364195E-04 -3.22274475636E-01 -3.13149236760E-01
4.33000000000E+09 -3.29534476387E-01 -1.53270868794E-01 -8.75432796582E-04 +5.25746504878E-04 -8.26196338095E-04 +5.43606432748E-04 -3.35445573670E-01 -2.90876222945E-01
4.33500000000E+09 -3.36583180906E-01 -1.38640993895E-01 -6.13759592463E-04 +9.38629759440E-04 -6.21840482054E-04 +9.07808335937E-04 -3.48095826412E-01 -2.69108193697E-01
4.34000000000E+09 -3.42239240631E-01 -1.23032491553E-01 -2.29942778184E-04 +7.38983773206E-04 -2.15629725603E-04 +7.43108116089E-04 -3.60477034186E-01 -2.45138093016E-01
4.34500000000E+09 -3.44809337337E-01 -1.05859164521E-01 -4.04680411751E-04 +3.90159058059E-04 -3.85583006163E-04 +3.79005781153E-04 -3.71490484090E-01 -2.21745190101E-01
4.35000000000E+09 -3.46625158484E-01 -8.77169092147E-02 -3.80681182775E-04 +8.52465794360E-04 -4.34175074358E-04 +7.87919708218E-04 -3.83061444402E-01 -1.98152276985E-01
4.35500000000E+09 -3.47590944799E-01 -6.70024553510E-02 -2.43764352083E-04 +7.46254378732E-04 -2.50251617150E-04 +7.04951637401E-04 -3.92521370168E-01 -1.73606839188E-01
4.36000000000E+09 -3.48734420717E-01 -4.46921557255E-02 -2.81886121631E-04 +6.86864998846E-04 -3.37361732949E-04 +6.48623394725E-04 -3.99996743803E-01 -1.50272941854E-01
4.36500000000E+09 -3.51278935436E-01 -2.20132470270E-02 -5.24438807278E-05 +1.05826129579E-03 -1.11698842811E-04 +1.08307691949E-03 -4.07230840526E-01 -1.26735115664E-01
4.37000000000E+09 -3.54737627174E-01 +1.04181700555E-03 +4.75538455005E-04 +8.79141707624E-04 +4.68584057177E-04 +8.41428667056E-04 -4.12731986740E-01 -1.02073951192E-01
4.37500000000E+09 -3.59697850677E-01 +2.28810490770E-02 +6.74546611135E-04 +2.34700355288E-04 +6.38818935981E-04 +2.00836811309E-04 -4.17425315404E-01 -7.70213783681E-02
4.38000000000E+09 -3.65204793674E-01 +4.36377599618E-02 -1.09824424182E-05 -8.57930325631E-05 -4.02365414562E-05 -3.78571562994E-05 -4.21149964533E-01 -5.26589580420E-02
4.38500000000E+09 -3.69027159619E-01 +6.21677315827E-02 -3.43714177632E-04 +4.33554471588E-04 -3.99485452581E-04 +5.07221310696E-04 -4.24848285675E-01 -2.75752236898E-02
4.39000000000E+09 -3.72058554481E-01 +7.79366398468E-02 +1.95056002399E-04 +7.42808119888E-04 +1.80254376741E-04 +7.99318931616E-04 -4.26681221215E-01 -3.01874749141E-03
4.39500000000E+09 -3.73034260286E-01 +9.31271853870E-02 +3.51313574436E-04 +2.76273928870E-04 +3.26815322771E-04 +3.30412441701E-04 -4.28044702887E-01 +2.12133409456E-02
4.40000000000E+09 -3.71209017208E-01 +1.07351828320E-01 +3.39453547058E-04 +4.80426389846E-04 +4.11747747673E-04 +5.19068379859E-04 -4.27241805714E-01 +4.56130094112E-02
4.40500000000E+09 -3.67878660063E-01 +1.22122767896E-01 +5.23742839241E-04 -1.22206940685E-05 +5.66835546467E-04 +1.16282574452E-05 -4.26492207377E-01 +6.92659937871E-02
4.41000000000E+09 -3.62694099824E-01 +1.38520518181E-01 +3.33022437682E-04 -2.11233955232E-05 +3.78333248972E-04 +1.82921987089E-05 -4.24400901473E-01 +9.39836226068E-02
4.41500000000E+09 -3.56945902278E-01 +1.57313762119E-01 +2.29942523341E-04 -2.86626893143E-04 +2.17801702219E-04 -2.45064090779E-04 -4.22315165984E-01 +1.17196283591E-01
4.42000000000E+09 -3.51293000777E-01 +1.78054667487E-01 -2.00661839226E-04 -2.97013866098E-04 -1.39190123139E-04 -2.65446015776E-04 -4.19569541887E-01 +1.42029838901E-01
4.42500000000E+09 -3.46173043312E-01 +1.99628258128E-01 -2.76251562626E-04 -2.44159829625E-05 -2.28241848785E-04 -4.18104894550E-05 -4.13609476464E-01 +1.64928295357E-01
4.43000000000E+09 -3.42668822131E-01 +2.21878595805E-01 -5.03938510784E-04 +2.34206423576E-04 -4.72072130274E-04 +1.91095372155E-04 -4.09573969726E-01 +1.86957081129E-01
4.43500000000E+09 -3.39500032622E-01 +2.43400843243E-01 -2.97139829810E-04 +5.57238006198E-04 -2.92128542847E-04 +4.73224959261E-04 -4.02855583939E-01 +2.10483516726E-01
4.44000000000E+09 -3.36870254174E-01 +2.61747085605E-01 +3.57446474237E-05 +4.97627886376E-04 +5.72683338298E-05 +3.98214564069E-04 -3.95894149400E-01 +2.32181526121E-01
4.44500000000E+09 -3.35445854229E-01 +2.78243478132E-01 -9.11810443975E-05 +3.23593385348E-04 -8.50230112124E-05 +2.62607301149E-04 -3.88303887204E-01 +2.53855385062E-01
4.45000000000E+09 -3.33005953428E-01 +2.92320525289E-01 -1.43259028387E-04 +3.63472394548E-04 -1.85585666403E-04 +3.53115184024E-04 -3.80540523317E-01 +2.74063339325E-01
4.45500000000E+09 -3.29053553318E-01 +3.05130185671E-01 -2.08552225029E-04 +6.29462727712E-04 -2.58642515023E-04 +5.49571787655E-04 -3.72134252864E-01 +2.93853600909E-01
4.46000000000E+09 -3.22742209640E-01 +3.17357315071E-01 +8.06948469139E-07 +7.26509083005E-04 -4.91962836548E-05 +6.91160974231E-04 -3.63433945097E-01 +3.12646563679E-01
4.46500000000E+09 -3.14332879251E-01 +3.29627091509E-01 +1.04871925327E-04 +7.35232976559E-04 +9.96517146848E-06 +7.55304674745E-04 -3.53333338167E-01 +3.31934355100E-01
4.47000000000E+09 -3.03841885427E-01 +3.43954309932E-01 +4.42821749987E-04 +8.79798353870E-04 +4.07813341614E-04 +8.51179191181E-04 -3.41758609941E-01 +3.50201542422E-01
4.47500000000E+09 -2.91381472302E-01 +3.58925139849E-01 +3.39065123956E-04 +6.21205631403E-04 +2.95542635386E-04 +6.34372533270E-04 -3.30748377096E-01 +3.68716271774E-01
4.48000000000E+09 -2.79837044746E-01 +3.75673010919E-01 +7.42637530000E-04 +9.22567810793E-04 +7.60066787772E-04 +9.82709566657E-04 -3.18468666119E-01 +3.86412250983E-01
4.48500000000E+09 -2.67875379388E-01 +3.93595477291E-01 +9.56687759311E-04 +3.76542024404E-04 +9.34234491527E-04 +3.99982008676E-04 -3.07078468009E-01 +4.02874486472E-01
4.49000000000E+09 -2.57945839771E-01 +4.10380902142E-01 +8.90639947229E-04 +2.63213011765E-04 +8.47357639495E-04 +3.20394507333E-04 -2.95687625486E-01 +4.18455070618E-01
4.49500000000E+09 -2.50061743285E-01 +4.27117723672E-01 +7.65943445060E-04 +1.20129879127E-04 +7.79732915542E-04 +1.27416516744E-04 -2.84726747456E-01 +4.33334917584E-01
4.50000000000E+09 -2.43309207185E-01 +4.41070344553E-01 +5.07832387293E-04 +3.10657899073E-04 +5.99779121291E-04 +3.11719084019E-04 -2.72687530264E-01 +4.48830993225E-01
4.50500000000E+09 -2.38879639849E-01 +4.53576766131E-01 +1.08164366736E-03 +4.29246196575E-04 +1.08321821384E-03 +4.00404832152E-04 -2.59377982742E-01 +4.63242380911E-01
4.51000000000E+09 -2.32956514803E-01 +4.64451091546E-01 +1.13127234657E-03 -2.28331640255E-04 +1.18208136474E-03 -2.64230679278E-04 -2.46175424251E-01 +4.77576694623E-01
4.51500000000E+09 -2.26063267806E-01 +4.72959314307E-01 +8.16482277453E-04 -1.85137938721E-04 +9.16539465913E-04 -1.98576211384E-04 -2.32730109546E-01 +4.91594207448E-01
4.52000000000E+09 -2.17061753692E-01 +4.81258851123E-01 +9.77876527344E-04 -4.04841222519E-04 +9.98264243086E-04 -4.73101456856E-04 -2.19542627611E-01 +5.04538133461E-01
4.52500000000E+09 -2.05295695093E-01 +4.88373781201E-01 +6.13614429075E-04 -5.61860077281E-04 +6.17623235453E-04 -6.16236417062E-04 -2.06152839183E-01 +5.16918883867E-01
4.53000000000E+09 -1.92009004981E-01 +4.96562327949E-01 +5.38217445385E-04 -3.28570591224E-04 +5.34096902835E-04 -4.04774488404E-04 -1.92312093884E-01 +5.28141089753E-01
4.53500000000E+09 -1.76842858409E-01 +5.05668994760E-01 +3.59351938135E-04 -3.09250036228E-04 +3.32211273451E-04 -3.95761411612E-04 -1.77915129451E-01 +5.39601484727E-01
4.54000000000E+09 -1.61576695915E-01 +5.15545585618E-01 +6.79561445554E-04 +5.06102126787E-05 +6.62500833720E-04 -1.17599836044E-05 -1.62023767875E-01 +5.50307717481E-01
4.54500000000E+09 -1.46879867920E-01 +5.27055666224E-01 +1.08199731575E-03 -5.73825272026E-04 +1.02228839224E-03 -6.25943949504E-04 -1.47269667515E-01 +5.59810407193E-01
4.55000000000E+09 -1.32896109071E-01 +5.38207346421E-01 +8.44456323194E-04 -7.69183690805E-04 +7.64838880566E-04 -7.82915168951E-04 -1.32523193932E-01 +5.70050939673E-01
4.55500000000E+09 -1.21244223624E-01 +5.49084566982E-01 +6.83054411952E-04 -8.77290129921E-04 +5.99136953643E-04 -8.85378532974E-04 -1.18229509516E-01 +5.79343042401E-01
4.56000000000E+09 -1.10910764095E-01 +5.58766126815E-01 +4.41615833017E-04 -9.34624468449E-04 +4.17838089818E-04 -9.10181638589E-04 -1.03827727180E-01 +5.87816667905E-01
4.56500000000E+09 -1.02027527323E-01 +5.66859365231E-01 +3.23046821600E-04 -1.09869775042E-03 +2.66718776559E-04 -1.05536225842E-03 -9.01745719906E-02 +5.96349058400E-01
4.57000000000E+09 -9.31052913888E-02 +5.74079348218E-01 +2.86302394456E-04 -9.42875297586E-04 +1.99628216385E-04 -9.10815644038E-04 -7.45756836689E-02 +6.04721004698E-01
