# Hz S RI R 50
! CMT, C1220, 16058040, 17.2.0/1
! Date: 15/08/2018 12:28:19
! Data: Format (Calibration Info)
! Freq                      S11: Re/Im (F2)                       S21: Re/Im (F2)                       S12: Re/Im (F2)                       S22: Re/Im (F2)            
4.00000000000E+09 +6.59540098886E-01 -3.61415140601E-01 -2.82396661350E-04 -4.21162894715E-04 -3.04332180091E-04 -4.23081659061E-04 +7.82574934555E-01 -3.16233968019E-01
4.00500000000E+09 +6.51568149392E-01 -3.67837545605E-01 -2.18643750920E-04 -2.59882713325E-04 -1.93361522807E-04 -2.60049803313E-04 +7.74287399377E-01 -3.27773914111E-01
4.01000000000E+09 +6.42678024111E-01 -3.74089021602E-01 -3.38249338943E-04 -3.79380567231E-04 -3.62910435888E-04 -4.00822260785E-04 +7.65630244901E-01 -3.39629607468E-01
4.01500000000E+09 +6.33331351855E-01 -3.80757018426E-01 -4.31466539403E-04 -1.51990282061E-04 -4.06654930638E-04 -1.83843689035E-04 +7.57097340424E-01 -3.50381718588E-01
4.02000000000E+09 +6.23279398204E-01 -3.88813020996E-01 -2.63374306045E-04 -1.73025033181E-04 -2.34162516272E-04 -1.78143563870E-04 +7.48272565314E-01 -3.61129758902E-01
4.02500000000E+09 +6.12375069111E-01 -3.98119088248E-01 -3.77383143670E-04 -2.17587120151E-04 -3.35619989801E-04 -2.23587938406E-04 +7.38701303189E-01 -3.71186880839E-01
4.03000000000E+09 +6.00500569228E-01 -4.08219370857E-01 -4.09251311861E-04 -2.00716829585E-04 -4.21313373084E-04 -2.11218118582E-04 +7.28939813025E-01 -3.81468433445E-01
4.03500000000E+09 +5.89206618820E-01 -4.17990076942E-01 -4.36714447839E-04 -1.56553585776E-04 -4.27568601892E-04 -1.95118662160E-04 +7.18003222934E-01 -3.92453378813E-01
4.04000000000E+09 +5.78146050107E-01 -4.28218080488E-01 -5.92007451479E-04 -2.87185233664E-06 -6.31429346277E-04 -9.36007714451E-05 +7.07316711497E-01 -4.03612539425E-01
4.04500000000E+09 +5.66330882097E-01 -4.37673509050E-01 -4.10894379264E-04 +9.97627108186E-05 -4.37077744054E-04 +1.30647686600E-04 +6.96674434838E-01 -4.14629438178E-01
4.05000000000E+09 +5.54991370927E-01 -4.44907395884E-01 -3.25555053038E-04 +6.73760815467E-05 -3.24163939233E-04 +6.18331451288E-05 +6.85964083341E-01 -4.25386321378E-01
4.05500000000E+09 +5.43305363362E-01 -4.51708400064E-01 -3.32140750871E-04 +9.97159284532E-05 -3.19793247762E-04 +5.83334115765E-05 +6.74758126330E-01 -4.34999335073E-01
4.06000000000E+09 +5.30405280130E-01 -4.56673404795E-01 -3.30985791313E-04 -1.06250049376E-05 -3.62504466596E-04 +1.39482644329E-05 +6.63562025422E-01 -4.44141679089E-01
4.06500000000E+09 +5.17597171410E-01 -4.60358874037E-01 -4.09845721306E-04 -3.98401918972E-06 -3.86121840600E-04 -3.62941504535E-05 +6.51289371361E-01 -4.53339739539E-01
4.07000000000E+09 +5.03822078094E-01 -4.65050492389E-01 -5.56926927539E-04 +6.90516455361E-05 -5.15761184265E-04 +4.76084838454E-05 +6.38377361812E-01 -4.63359238522E-01
4.07500000000E+09 +4.88852430361E-01 -4.69644329364E-01 -4.95866594484E-04 +2.07722237300E-04 -5.12047629287E-04 +2.13816358523E-04 +6.24896545762E-01 -4.73633936463E-01
4.08000000000E+09 +4.72978281553E-01 -4.75469191296E-01 -4.78150566588E-04 +3.14709734368E-04 -4.55627997417E-04 +2.43575418888E-04 +6.11404679332E-01 -4.83327876750E-01
4.08500000000E+09 +4.56059939925E-01 -4.81332986853E-01 -5.32732140276E-04 +4.95336062948E-04 -5.53920401484E-04 +4.92578551238E-04 +5.98444478144E-01 -4.92954147072E-01
4.09000000000E+09 +4.39474761946E-01 -4.87932133138E-01 -1.90404515150E-04 +4.62998840631E-04 -2.09243927138E-04 +5.03239179476E-04 +5.85037759856E-01 -5.01729425329E-01
4.09500000000E+09 +4.22914512424E-01 -4.94852704111E-01 -2.48168300957E-04 +2.10566960718E-04 -2.32564605166E-04 +2.29060036060E-04 +5.70999635554E-01 -5.09782718140E-01
4.10000000000E+09 +4.05572595398E-01 -5.00467748494E-01 -4.31881300938E-04 +4.44331313554E-04 -4.23545525149E-04 +4.32351200180E-04 +5.56192191049E-01 -5.18037384768E-01
4.10500000000E+09 +3.89541636295E-01 -5.04479688749E-01 -3.51493238071E-04 +5.88843863843E-04 -3.62492587699E-04 +5.84048226909E-04 +5.40370498305E-01 -5.26107215147E-01
4.11000000000E+09 +3.73709550988E-01 -5.07706649672E-01 -1.32609710982E-04 +6.76997604278E-04 -1.54006426696E-04 +6.56898522667E-04 +5.24098332895E-01 -5.34317599218E-01
4.11500000000E+09 +3.57471418571E-01 -5.09236073638E-01 -4.01983684767E-05 +6.75545929501E-04 -1.12769141272E-04 +7.39808095617E-04 +5.07920448271E-01 -5.42171528768E-01
4.12000000000E+09 +3.40853566091E-01 -5.09720298851E-01 +1.31271924304E-04 +6.92507848236E-04 +1.22346213865E-04 +7.33937809361E-04 +4.91838901873E-01 -5.49866328550E-01
4.12500000000E+09 +3.24344102196E-01 -5.09744901255E-01 +2.24958320782E-04 +7.37685141805E-04 +2.22215496795E-04 +7.54443726416E-04 +4.75244116118E-01 -5.56614880096E-01
4.13000000000E+09 +3.06635229875E-01 -5.11608613585E-01 +5.50977694865E-04 +3.68914259593E-04 +5.09351848664E-04 +3.63762579454E-04 +4.58310000287E-01 -5.63199031753E-01
4.13500000000E+09 +2.86808529555E-01 -5.13130448180E-01 +2.18664067443E-04 +2.42652405021E-04 +1.95982398538E-04 +2.37662882781E-04 +4.39779897967E-01 -5.69269079426E-01
4.14000000000E+09 +2.67418288726E-01 -5.15415139481E-01 +1.75245377676E-04 +3.39345248033E-04 +1.64741907708E-04 +3.40047906931E-04 +4.21194112186E-01 -5.75166800631E-01
4.14500000000E+09 +2.47274865158E-01 -5.19356409727E-01 +1.09420543967E-04 +3.19525418854E-04 +8.92299639313E-05 +3.60504061254E-04 +4.01918564868E-01 -5.80745803873E-01
4.15000000000E+09 +2.26820395934E-01 -5.22092014851E-01 +1.21031445048E-04 +6.74944567026E-04 +1.37516508439E-04 +7.45049264398E-04 +3.83784154337E-01 -5.85878471085E-01
4.15500000000E+09 +2.08111129039E-01 -5.24661445578E-01 +5.80359977992E-04 +7.15126543649E-04 +6.18597270459E-04 +7.77158997666E-04 +3.65386302721E-01 -5.90738766937E-01
4.16000000000E+09 +1.90230849826E-01 -5.26696128553E-01 +8.34678610339E-04 +2.67382479670E-04 +8.99087848293E-04 +2.95214909924E-04 +3.46875035312E-01 -5.93624803880E-01
4.16500000000E+09 +1.72567226248E-01 -5.26446496574E-01 +7.49262593992E-04 -5.29280753070E-05 +8.22943828323E-04 -2.29465082215E-05 +3.27817863139E-01 -5.96721015908E-01
4.17000000000E+09 +1.55983310321E-01 -5.24128552756E-01 +4.40382608129E-04 -6.50518106644E-05 +4.84513502422E-04 -7.43482407740E-05 +3.07787406966E-01 -5.99307096322E-01
4.17500000000E+09 +1.40509935214E-01 -5.19626129030E-01 +4.83243293369E-04 -8.83111900042E-05 +5.08180065315E-04 -5.94968456838E-05 +2.86245630794E-01 -6.01270922826E-01
4.18000000000E+09 +1.24810142464E-01 -5.15253677449E-01 +3.12382937537E-04 -3.14494901889E-04 +3.78944110623E-04 -3.68927826820E-04 +2.65737523309E-01 -6.02761383451E-01
4.18500000000E+09 +1.07204825627E-01 -5.09372632998E-01 -1.80389813049E-04 +1.28853155559E-04 -1.59399632315E-04 +8.44481253718E-05 +2.44637507379E-01 -6.03967258893E-01
4.19000000000E+09 +8.95160267219E-02 -5.03415289720E-01 +4.06507245566E-04 +5.69120554433E-04 +4.19226923982E-04 +5.16241177589E-04 +2.24205859736E-01 -6.04144103899E-01
4.19500000000E+09 +6.90923633956E-02 -4.99719449998E-01 +7.56292931934E-04 +5.56707702409E-05 +7.31023491464E-04 +4.54011073401E-05 +2.03297599965E-01 -6.03388247514E-01
4.20000000000E+09 +4.90180683908E-02 -4.93859856759E-01 +5.08396342504E-04 +6.61419548769E-06 +4.60578596563E-04 +2.37968345196E-05 +1.82351059950E-01 -6.01931384301E-01
4.20500000000E+09 +2.98409542082E-02 -4.88279722149E-01 +9.00526592256E-04 +3.56448114880E-05 +8.69750804641E-04 +1.37134123519E-05 +1.59581877313E-01 -5.99910001592E-01
4.21000000000E+09 +1.18097847217E-02 -4.83122750227E-01 +7.65797908960E-04 -5.78438367422E-04 +7.20760453553E-04 -5.72781402872E-04 +1.36868544446E-01 -5.97312714469E-01
4.21500000000E+09 -5.71905657406E-03 -4.77728694886E-01 +3.02937268852E-04 -3.40254022966E-04 +2.64196473692E-04 -3.42653950251E-04 +1.14491558299E-01 -5.94617193836E-01
4.22000000000E+09 -2.24533028036E-02 -4.70674267600E-01 +4.67574208605E-04 -2.02488124704E-04 +4.69130844678E-04 -1.74259411066E-04 +9.24935473922E-02 -5.91547576904E-01
4.22500000000E+09 -3.73497349237E-02 -4.61638605867E-01 +7.06125917760E-04 -3.88839987252E-04 +7.32268764084E-04 -3.22662897362E-04 +7.03891255037E-02 -5.86596835221E-01
4.23000000000E+09 -5.16270704704E-02 -4.51869820335E-01 +3.74506326940E-04 -7.96608443876E-04 +4.04027401395E-04 -7.65948570797E-04 +4.93698795605E-02 -5.80637752316E-01
4.23500000000E+09 -6.72607670297E-02 -4.40047033222E-01 -4.13155348868E-05 -5.55757549639E-04 +4.49231765659E-05 -5.19804961710E-04 +2.73783596537E-02 -5.73656033582E-01
4.24000000000E+09 -8.28556313959E-02 -4.26184215149E-01 +2.10182992470E-04 -2.12641626636E-04 +2.44327877838E-04 -1.96170201417E-04 +5.33171823824E-03 -5.65343250556E-01
4.24500000000E+09 -9.92943882733E-02 -4.13149179231E-01 +5.87883060696E-04 -5.48265990689E-04 +6.32658594626E-04 -5.27916423440E-04 -1.71254957595E-02 -5.57376338669E-01
4.25000000000E+09 -1.18429255349E-01 -3.99657186886E-01 +1.65694933449E-04 -1.24574046007E-03 +2.90123966106E-04 -1.29754739576E-03 -3.98161664228E-02 -5.47776779055E-01
4.25500000000E+09 -1.38240450069E-01 -3.86176448600E-01 -4.50674613857E-04 -6.37312398102E-04 -4.20369422458E-04 -7.13631294369E-04 -6.03328056955E-02 -5.37582028488E-01
4.26000000000E+09 -1.57897658880E-01 -3.73442612340E-01 -6.57688394770E-05 -5.67292647235E-04 -3.07948358220E-05 -5.72901765636E-04 -8.06857140907E-02 -5.26699342928E-01
4.26500000000E+09 -1.77749615502E-01 -3.61263894879E-01 -3.48663245024E-04 -9.07826822663E-04 -3.08335380152E-04 -9.27698265402E-04 -9.99499211589E-02 -5.15225571647E-01
4.27000000000E+09 -1.94969339075E-01 -3.48744134554E-01 -7.67651854998E-04 -4.28707156227E-04 -7.78602890523E-04 -4.51139272562E-04 -1.21010488934E-01 -5.03154712715E-01
4.27500000000E+09 -2.10095237302E-01 -3.36805543978E-01 -3.40549111489E-04 -3.37924389955E-04 -2.89934044496E-04 -3.41713336824E-04 -1.42251344209E-01 -4.88706982607E-01
4.28000000000E+09 -2.23025019235E-01 -3.24249101142E-01 -8.25676168273E-04 -4.14342502118E-04 -8.58560713231E-04 -4.65154459779E-04 -1.62455023418E-01 -4.74318458094E-01
4.28500000000E+09 -2.34501898137E-01 -3.10634241376E-01 -6.03402232564E-04 +2.05735587886E-04 -6.71836608697E-04 +1.58367409139E-04 -1.82632738112E-01 -4.60272295735E-01
4.29000000000E+09 -2.44775968474E-01 -2.94436685484E-01 -5.49449080845E-04 +1.09618850554E-04 -5.82713945668E-04 +4.59327917252E-05 -2.02103088791E-01 -4.45151926818E-01
4.29500000000E+09 -2.53857408881E-01 -2.77356792224E-01 -2.89543295354E-04 +3.98963981520E-04 -2.83667088408E-04 +3.87016387233E-04 -2.20078738816E-01 -4.29162870191E-01
4.30000000000E+09 -2.64435553123E-01 -2.58856710475E-01 -6.99176031938E-05 +1.10173725118E-04 -1.38341528887E-04 +2.90440749511E-05 -2.37333153324E-01 -4.12301554139E-01
4.30500000000E+09 -2.75932012607E-01 -2.38891534849E-01 -3.92431179077E-04 -1.31479015486E-04 -4.56320325513E-04 -9.42041288684E-05 -2.54122184697E-01 -3.93828496150E-01
4.31000000000E+09 -2.88061285303E-01 -2.18598064678E-01 -4.18699555346E-04 +5.25654616186E-04 -5.11097036003E-04 +5.61501908443E-04 -2.70175029686E-01 -3.75511272936E-01
4.31500000000E+09 -3.01126348171E-01 -1.98564845383E-01 -6.78801654083E-05 +4.30591528980E-04 -1.26596794283E-04 +5.34593450268E-04 -2.86642015266E-01 -3.55961117217E-01
4.32000000000E+09 -3.13126474185E-01 -1.80088526850E-01 +1.13915492899E-04 +6.54512696688E-04 +8.22840792049E-05 +6.40058239212E-04 -3.01209605978E-01 -3.36012496572E-01
4.32500000000E+09 -3.25236582704E-01 -1.62789156008E-01 +7.34017022753E-04 +2.10886394836E-04 +7.03122792108E-04 +3.17360392537E-04 -3.16216610248E-01 -3.15947484525E-01
4.33000000000E+09 -3.34623938303E-01 -1.45892640252E-01 +2.88121438847E-04 -2.83557317791E-04 +2.96068255098E-04 -2.20830786116E-04 -3.28804574218E-01 -2.93798026437E-01
4.33500000000E+09 -3.42220213338E-01 -1.30812971672E-01 +2.99124368391E-04 +3.44111708839E-05 +3.38773013600E-04 +4.71009404583E-05 -3.40707890423E-01 -2.72439665771E-01
4.34000000000E+09 -3.48226770032E-01 -1.14292770547E-01 +4.09450625279E-04 -2.30375649584E-04 +4.48774402139E-04 -1.80971101028E-04 -3.52404276790E-01 -2.49103051325E-01
4.34500000000E+09 -3.50543834708E-01 -9.65677531299E-02 -2.56710497077E-05 -5.70744537262E-04 +3.52090089935E-05 -5.09595467456E-04 -3.62736724453E-01 -2.26814470659E-01
4.35000000000E+09 -3.52797795084E-01 -7.83596261779E-02 -5.16081029075E-05 -1.89156204142E-05 +1.93429218596E-05 -3.43006371681E-05 -3.74005949641E-01 -2.04381841055E-01
4.35500000000E+09 -3.54032508697E-01 -5.74610257874E-02 +2.09045817132E-04 -2.40197157921E-04 +2.52155479425E-04 -2.58550965264E-04 -3.83700090426E-01 -1.81190591887E-01
4.36000000000E+09 -3.55399327922E-01 -3.55508007924E-02 +7.18710067976E-05 -4.13801706824E-04 +7.27010709562E-05 -3.84568889904E-04 -3.91289220567E-01 -1.58820788023E-01
4.36500000000E+09 -3.58448952650E-01 -1.30665405070E-02 +1.28761629203E-04 -3.08956630234E-04 +1.54288871246E-04 -3.28302500296E-04 -3.99216196584E-01 -1.36492865673E-01
4.37000000000E+09 -3.62190363183E-01 +1.02602399539E-02 +2.36137067919E-05 -4.79148328277E-04 +7.38083628868E-05 -5.33388077566E-04 -4.05458959115E-01 -1.12591861113E-01
4.37500000000E+09 -3.66969414226E-01 +3.21885857555E-02 +1.55408169998E-04 -8.94921363736E-04 +1.13510244401E-04 -9.61269244478E-04 -4.10648599686E-01 -8.81299292873E-02
4.38000000000E+09 -3.71764625308E-01 +5.31960926504E-02 -6.47716460173E-04 -9.77919617520E-04 -7.10959733211E-04 -1.08068921264E-03 -4.15238155687E-01 -6.44303452196E-02
4.38500000000E+09 -3.75188721144E-01 +7.15117654729E-02 -9.88797707519E-04 -1.28430384238E-04 -1.03873471254E-03 -1.58132221387E-04 -4.19684016597E-01 -3.97621051574E-02
4.39000000000E+09 -3.78080185295E-01 +8.80023308307E-02 -2.78049022703E-04 +6.17660461597E-05 -3.39288928574E-04 +2.35045883039E-05 -4.22070885695E-01 -1.56513301336E-02
4.39500000000E+09 -3.78303467169E-01 +1.03759651371E-01 -3.89440916993E-04 -3.30182771642E-04 -4.60263771290E-04 -3.31352604154E-04 -4.24572742802E-01 +8.05680109337E-03
4.40000000000E+09 -3.76201105982E-01 +1.18519884505E-01 -3.27960622798E-04 -1.01078820794E-04 -3.93925244445E-04 -1.10340339263E-04 -4.24584827342E-01 +3.25445413851E-02
4.40500000000E+09 -3.72393219632E-01 +1.33767622524E-01 -3.55783244522E-04 -4.01124105189E-04 -3.94753260192E-04 -4.04762400249E-04 -4.24475367695E-01 +5.60299103615E-02
4.41000000000E+09 -3.67076405855E-01 +1.50468055180E-01 -4.96011364834E-04 -4.50024059007E-04 -5.24150321644E-04 -4.44451418282E-04 -4.23185582859E-01 +8.09622416515E-02
4.41500000000E+09 -3.61584491193E-01 +1.69530807215E-01 -8.15275208017E-04 -4.76051090925E-04 -8.90169146146E-04 -3.68557701256E-04 -4.21240529479E-01 +1.04220455884E-01
4.42000000000E+09 -3.55880885905E-01 +1.90732431567E-01 -1.13310506661E-03 -2.38578889247E-04 -1.16133795823E-03 -1.32484083163E-04 -4.18772827337E-01 +1.28705163439E-01
4.42500000000E+09 -3.50768985019E-01 +2.12978923628E-01 -1.09973089227E-03 +9.10856123039E-05 -1.14263368370E-03 +2.15080998224E-04 -4.13533074638E-01 +1.51388716717E-01
4.43000000000E+09 -3.46163821394E-01 +2.35312660649E-01 -1.10351816147E-03 +4.74226311920E-04 -1.08711251256E-03 +5.61681757510E-04 -4.10007278581E-01 +1.73178129076E-01
4.43500000000E+09 -3.42319371935E-01 +2.56094820363E-01 -6.21740744818E-04 +5.72661481731E-04 -6.04352268099E-04 +6.34236635305E-04 -4.04156319924E-01 +1.96216763983E-01
4.44000000000E+09 -3.39239992419E-01 +2.74104082118E-01 -5.95284060550E-04 +2.76141746058E-04 -5.90723645533E-04 +2.89334178114E-04 -3.98258358151E-01 +2.17447075430E-01
4.44500000000E+09 -3.37276420004E-01 +2.90381881467E-01 -1.06584200681E-03 +2.94565369744E-04 -9.50144504783E-04 +2.81612191653E-04 -3.91945777563E-01 +2.39462068108E-01
4.45000000000E+09 -3.34430648464E-01 +3.04453370060E-01 -1.04127013050E-03 +5.73469164693E-04 -9.58650249973E-04 +5.93200677889E-04 -3.85096995290E-01 +2.60192087196E-01
4.45500000000E+09 -3.29745779619E-01 +3.18077092800E-01 -1.08786679722E-03 +9.34056088267E-04 -1.04379290970E-03 +9.23764754602E-04 -3.77450692804E-01 +2.80053222528E-01
4.46000000000E+09 -3.22351923033E-01 +3.30425537688E-01 -8.08477473607E-04 +1.01682603105E-03 -7.72097817124E-04 +9.78908014469E-04 -3.70022607104E-01 +2.99482523850E-01
4.46500000000E+09 -3.13274677599E-01 +3.43381842787E-01 -7.77510750505E-04 +1.20635728562E-03 -7.47829735713E-04 +1.20640429358E-03 -3.60615103268E-01 +3.19434782871E-01
4.47000000000E+09 -3.02252967123E-01 +3.57814797989E-01 -4.82260743586E-04 +1.61331239106E-03 -3.92744708952E-04 +1.55743782543E-03 -3.50127274522E-01 +3.38517887023E-01
4.47500000000E+09 -2.89796642815E-01 +3.73004440172E-01 -2.65996530431E-04 +1.59399016094E-03 -2.52120126909E-04 +1.53199189661E-03 -3.39596663747E-01 +3.58027086155E-01
4.48000000000E+09 -2.78258999726E-01 +3.90258991971E-01 +3.28475585639E-04 +1.83622941509E-03 +3.15220189576E-04 +1.73854475845E-03 -3.27814668060E-01 +3.76875179123E-01
4.48500000000E+09 -2.66043898238E-01 +4.07905819379E-01 +3.79785760619E-04 +1.30097704654E-03 +3.08437135925E-04 +1.23552177490E-03 -3.16366534035E-01 +3.94134854590E-01
4.49000000000E+09 -2.56489694981E-01 +4.24498346815E-01 +3.66768667295E-04 +1.58569949419E-03 +3.21135470713E-04 +1.50038694569E-03 -3.05211677498E-01 +4.10715557722E-01
4.49500000000E+09 -2.48293481432E-01 +4.40887162836E-01 +6.39829150591E-04 +1.59364628694E-03 +5.78409296185E-04 +1.57021986853E-03 -2.93879136144E-01 +4.26292952473E-01
4.50000000000E+09 -2.41897858996E-01 +4.54206589182E-01 +9.21814046907E-04 +1.71559544767E-03 +8.39546561495E-04 +1.71191171144E-03 -2.81844908902E-01 +4.42304008352E-01
4.50500000000E+09 -2.36945996582E-01 +4.66637384651E-01 +1.59720162572E-03 +1.50388422360E-03 +1.52205718591E-03 +1.49854602042E-03 -2.68395113728E-01 +4.57714146621E-01
4.51000000000E+09 -2.30378607667E-01 +4.76855019504E-01 +1.80403837755E-03 +9.48282260967E-04 +1.75572883767E-03 +9.08558130484E-04 -2.54844010583E-01 +4.72290384105E-01
4.51500000000E+09 -2.23200247124E-01 +4.84940211417E-01 +1.76889537530E-03 +6.94948996496E-04 +1.71292922372E-03 +6.54998382831E-04 -2.41152473480E-01 +4.86739655550E-01
4.52000000000E+09 -2.13144321240E-01 +4.92909763961E-01 +1.92921855490E-03 +2.93334267087E-04 +1.87272629497E-03 +2.95872195554E-04 -2.27679932704E-01 +4.99997445641E-01
4.52500000000E+09 -2.00916564414E-01 +4.99424422822E-01 +1.61021059950E-03 +3.59623581892E-05 +1.52096234788E-03 +8.91221417919E-06 -2.14214627514E-01 +5.12355214115E-01
4.53000000000E+09 -1.87312599626E-01 +5.07456320595E-01 +1.53936923106E-03 +1.94867838806E-06 +1.52899759384E-03 +7.35468485605E-06 -2.00542573148E-01 +5.23932818884E-01
4.53500000000E+09 -1.71584923558E-01 +5.16494541973E-01 +1.43149943007E-03 -9.44982678906E-05 +1.43999024927E-03 -1.10800843052E-04 -1.86298337334E-01 +5.35787984079E-01
4.54000000000E+09 -1.56036261602E-01 +5.26147803878E-01 +1.80722909418E-03 -5.55845697231E-05 +1.83918068146E-03 -2.73255461123E-05 -1.70412273535E-01 +5.46988961298E-01
4.54500000000E+09 -1.40878123552E-01 +5.37310003283E-01 +1.94459299054E-03 -7.42878864370E-04 +1.89481884278E-03 -7.75914260682E-04 -1.55441095226E-01 +5.57216515547E-01
4.55000000000E+09 -1.27295941002E-01 +5.47600004615E-01 +1.72125169052E-03 -8.87983163003E-04 +1.69586858083E-03 -8.93062084492E-04 -1.40556224231E-01 +5.67886379910E-01
4.55500000000E+09 -1.15817562344E-01 +5.58141684082E-01 +1.50373438442E-03 -1.22888001377E-03 +1.49047137507E-03 -1.24655790181E-03 -1.25909984802E-01 +5.77622901837E-01
4.56000000000E+09 -1.05285709988E-01 +5.67363495016E-01 +1.14965893261E-03 -1.34129136591E-03 +1.12062172315E-03 -1.37227510145E-03 -1.11065963505E-01 +5.86445796093E-01
4.56500000000E+09 -9.61909347488E-02 +5.74833687181E-01 +8.38701974655E-04 -1.54901554503E-03 +8.31331891308E-04 -1.58356342996E-03 -9.70889760541E-02 +5.95115070679E-01
4.57000000000E+09 -8.71759001870E-02 +5.81202491700E-01 +6.69206405835E-04 -1.46071865615E-03 +6.31656927680E-04 -1.48432814834E-03 -8.11650052061E-02 +6.03793418284E-01
