# Hz S RI R 50
! CMT, C1220, 16058040, 17.2.0/1
! Date: 15/08/2018 12:29:16
! Data: Format (Calibration Info)
! Freq                      S11: Re/Im (F2)                       S21: Re/Im (F2)                       S12: Re/Im (F2)                       S22: Re/Im (F2)            
4.00000000000E+09 +6.63788840910E-01 -3.56842639423E-01 -1.98894687380E-04 -5.26758194956E-04 -1.80496876585E-04 -4.60101098859E-04 +7.82794108384E-01 -3.18125118828E-01
4.00500000000E+09 +6.55979944198E-01 -3.63637797180E-01 -7.98727022275E-05 -4.07188913437E-04 -5.23209342203E-05 -3.70104040928E-04 +7.74387034545E-01 -3.29768857879E-01
4.01000000000E+09 +6.47368568671E-01 -3.70052667261E-01 -1.95877457297E-04 -5.59833540429E-04 -1.78763102974E-04 -5.94951248544E-04 +7.65523546052E-01 -3.41750996958E-01
4.01500000000E+09 +6.38271370278E-01 -3.76666993295E-01 -4.08126291659E-04 -3.85054923410E-04 -3.69013737819E-04 -4.00357243934E-04 +7.56727183907E-01 -3.52517950578E-01
4.02000000000E+09 +6.28455503816E-01 -3.84985909382E-01 -2.29635275376E-04 -3.04947886797E-04 -2.27536017063E-04 -2.86776109707E-04 +7.47606171450E-01 -3.63194468494E-01
4.02500000000E+09 +6.17811244982E-01 -3.94323407483E-01 -2.35855046338E-04 -2.55246686540E-04 -2.19012477237E-04 -2.60723184235E-04 +7.37853572673E-01 -3.73117020425E-01
4.03000000000E+09 +6.06620560305E-01 -4.04239340736E-01 -2.33473324548E-04 -4.17457374916E-04 -2.18784423877E-04 -4.32769045917E-04 +7.28046032851E-01 -3.83310081634E-01
4.03500000000E+09 +5.95680014076E-01 -4.14883999838E-01 -3.21518359995E-04 -3.86791610867E-04 -3.23765912832E-04 -4.13219588633E-04 +7.17027414209E-01 -3.94239127672E-01
4.04000000000E+09 +5.84506378153E-01 -4.25555214169E-01 -5.00425409802E-04 -3.09409602039E-04 -4.38760842027E-04 -3.31777964788E-04 +7.06326680001E-01 -4.05225834260E-01
4.04500000000E+09 +5.72952449261E-01 -4.35259439484E-01 -4.19005824549E-04 -1.64704527217E-04 -4.07258981640E-04 -2.05685525524E-04 +6.95609328318E-01 -4.16439671357E-01
4.05000000000E+09 +5.61694701524E-01 -4.43381682497E-01 -3.86439662961E-04 -1.95257379546E-04 -4.26084295532E-04 -2.31201175529E-04 +6.84566287819E-01 -4.27232606128E-01
4.05500000000E+09 +5.50033201011E-01 -4.50540261525E-01 -3.04033889043E-04 -1.55698445279E-04 -3.62217335395E-04 -1.83312691003E-04 +6.73277515698E-01 -4.36502225856E-01
4.06000000000E+09 +5.37418391839E-01 -4.55768352799E-01 -2.58645549300E-04 -2.83953463951E-04 -2.87517513086E-04 -3.01136537113E-04 +6.62022539655E-01 -4.45712786676E-01
4.06500000000E+09 +5.24890722372E-01 -4.60215463893E-01 -4.77506062263E-04 -4.41635386725E-04 -4.63280440483E-04 -4.84164172624E-04 +6.49354089122E-01 -4.54647707648E-01
4.07000000000E+09 +5.11045364712E-01 -4.65293492003E-01 -7.44167935485E-04 -3.08146582573E-04 -7.00555136791E-04 -3.11118897053E-04 +6.36595841326E-01 -4.64414375282E-01
4.07500000000E+09 +4.96288822917E-01 -4.70444066902E-01 -6.87244478477E-04 -2.02024089047E-04 -6.53265390217E-04 -2.00600735612E-04 +6.23051086245E-01 -4.74650281137E-01
4.08000000000E+09 +4.80566412393E-01 -4.76591268788E-01 -8.37273212744E-04 -1.62013013299E-04 -8.42056559659E-04 -1.90426176868E-04 +6.09509844049E-01 -4.84248195194E-01
4.08500000000E+09 +4.63754746295E-01 -4.83281116209E-01 -8.63958797932E-04 +1.26166977953E-04 -9.30457933339E-04 +1.49353465358E-04 +5.96545302336E-01 -4.93790662481E-01
4.09000000000E+09 +4.46680508761E-01 -4.90206408231E-01 -6.90004902012E-04 +1.74750039691E-04 -7.36005229985E-04 +1.81848228917E-04 +5.82880638156E-01 -5.02625621827E-01
4.09500000000E+09 +4.29923065775E-01 -4.97168900938E-01 -7.78533523074E-04 +1.10003352933E-04 -8.13186570564E-04 +9.24360106598E-05 +5.68772988376E-01 -5.10464170876E-01
4.10000000000E+09 +4.13009119194E-01 -5.03092150410E-01 -9.33188332549E-04 +2.55575508212E-04 -9.21980998654E-04 +2.74959628738E-04 +5.53832356343E-01 -5.18474185687E-01
4.10500000000E+09 +3.97055705601E-01 -5.07794640022E-01 -9.70760337762E-04 +4.93642212343E-04 -9.94478222791E-04 +5.02766281881E-04 +5.37828135576E-01 -5.26086593517E-01
4.11000000000E+09 +3.81205765519E-01 -5.11440753415E-01 -7.12433391284E-04 +6.91214622798E-04 -7.66429882580E-04 +7.14904574998E-04 +5.21688167715E-01 -5.34023329162E-01
4.11500000000E+09 +3.65015113780E-01 -5.13805895233E-01 -6.02462267305E-04 +8.20688663908E-04 -6.46023102379E-04 +7.74056957547E-04 +5.05535945403E-01 -5.41588677747E-01
4.12000000000E+09 +3.48053652128E-01 -5.15228400007E-01 -5.23572729487E-04 +8.69811901216E-04 -6.33092931708E-04 +8.58918547560E-04 +4.89756585338E-01 -5.48927373218E-01
4.12500000000E+09 +3.30814143950E-01 -5.15749685686E-01 -2.82288646388E-04 +9.89936356445E-04 -3.45456728621E-04 +9.89563178110E-04 +4.73402887706E-01 -5.55701138907E-01
4.13000000000E+09 +3.12539166750E-01 -5.17391847642E-01 -1.20476148843E-04 +7.24893264488E-04 -1.44598019251E-04 +7.32822842509E-04 +4.56364318777E-01 -5.62050180721E-01
4.13500000000E+09 +2.92858539887E-01 -5.19065186006E-01 -3.50269043287E-04 +7.34759567457E-04 -3.71896415543E-04 +7.70783993331E-04 +4.38191259817E-01 -5.67892342022E-01
4.14000000000E+09 +2.73573253773E-01 -5.21591466814E-01 -2.00389078459E-04 +8.76541539579E-04 -2.30837696746E-04 +9.14866875342E-04 +4.19294331840E-01 -5.73526098907E-01
4.14500000000E+09 +2.53544141844E-01 -5.26021045498E-01 -4.00833854303E-04 +8.70999092729E-04 -3.67637111952E-04 +9.12513314360E-04 +4.00566189645E-01 -5.78619995410E-01
4.15000000000E+09 +2.32810158220E-01 -5.29915909408E-01 -1.65369606550E-04 +1.38266155985E-03 -2.06319072670E-04 +1.41932759150E-03 +3.82979049165E-01 -5.83785670942E-01
4.15500000000E+09 +2.13272961998E-01 -5.33167840926E-01 +3.34635013872E-04 +1.38741954283E-03 +3.27491785178E-04 +1.45507586304E-03 +3.64748482428E-01 -5.88606771977E-01
4.16000000000E+09 +1.94624816916E-01 -5.35348642898E-01 +6.89037752192E-04 +1.07743289985E-03 +7.33481742214E-04 +1.09451506051E-03 +3.46864813589E-01 -5.91530076994E-01
4.16500000000E+09 +1.76486326542E-01 -5.35488488526E-01 +6.87083227384E-04 +5.82757703984E-04 +7.66587904459E-04 +6.53740065385E-04 +3.28005491295E-01 -5.95192953576E-01
4.17000000000E+09 +1.59227722414E-01 -5.33233221926E-01 +2.60166288591E-04 +6.50143494893E-04 +2.50715928333E-04 +7.16298593587E-04 +3.07831247097E-01 -5.97572461722E-01
4.17500000000E+09 +1.43255845845E-01 -5.28808181701E-01 +4.49317639928E-04 +9.09845856205E-04 +4.64333877224E-04 +9.22642073422E-04 +2.86771082453E-01 -5.99523032434E-01
4.18000000000E+09 +1.27220896576E-01 -5.24262871177E-01 +5.65072778200E-04 +5.93419061740E-04 +5.89420480691E-04 +6.68974235485E-04 +2.66040477513E-01 -6.01482727991E-01
4.18500000000E+09 +1.09439576296E-01 -5.19203568769E-01 +2.37278526930E-04 +1.03821683769E-03 +2.60893339410E-04 +1.08942757079E-03 +2.45145938573E-01 -6.02621409772E-01
4.19000000000E+09 +9.04415086485E-02 -5.13772261017E-01 +1.05468470358E-03 +1.42998393583E-03 +1.04483534761E-03 +1.39697470876E-03 +2.24795316947E-01 -6.02980088088E-01
4.19500000000E+09 +7.04518368089E-02 -5.08432861942E-01 +1.43240181953E-03 +6.38069607323E-04 +1.46738815198E-03 +6.90967595375E-04 +2.03792649331E-01 -6.02067344740E-01
4.20000000000E+09 +4.97109439166E-02 -5.02893019124E-01 +1.11351565044E-03 +5.27691455490E-04 +1.19696062083E-03 +5.42977112482E-04 +1.83066143254E-01 -6.00419711283E-01
4.20500000000E+09 +2.95200066749E-02 -4.97793028308E-01 +1.62404926561E-03 +4.25944341639E-04 +1.70656901431E-03 +4.66408602815E-04 +1.60595010571E-01 -5.98587449297E-01
4.21000000000E+09 +1.01210999172E-02 -4.92501667104E-01 +1.48239227883E-03 -2.66906820965E-04 +1.49231324090E-03 -2.08067588474E-04 +1.38012174246E-01 -5.95800608579E-01
4.21500000000E+09 -7.63605417141E-03 -4.86405344492E-01 +9.66746328957E-04 +5.77530596756E-05 +9.59934704697E-04 +2.37605795312E-05 +1.16064608862E-01 -5.93405593682E-01
4.22000000000E+09 -2.43144806797E-02 -4.80083698759E-01 +1.42489380644E-03 +9.06357000186E-05 +1.38504104885E-03 +1.35777907419E-04 +9.43444822222E-02 -5.90458055516E-01
4.22500000000E+09 -4.04151213303E-02 -4.71712769138E-01 +1.76203433046E-03 -1.92166261866E-04 +1.77918809574E-03 -1.53674326075E-04 +7.25945950171E-02 -5.85975680083E-01
4.23000000000E+09 -5.57539319599E-02 -4.61613763763E-01 +1.61901365574E-03 -9.45265771012E-04 +1.69963890936E-03 -8.88697346744E-04 +5.17434272850E-02 -5.80575929163E-01
4.23500000000E+09 -7.19926503426E-02 -4.49487370360E-01 +1.01435543820E-03 -1.05644809221E-03 +1.06025062030E-03 -1.07088369566E-03 +2.95658600965E-02 -5.73808460414E-01
4.24000000000E+09 -8.85392272258E-02 -4.35466922275E-01 +8.58915266528E-04 -7.86294831210E-04 +9.36558909376E-04 -8.38237103232E-04 +7.58028485793E-03 -5.65856341931E-01
4.24500000000E+09 -1.05537438641E-01 -4.21122845481E-01 +1.11024606248E-03 -9.92506786004E-04 +1.16940829490E-03 -1.05350578074E-03 -1.52090226008E-02 -5.57897966920E-01
4.25000000000E+09 -1.24392409486E-01 -4.07267686513E-01 +5.59271784505E-04 -1.53510548031E-03 +5.95721747627E-04 -1.55100028322E-03 -3.73976697236E-02 -5.48838877160E-01
4.25500000000E+09 -1.44160516027E-01 -3.93923299875E-01 +3.29226337239E-04 -7.05656159492E-04 +3.23942805261E-04 -6.96033366925E-04 -5.82199946339E-02 -5.39526676044E-01
4.26000000000E+09 -1.64792339051E-01 -3.81249909773E-01 +9.91246919729E-04 -9.90057145463E-04 +1.00181152592E-03 -1.02224040524E-03 -7.92795698411E-02 -5.29014199695E-01
4.26500000000E+09 -1.85165856357E-01 -3.68593777100E-01 +6.46885796873E-04 -1.59607085667E-03 +6.65604085978E-04 -1.69391821312E-03 -9.90530341770E-02 -5.17508161521E-01
4.27000000000E+09 -2.02968155958E-01 -3.55752649411E-01 -5.70477859101E-06 -1.58783732176E-03 -2.57448541878E-05 -1.63036819616E-03 -1.20582325055E-01 -5.05490740254E-01
4.27500000000E+09 -2.18396265720E-01 -3.43123922720E-01 -1.89385379300E-04 -1.49137229064E-03 -1.29597534023E-04 -1.53005359351E-03 -1.42196206245E-01 -4.90684284516E-01
4.28000000000E+09 -2.31719541191E-01 -3.29843654096E-01 -7.44618302476E-04 -1.20001732491E-03 -7.81665583117E-04 -1.23485484734E-03 -1.62390285367E-01 -4.76070712933E-01
4.28500000000E+09 -2.43215068975E-01 -3.15229723478E-01 -4.10552970827E-04 -5.33372049042E-04 -3.72840461078E-04 -5.46376041006E-04 -1.82623449932E-01 -4.62001764079E-01
4.29000000000E+09 -2.53622402112E-01 -2.98848843120E-01 -3.26684528712E-04 -6.85623672263E-04 -3.30518375842E-04 -6.81968958182E-04 -2.01825878731E-01 -4.46732955652E-01
4.29500000000E+09 -2.63492786364E-01 -2.80485796308E-01 +1.94086655772E-04 -5.42241432521E-04 +1.95391706909E-04 -5.23054386506E-04 -2.20047537627E-01 -4.31176359514E-01
4.30000000000E+09 -2.74031238649E-01 -2.61035730401E-01 +2.12076242538E-04 -1.37904783857E-03 +2.00584323833E-04 -1.39970253500E-03 -2.37305536924E-01 -4.14230875888E-01
4.30500000000E+09 -2.85726716945E-01 -2.40230317223E-01 -6.27833338309E-04 -1.67130347510E-03 -6.33383659717E-04 -1.68814087948E-03 -2.54177182500E-01 -3.96214219345E-01
4.31000000000E+09 -2.98491700130E-01 -2.19017036195E-01 -1.01155232142E-03 -9.11795051535E-04 -1.09271877606E-03 -8.94780373969E-04 -2.70823614584E-01 -3.77856422936E-01
4.31500000000E+09 -3.11593495936E-01 -1.98150447356E-01 -9.24505598790E-04 -9.30136705667E-04 -9.12943990049E-04 -9.61459333758E-04 -2.87413831669E-01 -3.58283479586E-01
4.32000000000E+09 -3.24071053626E-01 -1.78632324714E-01 -1.25832244155E-03 -4.68446454452E-04 -1.28093752428E-03 -4.59230743487E-04 -3.02184178280E-01 -3.38335565783E-01
4.32500000000E+09 -3.36058108814E-01 -1.60296747310E-01 -5.03845108721E-04 -2.25157415204E-04 -5.00142145195E-04 -2.39572758721E-04 -3.17292839987E-01 -3.18695751933E-01
4.33000000000E+09 -3.44702684511E-01 -1.42961799906E-01 -7.96734592385E-04 -7.08519980731E-04 -8.19970309067E-04 -7.26132781747E-04 -3.30509414829E-01 -2.96847689320E-01
4.33500000000E+09 -3.51963551678E-01 -1.27729022149E-01 -6.65625629176E-04 -3.14222989366E-04 -6.50838216718E-04 -2.25853570360E-04 -3.43286267684E-01 -2.75311256099E-01
4.34000000000E+09 -3.57802715908E-01 -1.11208677378E-01 -6.76662129172E-04 -7.46229473350E-04 -6.77074599838E-04 -7.54336387986E-04 -3.55760942731E-01 -2.51619830922E-01
4.34500000000E+09 -3.60128077614E-01 -9.26906944647E-02 -1.38969764423E-03 -9.97785474636E-04 -1.39766410920E-03 -1.00194770662E-03 -3.66817178071E-01 -2.28651137824E-01
4.35000000000E+09 -3.61510013535E-01 -7.36404520845E-02 -1.59182238981E-03 +8.70139841234E-05 -1.59135567108E-03 +8.89520486178E-05 -3.78529729122E-01 -2.05323333663E-01
4.35500000000E+09 -3.61726031472E-01 -5.21074157032E-02 -1.23634216008E-03 +2.24844512369E-04 -1.28352585711E-03 +1.31573425962E-04 -3.87940783843E-01 -1.81190650446E-01
4.36000000000E+09 -3.62601262871E-01 -3.01376283049E-02 -1.09852104223E-03 +4.08285043726E-04 -1.10889440317E-03 +4.12585577888E-04 -3.95713812763E-01 -1.58268770115E-01
4.36500000000E+09 -3.65123710180E-01 -6.95553712898E-03 -7.25293335737E-04 +4.37196510817E-04 -7.60143132202E-04 +4.43046576477E-04 -4.03296017798E-01 -1.35172987952E-01
4.37000000000E+09 -3.68432116283E-01 +1.66768651790E-02 -6.98065024630E-04 +2.88788122687E-04 -6.56534608379E-04 +3.40576415151E-04 -4.09185573345E-01 -1.10754874642E-01
4.37500000000E+09 -3.73076828216E-01 +3.89668290823E-02 -3.44509848059E-04 -6.91282774158E-05 -3.94935795442E-04 -3.48438464311E-05 -4.14127449731E-01 -8.58864431677E-02
4.38000000000E+09 -3.77650923749E-01 +6.03553387730E-02 -1.22115215412E-03 -3.64111914600E-04 -1.21772387982E-03 -3.51459047560E-04 -4.18098315806E-01 -6.17033205505E-02
4.38500000000E+09 -3.80272562839E-01 +7.91827943179E-02 -1.56487530968E-03 +5.84506089642E-04 -1.60741693283E-03 +6.55624847382E-04 -4.21927844995E-01 -3.70204972144E-02
4.39000000000E+09 -3.83005435957E-01 +9.52278640757E-02 -6.89597860099E-04 +9.58305128424E-04 -7.25981106866E-04 +1.00485456787E-03 -4.24249124474E-01 -1.25729400703E-02
4.39500000000E+09 -3.83078864659E-01 +1.10911249422E-01 -6.86465619083E-04 +5.61718422605E-04 -7.54582868065E-04 +5.19032013429E-04 -4.26035812268E-01 +1.12948076455E-02
4.40000000000E+09 -3.80710998353E-01 +1.26056287744E-01 -5.76241222938E-04 +9.57920805591E-04 -5.75038391538E-04 +9.78939235339E-04 -4.25756071167E-01 +3.50898172889E-02
4.40500000000E+09 -3.75781160797E-01 +1.41691781532E-01 -2.85233784308E-04 +4.36810912765E-04 -3.15309438674E-04 +4.50776037526E-04 -4.25763228180E-01 +5.89036153775E-02
4.41000000000E+09 -3.69479375545E-01 +1.58151042981E-01 -6.44659056904E-04 +3.89517073981E-04 -6.07254385872E-04 +4.22806197942E-04 -4.24083032558E-01 +8.37631057595E-02
4.41500000000E+09 -3.62785084079E-01 +1.77118924963E-01 -6.68182164835E-04 +5.75692614831E-04 -6.88652098091E-04 +5.76208661847E-04 -4.22256621286E-01 +1.07019970364E-01
4.42000000000E+09 -3.56349515158E-01 +1.97969614855E-01 -9.06618477745E-04 +5.67465594651E-04 -8.96441931230E-04 +6.24849406881E-04 -4.19764820569E-01 +1.31842827818E-01
4.42500000000E+09 -3.50730137249E-01 +2.19787734168E-01 -9.70082849309E-04 +9.93615042090E-04 -1.01359764368E-03 +1.02946392570E-03 -4.14291892232E-01 +1.54664465911E-01
4.43000000000E+09 -3.46248441487E-01 +2.42511417765E-01 -8.02576608410E-04 +1.48475197084E-03 -8.27600496689E-04 +1.45966986023E-03 -4.10711661136E-01 +1.76944976192E-01
4.43500000000E+09 -3.41471169698E-01 +2.64324557418E-01 -2.57217417237E-04 +1.59349449293E-03 -2.33935751539E-04 +1.54256803857E-03 -4.04154854512E-01 +2.00435827528E-01
4.44000000000E+09 -3.37113308137E-01 +2.82042472263E-01 +1.48213016092E-04 +1.42716104108E-03 +1.15915507797E-04 +1.43280686663E-03 -3.97592599980E-01 +2.21790357211E-01
4.44500000000E+09 -3.34802785612E-01 +2.97800520770E-01 +1.41452622605E-04 +9.29919578124E-04 +1.06559367363E-04 +9.53450757609E-04 -3.90750132558E-01 +2.43726837481E-01
4.45000000000E+09 -3.31973381622E-01 +3.11684325417E-01 -1.12504805112E-04 +1.13718615089E-03 -1.08383896454E-04 +1.13394037122E-03 -3.83376808927E-01 +2.64025334345E-01
4.45500000000E+09 -3.26977528535E-01 +3.24605356682E-01 -2.90684231857E-05 +1.41327178137E-03 -5.23389612352E-05 +1.39872791603E-03 -3.75345606860E-01 +2.84043118335E-01
4.46000000000E+09 -3.19976333835E-01 +3.36641511574E-01 +3.47934936001E-04 +1.37149862986E-03 +3.06433412254E-04 +1.35059379192E-03 -3.67118544781E-01 +3.03051354168E-01
4.46500000000E+09 -3.10644050104E-01 +3.49359822968E-01 +4.67512220381E-04 +1.35664780594E-03 +4.82273142344E-04 +1.34921003987E-03 -3.57341508346E-01 +3.22618808094E-01
4.47000000000E+09 -2.99021634267E-01 +3.63207298541E-01 +7.66845735526E-04 +1.39359432701E-03 +8.42244329815E-04 +1.33912842328E-03 -3.46239034308E-01 +3.41098544182E-01
4.47500000000E+09 -2.86070865839E-01 +3.77746012260E-01 +8.08212254839E-04 +1.20007020389E-03 +7.92877899395E-04 +1.17827750535E-03 -3.35797486458E-01 +3.59823300714E-01
4.48000000000E+09 -2.74256683986E-01 +3.94220123432E-01 +1.23127511059E-03 +1.14760183369E-03 +1.28544923647E-03 +1.13600933202E-03 -3.23968594197E-01 +3.78054362159E-01
4.48500000000E+09 -2.61795322539E-01 +4.11467283548E-01 +9.96467399804E-04 +5.69181273631E-04 +1.00547577414E-03 +6.15396609596E-04 -3.12764332653E-01 +3.95034499469E-01
4.49000000000E+09 -2.51420637264E-01 +4.27664218181E-01 +9.53519219938E-04 +8.81347379641E-04 +9.54799224166E-04 +8.70946755070E-04 -3.01672055259E-01 +4.11140379092E-01
4.49500000000E+09 -2.43054661400E-01 +4.43292790092E-01 +1.25145536186E-03 +8.34881197067E-04 +1.17634041757E-03 +7.99029021822E-04 -2.90595624156E-01 +4.26675074604E-01
4.50000000000E+09 -2.36457655759E-01 +4.56292526072E-01 +1.15881434918E-03 +7.93195981197E-04 +1.15862814010E-03 +8.14446047953E-04 -2.78377529588E-01 +4.42360412177E-01
4.50500000000E+09 -2.31263604581E-01 +4.68508783601E-01 +1.72554701936E-03 +6.76590926775E-04 +1.68510045827E-03 +6.43021873584E-04 -2.65278880541E-01 +4.57249135820E-01
4.51000000000E+09 -2.24639226482E-01 +4.78374220976E-01 +1.80390390642E-03 +2.45473495950E-05 +1.81292539866E-03 +6.72458512965E-06 -2.51828625026E-01 +4.71981711610E-01
4.51500000000E+09 -2.17192641782E-01 +4.86035666422E-01 +1.39253187981E-03 -1.18486811046E-04 +1.38736302349E-03 -1.67242670566E-04 -2.38163290140E-01 +4.86158370718E-01
4.52000000000E+09 -2.07289077141E-01 +4.93608711933E-01 +1.49274626154E-03 -9.53243292454E-05 +1.44275000578E-03 -1.56573303130E-04 -2.25016649216E-01 +4.99338284546E-01
4.52500000000E+09 -1.95242465254E-01 +4.99268946281E-01 +1.55024148466E-03 -3.64583297383E-04 +1.42201988869E-03 -4.48716177491E-04 -2.11540550771E-01 +5.11668952220E-01
4.53000000000E+09 -1.82155204346E-01 +5.06718076547E-01 +1.32111757022E-03 -4.73377918945E-04 +1.30755188290E-03 -4.99633516038E-04 -1.97671727612E-01 +5.22881415878E-01
4.53500000000E+09 -1.66872889738E-01 +5.15237728562E-01 +1.11157324799E-03 -4.51911773613E-04 +1.09036496804E-03 -4.78561227313E-04 -1.83617061922E-01 +5.34633187673E-01
4.54000000000E+09 -1.51707481081E-01 +5.24745880621E-01 +1.45427011735E-03 -3.23416614067E-04 +1.45047367492E-03 -3.45739712085E-04 -1.67747497749E-01 +5.45534817667E-01
4.54500000000E+09 -1.36423287295E-01 +5.35753824198E-01 +1.57176132255E-03 -9.64350605193E-04 +1.46836135787E-03 -1.00382133474E-03 -1.53065948449E-01 +5.55257769069E-01
4.55000000000E+09 -1.22509386039E-01 +5.45621652253E-01 +1.31089997662E-03 -1.07066111521E-03 +1.25829047645E-03 -1.01670080646E-03 -1.38373968797E-01 +5.65814418816E-01
4.55500000000E+09 -1.11226383180E-01 +5.55404686213E-01 +1.12389320630E-03 -1.37286304465E-03 +1.10499296550E-03 -1.43330853531E-03 -1.24028808953E-01 +5.75485455087E-01
4.56000000000E+09 -1.01097619258E-01 +5.64252401835E-01 +6.47900638661E-04 -1.43748041270E-03 +5.93237114678E-04 -1.39781846596E-03 -1.09591675800E-01 +5.84280221433E-01
4.56500000000E+09 -9.24887420235E-02 +5.71478389636E-01 +5.73974263332E-04 -1.34257208795E-03 +5.80140572909E-04 -1.31950965436E-03 -9.57536277277E-02 +5.92821921254E-01
4.57000000000E+09 -8.35312173677E-02 +5.78008488727E-01 +5.34714301577E-04 -1.39051881321E-03 +5.17978094228E-04 -1.31961955184E-03 -8.02520686146E-02 +6.01442581339E-01
