# Hz S RI R 50
! CMT, C1220, 16058040, 17.2.0/1
! Date: 15/08/2018 12:26:38
! Data: Format (Calibration Info)
! Freq                      S11: Re/Im (F2)                       S21: Re/Im (F2)                       S12: Re/Im (F2)                       S22: Re/Im (F2)            
4.00000000000E+09 +6.64205539581E-01 -3.58248667904E-01 -2.06654900776E-04 -9.39957735827E-04 -1.49687227122E-04 -9.44452071385E-04 +7.83486459332E-01 -3.17452163507E-01
4.00500000000E+09 +6.55833859740E-01 -3.65020910836E-01 -2.90402188391E-04 -8.35838750658E-04 -2.44782589709E-04 -8.74845488833E-04 +7.75052239792E-01 -3.29154358490E-01
4.01000000000E+09 +6.46724782154E-01 -3.71637668589E-01 -4.06303412735E-04 -8.74604569837E-04 -3.62734641458E-04 -8.38778959796E-04 +7.66241898046E-01 -3.40893392852E-01
4.01500000000E+09 +6.37220184511E-01 -3.78417750127E-01 -5.12333543513E-04 -7.22011592033E-04 -4.70459119770E-04 -7.24043352144E-04 +7.57480235214E-01 -3.51913280667E-01
4.02000000000E+09 +6.27088049105E-01 -3.86697990497E-01 -4.99788720851E-04 -6.88015676747E-04 -4.79681595141E-04 -7.16441414145E-04 +7.48321358939E-01 -3.62875981950E-01
4.02500000000E+09 +6.16364623618E-01 -3.96259255043E-01 -5.70226921659E-04 -7.08354885160E-04 -5.66578120497E-04 -6.84780108691E-04 +7.38642717360E-01 -3.72797410440E-01
4.03000000000E+09 +6.04710910065E-01 -4.06362066246E-01 -8.60196853053E-04 -6.84559318768E-04 -7.76562706300E-04 -7.55075811679E-04 +7.28867254643E-01 -3.83228121068E-01
4.03500000000E+09 +5.93620733444E-01 -4.16281565576E-01 -7.92229865245E-04 -4.58398166452E-04 -8.26181223751E-04 -5.06736841672E-04 +7.17894924038E-01 -3.94200092606E-01
4.04000000000E+09 +5.82460993167E-01 -4.26475416317E-01 -9.62957871971E-04 -4.64177259140E-04 -8.97787379466E-04 -4.90846793221E-04 +7.07372874596E-01 -4.05183879489E-01
4.04500000000E+09 +5.70613577822E-01 -4.35859627371E-01 -9.06629615480E-04 -1.32836871968E-04 -9.26936114356E-04 -1.67781077768E-04 +6.96656344234E-01 -4.16569592121E-01
4.05000000000E+09 +5.58906146307E-01 -4.42997267319E-01 -7.16989202221E-04 +1.48250605027E-06 -7.22355695499E-04 -5.51240084803E-05 +6.85445752834E-01 -4.27282140163E-01
4.05500000000E+09 +5.47232200477E-01 -4.49366011105E-01 -6.12494721845E-04 -9.18032290072E-05 -6.41751494064E-04 -1.40071587088E-04 +6.74159732158E-01 -4.36726848810E-01
4.06000000000E+09 +5.34299815303E-01 -4.54353409992E-01 -6.88649873944E-04 -1.47909433709E-04 -6.95735364740E-04 -2.27144652666E-04 +6.62782842353E-01 -4.46279165009E-01
4.06500000000E+09 +5.21259723890E-01 -4.58339281441E-01 -7.33897996166E-04 -1.63826994852E-04 -7.41971726735E-04 -2.50456729753E-04 +6.50060996194E-01 -4.55494808081E-01
4.07000000000E+09 +5.07135206504E-01 -4.62960941851E-01 -8.09779346881E-04 -8.94417026877E-05 -8.91895970047E-04 -1.55068299439E-04 +6.36962534554E-01 -4.65334677834E-01
4.07500000000E+09 +4.92153070021E-01 -4.67896597891E-01 -8.41489242751E-04 -5.75323634679E-05 -9.38736304149E-04 -8.41295141103E-05 +6.23579874619E-01 -4.75557022905E-01
4.08000000000E+09 +4.76140308668E-01 -4.73807733541E-01 -1.00330675872E-03 +8.83021978527E-05 -9.89915190259E-04 +6.23315420606E-05 +6.10035657002E-01 -4.85291569778E-01
4.08500000000E+09 +4.59080602129E-01 -4.80020187047E-01 -9.30976834281E-04 +2.84410593164E-04 -1.02201656554E-03 +2.25757287890E-04 +5.96840649720E-01 -4.94829181411E-01
4.09000000000E+09 +4.42418899104E-01 -4.86420629098E-01 -8.50877796655E-04 +2.60630811247E-04 -9.45372341120E-04 +2.20270995846E-04 +5.83041698348E-01 -5.03567995259E-01
4.09500000000E+09 +4.26003240048E-01 -4.93008755762E-01 -9.24421453913E-04 +2.72351201007E-04 -9.94951120631E-04 +2.62582365606E-04 +5.68883044724E-01 -5.11343770872E-01
4.10000000000E+09 +4.09061390354E-01 -4.98666536852E-01 -9.47627040636E-04 +4.89792017550E-04 -1.01056848453E-03 +4.98363911554E-04 +5.53824927338E-01 -5.19374527946E-01
4.10500000000E+09 +3.92916962498E-01 -5.02735423368E-01 -1.04253598183E-03 +5.59877433162E-04 -1.03830068166E-03 +6.11012609382E-04 +5.37749248625E-01 -5.27351206875E-01
4.11000000000E+09 +3.77053213538E-01 -5.05839624491E-01 -8.86668832941E-04 +8.31215289696E-04 -9.06684582442E-04 +8.36249835070E-04 +5.21262230609E-01 -5.35335405459E-01
4.11500000000E+09 +3.60784443219E-01 -5.07314499024E-01 -7.33868050394E-04 +9.32419894887E-04 -7.43675938112E-04 +9.30752329861E-04 +5.04928042265E-01 -5.42650632837E-01
4.12000000000E+09 +3.43825079440E-01 -5.07811528543E-01 -5.94635573564E-04 +1.00334890272E-03 -5.83099013535E-04 +1.03699475535E-03 +4.89163268448E-01 -5.50168313309E-01
4.12500000000E+09 +3.26799173504E-01 -5.07706332958E-01 -4.19521313865E-04 +9.75636794067E-04 -4.76166372851E-04 +1.04441615814E-03 +4.72500634987E-01 -5.56856741018E-01
4.13000000000E+09 +3.08726124219E-01 -5.09208008149E-01 -2.87413007953E-04 +8.18648953646E-04 -2.95434274233E-04 +8.49931429272E-04 +4.55544874883E-01 -5.63092388356E-01
4.13500000000E+09 +2.89009472518E-01 -5.10599985125E-01 -4.93379250916E-04 +9.23824894775E-04 -5.46459647811E-04 +9.72717757659E-04 +4.37213969708E-01 -5.68944316729E-01
4.14000000000E+09 +2.69790498925E-01 -5.12905623843E-01 -4.21044895686E-04 +1.15072706185E-03 -4.16190336824E-04 +1.19237135871E-03 +4.18103922582E-01 -5.74532642679E-01
4.14500000000E+09 +2.49697676695E-01 -5.17084732395E-01 -2.62695887600E-04 +1.26771188864E-03 -3.18120656871E-04 +1.32180636903E-03 +3.99311200860E-01 -5.79531520544E-01
4.15000000000E+09 +2.28843573103E-01 -5.20201238795E-01 +6.47070805387E-05 +1.48454770431E-03 +2.73126272043E-05 +1.49201555858E-03 +3.81194688586E-01 -5.84879716326E-01
4.15500000000E+09 +2.09751416301E-01 -5.22603050479E-01 +4.11145646766E-04 +1.44763728061E-03 +3.85939491120E-04 +1.50332329666E-03 +3.62570488658E-01 -5.89303623952E-01
4.16000000000E+09 +1.91706681150E-01 -5.24354731487E-01 +7.28539329260E-04 +1.15283878960E-03 +7.07212002202E-04 +1.19535301000E-03 +3.44775311698E-01 -5.91830543668E-01
4.16500000000E+09 +1.73881227464E-01 -5.23957474339E-01 +6.51512638360E-04 +7.46890966108E-04 +6.33936844910E-04 +7.81227726127E-04 +3.25814919907E-01 -5.95257226588E-01
4.17000000000E+09 +1.57065395812E-01 -5.21295041562E-01 +3.76644450392E-04 +9.05273567382E-04 +3.21811844487E-04 +9.26393451447E-04 +3.05910609796E-01 -5.97057609649E-01
4.17500000000E+09 +1.41473478273E-01 -5.16489334332E-01 +7.02930693133E-04 +1.05647293361E-03 +7.10872344484E-04 +1.14596401032E-03 +2.85051351495E-01 -5.98934092958E-01
4.18000000000E+09 +1.25708621468E-01 -5.11889655099E-01 +8.60267907416E-04 +5.52693962942E-04 +7.98008956983E-04 +6.38405672235E-04 +2.64378162304E-01 -6.00559598926E-01
4.18500000000E+09 +1.08167276935E-01 -5.06287630782E-01 +4.22084787242E-04 +8.58316704757E-04 +4.08219328032E-04 +9.03898165382E-04 +2.43302763015E-01 -6.01485403620E-01
4.19000000000E+09 +9.02059272534E-02 -5.00474211382E-01 +8.93986302209E-04 +1.03140158752E-03 +8.92792561494E-04 +1.09895678574E-03 +2.23042907695E-01 -6.01591888498E-01
4.19500000000E+09 +7.07605179294E-02 -4.95298879300E-01 +1.07737554094E-03 +6.66534170003E-04 +1.06006393463E-03 +7.00142120365E-04 +2.02351390352E-01 -6.00534551307E-01
4.20000000000E+09 +5.05440809518E-02 -4.89367953277E-01 +9.90354696429E-04 +7.55435360127E-04 +1.00146196283E-03 +7.96709385479E-04 +1.82031343200E-01 -5.99034427396E-01
4.20500000000E+09 +3.12815437834E-02 -4.83775142794E-01 +1.53805964744E-03 +5.69575807126E-04 +1.54200228407E-03 +6.07454543269E-04 +1.59471274683E-01 -5.97124747680E-01
4.21000000000E+09 +1.30169758371E-02 -4.78093512275E-01 +1.35252251352E-03 +1.85037134787E-05 +1.42343864904E-03 +3.47667180799E-05 +1.37316295541E-01 -5.94283000845E-01
4.21500000000E+09 -3.79843355110E-03 -4.72221106035E-01 +1.08157587916E-03 +1.66388262188E-04 +1.10009673708E-03 +2.05780585105E-04 +1.15326749460E-01 -5.91530566765E-01
4.22000000000E+09 -2.02063777964E-02 -4.65497123697E-01 +1.16424032678E-03 +5.14338294328E-05 +1.23037436055E-03 +1.13735466316E-04 +9.39423685297E-02 -5.88507863371E-01
4.22500000000E+09 -3.53325464444E-02 -4.56335706760E-01 +1.47360262542E-03 +1.71015569904E-04 +1.54008127929E-03 +2.12644981138E-04 +7.22349665602E-02 -5.84353806507E-01
4.23000000000E+09 -4.96503615977E-02 -4.46588601928E-01 +1.48940500457E-03 -6.41507112960E-04 +1.52376217205E-03 -6.58926096731E-04 +5.09514489185E-02 -5.78804102373E-01
4.23500000000E+09 -6.56451850828E-02 -4.34592765570E-01 +8.64570789139E-04 -4.96927053479E-04 +8.54078254472E-04 -5.51153384462E-04 +2.90439244671E-02 -5.71967140731E-01
4.24000000000E+09 -8.14082281204E-02 -4.20354759027E-01 +9.35031799699E-04 -1.24601213086E-04 +1.01031318818E-03 -1.53101197349E-04 +7.35947587625E-03 -5.63936817886E-01
4.24500000000E+09 -9.76214003574E-02 -4.07161638142E-01 +1.41671318152E-03 -3.50197656163E-04 +1.43361614765E-03 -3.25602118574E-04 -1.51494206869E-02 -5.55768950342E-01
4.25000000000E+09 -1.16796896824E-01 -3.93825725903E-01 +1.26266324266E-03 -1.01919215815E-03 +1.27662919284E-03 -1.03158955348E-03 -3.69473862173E-02 -5.46533752414E-01
4.25500000000E+09 -1.36284575239E-01 -3.80715725397E-01 +9.35387948649E-04 -7.68407184846E-04 +9.97467009960E-04 -7.61153997683E-04 -5.74078241503E-02 -5.36962928499E-01
4.26000000000E+09 -1.56023805299E-01 -3.68285072068E-01 +1.20766198525E-03 -1.09530829785E-03 +1.22751508894E-03 -1.10705065073E-03 -7.80021059773E-02 -5.26294332678E-01
4.26500000000E+09 -1.75764970123E-01 -3.56464555598E-01 +8.59387996397E-04 -1.70060088218E-03 +8.06000276919E-04 -1.72361126587E-03 -9.72554554839E-02 -5.15284180578E-01
4.27000000000E+09 -1.93105081365E-01 -3.44056208135E-01 -6.53258540121E-05 -1.44909655101E-03 -6.24107553226E-05 -1.48999804818E-03 -1.18948975777E-01 -5.03653526308E-01
4.27500000000E+09 -2.08262371206E-01 -3.32003937690E-01 +9.07053712230E-05 -9.73382487223E-04 +6.73032985243E-05 -1.02332079905E-03 -1.40205413416E-01 -4.89070332666E-01
4.28000000000E+09 -2.20938287571E-01 -3.18692593697E-01 -1.09077322518E-04 -1.04943242274E-03 -8.01704012532E-05 -1.00382213565E-03 -1.60074481527E-01 -4.75016850681E-01
4.28500000000E+09 -2.31799400445E-01 -3.04413996647E-01 +1.50381225834E-05 -7.21173998970E-04 +6.52493173620E-05 -6.42396267649E-04 -1.80301912589E-01 -4.61100055147E-01
4.29000000000E+09 -2.41647822373E-01 -2.87947248753E-01 +4.21555410637E-05 -6.82847374480E-04 +4.36210440479E-05 -6.32729958343E-04 -1.99252438576E-01 -4.46139889502E-01
4.29500000000E+09 -2.50744440535E-01 -2.70533028849E-01 +4.33055121272E-04 -8.20025552945E-04 +5.01319831016E-04 -8.37668829382E-04 -2.17474693748E-01 -4.31042882048E-01
4.30000000000E+09 -2.61212631534E-01 -2.51766452587E-01 -1.31853302772E-05 -1.26024252419E-03 -3.21606689724E-05 -1.29386655465E-03 -2.35227841278E-01 -4.14133141456E-01
4.30500000000E+09 -2.73158028656E-01 -2.31800808044E-01 -4.33951383549E-04 -1.03329389396E-03 -4.47092752360E-04 -1.09593784952E-03 -2.52179478859E-01 -3.96182885096E-01
4.31000000000E+09 -2.85820579578E-01 -2.10798951332E-01 -3.62642492514E-04 -5.06060082579E-04 -3.66856964364E-04 -5.44770836805E-04 -2.68700466474E-01 -3.77967892401E-01
4.31500000000E+09 -2.98578778977E-01 -1.90557139555E-01 -2.58226291626E-04 -6.33979494355E-04 -2.53120509189E-04 -6.57644374887E-04 -2.85218124029E-01 -3.58766037985E-01
4.32000000000E+09 -3.10816143194E-01 -1.72086777395E-01 -1.91477471954E-04 -3.22039613011E-04 -1.86660718894E-04 -3.47519826264E-04 -3.00148203827E-01 -3.39036956220E-01
4.32500000000E+09 -3.22326759083E-01 -1.54575104024E-01 +5.15259589660E-04 -7.07962770831E-04 +5.82740159731E-04 -7.09880523969E-04 -3.15255874626E-01 -3.19243482522E-01
4.33000000000E+09 -3.31040201477E-01 -1.38246732238E-01 -9.87054007416E-05 -1.10312024101E-03 -1.57106031881E-04 -1.13092775488E-03 -3.28301867734E-01 -2.97543919095E-01
4.33500000000E+09 -3.38315518616E-01 -1.24014402047E-01 +8.67251533388E-06 -9.08946281255E-04 -5.25323700930E-05 -9.17396225019E-04 -3.40836870986E-01 -2.76254250858E-01
4.34000000000E+09 -3.44245289938E-01 -1.07700435503E-01 -1.84038020165E-04 -1.15762988354E-03 -1.59466105354E-04 -1.15458582197E-03 -3.53117432946E-01 -2.52986504930E-01
4.34500000000E+09 -3.46198919168E-01 -8.99805109248E-02 -6.87770753157E-04 -1.50273997499E-03 -7.19942508456E-04 -1.45427921229E-03 -3.64230532910E-01 -2.30295260864E-01
4.35000000000E+09 -3.48032393977E-01 -7.14423478855E-02 -9.61232057785E-04 -7.23122346790E-04 -9.48278782648E-04 -7.10128692056E-04 -3.75992475032E-01 -2.07592174910E-01
4.35500000000E+09 -3.48366064621E-01 -5.04640837023E-02 -6.67083211142E-04 -7.28587807275E-04 -6.67589171318E-04 -7.45730312524E-04 -3.86120495155E-01 -1.84278114292E-01
4.36000000000E+09 -3.49491515874E-01 -2.85746479918E-02 -7.05672541906E-04 -8.18667886569E-04 -7.17449725915E-04 -8.32533533688E-04 -3.94412578424E-01 -1.61450412369E-01
4.36500000000E+09 -3.52057247039E-01 -5.91781980269E-03 -7.96717101093E-04 -7.50620367172E-04 -8.13014212046E-04 -6.79402211920E-04 -4.02521979274E-01 -1.38559555540E-01
4.37000000000E+09 -3.55633369265E-01 +1.68479401103E-02 -8.44108291666E-04 -8.01688796189E-04 -8.87273804557E-04 -8.01645941058E-04 -4.08535387539E-01 -1.14358637422E-01
4.37500000000E+09 -3.60887862133E-01 +3.86749306272E-02 -7.13674382273E-04 -1.00101374553E-03 -7.89970089570E-04 -9.34958884562E-04 -4.14050334861E-01 -8.94387212974E-02
4.38000000000E+09 -3.65574504266E-01 +5.95420642624E-02 -1.48463130758E-03 -1.07518718078E-03 -1.51447725556E-03 -1.03477737291E-03 -4.18441419596E-01 -6.50957394014E-02
4.38500000000E+09 -3.68993801720E-01 +7.70221199842E-02 -1.67080481247E-03 -2.72851241217E-04 -1.68872983751E-03 -2.46183422811E-04 -4.22928915219E-01 -4.03191185459E-02
4.39000000000E+09 -3.72688257926E-01 +9.30991730728E-02 -1.18782498129E-03 -7.40795246024E-05 -1.14487573649E-03 -4.63009846698E-05 -4.25783757962E-01 -1.54120919811E-02
4.39500000000E+09 -3.72766723762E-01 +1.08607571199E-01 -1.33659430067E-03 -3.44228534918E-04 -1.30618534315E-03 -3.11047932875E-04 -4.27595288890E-01 +8.88924734991E-03
4.40000000000E+09 -3.70506988812E-01 +1.22837122052E-01 -1.19251285324E-03 +9.81928085592E-05 -1.16698986505E-03 +6.65474233664E-05 -4.27792350600E-01 +3.26814358383E-02
4.40500000000E+09 -3.66304015192E-01 +1.37368878340E-01 -1.22262008915E-03 -4.43672973977E-04 -1.26564462132E-03 -4.69135332129E-04 -4.27580623897E-01 +5.69421895044E-02
4.41000000000E+09 -3.61145068904E-01 +1.53121473570E-01 -1.61508208883E-03 -1.04362761294E-04 -1.63419109844E-03 -7.15502405544E-05 -4.25824346323E-01 +8.16090254796E-02
4.41500000000E+09 -3.55628222424E-01 +1.72157012289E-01 -1.52244699553E-03 +6.33352353176E-05 -1.52767600783E-03 +4.49405157073E-05 -4.23940528503E-01 +1.05174799161E-01
4.42000000000E+09 -3.49715235359E-01 +1.92821139154E-01 -1.88811645353E-03 +9.29345556141E-05 -1.90528115021E-03 +8.06523692180E-05 -4.21583593687E-01 +1.29978265646E-01
4.42500000000E+09 -3.44865464090E-01 +2.14987725034E-01 -1.94040003658E-03 +5.30826087862E-04 -1.88915648221E-03 +6.03481111417E-04 -4.16281603654E-01 +1.53095831526E-01
4.43000000000E+09 -3.39995546434E-01 +2.37558082370E-01 -2.01837065643E-03 +9.47767180125E-04 -2.01861450199E-03 +9.58138882464E-04 -4.13040706173E-01 +1.75376629482E-01
4.43500000000E+09 -3.35788181250E-01 +2.58019857388E-01 -1.81363871044E-03 +1.32968201179E-03 -1.83863864498E-03 +1.41718453991E-03 -4.06690133055E-01 +1.99159594980E-01
4.44000000000E+09 -3.32937078639E-01 +2.75570300655E-01 -1.29094763487E-03 +1.55278128616E-03 -1.24268884400E-03 +1.53889930952E-03 -4.00445440444E-01 +2.20293848434E-01
4.44500000000E+09 -3.31250143034E-01 +2.91463672307E-01 -1.37546932095E-03 +1.28738334902E-03 -1.39713518276E-03 +1.30453719923E-03 -3.93932043289E-01 +2.42455701113E-01
4.45000000000E+09 -3.29029494304E-01 +3.05429629790E-01 -1.39491169368E-03 +1.72303607365E-03 -1.37893758108E-03 +1.77330249728E-03 -3.86760139772E-01 +2.63232476373E-01
4.45500000000E+09 -3.24588042361E-01 +3.18717541795E-01 -1.28293896949E-03 +2.08361963959E-03 -1.27779470524E-03 +2.10801083250E-03 -3.78484245939E-01 +2.83930827260E-01
4.46000000000E+09 -3.17623393812E-01 +3.31070945392E-01 -7.80478657518E-04 +2.25486281924E-03 -7.19638804906E-04 +2.28549502288E-03 -3.70123019398E-01 +3.03261052032E-01
4.46500000000E+09 -3.08542261741E-01 +3.43579853085E-01 -4.55483334868E-04 +2.31694797135E-03 -3.95706063592E-04 +2.33358765208E-03 -3.60359045099E-01 +3.23470654750E-01
4.47000000000E+09 -2.97342724659E-01 +3.57265300657E-01 -1.25683438614E-04 +2.36666589113E-03 -6.87927768550E-05 +2.41862464474E-03 -3.48887805675E-01 +3.42515183751E-01
4.47500000000E+09 -2.85235527227E-01 +3.71656368130E-01 -5.82731359935E-05 +2.36525847819E-03 +2.22949823654E-05 +2.34773506527E-03 -3.38348312074E-01 +3.61062878112E-01
4.48000000000E+09 -2.73885234655E-01 +3.88358471047E-01 +5.99597958893E-04 +2.60207104358E-03 +6.28610137855E-04 +2.51312170497E-03 -3.26373832055E-01 +3.79732628912E-01
4.48500000000E+09 -2.62021307406E-01 +4.05471822966E-01 +6.10757373702E-04 +2.15430302540E-03 +6.41775530087E-04 +2.08377955015E-03 -3.14675572035E-01 +3.96541028338E-01
4.49000000000E+09 -2.52424803818E-01 +4.21800431303E-01 +9.21209843046E-04 +2.47887467857E-03 +9.58751697480E-04 +2.39437870939E-03 -3.03364694401E-01 +4.12658672731E-01
4.49500000000E+09 -2.44271048384E-01 +4.37977441970E-01 +1.48556894488E-03 +2.15688237769E-03 +1.44427361119E-03 +2.09559227431E-03 -2.91957839762E-01 +4.28305353491E-01
4.50000000000E+09 -2.38014836612E-01 +4.51177921376E-01 +1.32592944436E-03 +1.99831629938E-03 +1.37045334730E-03 +1.94203990408E-03 -2.79421470150E-01 +4.44093402065E-01
4.50500000000E+09 -2.33192059467E-01 +4.63607995437E-01 +2.00673131980E-03 +2.01922372416E-03 +2.06306068515E-03 +1.98070241393E-03 -2.66267223625E-01 +4.58989625716E-01
4.51000000000E+09 -2.26613595432E-01 +4.73553716942E-01 +2.21394473036E-03 +1.26731039529E-03 +2.16828190236E-03 +1.22502736541E-03 -2.52642064896E-01 +4.73779098966E-01
4.51500000000E+09 -2.19824533114E-01 +4.81409329560E-01 +2.07619203757E-03 +1.18514794449E-03 +2.05395855538E-03 +1.17445859250E-03 -2.38966654586E-01 +4.87664490728E-01
4.52000000000E+09 -2.10304142076E-01 +4.89269063010E-01 +2.43107191329E-03 +9.22125737891E-04 +2.37258083186E-03 +8.72511447922E-04 -2.25876990062E-01 +5.00814981604E-01
4.52500000000E+09 -1.98791054335E-01 +4.95562256630E-01 +2.34951330510E-03 +4.73514315828E-04 +2.28576917343E-03 +4.00022262184E-04 -2.12190130459E-01 +5.13275829448E-01
4.53000000000E+09 -1.85933542908E-01 +5.03722564740E-01 +2.29651907969E-03 +3.73472740862E-04 +2.29820893346E-03 +3.03803131933E-04 -1.98385037006E-01 +5.24402423514E-01
4.53500000000E+09 -1.70702313447E-01 +5.12624629687E-01 +2.13450574020E-03 +1.15124490184E-04 +2.07693964374E-03 -4.67486392166E-07 -1.83971779806E-01 +5.36495746362E-01
4.54000000000E+09 -1.55709732255E-01 +5.22419586069E-01 +2.42932620966E-03 +2.74025218469E-04 +2.33795281915E-03 +2.09762749755E-04 -1.67573566593E-01 +5.47374501067E-01
4.54500000000E+09 -1.40819229216E-01 +5.33316169790E-01 +2.70402125022E-03 -4.97603777255E-04 +2.64042371454E-03 -5.20732225451E-04 -1.52837413062E-01 +5.56858576961E-01
4.55000000000E+09 -1.27814509839E-01 +5.43570289168E-01 +2.45701592409E-03 -7.28030261071E-04 +2.35209574513E-03 -7.54048571836E-04 -1.38041272389E-01 +5.67805127806E-01
4.55500000000E+09 -1.16492121092E-01 +5.54040198679E-01 +2.31515579163E-03 -1.17548649067E-03 +2.22797223800E-03 -1.16495669102E-03 -1.23238541502E-01 +5.77127730685E-01
4.56000000000E+09 -1.06398826723E-01 +5.63138194882E-01 +1.85417607368E-03 -1.27524370572E-03 +1.80537028588E-03 -1.25899300587E-03 -1.08722775268E-01 +5.85597310554E-01
4.56500000000E+09 -9.77399954377E-02 +5.70816264353E-01 +1.93211352141E-03 -1.46094343665E-03 +1.85632649237E-03 -1.46025316493E-03 -9.49376778702E-02 +5.93815397569E-01
4.57000000000E+09 -8.84829515559E-02 +5.77433763871E-01 +1.67264486517E-03 -1.70558708857E-03 +1.60183767525E-03 -1.70171095735E-03 -7.94370859429E-02 +6.02431506989E-01
