# Hz S RI R 50
! CMT, C1220, 16058040, 17.2.0/1
! Date: 15/08/2018 12:34:42
! Data: Format (Calibration Info)
! Freq                      S11: Re/Im (F2)                       S21: Re/Im (F2)                       S12: Re/Im (F2)                       S22: Re/Im (F2)            
4.00000000000E+09 +6.63735324533E-01 -3.67501388884E-01 -4.70804263146E-04 -6.24685541236E-04 -3.82060047513E-04 -6.64031863876E-04 +7.82405197616E-01 -3.17114081018E-01
4.00500000000E+09 +6.55431425614E-01 -3.74233800109E-01 -4.60103720599E-04 -5.71943163965E-04 -4.37855754296E-04 -6.29645172119E-04 +7.73943541230E-01 -3.28842722195E-01
4.01000000000E+09 +6.46152998905E-01 -3.80770522834E-01 -5.90640167382E-04 -5.61371084264E-04 -5.64871346231E-04 -5.67327162767E-04 +7.64861465062E-01 -3.40705288682E-01
4.01500000000E+09 +6.36329078431E-01 -3.87958564353E-01 -5.97019326464E-04 -2.96710346514E-04 -6.10695402603E-04 -3.87045628961E-04 +7.56214990095E-01 -3.51457509164E-01
4.02000000000E+09 +6.25770290922E-01 -3.96592463978E-01 -6.07465005866E-04 -3.52224584265E-04 -5.94037189905E-04 -3.91783395837E-04 +7.47247940349E-01 -3.61949584776E-01
4.02500000000E+09 +6.14815715083E-01 -4.06648467616E-01 -6.35536861081E-04 -2.87168349328E-04 -6.41348687664E-04 -3.31678987848E-04 +7.37552193246E-01 -3.71833900121E-01
4.03000000000E+09 +6.02834697342E-01 -4.17437835777E-01 -7.03320459623E-04 -3.43526858571E-04 -7.57038214054E-04 -3.95257367304E-04 +7.27901726272E-01 -3.81918947299E-01
4.03500000000E+09 +5.91380525918E-01 -4.27970675911E-01 -7.05392867281E-04 -1.22385918563E-04 -8.04561762161E-04 -1.25190387294E-04 +7.17001243808E-01 -3.92913776687E-01
4.04000000000E+09 +5.80372172875E-01 -4.38598590665E-01 -7.49798518926E-04 -6.25292280070E-05 -8.18989332849E-04 -5.99519578647E-05 +7.06366327892E-01 -4.04027545526E-01
4.04500000000E+09 +5.68846489710E-01 -4.48474736972E-01 -7.34164301490E-04 +9.84726040316E-05 -7.85857382293E-04 +9.91912167735E-05 +6.95677692948E-01 -4.15142927990E-01
4.05000000000E+09 +5.57568294313E-01 -4.56142354720E-01 -5.95646220968E-04 +2.34407665717E-04 -6.73803828859E-04 +1.97932946485E-04 +6.84774881297E-01 -4.25834869026E-01
4.05500000000E+09 +5.45858960555E-01 -4.62927655108E-01 -5.03418474254E-04 +1.62065540437E-04 -5.16483864785E-04 +1.63748936712E-04 +6.73604787912E-01 -4.35181749842E-01
4.06000000000E+09 +5.32984553831E-01 -4.67941781549E-01 -5.36513680182E-04 +6.74877149142E-05 -5.45928289985E-04 +8.98431568197E-05 +6.62569470061E-01 -4.44269442724E-01
4.06500000000E+09 +5.20034477361E-01 -4.71968900270E-01 -5.87069521071E-04 +1.42673936413E-05 -6.19598126865E-04 +8.83735842359E-05 +6.50482831767E-01 -4.53544830629E-01
4.07000000000E+09 +5.06016275828E-01 -4.76948234673E-01 -6.99580052312E-04 +3.89295324187E-05 -6.70772969006E-04 +8.71011549335E-05 +6.37608766333E-01 -4.63754018035E-01
4.07500000000E+09 +4.90652568074E-01 -4.82088548995E-01 -7.64509322478E-04 +1.91334429643E-04 -6.85310830543E-04 +2.11484102793E-04 +6.23977674945E-01 -4.74240397140E-01
4.08000000000E+09 +4.74549992520E-01 -4.88333906424E-01 -7.47967804328E-04 +3.03035368266E-04 -7.53502214536E-04 +3.17390408126E-04 +6.10452696879E-01 -4.84030986595E-01
4.08500000000E+09 +4.57262112653E-01 -4.94827424445E-01 -8.10244874975E-04 +5.14622108132E-04 -8.43939490026E-04 +5.06068736742E-04 +5.97321910868E-01 -4.93841527110E-01
4.09000000000E+09 +4.40307493834E-01 -5.01510260809E-01 -6.02029447857E-04 +6.04446325563E-04 -6.04517751775E-04 +5.89063260479E-04 +5.83567272090E-01 -5.02626329423E-01
4.09500000000E+09 +4.23871284490E-01 -5.08395527783E-01 -5.58859670069E-04 +4.65955274220E-04 -5.51641924287E-04 +4.23225758974E-04 +5.69421770130E-01 -5.10404057019E-01
4.10000000000E+09 +4.06645746060E-01 -5.14374498053E-01 -7.78484645635E-04 +6.49439497406E-04 -7.22668028685E-04 +6.23969434721E-04 +5.54470961412E-01 -5.18522166814E-01
4.10500000000E+09 +3.90316121760E-01 -5.18475251896E-01 -6.51947986604E-04 +9.00081916307E-04 -7.11024313710E-04 +8.45706449370E-04 +5.38669602902E-01 -5.26580670798E-01
4.11000000000E+09 +3.74314996716E-01 -5.21238246160E-01 -4.25291389961E-04 +9.90648768022E-04 -4.64247148498E-04 +9.71076920452E-04 +5.22275860865E-01 -5.34866859697E-01
4.11500000000E+09 +3.57927025560E-01 -5.22931941238E-01 -3.42427416259E-04 +1.16869708396E-03 -4.03859248304E-04 +1.12457073521E-03 +5.05921700834E-01 -5.42533866251E-01
4.12000000000E+09 +3.40652995599E-01 -5.23354593139E-01 -4.14048742432E-06 +1.19649235964E-03 -7.05910107465E-05 +1.17989239388E-03 +4.89895765434E-01 -5.49990185341E-01
4.12500000000E+09 +3.23201495185E-01 -5.23330653881E-01 +1.09437498402E-04 +1.11019315869E-03 +2.06242178668E-05 +1.09267768922E-03 +4.73332450967E-01 -5.56696943549E-01
4.13000000000E+09 +3.04513552570E-01 -5.24770392199E-01 +3.16767039610E-04 +9.10205740731E-04 +2.59198113852E-04 +9.68395703070E-04 +4.56261113266E-01 -5.63016086910E-01
4.13500000000E+09 +2.84262426944E-01 -5.26411350734E-01 +1.26429850218E-04 +7.86804413622E-04 +5.84602325731E-05 +8.68866723382E-04 +4.38072003798E-01 -5.68986338948E-01
4.14000000000E+09 +2.64110684706E-01 -5.28421394213E-01 +2.48495785422E-04 +9.72411769559E-04 +1.22008585889E-04 +1.03952572328E-03 +4.19424293779E-01 -5.74979949014E-01
4.14500000000E+09 +2.43989031113E-01 -5.32355129808E-01 +3.01615701479E-04 +1.02861771316E-03 +2.34858459079E-04 +1.17039472693E-03 +4.00393387775E-01 -5.80559316557E-01
4.15000000000E+09 +2.23454923312E-01 -5.35430967505E-01 +5.23054340100E-04 +1.25730088212E-03 +4.88081205892E-04 +1.32253979553E-03 +3.82315942333E-01 -5.86170486275E-01
4.15500000000E+09 +2.04631127067E-01 -5.38030696426E-01 +9.66503838235E-04 +1.17668038167E-03 +9.73985223556E-04 +1.27382270617E-03 +3.63481600378E-01 -5.90895501280E-01
4.16000000000E+09 +1.86888775792E-01 -5.39727109079E-01 +1.32352077748E-03 +7.12800102668E-04 +1.40982794118E-03 +7.78135214751E-04 +3.45227036176E-01 -5.93861500772E-01
4.16500000000E+09 +1.68992066282E-01 -5.39474149801E-01 +1.10310112712E-03 +1.65765944746E-04 +1.19067296341E-03 +2.43739521905E-04 +3.25853743033E-01 -5.97285340609E-01
4.17000000000E+09 +1.51997128026E-01 -5.36161522094E-01 +8.14465690860E-04 +2.64961423468E-04 +9.02971857704E-04 +3.07158602815E-04 +3.05291892952E-01 -5.99591154282E-01
4.17500000000E+09 +1.36234949414E-01 -5.30846067273E-01 +9.29653509581E-04 +2.73809509743E-04 +1.01210424606E-03 +3.18981894132E-04 +2.83989168818E-01 -6.01490150331E-01
4.18000000000E+09 +1.20054540374E-01 -5.25483857645E-01 +8.71273513045E-04 -4.28015619119E-05 +1.00225229737E-03 -3.65595563604E-05 +2.63056270432E-01 -6.03321593448E-01
4.18500000000E+09 +1.02140221309E-01 -5.19536437879E-01 +4.73641337307E-04 +3.27084664382E-04 +5.47994709017E-04 +3.13474892123E-04 +2.41840830988E-01 -6.04532048224E-01
4.19000000000E+09 +8.31912050058E-02 -5.13407083451E-01 +1.06921876121E-03 +4.95352969611E-04 +1.13997421501E-03 +4.60077765214E-04 +2.21001573674E-01 -6.04619438115E-01
4.19500000000E+09 +6.30219558458E-02 -5.07917070563E-01 +1.21239750307E-03 -3.28531176810E-05 +1.29931953552E-03 -4.10243823637E-05 +1.99511217321E-01 -6.03302018980E-01
4.20000000000E+09 +4.23435036869E-02 -5.02062491556E-01 +1.03988899610E-03 -3.69576146089E-05 +1.13108336511E-03 -8.55069836669E-05 +1.78680122251E-01 -6.01277181766E-01
4.20500000000E+09 +2.24675430450E-02 -4.96806398987E-01 +1.37990650203E-03 -2.84415180299E-04 +1.45957070505E-03 -3.20291666674E-04 +1.55957154684E-01 -5.99170399145E-01
4.21000000000E+09 +3.89809499424E-03 -4.91077748205E-01 +1.06207463166E-03 -7.23038846479E-04 +1.05825684193E-03 -7.71394321389E-04 +1.33379075283E-01 -5.96342175295E-01
4.21500000000E+09 -1.29053370080E-02 -4.85133969984E-01 +6.76726991924E-04 -5.06519391559E-04 +6.70957441405E-04 -5.51857196290E-04 +1.11233273366E-01 -5.93860924330E-01
4.22000000000E+09 -2.89393641466E-02 -4.78162857003E-01 +7.64630044387E-04 -3.63031048838E-04 +7.30846425189E-04 -4.15983968509E-04 +8.90844262835E-02 -5.90886392638E-01
4.22500000000E+09 -4.36486427714E-02 -4.68613528487E-01 +1.12819032180E-03 -3.10807688549E-04 +1.13932665402E-03 -3.67671093476E-04 +6.69093673835E-02 -5.86040261233E-01
4.23000000000E+09 -5.72627500458E-02 -4.57926053893E-01 +1.13918850925E-03 -1.08470296763E-03 +1.11545864295E-03 -1.08438942432E-03 +4.56201250778E-02 -5.79955994188E-01
4.23500000000E+09 -7.27194143290E-02 -4.45236912444E-01 +4.51068342183E-04 -1.04387274581E-03 +3.82577728932E-04 -1.08038815606E-03 +2.34984720119E-02 -5.72663978444E-01
4.24000000000E+09 -8.84733783269E-02 -4.30062249652E-01 +5.56902961416E-04 -6.68679240168E-04 +5.09669279406E-04 -5.88352681730E-04 +1.30670310408E-03 -5.64326271048E-01
4.24500000000E+09 -1.04676256352E-01 -4.15764904927E-01 +8.47800558990E-04 -1.00876822751E-03 +8.45983488846E-04 -1.00072449640E-03 -2.14753212633E-02 -5.55953544831E-01
4.25000000000E+09 -1.23956740328E-01 -4.01553175833E-01 +4.68119847223E-04 -1.47253931644E-03 +4.87239545878E-04 -1.44610748695E-03 -4.39585110316E-02 -5.46487106943E-01
4.25500000000E+09 -1.43776472727E-01 -3.87569070789E-01 +1.31517133177E-04 -1.03900098487E-03 +1.84926371152E-04 -9.69035509986E-04 -6.49243762682E-02 -5.36437581879E-01
4.26000000000E+09 -1.63516369613E-01 -3.74768694745E-01 +4.24014220488E-04 -1.25619685076E-03 +5.03722683244E-04 -1.24243039368E-03 -8.57383060472E-02 -5.25252964092E-01
4.26500000000E+09 -1.83031392325E-01 -3.62958626981E-01 +1.46238083245E-04 -1.71691496826E-03 +2.05561687440E-04 -1.78119642432E-03 -1.05280667414E-01 -5.13263055658E-01
4.27000000000E+09 -2.00153570255E-01 -3.51087236615E-01 -6.04993886172E-04 -1.65726915331E-03 -5.71426814971E-04 -1.66568732209E-03 -1.26693979510E-01 -5.00559088328E-01
4.27500000000E+09 -2.14752656825E-01 -3.39436740030E-01 -6.22036733498E-04 -1.34897333322E-03 -6.07137325436E-04 -1.43116443999E-03 -1.47700928975E-01 -4.85176892241E-01
4.28000000000E+09 -2.26991711969E-01 -3.26864784764E-01 -1.08552719672E-03 -1.18855798782E-03 -1.05684652987E-03 -1.25211409830E-03 -1.67534520182E-01 -4.70647915518E-01
4.28500000000E+09 -2.37258549822E-01 -3.12801635918E-01 -1.04982344455E-03 -6.61292511821E-04 -1.04588733410E-03 -7.29534104542E-04 -1.87494772236E-01 -4.56238223207E-01
4.29000000000E+09 -2.46338447656E-01 -2.96220246964E-01 -1.02116952739E-03 -4.40627470652E-04 -1.05674214486E-03 -5.80702181073E-04 -2.06625541620E-01 -4.40830479291E-01
4.29500000000E+09 -2.54320743491E-01 -2.78533695619E-01 -6.27775076668E-04 -4.14630213656E-04 -7.10056730753E-04 -5.07694839603E-04 -2.24582513150E-01 -4.24898661938E-01
4.30000000000E+09 -2.64115177987E-01 -2.59608944201E-01 -9.55551036759E-04 -6.96654355597E-04 -9.87162705148E-04 -7.36874395523E-04 -2.41616079911E-01 -4.07681283809E-01
4.30500000000E+09 -2.75657564644E-01 -2.39052170230E-01 -1.19414613517E-03 -4.90430911171E-04 -1.26928421276E-03 -5.75930779208E-04 -2.58543394738E-01 -3.89151169665E-01
4.31000000000E+09 -2.87594549317E-01 -2.17515302993E-01 -1.26277079103E-03 +2.20961165678E-04 -1.33575745300E-03 +1.61186415877E-04 -2.74393199650E-01 -3.70173942685E-01
4.31500000000E+09 -3.00280224337E-01 -1.97442555944E-01 -9.13103583279E-04 +5.64520969697E-05 -9.99443018049E-04 +1.91633566121E-05 -2.90148107370E-01 -3.50564902999E-01
4.32000000000E+09 -3.12686267887E-01 -1.78650257475E-01 -9.79318344400E-04 +5.09598690966E-04 -1.09053045109E-03 +4.48463402348E-04 -3.04668061571E-01 -3.30975962814E-01
4.32500000000E+09 -3.24113232878E-01 -1.61186726293E-01 -2.74005282430E-04 +2.84557047728E-04 -3.65934829990E-04 +3.30568552081E-04 -3.19642873259E-01 -3.10899135013E-01
4.33000000000E+09 -3.32916620589E-01 -1.44943098643E-01 -7.30840173341E-04 +1.60327170919E-04 -7.71526541782E-04 +1.99214508415E-04 -3.32320868703E-01 -2.88737319995E-01
4.33500000000E+09 -3.39419573608E-01 -1.30593764268E-01 -2.67530575373E-04 +4.62063522626E-04 -3.13837387944E-04 +5.13788168508E-04 -3.44516321931E-01 -2.67260289712E-01
4.34000000000E+09 -3.44614098956E-01 -1.15073652606E-01 -2.13723515925E-04 +7.14997063472E-05 -2.03982735512E-04 +1.69714198768E-04 -3.56677092251E-01 -2.43578844928E-01
4.34500000000E+09 -3.46098466865E-01 -9.77344783395E-02 -5.63816640798E-04 -1.98052954792E-04 -5.21837421665E-04 -1.28459888141E-04 -3.67009270273E-01 -2.20318453375E-01
4.35000000000E+09 -3.47115098276E-01 -7.96616416439E-02 -5.79356749807E-04 +4.31611238741E-04 -6.30032660538E-04 +4.77325861886E-04 -3.77770809837E-01 -1.97424488738E-01
4.35500000000E+09 -3.47203838757E-01 -5.89569654660E-02 -3.07877628527E-04 +2.64275047824E-04 -2.85966093106E-04 +2.61762198527E-04 -3.86836156134E-01 -1.73906872758E-01
4.36000000000E+09 -3.48136817153E-01 -3.63809166185E-02 -4.28175829703E-04 +1.35535492768E-04 -4.04702080024E-04 +1.92950907379E-04 -3.94418777853E-01 -1.51341793223E-01
4.36500000000E+09 -3.50162903907E-01 -1.33116539126E-02 -4.02808459896E-04 +4.26081997753E-04 -3.69180476274E-04 +4.78000790002E-04 -4.01561024375E-01 -1.28582982780E-01
4.37000000000E+09 -3.53325607554E-01 +9.87570762886E-03 -7.35142955089E-05 +3.03098724929E-04 -9.28813261423E-06 +3.48199422675E-04 -4.07317600510E-01 -1.04753332864E-01
4.37500000000E+09 -3.58203970736E-01 +3.18101696376E-02 +1.20646604464E-04 -1.78553239347E-04 +1.73796895199E-04 -2.17947752694E-04 -4.12352035431E-01 -8.02834814429E-02
4.38000000000E+09 -3.63020263716E-01 +5.26895965289E-02 -6.05314168143E-04 -3.19654178645E-04 -5.49990393165E-04 -4.20007687210E-04 -4.16302390816E-01 -5.61893925113E-02
4.38500000000E+09 -3.66466130428E-01 +7.03752397175E-02 -9.73126552250E-04 +2.44141415011E-04 -9.73698762582E-04 +2.32995267961E-04 -4.20178981952E-01 -3.17937081451E-02
4.39000000000E+09 -3.69625781500E-01 +8.59825096475E-02 -4.27913240485E-04 +6.29446983001E-04 -3.86835875714E-04 +5.92533250140E-04 -4.22461147653E-01 -7.79178912843E-03
4.39500000000E+09 -3.70005753965E-01 +1.01083616708E-01 -3.41605233863E-04 +2.63085236936E-04 -2.94298114575E-04 +1.99091832360E-04 -4.24178275343E-01 +1.60805183332E-02
4.40000000000E+09 -3.67387345978E-01 +1.15117543755E-01 -2.11132459195E-04 +5.06004913138E-04 -2.49205936006E-04 +5.09791130120E-04 -4.24003572080E-01 +3.96615693235E-02
4.40500000000E+09 -3.63004421721E-01 +1.29502724586E-01 -1.85831035017E-04 +1.41950750331E-04 -2.57765445025E-04 +1.12289358375E-04 -4.23955674501E-01 +6.32758826928E-02
4.41000000000E+09 -3.57322881211E-01 +1.45347532651E-01 -3.36856523308E-04 +3.20330851551E-04 -4.19385861799E-04 +2.82936788809E-04 -4.22429271297E-01 +8.78095639459E-02
4.41500000000E+09 -3.51441286820E-01 +1.64012725317E-01 -2.62229867438E-04 +2.28521859503E-04 -3.23368771297E-04 +2.53464616043E-04 -4.20596194339E-01 +1.11121440691E-01
4.42000000000E+09 -3.45575201876E-01 +1.84793860718E-01 -4.32944782634E-04 +2.51681300589E-04 -5.21761055430E-04 +3.64781333742E-04 -4.18086246352E-01 +1.35799035406E-01
4.42500000000E+09 -3.40612168426E-01 +2.06448147303E-01 -3.92686568911E-04 +4.22510399837E-04 -4.21494767544E-04 +4.46469692353E-04 -4.12726115394E-01 +1.58273680639E-01
4.43000000000E+09 -3.36818655149E-01 +2.28828380689E-01 -5.60208211864E-04 +4.92367497721E-04 -5.92076539681E-04 +5.51160999318E-04 -4.09102803039E-01 +1.80302983483E-01
4.43500000000E+09 -3.33242331528E-01 +2.49617451302E-01 -4.58967513461E-04 +7.94993688683E-04 -4.90409188178E-04 +8.72531463022E-04 -4.02847009728E-01 +2.03501447623E-01
4.44000000000E+09 -3.30657496252E-01 +2.66969813145E-01 -6.11663450653E-05 +7.97931356352E-04 -6.15072773118E-05 +8.40946214691E-04 -3.96578853783E-01 +2.24966028203E-01
4.44500000000E+09 -3.29475083017E-01 +2.82431432569E-01 -2.41410457759E-04 +4.99935936878E-04 -2.02853414299E-04 +5.27854059105E-04 -3.89940606596E-01 +2.46575916204E-01
4.45000000000E+09 -3.27245526214E-01 +2.96010241119E-01 -2.41401781520E-04 +7.57487152080E-04 -1.75752930103E-04 +7.92963316866E-04 -3.83179575626E-01 +2.67280823417E-01
4.45500000000E+09 -3.22754591303E-01 +3.08235450840E-01 -2.94553037557E-04 +8.18886374044E-04 -2.64107133561E-04 +8.40086231591E-04 -3.75082655720E-01 +2.87497117290E-01
4.46000000000E+09 -3.16021172408E-01 +3.20195974213E-01 -1.52778010179E-04 +8.90534220447E-04 -5.38778482539E-05 +9.14944701147E-04 -3.66899015383E-01 +3.06575733545E-01
4.46500000000E+09 -3.06649627313E-01 +3.32274322360E-01 -1.64166454398E-05 +9.54207014822E-04 +3.82308989541E-06 +9.50554807846E-04 -3.57201779366E-01 +3.26273934804E-01
4.47000000000E+09 -2.95612202632E-01 +3.46191856901E-01 +2.08543145425E-04 +1.03854110597E-03 +2.64460578536E-04 +1.04313212467E-03 -3.46208341568E-01 +3.44919505805E-01
4.47500000000E+09 -2.83025952787E-01 +3.61116447339E-01 +1.43968084209E-04 +9.28427834480E-04 +1.28783456837E-04 +8.85994215192E-04 -3.35663447368E-01 +3.63794060962E-01
4.48000000000E+09 -2.71415396751E-01 +3.78184633943E-01 +4.37708369338E-04 +1.34925474267E-03 +4.84958914175E-04 +1.25853456037E-03 -3.23970969922E-01 +3.82516283182E-01
4.48500000000E+09 -2.59538438706E-01 +3.96070761757E-01 +5.55507463903E-04 +9.61136074820E-04 +5.88204219481E-04 +8.81814151083E-04 -3.12481095319E-01 +3.99609980690E-01
4.49000000000E+09 -2.49897827743E-01 +4.12585884696E-01 +6.76579022990E-04 +1.18800940034E-03 +6.60407443549E-04 +1.07959217442E-03 -3.01408240836E-01 +4.15876476662E-01
4.49500000000E+09 -2.42713589313E-01 +4.28916626661E-01 +1.06534854500E-03 +9.33532100123E-04 +9.77849208664E-04 +8.67925473975E-04 -2.90191320865E-01 +4.31404257790E-01
4.50000000000E+09 -2.36689246314E-01 +4.42346366778E-01 +8.90231589141E-04 +9.52867827211E-04 +8.55262493842E-04 +8.85783154072E-04 -2.77633925336E-01 +4.47303506697E-01
4.50500000000E+09 -2.32764074813E-01 +4.54419518489E-01 +1.48370503408E-03 +8.78141371462E-04 +1.49110423635E-03 +8.69702465826E-04 -2.64396190274E-01 +4.62080948717E-01
4.51000000000E+09 -2.26828607576E-01 +4.64515264848E-01 +1.47885587433E-03 +2.06328871869E-04 +1.45823183657E-03 +1.80371512160E-04 -2.50977007548E-01 +4.76770694003E-01
4.51500000000E+09 -2.20040487933E-01 +4.71881932735E-01 +1.19193177047E-03 +2.91480174358E-04 +1.15472996048E-03 +3.02054629435E-04 -2.37339510837E-01 +4.91021032275E-01
4.52000000000E+09 -2.10818326756E-01 +4.79411612644E-01 +1.53650126498E-03 +1.04337030861E-04 +1.41395356597E-03 +1.38481893359E-04 -2.24080289483E-01 +5.04369016497E-01
4.52500000000E+09 -1.99083957164E-01 +4.85818226959E-01 +1.24364965582E-03 -2.56648596918E-04 +1.27321921032E-03 -2.63853057801E-04 -2.10376242097E-01 +5.16964465056E-01
4.53000000000E+09 -1.85568236000E-01 +4.94008691861E-01 +1.18710082245E-03 -4.91648325288E-05 +1.14626236055E-03 -4.09838031873E-05 -1.96242655985E-01 +5.28293667614E-01
4.53500000000E+09 -1.69748090316E-01 +5.03221496143E-01 +1.23392531927E-03 -3.34763446898E-04 +1.14609154931E-03 -2.65210642063E-04 -1.81875593117E-01 +5.40100020677E-01
4.54000000000E+09 -1.54145463772E-01 +5.13284521625E-01 +1.35507239596E-03 -5.35658462308E-05 +1.35585730208E-03 -9.68879368937E-05 -1.65703986410E-01 +5.50875922613E-01
4.54500000000E+09 -1.39256755770E-01 +5.24894728621E-01 +1.59090590066E-03 -6.86509914990E-04 +1.58950106108E-03 -6.89625735217E-04 -1.50838835392E-01 +5.60506041634E-01
4.55000000000E+09 -1.26001570308E-01 +5.36147748409E-01 +1.38807391013E-03 -9.76621733684E-04 +1.32752110428E-03 -9.64284271321E-04 -1.36222212548E-01 +5.71122972356E-01
4.55500000000E+09 -1.14983387898E-01 +5.47214858244E-01 +1.04063794680E-03 -1.10079150763E-03 +1.02517015447E-03 -1.11380735396E-03 -1.21579700121E-01 +5.80848464048E-01
4.56000000000E+09 -1.05398615863E-01 +5.57013580092E-01 +7.97747060513E-04 -1.04724495486E-03 +7.82780943354E-04 -1.06967149502E-03 -1.06796256628E-01 +5.89528277794E-01
4.56500000000E+09 -9.72556026118E-02 +5.65030235664E-01 +7.35545175499E-04 -1.24747442654E-03 +7.05193906827E-04 -1.25342693129E-03 -9.28268673964E-02 +5.98118936936E-01
4.57000000000E+09 -8.87509113208E-02 +5.71759029468E-01 +7.80693328629E-04 -1.19944714701E-03 +6.89573333277E-04 -1.27175734129E-03 -7.68924998176E-02 +6.06520402858E-01
