# Hz S RI R 50
! CMT, C1220, 16058040, 17.2.0/1
! Date: 15/08/2018 12:26:52
! Data: Format (Calibration Info)
! Freq                      S11: Re/Im (F2)                       S21: Re/Im (F2)                       S12: Re/Im (F2)                       S22: Re/Im (F2)            
4.00000000000E+09 +6.63611247323E-01 -3.58456980375E-01 -9.80210402669E-05 -7.02042406253E-04 -4.62768257156E-05 -7.42050786784E-04 +7.83516737291E-01 -3.17524949394E-01
4.00500000000E+09 +6.55313808421E-01 -3.65196379161E-01 -1.34471285590E-04 -6.84271502753E-04 -9.56013060286E-05 -7.13248492580E-04 +7.75071701894E-01 -3.29279586510E-01
4.01000000000E+09 +6.46286116643E-01 -3.71757277351E-01 -2.56430883052E-04 -7.99517587872E-04 -1.84531060225E-04 -7.92097617447E-04 +7.66242994844E-01 -3.41181267615E-01
4.01500000000E+09 +6.36851249200E-01 -3.78670490655E-01 -2.94977502567E-04 -5.36570560119E-04 -2.28492619366E-04 -5.60643371549E-04 +7.57489942103E-01 -3.52142348783E-01
4.02000000000E+09 +6.26809514511E-01 -3.86867555431E-01 -2.29221365246E-04 -6.58202024475E-04 -2.09125182140E-04 -6.54396526008E-04 +7.48359514022E-01 -3.62956203388E-01
4.02500000000E+09 +6.15947280942E-01 -3.96545711074E-01 -2.94796798208E-04 -7.41976285118E-04 -2.74915726006E-04 -7.34625566897E-04 +7.38688642768E-01 -3.72739692514E-01
4.03000000000E+09 +6.04286007417E-01 -4.06547814036E-01 -5.20687443896E-04 -7.46137075085E-04 -5.04844095438E-04 -8.48723922181E-04 +7.29001873489E-01 -3.83171845834E-01
4.03500000000E+09 +5.93203703544E-01 -4.16447469488E-01 -5.20627348724E-04 -5.72439178586E-04 -5.31121847362E-04 -6.02897802991E-04 +7.17858433550E-01 -3.94017845972E-01
4.04000000000E+09 +5.82131760610E-01 -4.26620845820E-01 -6.90808073891E-04 -5.24952590418E-04 -7.04646609766E-04 -5.75194724292E-04 +7.07215004526E-01 -4.05004186134E-01
4.04500000000E+09 +5.70141271303E-01 -4.36072250653E-01 -6.37321229863E-04 -3.29697373084E-04 -6.46497764282E-04 -3.73246023816E-04 +6.96687495554E-01 -4.16368990320E-01
4.05000000000E+09 +5.58557336037E-01 -4.43169341574E-01 -5.21454869381E-04 -2.53833954312E-04 -5.37303970275E-04 -3.06823330037E-04 +6.85538398185E-01 -4.27113372069E-01
4.05500000000E+09 +5.46891655564E-01 -4.49779126162E-01 -5.06371819849E-04 -3.41154626499E-04 -5.40934947172E-04 -3.55404994350E-04 +6.74459607142E-01 -4.36607555857E-01
4.06000000000E+09 +5.33996020628E-01 -4.54817049930E-01 -5.79947648343E-04 -4.08445206571E-04 -6.35930798721E-04 -4.03598963326E-04 +6.63294685685E-01 -4.46051343365E-01
4.06500000000E+09 +5.20838435555E-01 -4.58831037721E-01 -7.89066139345E-04 -4.06704331107E-04 -8.26775319589E-04 -4.91357409966E-04 +6.50763942015E-01 -4.55400256286E-01
4.07000000000E+09 +5.06749319712E-01 -4.63495322889E-01 -9.22011199853E-04 -2.34209359389E-04 -9.15690260096E-04 -2.64253880894E-04 +6.37766134964E-01 -4.65371129069E-01
4.07500000000E+09 +4.91633382108E-01 -4.68477503170E-01 -8.13755829098E-04 -1.77141767875E-04 -8.69814977774E-04 -2.07689060938E-04 +6.24044202742E-01 -4.75555046671E-01
4.08000000000E+09 +4.75346047809E-01 -4.74324506337E-01 -9.04379184495E-04 -3.83189948873E-05 -1.00824210955E-03 -8.27568492392E-05 +6.10464192915E-01 -4.85358643393E-01
4.08500000000E+09 +4.58304003472E-01 -4.80152835037E-01 -9.02751115221E-04 +1.76926716172E-04 -9.95418126490E-04 +1.79710486324E-04 +5.97282298339E-01 -4.95150268413E-01
4.09000000000E+09 +4.41759311767E-01 -4.86474139153E-01 -7.13388129230E-04 +1.02462506415E-04 -8.12730117404E-04 +1.36529656163E-04 +5.83359934914E-01 -5.04031169545E-01
4.09500000000E+09 +4.25467307522E-01 -4.93084766414E-01 -8.22478738676E-04 +2.54853382361E-05 -8.33421151461E-04 +5.10968761475E-05 +5.69240534817E-01 -5.11986825039E-01
4.10000000000E+09 +4.08465849069E-01 -4.98698559586E-01 -8.69951036719E-04 +1.62709258192E-04 -8.77157824479E-04 +2.01529029468E-04 +5.54181750138E-01 -5.20225149903E-01
4.10500000000E+09 +3.92550355883E-01 -5.02770507862E-01 -1.00056864606E-03 +2.43887485085E-04 -1.02014956471E-03 +2.45236228847E-04 +5.37916346946E-01 -5.27985531700E-01
4.11000000000E+09 +3.76546538039E-01 -5.05935422159E-01 -9.13549373815E-04 +5.39387676374E-04 -9.50558190581E-04 +5.24754319106E-04 +5.21280504545E-01 -5.35821958856E-01
4.11500000000E+09 +3.60128789876E-01 -5.07410608120E-01 -7.97416098055E-04 +7.07804421611E-04 -8.62752883347E-04 +6.49358085177E-04 +5.04889173348E-01 -5.43178284023E-01
4.12000000000E+09 +3.43373506834E-01 -5.07648472227E-01 -7.17410653649E-04 +6.85222919144E-04 -7.07131458816E-04 +7.10246000892E-04 +4.88961681891E-01 -5.50326250520E-01
4.12500000000E+09 +3.26639571018E-01 -5.07513213152E-01 -6.11249312543E-04 +7.04914253773E-04 -6.03181556550E-04 +7.50604078493E-04 +4.72322151370E-01 -5.56973822598E-01
4.13000000000E+09 +3.08702688907E-01 -5.09213332752E-01 -4.82211655872E-04 +5.04865568350E-04 -4.51821101017E-04 +5.47513335303E-04 +4.55373106112E-01 -5.63295736628E-01
4.13500000000E+09 +2.89049965730E-01 -5.10647353445E-01 -8.00943685419E-04 +6.01816525902E-04 -8.01449024522E-04 +5.78463026066E-04 +4.37323043509E-01 -5.69176078829E-01
4.14000000000E+09 +2.69726571060E-01 -5.13174913536E-01 -8.61912868243E-04 +9.16895350407E-04 -8.70120571611E-04 +9.35539872581E-04 +4.18426585391E-01 -5.74815585841E-01
4.14500000000E+09 +2.49430152472E-01 -5.17420176929E-01 -7.51976075872E-04 +1.16647080260E-03 -8.40597444140E-04 +1.20641889374E-03 +3.99719463859E-01 -5.79896096890E-01
4.15000000000E+09 +2.28715911558E-01 -5.20184573565E-01 -4.67523312856E-04 +1.44662393147E-03 -5.13200458750E-04 +1.47482744040E-03 +3.81787121389E-01 -5.85403260540E-01
4.15500000000E+09 +2.09645286121E-01 -5.22639971133E-01 -1.24536262199E-04 +1.44771376421E-03 -1.07873525363E-04 +1.48198802960E-03 +3.62845913120E-01 -5.89893371575E-01
4.16000000000E+09 +1.91588525184E-01 -5.24402261602E-01 +1.98875183123E-04 +1.30049571900E-03 +2.27403503710E-04 +1.28435650605E-03 +3.44893378783E-01 -5.92371368179E-01
4.16500000000E+09 +1.73796102261E-01 -5.24017872060E-01 +2.08229048897E-04 +1.00007370585E-03 +1.93017387339E-04 +1.01367797664E-03 +3.25955336359E-01 -5.95827300248E-01
4.17000000000E+09 +1.57122184887E-01 -5.21510778501E-01 -9.79546538508E-05 +1.22963215265E-03 -1.08871548719E-04 +1.23528621739E-03 +3.05923909516E-01 -5.97985570478E-01
4.17500000000E+09 +1.41456867114E-01 -5.16788033798E-01 +4.37497524961E-04 +1.48849446304E-03 +4.21337413947E-04 +1.46767868657E-03 +2.84806540833E-01 -6.00078774263E-01
4.18000000000E+09 +1.25641646366E-01 -5.12354430018E-01 +6.50484223363E-04 +9.79593035935E-04 +5.90002074357E-04 +1.04137572156E-03 +2.63929012980E-01 -6.01738640595E-01
4.18500000000E+09 +1.07889646559E-01 -5.06622565476E-01 +2.62441001798E-04 +1.25337746071E-03 +2.33404416518E-04 +1.26197442817E-03 +2.42674272667E-01 -6.02629798063E-01
4.19000000000E+09 +8.99970837437E-02 -5.00743790947E-01 +8.14898239833E-04 +1.52627781026E-03 +7.89608929177E-04 +1.58937357275E-03 +2.22175839431E-01 -6.02330107988E-01
4.19500000000E+09 +7.04976952662E-02 -4.95546170165E-01 +1.14974052536E-03 +9.73548085736E-04 +1.17890980182E-03 +1.05835507428E-03 +2.01329217690E-01 -6.01026355142E-01
4.20000000000E+09 +5.03510220679E-02 -4.89319005967E-01 +9.59828738423E-04 +1.01767654485E-03 +9.71488483634E-04 +1.10570483026E-03 +1.80875970509E-01 -5.99046777680E-01
4.20500000000E+09 +3.13768675578E-02 -4.83701675862E-01 +1.53788171306E-03 +8.34656629144E-04 +1.52829349174E-03 +8.95791363220E-04 +1.58635529476E-01 -5.97095101007E-01
4.21000000000E+09 +1.34485924240E-02 -4.78263266514E-01 +1.42637303713E-03 +2.65212331358E-04 +1.47155809382E-03 +3.32348664057E-04 +1.36380702592E-01 -5.94369912998E-01
4.21500000000E+09 -3.48935869517E-03 -4.72739838750E-01 +1.14911204749E-03 +3.93487960506E-04 +1.18631622932E-03 +4.63504052499E-04 +1.14465265333E-01 -5.91667702913E-01
4.22000000000E+09 -2.02550535841E-02 -4.66083194255E-01 +1.21747737418E-03 +2.71490889751E-04 +1.27958604285E-03 +3.28502651153E-04 +9.30791736820E-02 -5.88473007877E-01
4.22500000000E+09 -3.53388638895E-02 -4.56729745214E-01 +1.44805572335E-03 +3.22592181593E-04 +1.52744844711E-03 +3.81698645007E-04 +7.15332844778E-02 -5.83991122101E-01
4.23000000000E+09 -4.96732179057E-02 -4.46830245719E-01 +1.49308799651E-03 -3.19914076609E-04 +1.54954735805E-03 -2.89660701190E-04 +5.07807897727E-02 -5.78326591181E-01
4.23500000000E+09 -6.52856609373E-02 -4.34755353187E-01 +8.94768958295E-04 -2.86628230417E-04 +9.13894792436E-04 -2.96559654037E-04 +2.90743370928E-02 -5.71583190502E-01
4.24000000000E+09 -8.07912981833E-02 -4.20863334763E-01 +1.00086308057E-03 +1.59354631750E-04 +1.04543310588E-03 +1.88107838767E-04 +7.31614624725E-03 -5.63843867311E-01
4.24500000000E+09 -9.71791402446E-02 -4.08038492784E-01 +1.51335045010E-03 -4.47026182761E-05 +1.54652873994E-03 -3.92661729600E-05 -1.53999870064E-02 -5.55825847955E-01
4.25000000000E+09 -1.16414809927E-01 -3.94660369074E-01 +1.38943798162E-03 -6.34156027938E-04 +1.43046759829E-03 -6.59493398681E-04 -3.74206106743E-02 -5.46836180807E-01
4.25500000000E+09 -1.36070897270E-01 -3.81708321050E-01 +1.22886900292E-03 -3.63694490700E-04 +1.27763572511E-03 -4.21150946131E-04 -5.83454934069E-02 -5.37245237259E-01
4.26000000000E+09 -1.55770225704E-01 -3.69139876736E-01 +1.53829408123E-03 -7.85426698346E-04 +1.64201616537E-03 -8.52562895323E-04 -7.90642307976E-02 -5.26453478251E-01
4.26500000000E+09 -1.75582279183E-01 -3.57189519209E-01 +1.24308045088E-03 -1.50223289143E-03 +1.24538449926E-03 -1.54222010272E-03 -9.82239922245E-02 -5.15120491432E-01
4.27000000000E+09 -1.92677702722E-01 -3.44774192847E-01 +3.53401793372E-04 -1.21068856113E-03 +3.38749172943E-04 -1.23868854128E-03 -1.19753877889E-01 -5.03460306294E-01
4.27500000000E+09 -2.07694369500E-01 -3.32743151472E-01 +6.09224318810E-04 -9.66357260199E-04 +5.86228373313E-04 -1.00025488313E-03 -1.41076280725E-01 -4.88536000381E-01
4.28000000000E+09 -2.20138978682E-01 -3.19625919414E-01 +2.42331205924E-04 -1.00428138589E-03 +2.47786413119E-04 -1.07158817803E-03 -1.60939370104E-01 -4.74268599254E-01
4.28500000000E+09 -2.31209161587E-01 -3.05654518778E-01 +5.32482229483E-04 -6.72538046514E-04 +4.69068772568E-04 -6.23700195954E-04 -1.81255644785E-01 -4.60160230985E-01
4.29000000000E+09 -2.41189204350E-01 -2.89323035657E-01 +5.47653410417E-04 -7.89710816346E-04 +5.63338113632E-04 -7.96511096450E-04 -2.00116934781E-01 -4.44874742511E-01
4.29500000000E+09 -2.50550515866E-01 -2.71790075090E-01 +9.07354172857E-04 -1.01723189104E-03 +8.62182007085E-04 -1.10604623238E-03 -2.17998589023E-01 -4.29753184877E-01
4.30000000000E+09 -2.61194154862E-01 -2.52843546748E-01 +4.08739978760E-04 -1.54825603807E-03 +3.46907304214E-04 -1.59184838043E-03 -2.35355081517E-01 -4.12819194635E-01
4.30500000000E+09 -2.72789008678E-01 -2.32585101785E-01 -1.58896345878E-04 -1.45940082834E-03 -2.12229210990E-04 -1.46523080006E-03 -2.51814273831E-01 -3.94908227798E-01
4.31000000000E+09 -2.85291198528E-01 -2.11866436200E-01 -3.43176078709E-04 -8.42967176813E-04 -3.44601444722E-04 -8.84077108098E-04 -2.68085155403E-01 -3.76800028340E-01
4.31500000000E+09 -2.98110390227E-01 -1.91730810678E-01 -1.81148422448E-04 -8.44526286469E-04 -1.70262324253E-04 -8.40942486942E-04 -2.84179312322E-01 -3.57852456102E-01
4.32000000000E+09 -3.10173761854E-01 -1.73270915008E-01 -2.27144084535E-05 -5.89622381370E-04 -3.09975206163E-06 -4.98608312100E-04 -2.99497023952E-01 -3.38457954750E-01
4.32500000000E+09 -3.21900109541E-01 -1.56166436935E-01 +6.35026591557E-04 -1.03193589539E-03 +6.15611038386E-04 -1.05339438924E-03 -3.14562639879E-01 -3.18588756292E-01
4.33000000000E+09 -3.30772466729E-01 -1.39872829479E-01 -1.71755230721E-04 -1.39033736540E-03 -1.89616113157E-04 -1.35422020082E-03 -3.27819519135E-01 -2.97152476884E-01
4.33500000000E+09 -3.38329176871E-01 -1.25583260331E-01 -5.18054371705E-05 -1.09839346330E-03 -1.59394708785E-05 -1.05898904349E-03 -3.40670463429E-01 -2.75824728668E-01
4.34000000000E+09 -3.44201805806E-01 -1.08898050458E-01 -1.24947877581E-04 -1.39580496432E-03 -1.10965085198E-04 -1.32395655460E-03 -3.52746581995E-01 -2.52447790917E-01
4.34500000000E+09 -3.45897449633E-01 -9.12888889130E-02 -6.96836625801E-04 -1.62321713576E-03 -7.12361640424E-04 -1.67703865163E-03 -3.63728090240E-01 -2.30145506919E-01
4.35000000000E+09 -3.47751883539E-01 -7.31717441629E-02 -8.82843866310E-04 -8.81908573303E-04 -8.52961850511E-04 -8.78041457456E-04 -3.75468041622E-01 -2.07465343962E-01
4.35500000000E+09 -3.48269683984E-01 -5.21823919247E-02 -6.92772604431E-04 -9.31931785573E-04 -6.23020019410E-04 -1.00773205444E-03 -3.85663837317E-01 -1.84041529101E-01
4.36000000000E+09 -3.49438231250E-01 -3.04464995974E-02 -7.79319776997E-04 -9.15096941270E-04 -7.58879878486E-04 -9.84554383408E-04 -3.94105018023E-01 -1.61021966447E-01
4.36500000000E+09 -3.52256166436E-01 -7.84915621661E-03 -7.89035622829E-04 -8.90344446369E-04 -7.46005298493E-04 -9.11300809375E-04 -4.01924493671E-01 -1.37750594960E-01
4.37000000000E+09 -3.55923337662E-01 +1.50721501736E-02 -8.19594432878E-04 -9.47910990641E-04 -8.61658972109E-04 -9.94232554973E-04 -4.07765638918E-01 -1.13590339903E-01
4.37500000000E+09 -3.61064465206E-01 +3.67647661412E-02 -7.58938381468E-04 -1.20785155547E-03 -8.04094237562E-04 -1.31130550932E-03 -4.13273827967E-01 -8.90843969716E-02
4.38000000000E+09 -3.65923705306E-01 +5.77176575346E-02 -1.59125192055E-03 -1.36128275934E-03 -1.61195459564E-03 -1.35778346401E-03 -4.17477272281E-01 -6.48624956514E-02
4.38500000000E+09 -3.69491306194E-01 +7.53073798284E-02 -1.97730997444E-03 -6.01491407844E-04 -2.02570378250E-03 -5.37791849618E-04 -4.21744052240E-01 -4.06251856189E-02
4.39000000000E+09 -3.73027697046E-01 +9.13537420900E-02 -1.42914434459E-03 -1.14086941976E-04 -1.50626809397E-03 -1.60962143138E-04 -4.24766484147E-01 -1.58802154071E-02
4.39500000000E+09 -3.73168005246E-01 +1.06782228838E-01 -1.44221038674E-03 -3.40797097757E-04 -1.45510003051E-03 -3.47017846685E-04 -4.26483168018E-01 +8.28453193705E-03
4.40000000000E+09 -3.70975528376E-01 +1.21000195811E-01 -1.26114492371E-03 +4.04404830204E-05 -1.32313572014E-03 +8.03399340909E-05 -4.26815415452E-01 +3.21674406830E-02
4.40500000000E+09 -3.66987913113E-01 +1.35485629303E-01 -1.27802771135E-03 -4.65224050170E-04 -1.40570391794E-03 -4.04485820948E-04 -4.26902254361E-01 +5.63799933735E-02
4.41000000000E+09 -3.61915043982E-01 +1.51409256667E-01 -1.65587156299E-03 -1.63277647322E-04 -1.68907060207E-03 -7.15714596857E-05 -4.25308400090E-01 +8.09007229049E-02
4.41500000000E+09 -3.56300737808E-01 +1.70554534585E-01 -1.52616240347E-03 -5.23360374934E-05 -1.53892735265E-03 +7.81698436366E-05 -4.23722588028E-01 +1.04429691733E-01
4.42000000000E+09 -3.50312109335E-01 +1.91206193878E-01 -1.84356239784E-03 -1.48985782549E-04 -1.90367334691E-03 -1.11323887416E-05 -4.21440651749E-01 +1.29305180261E-01
4.42500000000E+09 -3.45435819399E-01 +2.13441710622E-01 -2.11196730403E-03 +4.31628286966E-04 -2.08134130047E-03 +5.33362987968E-04 -4.16213871938E-01 +1.52137944962E-01
4.43000000000E+09 -3.40375558225E-01 +2.35692173738E-01 -2.09657480064E-03 +9.08704152336E-04 -2.07783925189E-03 +1.02591699564E-03 -4.13074766712E-01 +1.74366873324E-01
4.43500000000E+09 -3.36569905550E-01 +2.55991814426E-01 -1.86951848450E-03 +1.20337685685E-03 -1.82141073772E-03 +1.23197313573E-03 -4.06780780077E-01 +1.98357206247E-01
4.44000000000E+09 -3.33862329950E-01 +2.73608679378E-01 -1.41675884389E-03 +1.45020244154E-03 -1.36753596444E-03 +1.44709385544E-03 -4.00465488748E-01 +2.19883034154E-01
4.44500000000E+09 -3.32274675965E-01 +2.89574156342E-01 -1.36280308030E-03 +1.12423843650E-03 -1.32285075194E-03 +1.10537992610E-03 -3.93858639568E-01 +2.42095907122E-01
4.45000000000E+09 -3.30252830160E-01 +3.03717851464E-01 -1.52361742252E-03 +1.33624278163E-03 -1.45051325584E-03 +1.31513783562E-03 -3.87050664381E-01 +2.62939122221E-01
4.45500000000E+09 -3.25805490129E-01 +3.17255572372E-01 -1.65962754695E-03 +1.80642145219E-03 -1.68298025467E-03 +1.76286282864E-03 -3.78765277807E-01 +2.83591534203E-01
4.46000000000E+09 -3.18684234815E-01 +3.29513962852E-01 -1.28889739384E-03 +2.09477604751E-03 -1.28565657078E-03 +2.08882408418E-03 -3.70416722440E-01 +3.02753896536E-01
4.46500000000E+09 -3.09795870638E-01 +3.41976701398E-01 -1.01564315189E-03 +2.44637298851E-03 -8.96818996579E-04 +2.36053452891E-03 -3.60641532438E-01 +3.22711862991E-01
4.47000000000E+09 -2.98676579817E-01 +3.55696021820E-01 -4.61313827228E-04 +2.56653753426E-03 -4.13497277276E-04 +2.52796824496E-03 -3.49457095334E-01 +3.41569558959E-01
4.47500000000E+09 -2.86765348426E-01 +3.70025686047E-01 -2.82752768516E-04 +2.52128926248E-03 -2.22315034418E-04 +2.47327322153E-03 -3.38894757936E-01 +3.60524777862E-01
4.48000000000E+09 -2.75476815191E-01 +3.86910724307E-01 +2.63561037655E-04 +2.70485792634E-03 +3.35363022965E-04 +2.58658305181E-03 -3.26960056979E-01 +3.79282173855E-01
4.48500000000E+09 -2.63628289348E-01 +4.04060146582E-01 +3.19733664565E-04 +2.24007139213E-03 +3.25819866653E-04 +2.19864794595E-03 -3.15317873440E-01 +3.96383811229E-01
4.49000000000E+09 -2.54323033916E-01 +4.20461779235E-01 +5.51863895477E-04 +2.65123501560E-03 +5.86401116569E-04 +2.58557349776E-03 -3.04025097243E-01 +4.12620163481E-01
4.49500000000E+09 -2.46114333328E-01 +4.36765307753E-01 +1.18535307261E-03 +2.41984188338E-03 +1.10408554628E-03 +2.35788887640E-03 -2.92861392664E-01 +4.28213307898E-01
4.50000000000E+09 -2.39755272231E-01 +4.49982451232E-01 +1.06811332640E-03 +2.29289797780E-03 +1.04684957357E-03 +2.28269775127E-03 -2.80456997770E-01 +4.44034477211E-01
4.50500000000E+09 -2.34862483865E-01 +4.62516320996E-01 +1.83889048949E-03 +2.40095844362E-03 +1.81084768856E-03 +2.35541215518E-03 -2.67303947578E-01 +4.59018983355E-01
4.51000000000E+09 -2.28313752303E-01 +4.72375589551E-01 +2.19154143020E-03 +1.64664090892E-03 +2.08602293906E-03 +1.60116493740E-03 -2.53553920359E-01 +4.73942193158E-01
4.51500000000E+09 -2.21746274686E-01 +4.80375621847E-01 +2.06742797358E-03 +1.43524538216E-03 +2.05722675594E-03 +1.48682266198E-03 -2.39822145206E-01 +4.88036888812E-01
4.52000000000E+09 -2.12293310003E-01 +4.88302320379E-01 +2.36393505851E-03 +1.21799090300E-03 +2.32388716547E-03 +1.17539702165E-03 -2.26501156780E-01 +5.01474971013E-01
4.52500000000E+09 -2.00971964814E-01 +4.94875321768E-01 +2.29067898900E-03 +7.48308379773E-04 +2.23778437235E-03 +7.07170833867E-04 -2.12609916652E-01 +5.13937031767E-01
4.53000000000E+09 -1.88091191967E-01 +5.03158329928E-01 +2.21676700866E-03 +7.07974398603E-04 +2.24994467252E-03 +6.10840337981E-04 -1.98697215930E-01 +5.25308737814E-01
4.53500000000E+09 -1.72908041372E-01 +5.12178117714E-01 +2.12894651238E-03 +4.98054597397E-04 +2.11373345195E-03 +4.45456758210E-04 -1.84194942395E-01 +5.37230563240E-01
4.54000000000E+09 -1.57837059450E-01 +5.22214528091E-01 +2.47425533779E-03 +6.06735206387E-04 +2.48425856945E-03 +5.08144505628E-04 -1.67899790707E-01 +5.47863693425E-01
4.54500000000E+09 -1.42924791670E-01 +5.33105078723E-01 +2.77685745779E-03 -1.04029090787E-04 +2.73382505521E-03 -1.38812386413E-04 -1.53244835946E-01 +5.57430096063E-01
4.55000000000E+09 -1.29969226394E-01 +5.43329442379E-01 +2.69156001931E-03 -4.08585384427E-04 +2.60363484917E-03 -4.29593232775E-04 -1.38305043229E-01 +5.68199206313E-01
4.55500000000E+09 -1.18830614014E-01 +5.54153619814E-01 +2.56138918873E-03 -9.76543151783E-04 +2.53423954996E-03 -1.01209636369E-03 -1.23616107638E-01 +5.77521690231E-01
4.56000000000E+09 -1.08667061645E-01 +5.63366292504E-01 +2.08315432954E-03 -1.18509142020E-03 +2.06352151841E-03 -1.21944843734E-03 -1.08867220737E-01 +5.86254629135E-01
4.56500000000E+09 -9.98676064639E-02 +5.71173583527E-01 +1.95093371897E-03 -1.35535650978E-03 +1.93659964304E-03 -1.37703963633E-03 -9.49613450268E-02 +5.94566589619E-01
4.57000000000E+09 -9.06869702569E-02 +5.77839152286E-01 +1.75162739943E-03 -1.41525505681E-03 +1.66159258737E-03 -1.43402110061E-03 -7.95194437211E-02 +6.03160969887E-01
