# Hz S RI R 50
! CMT, C1220, 16058040, 17.2.0/1
! Date: 14/08/2018 12:23:03
! Data: Format (Calibration Info)
! Freq                      S11: Re/Im (F2)                       S21: Re/Im (F2)                       S12: Re/Im (F2)                       S22: Re/Im (F2)            
1.00000000000E+09 -6.45709544624E-01 +7.15612504619E-01 +8.62401569555E-06 -1.37114707404E-05 +1.21963111778E-05 -3.07693867492E-05 -7.47895585629E-01 +6.24168035425E-01
1.00500000000E+09 -6.38543343039E-01 +7.20676373223E-01 +1.79502559070E-05 +5.80270227837E-06 +1.63796131457E-05 +5.88489145627E-05 -7.44378950663E-01 +6.28223198426E-01
1.01000000000E+09 -6.32520040038E-01 +7.25282859385E-01 +2.22557908963E-05 -1.09352493216E-05 +7.00204089769E-05 +3.66628243180E-05 -7.40885654454E-01 +6.31963848275E-01
1.01500000000E+09 -6.28515523102E-01 +7.29061261269E-01 -1.39338114427E-05 +2.84567855900E-05 -6.43322989949E-06 -1.72868268036E-05 -7.37516912481E-01 +6.35563556012E-01
1.02000000000E+09 -6.25801177818E-01 +7.32316352123E-01 -2.89424609454E-05 +6.56621377609E-07 +3.62543385815E-05 -4.30930153767E-05 -7.34109123680E-01 +6.39026619543E-01
1.02500000000E+09 -6.24323055253E-01 +7.34874052453E-01 -5.73653225232E-07 +8.36701886245E-06 +1.54396349725E-05 +4.70909774367E-05 -7.31062893614E-01 +6.42766122599E-01
1.03000000000E+09 -6.23197483268E-01 +7.37186357834E-01 +4.53748334527E-05 +2.47364903385E-05 -5.18779662481E-06 -9.08690804676E-06 -7.27642931742E-01 +6.46496411424E-01
1.03500000000E+09 -6.21268060022E-01 +7.39487256214E-01 +4.22603657446E-05 +9.82417867535E-06 -3.31910755557E-05 +3.90618501699E-06 -7.23823338441E-01 +6.50524970348E-01
1.04000000000E+09 -6.17861517513E-01 +7.42246986725E-01 -1.83219162663E-05 +3.83705567428E-05 +1.34485232315E-05 -4.63139132412E-05 -7.19985913221E-01 +6.54087354990E-01
1.04500000000E+09 -6.12622940815E-01 +7.45618669279E-01 +3.92036269718E-05 +2.04655530161E-06 +9.67290915598E-06 +2.35472723976E-05 -7.16551410786E-01 +6.57638268033E-01
1.05000000000E+09 -6.05436614480E-01 +7.49879601122E-01 +3.91350995081E-05 +6.71733138649E-05 -1.39968931285E-06 +3.71129149741E-05 -7.13067969153E-01 +6.60913945651E-01
1.05500000000E+09 -5.96717787955E-01 +7.54331769631E-01 +2.49095042352E-05 -8.02047720857E-06 +1.13611831771E-05 +6.34275743691E-05 -7.10027830355E-01 +6.64625184923E-01
1.06000000000E+09 -5.87442209134E-01 +7.59532414009E-01 +5.07431178999E-07 +1.44970609103E-05 +3.48378833056E-05 +7.04602663729E-06 -7.06551159217E-01 +6.68318941234E-01
1.06500000000E+09 -5.78332536054E-01 +7.64594668530E-01 +4.02873290945E-05 +3.29440259920E-05 +9.13107264556E-06 +8.21810386836E-06 -7.02833893995E-01 +6.72086620350E-01
1.07000000000E+09 -5.70351325986E-01 +7.68907355365E-01 +3.12023443708E-05 +4.28067016371E-05 +3.41557670341E-05 +1.25142394912E-05 -6.98742892753E-01 +6.75685291708E-01
1.07500000000E+09 -5.64126070610E-01 +7.72920326056E-01 +3.57771721486E-05 +1.83312612774E-05 +3.99951398978E-05 -2.82279351391E-05 -6.94480052668E-01 +6.79423623518E-01
1.08000000000E+09 -5.59776888898E-01 +7.76239877501E-01 +5.02361337490E-05 +3.85551820887E-05 +2.90649447657E-05 +4.59697519531E-05 -6.90603463517E-01 +6.83135429848E-01
1.08500000000E+09 -5.56937085597E-01 +7.78810527895E-01 -1.10054130183E-05 -1.39992912262E-05 +3.04961284673E-05 +1.03051928978E-06 -6.86591287172E-01 +6.86983186566E-01
1.09000000000E+09 -5.54831122088E-01 +7.80790937985E-01 +4.38991669975E-05 +8.03603254708E-07 -7.89370453540E-06 -3.43991075248E-05 -6.82685876886E-01 +6.90724269171E-01
1.09500000000E+09 -5.53224609042E-01 +7.82461906003E-01 +1.94897939478E-06 +1.82075202758E-05 +4.83258135102E-05 -2.63338654633E-05 -6.78943519610E-01 +6.94521167001E-01
1.10000000000E+09 -5.50334063529E-01 +7.84575491693E-01 +4.08740725589E-05 -1.66058032613E-05 +2.57838366573E-05 +1.81281817028E-05 -6.74878826764E-01 +6.98329400701E-01
1.10500000000E+09 -5.46206713542E-01 +7.87078074458E-01 -3.92260399349E-05 -1.06384666685E-05 +3.87782176072E-05 -1.24309010122E-05 -6.70595900201E-01 +7.01949475085E-01
1.11000000000E+09 -5.40410985760E-01 +7.90305707249E-01 -1.07846678597E-06 -2.09924589744E-05 +3.65591458612E-05 -7.85295151602E-05 -6.66448283582E-01 +7.05235927918E-01
1.11500000000E+09 -5.33162759584E-01 +7.94175908812E-01 +8.80694742917E-06 -2.11429306121E-05 +2.79849727948E-05 -3.95691410278E-05 -6.62402500600E-01 +7.08568849271E-01
1.12000000000E+09 -5.25284035468E-01 +7.98065957675E-01 +4.19210492033E-05 -3.06354890193E-06 +3.47764451974E-05 -2.59971277877E-05 -6.58380078367E-01 +7.12419339720E-01
1.12500000000E+09 -5.17172541433E-01 +8.02140505266E-01 -8.83806608017E-06 -1.10060332705E-05 -3.60921172282E-06 -4.91644786748E-05 -6.54297820029E-01 +7.16183811052E-01
1.13000000000E+09 -5.09739360746E-01 +8.05946026234E-01 +3.63143792651E-06 -2.19334395699E-05 +3.22682695970E-05 -3.49842740589E-06 -6.49931356743E-01 +7.19886848702E-01
1.13500000000E+09 -5.03205282383E-01 +8.08832792893E-01 +1.03002086856E-05 +1.34500134859E-05 -1.74209884819E-05 -1.88205102211E-05 -6.45423246125E-01 +7.23682002195E-01
1.14000000000E+09 -4.97915599913E-01 +8.11357236565E-01 +5.00770186484E-05 -1.83966399279E-05 +3.45450320047E-06 -2.60824514434E-05 -6.40646502801E-01 +7.27108008086E-01
1.14500000000E+09 -4.93953662538E-01 +8.12945709594E-01 +3.41293374476E-05 -3.58668641577E-05 -5.92616402372E-05 -2.48584362297E-05 -6.35965513029E-01 +7.30495465388E-01
1.15000000000E+09 -4.90252933586E-01 +8.14396987845E-01 +9.70657619830E-06 -2.50560449924E-05 +4.27433523545E-06 +3.46495117270E-05 -6.31609080025E-01 +7.34156075215E-01
1.15500000000E+09 -4.86396568490E-01 +8.16199847780E-01 +3.06045900713E-05 -3.53505668939E-05 -1.53783823526E-05 -1.58929147642E-05 -6.26678646733E-01 +7.37824592311E-01
1.16000000000E+09 -4.81559080641E-01 +8.17965936193E-01 +1.30534937394E-05 -1.68152467580E-06 -4.77679082581E-05 +2.44305485144E-05 -6.21942436669E-01 +7.41840881790E-01
1.16500000000E+09 -4.75765431218E-01 +8.20671948782E-01 -7.44677916359E-06 -2.68886827155E-05 +3.77646668884E-05 -4.72290607339E-05 -6.16785382794E-01 +7.45466479485E-01
1.17000000000E+09 -4.68574761478E-01 +8.23495838495E-01 -1.76505904825E-05 -4.17857098788E-05 +1.11454593501E-05 -5.04053990748E-06 -6.11342389620E-01 +7.48687864880E-01
1.17500000000E+09 -4.60598065363E-01 +8.26948640068E-01 +1.06812791110E-05 -1.60726239838E-05 +5.49342320716E-05 +5.72795686421E-06 -6.05652115558E-01 +7.51964767347E-01
1.18000000000E+09 -4.52441763893E-01 +8.30547821959E-01 -4.00910948712E-06 -1.49272013895E-05 -1.69668440653E-05 -2.95864092098E-05 -6.00135769547E-01 +7.55018165811E-01
1.18500000000E+09 -4.44420594188E-01 +8.33876670892E-01 +3.26217200434E-05 -5.42953529630E-05 -3.29418101317E-05 -3.25490352568E-05 -5.94168664741E-01 +7.57939310424E-01
1.19000000000E+09 -4.37162719449E-01 +8.36546320594E-01 -5.47944916566E-06 -3.45068590057E-05 -2.54834244159E-05 -3.64708763110E-05 -5.88018614259E-01 +7.60716012436E-01
1.19500000000E+09 -4.31241511125E-01 +8.38611071873E-01 -4.87078170661E-05 -5.00898971183E-05 -6.83221297195E-05 -6.06970487263E-05 -5.82146746886E-01 +7.61960756964E-01
1.20000000000E+09 -4.26323868344E-01 +8.39461839453E-01 -8.54330444613E-05 -3.20978035105E-05 -4.13697170022E-05 -3.17154026454E-05 -5.77644106029E-01 +7.62066594794E-01
1.20500000000E+09 -4.22026611578E-01 +8.40605021283E-01 -7.62385434884E-05 -6.99621719334E-06 -1.00907580331E-04 -7.64184618693E-07 -5.75256692674E-01 +7.62925028141E-01
1.21000000000E+09 -4.17337682429E-01 +8.41587413504E-01 -5.07762887826E-05 +3.98976586366E-05 -5.16478412453E-05 +1.33268754922E-05 -5.73512909935E-01 +7.66057763251E-01
1.21500000000E+09 -4.11321941139E-01 +8.42852948259E-01 -7.36723562219E-05 +3.89084589052E-05 -1.20788107108E-05 +5.07361823343E-05 -5.70655634145E-01 +7.70570801879E-01
1.22000000000E+09 -4.03825420811E-01 +8.44594445300E-01 -2.24020196570E-05 +7.98869153415E-06 +1.55512059304E-05 +7.07908774981E-06 -5.66549644121E-01 +7.75807227778E-01
1.22500000000E+09 -3.94553069028E-01 +8.46894170003E-01 +2.48806840480E-06 -2.35219247730E-05 -2.04300583060E-05 +9.48654397391E-06 -5.61431035375E-01 +7.80904980947E-01
1.23000000000E+09 -3.83926323579E-01 +8.49903163107E-01 -3.21534142849E-05 -3.12387949082E-05 +3.04063369496E-06 +9.96776389210E-06 -5.55731999419E-01 +7.85564866273E-01
1.23500000000E+09 -3.72891278797E-01 +8.53436805829E-01 -4.64255321016E-05 -1.07013355926E-05 -2.13289105988E-05 -2.11794756375E-05 -5.49905388601E-01 +7.89871221717E-01
1.24000000000E+09 -3.61966779404E-01 +8.57059774182E-01 +1.61021291826E-05 +3.74385779230E-06 +6.97899689839E-06 -1.05959750427E-05 -5.43955493950E-01 +7.93605904829E-01
1.24500000000E+09 -3.52152699068E-01 +8.61019050988E-01 -3.41267571673E-07 -7.85830127590E-06 -6.12388633827E-05 -3.58443633347E-05 -5.37662804026E-01 +7.97375098648E-01
1.25000000000E+09 -3.43628495487E-01 +8.64092487402E-01 -3.80472433558E-05 -3.46347873906E-05 -5.05079127587E-05 -2.99240470319E-05 -5.31141770456E-01 +8.01692615259E-01
1.25500000000E+09 -3.36778064438E-01 +8.66565338547E-01 -3.91094306504E-05 -4.09345185804E-05 -4.12231164056E-05 -1.82958163285E-05 -5.24300913455E-01 +8.05533124035E-01
1.26000000000E+09 -3.31153623104E-01 +8.68269512454E-01 -9.25604687710E-06 -2.20541277086E-05 -4.39659756873E-05 -2.16456630903E-05 -5.17494668347E-01 +8.09718870822E-01
1.26500000000E+09 -3.26256731321E-01 +8.69409403764E-01 -8.83606943827E-05 -1.58737616037E-05 -7.13600441071E-05 -2.47393606459E-05 -5.10596041630E-01 +8.13545620972E-01
1.27000000000E+09 -3.21209268067E-01 +8.70374343523E-01 -1.18732430890E-04 +2.00964027654E-05 -8.61520223411E-05 +1.32605167706E-05 -5.03676518587E-01 +8.17310488645E-01
1.27500000000E+09 -3.14902289237E-01 +8.71366043506E-01 -5.23779332742E-05 +5.15250512017E-05 -6.65020947417E-05 -7.45201459639E-06 -4.96674466653E-01 +8.20943157850E-01
1.28000000000E+09 -3.06650141949E-01 +8.72751675324E-01 -5.97040220474E-05 +2.19558261424E-05 -1.03635659345E-04 +3.57586149966E-06 -4.89827205582E-01 +8.24330676182E-01
1.28500000000E+09 -2.96235584132E-01 +8.74486616084E-01 -5.86956158653E-05 +1.96702559130E-05 -1.00082406991E-04 +5.57282216620E-05 -4.82322924926E-01 +8.27935074236E-01
1.29000000000E+09 -2.84606804058E-01 +8.76814150929E-01 -8.29481321505E-05 +3.25923797750E-05 -5.24801457352E-05 +6.67909866661E-05 -4.74817456462E-01 +8.31582587992E-01
1.29500000000E+09 -2.72063027389E-01 +8.79592265109E-01 -6.59933243148E-05 +6.87136032110E-05 -7.06443583916E-05 +8.36239253757E-05 -4.66892381406E-01 +8.35303292359E-01
1.30000000000E+09 -2.59646378532E-01 +8.82972608221E-01 -7.18439110475E-05 +5.08604132641E-05 -2.92786603856E-05 +1.04123386516E-04 -4.59235637253E-01 +8.38671076604E-01
1.30500000000E+09 -2.48040709302E-01 +8.85830068668E-01 -6.76392769485E-05 +7.93835486475E-05 -2.87395984741E-05 +4.83533457515E-05 -4.51202162254E-01 +8.41959298425E-01
1.31000000000E+09 -2.38070290276E-01 +8.88157693837E-01 -7.13778882393E-05 +1.09264212863E-04 -5.77838697033E-06 +1.12984306934E-04 -4.42902082115E-01 +8.45349785745E-01
1.31500000000E+09 -2.29992938896E-01 +8.89602909127E-01 +3.78936391305E-06 +1.00461285615E-04 +2.06932158248E-05 +1.11514366888E-04 -4.34195093695E-01 +8.48838540167E-01
1.32000000000E+09 -2.23510436989E-01 +8.90211026297E-01 +3.94333771802E-06 +5.97204969389E-05 -7.67919253679E-06 +3.19766063304E-05 -4.25054985888E-01 +8.52213892314E-01
1.32500000000E+09 -2.17697537457E-01 +8.89904969157E-01 +1.10814024471E-05 +7.21935048344E-05 +2.46590099917E-06 +1.00505037949E-04 -4.15535449035E-01 +8.55631795249E-01
1.33000000000E+09 -2.10792063753E-01 +8.89449576531E-01 -2.49822384185E-05 +8.82051089842E-05 +3.31907834730E-06 +7.52551433849E-05 -4.06029977067E-01 +8.58809668397E-01
1.33500000000E+09 -2.02362729668E-01 +8.88619407367E-01 +5.21645393801E-06 +1.40522376765E-04 +5.05478947890E-05 +7.57036618871E-05 -3.96203070617E-01 +8.62131272638E-01
1.34000000000E+09 -1.91408492501E-01 +8.87760219959E-01 +3.89365560130E-05 +9.71191468532E-05 +3.52761228675E-05 +8.44207746256E-05 -3.85984868924E-01 +8.65458122170E-01
1.34500000000E+09 -1.77806023949E-01 +8.87025769769E-01 +3.36523386189E-05 +5.73829961819E-05 +6.10043788576E-05 +6.36645968651E-05 -3.75158075528E-01 +8.68663315547E-01
1.35000000000E+09 -1.62218587389E-01 +8.86733734579E-01 +2.55576348543E-05 +3.47269749355E-05 -3.33737153127E-06 +4.24260215346E-05 -3.64142715601E-01 +8.71696856670E-01
1.35500000000E+09 -1.45456095661E-01 +8.86931126162E-01 +3.09384354166E-05 +6.71316851567E-05 +2.15934201794E-06 +8.06878838029E-05 -3.52573277703E-01 +8.74525299845E-01
1.36000000000E+09 -1.28494736202E-01 +8.87252408092E-01 +7.26949126224E-06 +9.42150667656E-05 -3.87307158584E-05 +8.64021875259E-05 -3.40854542360E-01 +8.77322491668E-01
1.36500000000E+09 -1.12347196854E-01 +8.87702727028E-01 -3.34271707083E-05 +7.19683873576E-05 -4.65898987428E-05 +1.12397317162E-04 -3.28848497018E-01 +8.79816996286E-01
1.37000000000E+09 -9.79045034273E-02 +8.87678711517E-01 +1.21128119617E-05 +1.50936209023E-04 +5.28546678709E-07 +1.49660679261E-04 -3.15842935628E-01 +8.82029971001E-01
1.37500000000E+09 -8.56465785414E-02 +8.87170565279E-01 +5.12347801574E-05 +1.88393218028E-04 +5.98189284292E-05 +1.90183530049E-04 -3.02284427408E-01 +8.84319535162E-01
1.38000000000E+09 -7.47117607382E-02 +8.86136499990E-01 +1.19171815455E-04 +1.95290734283E-04 +8.40985765681E-05 +1.77672417414E-04 -2.87791389749E-01 +8.86452429115E-01
1.38500000000E+09 -6.36983537113E-02 +8.84369175820E-01 +1.41716751778E-04 +1.31551546142E-04 +1.82109619904E-04 +2.33685362466E-04 -2.72384697058E-01 +8.88372743240E-01
1.39000000000E+09 -5.22164913982E-02 +8.81692191078E-01 +1.28162684460E-04 +1.47517075169E-04 +1.16381412721E-04 +1.94851140196E-04 -2.56493462299E-01 +8.89798686082E-01
1.39500000000E+09 -3.86595203643E-02 +8.78132705459E-01 +2.56751060239E-04 +1.65930667687E-04 +2.92092307234E-04 +1.92528529525E-04 -2.39857187709E-01 +8.90493410859E-01
1.40000000000E+09 -2.23106916612E-02 +8.73593353630E-01 +3.02779207707E-04 +7.60618270145E-05 +3.05661277626E-04 +7.66936589790E-05 -2.22366270401E-01 +8.91033037000E-01
1.40500000000E+09 -3.83759890518E-03 +8.68218819422E-01 +2.70571114860E-04 -1.47523059613E-05 +2.10218750463E-04 -3.26440511565E-05 -2.03655282827E-01 +8.90944108228E-01
1.41000000000E+09 +1.67433414871E-02 +8.62500928629E-01 +1.69819018484E-04 -9.78050523382E-06 +1.86488631777E-04 +3.62254289944E-05 -1.83401860423E-01 +8.90204863470E-01
1.41500000000E+09 +3.86200306767E-02 +8.56512928688E-01 +1.79751351887E-04 +3.42667908115E-06 +1.66737082950E-04 +3.68516784960E-05 -1.61850134122E-01 +8.88696152835E-01
1.42000000000E+09 +6.12573969878E-02 +8.50195044751E-01 +2.61203240997E-04 +9.09241397487E-05 +2.80090872633E-04 +1.19262145104E-04 -1.39095401317E-01 +8.85989851785E-01
1.42500000000E+09 +8.32258418380E-02 +8.42683343879E-01 +4.00785079419E-04 -5.96688978344E-05 +4.13395986757E-04 -5.51562162030E-05 -1.15552448589E-01 +8.82327689290E-01
1.43000000000E+09 +1.03666056484E-01 +8.34059082629E-01 +2.00450761060E-04 -1.73664220654E-04 +2.41090965459E-04 -2.25471246228E-04 -9.09674595261E-02 +8.77687756620E-01
1.43500000000E+09 +1.23226526777E-01 +8.23992387291E-01 +1.28039203388E-04 -1.39060634992E-04 +1.16969348246E-04 -1.69645953150E-04 -6.48076050330E-02 +8.71049193108E-01
1.44000000000E+09 +1.42429763291E-01 +8.12405084208E-01 +5.51971028441E-05 -7.00492115000E-07 +5.35597641573E-05 +2.55984140071E-05 -3.67327466456E-02 +8.62352120209E-01
1.44500000000E+09 +1.62850420109E-01 +7.98239325470E-01 +2.60441958501E-04 +1.42607744125E-04 +3.01127295812E-04 +2.09216496829E-04 -7.00038063108E-03 +8.51094038944E-01
1.45000000000E+09 +1.85443744374E-01 +7.80634610513E-01 +5.62693101614E-04 -5.37193642097E-06 +5.02289735787E-04 -6.83541533578E-05 +2.48089287578E-02 +8.36711643145E-01
1.45500000000E+09 +2.10594715492E-01 +7.58755917953E-01 +3.50233144358E-04 -1.14068290211E-04 +3.21727595708E-04 -1.77337149329E-04 +5.79918546069E-02 +8.19024346048E-01
1.46000000000E+09 +2.38224325232E-01 +7.32166978485E-01 +5.26382720629E-04 -1.66132711528E-05 +5.34719392324E-04 -6.72656813154E-05 +9.26832244319E-02 +7.97285442264E-01
1.46500000000E+09 +2.67371829991E-01 +7.01008283368E-01 +7.24520690606E-04 -2.03761988832E-04 +6.26517029243E-04 -2.19916842490E-04 +1.28005145469E-01 +7.70857413185E-01
1.47000000000E+09 +2.97712201160E-01 +6.65607303902E-01 +9.54443365380E-04 -3.18968195928E-04 +8.49991212521E-04 -2.69498095579E-04 +1.65011487744E-01 +7.37705509301E-01
1.47500000000E+09 +3.27847590975E-01 +6.24660197104E-01 +9.25181208407E-04 -8.69424837544E-04 +9.23063186912E-04 -8.03965881704E-04 +2.02045261463E-01 +6.97147022486E-01
1.48000000000E+09 +3.54786041308E-01 +5.78402651352E-01 +6.11366309139E-04 -1.05876834549E-03 +6.68894821297E-04 -1.05135515405E-03 +2.38844482639E-01 +6.48398013949E-01
1.48500000000E+09 +3.77650690858E-01 +5.26596270041E-01 +6.49757183330E-04 -1.12767797883E-03 +6.28075266109E-04 -1.17102923518E-03 +2.73282746145E-01 +5.90126111077E-01
1.49000000000E+09 +3.94474276855E-01 +4.68289480391E-01 +8.27437750915E-04 -1.43682604092E-03 +8.00781488871E-04 -1.51472087881E-03 +3.02083055079E-01 +5.20490873850E-01
1.49500000000E+09 +4.03549027172E-01 +4.02604881921E-01 +6.47861913696E-04 -2.59186744898E-03 +5.85104401866E-04 -2.52210238478E-03 +3.21053895677E-01 +4.41100548125E-01
1.50000000000E+09 +4.02043597165E-01 +3.29032948995E-01 -8.74814201201E-04 -3.38376860762E-03 -8.29539379851E-04 -3.18324830567E-03 +3.26704549903E-01 +3.51386949588E-01
1.50500000000E+09 +3.89046805519E-01 +2.49616108951E-01 -2.28231462175E-03 -2.96749046067E-03 -2.07779943727E-03 -2.92250747190E-03 +3.15734329438E-01 +2.54970652652E-01
1.51000000000E+09 +3.62305345689E-01 +1.64248057858E-01 -3.34026262122E-03 -1.86106697851E-03 -3.22758056657E-03 -2.00955435582E-03 +2.83816716535E-01 +1.54118160722E-01
1.51500000000E+09 +3.17958063558E-01 +7.72740314490E-02 -3.78007578516E-03 -9.98995963646E-04 -3.85949631685E-03 -1.13830901271E-03 +2.29832918964E-01 +5.59961796783E-02
1.52000000000E+09 +2.55146467302E-01 -4.38235776115E-03 -4.03690628339E-03 +8.17867765856E-04 -4.17780381387E-03 +7.23659789271E-04 +1.52757375949E-01 -3.11021986037E-02
1.52500000000E+09 +1.74707189887E-01 -7.45480129454E-02 -3.02231364806E-03 +1.28927289310E-03 -3.19209280688E-03 +1.28000215457E-03 +5.62718629838E-02 -9.99383765240E-02
1.53000000000E+09 +7.83139556620E-02 -1.24955381079E-01 -3.05033204426E-03 +1.92270090173E-03 -3.13839639395E-03 +2.01534304507E-03 -5.12077666554E-02 -1.43899957595E-01
1.53500000000E+09 -2.55313571320E-02 -1.50873970581E-01 -2.80172694206E-03 +2.82856591972E-03 -2.79977736211E-03 +2.92105389644E-03 -1.63634510385E-01 -1.63792394579E-01
1.54000000000E+09 -1.31070124513E-01 -1.52868538659E-01 -1.88843807787E-03 +3.87377855466E-03 -1.86469146784E-03 +3.91826175860E-03 -2.72639672928E-01 -1.60107392914E-01
1.54500000000E+09 -2.32180522307E-01 -1.31865880282E-01 -2.83450311588E-04 +4.67551168146E-03 -3.28071680697E-04 +4.66424952068E-03 -3.71932788641E-01 -1.35368031535E-01
1.55000000000E+09 -3.25157472253E-01 -9.36797722570E-02 +1.70305177982E-03 +3.80043924942E-03 +1.66007915616E-03 +3.92196351356E-03 -4.56494823383E-01 -9.68941949791E-02
1.55500000000E+09 -4.05265988318E-01 -4.06508887466E-02 +2.21069211363E-03 +2.69421788763E-03 +2.19098204855E-03 +2.88096078016E-03 -5.27088382127E-01 -4.91669467195E-02
1.56000000000E+09 -4.69758438020E-01 +1.78259017947E-02 +2.54634296003E-03 +1.61050989912E-03 +2.68950707752E-03 +1.76601220289E-03 -5.83768745417E-01 +4.54847207229E-03
1.56500000000E+09 -5.21392820304E-01 +7.74590840168E-02 +2.19018639251E-03 +9.49159320508E-04 +2.36716075638E-03 +1.07047741452E-03 -6.27512251485E-01 +6.06127798889E-02
1.57000000000E+09 -5.60885317448E-01 +1.36369809945E-01 +2.00428404923E-03 +4.72666609428E-04 +2.23905782081E-03 +4.01502122132E-04 -6.60574399135E-01 +1.15979198201E-01
