# Hz S RI R 50
! CMT, C1220, 16058040, 17.2.0/1
! Date: 14/08/2018 12:23:13
! Data: Format (Calibration Info)
! Freq                      S11: Re/Im (F2)                       S21: Re/Im (F2)                       S12: Re/Im (F2)                       S22: Re/Im (F2)            
1.00000000000E+09 -6.45739472796E-01 +7.15660936465E-01 +1.32669335743E-05 -4.17866374479E-05 +1.91792651676E-05 +9.41106930707E-06 -7.47914386381E-01 +6.24282894422E-01
1.00500000000E+09 -6.38447171620E-01 +7.20673654669E-01 -3.85855967651E-05 -3.06480318680E-05 +4.90334338599E-05 +3.11922337889E-05 -7.44211600822E-01 +6.28307903163E-01
1.01000000000E+09 -6.32651815716E-01 +7.25520185702E-01 +2.55298389033E-05 +3.96338376517E-05 +1.61330896077E-05 -5.08125856712E-06 -7.40918881193E-01 +6.31840024367E-01
1.01500000000E+09 -6.28461685965E-01 +7.29201256333E-01 -3.70525470067E-07 +1.70025326001E-05 -7.80031789304E-07 +3.28403160414E-05 -7.37408954025E-01 +6.35551323249E-01
1.02000000000E+09 -6.25993873901E-01 +7.32296453717E-01 +3.11136470122E-06 -3.28250450210E-05 +8.21470216777E-07 +6.36149456558E-06 -7.34076439740E-01 +6.39151125744E-01
1.02500000000E+09 -6.24430920314E-01 +7.34916676682E-01 -8.53355504324E-06 +7.18214484933E-05 +4.87884623088E-06 -3.41104188748E-07 -7.31256095715E-01 +6.42673377583E-01
1.03000000000E+09 -6.23406151200E-01 +7.37209040180E-01 -4.73154179504E-05 -1.68186205461E-07 +7.22328649190E-07 +5.43897953828E-05 -7.27555205833E-01 +6.46565938796E-01
1.03500000000E+09 -6.21379577683E-01 +7.39509625175E-01 -3.80743318920E-05 +2.80255254252E-05 +2.43556097261E-05 +2.78641582269E-06 -7.23885776216E-01 +6.50394842399E-01
1.04000000000E+09 -6.17955623615E-01 +7.42284010713E-01 -2.18032848216E-05 -3.02265451975E-05 +5.59888567872E-05 -6.07843686403E-06 -7.20195997291E-01 +6.54006225591E-01
1.04500000000E+09 -6.12641212061E-01 +7.45558335059E-01 +1.64164429935E-05 -1.57090614779E-05 +8.77954423861E-06 +5.44355453516E-06 -7.16676716653E-01 +6.57626131860E-01
1.05000000000E+09 -6.05605082288E-01 +7.49780462600E-01 +2.08603094259E-05 -1.10589408196E-06 -1.97068596251E-05 -9.44538215198E-06 -7.13247008843E-01 +6.61068697818E-01
1.05500000000E+09 -5.96861417399E-01 +7.54349070754E-01 +1.72858041997E-06 +2.37848067021E-05 -9.48997161688E-06 +2.14717401702E-05 -7.09839723789E-01 +6.64634065953E-01
1.06000000000E+09 -5.87363326393E-01 +7.59529550374E-01 +1.21594646602E-05 +5.64515928740E-05 -1.86826188106E-05 -9.74297024159E-06 -7.06648055997E-01 +6.68260564465E-01
1.06500000000E+09 -5.78495723668E-01 +7.64744890467E-01 -5.03525297458E-06 +4.33304219879E-06 +1.23995297164E-06 +4.22077461786E-06 -7.02908103789E-01 +6.72107190833E-01
1.07000000000E+09 -5.70402179226E-01 +7.69007107709E-01 -2.04136131424E-06 +1.26765063916E-05 +4.36854848925E-05 +7.30202690916E-07 -6.98963812383E-01 +6.75781024754E-01
1.07500000000E+09 -5.64088756934E-01 +7.72964575508E-01 +6.83583296806E-05 +3.16802144603E-05 +1.30921267116E-05 +4.38476616218E-05 -6.94691678035E-01 +6.79258458623E-01
1.08000000000E+09 -5.59879227298E-01 +7.76253093724E-01 +5.69966455187E-05 +1.87165576010E-05 +5.53865165429E-05 +1.65529702291E-05 -6.90509603404E-01 +6.83177348475E-01
1.08500000000E+09 -5.57036358163E-01 +7.78671123332E-01 +4.76942717988E-06 -1.04155716198E-05 +5.93937853736E-05 -1.12086513133E-05 -6.86662913213E-01 +6.86852864552E-01
1.09000000000E+09 -5.54938559200E-01 +7.80758707142E-01 +6.25856352458E-05 +2.63431057417E-05 +6.02120848829E-06 -2.66429715486E-05 -6.82807892842E-01 +6.90744471357E-01
1.09500000000E+09 -5.53349365916E-01 +7.82585786532E-01 +1.94012306988E-05 -5.09324679266E-05 +2.31046299300E-05 -4.36284304011E-05 -6.78958510503E-01 +6.94602010409E-01
1.10000000000E+09 -5.50294876722E-01 +7.84498511372E-01 +4.73505246920E-05 -2.16174978679E-05 +3.93142319087E-05 -3.38952685305E-05 -6.74914745992E-01 +6.98469818166E-01
1.10500000000E+09 -5.46215959147E-01 +7.87078897152E-01 +4.93115655753E-05 -2.40700202824E-05 +1.46140467616E-05 +5.11809036199E-06 -6.70718187054E-01 +7.01726000927E-01
1.11000000000E+09 -5.40486807458E-01 +7.90389968068E-01 +1.88002198383E-05 -1.07156823100E-05 +3.83153024988E-05 -4.04483837894E-05 -6.66534316812E-01 +7.05192236953E-01
1.11500000000E+09 -5.33279478837E-01 +7.94228126112E-01 +8.72760643909E-07 -3.80488275659E-05 -2.65407556413E-05 -3.10604751937E-06 -6.62353900583E-01 +7.08634906333E-01
1.12000000000E+09 -5.25293145596E-01 +7.98172651196E-01 +1.04305543014E-05 -5.92379361278E-05 -5.99088217615E-06 -7.63204053553E-05 -6.58319482826E-01 +7.12294941717E-01
1.12500000000E+09 -5.17138904120E-01 +8.02269818724E-01 +3.82172090691E-05 -2.54345812296E-05 +1.68003411350E-05 -2.36795477721E-06 -6.54176286833E-01 +7.16195652164E-01
1.13000000000E+09 -5.09699347051E-01 +8.05967214899E-01 +4.52611000189E-05 -4.52786836156E-05 +7.22614142828E-06 -3.13002527909E-05 -6.49993039289E-01 +7.19961409732E-01
1.13500000000E+09 -5.03381703891E-01 +8.08802306852E-01 -1.61183666220E-05 -2.64494015151E-05 +3.91540599056E-05 -9.70638062693E-06 -6.45330466374E-01 +7.23710944855E-01
1.14000000000E+09 -4.98088812972E-01 +8.11334278683E-01 +3.81292299925E-05 -2.04511326766E-05 +1.47230952787E-05 -6.75254466953E-05 -6.40708460925E-01 +7.27090056852E-01
1.14500000000E+09 -4.93990917186E-01 +8.13028807030E-01 +9.51112123284E-06 +6.05447441496E-06 +6.45139038029E-05 -7.53914340375E-05 -6.36109204352E-01 +7.30498836627E-01
1.15000000000E+09 -4.90269012416E-01 +8.14615679106E-01 +2.94461034683E-06 +4.76918900315E-06 -1.05293785795E-05 -4.83643339395E-06 -6.31502840565E-01 +7.34149845770E-01
1.15500000000E+09 -4.86386699682E-01 +8.16326575498E-01 -2.84420819637E-05 -4.74566622204E-05 +9.02164070741E-06 -3.21751891440E-05 -6.26759797543E-01 +7.37982268249E-01
1.16000000000E+09 -4.81721628793E-01 +8.18096810370E-01 -1.71145206645E-05 +1.72239052755E-05 -6.35483341631E-06 -6.30505664140E-05 -6.21836747188E-01 +7.41810458843E-01
1.16500000000E+09 -4.75841840935E-01 +8.20665935357E-01 -2.81427144945E-05 -4.87780118896E-05 -6.43536305523E-06 -4.84469772052E-05 -6.16700611107E-01 +7.45514594743E-01
1.17000000000E+09 -4.68691443591E-01 +8.23697398075E-01 +3.72881297114E-05 -1.09995157300E-05 +8.03117548987E-07 -2.02731270002E-05 -6.11289636949E-01 +7.48693636413E-01
1.17500000000E+09 -4.60745871042E-01 +8.26944945616E-01 +2.21316465198E-05 -4.49865838649E-05 -4.97515075361E-06 -3.41202259701E-05 -6.05581137104E-01 +7.51907646090E-01
1.18000000000E+09 -4.52464373385E-01 +8.30566553421E-01 -8.80756054025E-06 -6.61139546029E-05 -4.26065216267E-05 -1.05877324853E-06 -6.00131635366E-01 +7.55052687767E-01
1.18500000000E+09 -4.44409133339E-01 +8.33867036916E-01 -4.58290363334E-06 -5.45631388718E-05 -3.77224686623E-05 -2.31252715439E-05 -5.94048936253E-01 +7.58071343014E-01
1.19000000000E+09 -4.37210729819E-01 +8.36519898072E-01 -1.63773478777E-05 -2.25975544557E-05 -9.83201822010E-06 -1.36942162812E-05 -5.87971567074E-01 +7.60698934759E-01
1.19500000000E+09 -4.31220434537E-01 +8.38646356991E-01 -6.60170348159E-05 -6.55378981416E-05 -8.44917880290E-05 -7.92912389562E-05 -5.81966377373E-01 +7.61893357995E-01
1.20000000000E+09 -4.26441939901E-01 +8.39505992963E-01 -6.81489484600E-05 -3.93492810322E-05 -7.02417159417E-05 -5.04837099551E-05 -5.77722957482E-01 +7.62125068026E-01
1.20500000000E+09 -4.22087826190E-01 +8.40558101389E-01 -3.63102690957E-05 -1.08788184253E-05 -4.46234143008E-05 -4.79093878243E-05 -5.75348247293E-01 +7.63044716782E-01
1.21000000000E+09 -4.17449935771E-01 +8.41636854732E-01 -7.19111790656E-05 +5.27703428579E-05 +8.92187317459E-06 -2.36766312861E-05 -5.73485728806E-01 +7.65963855439E-01
1.21500000000E+09 -4.11417579925E-01 +8.42891327218E-01 -7.73406612135E-06 +1.42717677149E-05 -5.70752793702E-06 +1.18172316616E-05 -5.70672457894E-01 +7.70438819402E-01
1.22000000000E+09 -4.03929732172E-01 +8.44597012594E-01 -1.26927513167E-05 +2.23935879997E-05 -5.22749907488E-05 +1.18095931982E-05 -5.66476587684E-01 +7.75756842284E-01
1.22500000000E+09 -3.94725129117E-01 +8.47083393417E-01 +6.66622968678E-06 -2.24457787311E-05 -4.88967892771E-05 +1.78675844151E-05 -5.61403275746E-01 +7.80828887888E-01
1.23000000000E+09 -3.84040056628E-01 +8.49903846151E-01 -3.55663095871E-05 -7.60270451472E-06 -5.15744227995E-05 -2.15886184999E-05 -5.55777799252E-01 +7.85515340760E-01
1.23500000000E+09 -3.73053028976E-01 +8.53524245167E-01 -2.57210354320E-05 +8.76711513152E-06 +1.18240465941E-06 +9.29188276099E-06 -5.49844271909E-01 +7.89827494048E-01
1.24000000000E+09 -3.62107915397E-01 +8.57137133608E-01 -2.12120134149E-05 -1.31706097234E-05 +1.21046228830E-05 +5.35663230882E-06 -5.43915739509E-01 +7.93741925996E-01
1.24500000000E+09 -3.52215331469E-01 +8.61081312460E-01 -5.71519686648E-05 +4.79314608298E-05 -1.90153006508E-05 +9.37879663195E-06 -5.37583154451E-01 +7.97409714366E-01
1.25000000000E+09 -3.43636218183E-01 +8.64378245590E-01 -2.42150363961E-05 -5.20567204433E-05 -8.05040207699E-07 -4.23902777967E-06 -5.30945106849E-01 +8.01596000192E-01
1.25500000000E+09 -3.36803981755E-01 +8.66658311955E-01 -1.56590644895E-05 -8.94505010274E-06 -3.71691434034E-05 -5.05390447775E-06 -5.24245644611E-01 +8.05597191920E-01
1.26000000000E+09 -3.31223415756E-01 +8.68408466558E-01 -6.52476565736E-05 -2.85833816221E-05 -6.11236014597E-05 +1.63587340432E-07 -5.17608546246E-01 +8.09898117105E-01
1.26500000000E+09 -3.26383537146E-01 +8.69473468800E-01 -7.30523211501E-05 +1.24011778969E-05 -6.03111339451E-05 -6.23059366732E-05 -5.10596140616E-01 +8.13610863032E-01
1.27000000000E+09 -3.21250049596E-01 +8.70462087989E-01 -7.58980086369E-05 -1.15205032660E-05 -6.94296498696E-05 +3.27392887883E-05 -5.03792441428E-01 +8.17403942556E-01
1.27500000000E+09 -3.14968101545E-01 +8.71424097600E-01 -7.46757204280E-05 -1.48651169769E-05 -6.87328696908E-05 +2.72428210292E-05 -4.96705490004E-01 +8.20978976321E-01
1.28000000000E+09 -3.06771850772E-01 +8.72705613735E-01 -8.00726984741E-05 +2.59422827139E-05 -7.57518257654E-05 +1.67067026662E-06 -4.89683494982E-01 +8.24405033800E-01
1.28500000000E+09 -2.96266036761E-01 +8.74667373811E-01 -9.74275210167E-05 +7.91616399270E-05 -9.68762035692E-05 +1.61825201683E-05 -4.82282558509E-01 +8.28075913931E-01
1.29000000000E+09 -2.84587980885E-01 +8.76883777284E-01 -4.45586479108E-05 +3.78011197236E-05 -5.31640284572E-05 +9.76389589511E-05 -4.74848468699E-01 +8.31751353918E-01
1.29500000000E+09 -2.72105170611E-01 +8.79784913950E-01 -3.46609715941E-05 +5.93310405380E-05 -1.46745975509E-05 +6.75472529722E-05 -4.67033616246E-01 +8.35109562407E-01
1.30000000000E+09 -2.59564999917E-01 +8.83160215462E-01 -1.04776712700E-04 +2.02592791160E-05 -9.70136115656E-05 +8.22830467989E-05 -4.59224842879E-01 +8.38523283758E-01
1.30500000000E+09 -2.48203712534E-01 +8.86093229671E-01 -7.76920654397E-05 +1.05900333385E-04 -8.01841199078E-05 +5.18708591346E-05 -4.51205115689E-01 +8.41873723986E-01
1.31000000000E+09 -2.38119652416E-01 +8.88219308282E-01 -8.12049304976E-05 +1.13682255370E-04 -2.98879951368E-05 +1.27409291526E-04 -4.42910174461E-01 +8.45392065981E-01
1.31500000000E+09 -2.30246377378E-01 +8.89683548490E-01 -7.01366509978E-06 +1.23087936841E-04 -4.97377966104E-05 +1.30783211599E-04 -4.34172232753E-01 +8.48829686204E-01
1.32000000000E+09 -2.23598663102E-01 +8.90306898648E-01 -3.73572698456E-06 +9.36970348962E-05 +4.42234169644E-05 +1.02264885337E-04 -4.25101445792E-01 +8.52100079354E-01
1.32500000000E+09 -2.17730699922E-01 +8.90063589634E-01 +5.38521035296E-06 +4.48314790462E-05 -5.21342033922E-06 +7.58671317558E-05 -4.15587717568E-01 +8.55591204301E-01
1.33000000000E+09 -2.10950066226E-01 +8.89525873357E-01 -1.49876371422E-05 +1.09256011266E-04 +3.40403199140E-06 +9.70579236180E-05 -4.06027570165E-01 +8.58859674126E-01
1.33500000000E+09 -2.02361190034E-01 +8.88735621153E-01 +3.88169582680E-05 +1.44983743832E-04 +3.72459212336E-05 +1.44735176696E-04 -3.96253905320E-01 +8.62296836140E-01
1.34000000000E+09 -1.91340946145E-01 +8.87898760335E-01 +7.99255512122E-05 +1.61740692666E-04 +2.49908192116E-05 +9.56904100406E-05 -3.86015636322E-01 +8.65417596500E-01
1.34500000000E+09 -1.77923188584E-01 +8.87297959851E-01 +9.60779347523E-05 +7.48884685437E-05 +4.88087289038E-05 +8.29047718275E-05 -3.75244503104E-01 +8.68657965534E-01
1.35000000000E+09 -1.62270638343E-01 +8.86892340959E-01 +6.00307779029E-05 +6.78986368331E-05 +7.77050371103E-05 +7.51400955457E-05 -3.64205981478E-01 +8.71737908598E-01
1.35500000000E+09 -1.45484471318E-01 +8.86994650999E-01 +2.18327667042E-05 +5.32873687331E-05 +7.09852776602E-05 +5.22207720698E-05 -3.52708955054E-01 +8.74729819332E-01
1.36000000000E+09 -1.28631815713E-01 +8.87412159824E-01 +4.48647665572E-05 +7.97321571708E-05 +4.22374010760E-05 +1.02586098368E-04 -3.40811396442E-01 +8.77337284506E-01
1.36500000000E+09 -1.12370509269E-01 +8.87871207168E-01 +4.02624911976E-05 +2.53065150094E-05 +6.00958476149E-05 +4.96834386220E-05 -3.28621655831E-01 +8.79842150698E-01
1.37000000000E+09 -9.79238080081E-02 +8.87656626423E-01 +5.74481794943E-05 +8.00770763567E-05 +4.74277121905E-05 +1.32631013008E-04 -3.15901122434E-01 +8.82044850396E-01
1.37500000000E+09 -8.56772736854E-02 +8.87317922686E-01 +9.68705608925E-05 +1.27135459008E-04 +1.84323756535E-05 +1.43124670466E-04 -3.02066999056E-01 +8.84333582523E-01
1.38000000000E+09 -7.47232601019E-02 +8.86340042644E-01 +1.17029149111E-04 +1.58932351174E-04 +9.90967763805E-05 +1.71555180992E-04 -2.87756273595E-01 +8.86452311260E-01
1.38500000000E+09 -6.37667051309E-02 +8.84459809612E-01 +1.21265118671E-04 +9.81993747717E-05 +1.71437928913E-04 +1.33373974202E-04 -2.72164321443E-01 +8.88292727008E-01
1.39000000000E+09 -5.22778757210E-02 +8.81738056499E-01 +1.14158396513E-04 +1.01632081746E-04 +1.69376197408E-04 +1.07918039624E-04 -2.56364846871E-01 +8.89665899034E-01
1.39500000000E+09 -3.86652133412E-02 +8.78196490305E-01 +2.08241573787E-04 +6.71142532125E-05 +2.60453874861E-04 +1.40857305645E-04 -2.39735143590E-01 +8.90403351250E-01
1.40000000000E+09 -2.23745840459E-02 +8.73623642806E-01 +2.49266622043E-04 +8.53405533375E-05 +2.48919391581E-04 +2.77743575597E-05 -2.22262881115E-01 +8.90943158398E-01
1.40500000000E+09 -3.90244583493E-03 +8.68385782269E-01 +2.16545230078E-04 -5.97563634322E-05 +1.88712091051E-04 -1.41332638113E-05 -2.03636373153E-01 +8.90932870693E-01
1.41000000000E+09 +1.66959947078E-02 +8.62523041135E-01 +1.15967691628E-04 -4.38275703380E-05 +1.32871842827E-04 -7.04120744580E-05 -1.83367028070E-01 +8.90176735081E-01
1.41500000000E+09 +3.86320447333E-02 +8.56550293954E-01 +1.80598401090E-04 -2.67221933340E-05 +1.26347273711E-04 +8.16287303149E-06 -1.61920162148E-01 +8.88509699557E-01
1.42000000000E+09 +6.11074360190E-02 +8.50208594527E-01 +2.55536945706E-04 +7.18691958768E-05 +2.14378487443E-04 +3.96811541139E-05 -1.39255985523E-01 +8.85721261257E-01
1.42500000000E+09 +8.31020030182E-02 +8.42745170007E-01 +3.12367180164E-04 -6.82985367362E-05 +3.33771680436E-04 -1.24284557350E-04 -1.15777309286E-01 +8.82418581598E-01
1.43000000000E+09 +1.03559825363E-01 +8.34053416615E-01 +1.31246193694E-04 -2.11477320775E-04 +1.33433672298E-04 -2.55571372526E-04 -9.11911353973E-02 +8.77657562626E-01
1.43500000000E+09 +1.23068524610E-01 +8.24079671901E-01 +1.17666963815E-06 -1.67812554234E-04 -7.88497414461E-06 -1.81002092351E-04 -6.49572972219E-02 +8.71187440323E-01
1.44000000000E+09 +1.42389089444E-01 +8.12463349749E-01 -1.40689314222E-05 +2.85595307554E-05 -5.05583354898E-05 +5.07722494935E-06 -3.70588490608E-02 +8.62479537819E-01
1.44500000000E+09 +1.62744374751E-01 +7.98191291258E-01 +8.58539707608E-05 +2.22179205724E-04 +1.09532677508E-04 +1.98627642118E-04 -7.13237368485E-03 +8.51229420930E-01
1.45000000000E+09 +1.85258373054E-01 +7.80620873232E-01 +3.92867107768E-04 +4.91262030067E-05 +4.04055827768E-04 +5.01233181874E-05 +2.46437453730E-02 +8.37042714586E-01
1.45500000000E+09 +2.10518946216E-01 +7.58575093996E-01 +2.45773862757E-04 +4.29151940638E-05 +2.33885373241E-04 +8.74780472442E-06 +5.80911671850E-02 +8.19379963190E-01
1.46000000000E+09 +2.38185002647E-01 +7.32019065603E-01 +4.52077409806E-04 +2.88763283816E-04 +3.77295276294E-04 +2.04835747068E-04 +9.29356823802E-02 +7.97709290736E-01
1.46500000000E+09 +2.67262615531E-01 +7.00635605376E-01 +7.70036888303E-04 +7.32673047372E-05 +6.94575902662E-04 +3.21007372685E-05 +1.28512668637E-01 +7.71341116743E-01
1.47000000000E+09 +2.97555304821E-01 +6.65220568251E-01 +1.04392974159E-03 -1.30102503931E-04 +9.27796796674E-04 -7.37348574805E-05 +1.65724810806E-01 +7.37962267632E-01
1.47500000000E+09 +3.27397933029E-01 +6.24351597008E-01 +1.10515670399E-03 -6.19299430366E-04 +1.01514507761E-03 -5.94539684312E-04 +2.02912218240E-01 +6.97206673342E-01
1.48000000000E+09 +3.54138123619E-01 +5.78189483363E-01 +8.56306915940E-04 -9.80192126955E-04 +8.97940374520E-04 -9.34906377031E-04 +2.39583780833E-01 +6.48072187442E-01
1.48500000000E+09 +3.76812992126E-01 +5.26454061900E-01 +8.72678496679E-04 -1.04047198417E-03 +9.69492190381E-04 -1.05755585875E-03 +2.74059009499E-01 +5.89479308496E-01
1.49000000000E+09 +3.93730817546E-01 +4.68151029220E-01 +1.17959195608E-03 -1.50315128762E-03 +1.06119118291E-03 -1.53801948138E-03 +3.02589832924E-01 +5.19604627353E-01
1.49500000000E+09 +4.02566778128E-01 +4.02550729904E-01 +1.07569151978E-03 -2.83425580541E-03 +8.99729544903E-04 -2.74415558757E-03 +3.21240261768E-01 +4.39733662238E-01
1.50000000000E+09 +4.00920796680E-01 +3.29262649919E-01 -7.58022992957E-04 -3.76603560148E-03 -6.64495890507E-04 -3.57834603181E-03 +3.26111074761E-01 +3.50053330776E-01
1.50500000000E+09 +3.87928713552E-01 +2.50182140047E-01 -2.44428925162E-03 -3.35068690365E-03 -2.17212961068E-03 -3.29807874306E-03 +3.14543722535E-01 +2.54088795973E-01
1.51000000000E+09 +3.61127653260E-01 +1.65145375479E-01 -3.58248372777E-03 -2.01845852037E-03 -3.40069119026E-03 -2.19780596180E-03 +2.82480008277E-01 +1.53879784941E-01
1.51500000000E+09 +3.17216985020E-01 +7.84914704697E-02 -4.02459860413E-03 -1.06758974380E-03 -4.01795285621E-03 -1.26901757284E-03 +2.28452537416E-01 +5.61143901381E-02
1.52000000000E+09 +2.54802972051E-01 -3.06801334355E-03 -4.27196344954E-03 +7.61959014061E-04 -4.38250817578E-03 +6.40342542807E-04 +1.51366815313E-01 -3.03454531372E-02
1.52500000000E+09 +1.74656862165E-01 -7.33037206418E-02 -3.35183282049E-03 +1.39331196227E-03 -3.48174392865E-03 +1.33048365311E-03 +5.56235949798E-02 -9.86569455973E-02
1.53000000000E+09 +7.83674135173E-02 -1.23769026210E-01 -3.17798194072E-03 +2.23341242196E-03 -3.36577420710E-03 +2.22593074120E-03 -5.13092820193E-02 -1.42572662073E-01
1.53500000000E+09 -2.52950916545E-02 -1.49651958676E-01 -2.80662841086E-03 +3.17460184143E-03 -2.89011684493E-03 +3.21397043426E-03 -1.63111300822E-01 -1.62638977116E-01
1.54000000000E+09 -1.30490992496E-01 -1.51742095307E-01 -1.66533725952E-03 +4.22911904887E-03 -1.70421898310E-03 +4.20500844685E-03 -2.71901660338E-01 -1.59147301819E-01
1.54500000000E+09 -2.31404872394E-01 -1.30980595940E-01 +6.83771734751E-05 +4.82278089798E-03 -6.99435370791E-05 +4.76544217085E-03 -3.70828134227E-01 -1.34801990150E-01
1.55000000000E+09 -3.24367321264E-01 -9.31279245030E-02 +1.91858799435E-03 +3.76905358232E-03 +1.81090005662E-03 +3.91404096526E-03 -4.55319343881E-01 -9.70402786508E-02
1.55500000000E+09 -4.04579312639E-01 -4.03406161743E-02 +2.45345776696E-03 +2.56457048649E-03 +2.36337262504E-03 +2.79703481597E-03 -5.26312304328E-01 -4.98888021150E-02
1.56000000000E+09 -4.69150632321E-01 +1.78676874306E-02 +2.78390477283E-03 +1.45393551827E-03 +2.84574119275E-03 +1.65424123234E-03 -5.83557582722E-01 +3.71939296603E-03
1.56500000000E+09 -5.20929529029E-01 +7.75871783550E-02 +2.37557836896E-03 +7.72125067559E-04 +2.57462876198E-03 +8.62474300745E-04 -6.27719111935E-01 +6.00218116908E-02
1.57000000000E+09 -5.60473269304E-01 +1.36505614036E-01 +2.04923378890E-03 +1.78939260803E-04 +2.23411777827E-03 +1.87993100495E-04 -6.60861855832E-01 +1.15735276238E-01
