# Hz S RI R 50
! CMT, C1220, 16058040, 17.2.0/1
! Date: 14/08/2018 12:25:29
! Data: Format (Calibration Info)
! Freq                      S11: Re/Im (F2)                       S21: Re/Im (F2)                       S12: Re/Im (F2)                       S22: Re/Im (F2)            
1.00000000000E+09 -6.46759185315E-01 +7.14825180659E-01 -3.23151646877E-06 +6.76039425027E-06 +3.88798700107E-05 +1.79913501535E-05 -7.47949009650E-01 +6.23879867181E-01
1.00500000000E+09 -6.39728243180E-01 +7.19898393329E-01 +7.59721086868E-06 -2.26415654322E-05 +2.83045943185E-05 +1.04237857604E-05 -7.44514830828E-01 +6.27919187840E-01
1.01000000000E+09 -6.33872258440E-01 +7.24425721495E-01 +2.06630110977E-05 -7.04193362923E-06 +2.31039174943E-05 +1.81480602993E-06 -7.40905727599E-01 +6.31704577402E-01
1.01500000000E+09 -6.29775714589E-01 +7.28304165250E-01 -1.21924188379E-05 -4.42017808304E-05 +3.06621941865E-06 -1.56843532262E-05 -7.37486841086E-01 +6.35284802015E-01
1.02000000000E+09 -6.27228081879E-01 +7.31295158502E-01 +5.43367909097E-05 +1.80287432366E-05 +1.78746397808E-05 +2.26604694913E-05 -7.34231002566E-01 +6.38752642552E-01
1.02500000000E+09 -6.25711309540E-01 +7.33866067967E-01 +3.39846544070E-05 +1.11589095038E-05 +6.21354499418E-06 +2.10021347800E-05 -7.31380572399E-01 +6.42440254958E-01
1.03000000000E+09 -6.24792849920E-01 +7.36024102079E-01 +3.57680935299E-05 -2.14638571301E-05 +4.86956385593E-05 +1.92770983065E-05 -7.27924442274E-01 +6.46366277318E-01
1.03500000000E+09 -6.22834273096E-01 +7.38366824869E-01 +2.38820913953E-05 +3.72524013588E-06 -4.39392024971E-05 -1.70666974488E-05 -7.23982022174E-01 +6.50194762290E-01
1.04000000000E+09 -6.19594613045E-01 +7.41077780069E-01 +8.00600531347E-06 -2.67285503687E-06 -2.95445857235E-06 -8.56618296037E-06 -7.20179084888E-01 +6.53940052813E-01
1.04500000000E+09 -6.14320786245E-01 +7.44492399820E-01 +1.64651242011E-05 -1.18588923872E-05 -1.93623912296E-06 -3.63307388903E-05 -7.16681233128E-01 +6.57324192328E-01
1.05000000000E+09 -6.07270245514E-01 +7.48654636585E-01 -2.88380023737E-05 +3.53865214352E-05 -1.63740439865E-05 -7.92891823127E-06 -7.13290770094E-01 +6.60726477129E-01
1.05500000000E+09 -5.98531577804E-01 +7.53170768821E-01 +6.38259261410E-06 +3.42458097826E-06 -3.21468706017E-06 -2.38510529997E-05 -7.10144256398E-01 +6.64256625572E-01
1.06000000000E+09 -5.89261509996E-01 +7.58358364809E-01 +1.88954885759E-05 -3.99948041947E-05 +2.16910957921E-05 +3.32685346179E-05 -7.06726344105E-01 +6.68136549439E-01
1.06500000000E+09 -5.80273861975E-01 +7.63281736523E-01 +2.73487466808E-05 +2.31052071261E-05 +3.27334497949E-05 +2.24572079228E-05 -7.03034530921E-01 +6.71788834106E-01
1.07000000000E+09 -5.72433304025E-01 +7.67779193095E-01 -4.44121507139E-05 +8.55166681356E-06 +5.82996763507E-05 +2.27732423760E-05 -6.99084879810E-01 +6.75484719107E-01
1.07500000000E+09 -5.66478193065E-01 +7.71640901977E-01 -1.03402172765E-05 +1.66088556878E-05 +3.85506760758E-05 -2.07869872559E-05 -6.94704290693E-01 +6.79168342090E-01
1.08000000000E+09 -5.62112358809E-01 +7.74994367699E-01 -8.84171921748E-07 -2.95236316706E-05 +3.13516567881E-05 -1.88116739150E-06 -6.90692524570E-01 +6.83084481402E-01
1.08500000000E+09 -5.59503493274E-01 +7.77310566730E-01 +4.83457210699E-05 -4.11847916140E-05 +9.52556346048E-06 +1.73964690337E-05 -6.86719943925E-01 +6.86632248384E-01
1.09000000000E+09 -5.57308239325E-01 +7.79433112110E-01 +3.18355697548E-05 -1.42396603289E-05 +1.41816702108E-05 +4.76994130336E-05 -6.82961363481E-01 +6.90373700192E-01
1.09500000000E+09 -5.55777919756E-01 +7.81159108640E-01 +5.18453061259E-05 +4.62826714458E-06 +1.53492397896E-05 -3.06770659572E-05 -6.79203878664E-01 +6.94401956004E-01
1.10000000000E+09 -5.52835873137E-01 +7.83094344641E-01 +1.46733917052E-05 +1.86295043294E-05 +3.51203034694E-05 +5.02555317171E-06 -6.75215233394E-01 +6.98130011559E-01
1.10500000000E+09 -5.48836759411E-01 +7.85695078677E-01 +2.35534656774E-05 -1.58396948131E-05 +2.44126716390E-05 +9.66861135770E-07 -6.70740578569E-01 +7.01664573632E-01
1.11000000000E+09 -5.43151945959E-01 +7.89073801822E-01 +1.15277148426E-05 -1.43381592794E-05 +5.86538152616E-05 -4.06882928672E-05 -6.66617412434E-01 +7.04945061712E-01
1.11500000000E+09 -5.35939666743E-01 +7.92862000978E-01 -1.66955280850E-05 -1.46083549331E-05 +1.26046351388E-05 +1.06627127258E-05 -6.62495756191E-01 +7.08369461237E-01
1.12000000000E+09 -5.28157638186E-01 +7.96723326071E-01 -3.62738746609E-05 -2.68655994563E-05 +4.52154993140E-05 +1.95174917317E-05 -6.58502350571E-01 +7.11960074225E-01
1.12500000000E+09 -5.20152889810E-01 +8.00846099920E-01 +3.98671299230E-05 -4.39432700657E-05 +4.81961801469E-05 +2.15063938374E-05 -6.54391724136E-01 +7.15926414993E-01
1.13000000000E+09 -5.12757779947E-01 +8.04480027708E-01 +2.45365913226E-05 -2.85772739406E-05 +9.13975456228E-07 -3.27168831518E-05 -6.50187113131E-01 +7.19705411183E-01
1.13500000000E+09 -5.06387234852E-01 +8.07436414975E-01 -2.08300334925E-05 -1.92966840758E-05 +3.04433273365E-05 -2.28793454173E-05 -6.45530857726E-01 +7.23355731513E-01
1.14000000000E+09 -5.01213990676E-01 +8.09876313853E-01 +1.32480269386E-05 -6.87333328071E-05 +1.25926442050E-05 -4.34462957859E-05 -6.40916048606E-01 +7.26846120560E-01
1.14500000000E+09 -4.97252491179E-01 +8.11545339727E-01 -3.81811359344E-06 -6.70704824175E-05 -1.99401132390E-05 -6.80919125549E-05 -6.36146544423E-01 +7.30256845190E-01
1.15000000000E+09 -4.93689309175E-01 +8.13037713842E-01 -4.12600573989E-05 -6.19861431691E-07 +1.03390812226E-05 -2.67946020371E-05 -6.31681360314E-01 +7.33885952211E-01
1.15500000000E+09 -4.89950612262E-01 +8.14688113030E-01 +3.98065096413E-05 -5.89045792376E-05 -6.41906126540E-05 -1.73314367691E-05 -6.26862652624E-01 +7.37667098630E-01
1.16000000000E+09 -4.85281868328E-01 +8.16517614851E-01 +3.64972981003E-05 -2.17673280679E-05 -3.38513202617E-05 -5.90263061065E-05 -6.22097734056E-01 +7.41540196794E-01
1.16500000000E+09 -4.79485342407E-01 +8.19202806857E-01 -1.32518677643E-05 -2.21348232420E-05 -3.04987466930E-05 -5.42353166616E-05 -6.17023354670E-01 +7.45028519514E-01
1.17000000000E+09 -4.72531546326E-01 +8.22257861252E-01 -2.40091014206E-06 -9.80515850356E-06 +3.79347084252E-05 -4.67398309871E-05 -6.11549353723E-01 +7.48449993141E-01
1.17500000000E+09 -4.64609636510E-01 +8.25668003721E-01 -3.10999188552E-05 -4.99918989631E-05 +1.31509357652E-05 -2.28703296510E-05 -6.05901353284E-01 +7.51512046802E-01
1.18000000000E+09 -4.56484683613E-01 +8.29168701763E-01 -5.19990464055E-06 -7.34049363131E-05 +1.80623160931E-05 -5.42840179841E-05 -6.00322472105E-01 +7.54730439156E-01
1.18500000000E+09 -4.48531204510E-01 +8.32296731947E-01 -3.75795857863E-05 -2.40058256105E-05 -3.57915923949E-05 -2.76133268388E-05 -5.94384581021E-01 +7.57721654126E-01
1.19000000000E+09 -4.41471692941E-01 +8.35223442958E-01 -2.51504977880E-06 -3.55629369109E-05 -6.36824482335E-05 -5.33114881412E-05 -5.88217761837E-01 +7.60300151267E-01
1.19500000000E+09 -4.35596633480E-01 +8.37309086494E-01 -5.83114710326E-05 -8.22034130916E-05 -1.16428700296E-04 -2.98011523764E-05 -5.82352916264E-01 +7.61571046870E-01
1.20000000000E+09 -4.30965142523E-01 +8.38107214811E-01 -8.49083466209E-05 -1.82701677639E-05 -9.14101863738E-05 +3.47875519490E-05 -5.77923798895E-01 +7.61834789411E-01
1.20500000000E+09 -4.26671200336E-01 +8.39214777850E-01 -3.94676576183E-05 +5.38966722684E-05 -5.65170630860E-05 +6.25491067937E-05 -5.75544377930E-01 +7.62624179079E-01
1.21000000000E+09 -4.22182751499E-01 +8.40291063665E-01 -2.44752074375E-05 +5.74517414114E-05 +2.11133939486E-05 -3.94302560291E-06 -5.73629525301E-01 +7.65714369565E-01
1.21500000000E+09 -4.16330350190E-01 +8.41590346435E-01 +1.67258893081E-06 +7.33636807508E-05 -6.31626324615E-06 +4.57811939144E-05 -5.71045163349E-01 +7.70228299682E-01
1.22000000000E+09 -4.08949417391E-01 +8.43486757388E-01 +2.04605979563E-05 +2.09909406652E-05 -3.88256102242E-05 +1.52682756692E-05 -5.66667211812E-01 +7.75430571807E-01
1.22500000000E+09 -3.99820879718E-01 +8.45832811825E-01 +1.05335673117E-05 -1.33179613584E-05 +3.09750620792E-05 +1.95747510596E-05 -5.61701903817E-01 +7.80475881829E-01
1.23000000000E+09 -3.89384047653E-01 +8.48889631146E-01 +1.62688598152E-05 -1.82538105470E-05 +2.82145702533E-05 -3.03044316963E-06 -5.55954965123E-01 +7.85153872724E-01
1.23500000000E+09 -3.78532481799E-01 +8.52418695052E-01 +8.70979838621E-06 -3.05002003096E-05 -4.61928588708E-05 -2.65251181184E-05 -5.50181462456E-01 +7.89301654437E-01
1.24000000000E+09 -3.67649396905E-01 +8.56193823003E-01 -5.56764764740E-05 -5.02688703778E-05 +5.62804085293E-06 -3.58369579514E-05 -5.44177284264E-01 +7.93290251102E-01
1.24500000000E+09 -3.57904570860E-01 +8.60138315308E-01 -4.11476312114E-05 -4.94447545720E-05 -2.17891869215E-05 -5.90741063276E-05 -5.37736857920E-01 +7.97055265959E-01
1.25000000000E+09 -3.49614318422E-01 +8.63462568113E-01 -5.01192572905E-05 +4.50183476661E-06 -1.69296589996E-05 -6.40429186887E-05 -5.31359097766E-01 +8.01237652226E-01
1.25500000000E+09 -3.42783073472E-01 +8.65695675270E-01 -8.18840365404E-05 -5.35134315172E-06 -1.80482639169E-05 +5.54125876484E-06 -5.24502720786E-01 +8.05378309411E-01
1.26000000000E+09 -3.37235210722E-01 +8.67522153106E-01 -3.73054728687E-05 -3.68656068718E-05 -1.00893544714E-04 -8.05834755906E-05 -5.17791183502E-01 +8.09531234748E-01
1.26500000000E+09 -3.32648818109E-01 +8.68767743524E-01 -8.04768019189E-05 -1.46668281608E-05 -2.60766602434E-05 -4.89926671526E-06 -5.10808852286E-01 +8.13372031393E-01
1.27000000000E+09 -3.27534424975E-01 +8.69798577700E-01 -7.76142665366E-05 -3.08678374760E-05 -7.45020138438E-05 -4.11321201851E-05 -5.04005925115E-01 +8.17144986068E-01
1.27500000000E+09 -3.21479576064E-01 +8.70903164907E-01 -7.14559735176E-05 +1.44519425327E-05 -6.43924775149E-05 +1.66049289939E-05 -4.96986474428E-01 +8.20610543955E-01
1.28000000000E+09 -3.13308213172E-01 +8.72414052453E-01 -8.05186953657E-05 +1.93398168015E-05 -7.04902919015E-05 -2.90749256136E-05 -4.89923999007E-01 +8.24054702336E-01
1.28500000000E+09 -3.03067480781E-01 +8.74341867859E-01 -4.64722177824E-05 +4.57791791016E-05 -5.71838681842E-05 +5.11123420541E-05 -4.82572495823E-01 +8.27661293101E-01
1.29000000000E+09 -2.91420843307E-01 +8.76823571982E-01 -5.55006693272E-05 +4.19731727160E-05 -4.50364039421E-05 +1.50599602046E-05 -4.75173901575E-01 +8.31419802536E-01
1.29500000000E+09 -2.78915332390E-01 +8.79878921850E-01 -5.80633352379E-05 +5.34752599043E-05 -6.03188111803E-05 +2.89213327806E-05 -4.67349189071E-01 +8.34839113313E-01
1.30000000000E+09 -2.66404736569E-01 +8.83181736063E-01 -3.17730537500E-05 +1.41348904028E-05 -7.36622584679E-05 +4.00904704588E-05 -4.59636760639E-01 +8.38371236408E-01
1.30500000000E+09 -2.54939349712E-01 +8.86139756173E-01 -9.26814695891E-05 +3.92118057798E-05 -1.07611959824E-04 +1.05687235023E-04 -4.51459048235E-01 +8.41826464643E-01
1.31000000000E+09 -2.45086719839E-01 +8.88417134119E-01 -4.79879555806E-05 +8.08531879221E-05 -5.75530248966E-05 +1.13323112021E-04 -4.43311784189E-01 +8.45106000369E-01
1.31500000000E+09 -2.37240735221E-01 +8.89839277404E-01 +2.67569054957E-05 +1.05881534669E-04 -3.65651881496E-05 +8.25271236773E-05 -4.34497070148E-01 +8.48615471272E-01
1.32000000000E+09 -2.30836203955E-01 +8.90496413975E-01 +1.60273494169E-05 +5.66968893411E-05 -2.58450088635E-05 +9.09708492433E-05 -4.25493926072E-01 +8.51921730480E-01
1.32500000000E+09 -2.25019485717E-01 +8.90349672838E-01 -5.45898138907E-05 +1.04338314271E-04 -2.51341489401E-06 +8.95095333967E-05 -4.16081189357E-01 +8.55234183017E-01
1.33000000000E+09 -2.18551274126E-01 +8.89906994539E-01 -4.47707498757E-05 +4.90898664106E-05 -1.38526302584E-05 +1.27544302355E-04 -4.06408696183E-01 +8.58688801304E-01
1.33500000000E+09 -2.10063648534E-01 +8.89222895484E-01 -8.32251083522E-06 +1.15959949795E-04 +4.36616524219E-05 +9.37846920107E-05 -3.96649340164E-01 +8.61945800489E-01
1.34000000000E+09 -1.99289478413E-01 +8.88670675698E-01 +6.85885292925E-05 +1.62562654939E-04 +2.87154681918E-05 +1.47950787445E-04 -3.86461814538E-01 +8.65319757404E-01
1.34500000000E+09 -1.85865238347E-01 +8.88266338295E-01 +6.70754804062E-05 +1.09247724686E-04 +4.46166003493E-05 +1.02105878821E-04 -3.75663933677E-01 +8.68693215560E-01
1.35000000000E+09 -1.70472043860E-01 +8.88228361015E-01 +4.81553297598E-05 +5.92399563994E-05 +5.16890109018E-06 +7.60211140452E-05 -3.64621829591E-01 +8.71701293980E-01
1.35500000000E+09 -1.53493663899E-01 +8.88484447491E-01 +5.35592799138E-05 +7.15816474965E-05 +4.75732706595E-05 +9.19838858494E-05 -3.53015944875E-01 +8.74479211701E-01
1.36000000000E+09 -1.36577473762E-01 +8.89038206354E-01 +6.63462918995E-05 +9.39408607680E-05 +3.78748709896E-05 +9.29038720356E-05 -3.41153199484E-01 +8.77319757483E-01
1.36500000000E+09 -1.20445014753E-01 +8.89583746262E-01 -1.19683382309E-06 +7.15450128431E-05 -5.24291691541E-06 +8.51227999566E-05 -3.29041779457E-01 +8.79821976060E-01
1.37000000000E+09 -1.06162139920E-01 +8.89610643166E-01 +5.53955903521E-05 +1.24124402973E-04 +4.38810444135E-05 +1.57609793077E-04 -3.16304487179E-01 +8.82316570877E-01
1.37500000000E+09 -9.40573922298E-02 +8.89346281071E-01 +5.28207571939E-05 +1.11111192879E-04 +5.13246732134E-05 +1.44722155198E-04 -3.02622056803E-01 +8.84337341094E-01
1.38000000000E+09 -8.31912175826E-02 +8.88663592696E-01 +1.24815576134E-04 +1.31911297151E-04 +1.06772783722E-04 +1.93043157561E-04 -2.88143696803E-01 +8.86436024708E-01
1.38500000000E+09 -7.24606080256E-02 +8.87276533572E-01 +1.44338223500E-04 +1.22034161847E-04 +1.86351584011E-04 +1.22855970441E-04 -2.72602273783E-01 +8.88323586017E-01
1.39000000000E+09 -6.08579460673E-02 +8.84807711271E-01 +1.78767566678E-04 +1.05253221455E-04 +1.66280440566E-04 +7.83577213898E-05 -2.56608563088E-01 +8.89778305536E-01
1.39500000000E+09 -4.73617492965E-02 +8.81908417266E-01 +2.70674414129E-04 +5.26072278900E-05 +2.92461896236E-04 +3.81042611029E-05 -2.39978232211E-01 +8.90521797179E-01
1.40000000000E+09 -3.10076481504E-02 +8.77645846764E-01 +2.26989115354E-04 -3.65558612063E-05 +2.31272246880E-04 -5.89212028495E-05 -2.22538037799E-01 +8.91048211123E-01
1.40500000000E+09 -1.23836546536E-02 +8.72754231269E-01 +9.88680305202E-05 -9.67212022275E-05 +1.06510403229E-04 -7.80268540119E-05 -2.03798821332E-01 +8.91112076705E-01
1.41000000000E+09 +8.50248168274E-03 +8.67395598574E-01 +8.71679255627E-05 +2.55576327640E-05 +5.43006023332E-05 +5.99823421634E-05 -1.83540916684E-01 +8.90249559123E-01
1.41500000000E+09 +3.06101154931E-02 +8.61606034577E-01 +1.36648230442E-04 +7.84526988440E-05 +1.24647716418E-04 +6.97329651568E-05 -1.61972739078E-01 +8.88524836161E-01
1.42000000000E+09 +5.33039574035E-02 +8.55425810433E-01 +2.92207439677E-04 +6.25190998164E-05 +2.86781302383E-04 +1.05183620720E-04 -1.39244229402E-01 +8.85972958012E-01
1.42500000000E+09 +7.52394381876E-02 +8.48152163256E-01 +3.47177865700E-04 -8.16857182241E-05 +3.88863709922E-04 -1.32217055820E-04 -1.15901407446E-01 +8.82294124246E-01
1.43000000000E+09 +9.58737380756E-02 +8.39843675237E-01 +1.34747000641E-04 -1.91499964589E-04 +1.66066378461E-04 -2.18521951304E-04 -9.10793827614E-02 +8.77742499931E-01
1.43500000000E+09 +1.15506260598E-01 +8.30320824767E-01 +8.89534606118E-05 -1.30296756519E-04 +6.63339326872E-05 -1.30176595178E-04 -6.49519006149E-02 +8.71122151715E-01
1.44000000000E+09 +1.34974499483E-01 +8.19244062380E-01 +6.80721711214E-05 +4.80301716272E-05 +4.96841456453E-05 +2.57418212439E-05 -3.70253104012E-02 +8.62497881121E-01
1.44500000000E+09 +1.55784938469E-01 +8.05610257387E-01 +1.94079632445E-04 +8.68539178970E-05 +1.97815660923E-04 +1.25546631174E-04 -7.14740709325E-03 +8.51259513606E-01
1.45000000000E+09 +1.78698765496E-01 +7.88627864983E-01 +4.27963091980E-04 -3.35071191265E-06 +3.92160743991E-04 -5.14522083828E-05 +2.48068183817E-02 +8.36923887798E-01
1.45500000000E+09 +2.04322474232E-01 +7.67298284971E-01 +3.24581910190E-04 -7.68522673261E-05 +3.05577703940E-04 -1.49413833445E-04 +5.82165412356E-02 +8.19267535526E-01
1.46000000000E+09 +2.32786724771E-01 +7.41420846909E-01 +4.54210062633E-04 -1.43304030140E-05 +4.78609895751E-04 -6.02556305149E-05 +9.29962521619E-02 +7.97349687403E-01
1.46500000000E+09 +2.63035271706E-01 +7.10768063017E-01 +5.66590732713E-04 -3.06730359902E-04 +5.31841894180E-04 -3.37467273754E-04 +1.28663366256E-01 +7.71119840617E-01
1.47000000000E+09 +2.94278651466E-01 +6.75497246784E-01 +6.29375328339E-04 -3.67629818790E-04 +5.37257085322E-04 -3.37705536704E-04 +1.65938588451E-01 +7.37436196018E-01
1.47500000000E+09 +3.25265384044E-01 +6.34841790595E-01 +5.78494712285E-04 -6.78234561473E-04 +6.07462816787E-04 -6.49409260861E-04 +2.03191150527E-01 +6.96614730871E-01
1.48000000000E+09 +3.53463259720E-01 +5.88907945851E-01 +3.17087700587E-04 -7.27104730558E-04 +3.26691815529E-04 -7.33327341252E-04 +2.39933613861E-01 +6.47016862908E-01
1.48500000000E+09 +3.77502106885E-01 +5.37140452635E-01 +5.72131004496E-04 -7.02729025347E-04 +5.97684128022E-04 -7.62849937175E-04 +2.73886594868E-01 +5.87847566570E-01
1.49000000000E+09 +3.96043310225E-01 +4.79037004695E-01 +8.45207371226E-04 -1.15793607656E-03 +8.19233578628E-04 -1.15449423933E-03 +3.01680166000E-01 +5.18005801707E-01
1.49500000000E+09 +4.07299729248E-01 +4.13014695633E-01 +6.55878173291E-04 -2.27156570540E-03 +5.07544974546E-04 -2.20710315413E-03 +3.19681470366E-01 +4.38805014299E-01
1.50000000000E+09 +4.08326098607E-01 +3.38210275134E-01 -7.50513569403E-04 -2.80458415202E-03 -7.07912811336E-04 -2.64219355702E-03 +3.25059430607E-01 +3.49336901299E-01
1.50500000000E+09 +3.97435731466E-01 +2.56937392805E-01 -1.83933323150E-03 -2.37685024401E-03 -1.67164707348E-03 -2.38802225520E-03 +3.13054411240E-01 +2.52997348984E-01
1.51000000000E+09 +3.72664629151E-01 +1.68958862327E-01 -2.63120723865E-03 -1.60660836107E-03 -2.55854345952E-03 -1.73265981485E-03 +2.80223460796E-01 +1.52942583892E-01
1.51500000000E+09 +3.29656938448E-01 +7.85282672938E-02 -3.11224551530E-03 -1.04423206797E-03 -3.10866549096E-03 -1.15290652956E-03 +2.25423328650E-01 +5.61926723727E-02
1.52000000000E+09 +2.66972113694E-01 -7.15911348178E-03 -3.49051029900E-03 +4.62024891520E-04 -3.49587259282E-03 +4.16571038366E-04 +1.48465122042E-01 -2.88518444421E-02
1.52500000000E+09 +1.85178857541E-01 -8.12903611300E-02 -2.73604228499E-03 +7.65490709176E-04 -2.77884231081E-03 +6.87439444935E-04 +5.34804824045E-02 -9.61457954565E-02
1.53000000000E+09 +8.63933871086E-02 -1.34861033496E-01 -2.96419394722E-03 +1.57057196259E-03 -2.94122374780E-03 +1.54137057827E-03 -5.24422423579E-02 -1.39787815250E-01
1.53500000000E+09 -2.06507835517E-02 -1.63532996554E-01 -2.90264138131E-03 +2.60382464626E-03 -2.87671357067E-03 +2.68977052470E-03 -1.63460685885E-01 -1.59641952731E-01
1.54000000000E+09 -1.30062653434E-01 -1.66665807669E-01 -1.73591807887E-03 +3.71586236207E-03 -1.72026772854E-03 +3.65891766605E-03 -2.71011281552E-01 -1.56422085504E-01
1.54500000000E+09 -2.34938090261E-01 -1.45995953925E-01 -8.03873616773E-05 +4.34379690220E-03 -1.88519468500E-04 +4.25299908193E-03 -3.69463451981E-01 -1.32847929476E-01
1.55000000000E+09 -3.31343007782E-01 -1.06595179937E-01 +1.57485484989E-03 +3.22997978807E-03 +1.42405338748E-03 +3.30872715551E-03 -4.53913160490E-01 -9.51782867802E-02
1.55500000000E+09 -4.13897702761E-01 -5.20467199227E-02 +1.80277444664E-03 +2.45226595477E-03 +1.73939428067E-03 +2.58488598717E-03 -5.24200440329E-01 -4.85042507159E-02
1.56000000000E+09 -4.80254922689E-01 +8.37703538223E-03 +2.17044174601E-03 +1.69047185111E-03 +2.20353121643E-03 +1.85458180354E-03 -5.81205337182E-01 +4.39285458345E-03
1.56500000000E+09 -5.32745578247E-01 +7.02370337817E-02 +2.23002990937E-03 +1.05112364384E-03 +2.32526305801E-03 +1.19207644297E-03 -6.25422995253E-01 +5.99101704389E-02
1.57000000000E+09 -5.72532208020E-01 +1.30920970538E-01 +2.07564709470E-03 +5.67731318324E-04 +2.17409673386E-03 +5.71135292084E-04 -6.59069243710E-01 +1.14957129937E-01
