# Hz S RI R 50
! CMT, C1220, 16058040, 17.2.0/1
! Date: 14/08/2018 12:22:22
! Data: Format (Calibration Info)
! Freq                      S11: Re/Im (F2)                       S21: Re/Im (F2)                       S12: Re/Im (F2)                       S22: Re/Im (F2)            
1.00000000000E+09 -6.45370981065E-01 +7.15648677785E-01 +3.03440261892E-05 -1.21250842307E-05 +5.54440749253E-06 -7.88822314217E-07 -7.48112880414E-01 +6.24188555331E-01
1.00500000000E+09 -6.38155317510E-01 +7.20800281049E-01 +7.59526468025E-06 -3.62063249646E-06 +2.11001528877E-05 -3.61363309123E-05 -7.44487460181E-01 +6.28282858221E-01
1.01000000000E+09 -6.32180415839E-01 +7.25369730740E-01 -1.58009032290E-05 -1.22060195796E-05 -3.50658017549E-05 +1.19368456962E-05 -7.40771973947E-01 +6.32094299160E-01
1.01500000000E+09 -6.28103483792E-01 +7.29238577152E-01 -5.12174126080E-05 +2.49721877872E-05 -3.46889015066E-05 -2.08773886469E-05 -7.37583495999E-01 +6.35782958552E-01
1.02000000000E+09 -6.25426327669E-01 +7.32236244070E-01 +7.79651248516E-06 +1.18918649327E-05 +3.80514583147E-05 +4.78890382283E-05 -7.34107691039E-01 +6.39245678580E-01
1.02500000000E+09 -6.23906061690E-01 +7.34833521712E-01 -2.53707464685E-05 -1.46025596346E-05 -6.53996077778E-06 +1.68285511707E-06 -7.31212918062E-01 +6.42929820934E-01
1.03000000000E+09 -6.22777708793E-01 +7.37287347203E-01 +3.47795507641E-05 -1.07074785649E-05 +1.43328202236E-07 -2.03159171568E-06 -7.27727181575E-01 +6.46740486482E-01
1.03500000000E+09 -6.20920845292E-01 +7.39486839552E-01 -2.82808843531E-05 -3.13684509253E-05 +3.54218573512E-06 +3.76158328099E-06 -7.23874530394E-01 +6.50582716840E-01
1.04000000000E+09 -6.17293351210E-01 +7.42304633181E-01 -8.67155868028E-06 +2.73755959404E-05 -1.58297912831E-05 +3.95781989591E-05 -7.20130754743E-01 +6.54117402341E-01
1.04500000000E+09 -6.12243754774E-01 +7.45525215454E-01 +8.30957315257E-06 -5.10836452169E-06 +2.79217985085E-05 -1.30947590560E-06 -7.16484338157E-01 +6.57750575935E-01
1.05000000000E+09 -6.04847630896E-01 +7.49689414677E-01 +8.91409248840E-06 +3.95541771280E-05 +1.56264261339E-05 -1.03512364439E-05 -7.13167036887E-01 +6.61099281584E-01
1.05500000000E+09 -5.96339207335E-01 +7.54422596506E-01 -8.55050632369E-06 +3.87481288119E-05 -1.74751777906E-06 +2.06131831228E-05 -7.09986151906E-01 +6.64592511245E-01
1.06000000000E+09 -5.86882894594E-01 +7.59463760743E-01 +6.81797156829E-06 -2.49167231670E-05 +3.49470639085E-05 -6.62095700536E-06 -7.06705655681E-01 +6.68416973755E-01
1.06500000000E+09 -5.77757105572E-01 +7.64685299946E-01 +4.17562632873E-06 +4.97853405998E-05 -1.60233127578E-05 +4.97433406216E-05 -7.02776587239E-01 +6.72147497988E-01
1.07000000000E+09 -5.69763333815E-01 +7.69015306754E-01 -2.07896342406E-05 -2.52245685205E-05 +8.05961344253E-05 -5.03357894290E-06 -6.98858944468E-01 +6.75857008801E-01
1.07500000000E+09 -5.63670182429E-01 +7.73001123369E-01 -1.49987380422E-05 -3.93753273249E-06 -1.43673030959E-05 -5.52661956611E-06 -6.94552581827E-01 +6.79533520851E-01
1.08000000000E+09 -5.59318344324E-01 +7.76260850816E-01 +1.95106936396E-05 -3.37009332852E-06 +4.27967025638E-05 -1.96816208845E-05 -6.90508255072E-01 +6.83331500823E-01
1.08500000000E+09 -5.56478578720E-01 +7.78715332386E-01 -8.08993307394E-06 -4.77987086685E-05 +4.90265160985E-05 -2.62129215333E-05 -6.86485681812E-01 +6.86932060422E-01
1.09000000000E+09 -5.54453830562E-01 +7.80673578553E-01 +3.54384159642E-05 -1.73396403467E-05 +4.01816197113E-05 -3.79747102016E-05 -6.82831144230E-01 +6.90867545292E-01
1.09500000000E+09 -5.52559478354E-01 +7.82594819587E-01 +4.63273344404E-05 -1.55710874523E-05 +5.78885423482E-05 -3.56733914174E-05 -6.78978324927E-01 +6.94690187655E-01
1.10000000000E+09 -5.49673798567E-01 +7.84514982899E-01 +1.43588959777E-06 -1.44055727112E-05 -1.61723344639E-05 +2.43963657252E-05 -6.74897440456E-01 +6.98522105927E-01
1.10500000000E+09 -5.45621914174E-01 +7.87135677170E-01 +2.59952233662E-05 -2.50254486039E-05 -3.73544548106E-07 +6.21898903915E-06 -6.70639417030E-01 +7.02148310033E-01
1.11000000000E+09 -5.39695125861E-01 +7.90374414320E-01 +5.90412240725E-05 +3.02786645022E-07 +3.98791676636E-05 -4.10510555526E-05 -6.66333290212E-01 +7.05381409069E-01
1.11500000000E+09 -5.32693779884E-01 +7.94160473896E-01 -4.30629951723E-05 +2.15273813967E-05 +1.83788482189E-05 -4.28748734248E-05 -6.62446268390E-01 +7.08879898013E-01
1.12000000000E+09 -5.24712733862E-01 +7.98177950739E-01 -2.88699756616E-05 -3.10965242967E-05 +3.98107755885E-05 -2.45773918388E-05 -6.58349464335E-01 +7.12469996581E-01
1.12500000000E+09 -5.16447589393E-01 +8.02227161788E-01 +7.59008547735E-05 -2.25237370963E-05 +4.32229596313E-05 -1.93998567609E-05 -6.54122487848E-01 +7.16357701581E-01
1.13000000000E+09 -5.09081155983E-01 +8.05973960546E-01 +2.96061855791E-05 -2.09147483874E-05 +4.67945652956E-05 -6.45292955282E-05 -6.49876764157E-01 +7.19947847962E-01
1.13500000000E+09 -5.02592714760E-01 +8.08784002162E-01 -4.04339369920E-06 -2.05990616880E-05 -4.41093782430E-06 -2.78484852169E-05 -6.45453834117E-01 +7.23819544248E-01
1.14000000000E+09 -4.97326520878E-01 +8.11170076668E-01 -2.26629328699E-05 -8.04063965481E-06 +3.07942980650E-05 -1.46763728833E-05 -6.40716073579E-01 +7.27222665614E-01
1.14500000000E+09 -4.93278373586E-01 +8.12895814997E-01 +2.38427928841E-05 -2.82941560055E-05 -1.59168363454E-05 -1.38968803251E-05 -6.36097292791E-01 +7.30572163254E-01
1.15000000000E+09 -4.89396621260E-01 +8.14475182736E-01 -2.37578628785E-05 -1.37026241859E-05 -2.27305823167E-05 -5.00800835955E-05 -6.31435263210E-01 +7.34182961293E-01
1.15500000000E+09 -4.85735825974E-01 +8.16072487030E-01 -8.38110941991E-06 -3.05350298273E-05 -3.52634620922E-05 -3.73800252954E-05 -6.26730342468E-01 +7.38197099905E-01
1.16000000000E+09 -4.80848514971E-01 +8.17823293277E-01 +1.09439591736E-05 -2.71694268289E-05 -2.68842767345E-05 -2.04780941971E-05 -6.21921396234E-01 +7.41970726959E-01
1.16500000000E+09 -4.74990098327E-01 +8.20448510811E-01 -2.58217335953E-05 +2.41042410547E-05 -4.38478280439E-06 -1.55336025726E-05 -6.16721816777E-01 +7.45528323560E-01
1.17000000000E+09 -4.67929769364E-01 +8.23525630342E-01 +1.47374811573E-05 -1.04845851460E-05 +3.29141690217E-05 -1.35930148682E-05 -6.11233463986E-01 +7.48807133991E-01
1.17500000000E+09 -4.59884708054E-01 +8.26753754012E-01 +4.08703373115E-05 -7.46118909322E-05 +3.86791010855E-05 -2.51153433552E-05 -6.05686838641E-01 +7.52047019117E-01
1.18000000000E+09 -4.51739806149E-01 +8.30400417753E-01 -3.22549554172E-06 -6.63484604580E-05 +6.02255588514E-06 -6.92065845072E-05 -6.00159519378E-01 +7.55165656867E-01
1.18500000000E+09 -4.43677335837E-01 +8.33565293337E-01 +9.40411721223E-06 -6.15966431199E-05 -2.50964564727E-05 -4.66394577727E-05 -5.94195744325E-01 +7.58169624402E-01
1.19000000000E+09 -4.36419737254E-01 +8.36304764594E-01 +4.65530840933E-06 -4.88124564279E-05 -1.88773377574E-05 -4.97390226913E-05 -5.87862672108E-01 +7.60778641824E-01
1.19500000000E+09 -4.30474819595E-01 +8.38325682663E-01 -6.24943883001E-05 -5.81597492000E-05 -2.28124102131E-05 -6.38250466330E-05 -5.82132069183E-01 +7.62058775664E-01
1.20000000000E+09 -4.25552295702E-01 +8.39329892743E-01 -8.88709848364E-05 +4.45252879340E-06 -7.53886543144E-05 +9.70652130132E-07 -5.77616402842E-01 +7.62217531198E-01
1.20500000000E+09 -4.21126035421E-01 +8.40356548473E-01 -5.49015398232E-05 +3.05757926325E-05 -5.76516709826E-05 -2.46021420265E-06 -5.75261252017E-01 +7.63099011613E-01
1.21000000000E+09 -4.16525662884E-01 +8.41343887995E-01 -1.20939949712E-05 +5.48652140133E-05 -2.25806303404E-05 -2.19286836380E-05 -5.73492251079E-01 +7.66121064766E-01
1.21500000000E+09 -4.10475697710E-01 +8.42547510524E-01 -3.25529167454E-05 +2.71938593340E-05 +1.88662935889E-05 +2.94507249397E-06 -5.70788429138E-01 +7.70578636416E-01
1.22000000000E+09 -4.03046849696E-01 +8.44307033052E-01 -6.93510687901E-05 +2.07603985441E-05 -3.39949149945E-05 -3.65805730689E-06 -5.66497829094E-01 +7.75902184900E-01
1.22500000000E+09 -3.93674151577E-01 +8.46765829730E-01 -9.26434774552E-06 -7.40201482027E-06 +1.90915173909E-05 +8.04437238215E-06 -5.61439624069E-01 +7.81007790592E-01
1.23000000000E+09 -3.83118717563E-01 +8.49693497713E-01 -1.46483946698E-05 -2.86865189680E-05 -2.11865137356E-06 +8.20728059609E-06 -5.55801897180E-01 +7.85655429416E-01
1.23500000000E+09 -3.72051098331E-01 +8.53133957237E-01 +8.03603793508E-06 -3.39398528947E-05 -4.97366389382E-05 -1.22369334435E-05 -5.49890422216E-01 +7.89938818632E-01
1.24000000000E+09 -3.61122632444E-01 +8.56748931226E-01 +4.42455717162E-06 -3.42366086284E-05 +3.07317083431E-06 -2.41032047478E-06 -5.43929184870E-01 +7.93704627159E-01
1.24500000000E+09 -3.51269333206E-01 +8.60649682445E-01 -3.39874502401E-05 +1.14440197321E-05 -4.70111971213E-05 +3.74803190837E-06 -5.37582572258E-01 +7.97473464897E-01
1.25000000000E+09 -3.42846203276E-01 +8.63938013879E-01 -5.77970013850E-05 -9.40848721454E-06 +6.88901421282E-06 +1.81722568043E-05 -5.31030193620E-01 +8.01597311274E-01
1.25500000000E+09 -3.35902073501E-01 +8.66255938194E-01 -7.25610165331E-05 -1.70208986363E-05 -3.48635012671E-05 -2.02174444317E-05 -5.24135254618E-01 +8.05581605785E-01
1.26000000000E+09 -3.30259255312E-01 +8.68026196304E-01 -6.37382873705E-05 +2.69105062179E-05 -9.00110118212E-05 -4.26300356876E-05 -5.17408682471E-01 +8.09860095010E-01
1.26500000000E+09 -3.25272816028E-01 +8.69044915403E-01 -5.64115673900E-05 -1.27986045548E-05 -9.42618710036E-05 +4.22597228429E-06 -5.10440813499E-01 +8.13751926887E-01
1.27000000000E+09 -3.20321721158E-01 +8.69967587678E-01 -8.53148530599E-05 +2.25602696241E-05 -6.99696633599E-05 -1.86745454721E-05 -5.03732808160E-01 +8.17478833183E-01
1.27500000000E+09 -3.14061961137E-01 +8.71013818290E-01 -7.85873383003E-05 +1.94386417527E-05 -6.82499544003E-05 +2.10078399020E-05 -4.96628496338E-01 +8.21052850539E-01
1.28000000000E+09 -3.05689514672E-01 +8.72313861674E-01 -1.11025725350E-04 +2.08976227128E-05 -5.74047260025E-05 +2.62494811016E-05 -4.89633416746E-01 +8.24481674174E-01
1.28500000000E+09 -2.95291822871E-01 +8.74054791044E-01 -8.67564073170E-05 +3.98051343072E-05 -1.28087644043E-04 +4.97121869852E-05 -4.82255586816E-01 +8.28127250196E-01
1.29000000000E+09 -2.83705011598E-01 +8.76266875211E-01 -4.31972588686E-05 +3.90124336742E-05 -5.23095684186E-05 +1.00030468268E-04 -4.74806748112E-01 +8.31706422280E-01
1.29500000000E+09 -2.71308208279E-01 +8.79260354276E-01 -8.63212295060E-05 +8.63931766840E-05 -7.99799425242E-05 +9.35872366147E-05 -4.66904818423E-01 +8.35157798505E-01
1.30000000000E+09 -2.58720632174E-01 +8.82557938540E-01 -4.44718725892E-05 +7.36418638550E-05 -1.02443107998E-04 +1.12525448575E-04 -4.59199573907E-01 +8.38691249629E-01
1.30500000000E+09 -2.47256802724E-01 +8.85459515379E-01 -6.45703268841E-05 +1.09312992966E-04 -9.53268422364E-05 +6.98996010163E-05 -4.51016216076E-01 +8.42119375615E-01
1.31000000000E+09 -2.37457819733E-01 +8.87833706630E-01 -3.75938858709E-05 +1.32575355443E-04 -5.84051346148E-05 +9.51083844769E-05 -4.42881391674E-01 +8.45509831181E-01
1.31500000000E+09 -2.29341690327E-01 +8.89208403129E-01 +5.42227222784E-05 +1.06602685578E-04 +2.25122646467E-05 +1.38004744003E-04 -4.34132903959E-01 +8.48895864272E-01
1.32000000000E+09 -2.22877945542E-01 +8.89772038949E-01 -2.24245086026E-05 +1.17632180382E-04 +8.43835371819E-06 +8.95935346624E-05 -4.25071720352E-01 +8.52281695176E-01
1.32500000000E+09 -2.16908439569E-01 +8.89520605670E-01 +5.37188735283E-06 +9.72429524546E-05 -5.51473331816E-06 +9.29406061774E-05 -4.15591374246E-01 +8.55763874846E-01
1.33000000000E+09 -2.10226814208E-01 +8.88980041249E-01 -3.58035978286E-05 +1.11162766056E-04 +6.07176669758E-06 +5.65599468207E-05 -4.05924566769E-01 +8.59022100399E-01
1.33500000000E+09 -2.01720129426E-01 +8.88054812522E-01 +6.12964567784E-08 +1.30115050910E-04 +1.47179323396E-05 +1.21048241057E-04 -3.96166293908E-01 +8.62295889723E-01
1.34000000000E+09 -1.90747409547E-01 +8.87254552166E-01 +3.52587667203E-05 +1.19110221715E-04 +1.03612537101E-04 +1.39080000526E-04 -3.85981193195E-01 +8.65501641254E-01
1.34500000000E+09 -1.77319900025E-01 +8.86528580704E-01 +4.82183506096E-05 +1.19613861551E-04 +9.71971434821E-05 +5.90070883801E-05 -3.75115002111E-01 +8.68770728436E-01
1.35000000000E+09 -1.61800710115E-01 +8.86286669822E-01 -2.03456376617E-05 +8.49987440481E-05 +4.15031123990E-05 +5.89268916272E-05 -3.64168307032E-01 +8.71905327573E-01
1.35500000000E+09 -1.45002560324E-01 +8.86620635424E-01 +4.18985145677E-05 +1.03253509529E-04 +3.44862393048E-05 +8.53049499271E-05 -3.52495802038E-01 +8.74756931637E-01
1.36000000000E+09 -1.28219359141E-01 +8.87181718151E-01 +2.69191658560E-05 +9.84683739386E-05 +2.99524857164E-05 +7.43877569054E-05 -3.40710522007E-01 +8.77435188313E-01
1.36500000000E+09 -1.12080292204E-01 +8.87661552601E-01 -1.98226458963E-05 +1.16693409686E-04 +8.55711120113E-06 +1.00272956948E-04 -3.28602151265E-01 +8.79948830522E-01
1.37000000000E+09 -9.76281255607E-02 +8.87655367894E-01 +6.84547418029E-05 +1.34048182994E-04 -1.61472385159E-05 +1.63055283779E-04 -3.15824677066E-01 +8.82270903517E-01
1.37500000000E+09 -8.53884650329E-02 +8.87241260547E-01 +6.22776046536E-05 +1.70373365309E-04 +3.52139285927E-05 +1.66528794795E-04 -3.02171108627E-01 +8.84406443541E-01
1.38000000000E+09 -7.44444212669E-02 +8.86326068005E-01 +1.01278571685E-04 +1.89431013991E-04 +1.15423537151E-04 +1.91067425358E-04 -2.87698334593E-01 +8.86462902496E-01
1.38500000000E+09 -6.34171287518E-02 +8.84599383519E-01 +1.91504670824E-04 +1.47635682817E-04 +1.69838356220E-04 +1.31743210279E-04 -2.72242419306E-01 +8.88421169000E-01
1.39000000000E+09 -5.19548659316E-02 +8.82051244662E-01 +1.45813486917E-04 +1.59090183171E-04 +2.10723910458E-04 +1.82687287299E-04 -2.56370437472E-01 +8.89868106682E-01
1.39500000000E+09 -3.82719288143E-02 +8.78606687810E-01 +2.30858037315E-04 +1.24252819798E-04 +3.08014425907E-04 +1.34848049896E-04 -2.39709828137E-01 +8.90587366638E-01
1.40000000000E+09 -2.19173572871E-02 +8.73971434352E-01 +2.88401185269E-04 +8.62416748540E-05 +2.72487553936E-04 +1.03249993786E-05 -2.22271257761E-01 +8.91091952986E-01
1.40500000000E+09 -3.51453610550E-03 +8.68729886068E-01 +2.59880670743E-04 +1.67468295746E-05 +2.35838562069E-04 +1.92120340991E-05 -2.03705712678E-01 +8.91016654240E-01
1.41000000000E+09 +1.70260578319E-02 +8.63190027068E-01 +2.46879786331E-04 -3.79795448225E-05 +2.35005569729E-04 +1.34573410772E-05 -1.83528447758E-01 +8.90324998387E-01
1.41500000000E+09 +3.88888938564E-02 +8.57370936904E-01 +2.59893001354E-04 -1.91124041531E-05 +2.36005160922E-04 -7.77964436359E-06 -1.62058305316E-01 +8.88590197741E-01
1.42000000000E+09 +6.15291840933E-02 +8.51240250056E-01 +2.90017202579E-04 +5.20004151041E-05 +3.55520235212E-04 +2.92723103314E-05 -1.39199132973E-01 +8.85990854914E-01
1.42500000000E+09 +8.35351031866E-02 +8.43947949763E-01 +3.74976416339E-04 -1.04529367811E-04 +4.46208553715E-04 -1.21704361908E-04 -1.15801411263E-01 +8.82517368145E-01
1.43000000000E+09 +1.04173471844E-01 +8.35488203310E-01 +2.82369610760E-04 -1.92108962239E-04 +2.90701502492E-04 -2.16490915684E-04 -9.10018906759E-02 +8.77890855555E-01
1.43500000000E+09 +1.23922073593E-01 +8.25634870812E-01 +2.09548847294E-04 -2.03164831332E-04 +1.82705254245E-04 -2.25071518394E-04 -6.48220915806E-02 +8.71305188195E-01
1.44000000000E+09 +1.43160104424E-01 +8.14264808445E-01 +1.44817106979E-04 -7.89319590028E-05 +1.61949060536E-04 -1.13444281988E-04 -3.67703807295E-02 +8.62917400565E-01
1.44500000000E+09 +1.63687234760E-01 +8.00384060656E-01 +2.54660505048E-04 -2.04656355644E-05 +2.52241508979E-04 -2.92722646714E-05 -6.85210954805E-03 +8.51511446915E-01
1.45000000000E+09 +1.86561118677E-01 +7.83064023937E-01 +4.60441107579E-04 -7.46273107186E-05 +4.77019243839E-04 -1.10687364542E-04 +2.51393090378E-02 +8.37181418234E-01
1.45500000000E+09 +2.11790342925E-01 +7.61572784350E-01 +3.50073340114E-04 -2.35048562391E-04 +3.73769628828E-04 -2.63468136172E-04 +5.84717872833E-02 +8.19530857159E-01
1.46000000000E+09 +2.40067373712E-01 +7.35701050991E-01 +5.01667449753E-04 -1.55946880330E-04 +5.23873994906E-04 -2.05264131106E-04 +9.33419160857E-02 +7.97555072447E-01
1.46500000000E+09 +2.69916158121E-01 +7.04956096780E-01 +5.45669055094E-04 -4.18323657622E-04 +4.96993280184E-04 -4.20700292224E-04 +1.28909702870E-01 +7.71100275760E-01
1.47000000000E+09 +3.01163434236E-01 +6.69962901149E-01 +6.62514933952E-04 -3.89628869185E-04 +6.10770018322E-04 -4.28483701322E-04 +1.66040134681E-01 +7.37677473058E-01
1.47500000000E+09 +3.32300989936E-01 +6.29485518464E-01 +7.57414367567E-04 -8.80913924079E-04 +7.25996856420E-04 -8.42512908724E-04 +2.03101878792E-01 +6.96862815037E-01
1.48000000000E+09 +3.60890810002E-01 +5.83320238042E-01 +4.67938220038E-04 -1.03738385194E-03 +4.32893650503E-04 -1.05374774212E-03 +2.39670824508E-01 +6.47567087221E-01
1.48500000000E+09 +3.85238827535E-01 +5.31199673100E-01 +5.67235914063E-04 -1.12851670135E-03 +5.55430831561E-04 -1.14828588999E-03 +2.73968247129E-01 +5.89013103512E-01
1.49000000000E+09 +4.03692566519E-01 +4.72304984576E-01 +6.42728739047E-04 -1.57243356231E-03 +4.79121967299E-04 -1.59028658346E-03 +3.02280826011E-01 +5.19184573681E-01
1.49500000000E+09 +4.14818045591E-01 +4.05436937358E-01 +2.60597463717E-04 -2.48523837746E-03 +1.22659530488E-04 -2.37425451516E-03 +3.20676075901E-01 +4.39749840408E-01
1.50000000000E+09 +4.15235474680E-01 +3.29982263055E-01 -1.11603246712E-03 -2.98151736904E-03 -1.05972910557E-03 -2.76728949864E-03 +3.25860191066E-01 +3.50389455760E-01
1.50500000000E+09 +4.03712804515E-01 +2.47700415810E-01 -2.22782596112E-03 -2.40470644864E-03 -2.01416915345E-03 -2.33403171222E-03 +3.14628405540E-01 +2.54487391068E-01
1.51000000000E+09 +3.77756592968E-01 +1.58791630926E-01 -2.88634555414E-03 -1.69802611343E-03 -2.74265501959E-03 -1.74438245066E-03 +2.82900719582E-01 +1.54150016423E-01
1.51500000000E+09 +3.33067854632E-01 +6.78094015049E-02 -3.66481122544E-03 -1.15170648049E-03 -3.61799546120E-03 -1.24616656064E-03 +2.28970406746E-01 +5.61550260259E-02
1.52000000000E+09 +2.68275203699E-01 -1.77557281053E-02 -4.17556439144E-03 +6.87327082306E-04 -4.18306437686E-03 +5.93349564883E-04 +1.52054098527E-01 -3.06416297908E-02
1.52500000000E+09 +1.84812391289E-01 -9.10608437399E-02 -3.22273095498E-03 +1.29772483396E-03 -3.23239133539E-03 +1.20614814992E-03 +5.59401734802E-02 -9.90958935171E-02
1.53000000000E+09 +8.43412857237E-02 -1.43860703590E-01 -3.25290504234E-03 +2.10448407666E-03 -3.27864560478E-03 +2.02365866281E-03 -5.09335012478E-02 -1.43211990923E-01
1.53500000000E+09 -2.43282006034E-02 -1.70702657663E-01 -3.07301887962E-03 +3.27169531117E-03 -3.09759854486E-03 +3.21952571695E-03 -1.62985106589E-01 -1.63690880946E-01
1.54000000000E+09 -1.34645042058E-01 -1.71673603043E-01 -1.60188090618E-03 +4.39315817850E-03 -1.66065027449E-03 +4.40079751676E-03 -2.72281863391E-01 -1.60175005685E-01
1.54500000000E+09 -2.39851087747E-01 -1.48619433007E-01 +1.12856757987E-04 +4.75000709208E-03 -5.81767606395E-05 +4.70853176553E-03 -3.71599403910E-01 -1.35717244039E-01
1.55000000000E+09 -3.35720597703E-01 -1.07056745217E-01 +1.67518448821E-03 +3.72081964396E-03 +1.53716136976E-03 +3.82791118854E-03 -4.56464346240E-01 -9.74206271552E-02
1.55500000000E+09 -4.17271347866E-01 -5.07036397316E-02 +2.05242531038E-03 +2.98986264313E-03 +1.99490650306E-03 +3.16818168970E-03 -5.27404308755E-01 -4.98554870622E-02
1.56000000000E+09 -4.82454249274E-01 +1.10878121270E-02 +2.78446952019E-03 +2.21238711487E-03 +2.86226136053E-03 +2.38779662537E-03 -5.84629147196E-01 +3.96896996328E-03
1.56500000000E+09 -5.33712361354E-01 +7.37201124398E-02 +2.86478001988E-03 +1.21932834387E-03 +2.99998844082E-03 +1.40996572251E-03 -6.28688744285E-01 +6.04230081582E-02
1.57000000000E+09 -5.72543754619E-01 +1.34889984839E-01 +2.57694706909E-03 +4.11497540178E-04 +2.75105625834E-03 +4.38829133654E-04 -6.61695442369E-01 +1.16427169518E-01
