# Hz S RI R 50
! CMT, C1220, 16058040, 17.2.0/1
! Date: 14/08/2018 12:25:19
! Data: Format (Calibration Info)
! Freq                      S11: Re/Im (F2)                       S21: Re/Im (F2)                       S12: Re/Im (F2)                       S22: Re/Im (F2)            
1.00000000000E+09 -6.46751555664E-01 +7.14955689443E-01 +2.53758477111E-06 +1.98814128827E-05 -2.02880892041E-05 +2.60541409728E-05 -7.48025939977E-01 +6.24038983999E-01
1.00500000000E+09 -6.39568559368E-01 +7.19941116462E-01 -1.57174499812E-05 -2.26851868606E-05 +4.62797580097E-05 -1.02320028029E-05 -7.44405236464E-01 +6.27963734001E-01
1.01000000000E+09 -6.33767713742E-01 +7.24633604762E-01 -1.68554078222E-05 +1.84118888561E-05 +2.90766583362E-05 +4.42369572809E-06 -7.40907127064E-01 +6.31659158988E-01
1.01500000000E+09 -6.29643083580E-01 +7.28412591922E-01 +1.48335784650E-06 -3.73604525324E-05 -2.79885098296E-05 -2.80824636982E-05 -7.37467379200E-01 +6.35423837977E-01
1.02000000000E+09 -6.27028650714E-01 +7.31588738996E-01 -3.07486940356E-06 +7.15234758423E-06 -1.71982736109E-05 +2.35332003789E-05 -7.34124685437E-01 +6.39002219514E-01
1.02500000000E+09 -6.25532915789E-01 +7.34111936044E-01 -4.01707251037E-06 -8.43000216338E-06 -1.37568951528E-05 -3.33790249219E-05 -7.31138193953E-01 +6.42601852561E-01
1.03000000000E+09 -6.24581321805E-01 +7.36272337764E-01 +9.60335746565E-06 +1.67167943781E-05 -2.45035049232E-05 +7.53721251451E-05 -7.27710991862E-01 +6.46326809090E-01
1.03500000000E+09 -6.22563295142E-01 +7.38441398360E-01 +7.81649386658E-06 -7.92940168695E-06 +8.15210050492E-07 +6.59619873228E-06 -7.23997337358E-01 +6.50304240833E-01
1.04000000000E+09 -6.19339372238E-01 +7.41239191464E-01 +1.47693718803E-05 +8.60874372312E-06 -1.58822491376E-05 -1.51444853317E-05 -7.20191646949E-01 +6.53864230501E-01
1.04500000000E+09 -6.14052342680E-01 +7.44734786034E-01 +8.17785131819E-06 +1.21675612694E-06 +2.47026874415E-05 +1.96718210251E-05 -7.16698568751E-01 +6.57505167865E-01
1.05000000000E+09 -6.06978472576E-01 +7.48776027570E-01 -9.78933186260E-07 +1.48492356993E-05 +4.75286639302E-06 +2.20060974434E-05 -7.13244256362E-01 +6.60897201470E-01
1.05500000000E+09 -5.98335947698E-01 +7.53347045707E-01 +7.73403895574E-06 -2.60270826138E-05 +2.55583145289E-05 -1.14265742409E-05 -7.09970230941E-01 +6.64225021743E-01
1.06000000000E+09 -5.89038045374E-01 +7.58499818401E-01 -3.91399511058E-06 -2.98856772677E-05 +6.41196684729E-06 +4.05348261767E-05 -7.06745376798E-01 +6.68032537523E-01
1.06500000000E+09 -5.80020972139E-01 +7.63584058600E-01 +1.44703465796E-05 -3.83283756612E-05 +2.21012864307E-05 +1.14599823468E-05 -7.03012860286E-01 +6.71919202652E-01
1.07000000000E+09 -5.72118486694E-01 +7.67999123610E-01 +3.40744852591E-06 +7.08794370320E-06 +4.26403751261E-05 -7.16927740800E-06 -6.98981686179E-01 +6.75667850347E-01
1.07500000000E+09 -5.65981587965E-01 +7.71765706126E-01 +1.62809862668E-05 +1.78992197674E-05 -1.82798408367E-05 +3.14369156415E-05 -6.94471871894E-01 +6.79298439984E-01
1.08000000000E+09 -5.61723963361E-01 +7.75154297626E-01 +1.06897096942E-05 -4.96754080051E-05 +3.77134400904E-05 +2.35578660081E-05 -6.90543651609E-01 +6.83180269193E-01
1.08500000000E+09 -5.59103674931E-01 +7.77599695662E-01 -2.02554392939E-05 -2.32844618992E-05 +4.83623548745E-05 +1.97651157543E-05 -6.86826000501E-01 +6.86730234887E-01
1.09000000000E+09 -5.57016029346E-01 +7.79557373271E-01 +3.03153451033E-05 +3.46018931553E-07 +1.84958624752E-05 +6.47882189554E-06 -6.82986479409E-01 +6.90588168175E-01
1.09500000000E+09 -5.55490163318E-01 +7.81278507222E-01 +2.06009297069E-05 +6.93728896622E-06 -2.28884730820E-06 -6.59995486845E-06 -6.79005867341E-01 +6.94384138984E-01
1.10000000000E+09 -5.52526488910E-01 +7.83264293335E-01 +3.14958706816E-05 -2.25664742775E-05 +3.53281050884E-05 -3.24732557690E-05 -6.74943766053E-01 +6.98271869628E-01
1.10500000000E+09 -5.48413419521E-01 +7.86034304155E-01 -3.72747794409E-06 -5.52564836025E-05 +1.67564139800E-06 +1.69556430837E-05 -6.70645971828E-01 +7.01679151273E-01
1.11000000000E+09 -5.42894144850E-01 +7.89186495069E-01 +1.43190336330E-05 -4.61361789786E-06 +8.74460516298E-06 +3.49134219643E-06 -6.66618882815E-01 +7.05094866301E-01
1.11500000000E+09 -5.35678259156E-01 +7.92969854065E-01 +3.76740276994E-05 -4.05094113154E-05 -6.62166628896E-06 -8.69661570343E-06 -6.62402091067E-01 +7.08497673954E-01
1.12000000000E+09 -5.27892955807E-01 +7.97045898196E-01 -8.07405675268E-06 +1.21300334612E-05 +3.23282873872E-05 -3.40256945287E-05 -6.58454050091E-01 +7.12050819705E-01
1.12500000000E+09 -5.19762092869E-01 +8.01017796022E-01 -1.10286372227E-05 -5.50976269166E-05 +1.66067403735E-05 +3.23213773750E-05 -6.54264063966E-01 +7.15958038411E-01
1.13000000000E+09 -5.12359319086E-01 +8.04661858115E-01 +4.23076865755E-06 -5.66355995982E-05 -1.30521607298E-05 -3.65178245891E-05 -6.49984273819E-01 +7.19658940652E-01
1.13500000000E+09 -5.05856979123E-01 +8.07580357162E-01 +1.01711032843E-05 -7.71658305944E-06 -1.17324503145E-05 -2.78827628738E-05 -6.45420422937E-01 +7.23451408995E-01
1.14000000000E+09 -5.00817221099E-01 +8.10026014660E-01 -1.41120739377E-05 -3.29952992984E-05 +2.94834788994E-05 +1.45604183156E-06 -6.40822965754E-01 +7.26834077489E-01
1.14500000000E+09 -4.96842676233E-01 +8.11769390977E-01 -9.63557715121E-06 -6.27136575751E-07 +2.19813629512E-05 +2.81007737501E-06 -6.36179641690E-01 +7.30234502394E-01
1.15000000000E+09 -4.93190798061E-01 +8.13249260687E-01 +5.09899892387E-05 -5.22127144797E-05 -2.04231277784E-05 -2.68092451564E-05 -6.31553545640E-01 +7.34003752970E-01
1.15500000000E+09 -4.89510296131E-01 +8.14943622863E-01 -2.49865185090E-05 -1.94617958775E-05 +1.03775429682E-05 -3.73346093317E-05 -6.26739906021E-01 +7.37683313527E-01
1.16000000000E+09 -4.84851406241E-01 +8.16710702009E-01 -5.42042378199E-06 +3.16094315700E-05 +2.45773200124E-05 -5.59508939738E-05 -6.21945294475E-01 +7.41546326690E-01
1.16500000000E+09 -4.78944938316E-01 +8.19289233095E-01 -1.53275782169E-05 -3.43337576764E-05 -2.81330167354E-05 +1.88745733776E-05 -6.16932560255E-01 +7.45223375519E-01
1.17000000000E+09 -4.72017792476E-01 +8.22436650394E-01 +2.11220251519E-05 -1.94271722513E-05 -2.50300006016E-06 -2.64935341351E-05 -6.11464972680E-01 +7.48611288354E-01
1.17500000000E+09 -4.64114565315E-01 +8.25682132868E-01 +2.06182806006E-05 -5.61654122270E-05 -1.29041699814E-05 -2.37588805313E-05 -6.05824311074E-01 +7.51596680445E-01
1.18000000000E+09 -4.55907559077E-01 +8.29259020400E-01 +1.15855779169E-05 +1.09910054350E-05 +7.80169578878E-06 -1.25491625552E-05 -6.00204143275E-01 +7.54809758510E-01
1.18500000000E+09 -4.48172538878E-01 +8.32588647674E-01 -3.37110206448E-05 -2.22368342273E-05 +1.67331290686E-05 -6.49713828819E-05 -5.94191818104E-01 +7.57913142674E-01
1.19000000000E+09 -4.41036119249E-01 +8.35285338570E-01 +8.71626797508E-06 -6.43531548899E-05 -4.00733970727E-05 -8.95320828609E-05 -5.88030560213E-01 +7.60335776877E-01
1.19500000000E+09 -4.35046726057E-01 +8.37296303815E-01 -3.31197762687E-06 -5.13583149019E-05 -7.29013726768E-05 -4.05597358042E-05 -5.82229856209E-01 +7.61706146080E-01
1.20000000000E+09 -4.30210300872E-01 +8.38287805922E-01 -1.27351043796E-04 -1.22619395366E-05 -1.07297495974E-04 -1.75902131636E-05 -5.77769273542E-01 +7.61909374901E-01
1.20500000000E+09 -4.26096139841E-01 +8.39388059743E-01 -5.23643983936E-05 +3.59103030319E-05 -8.20034890511E-05 +4.72459118072E-05 -5.75513205485E-01 +7.62809600540E-01
1.21000000000E+09 -4.21527002738E-01 +8.40481933435E-01 -8.31034395543E-06 +2.39141320651E-05 -2.98936167963E-05 +8.99913143437E-05 -5.73628286097E-01 +7.65815471765E-01
1.21500000000E+09 -4.15723521609E-01 +8.41708966527E-01 -3.93817677010E-05 +1.47958432824E-05 -3.53443875856E-05 -3.06536600480E-05 -5.70860062124E-01 +7.70246700519E-01
1.22000000000E+09 -4.08338753114E-01 +8.43537880902E-01 -3.30332607109E-05 +2.08604566988E-05 -2.97573492049E-05 +7.91149930722E-06 -5.66536371725E-01 +7.75594637575E-01
1.22500000000E+09 -3.99128001001E-01 +8.45928675481E-01 +3.64896998674E-05 +1.53979478136E-05 -9.40055677741E-06 +7.61338882817E-05 -5.61566936450E-01 +7.80643812667E-01
1.23000000000E+09 -3.88795245327E-01 +8.48956798700E-01 -1.58266487799E-05 -5.56961531633E-05 -3.65590687680E-05 -2.90294912129E-05 -5.55932979036E-01 +7.85146088890E-01
1.23500000000E+09 -3.77766817565E-01 +8.52577801607E-01 +8.90411708540E-06 -1.00902624088E-05 -1.48178350059E-05 +1.45558471181E-05 -5.50062269179E-01 +7.89533230317E-01
1.24000000000E+09 -3.66935721475E-01 +8.56258313841E-01 -4.16812152873E-07 -3.37227302881E-06 +1.03921024917E-05 -7.30897243872E-06 -5.44145278733E-01 +7.93329846986E-01
1.24500000000E+09 -3.57168220905E-01 +8.60077071060E-01 +1.09157766204E-05 -3.86934342598E-05 -1.34895179080E-05 -2.63646032488E-05 -5.37752442325E-01 +7.97039548623E-01
1.25000000000E+09 -3.48807108882E-01 +8.63424184286E-01 -2.72255910295E-05 -5.66661379999E-05 -2.57726780459E-05 -2.38809993744E-05 -5.31320462492E-01 +8.01174002682E-01
1.25500000000E+09 -3.42055416000E-01 +8.65677101639E-01 -5.76296127567E-05 +4.99917896874E-06 -5.09980496024E-05 -6.83039717861E-05 -5.24540624174E-01 +8.05401927457E-01
1.26000000000E+09 -3.36549974120E-01 +8.67553535562E-01 -8.53299905739E-05 -2.87149549159E-05 -6.84659037638E-05 -5.25537422100E-05 -5.17697807876E-01 +8.09609561754E-01
1.26500000000E+09 -3.31756137368E-01 +8.68614365573E-01 -7.22582007557E-05 +3.33585753508E-05 -9.10516298075E-05 -2.73862308865E-05 -5.10794161493E-01 +8.13383642387E-01
1.27000000000E+09 -3.26863475649E-01 +8.69641678581E-01 -7.05053895269E-05 -1.13505373629E-05 -4.26153483414E-05 +1.02315765024E-05 -5.04024201488E-01 +8.17141911040E-01
1.27500000000E+09 -3.20604727443E-01 +8.70787992300E-01 -5.73252799038E-06 +7.33577484219E-06 -4.82270791092E-05 +4.28339876254E-05 -4.96917275722E-01 +8.20676539028E-01
1.28000000000E+09 -3.12581268083E-01 +8.72253578088E-01 -3.56017805363E-05 +4.43098407331E-05 -5.58745892658E-05 +2.19363055450E-05 -4.89856028790E-01 +8.24169031453E-01
1.28500000000E+09 -3.02378967837E-01 +8.74274029069E-01 -9.28445709216E-05 +5.28203056140E-05 -6.89664171559E-05 +3.10217917800E-05 -4.82467020184E-01 +8.27873259710E-01
1.29000000000E+09 -2.90650275079E-01 +8.76756560229E-01 -2.32519580739E-05 +2.94574220078E-05 -6.03429053045E-05 +3.18711793524E-05 -4.75099175887E-01 +8.31444805428E-01
1.29500000000E+09 -2.78176244830E-01 +8.79774293268E-01 -7.19299877409E-05 +9.28137879098E-05 -4.10333147730E-05 +9.67794673623E-05 -4.67240787359E-01 +8.34848815176E-01
1.30000000000E+09 -2.65785853830E-01 +8.82998839135E-01 -1.72020762593E-05 +7.61803139319E-05 -7.09518992562E-05 +6.65698721541E-05 -4.59519302510E-01 +8.38445693594E-01
1.30500000000E+09 -2.54164148833E-01 +8.86166425671E-01 -6.36348797183E-05 +9.03532444515E-05 -5.83208717818E-05 +8.46249487303E-05 -4.51528388200E-01 +8.41877884337E-01
1.31000000000E+09 -2.44399663180E-01 +8.88389359398E-01 -3.08568221403E-05 +8.07709913824E-05 -2.41584228345E-05 +1.00904390499E-04 -4.43281604719E-01 +8.45256843470E-01
1.31500000000E+09 -2.36502911934E-01 +8.89796555167E-01 -3.12613812945E-05 +6.34952224079E-05 -2.21856134265E-05 +7.90245491913E-05 -4.34303387706E-01 +8.48605212151E-01
1.32000000000E+09 -2.30097606672E-01 +8.90459328163E-01 +6.53238338469E-06 +7.76256961816E-05 +6.12046076954E-07 +8.51060665808E-05 -4.25481313328E-01 +8.52149607760E-01
1.32500000000E+09 -2.24265411054E-01 +8.90417488035E-01 -1.35889862445E-05 +2.54586332241E-05 -1.55957261822E-05 +5.15487759705E-05 -4.15937093269E-01 +8.55598252835E-01
1.33000000000E+09 -2.17615316195E-01 +8.89936364886E-01 -5.58220241561E-05 +1.00013683388E-04 -5.35702579120E-05 +1.07578285536E-04 -4.06304912736E-01 +8.58825749360E-01
1.33500000000E+09 -2.09322493549E-01 +8.89331838084E-01 -8.02089101920E-06 +1.12798337426E-04 +1.09693656466E-05 +1.14754272555E-04 -3.96503487642E-01 +8.62032896085E-01
1.34000000000E+09 -1.98591882334E-01 +8.88615473239E-01 +3.29684908960E-06 +1.36309539625E-04 +1.08011018749E-05 +1.51847642714E-04 -3.86349353728E-01 +8.65426471997E-01
1.34500000000E+09 -1.85132881611E-01 +8.88082888981E-01 +8.15609313792E-05 +8.85898688090E-05 +6.24992882637E-05 +7.62331052569E-05 -3.75511383959E-01 +8.68595782491E-01
1.35000000000E+09 -1.69558054391E-01 +8.88132357861E-01 +3.07362031653E-05 +8.17740806794E-05 -2.46362584481E-05 +1.09455709294E-04 -3.64538304921E-01 +8.71854430062E-01
1.35500000000E+09 -1.52716700409E-01 +8.88443608200E-01 +6.14142245519E-06 +8.51868824898E-05 +5.55731979395E-05 +9.12889538573E-05 -3.53006656584E-01 +8.74715054223E-01
1.36000000000E+09 -1.35807972057E-01 +8.88890976498E-01 +5.21430259916E-05 +9.12175731070E-05 +7.51352093785E-05 +5.48040610399E-05 -3.41138692144E-01 +8.77301084618E-01
1.36500000000E+09 -1.19820625412E-01 +8.89415841623E-01 +1.78485349307E-05 +1.02942887748E-04 +1.43728886654E-05 +1.25829355513E-04 -3.29000987650E-01 +8.79957845384E-01
1.37000000000E+09 -1.05467212694E-01 +8.89556099168E-01 +6.90123600465E-05 +1.72774436244E-04 +8.60029135602E-05 +1.32408548697E-04 -3.16229027516E-01 +8.82283331936E-01
1.37500000000E+09 -9.32276178018E-02 +8.89231402922E-01 +5.91410599524E-05 +1.29990820758E-04 +7.98492134766E-05 +1.80607953581E-04 -3.02545391066E-01 +8.84544073504E-01
1.38000000000E+09 -8.24775412264E-02 +8.88565333297E-01 +1.88217925078E-04 +1.49839180195E-04 +1.19162603122E-04 +1.95271058417E-04 -2.88004711318E-01 +8.86561297995E-01
1.38500000000E+09 -7.16293303145E-02 +8.87085518340E-01 +1.69280384869E-04 +1.16113896686E-04 +1.85098593567E-04 +1.36364004739E-04 -2.72446601667E-01 +8.88423620124E-01
1.39000000000E+09 -6.00374350991E-02 +8.84846965724E-01 +2.21263616231E-04 +8.13398889498E-05 +1.82988686880E-04 +1.05975031118E-04 -2.56482036451E-01 +8.89893355963E-01
1.39500000000E+09 -4.64503374968E-02 +8.81704375676E-01 +2.74516112640E-04 +6.67766210016E-05 +3.38032871318E-04 +4.87523529140E-05 -2.39896472179E-01 +8.90746963010E-01
1.40000000000E+09 -3.01099844798E-02 +8.77420062971E-01 +2.66382964760E-04 -5.22502659686E-05 +2.74908371386E-04 -6.28811067719E-05 -2.22347508372E-01 +8.91342892601E-01
1.40500000000E+09 -1.15190601633E-02 +8.72539497014E-01 +1.55879427782E-04 -9.28905136161E-05 +1.61349061138E-04 -7.38245630285E-05 -2.03628377112E-01 +8.91178379022E-01
1.41000000000E+09 +9.18273604600E-03 +8.67123211011E-01 +7.99055323469E-05 -2.01842744577E-05 +1.03001890205E-04 +4.21736765061E-06 -1.83301525330E-01 +8.90492516300E-01
1.41500000000E+09 +3.13077161907E-02 +8.61517216971E-01 +1.12921837936E-04 +7.16155228118E-05 +1.62192973093E-04 +6.62987413434E-05 -1.61685209743E-01 +8.88910301918E-01
1.42000000000E+09 +5.40196210988E-02 +8.55414691935E-01 +2.40083452344E-04 +3.98731852046E-05 +2.61308402772E-04 +6.63871558631E-05 -1.38828159564E-01 +8.86062680055E-01
1.42500000000E+09 +7.60439882217E-02 +8.48198054704E-01 +3.24077596935E-04 -8.77472569374E-05 +3.69596538640E-04 -1.11928430238E-04 -1.15390945804E-01 +8.82408296786E-01
1.43000000000E+09 +9.66081667663E-02 +8.39918093429E-01 +1.87229988503E-04 -1.74978661748E-04 +1.56702719030E-04 -2.00818870942E-04 -9.04976913694E-02 +8.77702661803E-01
1.43500000000E+09 +1.16187454585E-01 +8.30307762026E-01 +1.08475397345E-04 -1.40584728009E-04 +9.37761445437E-05 -1.06574446057E-04 -6.42628548219E-02 +8.71016826975E-01
1.44000000000E+09 +1.35752297061E-01 +8.19437842356E-01 +8.16132118186E-05 +7.01609639600E-06 +8.17702783797E-05 +2.51688784785E-05 -3.63538416512E-02 +8.62335569977E-01
1.44500000000E+09 +1.56648260218E-01 +8.05972607706E-01 +2.39115742846E-04 +9.47477808744E-05 +2.68883708963E-04 +9.40810886326E-05 -6.53050626397E-03 +8.50890859366E-01
1.45000000000E+09 +1.79651551167E-01 +7.88922522739E-01 +4.23230710131E-04 -4.05351200999E-05 +4.83998037371E-04 -7.88562261931E-05 +2.54400815668E-02 +8.36411731908E-01
1.45500000000E+09 +2.05464190649E-01 +7.67793620214E-01 +3.61438511867E-04 -1.43948645396E-04 +3.35688857798E-04 -1.78442528893E-04 +5.88228832727E-02 +8.18606299103E-01
1.46000000000E+09 +2.34048718298E-01 +7.41885523164E-01 +5.09873605699E-04 -9.30185647233E-05 +4.69469774301E-04 -1.65130981851E-04 +9.33874366024E-02 +7.96540190236E-01
1.46500000000E+09 +2.64332258774E-01 +7.11185951401E-01 +5.52356369770E-04 -3.83926757559E-04 +4.73187585199E-04 -3.84756287943E-04 +1.29013612829E-01 +7.70152729381E-01
1.47000000000E+09 +2.95951335949E-01 +6.76002503742E-01 +6.36721894466E-04 -3.44601071772E-04 +5.88242393448E-04 -3.66027283780E-04 +1.66098637098E-01 +7.36713670405E-01
1.47500000000E+09 +3.27273857891E-01 +6.35417879995E-01 +5.60824384153E-04 -8.53778953917E-04 +5.56284117531E-04 -7.37839441297E-04 +2.03187598333E-01 +6.95577874906E-01
1.48000000000E+09 +3.55814821235E-01 +5.89320228060E-01 +2.80881499630E-04 -8.30924261788E-04 +2.80293316279E-04 -8.46508746274E-04 +2.39540845116E-01 +6.45954802662E-01
1.48500000000E+09 +3.80186531013E-01 +5.37232939123E-01 +4.27575785377E-04 -7.79016486815E-04 +4.39774935032E-04 -7.46684155986E-04 +2.73287004574E-01 +5.87053421289E-01
1.49000000000E+09 +3.99012744303E-01 +4.78631505325E-01 +7.03912797138E-04 -1.24473276183E-03 +6.67686934044E-04 -1.26958394164E-03 +3.01040990478E-01 +5.17374186295E-01
1.49500000000E+09 +4.10451600293E-01 +4.12187816448E-01 +4.18015509609E-04 -2.18176496365E-03 +2.92452033002E-04 -2.19762214414E-03 +3.19061436061E-01 +4.38334233536E-01
1.50000000000E+09 +4.11603517967E-01 +3.36887036288E-01 -9.71077847686E-04 -2.65081779300E-03 -8.99005326904E-04 -2.47692910687E-03 +3.24285658590E-01 +3.48958265509E-01
1.50500000000E+09 +4.00807795518E-01 +2.54788806499E-01 -1.94690139437E-03 -2.14276557686E-03 -1.80734507341E-03 -2.06096104375E-03 +3.12365055745E-01 +2.52709386314E-01
1.51000000000E+09 +3.75640900181E-01 +1.66047198669E-01 -2.57101725438E-03 -1.39991503190E-03 -2.45314432976E-03 -1.50050422863E-03 +2.79576555814E-01 +1.52669428199E-01
1.51500000000E+09 +3.31916889808E-01 +7.50745363339E-02 -2.97773884054E-03 -9.09422439601E-04 -2.98717893377E-03 -1.01320065845E-03 +2.24545346225E-01 +5.58093120395E-02
1.52000000000E+09 +2.68405696253E-01 -1.08355055853E-02 -3.34413114735E-03 +5.62546467980E-04 -3.40567483426E-03 +5.21823221640E-04 +1.47155674752E-01 -2.92864512618E-02
1.52500000000E+09 +1.86088716597E-01 -8.48979396060E-02 -2.45347968940E-03 +8.76695742594E-04 -2.48393285547E-03 +8.48705497833E-04 +5.17653903872E-02 -9.58388097967E-02
1.53000000000E+09 +8.68655276033E-02 -1.38810533697E-01 -2.69928285400E-03 +1.41566783704E-03 -2.74373588948E-03 +1.45368715704E-03 -5.39166627985E-02 -1.38963499532E-01
1.53500000000E+09 -2.10566685103E-02 -1.67381393527E-01 -2.81874729717E-03 +2.44663952491E-03 -2.87132595120E-03 +2.48807522077E-03 -1.64815321579E-01 -1.58705129716E-01
1.54000000000E+09 -1.31100538076E-01 -1.70145745821E-01 -1.80966997696E-03 +3.61396497978E-03 -1.80415294487E-03 +3.57852272779E-03 -2.72471316508E-01 -1.54871704188E-01
1.54500000000E+09 -2.36514938003E-01 -1.49212080301E-01 -2.50681748113E-04 +4.25319323881E-03 -2.99077683978E-04 +4.18974056425E-03 -3.70373531507E-01 -1.30611315581E-01
1.55000000000E+09 -3.33416016091E-01 -1.09224023058E-01 +1.41009552660E-03 +3.32776066751E-03 +1.32750316213E-03 +3.36805187765E-03 -4.53986543560E-01 -9.26794226844E-02
1.55500000000E+09 -4.16294733049E-01 -5.41960312165E-02 +1.80358627773E-03 +2.57374768707E-03 +1.67241119111E-03 +2.69132451203E-03 -5.23422220140E-01 -4.61135013136E-02
1.56000000000E+09 -4.82898470484E-01 +7.07337129509E-03 +2.18742616934E-03 +1.81408790560E-03 +2.18667230194E-03 +2.00872368900E-03 -5.79884120531E-01 +6.32831662761E-03
1.56500000000E+09 -5.35303382122E-01 +6.95759628550E-02 +2.25905401716E-03 +1.22320982183E-03 +2.44156379722E-03 +1.30569275336E-03 -6.23756799183E-01 +6.12050308549E-02
1.57000000000E+09 -5.74893010659E-01 +1.30643104176E-01 +2.24181291105E-03 +6.05676649984E-04 +2.36264152036E-03 +6.21199325254E-04 -6.57167972323E-01 +1.15834132944E-01
