# Hz S RI R 50
! CMT, C1220, 16058040, 17.2.0/1
! Date: 14/08/2018 12:25:48
! Data: Format (Calibration Info)
! Freq                      S11: Re/Im (F2)                       S21: Re/Im (F2)                       S12: Re/Im (F2)                       S22: Re/Im (F2)            
1.00000000000E+09 -6.47069179270E-01 +7.14750241172E-01 -8.22189571593E-06 +1.89182766132E-05 -1.55046762952E-05 +4.38600874268E-05 -7.47987528772E-01 +6.23929486946E-01
1.00500000000E+09 -6.39928463606E-01 +7.19616162805E-01 -2.57397554443E-05 -3.42769014887E-05 +2.37604438414E-05 +1.29576629614E-05 -7.44464335046E-01 +6.27829477970E-01
1.01000000000E+09 -6.34200780504E-01 +7.24280750939E-01 +2.30435953504E-05 -3.06616293457E-05 +5.08139737870E-05 -2.75534418921E-05 -7.40918150558E-01 +6.31609434459E-01
1.01500000000E+09 -6.30091743643E-01 +7.27992164816E-01 -4.29447885277E-05 -5.80792293530E-06 -5.11500179975E-05 +5.32415975351E-05 -7.37642681265E-01 +6.35165568530E-01
1.02000000000E+09 -6.27500900860E-01 +7.30967414220E-01 +2.61466206942E-05 -2.87160693216E-05 -1.34265319494E-05 +4.16439311462E-05 -7.34188685668E-01 +6.38639503636E-01
1.02500000000E+09 -6.26038053455E-01 +7.33715212967E-01 +6.76370641132E-06 -7.34792577172E-06 -3.18665741957E-06 +5.04761908670E-06 -7.31322052264E-01 +6.42419598364E-01
1.03000000000E+09 -6.25166731657E-01 +7.36002233282E-01 -1.59287904414E-05 +2.01386225441E-05 -3.28065966736E-05 -9.39089623067E-07 -7.27971773818E-01 +6.46221692536E-01
1.03500000000E+09 -6.23004019030E-01 +7.38198696571E-01 -6.17062011238E-06 +1.77371305034E-05 +1.49690511444E-05 +3.80578666757E-06 -7.24189397574E-01 +6.50214054674E-01
1.04000000000E+09 -6.19708554455E-01 +7.40912404505E-01 +8.00370228839E-06 -3.68514049696E-05 +3.64882107647E-07 +1.89623565771E-05 -7.20340227957E-01 +6.53770493887E-01
1.04500000000E+09 -6.14723689631E-01 +7.44082646240E-01 -4.43462528547E-07 +3.78889946828E-05 -2.77615414334E-07 +6.08044555471E-05 -7.16752981355E-01 +6.57260580863E-01
1.05000000000E+09 -6.07611183026E-01 +7.48577569908E-01 -7.37015086086E-06 +3.19969550644E-05 -3.96839012576E-05 -3.73344571161E-05 -7.13316566508E-01 +6.60706212657E-01
1.05500000000E+09 -5.99010279315E-01 +7.53104344505E-01 +2.18753261546E-05 +3.60909957752E-05 +1.47664866885E-05 +2.06403661458E-05 -7.10050106106E-01 +6.64239728124E-01
1.06000000000E+09 -5.89715809805E-01 +7.58146815334E-01 +1.23503044946E-05 -3.12023335815E-06 +4.60570538695E-05 -2.34010418275E-05 -7.06935511011E-01 +6.68077480627E-01
1.06500000000E+09 -5.80767220543E-01 +7.63287740417E-01 -2.15859793277E-05 +4.61966929842E-07 +5.67228998638E-05 +2.77163954009E-05 -7.03064804704E-01 +6.71848574538E-01
1.07000000000E+09 -5.72930272837E-01 +7.67660467196E-01 -1.92808479018E-06 -4.91867822149E-06 -3.19477664580E-06 +5.48118168606E-05 -6.99086294889E-01 +6.75290633612E-01
1.07500000000E+09 -5.66733142394E-01 +7.71491753304E-01 +8.70482600907E-05 +3.63745504922E-05 +1.09619936359E-05 +4.30363242504E-05 -6.94716760920E-01 +6.79187203689E-01
1.08000000000E+09 -5.62471877482E-01 +7.74710886986E-01 +5.39876785794E-05 +7.24576026942E-07 -6.61892563753E-06 -1.69423511940E-05 -6.90700283644E-01 +6.82900053581E-01
1.08500000000E+09 -5.59905117135E-01 +7.77210596766E-01 +2.22140326525E-05 +1.76355347613E-05 +5.01275155060E-05 +8.33800148613E-06 -6.86720580894E-01 +6.86436227863E-01
1.09000000000E+09 -5.57763670637E-01 +7.79333493839E-01 +3.50550900871E-05 +1.10994794082E-05 +7.06568868800E-05 +1.63610656912E-05 -6.82965765927E-01 +6.90442064712E-01
1.09500000000E+09 -5.56195810724E-01 +7.81058209386E-01 +5.34042094395E-05 +7.69397414036E-06 +1.64583929746E-05 -6.86029413451E-06 -6.79237197223E-01 +6.94230467789E-01
1.10000000000E+09 -5.53416981928E-01 +7.83102372046E-01 -3.70990498984E-05 +3.87823129401E-06 +5.37450210344E-05 +3.77111062431E-05 -6.75077878706E-01 +6.98096185582E-01
1.10500000000E+09 -5.49358329582E-01 +7.85542773268E-01 +1.60444637846E-05 -3.77048976571E-06 -8.62241902898E-06 -7.29886311180E-05 -6.70907832592E-01 +7.01546414819E-01
1.11000000000E+09 -5.43632318941E-01 +7.88785663085E-01 +1.79819554382E-05 -2.76373511130E-05 +4.75850687478E-05 -1.23663424421E-05 -6.66558602662E-01 +7.05038437552E-01
1.11500000000E+09 -5.36595663663E-01 +7.92611963444E-01 +4.40022639057E-05 +5.23053381862E-05 +7.89338742024E-05 -2.77375190137E-05 -6.62760206252E-01 +7.08286447798E-01
1.12000000000E+09 -5.28721979686E-01 +7.96628916216E-01 +1.36673884378E-05 -2.29720497986E-05 +4.75919588791E-05 -3.22668483912E-05 -6.58546571562E-01 +7.12009886663E-01
1.12500000000E+09 -5.20586300647E-01 +8.00697311984E-01 -4.96297774714E-05 -1.73608384722E-05 +2.43202690579E-05 -7.69701907736E-06 -6.54362522323E-01 +7.15935534412E-01
1.13000000000E+09 -5.13426819841E-01 +8.04398068205E-01 +3.19215185320E-06 -1.37476934064E-05 +1.38844988057E-05 -2.23642468412E-05 -6.50178898942E-01 +7.19491355220E-01
1.13500000000E+09 -5.06941684807E-01 +8.07286745342E-01 -1.10622439134E-05 -3.77560735202E-05 -3.53404823772E-05 -2.74633624837E-05 -6.45677643366E-01 +7.23362283696E-01
1.14000000000E+09 -5.01720329889E-01 +8.09792861325E-01 +1.07734950967E-06 -4.01839212740E-05 +1.56922504022E-05 -2.46831554505E-05 -6.40923273166E-01 +7.26716972732E-01
1.14500000000E+09 -4.97841879717E-01 +8.11544249117E-01 +2.36877618097E-05 -5.18911466280E-05 -6.74280048373E-05 -2.54801344863E-05 -6.36368108036E-01 +7.30257504969E-01
1.15000000000E+09 -4.94260976546E-01 +8.12915072832E-01 -1.67990295670E-06 -2.02298458295E-05 +1.00933719235E-05 -1.00196648202E-04 -6.31648221682E-01 +7.33776343959E-01
1.15500000000E+09 -4.90562691780E-01 +8.14586988348E-01 -1.27234700093E-05 -3.09587493106E-05 -1.17996175191E-05 +4.72026795511E-06 -6.26924622399E-01 +7.37623154488E-01
1.16000000000E+09 -4.85859954769E-01 +8.16437086790E-01 +1.48463732470E-05 +7.54033578788E-06 +3.27406056844E-06 -3.62489631999E-05 -6.22098203246E-01 +7.41487197561E-01
1.16500000000E+09 -4.80087607616E-01 +8.19062044585E-01 +4.17971970930E-06 -3.00225820078E-05 +2.63536689738E-05 -4.93423374760E-05 -6.17026406006E-01 +7.45163090092E-01
1.17000000000E+09 -4.73129572116E-01 +8.22185027534E-01 +1.05830607404E-05 +1.93753979666E-05 -1.09721995755E-05 -1.53288271771E-05 -6.11589268988E-01 +7.48434551004E-01
1.17500000000E+09 -4.65213532598E-01 +8.25400590753E-01 -1.83210402817E-05 -1.94827875996E-05 +3.13794745216E-05 -4.24565759620E-05 -6.05845077048E-01 +7.51576198645E-01
1.18000000000E+09 -4.57099842888E-01 +8.29159610499E-01 -3.34492308961E-05 -2.09397515980E-05 -2.95088309979E-06 -6.36960548496E-05 -6.00352424610E-01 +7.54752137690E-01
1.18500000000E+09 -4.49204039350E-01 +8.32460097679E-01 -3.09320598419E-06 -5.56289891443E-05 -7.97231201420E-05 -1.55983157058E-05 -5.94309243903E-01 +7.57689731189E-01
1.19000000000E+09 -4.42099044406E-01 +8.35241484148E-01 -3.58410796926E-05 -7.33432123587E-05 +7.98297304671E-06 -5.82161998004E-05 -5.88256984376E-01 +7.60432409844E-01
1.19500000000E+09 -4.36254936210E-01 +8.37120820993E-01 -2.62555029537E-05 -5.86869611623E-05 -1.78587514088E-05 -6.33692517417E-05 -5.82397618084E-01 +7.61651137288E-01
1.20000000000E+09 -4.31538598051E-01 +8.38055303723E-01 -9.45011688044E-05 -3.13441976652E-05 -1.02075967632E-04 +9.19751647262E-06 -5.77990663534E-01 +7.61956110379E-01
1.20500000000E+09 -4.27442496846E-01 +8.39151908892E-01 -6.64078850720E-05 +4.40964694453E-05 -4.26738383111E-05 +2.76656647459E-05 -5.75591475945E-01 +7.62773595370E-01
1.21000000000E+09 -4.22918618109E-01 +8.40227358392E-01 -1.49301260674E-05 +2.35624282445E-05 -4.42561275376E-05 +5.90506830397E-05 -5.73699630346E-01 +7.65651458467E-01
1.21500000000E+09 -4.17106971054E-01 +8.41587663516E-01 -2.63803471837E-05 +3.64324593079E-05 -3.08481811094E-05 +3.58459691581E-05 -5.70987130168E-01 +7.70162789110E-01
1.22000000000E+09 -4.09725134350E-01 +8.43287955484E-01 +1.33375638278E-06 -1.08014405443E-05 -1.78961114080E-05 +1.00829112448E-05 -5.66803166141E-01 +7.75497593062E-01
1.22500000000E+09 -4.00582445876E-01 +8.45907318514E-01 +4.81474333815E-05 +4.22129140512E-05 -1.50918209072E-05 +2.53458067736E-05 -5.61650958198E-01 +7.80559507132E-01
1.23000000000E+09 -3.90088642011E-01 +8.48877461450E-01 -1.98721163417E-05 -6.04355034422E-05 -1.99406147180E-06 -2.06264151400E-05 -5.56029439331E-01 +7.85123355633E-01
1.23500000000E+09 -3.79285044562E-01 +8.52386698841E-01 -5.19957347806E-05 -1.44834770546E-05 -6.57944417443E-06 -3.13142303658E-05 -5.50229372892E-01 +7.89473050190E-01
1.24000000000E+09 -3.68499765878E-01 +8.56206956802E-01 -8.08535234137E-06 -9.98930568078E-06 -2.45898385011E-05 -2.98771031697E-05 -5.44177464438E-01 +7.93305314071E-01
1.24500000000E+09 -3.58714097894E-01 +8.60184817211E-01 -2.31530837191E-05 +1.44903496898E-05 -2.62325825264E-05 -2.63206935809E-05 -5.38038786020E-01 +7.97041918560E-01
1.25000000000E+09 -3.50365720459E-01 +8.63374418082E-01 -2.20366340386E-05 -4.39989693052E-05 -2.76729103775E-05 -3.73574997457E-05 -5.31500646935E-01 +8.01460365880E-01
1.25500000000E+09 -3.43536130688E-01 +8.65812109603E-01 -2.41763934359E-05 -5.66870055019E-05 -7.21194826968E-05 -1.18478866622E-05 -5.24562116863E-01 +8.05234620152E-01
1.26000000000E+09 -3.38235987658E-01 +8.67683320403E-01 -6.26174444962E-05 -4.50521197374E-05 -3.20890091934E-05 -1.70503624147E-05 -5.17915014894E-01 +8.09543800911E-01
1.26500000000E+09 -3.33455312028E-01 +8.68749983114E-01 -1.06883736844E-04 +3.67388865631E-06 -5.35340578914E-05 -2.35355268803E-06 -5.10917837934E-01 +8.13320724469E-01
1.27000000000E+09 -3.28465434484E-01 +8.69819828628E-01 -2.84646258552E-05 -1.70052363465E-06 -6.64291922160E-05 -7.60828759880E-06 -5.04064122388E-01 +8.17255180853E-01
1.27500000000E+09 -3.22280725011E-01 +8.70983047199E-01 -3.83158346098E-05 +4.45461575689E-05 -8.77810257589E-05 +1.45052435472E-05 -4.97061065310E-01 +8.20619059732E-01
1.28000000000E+09 -3.14174024494E-01 +8.72489789799E-01 -8.19530118385E-05 +6.60072981584E-06 -9.37728861352E-05 +8.57896056668E-06 -4.90063770323E-01 +8.24132706770E-01
1.28500000000E+09 -3.03925711195E-01 +8.74524724376E-01 -6.80087759757E-05 +1.96000626737E-05 -6.75306426059E-05 +5.34514878016E-05 -4.82726314434E-01 +8.27769875716E-01
1.29000000000E+09 -2.92208758125E-01 +8.77058803325E-01 -1.04907980438E-04 +5.54645488952E-05 -3.64287296786E-05 +6.81461200156E-05 -4.75082970443E-01 +8.31402934970E-01
1.29500000000E+09 -2.79763457631E-01 +8.80087143502E-01 -4.50836002385E-05 +9.52348535783E-05 -7.73746775186E-05 +7.83202534794E-05 -4.67359675317E-01 +8.34894561269E-01
1.30000000000E+09 -2.67367023922E-01 +8.83484326421E-01 -5.90104581536E-05 +2.20273285110E-05 -4.16595214593E-05 +4.92024890377E-05 -4.59573724188E-01 +8.38301892968E-01
1.30500000000E+09 -2.55753741357E-01 +8.86428562358E-01 -6.83993644327E-05 +7.37277448242E-05 -3.25337093861E-05 +7.54052329866E-05 -4.51594185934E-01 +8.41656175682E-01
1.31000000000E+09 -2.45928450682E-01 +8.88581939991E-01 -1.63458431006E-05 +1.40204578612E-04 -1.11852775920E-05 +1.11397872271E-04 -4.43401943779E-01 +8.45197838208E-01
1.31500000000E+09 -2.37910298938E-01 +8.90088043048E-01 +1.62532766510E-05 +1.15101936625E-04 +4.41442727948E-05 +1.26734406071E-04 -4.34598690025E-01 +8.48607938036E-01
1.32000000000E+09 -2.31642664610E-01 +8.90576680231E-01 +1.24042384812E-05 +6.41210974098E-05 +1.90074493928E-05 +1.06755048287E-04 -4.25625421543E-01 +8.52022502347E-01
1.32500000000E+09 -2.25929182644E-01 +8.90601592345E-01 -1.46592195047E-06 +6.85903039751E-05 -3.43763810649E-06 +9.09952280200E-05 -4.16002409036E-01 +8.55333274039E-01
1.33000000000E+09 -2.19264159583E-01 +8.90165912010E-01 -3.07312586005E-05 +9.11766443089E-05 -2.91310669438E-05 +9.36086744897E-05 -4.06403161766E-01 +8.58622202652E-01
1.33500000000E+09 -2.10981400903E-01 +8.89456287958E-01 -1.09084598086E-05 +1.15538674868E-04 +3.51423638238E-05 +1.31810968064E-04 -3.96568107915E-01 +8.61855955452E-01
1.34000000000E+09 -2.00108136815E-01 +8.88994880422E-01 +2.75709202579E-05 +1.23594125647E-04 +7.06283503912E-05 +1.17779565557E-04 -3.86430856087E-01 +8.65100448941E-01
1.34500000000E+09 -1.86723313494E-01 +8.88513304182E-01 +9.34918886109E-05 +9.17578575735E-05 +9.77458154428E-05 +2.62783836270E-05 -3.75542392935E-01 +8.68457769894E-01
1.35000000000E+09 -1.71088949958E-01 +8.88517982954E-01 +8.21033699963E-05 +2.06204108694E-05 +5.59192773981E-05 +4.10692348292E-05 -3.64623839377E-01 +8.71549693887E-01
1.35500000000E+09 -1.54123815740E-01 +8.88818710595E-01 +4.03014856404E-05 +6.60835334864E-05 +3.64335079621E-05 +2.35754000184E-05 -3.53048591059E-01 +8.74457960716E-01
1.36000000000E+09 -1.37198554153E-01 +8.89236489400E-01 +3.69868067357E-05 +9.19779776362E-05 +9.04812749104E-06 +5.68897972111E-05 -3.41387004871E-01 +8.77139139415E-01
1.36500000000E+09 -1.21170458092E-01 +8.89776470294E-01 +1.10081313733E-06 +9.74769255314E-05 -3.96175400053E-05 +6.22171339215E-05 -3.29133416420E-01 +8.79549133193E-01
1.37000000000E+09 -1.06777385890E-01 +8.89860634242E-01 +5.55222415112E-05 +1.60393020413E-04 +1.31951374561E-05 +1.24632911452E-04 -3.16409271625E-01 +8.82041408950E-01
1.37500000000E+09 -9.46824436315E-02 +8.89540837299E-01 +6.54316628894E-05 +1.71030959767E-04 +5.96598155512E-05 +1.43572116801E-04 -3.02740462854E-01 +8.84260006459E-01
1.38000000000E+09 -8.38651188188E-02 +8.88846119667E-01 +1.36249276164E-04 +1.65637990805E-04 +1.35268771016E-04 +1.48507576060E-04 -2.88267742081E-01 +8.86285826181E-01
1.38500000000E+09 -7.30368593963E-02 +8.87293588358E-01 +1.52557822883E-04 +7.61563445821E-05 +1.81428357149E-04 +1.45861728458E-04 -2.72737755367E-01 +8.88173019050E-01
1.39000000000E+09 -6.15011387592E-02 +8.85018208108E-01 +1.91155124414E-04 +1.02330724655E-04 +1.42794618942E-04 +7.59856987997E-05 -2.56725676846E-01 +8.89750427783E-01
1.39500000000E+09 -4.78275775353E-02 +8.81898493127E-01 +2.59903699558E-04 +1.09492018625E-04 +2.82653834627E-04 +4.33363579443E-05 -2.40198120245E-01 +8.90461309274E-01
1.40000000000E+09 -3.13541423318E-02 +8.77670498956E-01 +2.58077340591E-04 +1.25820821239E-05 +3.09770932982E-04 -6.49774196551E-06 -2.22714492674E-01 +8.90980832596E-01
1.40500000000E+09 -1.27136618411E-02 +8.72842415391E-01 +1.45271818342E-04 -6.17127703999E-05 +1.87440114689E-04 -5.64326245332E-05 -2.04057575546E-01 +8.90877291046E-01
1.41000000000E+09 +8.14016682028E-03 +8.67252140453E-01 +1.22904472598E-04 -1.82346035926E-05 +9.39115092528E-05 -1.42148671429E-05 -1.83836055029E-01 +8.90084129752E-01
1.41500000000E+09 +3.02140419846E-02 +8.61451125177E-01 +9.47520974922E-05 +8.58547776804E-06 +1.13746359591E-04 +1.19984093015E-05 -1.62238113687E-01 +8.88376810427E-01
1.42000000000E+09 +5.29068671023E-02 +8.55085670037E-01 +2.85692548735E-04 +9.99277397573E-05 +2.82059071578E-04 +1.17767001865E-04 -1.39580936036E-01 +8.85709472778E-01
1.42500000000E+09 +7.48999452932E-02 +8.47849320175E-01 +3.51267092786E-04 -7.46472105530E-05 +4.10541955267E-04 -1.11535741287E-04 -1.16186218635E-01 +8.82199994835E-01
1.43000000000E+09 +9.53749152099E-02 +8.39311198815E-01 +1.57636933184E-04 -2.54153196367E-04 +1.91381376806E-04 -3.39979528095E-04 -9.14788711769E-02 +8.77549209048E-01
1.43500000000E+09 +1.14916257344E-01 +8.29565660514E-01 +8.00876374265E-05 -1.35681485813E-04 +2.84442705780E-05 -1.57182111998E-04 -6.53844711802E-02 +8.70935622191E-01
1.44000000000E+09 +1.34432642440E-01 +8.18390181702E-01 +4.36642623787E-05 +3.86355633913E-06 +8.39759029828E-05 +2.57492946818E-05 -3.75266134377E-02 +8.62431891494E-01
1.44500000000E+09 +1.55084948314E-01 +8.04692442887E-01 +2.28418006662E-04 +9.27959142928E-05 +2.30681895442E-04 +1.09128450656E-04 -7.63890312862E-03 +8.51099580478E-01
1.45000000000E+09 +1.77935760230E-01 +7.87568810997E-01 +4.07204055117E-04 -6.35816092115E-05 +3.95239935389E-04 -5.05787018168E-05 +2.42615548062E-02 +8.37027882505E-01
1.45500000000E+09 +2.03555726527E-01 +7.65977465824E-01 +2.43628005896E-04 -1.59746580159E-04 +2.43908186177E-04 -1.47594283055E-04 +5.75978718480E-02 +8.19464307667E-01
1.46000000000E+09 +2.31732845208E-01 +7.39838793276E-01 +3.78421757403E-04 +3.92617340373E-06 +3.54912248027E-04 -9.74346320877E-06 +9.24411289795E-02 +7.97621021066E-01
1.46500000000E+09 +2.61581097285E-01 +7.08898531901E-01 +5.19631640987E-04 -1.75510723742E-04 +4.35686731974E-04 -2.05212044874E-04 +1.27985892369E-01 +7.71378719056E-01
1.47000000000E+09 +2.92623043467E-01 +6.73581579628E-01 +6.50666957217E-04 -2.66414313520E-04 +5.88765142430E-04 -1.77575109013E-04 +1.65243964255E-01 +7.38064935866E-01
1.47500000000E+09 +3.23044934229E-01 +6.32710903643E-01 +6.40026781129E-04 -5.88159895532E-04 +6.59028489696E-04 -5.71053487947E-04 +2.02501388353E-01 +6.97274564174E-01
1.48000000000E+09 +3.50507719914E-01 +5.86599958881E-01 +4.53861013190E-04 -7.09336786415E-04 +4.30754371095E-04 -7.12731420154E-04 +2.39253808908E-01 +6.47944317560E-01
1.48500000000E+09 +3.73827122030E-01 +5.35000347137E-01 +6.12369867415E-04 -6.95430712422E-04 +5.69780460941E-04 -6.70065765671E-04 +2.73406876575E-01 +5.89412824682E-01
1.49000000000E+09 +3.91587758092E-01 +4.76863612240E-01 +9.27276216338E-04 -1.04514064251E-03 +8.61056058769E-04 -1.08144325104E-03 +3.01718299503E-01 +5.19618417112E-01
1.49500000000E+09 +4.01785816884E-01 +4.11216934766E-01 +8.06061852142E-04 -2.16528509006E-03 +6.82350649685E-04 -2.09323209901E-03 +3.20269376476E-01 +4.40356764710E-01
1.50000000000E+09 +4.01759095262E-01 +3.37302945041E-01 -6.10850905788E-04 -2.91734240530E-03 -5.56861648590E-04 -2.71120771727E-03 +3.25802056068E-01 +3.50779805238E-01
1.50500000000E+09 +3.90046107072E-01 +2.57054525171E-01 -1.84417246216E-03 -2.42322936528E-03 -1.66993733896E-03 -2.35545415465E-03 +3.14283062189E-01 +2.54554422721E-01
1.51000000000E+09 +3.64503610426E-01 +1.70685116765E-01 -2.63437393244E-03 -1.50763807510E-03 -2.51646291903E-03 -1.57710616497E-03 +2.82132818683E-01 +1.54318979657E-01
1.51500000000E+09 +3.21324526199E-01 +8.22530120623E-02 -2.85220035794E-03 -1.00443923025E-03 -2.78802586453E-03 -1.12115658564E-03 +2.27909747325E-01 +5.68941394839E-02
1.52000000000E+09 +2.59243856784E-01 -1.24618316661E-03 -3.19038489270E-03 +3.12961521334E-04 -3.22102003496E-03 +2.89866357147E-04 +1.51195828414E-01 -2.92329610690E-02
1.52500000000E+09 +1.78718605261E-01 -7.33979934818E-02 -2.62137295883E-03 +4.78587654084E-04 -2.59966472248E-03 +5.00251912298E-04 +5.57704092877E-02 -9.74387351852E-02
1.53000000000E+09 +8.19872886579E-02 -1.25592470510E-01 -3.00016901528E-03 +1.36208427193E-03 -2.99585710576E-03 +1.36274687442E-03 -5.06792836471E-02 -1.41404232825E-01
1.53500000000E+09 -2.26197867828E-02 -1.53443711926E-01 -2.84828113781E-03 +2.33628314961E-03 -2.83269967302E-03 +2.32944469536E-03 -1.62052710072E-01 -1.61733210605E-01
1.54000000000E+09 -1.29688438450E-01 -1.56873967997E-01 -1.97628741647E-03 +3.39911247103E-03 -1.97877968444E-03 +3.38338972521E-03 -2.70644639044E-01 -1.58874587388E-01
1.54500000000E+09 -2.32453614535E-01 -1.36826270538E-01 -4.96192885992E-04 +4.35699940491E-03 -5.79108381324E-04 +4.26665736496E-03 -3.69673483608E-01 -1.34839198348E-01
1.55000000000E+09 -3.27108595111E-01 -9.88789590060E-02 +1.52010843035E-03 +3.45966542205E-03 +1.38998679163E-03 +3.45359421500E-03 -4.54425018412E-01 -9.70160655680E-02
1.55500000000E+09 -4.08589485686E-01 -4.59674878181E-02 +1.77681612888E-03 +2.43007672016E-03 +1.70501541550E-03 +2.54495596319E-03 -5.25090171404E-01 -5.00389538157E-02
1.56000000000E+09 -4.74363855403E-01 +1.28823619260E-02 +2.11828837573E-03 +1.69695181243E-03 +2.12444133015E-03 +1.79761940675E-03 -5.82331049917E-01 +3.01880191176E-03
1.56500000000E+09 -5.26857254315E-01 +7.29906706304E-02 +2.03168129633E-03 +1.09961403886E-03 +2.10869300885E-03 +1.18107974897E-03 -6.26837474479E-01 +5.88454696311E-02
1.57000000000E+09 -5.66913916954E-01 +1.32533209598E-01 +1.97625284687E-03 +6.27761063401E-04 +2.06337904382E-03 +6.66737127133E-04 -6.60404191304E-01 +1.14397200959E-01
