# Hz S RI R 50
! CMT, C1220, 16058040, 17.2.0/1
! Date: 14/08/2018 12:20:38
! Data: Format (Calibration Info)
! Freq                      S11: Re/Im (F2)                       S21: Re/Im (F2)                       S12: Re/Im (F2)                       S22: Re/Im (F2)            
1.00000000000E+09 -6.44041297453E-01 +7.16131843082E-01 +6.63912926630E-06 -2.57949508425E-05 +3.27829293902E-05 -8.85625526536E-06 -7.48139237798E-01 +6.23984786218E-01
1.00500000000E+09 -6.36734846932E-01 +7.21102269852E-01 +4.30333761054E-05 +1.84892931793E-06 -1.81258583833E-05 -4.40829907751E-05 -7.44560231483E-01 +6.28050855941E-01
1.01000000000E+09 -6.30708958319E-01 +7.25751995335E-01 -1.53655185144E-05 +1.80075294060E-05 -4.54377589203E-05 -4.57793051203E-06 -7.40842337880E-01 +6.31737360684E-01
1.01500000000E+09 -6.26604957884E-01 +7.29437482275E-01 -2.29655055063E-05 -5.03298480176E-05 -2.37216678215E-05 -1.87742950694E-05 -7.37640860109E-01 +6.35307573960E-01
1.02000000000E+09 -6.24044439924E-01 +7.32586756470E-01 +1.93566024038E-05 +1.86338772295E-05 +3.93525490438E-05 +3.89056291175E-05 -7.34321440317E-01 +6.38804267564E-01
1.02500000000E+09 -6.22420558849E-01 +7.35147410258E-01 +1.56700684393E-05 +1.23604388048E-05 -1.85489056544E-05 +1.47195209791E-05 -7.31451814631E-01 +6.42487922655E-01
1.03000000000E+09 -6.21316433742E-01 +7.37539485075E-01 +3.36198039307E-05 +1.17960011792E-05 +4.40563734160E-07 -7.39910314696E-06 -7.27837674831E-01 +6.46384463222E-01
1.03500000000E+09 -6.19265444260E-01 +7.39791346342E-01 -1.40048892259E-05 -8.93209936714E-06 +1.64801511293E-05 +1.44656680431E-05 -7.24130302558E-01 +6.50255864591E-01
1.04000000000E+09 -6.15831602741E-01 +7.42566333689E-01 -3.03507967294E-05 +1.09301262202E-05 +2.95209631876E-05 +1.72484178023E-05 -7.20279868257E-01 +6.53926966436E-01
1.04500000000E+09 -6.10533244130E-01 +7.45993993833E-01 +6.25801744956E-06 -1.21386349789E-06 +1.52100297040E-05 +8.88074922246E-07 -7.16877394727E-01 +6.57346575167E-01
1.05000000000E+09 -6.03171849377E-01 +7.49986113939E-01 -8.99755696935E-06 +1.88196552442E-05 -2.16385406432E-05 +4.09382282509E-07 -7.13361380079E-01 +6.60811326075E-01
1.05500000000E+09 -5.94506900363E-01 +7.54696708997E-01 +2.11391372192E-06 -2.54856789794E-05 +3.91126392153E-05 +5.79355314553E-06 -7.10226662965E-01 +6.64447204345E-01
1.06000000000E+09 -5.84920525475E-01 +7.59965174567E-01 +1.29036879897E-05 +2.65385365193E-06 +3.78711064115E-06 -7.63004255871E-05 -7.06768340526E-01 +6.68101897566E-01
1.06500000000E+09 -5.75885881738E-01 +7.64846112379E-01 +3.59509427879E-06 -1.72693120209E-05 +2.24820938163E-05 -5.09282202022E-06 -7.03126384472E-01 +6.71942801528E-01
1.07000000000E+09 -5.67746380763E-01 +7.69366500879E-01 +2.00550793559E-05 +1.58528131768E-05 +3.46026028284E-06 +2.94733245635E-05 -6.99139776488E-01 +6.75541396483E-01
1.07500000000E+09 -5.61461441837E-01 +7.73258108292E-01 +3.23599954969E-05 +8.70044177388E-06 +1.17127381287E-05 +1.17662566943E-06 -6.94726854706E-01 +6.79165150330E-01
1.08000000000E+09 -5.57022100896E-01 +7.76368792913E-01 +2.34852184211E-05 -7.36794373751E-06 +2.43162102575E-05 -2.43509939194E-05 -6.90576442007E-01 +6.83120912498E-01
1.08500000000E+09 -5.54342888562E-01 +7.78954473653E-01 +1.29710545912E-05 +3.45773800625E-06 +8.48070888693E-06 -1.63414812119E-05 -6.86758704274E-01 +6.86768658429E-01
1.09000000000E+09 -5.52072484449E-01 +7.80985812443E-01 -1.26757924126E-05 +1.05260521831E-05 +4.88431463169E-06 -2.47800517573E-05 -6.82977149520E-01 +6.90631958993E-01
1.09500000000E+09 -5.50409068973E-01 +7.82698402396E-01 +1.44627991616E-05 +3.29188917766E-05 -2.04659924076E-06 -2.94843365515E-05 -6.79099382045E-01 +6.94435929311E-01
1.10000000000E+09 -5.47568571775E-01 +7.84782808427E-01 +2.30914207885E-05 -3.24193221310E-05 +3.89316472886E-06 +1.61233145753E-05 -6.75202313671E-01 +6.98198987977E-01
1.10500000000E+09 -5.43236625565E-01 +7.87245177582E-01 +2.91745846269E-05 +3.12487665753E-06 +1.57412209528E-05 -5.73603390665E-06 -6.70890377684E-01 +7.01600658252E-01
1.11000000000E+09 -5.37392034531E-01 +7.90503323892E-01 +5.04288261911E-07 -4.18429146628E-05 -5.64063897242E-06 -3.36592340295E-05 -6.66689758222E-01 +7.04967246037E-01
1.11500000000E+09 -5.30184157706E-01 +7.94341511109E-01 +1.56264996626E-05 -4.03949389118E-05 +6.57741388447E-06 -2.86628559494E-05 -6.62583211025E-01 +7.08452044308E-01
1.12000000000E+09 -5.22165990862E-01 +7.98160532895E-01 +2.40264426178E-05 -4.10068219719E-05 +4.33583144636E-05 -4.47448676522E-05 -6.58554849039E-01 +7.12079282935E-01
1.12500000000E+09 -5.13851626006E-01 +8.02251330269E-01 -4.75590181690E-05 -2.90654084918E-05 -9.00719018092E-06 -6.18192944041E-05 -6.54392310653E-01 +7.15954251535E-01
1.13000000000E+09 -5.06387791201E-01 +8.06029902647E-01 +9.33650993414E-07 -2.77709542648E-05 -9.18981663762E-06 -2.61193737285E-05 -6.50022823950E-01 +7.19734072672E-01
1.13500000000E+09 -4.99848311483E-01 +8.08773407829E-01 +8.43747796779E-07 -4.52797235331E-05 -6.26628929981E-05 -1.29280103401E-05 -6.45657539714E-01 +7.23388898577E-01
1.14000000000E+09 -4.94598730158E-01 +8.11241747149E-01 -6.18537728242E-06 -1.71210266925E-05 -3.09353114820E-06 -1.36499127670E-05 -6.40834876770E-01 +7.26777031482E-01
1.14500000000E+09 -4.90399588784E-01 +8.12876366202E-01 -2.70005230443E-05 -2.97937293066E-05 +4.83134128296E-06 -3.04808397925E-05 -6.36172328391E-01 +7.30243597013E-01
1.15000000000E+09 -4.86606822003E-01 +8.14287312330E-01 -4.19589816641E-05 -3.71860715309E-05 +1.39889355316E-05 -4.87605220655E-05 -6.31665666241E-01 +7.33963221076E-01
1.15500000000E+09 -4.82746302710E-01 +8.15964002596E-01 -1.59400642812E-05 -3.36652553785E-05 +9.23561166691E-06 -5.00819818880E-05 -6.26843857976E-01 +7.37828117356E-01
1.16000000000E+09 -4.77923667814E-01 +8.17777402802E-01 -6.74679182651E-05 -8.30817150897E-06 -4.27422958216E-06 -5.04483158710E-05 -6.22018466150E-01 +7.41534305385E-01
1.16500000000E+09 -4.71950829105E-01 +8.20336839588E-01 -5.63049325207E-06 +1.35610903142E-05 -2.17818267568E-05 -2.37962924439E-05 -6.17024111296E-01 +7.45176110028E-01
1.17000000000E+09 -4.64687655132E-01 +8.23251760311E-01 -2.46209679492E-05 -2.24032081106E-05 -3.05162908664E-05 -5.30847878622E-05 -6.11491366703E-01 +7.48341253504E-01
1.17500000000E+09 -4.56581728595E-01 +8.26469797222E-01 -5.09318639299E-06 -3.93255278052E-05 +1.06560091685E-05 -2.91780695109E-05 -6.05901671757E-01 +7.51708507571E-01
1.18000000000E+09 -4.48341716525E-01 +8.30081996937E-01 +2.95333744100E-06 -2.98109455998E-05 -1.87321610919E-07 -6.60829985591E-05 -6.00298810788E-01 +7.54855874068E-01
1.18500000000E+09 -4.40246387832E-01 +8.33231397838E-01 +1.05890079087E-05 -4.68772130925E-05 +3.62819275746E-05 -1.08799928731E-04 -5.94359045168E-01 +7.57741376072E-01
1.19000000000E+09 -4.32943956723E-01 +8.35882694286E-01 -3.67187088164E-05 -3.37804855347E-05 -6.01878381205E-06 -5.76746191485E-05 -5.88143401299E-01 +7.60388423487E-01
1.19500000000E+09 -4.26772967935E-01 +8.37932750972E-01 -2.77553611132E-05 -9.32059967513E-05 -8.25875535673E-05 -7.20698484483E-05 -5.82483970033E-01 +7.61666100438E-01
1.20000000000E+09 -4.21973208892E-01 +8.38740375630E-01 -6.96579298905E-05 -5.61198987991E-05 -1.09284819795E-04 -2.13131831432E-05 -5.78053203928E-01 +7.61881329847E-01
1.20500000000E+09 -4.17523565048E-01 +8.39836729725E-01 -4.94406564755E-05 +2.96070971791E-05 -1.06292590530E-04 +5.92234685002E-05 -5.75599436064E-01 +7.62889597309E-01
1.21000000000E+09 -4.12753584854E-01 +8.40645013161E-01 -8.18799709264E-05 +3.12523694284E-05 -5.27403730840E-05 +2.45658435131E-05 -5.73724755849E-01 +7.65895870978E-01
1.21500000000E+09 -4.06687625134E-01 +8.41953298425E-01 -2.40112029916E-05 +5.23023680219E-05 -2.38258076443E-05 +1.29698340168E-05 -5.70995991156E-01 +7.70387904208E-01
1.22000000000E+09 -3.99076682308E-01 +8.43665939400E-01 -1.29817054844E-05 +2.27965423305E-05 -2.86807638414E-05 +4.18664400789E-05 -5.66826024273E-01 +7.75649907420E-01
1.22500000000E+09 -3.89693064468E-01 +8.45857108400E-01 +4.87305090805E-06 -8.89340149632E-06 -2.26302366466E-05 +1.24474191464E-05 -5.61667196561E-01 +7.80664919589E-01
1.23000000000E+09 -3.79058381431E-01 +8.48738912310E-01 +1.24970569419E-05 +9.68013560789E-06 -2.86282088916E-06 -1.94347311791E-05 -5.55892816701E-01 +7.85235256921E-01
1.23500000000E+09 -3.67932436719E-01 +8.52018988824E-01 -4.38650988443E-05 -2.24708346767E-05 -4.47116355671E-05 -3.66191059972E-05 -5.50263992106E-01 +7.89440244118E-01
1.24000000000E+09 -3.56964842987E-01 +8.55611187369E-01 -2.66373443978E-05 +1.80044969439E-05 +6.81314645209E-06 -4.22974444544E-05 -5.44125188624E-01 +7.93317381060E-01
1.24500000000E+09 -3.46977784415E-01 +8.59449812941E-01 -2.70839791445E-06 -7.39177717754E-06 -1.74492696048E-06 -1.93665364863E-05 -5.37863060534E-01 +7.97154300743E-01
1.25000000000E+09 -3.38385787756E-01 +8.62570108884E-01 -4.93238459954E-05 +2.83541764825E-05 -3.76676606041E-05 -1.59403343527E-05 -5.31453904267E-01 +8.01429346107E-01
1.25500000000E+09 -3.31547740099E-01 +8.64983575580E-01 -3.45048420498E-05 -4.93137243424E-06 -3.07096919823E-05 -3.61223797423E-05 -5.24494594113E-01 +8.05257460956E-01
1.26000000000E+09 -3.25898229159E-01 +8.66586918022E-01 -6.29331067616E-05 -1.26996158546E-05 -8.38000730512E-05 -2.02047020725E-05 -5.17773470430E-01 +8.09578222328E-01
1.26500000000E+09 -3.20946730920E-01 +8.67520442845E-01 -7.78840384814E-05 -3.20532895295E-05 -6.14353941431E-05 +6.35019624229E-05 -5.10789155951E-01 +8.13486662222E-01
1.27000000000E+09 -3.15807405384E-01 +8.68408801707E-01 -7.90660594101E-05 +9.21560820987E-06 -6.87825266946E-05 -6.49010723102E-06 -5.04041517454E-01 +8.17249134719E-01
1.27500000000E+09 -3.09451605406E-01 +8.69244599065E-01 -4.30507101943E-05 +2.49579800885E-05 -4.75074781597E-05 +1.15472549650E-05 -4.97173658789E-01 +8.20708604430E-01
1.28000000000E+09 -3.01119981128E-01 +8.70485829507E-01 -5.79576302865E-05 +1.42763013206E-05 -7.36083690673E-05 +5.63523673091E-06 -4.90063242331E-01 +8.24141364723E-01
1.28500000000E+09 -2.90720827419E-01 +8.72101551809E-01 -4.91080982918E-05 +5.28187030986E-05 -5.40768126415E-05 +3.04434876821E-05 -4.82756816750E-01 +8.27771322637E-01
1.29000000000E+09 -2.79040203543E-01 +8.74275516357E-01 -5.61385376018E-05 +5.40011426993E-05 -1.70027855519E-05 +4.37493025520E-05 -4.75266593094E-01 +8.31429362359E-01
1.29500000000E+09 -2.66783780184E-01 +8.77092753565E-01 -4.77706119746E-05 +6.84625120302E-05 -5.54657946703E-05 +3.72431492588E-05 -4.67453402959E-01 +8.35012603236E-01
1.30000000000E+09 -2.54228789001E-01 +8.80241345750E-01 -7.41768378221E-05 +5.84282307010E-05 -3.65935894067E-05 +8.89498815766E-05 -4.59599299170E-01 +8.38441942298E-01
1.30500000000E+09 -2.42641714956E-01 +8.83249790234E-01 -5.07585551842E-05 +1.06345197379E-04 -2.89230632443E-05 +9.74819704455E-05 -4.51604977939E-01 +8.41852911568E-01
1.31000000000E+09 -2.32699348897E-01 +8.85468034932E-01 -3.66129217483E-05 +1.11724732930E-04 -1.21490262142E-05 +1.04193722599E-04 -4.43348420643E-01 +8.45240768598E-01
1.31500000000E+09 -2.24668495429E-01 +8.86832363211E-01 +1.66750194678E-05 +1.13898776601E-04 +2.10689493194E-06 +1.13711894295E-04 -4.34637634036E-01 +8.48714227406E-01
1.32000000000E+09 -2.17993509736E-01 +8.87245693103E-01 +2.44961942815E-05 +7.50181023156E-05 +2.76523106060E-05 +7.74164812083E-05 -4.25719371968E-01 +8.52092002335E-01
1.32500000000E+09 -2.12080323420E-01 +8.87007975005E-01 +5.86390047813E-05 +6.77508270957E-05 +2.96423372848E-05 +7.53271808637E-05 -4.16104208869E-01 +8.55569021126E-01
1.33000000000E+09 -2.05234910485E-01 +8.86289842300E-01 -1.46744541063E-05 +1.05856726280E-04 -2.27278097775E-05 +1.10170688298E-04 -4.06507297548E-01 +8.58851749560E-01
1.33500000000E+09 -1.96561451741E-01 +8.85097625288E-01 +2.94954079778E-05 +1.30046618678E-04 +8.84521213171E-05 +1.01230879065E-04 -3.96779398617E-01 +8.62129591065E-01
1.34000000000E+09 -1.85745099896E-01 +8.84169873601E-01 +5.88064421462E-05 +1.22442252893E-04 +3.24361407174E-05 +1.36537935188E-04 -3.86559078010E-01 +8.65553087130E-01
1.34500000000E+09 -1.72380388680E-01 +8.83334650260E-01 +9.04713229614E-05 +1.01180162976E-04 +1.18302151408E-04 +3.99195991341E-05 -3.75637215441E-01 +8.68727761636E-01
1.35000000000E+09 -1.56998083872E-01 +8.82914484694E-01 +7.75889900153E-05 +3.01798420914E-05 +9.90972166338E-05 +9.61948625269E-05 -3.64652475012E-01 +8.71902743219E-01
1.35500000000E+09 -1.40228830850E-01 +8.83065795099E-01 +5.29741663751E-05 +5.59148488709E-05 +3.99835331046E-05 +9.82382642258E-05 -3.53102295069E-01 +8.74813606445E-01
1.36000000000E+09 -1.23409461526E-01 +8.83484769923E-01 +6.71388275139E-05 +7.52201991359E-05 +8.59547620893E-05 +5.06006190387E-05 -3.41114003386E-01 +8.77598823891E-01
1.36500000000E+09 -1.07365977178E-01 +8.83867829364E-01 +8.11237441891E-05 +8.99262897508E-05 +8.93793218219E-05 +7.34993607162E-05 -3.29067288526E-01 +8.80177712856E-01
1.37000000000E+09 -9.28994945407E-02 +8.83628319794E-01 +1.18749075132E-04 +6.49656703757E-05 +9.97067982956E-05 +1.16565860218E-04 -3.16256771101E-01 +8.82476893976E-01
1.37500000000E+09 -8.06115434549E-02 +8.83074083513E-01 +8.77279639037E-05 +1.17504829900E-04 +1.04010885813E-04 +1.00228416515E-04 -3.02534617233E-01 +8.84756109442E-01
1.38000000000E+09 -6.96697033493E-02 +8.81720504386E-01 +2.00275117058E-04 +1.34076027794E-04 +2.00118900105E-04 +1.24567073462E-04 -2.88004821795E-01 +8.86810068939E-01
1.38500000000E+09 -5.88843690178E-02 +8.79768825734E-01 +2.34664611298E-04 +2.00184555320E-05 +2.53272818706E-04 +8.32728708802E-05 -2.72498023260E-01 +8.88784779358E-01
1.39000000000E+09 -4.74262645280E-02 +8.76789906153E-01 +2.29804605715E-04 +5.03649937190E-05 +2.51526751283E-04 +7.54661506425E-05 -2.56570124472E-01 +8.90212323250E-01
1.39500000000E+09 -3.41320647874E-02 +8.72963590307E-01 +3.16442960743E-04 +8.59753921524E-06 +3.22296387123E-04 -2.72801818717E-06 -2.39756358276E-01 +8.91073475036E-01
1.40000000000E+09 -1.81282297574E-02 +8.68180605857E-01 +3.48548063894E-04 -5.46868710888E-05 +3.39694812774E-04 -1.25318976716E-04 -2.22245779568E-01 +8.91645675220E-01
1.40500000000E+09 +1.03381035077E-04 +8.62970461976E-01 +2.89327677762E-04 -2.15417632684E-04 +2.31690582609E-04 -2.18620758165E-04 -2.03387657053E-01 +8.91594259080E-01
1.41000000000E+09 +2.03807412345E-02 +8.57196522753E-01 +1.78584544530E-04 -1.52711208075E-04 +1.88249962765E-04 -1.81589647175E-04 -1.83126822136E-01 +8.90859055136E-01
1.41500000000E+09 +4.21112993402E-02 +8.51419656100E-01 +1.81375948788E-04 -8.55464048203E-05 +2.29066212819E-04 -8.96648484048E-05 -1.61391534783E-01 +8.89163603919E-01
1.42000000000E+09 +6.45474669238E-02 +8.45079329935E-01 +2.65592072481E-04 -7.86356395492E-05 +3.20400709790E-04 -1.03137557001E-04 -1.38674438156E-01 +8.86499144082E-01
1.42500000000E+09 +8.63576984206E-02 +8.37676852081E-01 +3.37033655511E-04 -2.45601186074E-04 +3.94176084092E-04 -3.75547046782E-04 -1.14877054478E-01 +8.82872116144E-01
1.43000000000E+09 +1.06553776191E-01 +8.29152517785E-01 +1.44919467149E-04 -4.00579638044E-04 +7.01513362548E-05 -4.44963595699E-04 -8.99609267112E-02 +8.78047303730E-01
1.43500000000E+09 +1.25844740409E-01 +8.19121733455E-01 +7.69801688896E-06 -3.66154527814E-04 -7.38320882505E-05 -4.07386263797E-04 -6.36753519729E-02 +8.71390698808E-01
1.44000000000E+09 +1.44828044144E-01 +8.07754211691E-01 -7.86671947172E-05 -2.60831267176E-04 -1.18310378779E-04 -2.78483653753E-04 -3.55884911849E-02 +8.62470641118E-01
1.44500000000E+09 +1.65134731470E-01 +7.93488088353E-01 +3.65049196004E-05 -1.01248764610E-04 -3.10197822453E-06 -1.11430691110E-04 -5.50670249832E-03 +8.51003748171E-01
1.45000000000E+09 +1.87239637012E-01 +7.76020801012E-01 +1.63444683783E-04 -2.40014626619E-04 +2.13111689704E-04 -2.35069213144E-04 +2.65248848416E-02 +8.36466659484E-01
1.45500000000E+09 +2.11948040776E-01 +7.54268971920E-01 +1.99007042987E-05 -3.28286201548E-04 -3.29508003684E-05 -2.82505446857E-04 +6.01428971122E-02 +8.18469859038E-01
1.46000000000E+09 +2.39330269222E-01 +7.28219426482E-01 +1.02214365823E-04 -1.65895134113E-04 +6.97325533072E-05 -1.53001155708E-04 +9.49690637476E-02 +7.96050871706E-01
1.46500000000E+09 +2.68084120158E-01 +6.97827033603E-01 +1.82851761363E-04 -3.81805492367E-04 +1.65688980473E-04 -3.13091846599E-04 +1.30541136222E-01 +7.69115121300E-01
1.47000000000E+09 +2.98793037109E-01 +6.63222186509E-01 +2.72298797190E-04 -4.08560477230E-04 +2.26321005671E-04 -3.68021002528E-04 +1.67558951020E-01 +7.35047164165E-01
1.47500000000E+09 +3.28918291191E-01 +6.23037398336E-01 +2.77182018450E-05 -7.47702441414E-04 +3.59243015237E-05 -7.02117933556E-04 +2.04498406831E-01 +6.93536447716E-01
1.48000000000E+09 +3.56203592590E-01 +5.77651743817E-01 -1.99482404048E-04 -5.54087503733E-04 -1.63102924134E-04 -5.77107932404E-04 +2.40494966762E-01 +6.43560262962E-01
1.48500000000E+09 +3.79835611204E-01 +5.26430755863E-01 -5.09374478074E-05 -4.52246770827E-04 +2.91576834048E-06 -4.53207228192E-04 +2.73759624312E-01 +5.84235321146E-01
1.49000000000E+09 +3.97377738083E-01 +4.68469685651E-01 +3.02243917325E-04 -7.19686054224E-04 +2.41882436774E-04 -7.29732818989E-04 +3.01145621555E-01 +5.14011299222E-01
1.49500000000E+09 +4.06897639369E-01 +4.03352864444E-01 +1.93699934219E-04 -1.68276240070E-03 +1.19064915053E-04 -1.58367016564E-03 +3.18154830234E-01 +4.34218416278E-01
1.50000000000E+09 +4.06733352485E-01 +3.30539735897E-01 -1.20584352108E-03 -2.10126149360E-03 -1.13562767153E-03 -1.97225895983E-03 +3.21706248715E-01 +3.45091718748E-01
1.50500000000E+09 +3.95282449344E-01 +2.50969981094E-01 -2.21491026848E-03 -1.51901848500E-03 -2.07887561693E-03 -1.56326392202E-03 +3.08604102719E-01 +2.49462242958E-01
1.51000000000E+09 +3.69996529288E-01 +1.64862567165E-01 -2.96643487707E-03 -3.67877376030E-04 -2.86108070665E-03 -5.01873268215E-04 +2.74503556684E-01 +1.50590959259E-01
1.51500000000E+09 +3.27138955445E-01 +7.67164764375E-02 -2.68933815621E-03 +3.86856144259E-04 -2.71377031860E-03 +2.83005250637E-04 +2.19554466203E-01 +5.53734229986E-02
1.52000000000E+09 +2.65328213944E-01 -6.87487274734E-03 -2.60916662109E-03 +1.52473757683E-03 -2.71112176593E-03 +1.51043175629E-03 +1.42105801590E-01 -2.85032182906E-02
1.52500000000E+09 +1.84745474961E-01 -7.93292541754E-02 -1.61122794791E-03 +1.71562799944E-03 -1.67964474447E-03 +1.73713481795E-03 +4.70450133449E-02 -9.39747750996E-02
1.53000000000E+09 +8.74123386234E-02 -1.31316142317E-01 -1.56481914732E-03 +1.98179327484E-03 -1.60217174744E-03 +1.99942575502E-03 -5.80192492936E-02 -1.35786237834E-01
1.53500000000E+09 -1.72970531642E-02 -1.58778839296E-01 -1.49567505262E-03 +2.52180813299E-03 -1.50554732635E-03 +2.57657349496E-03 -1.67574125223E-01 -1.54171513220E-01
1.54000000000E+09 -1.24457139662E-01 -1.61915468683E-01 -7.11884318042E-04 +3.42141558556E-03 -7.38442149957E-04 +3.41141720331E-03 -2.73366401301E-01 -1.50224910383E-01
1.54500000000E+09 -2.27635037306E-01 -1.41813592323E-01 +8.21985590064E-04 +3.93429526168E-03 +7.46127952786E-04 +3.90817401832E-03 -3.69984108310E-01 -1.26481196460E-01
1.55000000000E+09 -3.22883588259E-01 -1.02840764285E-01 +2.50352111493E-03 +2.77195545511E-03 +2.44290909138E-03 +2.88478840069E-03 -4.52540743177E-01 -8.97532234589E-02
1.55500000000E+09 -4.04392248018E-01 -4.89359524570E-02 +2.68569902370E-03 +1.53845706630E-03 +2.69128245973E-03 +1.67589180477E-03 -5.22268082663E-01 -4.41425146852E-02
1.56000000000E+09 -4.70376362520E-01 +1.05568766098E-02 +2.66374184353E-03 +4.58050080031E-04 +2.74189736908E-03 +5.57835176596E-04 -5.78846167370E-01 +8.03360274468E-03
1.56500000000E+09 -5.22473740619E-01 +7.20009519676E-02 +2.08297210876E-03 +1.52028334283E-04 +2.22312242961E-03 +1.91175508235E-04 -6.22457311282E-01 +6.30092091987E-02
1.57000000000E+09 -5.61979503092E-01 +1.32202962585E-01 +1.99002370844E-03 -2.52829129027E-04 +2.11179163769E-03 -3.66906771683E-04 -6.55486291787E-01 +1.17113022676E-01
