# Hz S RI R 50
! CMT, C1220, 16058040, 17.2.0/1
! Date: 14/08/2018 12:20:49
! Data: Format (Calibration Info)
! Freq                      S11: Re/Im (F2)                       S21: Re/Im (F2)                       S12: Re/Im (F2)                       S22: Re/Im (F2)            
1.00000000000E+09 -6.44198377587E-01 +7.15913633693E-01 -2.66461968395E-05 +1.51995971980E-05 -2.04582335641E-05 +2.03689164425E-05 -7.47947269719E-01 +6.23850855892E-01
1.00500000000E+09 -6.37005816240E-01 +7.21050181494E-01 -2.68072929330E-05 +7.90161663807E-06 +4.56782927261E-05 +5.58606175104E-05 -7.44366074118E-01 +6.28109625818E-01
1.01000000000E+09 -6.30958406631E-01 +7.25764758046E-01 -4.20857283570E-05 +1.26323680597E-05 +1.15430398368E-05 -1.52913840854E-05 -7.40924088869E-01 +6.31881454511E-01
1.01500000000E+09 -6.26846327378E-01 +7.29463934423E-01 -3.92143684877E-05 -4.43021432186E-05 +1.00113885532E-05 -1.50024854891E-05 -7.37611468298E-01 +6.35457829564E-01
1.02000000000E+09 -6.24216599551E-01 +7.32636846799E-01 -8.42080510656E-06 +1.02629528793E-05 -2.90447149382E-05 -3.50353817643E-05 -7.34154613642E-01 +6.38870652742E-01
1.02500000000E+09 -6.22523419601E-01 +7.35270386060E-01 -6.31974805278E-05 +3.08841118171E-05 +6.93705249958E-06 -3.83482657433E-05 -7.31252836778E-01 +6.42558237223E-01
1.03000000000E+09 -6.21481994484E-01 +7.37442248984E-01 +1.10347072450E-05 -6.16219786370E-06 +3.36111171304E-05 -1.37888345052E-05 -7.27812446359E-01 +6.46385901594E-01
1.03500000000E+09 -6.19440676096E-01 +7.39837166665E-01 +7.77506884055E-06 +2.39613012077E-05 -8.76548487394E-08 -7.77594011331E-06 -7.24068871954E-01 +6.50456745043E-01
1.04000000000E+09 -6.15974810643E-01 +7.42360404702E-01 -4.24137615894E-05 -9.24735246997E-06 +2.18940043391E-05 -2.30759977259E-07 -7.20252744035E-01 +6.53935814451E-01
1.04500000000E+09 -6.10867979542E-01 +7.45773636953E-01 +4.15096080696E-05 -3.07952155245E-06 -2.94693498619E-05 +3.31102573945E-05 -7.16708725134E-01 +6.57409571386E-01
1.05000000000E+09 -6.03419668795E-01 +7.50112065015E-01 -1.03193956163E-05 -7.79763342175E-06 +2.40852906101E-05 +3.11610095664E-05 -7.13231688378E-01 +6.60993256894E-01
1.05500000000E+09 -5.94692771425E-01 +7.54583177499E-01 +6.40993389579E-05 +1.53261176567E-05 +1.57204441014E-05 +3.21580510205E-05 -7.10007759469E-01 +6.64419760901E-01
1.06000000000E+09 -5.85193881493E-01 +7.59837417213E-01 -2.11527658221E-05 +9.69905705724E-06 -1.18895071684E-05 +3.23071228239E-05 -7.06793860409E-01 +6.68093928299E-01
1.06500000000E+09 -5.76088560484E-01 +7.64903744336E-01 +2.32235415821E-05 +9.35093961559E-06 +2.52853383999E-05 -1.21701171804E-05 -7.03170455762E-01 +6.72118810483E-01
1.07000000000E+09 -5.68124117421E-01 +7.69177294196E-01 +6.71903935260E-05 +1.49959144482E-05 +2.25893896450E-05 +3.26668262922E-05 -6.98982014064E-01 +6.75689359292E-01
1.07500000000E+09 -5.61869771597E-01 +7.73162175881E-01 +3.41811692890E-05 +9.62154119698E-06 +3.83267620182E-05 +2.91785107305E-05 -6.94649301064E-01 +6.79294751575E-01
1.08000000000E+09 -5.57391548116E-01 +7.76402617269E-01 +8.04204479484E-05 +3.20714739473E-05 +3.66445958673E-05 +2.88746928359E-05 -6.90673328705E-01 +6.83110788442E-01
1.08500000000E+09 -5.54577585983E-01 +7.78961082684E-01 +3.00639472498E-05 -1.09022080005E-05 +1.30853524498E-05 +1.74851374469E-05 -6.86764765550E-01 +6.86805894368E-01
1.09000000000E+09 -5.52427189510E-01 +7.80949338079E-01 +5.58194203248E-05 +2.15071929906E-05 +5.10951037427E-05 +3.02397750157E-06 -6.82907172161E-01 +6.90691428290E-01
1.09500000000E+09 -5.50686024745E-01 +7.82724071489E-01 +1.08685494254E-05 -2.00336723793E-05 +4.22458815011E-05 -1.11387042924E-05 -6.78974403109E-01 +6.94448105673E-01
1.10000000000E+09 -5.47668736434E-01 +7.84801438495E-01 +1.45683473933E-05 +2.45550680121E-05 -5.02634827809E-06 -1.12462358894E-05 -6.75095707274E-01 +6.98217485612E-01
1.10500000000E+09 -5.43626952846E-01 +7.87274928327E-01 -3.17016800640E-06 -4.29366408200E-05 +1.74799889315E-05 -1.23367198657E-05 -6.70859984483E-01 +7.01756455404E-01
1.11000000000E+09 -5.37772819817E-01 +7.90592311865E-01 +8.32209058807E-06 -5.75613199929E-05 +1.00342762901E-05 -6.20961781675E-08 -6.66548147609E-01 +7.05082535679E-01
1.11500000000E+09 -5.30504229195E-01 +7.94223448466E-01 -3.70464502873E-06 -3.65358944830E-05 +4.94399767412E-05 -3.74974023610E-05 -6.62525797672E-01 +7.08483726827E-01
1.12000000000E+09 -5.22579880594E-01 +7.98239757158E-01 +3.74207661596E-05 +1.96360662318E-07 +1.55349164041E-05 -3.18352697031E-05 -6.58599816622E-01 +7.12188088473E-01
1.12500000000E+09 -5.14263212290E-01 +8.02292575929E-01 -1.19370232531E-07 -5.27697127895E-06 +2.22221940201E-05 -3.12993255356E-05 -6.54451573813E-01 +7.16087660818E-01
1.13000000000E+09 -5.06763354476E-01 +8.06007149657E-01 +1.85539807220E-05 -3.69442799649E-05 +5.08773724209E-05 +4.77096895569E-06 -6.50167458930E-01 +7.19709452849E-01
1.13500000000E+09 -5.00339735895E-01 +8.08827096752E-01 +9.32285832929E-06 -2.97617263891E-06 +3.07425083370E-05 -4.42440620943E-05 -6.45730830589E-01 +7.23680962119E-01
1.14000000000E+09 -4.94919516214E-01 +8.11333174810E-01 +2.19120170898E-05 -1.10046193196E-05 +3.46342864836E-05 -4.38155584159E-06 -6.40808648394E-01 +7.27021122941E-01
1.14500000000E+09 -4.90870330088E-01 +8.12934182347E-01 -7.55795785808E-06 -4.13162916955E-05 +2.05578940488E-05 -6.66463255903E-05 -6.36215473199E-01 +7.30418291255E-01
1.15000000000E+09 -4.87038920685E-01 +8.14412927915E-01 +3.32979461053E-05 -2.00787460458E-05 +1.93489685378E-05 -3.10913928787E-05 -6.31487894999E-01 +7.34134406606E-01
1.15500000000E+09 -4.83219638816E-01 +8.15999929722E-01 +8.06192226265E-06 -1.07000922378E-05 +7.75725383224E-06 +5.52538333381E-06 -6.26791022643E-01 +7.37782010338E-01
1.16000000000E+09 -4.78257979857E-01 +8.17821781177E-01 +3.04306409545E-05 -1.13161882762E-06 -7.79034094828E-07 -2.42004529150E-05 -6.21976745915E-01 +7.41677909639E-01
1.16500000000E+09 -4.72302725500E-01 +8.20405386985E-01 -8.92867088628E-06 -2.09553558099E-05 -2.54819265288E-05 -4.03112453798E-05 -6.16898204609E-01 +7.45159645254E-01
1.17000000000E+09 -4.65049963635E-01 +8.23293266340E-01 +1.62906972124E-05 -4.25797762312E-05 +5.04123418851E-05 -2.78399210989E-05 -6.11569224575E-01 +7.48526609315E-01
1.17500000000E+09 -4.57081454770E-01 +8.26610530270E-01 -1.78033269581E-05 -1.72990105514E-05 +6.24707183477E-06 -5.34274226609E-05 -6.05746840695E-01 +7.51835830541E-01
1.18000000000E+09 -4.48803389850E-01 +8.30168174291E-01 -9.19440316987E-06 -8.53287802091E-05 -1.38263654179E-05 -9.86272993526E-05 -6.00269318778E-01 +7.54911682139E-01
1.18500000000E+09 -4.40875709758E-01 +8.33371396356E-01 +7.01105892020E-06 -6.00614098876E-05 +1.90685033238E-05 -7.30372200447E-05 -5.94369383529E-01 +7.57887543912E-01
1.19000000000E+09 -4.33552796888E-01 +8.36001933084E-01 -5.87624557156E-05 -4.33177326136E-05 +2.17397005655E-05 -9.20818412140E-05 -5.88096642962E-01 +7.60594882549E-01
1.19500000000E+09 -4.27457052301E-01 +8.38073124703E-01 -7.15684216702E-05 -9.46023144530E-05 -9.14960796506E-05 -7.35316993005E-05 -5.82356780960E-01 +7.61692583322E-01
1.20000000000E+09 -4.22431137454E-01 +8.39000761593E-01 -1.41327140268E-04 -8.59007123656E-06 -1.02484318519E-04 -1.36854123314E-05 -5.78148867964E-01 +7.61913865503E-01
1.20500000000E+09 -4.18027733149E-01 +8.39962337316E-01 -1.20864417756E-04 +3.76707252904E-05 -8.23415663749E-05 -1.51229782934E-06 -5.75462095327E-01 +7.62839619600E-01
1.21000000000E+09 -4.13301605773E-01 +8.40966127967E-01 -2.28919408752E-05 +2.98798316830E-05 -5.99768440567E-05 +1.58766737594E-05 -5.73615384701E-01 +7.65854697771E-01
1.21500000000E+09 -4.07249088044E-01 +8.42204603204E-01 -2.69037044635E-05 -7.89956542110E-06 -2.59668128808E-05 +2.07311633706E-05 -5.70951796707E-01 +7.70305713990E-01
1.22000000000E+09 -3.99599444967E-01 +8.43781120963E-01 +1.88290384409E-06 +2.90956761045E-05 -5.53418935065E-05 +1.92848844600E-05 -5.66611958460E-01 +7.75605487806E-01
1.22500000000E+09 -3.90106093451E-01 +8.46089424040E-01 -1.12339400459E-05 +2.79078837854E-06 +1.06175786491E-06 +2.03937962822E-05 -5.61749446479E-01 +7.80765886341E-01
1.23000000000E+09 -3.79710836891E-01 +8.48915611993E-01 +8.19379420143E-07 +5.77310132485E-05 -5.54263557916E-07 +3.76237431621E-05 -5.55886080044E-01 +7.85332279809E-01
1.23500000000E+09 -3.68477215905E-01 +8.52304760071E-01 -2.46430965097E-05 -2.76815198415E-05 -1.80017895388E-05 +3.19888997646E-05 -5.50112518848E-01 +7.89637444645E-01
1.24000000000E+09 -3.57593277371E-01 +8.55901275059E-01 -4.11567415584E-05 +8.18311581765E-06 -2.00170652600E-05 +1.65633451266E-05 -5.44127420289E-01 +7.93350787824E-01
1.24500000000E+09 -3.47543649466E-01 +8.59836085673E-01 -3.12396261686E-05 +7.15397397552E-07 +2.55509713207E-05 -4.38205194238E-05 -5.37866159516E-01 +7.97244854793E-01
1.25000000000E+09 -3.39077999174E-01 +8.62898006303E-01 -2.80582368327E-07 -3.43557412737E-05 -6.19650069452E-05 -3.56673271356E-05 -5.31369625808E-01 +8.01410787717E-01
1.25500000000E+09 -3.32161540219E-01 +8.65196822941E-01 -5.16171271665E-05 +1.27537247844E-05 -5.54649459978E-05 -3.44882656870E-06 -5.24476855396E-01 +8.05367493946E-01
1.26000000000E+09 -3.26524363044E-01 +8.66829169961E-01 -5.59016024934E-05 -5.14962786130E-05 -4.99644866707E-05 -6.00369632075E-06 -5.17770790838E-01 +8.09663235937E-01
1.26500000000E+09 -3.21654948851E-01 +8.67803494404E-01 -5.88412630952E-05 -2.92844448327E-05 -4.57408241719E-05 -2.33263460224E-05 -5.10735649373E-01 +8.13479895149E-01
1.27000000000E+09 -3.16348116082E-01 +8.68815055308E-01 -3.94203198094E-05 -1.10643623230E-05 -3.63595304029E-05 +4.13781394817E-05 -5.04029184030E-01 +8.17251655621E-01
1.27500000000E+09 -3.10017924681E-01 +8.69629071055E-01 -6.60072526455E-05 +6.51567693044E-05 -1.92379723551E-05 +4.22481155977E-05 -4.97008962411E-01 +8.20649670495E-01
1.28000000000E+09 -3.01768991595E-01 +8.70812816085E-01 -5.49847403163E-05 +2.86549073148E-06 -8.25136709709E-05 +4.20567554353E-05 -4.90092239970E-01 +8.24171579549E-01
1.28500000000E+09 -2.91426801946E-01 +8.72557166116E-01 -6.87675534480E-05 +7.39163552766E-05 -5.03646461185E-05 +5.89946832516E-05 -4.82715259007E-01 +8.27869665414E-01
1.29000000000E+09 -2.79689739688E-01 +8.74807132333E-01 -4.47906990981E-05 +6.55772870373E-05 -6.48001843181E-05 +5.10294330525E-05 -4.75188231520E-01 +8.31532683785E-01
1.29500000000E+09 -2.67341379262E-01 +8.77630004690E-01 -2.80836416162E-06 +6.11674452168E-05 -2.00631584190E-05 +9.55673336399E-05 -4.67351720644E-01 +8.34987249027E-01
1.30000000000E+09 -2.54768765182E-01 +8.80763461853E-01 -3.47353359350E-05 +4.53030980235E-05 -2.01265032521E-05 +3.74704694003E-05 -4.59648321668E-01 +8.38460107421E-01
1.30500000000E+09 -2.43187772959E-01 +8.83680368008E-01 -4.14551396203E-05 +8.90937799725E-05 -8.36815768909E-05 +1.06593094028E-04 -4.51544153882E-01 +8.41876637529E-01
1.31000000000E+09 -2.33361951310E-01 +8.85921601569E-01 -4.81681889544E-05 +1.32111175841E-04 -1.84800922115E-05 +9.53903490311E-05 -4.43480349262E-01 +8.45292669347E-01
1.31500000000E+09 -2.25138214833E-01 +8.87300220570E-01 +3.40264605815E-05 +1.29819525817E-04 +2.48737501176E-05 +1.19819115310E-04 -4.34691522352E-01 +8.48799844728E-01
1.32000000000E+09 -2.18652559172E-01 +8.87688464322E-01 +9.04205826325E-05 +1.10337814199E-04 +1.40181759575E-05 +1.11391993940E-04 -4.25549644998E-01 +8.52277437126E-01
1.32500000000E+09 -2.12528493785E-01 +8.87474653718E-01 -1.76224280504E-05 +6.41189581234E-05 +1.79179380741E-05 +8.84044627227E-05 -4.16111148151E-01 +8.55695139631E-01
1.33000000000E+09 -2.05870394171E-01 +8.86723531669E-01 -2.96270523818E-05 +1.20013508047E-04 +1.84996542900E-05 +1.25343447328E-04 -4.06463032152E-01 +8.59014854333E-01
1.33500000000E+09 -1.97284843775E-01 +8.85707472497E-01 +4.14471277320E-05 +1.15628664478E-04 +6.33545318447E-05 +1.00992461454E-04 -3.96548457549E-01 +8.62269854950E-01
1.34000000000E+09 -1.86480297298E-01 +8.84644748898E-01 +7.77629299330E-05 +1.24673677259E-04 +9.91243060054E-05 +1.18964209747E-04 -3.86409778236E-01 +8.65530022893E-01
1.34500000000E+09 -1.73050604295E-01 +8.83896641032E-01 +9.94596849209E-05 +6.49357762456E-05 +7.99286940573E-05 +7.20792530758E-05 -3.75734355784E-01 +8.68765745169E-01
1.35000000000E+09 -1.57716114920E-01 +8.83495509067E-01 +5.68919459687E-05 +4.36927160097E-05 +5.83307681427E-05 +2.64429262623E-05 -3.64651435587E-01 +8.71957284353E-01
1.35500000000E+09 -1.40963097306E-01 +8.83676232852E-01 +7.39634957716E-05 +6.96257506654E-05 +6.88223645459E-05 +8.20929616736E-05 -3.53047605924E-01 +8.74809853776E-01
1.36000000000E+09 -1.24185013444E-01 +8.84039886289E-01 +6.58992098850E-05 +5.76843426556E-05 +9.65402539047E-05 +3.80566717505E-05 -3.41101354238E-01 +8.77697990269E-01
1.36500000000E+09 -1.08036700654E-01 +8.84545716028E-01 +1.08222742364E-04 +9.75933556781E-06 +1.07381221370E-04 +2.20388901648E-05 -3.29027170374E-01 +8.80092269965E-01
1.37000000000E+09 -9.37559249765E-02 +8.84448620364E-01 +9.61497109548E-05 +7.66131712326E-05 +5.37637199337E-05 +9.08644441721E-05 -3.16113750795E-01 +8.82478064129E-01
1.37500000000E+09 -8.14270149954E-02 +8.83951763573E-01 +9.04225395833E-05 +1.08115560040E-04 +6.33062787307E-05 +1.00074687816E-04 -3.02514582263E-01 +8.84768421919E-01
1.38000000000E+09 -7.04614136290E-02 +8.82738091442E-01 +1.87391404769E-04 +1.25280561013E-04 +1.61282220019E-04 +1.38593866347E-04 -2.87903097817E-01 +8.86891560418E-01
1.38500000000E+09 -5.96141799574E-02 +8.80736958232E-01 +2.19160742756E-04 +6.07389730262E-05 +1.79334091059E-04 +1.08945182505E-04 -2.72378311838E-01 +8.88817573005E-01
1.39000000000E+09 -4.81761000313E-02 +8.77918026274E-01 +1.87264601814E-04 +8.28099767568E-05 +1.65654176686E-04 +8.87912342766E-05 -2.56409915880E-01 +8.90241009040E-01
1.39500000000E+09 -3.46210917053E-02 +8.74241264079E-01 +2.92561724343E-04 +5.58643695423E-05 +3.44444259151E-04 +1.89284631610E-05 -2.39553564476E-01 +8.91105893518E-01
1.40000000000E+09 -1.85861881824E-02 +8.69605253052E-01 +3.52132086013E-04 -4.16229205769E-05 +3.02837224944E-04 -8.73003559802E-05 -2.22171913641E-01 +8.91565920413E-01
1.40500000000E+09 -2.82703566111E-04 +8.64237095862E-01 +2.66859588599E-04 -1.98048065298E-04 +2.31032514947E-04 -1.91299271501E-04 -2.03314487795E-01 +8.91564684143E-01
1.41000000000E+09 +2.02120345854E-02 +8.58552575417E-01 +1.86011516099E-04 -1.85747900365E-04 +1.99235534243E-04 -1.56757622210E-04 -1.82995892523E-01 +8.90744867014E-01
1.41500000000E+09 +4.19057266106E-02 +8.52643926053E-01 +1.81808262141E-04 -1.72282942821E-04 +1.78408372812E-04 -1.49042598418E-04 -1.61451008929E-01 +8.89215928750E-01
1.42000000000E+09 +6.43838222517E-02 +8.46435873234E-01 +2.57929044067E-04 -5.45680999811E-05 +3.14934057476E-04 -1.36586514109E-04 -1.38529056058E-01 +8.86520816917E-01
1.42500000000E+09 +8.61150374639E-02 +8.39001159285E-01 +3.33256112861E-04 -2.70201332478E-04 +3.76095364744E-04 -3.22543085484E-04 -1.14774910326E-01 +8.82956141886E-01
1.43000000000E+09 +1.06553079242E-01 +8.30395912050E-01 +1.65464558840E-04 -3.79789635213E-04 +1.12417251649E-04 -4.00191625870E-04 -8.98374565699E-02 +8.78169364214E-01
1.43500000000E+09 +1.25815649946E-01 +8.20493453258E-01 +1.93230323710E-05 -3.39480712195E-04 -8.95519705219E-06 -3.90814507652E-04 -6.35240265324E-02 +8.71413248023E-01
1.44000000000E+09 +1.44886500453E-01 +8.08946947862E-01 -1.07466618767E-04 -3.32626166889E-04 -8.66519484577E-05 -2.52317011723E-04 -3.52749729048E-02 +8.62596884166E-01
1.44500000000E+09 +1.65190020166E-01 +7.94847474120E-01 -1.17818640073E-05 -1.02944498422E-04 -2.51151924542E-05 -1.63752226958E-04 -5.17235213186E-03 +8.51063587929E-01
1.45000000000E+09 +1.87423917470E-01 +7.77469866084E-01 +2.11556958854E-04 -2.47466193199E-04 +1.31097667267E-04 -2.84243206113E-04 +2.68907781352E-02 +8.36427528446E-01
1.45500000000E+09 +2.12189646148E-01 +7.55851369956E-01 +1.48511406483E-05 -3.11295544374E-04 -5.98186676743E-05 -3.12572548968E-04 +6.05278962695E-02 +8.18310871744E-01
1.46000000000E+09 +2.39540187446E-01 +7.29798325051E-01 +1.28591624163E-04 -2.18635844771E-04 +8.12859688773E-05 -1.96528525443E-04 +9.53592260292E-02 +7.95755334761E-01
1.46500000000E+09 +2.68575808915E-01 +6.99454628317E-01 +1.70028332758E-04 -3.80720005925E-04 +1.02350440545E-04 -3.38014378782E-04 +1.30855712068E-01 +7.68589043239E-01
1.47000000000E+09 +2.99377375037E-01 +6.64874904203E-01 +1.93355621918E-04 -4.06070117558E-04 +1.86941889333E-04 -3.44149621779E-04 +1.67702428434E-01 +7.34513508373E-01
1.47500000000E+09 +3.29777948966E-01 +6.24808353016E-01 +2.87511002593E-05 -7.20544876496E-04 +9.83157364909E-05 -6.43505560242E-04 +2.04520873308E-01 +6.92804578106E-01
1.48000000000E+09 +3.57647557517E-01 +5.79488338372E-01 -2.01846907817E-04 -6.44025163220E-04 -1.72908233950E-04 -6.62758011372E-04 +2.40280560425E-01 +6.42677034452E-01
1.48500000000E+09 +3.81557528541E-01 +5.28094557958E-01 -2.54425918921E-05 -5.13623987926E-04 -7.57944829850E-05 -5.05304492565E-04 +2.73397892028E-01 +5.83447704515E-01
1.49000000000E+09 +3.99438374058E-01 +4.69837550042E-01 +1.60923536760E-04 -7.55353211782E-04 +1.23967828150E-04 -7.59766708842E-04 +3.00329555635E-01 +5.13007263526E-01
1.49500000000E+09 +4.09385014179E-01 +4.04493739665E-01 +3.03366134985E-05 -1.63902107465E-03 -3.23702964602E-05 -1.61212099381E-03 +3.16577611561E-01 +4.33633049216E-01
1.50000000000E+09 +4.09707566861E-01 +3.31199416164E-01 -1.26856494095E-03 -1.97941654367E-03 -1.14091297107E-03 -1.83676972189E-03 +3.20005383904E-01 +3.45295531214E-01
1.50500000000E+09 +3.98893528795E-01 +2.50836880392E-01 -2.22574268668E-03 -1.46011401937E-03 -2.09754847112E-03 -1.44966127048E-03 +3.07047244397E-01 +2.50306012152E-01
1.51000000000E+09 +3.73677539332E-01 +1.63677519941E-01 -2.92141113217E-03 -3.00295229539E-04 -2.89342136344E-03 -3.84419708678E-04 +2.73449834274E-01 +1.52114283025E-01
1.51500000000E+09 +3.30540739084E-01 +7.44249593451E-02 -2.75607292466E-03 +4.56020977884E-04 -2.76081608050E-03 +3.88297668618E-04 +2.19075966300E-01 +5.69809870485E-02
1.52000000000E+09 +2.68046881247E-01 -1.02070055421E-02 -2.72961282617E-03 +1.68356527197E-03 -2.76321471957E-03 +1.62387247539E-03 +1.42038008960E-01 -2.67582093762E-02
1.52500000000E+09 +1.86472696266E-01 -8.33003642286E-02 -1.63511909501E-03 +1.94484031356E-03 -1.67638632565E-03 +1.94074873247E-03 +4.76980220132E-02 -9.20950150921E-02
1.53000000000E+09 +8.81785061001E-02 -1.35674987394E-01 -1.30455584057E-03 +2.12264086568E-03 -1.37480883570E-03 +2.08542584675E-03 -5.66031643181E-02 -1.34390201068E-01
1.53500000000E+09 -1.79454671865E-02 -1.63264505823E-01 -1.37117697379E-03 +2.63251094948E-03 -1.39861978019E-03 +2.56771847829E-03 -1.65713252372E-01 -1.53688956485E-01
1.54000000000E+09 -1.26221047209E-01 -1.65938617144E-01 -5.42834171912E-04 +3.54714922842E-03 -5.35175537642E-04 +3.47628504816E-03 -2.71738757881E-01 -1.50583362152E-01
1.54500000000E+09 -2.30351263743E-01 -1.44858192991E-01 +1.09211935823E-03 +3.95894686675E-03 +9.43225807440E-04 +3.90540839849E-03 -3.68937160078E-01 -1.27373571497E-01
1.55000000000E+09 -3.25972215843E-01 -1.05188308423E-01 +2.67156053689E-03 +2.78365730772E-03 +2.54326319050E-03 +2.89808036966E-03 -4.52138080143E-01 -9.06164120827E-02
1.55500000000E+09 -4.07665572187E-01 -5.04765859305E-02 +3.01060663265E-03 +1.50862198293E-03 +2.99284487225E-03 +1.73847350651E-03 -5.22171977317E-01 -4.47060641954E-02
1.56000000000E+09 -4.73609653805E-01 +9.81262371649E-03 +2.84046515945E-03 +2.33651765866E-04 +2.92591395457E-03 +4.09768600612E-04 -5.78905583468E-01 +7.73196590891E-03
1.56500000000E+09 -5.25458503751E-01 +7.17990130311E-02 +2.15784676604E-03 -9.49782452197E-05 +2.30634639322E-03 -1.26872099451E-05 -6.22498982827E-01 +6.29923327967E-02
1.57000000000E+09 -5.64810190106E-01 +1.32240854528E-01 +2.03936731083E-03 -4.14120337585E-04 +2.17511742047E-03 -4.81324326639E-04 -6.55308171672E-01 +1.17228251784E-01
