# Hz S RI R 50
! CMT, C1220, 16058040, 17.2.0/1
! Date: 14/08/2018 12:25:04
! Data: Format (Calibration Info)
! Freq                      S11: Re/Im (F2)                       S21: Re/Im (F2)                       S12: Re/Im (F2)                       S22: Re/Im (F2)            
1.00000000000E+09 -6.46425067457E-01 +7.14932606240E-01 +5.07960587409E-05 -5.05207106527E-05 +3.40137225834E-05 +3.61242024497E-05 -7.47883583825E-01 +6.24145828236E-01
1.00500000000E+09 -6.39385699263E-01 +7.20138998125E-01 -3.88791426166E-05 +1.78954803482E-05 +2.22173706955E-06 +3.11343804782E-05 -7.44054549385E-01 +6.28228637793E-01
1.01000000000E+09 -6.33394531639E-01 +7.24774353835E-01 +1.60263908657E-06 +3.96102853612E-06 +2.43738852609E-07 +1.39747710312E-05 -7.40661840859E-01 +6.31804110798E-01
1.01500000000E+09 -6.29428858388E-01 +7.28506268827E-01 +5.65650415443E-05 -3.46283912940E-05 +9.81701050180E-06 +1.22233653385E-05 -7.37318312768E-01 +6.35610293154E-01
1.02000000000E+09 -6.26787334190E-01 +7.31450323326E-01 -3.04715642677E-05 +4.16679535857E-05 -2.43820102122E-05 +1.24243397672E-05 -7.33932898786E-01 +6.39034102890E-01
1.02500000000E+09 -6.25340377793E-01 +7.34064814834E-01 +2.46915804098E-05 +2.73040924112E-05 -2.04412428422E-07 +7.86968292466E-07 -7.31223300503E-01 +6.42691245080E-01
1.03000000000E+09 -6.24336121270E-01 +7.36260968296E-01 +1.60340921649E-05 +1.96369794997E-05 -6.64557622638E-06 +6.87930683136E-06 -7.27650207181E-01 +6.46560943310E-01
1.03500000000E+09 -6.22392037107E-01 +7.38545063298E-01 +4.97057701124E-06 +8.56271479211E-06 -1.68817183829E-05 +3.82765090446E-05 -7.23621614091E-01 +6.50552847412E-01
1.04000000000E+09 -6.19180162262E-01 +7.41313312767E-01 -3.88473481188E-06 +2.23099439415E-05 +6.07420679956E-06 +3.14237795729E-05 -7.19980245050E-01 +6.54161100885E-01
1.04500000000E+09 -6.13876464347E-01 +7.44718200393E-01 +1.30340773908E-05 -3.92669371433E-05 -2.60648760740E-05 +5.39162164192E-05 -7.16462566192E-01 +6.57645221582E-01
1.05000000000E+09 -6.06804110424E-01 +7.48770496194E-01 -3.24941383943E-05 -1.64446972919E-05 +1.68542364420E-06 +1.66268771817E-05 -7.12898183052E-01 +6.60956760738E-01
1.05500000000E+09 -5.98052098755E-01 +7.53391145896E-01 +7.78434604711E-06 -1.79898290543E-05 +1.18650033794E-05 +4.51924016044E-05 -7.09839400465E-01 +6.64713087634E-01
1.06000000000E+09 -5.88852167860E-01 +7.58537598898E-01 -1.14655551194E-05 +3.27767044956E-05 +6.91905038335E-05 -3.44634756760E-05 -7.06483115238E-01 +6.68391336348E-01
1.06500000000E+09 -5.79770595281E-01 +7.63573812682E-01 -3.53592034832E-05 +3.62803206188E-05 +1.04466238270E-05 +3.07338204450E-05 -7.02737144172E-01 +6.72100962779E-01
1.07000000000E+09 -5.71830178261E-01 +7.68028365701E-01 -1.39147801452E-05 +2.18178077485E-05 +6.72500881675E-05 +1.89990653381E-05 -6.98598442107E-01 +6.75785027672E-01
1.07500000000E+09 -5.65677694303E-01 +7.71931016219E-01 +1.82906378753E-05 +7.10329948177E-06 +8.41988850020E-05 +4.16240411442E-05 -6.94285091003E-01 +6.79386708893E-01
1.08000000000E+09 -5.61427439058E-01 +7.75147621733E-01 -2.26285263766E-05 +4.97271198479E-05 +3.42321295965E-05 +1.72529538164E-05 -6.90432150735E-01 +6.83174929662E-01
1.08500000000E+09 -5.58796956165E-01 +7.77562384013E-01 +1.27226920908E-05 -9.99553331749E-06 +5.21220706132E-07 +5.58993096112E-05 -6.86326491128E-01 +6.86787458856E-01
1.09000000000E+09 -5.56756850953E-01 +7.79561674600E-01 +6.95373398676E-05 -5.71591116416E-06 +4.40974854203E-05 -2.77355788951E-05 -6.82564464940E-01 +6.90665612794E-01
1.09500000000E+09 -5.54974699682E-01 +7.81354281405E-01 +1.94728650720E-05 -1.50567986194E-05 +8.90905059382E-07 +3.71321053890E-06 -6.78864807426E-01 +6.94446640587E-01
1.10000000000E+09 -5.52069686006E-01 +7.83475975990E-01 +3.29585960333E-06 +1.40249557616E-06 +3.00867837355E-05 +2.35690952229E-05 -6.74864155767E-01 +6.98312075522E-01
1.10500000000E+09 -5.48174189572E-01 +7.85953389048E-01 +2.79627534975E-06 -6.46080205926E-05 +3.44024123043E-05 -3.07053492759E-05 -6.70637687627E-01 +7.01969516369E-01
1.11000000000E+09 -5.42366088889E-01 +7.89112485786E-01 +4.76692701281E-05 -6.53175973696E-06 -8.95474668158E-06 -5.40443812675E-05 -6.66209665962E-01 +7.05057437608E-01
1.11500000000E+09 -5.35318877239E-01 +7.92967180237E-01 -1.03669851189E-05 -3.38872057860E-05 -2.93958866420E-06 -5.90346495627E-05 -6.62335583898E-01 +7.08627337872E-01
1.12000000000E+09 -5.27534118915E-01 +7.96985810199E-01 +3.39661405260E-05 -3.28694134719E-05 -2.83132470913E-05 -2.85272577037E-05 -6.58264860379E-01 +7.12299162907E-01
1.12500000000E+09 -5.19330136568E-01 +8.01163501875E-01 +5.66205369892E-06 +3.21555943849E-05 +4.94832694618E-05 -1.34425739007E-05 -6.53955281949E-01 +7.16153702366E-01
1.13000000000E+09 -5.12086897124E-01 +8.04716707229E-01 +2.53672914493E-05 +1.58451565596E-05 -4.71033961320E-06 -2.35814867497E-05 -6.49925283209E-01 +7.19872998655E-01
1.13500000000E+09 -5.05588530907E-01 +8.07505165210E-01 +3.91206245700E-05 +1.15683285140E-05 -7.30169481860E-06 -2.43912409996E-05 -6.45164092393E-01 +7.23694513221E-01
1.14000000000E+09 -5.00458633236E-01 +8.10094749971E-01 +2.55259267512E-05 +3.24230508544E-05 -1.76699920390E-05 +3.77815506538E-06 -6.40453268178E-01 +7.27063826657E-01
1.14500000000E+09 -4.96407663627E-01 +8.11705940489E-01 +1.59140329663E-05 -2.62885811534E-06 +4.86094590149E-05 +2.08075725609E-05 -6.35982554686E-01 +7.30407863911E-01
1.15000000000E+09 -4.92721258182E-01 +8.13343520136E-01 +2.09314546155E-05 -2.25714026707E-05 +1.22301111962E-05 -7.06554151958E-05 -6.31337071748E-01 +7.34134252186E-01
1.15500000000E+09 -4.89143164717E-01 +8.14856925684E-01 -1.21755176281E-05 +1.30981516383E-05 +4.19074822685E-05 -2.85855676429E-05 -6.26538595408E-01 +7.37969796038E-01
1.16000000000E+09 -4.84358015754E-01 +8.16613269623E-01 -1.04317523541E-05 -7.72935247531E-05 -7.93580451685E-06 -5.10431300224E-06 -6.21785247840E-01 +7.41786957988E-01
1.16500000000E+09 -4.78629674694E-01 +8.19395381587E-01 +2.63014696949E-05 -6.24710209737E-06 -2.63766180705E-05 -6.16570120320E-05 -6.16670866908E-01 +7.45333136805E-01
1.17000000000E+09 -4.71591052598E-01 +8.22352140117E-01 -1.28856624938E-05 -3.79120130243E-05 +2.43188746402E-05 -2.77219664449E-05 -6.11146955686E-01 +7.48598849952E-01
1.17500000000E+09 -4.63749566382E-01 +8.25559553045E-01 +2.98792259779E-05 -6.48890172851E-05 +2.63069700524E-05 -4.86936508740E-05 -6.05557395841E-01 +7.51901749500E-01
1.18000000000E+09 -4.55588183423E-01 +8.29233897664E-01 -7.20492318445E-06 -2.30100272397E-05 +1.19645576586E-05 -4.85479958411E-05 -5.99872778797E-01 +7.54977800724E-01
1.18500000000E+09 -4.47688041750E-01 +8.32563437420E-01 -1.09627453353E-05 -7.79980904149E-05 -6.10079823399E-06 -3.40557437166E-05 -5.94026014963E-01 +7.57927075164E-01
1.19000000000E+09 -4.40597423459E-01 +8.35257967413E-01 -3.86707840504E-05 -7.06713416626E-05 +2.39091612609E-05 -5.78316399973E-05 -5.87905263375E-01 +7.60546205607E-01
1.19500000000E+09 -4.34563085798E-01 +8.37390229736E-01 -6.57671873162E-05 -8.04654957168E-05 -3.56595190105E-05 -9.18931682855E-05 -5.82028658874E-01 +7.61781187971E-01
1.20000000000E+09 -4.29898978445E-01 +8.38285060991E-01 -6.14731313308E-05 -4.08522453317E-05 -1.17102587207E-04 +1.67883901710E-05 -5.77591859444E-01 +7.62141606909E-01
1.20500000000E+09 -4.25681898024E-01 +8.39377675147E-01 -7.21604038429E-05 +7.15979615102E-06 -7.98616981164E-05 +5.68418333216E-05 -5.75165909869E-01 +7.62897320171E-01
1.21000000000E+09 -4.21103659566E-01 +8.40364102888E-01 -2.19333376499E-05 +6.36303190396E-05 -4.45430982917E-06 +3.95880302963E-05 -5.73214717517E-01 +7.65907663724E-01
1.21500000000E+09 -4.15236530408E-01 +8.41572675795E-01 -6.73079516543E-06 +2.76451234807E-05 -5.96932036259E-05 +6.73134418629E-05 -5.70458729379E-01 +7.70414025391E-01
1.22000000000E+09 -4.07790257524E-01 +8.43406680215E-01 +1.71636401239E-05 +5.59615088083E-05 -1.26129038355E-07 +3.43115980359E-05 -5.66491774729E-01 +7.75804691720E-01
1.22500000000E+09 -3.98750952788E-01 +8.45842165867E-01 -5.15631143341E-05 +4.35838635958E-06 -2.98260943409E-05 +4.37448157750E-05 -5.61309180032E-01 +7.80761598513E-01
1.23000000000E+09 -3.88264182848E-01 +8.48912140594E-01 +7.90982998090E-06 -1.97652880127E-05 -3.41080261956E-05 -2.54826683850E-05 -5.55483630736E-01 +7.85449435794E-01
1.23500000000E+09 -3.77346595622E-01 +8.52449334467E-01 -5.78241865391E-05 -4.51532695951E-05 -1.55611498860E-05 +1.20369087486E-05 -5.49905330939E-01 +7.89532187332E-01
1.24000000000E+09 -3.66499017967E-01 +8.56245958838E-01 +1.71737112409E-05 -2.44513319794E-05 +2.85840019655E-05 -3.07018349399E-05 -5.43738362707E-01 +7.93488939033E-01
1.24500000000E+09 -3.56708684185E-01 +8.60110781896E-01 -4.32582069298E-05 -1.61365090559E-05 -3.25266172088E-05 -1.88701905618E-05 -5.37453495411E-01 +7.97268084456E-01
1.25000000000E+09 -3.48320194983E-01 +8.63332104647E-01 -5.94772673311E-05 +1.76528048892E-05 -3.29548983588E-05 -6.05332474342E-05 -5.30910532251E-01 +8.01419594786E-01
1.25500000000E+09 -3.41446326591E-01 +8.65807993492E-01 -3.45051292462E-05 -1.45433156633E-05 -6.90175672484E-05 -4.57065669364E-05 -5.24197781417E-01 +8.05476523169E-01
1.26000000000E+09 -3.36104313536E-01 +8.67480819428E-01 -5.73043365514E-05 -4.14852406429E-05 -5.92158476993E-05 -5.25759457821E-05 -5.17558620985E-01 +8.09618373377E-01
1.26500000000E+09 -3.31293733477E-01 +8.68673273803E-01 -5.96857835200E-05 -2.66349272580E-05 -4.82782439297E-05 +2.21861418224E-07 -5.10478501851E-01 +8.13479058480E-01
1.27000000000E+09 -3.26371683527E-01 +8.69584899887E-01 -7.44079833037E-05 +4.23579094748E-05 -9.09214885994E-05 +1.82876050388E-05 -5.03706723133E-01 +8.17460913679E-01
1.27500000000E+09 -3.20186821859E-01 +8.70642457550E-01 -3.32190194003E-05 +2.75381627144E-05 -4.86735577186E-05 +7.44754116669E-06 -4.96771982371E-01 +8.20761767926E-01
1.28000000000E+09 -3.12097980068E-01 +8.72226365603E-01 -6.16799506165E-05 +3.83899328294E-05 -4.96117777828E-05 -2.20066929367E-05 -4.89795412770E-01 +8.24235147041E-01
1.28500000000E+09 -3.01761658642E-01 +8.74216663509E-01 -8.79927622383E-05 +2.22076376653E-05 -8.23086753026E-05 +3.55375681207E-05 -4.82284590907E-01 +8.27856568738E-01
1.29000000000E+09 -2.90220692069E-01 +8.76504384898E-01 -7.62602235274E-05 +2.41684488703E-05 -8.04466026930E-05 +5.51582471663E-05 -4.74842645081E-01 +8.31712469893E-01
1.29500000000E+09 -2.77720909031E-01 +8.79614368255E-01 -4.68587172915E-05 +4.89496013649E-06 -4.90998108698E-05 +2.60864858359E-05 -4.66987195212E-01 +8.35103816818E-01
1.30000000000E+09 -2.65231252566E-01 +8.82956559719E-01 -6.15138452758E-05 +9.85627036985E-05 -4.12285115168E-05 +7.21783494439E-05 -4.59326903789E-01 +8.38454135228E-01
1.30500000000E+09 -2.53832827522E-01 +8.86007406002E-01 -4.42103797006E-05 +1.18164579136E-04 -4.66541305197E-05 +5.90155710001E-05 -4.51330415071E-01 +8.42029064166E-01
1.31000000000E+09 -2.43847401251E-01 +8.88238522514E-01 -2.87262500320E-05 +8.91393266063E-05 -1.06944479649E-05 +1.12294155666E-04 -4.42995254804E-01 +8.45398477523E-01
1.31500000000E+09 -2.35885677347E-01 +8.89706806559E-01 -1.29224859098E-05 +8.14348583944E-05 +1.71021381876E-05 +1.18425038027E-04 -4.34168523921E-01 +8.48887790640E-01
1.32000000000E+09 -2.29552077599E-01 +8.90296489595E-01 -1.11451682698E-05 +6.38685700430E-05 -1.90018660955E-05 +5.15350743887E-05 -4.25129153158E-01 +8.52399622498E-01
1.32500000000E+09 -2.23811451989E-01 +8.90229463521E-01 -3.93006935342E-05 +5.13389879739E-05 -7.45398686375E-06 +8.37808294921E-05 -4.15581797851E-01 +8.55690595550E-01
1.33000000000E+09 -2.17332547953E-01 +8.89852319269E-01 -6.13336642014E-05 +1.27640666154E-04 -9.47934822063E-06 +1.06308693700E-04 -4.06085776370E-01 +8.58990785258E-01
1.33500000000E+09 -2.08790297327E-01 +8.88976007481E-01 -4.74499031006E-06 +1.04648791630E-04 +1.09644559849E-06 +1.40573031727E-04 -3.96183666275E-01 +8.62276990757E-01
1.34000000000E+09 -1.98061988829E-01 +8.88541818069E-01 +6.86055040194E-05 +1.29163206912E-04 +4.75816200174E-05 +1.03885973442E-04 -3.86107145070E-01 +8.65591125250E-01
1.34500000000E+09 -1.84723558518E-01 +8.88026906321E-01 +7.01969447600E-05 +9.21443346452E-05 +2.27623047842E-05 +3.98533207917E-05 -3.75260134039E-01 +8.68903219763E-01
1.35000000000E+09 -1.69235034552E-01 +8.87966872486E-01 +3.03632036823E-05 +7.36724465602E-05 +2.86028983163E-05 +8.71199141806E-05 -3.64155845575E-01 +8.71979560108E-01
1.35500000000E+09 -1.52286816428E-01 +8.88344057281E-01 +2.02877316136E-05 +1.05923700673E-04 +5.92105241361E-05 +1.01644778279E-04 -3.52659525858E-01 +8.74834766480E-01
1.36000000000E+09 -1.35390768627E-01 +8.88839870472E-01 +3.66415886567E-05 +1.31779885058E-04 +4.47077404804E-05 +8.07501941141E-05 -3.40771697559E-01 +8.77594955812E-01
1.36500000000E+09 -1.19311082219E-01 +8.89557701064E-01 +2.46818456142E-05 +1.19441074678E-04 +2.87108075900E-05 +1.02930634158E-04 -3.28660980394E-01 +8.80196691560E-01
1.37000000000E+09 -1.04965591945E-01 +8.89515462810E-01 +3.97188433933E-05 +1.76774996189E-04 +3.63354121025E-06 +2.01218665916E-04 -3.15784799585E-01 +8.82411458527E-01
1.37500000000E+09 -9.28204650471E-02 +8.89279492155E-01 +3.92256353120E-05 +1.34544606229E-04 +3.99398415314E-05 +1.83799357931E-04 -3.02210704478E-01 +8.84733600979E-01
1.38000000000E+09 -8.19861269279E-02 +8.88519616635E-01 +1.38116290104E-04 +1.95693399318E-04 +1.48772089350E-04 +2.06353297743E-04 -2.87666938308E-01 +8.86798682757E-01
1.38500000000E+09 -7.11535654984E-02 +8.87145670411E-01 +1.71876610821E-04 +1.24792985817E-04 +1.91105355984E-04 +1.48095587729E-04 -2.71922013039E-01 +8.88746844036E-01
1.39000000000E+09 -5.96474635197E-02 +8.84796955135E-01 +2.42486121337E-04 +8.97280251485E-05 +2.30889361582E-04 +1.51687812699E-04 -2.56118233140E-01 +8.90122923336E-01
1.39500000000E+09 -4.59624660851E-02 +8.81625050564E-01 +2.61394054210E-04 +7.61791258051E-05 +3.30819096496E-04 +4.37132820364E-05 -2.39406954113E-01 +8.90885102348E-01
1.40000000000E+09 -2.95162819807E-02 +8.77432869124E-01 +2.92950690978E-04 -8.11922873759E-06 +2.67750593514E-04 -3.59063440091E-05 -2.21875583162E-01 +8.91412694096E-01
1.40500000000E+09 -1.09846973075E-02 +8.72652090574E-01 +1.99568565336E-04 -8.70411271487E-05 +1.71417004432E-04 -9.38247545751E-05 -2.03151894115E-01 +8.91393626221E-01
1.41000000000E+09 +9.77021138441E-03 +8.67170151113E-01 +1.22396717498E-04 -3.45517108492E-05 +1.53321365496E-04 -4.13707312211E-05 -1.82785756294E-01 +8.90666486962E-01
1.41500000000E+09 +3.18446243084E-02 +8.61478484443E-01 +1.59789465655E-04 +1.38556240997E-05 +1.75718654577E-04 -1.91170732401E-05 -1.61177153236E-01 +8.88944766145E-01
1.42000000000E+09 +5.45739462173E-02 +8.55385365494E-01 +2.68127804585E-04 +3.22901448991E-05 +3.08533136745E-04 -3.03784303833E-07 -1.38261458965E-01 +8.86229957734E-01
1.42500000000E+09 +7.65806470135E-02 +8.48261579844E-01 +3.57433599454E-04 -1.35300809448E-04 +3.91293880857E-04 -1.34149196667E-04 -1.14681130028E-01 +8.82513556951E-01
1.43000000000E+09 +9.72459456433E-02 +8.40054899503E-01 +1.69914523672E-04 -1.72303927866E-04 +1.79891656105E-04 -2.35747765630E-04 -8.98679810605E-02 +8.77716622588E-01
1.43500000000E+09 +1.16884087061E-01 +8.30569021983E-01 +1.15170415940E-04 -2.19546106535E-04 +1.13689867321E-04 -1.91619330968E-04 -6.36280493128E-02 +8.71010271189E-01
1.44000000000E+09 +1.36439172829E-01 +8.19557489247E-01 +5.68917642428E-05 -6.80315056760E-05 +5.75247994542E-05 -9.67379832511E-05 -3.55274307060E-02 +8.62311673653E-01
1.44500000000E+09 +1.57291168575E-01 +8.06080525104E-01 +1.80242519445E-04 +6.04156551757E-05 +2.12865859884E-04 +5.37259469436E-05 -5.70285933935E-03 +8.50670098139E-01
1.45000000000E+09 +1.80431408299E-01 +7.89140467366E-01 +3.76405550911E-04 -5.97778868981E-05 +3.96140290938E-04 -9.78823976526E-05 +2.62236361602E-02 +8.36120613012E-01
1.45500000000E+09 +2.06314025284E-01 +7.68024286398E-01 +2.81376630113E-04 -1.26264497769E-04 +2.08485469186E-04 -1.24979686214E-04 +5.96227797815E-02 +8.18237188605E-01
1.46000000000E+09 +2.35078343497E-01 +7.42321603184E-01 +4.61020289627E-04 -7.45794149804E-05 +4.07677064678E-04 -1.07544249699E-04 +9.41593335103E-02 +7.95935573356E-01
1.46500000000E+09 +2.65580245046E-01 +7.11696333027E-01 +4.89834595577E-04 -3.41576049227E-04 +4.50919372187E-04 -4.06572689967E-04 +1.29680100549E-01 +7.69349060603E-01
1.47000000000E+09 +2.97440801980E-01 +6.76542882007E-01 +6.12515613953E-04 -3.83473422107E-04 +5.42306599226E-04 -3.82481636189E-04 +1.66603709803E-01 +7.35747039080E-01
1.47500000000E+09 +3.28973226190E-01 +6.35860134848E-01 +6.01021833508E-04 -7.79171307806E-04 +5.76889181191E-04 -7.31166472486E-04 +2.03600216655E-01 +6.94371425711E-01
1.48000000000E+09 +3.57736840252E-01 +5.89549046174E-01 +3.15853763506E-04 -8.12044127251E-04 +3.36280366980E-04 -7.88071791557E-04 +2.39553091694E-01 +6.44705783928E-01
1.48500000000E+09 +3.82371359575E-01 +5.37314088809E-01 +5.02478629054E-04 -7.93429947195E-04 +5.04421036215E-04 -7.62066390992E-04 +2.73036549222E-01 +5.85752017512E-01
1.49000000000E+09 +4.01564493045E-01 +4.78359532051E-01 +7.70462861141E-04 -1.33800693267E-03 +7.46840499252E-04 -1.36405028465E-03 +3.00325705791E-01 +5.16007865588E-01
1.49500000000E+09 +4.13332578358E-01 +4.11437787684E-01 +3.35161189461E-04 -2.34066503176E-03 +2.36998250761E-04 -2.23936848402E-03 +3.17880591575E-01 +4.37092256920E-01
1.50000000000E+09 +4.14558169277E-01 +3.35713667320E-01 -1.01128700514E-03 -2.81304290867E-03 -9.62512108172E-04 -2.60574917044E-03 +3.22714173449E-01 +3.48143711477E-01
1.50500000000E+09 +4.03722472326E-01 +2.52892100092E-01 -2.15881108501E-03 -2.22458405169E-03 -1.95365586818E-03 -2.23538038284E-03 +3.10460585376E-01 +2.52320218583E-01
1.51000000000E+09 +3.78334708624E-01 +1.63536461976E-01 -2.83715859782E-03 -1.47769205513E-03 -2.66618578881E-03 -1.55217675402E-03 +2.77299905557E-01 +1.52872007984E-01
1.51500000000E+09 +3.34266907951E-01 +7.16393100149E-02 -3.34649250227E-03 -7.85338292759E-04 -3.33322411299E-03 -9.79781656031E-04 +2.22557921993E-01 +5.66753251726E-02
1.52000000000E+09 +2.69864848373E-01 -1.48158425464E-02 -3.68409323310E-03 +8.45742791781E-04 -3.79157030904E-03 +7.50414152420E-04 +1.45371274450E-01 -2.77179679746E-02
1.52500000000E+09 +1.86667671725E-01 -8.90507276094E-02 -2.63747578090E-03 +1.33207537211E-03 -2.72525441120E-03 +1.30349482029E-03 +5.05050829598E-02 -9.37827022039E-02
1.53000000000E+09 +8.64755134263E-02 -1.42922433414E-01 -2.57710867042E-03 +1.79317931163E-03 -2.67897316919E-03 +1.81555573509E-03 -5.43308397318E-02 -1.36701742244E-01
1.53500000000E+09 -2.22954098134E-02 -1.71153560112E-01 -2.65938032153E-03 +2.79878103271E-03 -2.73243161129E-03 +2.85245230724E-03 -1.64751261673E-01 -1.56517258892E-01
1.54000000000E+09 -1.33074596014E-01 -1.73370758629E-01 -1.47344563727E-03 +3.95411901308E-03 -1.49952142454E-03 +3.85253928652E-03 -2.71867534817E-01 -1.52822899777E-01
1.54500000000E+09 -2.38963871663E-01 -1.51779627515E-01 +1.95044478144E-04 +4.41406834884E-03 +7.66420280101E-05 +4.36084428527E-03 -3.69357086377E-01 -1.28843207902E-01
1.55000000000E+09 -3.36206151160E-01 -1.10928365509E-01 +1.74910716464E-03 +3.40544691689E-03 +1.64875383242E-03 +3.44846941850E-03 -4.52664712636E-01 -9.13075276325E-02
1.55500000000E+09 -4.18985312165E-01 -5.51206103360E-02 +2.17173870539E-03 +2.48251479491E-03 +2.10107456310E-03 +2.63356184030E-03 -5.22145990532E-01 -4.51598128783E-02
1.56000000000E+09 -4.85535462805E-01 +6.74272574853E-03 +2.46352870996E-03 +1.56366874124E-03 +2.55173809339E-03 +1.72510234568E-03 -5.78506382202E-01 +7.19386620715E-03
1.56500000000E+09 -5.37535215751E-01 +6.97968508599E-02 +2.38246699538E-03 +8.84370135354E-04 +2.57335208965E-03 +9.88505281614E-04 -6.22304505003E-01 +6.19831510385E-02
1.57000000000E+09 -5.77006000847E-01 +1.31181596127E-01 +2.22095352471E-03 +3.73526537763E-04 +2.40769631441E-03 +3.89840400948E-04 -6.55500580105E-01 +1.16110451635E-01
