# Hz S RI R 50
! CMT, C1220, 16058040, 17.2.0/1
! Date: 14/08/2018 12:22:03
! Data: Format (Calibration Info)
! Freq                      S11: Re/Im (F2)                       S21: Re/Im (F2)                       S12: Re/Im (F2)                       S22: Re/Im (F2)            
1.00000000000E+09 -6.45080938927E-01 +7.15824382311E-01 +3.21920610816E-05 +6.62284044845E-05 +1.56326079565E-06 +3.45491619995E-05 -7.47958787765E-01 +6.24180947482E-01
1.00500000000E+09 -6.37926367287E-01 +7.20858328999E-01 +3.48326351189E-05 -2.54678867682E-05 +3.08482580909E-05 -1.86164243897E-05 -7.44344964497E-01 +6.28174705636E-01
1.01000000000E+09 -6.32019105741E-01 +7.25454172206E-01 +1.19738853521E-05 +1.11289554704E-05 +3.41733949855E-05 -1.68396576084E-06 -7.40615224846E-01 +6.31956428889E-01
1.01500000000E+09 -6.27978582479E-01 +7.29360265022E-01 +1.60036067365E-05 +3.95338728930E-05 +1.42314002349E-05 -4.57860042573E-05 -7.37535366072E-01 +6.35524669073E-01
1.02000000000E+09 -6.25228997772E-01 +7.32405132138E-01 +2.54455840595E-05 -9.63310487650E-06 -3.35635209465E-05 +1.40685603229E-05 -7.34074207731E-01 +6.38970183139E-01
1.02500000000E+09 -6.23646916662E-01 +7.35098796646E-01 +9.18319271880E-06 -8.46573751274E-06 -3.88151294336E-05 -5.73610924074E-05 -7.31209274162E-01 +6.42689773306E-01
1.03000000000E+09 -6.22607931898E-01 +7.37255485158E-01 -5.73897122513E-06 +1.95124525541E-05 +2.59089190598E-07 -3.68732204852E-06 -7.27762526859E-01 +6.46424285922E-01
1.03500000000E+09 -6.20515536501E-01 +7.39584302969E-01 -1.10979219342E-05 +4.05411913009E-05 +1.45109575553E-05 +1.88522147052E-05 -7.24019923100E-01 +6.50465998832E-01
1.04000000000E+09 -6.17170979416E-01 +7.42201215790E-01 +1.26272029486E-05 -4.77614594034E-05 +3.94438659398E-05 +2.88210307416E-06 -7.20205722101E-01 +6.54026545079E-01
1.04500000000E+09 -6.11872088790E-01 +7.45637129146E-01 -3.51682527322E-05 +7.20078631008E-06 +1.67155308343E-05 +2.38513069216E-05 -7.16622869626E-01 +6.57701589245E-01
1.05000000000E+09 -6.04700846263E-01 +7.49771051485E-01 +1.46545571067E-05 +1.34715709822E-05 +3.23442327447E-05 -1.95461252966E-06 -7.13217313456E-01 +6.60889324775E-01
1.05500000000E+09 -5.95936578656E-01 +7.54597609903E-01 +3.14579523210E-05 +1.59941364334E-05 +2.62182241318E-05 +2.93878786126E-05 -7.09954488307E-01 +6.64637130582E-01
1.06000000000E+09 -5.86386683241E-01 +7.59662989916E-01 +1.72013557775E-06 -5.86260617772E-06 +3.60903098655E-05 +1.53750091832E-05 -7.06613169311E-01 +6.68333840887E-01
1.06500000000E+09 -5.77346683850E-01 +7.64759958520E-01 +3.31788978007E-05 +1.61960811772E-06 +4.15912112170E-05 +6.44927026964E-06 -7.02916450120E-01 +6.71961874520E-01
1.07000000000E+09 -5.69535253234E-01 +7.69078797621E-01 +2.94882820337E-05 -2.80250368933E-05 +9.93389685413E-06 +8.16785740472E-07 -6.98885133446E-01 +6.75716299555E-01
1.07500000000E+09 -5.63292738621E-01 +7.72988570121E-01 +6.63089962794E-05 +5.36002714247E-05 +5.14675568122E-05 +2.45732282818E-05 -6.94563907353E-01 +6.79344923078E-01
1.08000000000E+09 -5.58906807111E-01 +7.76354498778E-01 +1.55497827763E-05 +3.08846316495E-05 +2.79011609111E-05 -7.95755499760E-05 -6.90558361570E-01 +6.83158428934E-01
1.08500000000E+09 -5.56178829142E-01 +7.78716126878E-01 +1.67389306668E-05 -2.53803425806E-05 -3.99852418351E-05 -2.92366033698E-05 -6.86759604256E-01 +6.86893133783E-01
1.09000000000E+09 -5.53920763796E-01 +7.80872035494E-01 +4.60834164192E-05 +1.90059016258E-06 +2.17947670182E-05 -4.25520700441E-05 -6.82742397458E-01 +6.90641965854E-01
1.09500000000E+09 -5.52325810224E-01 +7.82785352855E-01 +2.47885952326E-05 +1.41485119407E-05 +1.55975221272E-05 -1.54166041036E-05 -6.78974850079E-01 +6.94570887487E-01
1.10000000000E+09 -5.49313420220E-01 +7.84638957702E-01 -2.17050053833E-05 -3.39279606482E-05 +7.17061016732E-05 -5.28762289384E-05 -6.75009677866E-01 +6.98222286716E-01
1.10500000000E+09 -5.45230772302E-01 +7.87280893282E-01 -3.58105634631E-05 +3.62453949292E-06 -5.41296391538E-06 -1.46758504704E-05 -6.70670371408E-01 +7.01756616392E-01
1.11000000000E+09 -5.39434303268E-01 +7.90533054722E-01 -2.19606941831E-05 -2.54456307100E-05 +3.20580760402E-05 +3.35753223313E-05 -6.66471468341E-01 +7.05118388054E-01
1.11500000000E+09 -5.32202137866E-01 +7.94377737659E-01 +1.32207868615E-05 -3.88933880836E-05 +5.69097164484E-05 -3.89196424641E-05 -6.62537684949E-01 +7.08707362277E-01
1.12000000000E+09 -5.24344765366E-01 +7.98236328286E-01 +4.46383595577E-06 +2.28483060975E-05 -4.36488071844E-05 -1.67781560125E-05 -6.58443831054E-01 +7.12253261414E-01
1.12500000000E+09 -5.16077422181E-01 +8.02263595185E-01 +5.18738882620E-07 -2.51470618576E-05 +1.54388087417E-05 -5.20424165548E-07 -6.54256402197E-01 +7.16149411934E-01
1.13000000000E+09 -5.08564142746E-01 +8.05985821667E-01 -4.65322193684E-06 +2.78228312709E-06 -3.74988395617E-05 -7.35494503432E-05 -6.50086178382E-01 +7.19975475590E-01
1.13500000000E+09 -5.02136310604E-01 +8.08785968695E-01 -3.59347855987E-05 +1.08834564890E-06 -5.90421249414E-05 -6.71519485164E-05 -6.45407787065E-01 +7.23612487856E-01
1.14000000000E+09 -4.96996262296E-01 +8.11329475455E-01 +4.01046648578E-08 -2.82247627400E-05 -5.26922990589E-05 +2.21112942271E-05 -6.40753662870E-01 +7.26871768725E-01
1.14500000000E+09 -4.92736242392E-01 +8.12932429453E-01 -2.70404371220E-05 -1.92043790379E-05 -7.49813784956E-06 -3.19129986908E-05 -6.36163962788E-01 +7.30311322952E-01
1.15000000000E+09 -4.89030243218E-01 +8.14476396507E-01 +2.17987886001E-05 -1.64271014626E-05 +2.01246590186E-05 -2.06825362832E-05 -6.31522191309E-01 +7.34149731211E-01
1.15500000000E+09 -4.85150104103E-01 +8.16208500220E-01 +3.47319979925E-05 +9.97915970507E-06 +1.92989043011E-05 +5.47763250566E-06 -6.26749493434E-01 +7.37927317387E-01
1.16000000000E+09 -4.80363069520E-01 +8.17898465829E-01 +3.79185500317E-05 +1.07233189639E-05 -1.51945148737E-06 -1.29129704550E-05 -6.21942612700E-01 +7.41836900036E-01
1.16500000000E+09 -4.74556227048E-01 +8.20625630952E-01 -1.93311240219E-05 -2.53213896883E-05 +3.22056566399E-05 +2.04908161582E-05 -6.16886302453E-01 +7.45469930740E-01
1.17000000000E+09 -4.67398856372E-01 +8.23546268988E-01 -3.09065596832E-05 -3.68669453458E-05 -2.30291934216E-05 -2.67104163913E-05 -6.11371428413E-01 +7.48683084676E-01
1.17500000000E+09 -4.59290087244E-01 +8.26819523823E-01 +6.30592122479E-07 -2.92217176842E-05 -3.28877151939E-05 -3.62954755846E-05 -6.05770613118E-01 +7.51875984074E-01
1.18000000000E+09 -4.51143758491E-01 +8.30390193970E-01 -1.47980191710E-05 -6.74438925398E-05 -6.07194669770E-06 -1.23353277117E-05 -6.00188692084E-01 +7.55013913280E-01
1.18500000000E+09 -4.43233161265E-01 +8.33655827292E-01 -2.88025281964E-05 -3.88830049305E-05 +1.09919080654E-05 -7.46442921667E-05 -5.94121117264E-01 +7.57906735135E-01
1.19000000000E+09 -4.36049805044E-01 +8.36369272776E-01 -1.55702186550E-05 -7.52191498550E-05 -3.12760762942E-05 -7.22517619122E-05 -5.88115100515E-01 +7.60655725909E-01
1.19500000000E+09 -4.29868622272E-01 +8.38447760138E-01 -5.60638762825E-05 -6.31078611677E-05 -8.38671131114E-05 -1.06633007501E-04 -5.82203868137E-01 +7.61788783804E-01
1.20000000000E+09 -4.24987649101E-01 +8.39443718404E-01 -5.80589751200E-05 -6.22024336042E-05 -1.23469174578E-04 +8.42528829516E-07 -5.77787485984E-01 +7.62071330754E-01
1.20500000000E+09 -4.20515405482E-01 +8.40323689139E-01 -7.13889734831E-05 +8.62760214836E-06 -8.66411520860E-05 +5.26947859815E-05 -5.75490809024E-01 +7.62839443224E-01
1.21000000000E+09 -4.15884343947E-01 +8.41349659479E-01 -2.76147082401E-05 -2.87738180105E-06 -5.37533852177E-05 +4.18461400977E-05 -5.73473807023E-01 +7.65934953040E-01
1.21500000000E+09 -4.09890317633E-01 +8.42671221392E-01 -2.90806721303E-05 +1.64256897858E-05 +4.11549554725E-06 -4.84351882877E-06 -5.70797830344E-01 +7.70414781493E-01
1.22000000000E+09 -4.02354520044E-01 +8.44440445259E-01 +7.63932302908E-06 +3.60710122837E-05 -7.70566528480E-05 +2.37014247520E-05 -5.66533652604E-01 +7.75695842131E-01
1.22500000000E+09 -3.93117790198E-01 +8.46815705858E-01 -4.10976537220E-05 +7.09348216074E-06 +1.11937204397E-06 +2.08625476538E-06 -5.61521025280E-01 +7.80847860803E-01
1.23000000000E+09 -3.82477932878E-01 +8.49766993910E-01 -2.28244440673E-06 +2.85076611437E-05 +8.91743783188E-06 +1.27413219746E-05 -5.55741899537E-01 +7.85393415317E-01
1.23500000000E+09 -3.71386224806E-01 +8.53144714942E-01 -3.36824667630E-05 -3.17101767463E-06 -3.73936206422E-05 -1.48181447207E-05 -5.49938252574E-01 +7.89767167735E-01
1.24000000000E+09 -3.60535341471E-01 +8.56752949187E-01 +5.36409303418E-06 -3.84383290757E-05 +4.65422514391E-05 -8.10877101888E-06 -5.43937388300E-01 +7.93547802814E-01
1.24500000000E+09 -3.50731791864E-01 +8.60579742246E-01 -1.47628912883E-05 -2.89130722117E-05 -6.55051755338E-05 -3.30677653745E-05 -5.37693455498E-01 +7.97276906110E-01
1.25000000000E+09 -3.42239425844E-01 +8.63857458599E-01 -1.99795346063E-05 +1.87660378501E-05 -1.36038650094E-05 -2.84701326081E-05 -5.31113246949E-01 +8.01471381406E-01
1.25500000000E+09 -3.35365212177E-01 +8.66326753216E-01 -6.73537244242E-05 -2.48560349995E-05 -5.13254399679E-05 +4.85310680517E-05 -5.24324073084E-01 +8.05509018740E-01
1.26000000000E+09 -3.29683585512E-01 +8.68009854652E-01 -5.18639018573E-05 -2.67272668814E-05 -3.30185087190E-05 -1.19471267420E-05 -5.17563948249E-01 +8.09736504992E-01
1.26500000000E+09 -3.24884044081E-01 +8.69036954860E-01 -6.96947647049E-05 +1.25423813151E-05 -1.07647020229E-04 +9.28161535687E-06 -5.10596124442E-01 +8.13590696403E-01
1.27000000000E+09 -3.19677564513E-01 +8.69951372372E-01 -8.39280752125E-05 +3.34942773687E-05 -3.16690351554E-05 -2.20463813693E-05 -5.03800994123E-01 +8.17399516043E-01
1.27500000000E+09 -3.13425216316E-01 +8.71034209622E-01 -6.16726768064E-05 +2.03441475888E-05 -9.89631433343E-05 +1.35243230672E-06 -4.96706964291E-01 +8.20864722515E-01
1.28000000000E+09 -3.05216226289E-01 +8.72331417458E-01 -6.51076057900E-05 +2.54480585708E-05 -1.06867221466E-04 -5.52284428210E-06 -4.89799727879E-01 +8.24284968797E-01
1.28500000000E+09 -2.94738349384E-01 +8.74082448606E-01 -7.90357156128E-05 +5.09172208573E-05 -1.11422217493E-04 +7.20616716121E-05 -4.82507797096E-01 +8.27876141335E-01
1.29000000000E+09 -2.83200849164E-01 +8.76549776677E-01 -3.31791730093E-05 +7.43377440798E-05 -7.33065014816E-05 +6.02515000748E-05 -4.74852079564E-01 +8.31617473886E-01
1.29500000000E+09 -2.70643113843E-01 +8.79229092535E-01 -2.28432315075E-05 +4.16305385719E-05 -5.51220777573E-05 +7.26518572241E-05 -4.67092301945E-01 +8.35087860429E-01
1.30000000000E+09 -2.58247070315E-01 +8.82522491315E-01 -4.61312601404E-05 +7.76698127523E-05 -3.17171077999E-05 +7.83575222105E-05 -4.59350174157E-01 +8.38560467312E-01
1.30500000000E+09 -2.46757051946E-01 +8.85490690925E-01 -5.55317405922E-05 +8.83488276497E-05 -3.73870238941E-05 +6.20690163383E-05 -4.51331738813E-01 +8.42024871573E-01
1.31000000000E+09 -2.36779640732E-01 +8.87791607716E-01 -8.45705445438E-07 +9.38860854965E-05 -1.16127809434E-06 +1.16431498725E-04 -4.42912720674E-01 +8.45377493660E-01
1.31500000000E+09 -2.28911649979E-01 +8.89271724577E-01 +5.14928780717E-05 +7.38856196966E-05 +2.69233885273E-06 +1.12707058987E-04 -4.34366249859E-01 +8.48760084256E-01
1.32000000000E+09 -2.22260474727E-01 +8.89922154559E-01 +3.93968025472E-05 +8.96730200275E-05 -3.14002582543E-05 +1.14042720899E-04 -4.25240850660E-01 +8.52143936888E-01
1.32500000000E+09 -2.16306862700E-01 +8.89680147620E-01 -3.47129383805E-05 +1.08007620571E-04 -2.64347886787E-06 +8.93782352746E-05 -4.15759733511E-01 +8.55650310374E-01
1.33000000000E+09 -2.09577465842E-01 +8.89090338571E-01 +2.51899968672E-06 +1.10423957359E-04 +7.18392605104E-06 +1.41075060060E-04 -4.06007824841E-01 +8.58881037672E-01
1.33500000000E+09 -2.01214401404E-01 +8.88184953199E-01 +1.31536190280E-05 +1.14114271292E-04 +5.10883249326E-05 +1.61465394052E-04 -3.96243578676E-01 +8.62100989307E-01
1.34000000000E+09 -1.90297251377E-01 +8.87462453054E-01 +8.07393500477E-05 +1.17592024543E-04 +4.48788040389E-05 +1.26782603218E-04 -3.86112804995E-01 +8.65368936807E-01
1.34500000000E+09 -1.76810721126E-01 +8.86908491659E-01 +5.14257695633E-05 +7.53792151132E-05 +4.74020393264E-05 +7.04876802974E-05 -3.75232377639E-01 +8.68604583230E-01
1.35000000000E+09 -1.61350892457E-01 +8.86637852425E-01 -9.37782399997E-06 +7.12489665354E-05 +3.53664907430E-05 +9.22325924450E-05 -3.64224067270E-01 +8.71700585766E-01
1.35500000000E+09 -1.44510995298E-01 +8.87017439976E-01 +5.42567827532E-05 +1.03148127422E-04 +6.24008841161E-05 +7.30602651668E-05 -3.52655972693E-01 +8.74640807318E-01
1.36000000000E+09 -1.27598598857E-01 +8.87515563065E-01 +5.06928823611E-05 +1.01646016820E-04 +3.57403180421E-05 +7.74243046825E-05 -3.40911232465E-01 +8.77348663869E-01
1.36500000000E+09 -1.11460917492E-01 +8.88119775164E-01 +3.38913758583E-05 +9.34409979036E-05 +2.08786839576E-05 +8.22704421966E-05 -3.28836474891E-01 +8.79909043725E-01
1.37000000000E+09 -9.69800391610E-02 +8.88245191226E-01 +4.75481191171E-05 +1.37463416107E-04 +5.16647427469E-05 +1.79612822399E-04 -3.15992969723E-01 +8.82125747228E-01
1.37500000000E+09 -8.45719513564E-02 +8.87833090012E-01 +9.19561388961E-05 +1.42010172642E-04 +5.90966593307E-05 +1.33647164781E-04 -3.02314645837E-01 +8.84324215943E-01
1.38000000000E+09 -7.36286687586E-02 +8.86895146727E-01 +1.72176687667E-04 +1.88429074743E-04 +1.37843552969E-04 +2.10248832398E-04 -2.87800444567E-01 +8.86458813399E-01
1.38500000000E+09 -6.26973295866E-02 +8.85349766419E-01 +2.11088137178E-04 +1.05479381227E-04 +2.41701426509E-04 +9.81626015121E-05 -2.72438494445E-01 +8.88295421598E-01
1.39000000000E+09 -5.09654203595E-02 +8.82715263810E-01 +2.23272010926E-04 +9.12148098424E-05 +2.78432580571E-04 +1.14710523817E-04 -2.56594268160E-01 +8.89782363572E-01
1.39500000000E+09 -3.72397932383E-02 +8.79174418690E-01 +2.70445428168E-04 +9.89089955080E-05 +3.28461163491E-04 +4.44760645484E-05 -2.39824879997E-01 +8.90633313593E-01
1.40000000000E+09 -2.09818531980E-02 +8.74585985371E-01 +2.78941952226E-04 -1.90518139890E-05 +2.95839292209E-04 -5.67657220957E-05 -2.22518270513E-01 +8.91207845077E-01
1.40500000000E+09 -2.49726934635E-03 +8.69479097996E-01 +2.31107941290E-04 -4.72000202401E-05 +2.08832193966E-04 -7.56456632789E-05 -2.03822006122E-01 +8.91132685203E-01
1.41000000000E+09 +1.81810355655E-02 +8.63959572001E-01 +2.20097666956E-04 -2.80436799653E-05 +2.40903920030E-04 -4.58565107106E-05 -1.83549101045E-01 +8.90311448979E-01
1.41500000000E+09 +4.01108411634E-02 +8.58333563131E-01 +2.05615888745E-04 -9.70595159476E-05 +2.00946728799E-04 -3.90010476085E-05 -1.61939736695E-01 +8.88801527754E-01
1.42000000000E+09 +6.28258032151E-02 +8.52365952835E-01 +2.46505525931E-04 +1.34608013430E-05 +2.49341201229E-04 -4.53297125139E-05 -1.39158538441E-01 +8.86235801004E-01
1.42500000000E+09 +8.49084519856E-02 +8.45076458119E-01 +3.27981885118E-04 -1.17407253215E-04 +2.78949688474E-04 -1.98535483078E-04 -1.15736755931E-01 +8.82596411216E-01
1.43000000000E+09 +1.05841479819E-01 +8.36831606147E-01 +2.00374746114E-04 -1.70084859129E-04 +1.84249622070E-04 -2.44094011360E-04 -9.08597810467E-02 +8.78011825365E-01
1.43500000000E+09 +1.25659723335E-01 +8.27016253676E-01 +1.86115800701E-04 -1.81767039191E-04 +1.58726763600E-04 -1.98245486325E-04 -6.47594537036E-02 +8.71432747540E-01
1.44000000000E+09 +1.45158603465E-01 +8.15920447382E-01 +1.37567605207E-04 -9.97978569999E-05 +1.09655683574E-04 -1.27519021704E-04 -3.65613907754E-02 +8.62736999282E-01
1.44500000000E+09 +1.66293021458E-01 +8.02135794242E-01 +1.72418055481E-04 -5.89671464382E-05 +1.95372366516E-04 -2.96533396793E-05 -6.60307400718E-03 +8.51361697911E-01
1.45000000000E+09 +1.89417932171E-01 +7.84898218431E-01 +3.96216410351E-04 -1.07759638560E-04 +3.47006515087E-04 -1.73948785945E-04 +2.53127457110E-02 +8.37092023880E-01
1.45500000000E+09 +2.15168133753E-01 +7.63355976300E-01 +3.66268901384E-04 -2.25401320339E-04 +3.41049214358E-04 -2.61328761056E-04 +5.87153808161E-02 +8.19290159429E-01
1.46000000000E+09 +2.43747286465E-01 +7.37204592053E-01 +4.34754844893E-04 -2.82363423751E-04 +4.38475900366E-04 -3.07005667776E-04 +9.35166147442E-02 +7.97353580773E-01
1.46500000000E+09 +2.74369456237E-01 +7.06598725671E-01 +4.02177071323E-04 -5.44548298492E-04 +3.22362820030E-04 -5.03080125737E-04 +1.29013914529E-01 +7.70914756060E-01
1.47000000000E+09 +3.06526905761E-01 +6.71284750927E-01 +4.15199864665E-04 -4.29511051886E-04 +4.07156082364E-04 -3.70643219936E-04 +1.66107667233E-01 +7.37481690583E-01
1.47500000000E+09 +3.38536611069E-01 +6.30272348886E-01 +4.66076765255E-04 -8.36255867190E-04 +4.75968959718E-04 -7.83536475491E-04 +2.03391000936E-01 +6.96754432501E-01
1.48000000000E+09 +3.67877357180E-01 +5.83424946616E-01 +2.56694590480E-04 -9.15477950348E-04 +3.19598876123E-04 -9.24705544272E-04 +2.40005357281E-01 +6.47377931158E-01
1.48500000000E+09 +3.92970821537E-01 +5.30253800094E-01 +3.52416184626E-04 -1.02907634607E-03 +3.98932675656E-04 -1.04904281987E-03 +2.74156181545E-01 +5.88567288341E-01
1.49000000000E+09 +4.12286782588E-01 +4.70016812719E-01 +3.04248725326E-04 -1.49623567832E-03 +2.37213160201E-04 -1.52262317427E-03 +3.02425639025E-01 +5.18511117159E-01
1.49500000000E+09 +4.23718696984E-01 +4.01417779751E-01 -1.37452019565E-04 -2.06820170559E-03 -2.09796638495E-04 -1.97080816454E-03 +3.20655495161E-01 +4.39213460740E-01
1.50000000000E+09 +4.24282401533E-01 +3.24082065690E-01 -1.13120396847E-03 -2.45863792075E-03 -1.00712422303E-03 -2.25704195535E-03 +3.26144941880E-01 +3.49754985151E-01
1.50500000000E+09 +4.12438141685E-01 +2.39307817321E-01 -2.16595348872E-03 -2.05980101766E-03 -2.04871136694E-03 -2.03820881888E-03 +3.14766068321E-01 +2.53371753965E-01
1.51000000000E+09 +3.85067920106E-01 +1.47962328609E-01 -2.85008165873E-03 -1.46680149629E-03 -2.76895540884E-03 -1.57459430341E-03 +2.82680278671E-01 +1.52764691803E-01
1.51500000000E+09 +3.38007240079E-01 +5.45584217614E-02 -3.64665822328E-03 -7.54180492812E-04 -3.65785121769E-03 -8.32681075629E-04 +2.28212761756E-01 +5.46331012735E-02
1.52000000000E+09 +2.69907247278E-01 -3.23034867391E-02 -4.03497695466E-03 +1.20674718090E-03 -4.04163954268E-03 +1.20560267480E-03 +1.50636830391E-01 -3.20172817438E-02
1.52500000000E+09 +1.83035015277E-01 -1.05950461877E-01 -2.60914475996E-03 +1.83903196975E-03 -2.61794522328E-03 +1.80021290117E-03 +5.40284116841E-02 -9.99886803273E-02
1.53000000000E+09 +7.90207855546E-02 -1.58055693053E-01 -2.46878230400E-03 +2.13941579555E-03 -2.47087250643E-03 +2.17428162910E-03 -5.30772077840E-02 -1.43539419468E-01
1.53500000000E+09 -3.29142947286E-02 -1.83154628872E-01 -2.56008295715E-03 +3.03953826935E-03 -2.54809745602E-03 +3.06630928328E-03 -1.65272321139E-01 -1.63321188592E-01
1.54000000000E+09 -1.45655226098E-01 -1.81303306062E-01 -1.18484686461E-03 +4.24711180052E-03 -1.22922391392E-03 +4.22721182231E-03 -2.74391621124E-01 -1.59271379507E-01
1.54500000000E+09 -2.52306888786E-01 -1.55242587583E-01 +6.08360242446E-04 +4.53250351804E-03 +4.57862865206E-04 +4.45709186613E-03 -3.73400297660E-01 -1.34184369544E-01
1.55000000000E+09 -3.48584536102E-01 -1.10322303979E-01 +1.99787677030E-03 +3.33161476370E-03 +1.88883813330E-03 +3.39008021475E-03 -4.57726052444E-01 -9.53365587443E-02
1.55500000000E+09 -4.29642399244E-01 -5.13029504853E-02 +2.24207265854E-03 +2.55081209802E-03 +2.19563828566E-03 +2.70787211489E-03 -5.27909846974E-01 -4.75364456747E-02
1.56000000000E+09 -4.94026665682E-01 +1.30412218958E-02 +2.77603409056E-03 +1.77204766410E-03 +2.82954995372E-03 +1.97151824242E-03 -5.84253887668E-01 +6.33967569047E-03
1.56500000000E+09 -5.43450396660E-01 +7.77009867026E-02 +2.83573298688E-03 +9.50509235871E-04 +3.02179650842E-03 +1.00141927720E-03 -6.27627116989E-01 +6.22320162061E-02
1.57000000000E+09 -5.80618389029E-01 +1.39877038799E-01 +2.67496971228E-03 +1.02730849227E-04 +2.84103387103E-03 +9.36305107673E-05 -6.60280876671E-01 +1.17682457288E-01
