# Hz S RI R 50
! CMT, C1220, 16058040, 17.2.0/1
! Date: 14/08/2018 12:22:44
! Data: Format (Calibration Info)
! Freq                      S11: Re/Im (F2)                       S21: Re/Im (F2)                       S12: Re/Im (F2)                       S22: Re/Im (F2)            
1.00000000000E+09 -6.45440636513E-01 +7.15646228997E-01 +1.27475677678E-05 -7.46084003914E-06 -3.35954923953E-06 -2.50154191013E-06 -7.48019298855E-01 +6.24208107630E-01
1.00500000000E+09 -6.38344300349E-01 +7.20773748967E-01 +3.19842809745E-06 +4.04415935278E-05 -1.84097796561E-05 +2.11426236512E-05 -7.44329555713E-01 +6.28230889808E-01
1.01000000000E+09 -6.32440187019E-01 +7.25303935782E-01 -1.02405219185E-05 +2.94054030402E-05 +2.42896487368E-06 +3.56078431298E-05 -7.40763315514E-01 +6.31814390597E-01
1.01500000000E+09 -6.28248852207E-01 +7.29132163169E-01 +2.19913144719E-06 +2.91981926971E-05 -1.42414645888E-05 +1.22362697698E-05 -7.37432445250E-01 +6.35671185587E-01
1.02000000000E+09 -6.25745740558E-01 +7.32388695477E-01 +3.13650110143E-06 +2.43866975723E-05 -3.71422224566E-05 +4.10251355547E-05 -7.34027371333E-01 +6.39160416719E-01
1.02500000000E+09 -6.24151880974E-01 +7.35002454915E-01 +1.67758890936E-05 +1.66676117989E-05 +1.83057117829E-05 +4.12311592914E-05 -7.31234322830E-01 +6.42763376064E-01
1.03000000000E+09 -6.23124219159E-01 +7.37188513789E-01 +1.62112735115E-05 +1.89884569164E-05 +4.86647988528E-05 +3.97196512804E-05 -7.27708687088E-01 +6.46689245087E-01
1.03500000000E+09 -6.21038268457E-01 +7.39379928749E-01 +7.34001292477E-05 +2.41220295706E-05 -2.37865592475E-05 +1.38236897085E-05 -7.23909467977E-01 +6.50653728391E-01
1.04000000000E+09 -6.17713016450E-01 +7.42120280591E-01 +1.16469655932E-05 +3.34346058491E-05 +3.35300364992E-05 +2.72609340403E-05 -7.20194700180E-01 +6.54095625096E-01
1.04500000000E+09 -6.12543886619E-01 +7.45499275304E-01 +4.20704160154E-05 +3.64503371644E-05 +3.68086213533E-05 +3.02463063596E-05 -7.16527120126E-01 +6.57633410337E-01
1.05000000000E+09 -6.05194874054E-01 +7.49745841504E-01 -5.67682251886E-06 -1.04991748069E-05 -1.35125030890E-05 +1.37464184728E-05 -7.13083457243E-01 +6.61021057963E-01
1.05500000000E+09 -5.96568441727E-01 +7.54415779215E-01 -8.57177171301E-06 +1.11543525306E-05 +4.01703177767E-05 -3.56939213892E-05 -7.09927479367E-01 +6.64608856033E-01
1.06000000000E+09 -5.87284309655E-01 +7.59480829880E-01 -8.74238920308E-07 -1.36593153296E-05 +2.20892501296E-05 +1.56418284663E-05 -7.06651067860E-01 +6.68223521887E-01
1.06500000000E+09 -5.78114487152E-01 +7.64642282245E-01 +3.17527167673E-05 +1.36697140462E-05 +1.79959070711E-05 +3.52202055184E-05 -7.02987764322E-01 +6.72076814004E-01
1.07000000000E+09 -5.70188218460E-01 +7.69104916169E-01 +2.43319997011E-05 -3.42945467839E-05 +6.23169908999E-05 +3.99116600239E-05 -6.98889598607E-01 +6.75721819307E-01
1.07500000000E+09 -5.64139944356E-01 +7.72920052416E-01 +2.64297577471E-05 -6.58454806818E-06 +2.56233860500E-05 -5.08200185862E-05 -6.94566600781E-01 +6.79388415696E-01
1.08000000000E+09 -5.59599883635E-01 +7.76271922775E-01 +3.03748604589E-05 +3.31512404875E-05 +1.90321093577E-05 -4.99299526231E-06 -6.90533089926E-01 +6.83289530171E-01
1.08500000000E+09 -5.56848992857E-01 +7.78749243834E-01 +4.20583850990E-05 +2.22919743677E-05 +1.44111633132E-05 -2.20543048736E-05 -6.86600457325E-01 +6.86836551296E-01
1.09000000000E+09 -5.54777471567E-01 +7.80788548639E-01 +2.12040704074E-05 +2.10656333147E-06 +5.83025807012E-05 -2.39277416581E-05 -6.82902245805E-01 +6.90811264973E-01
1.09500000000E+09 -5.53080100859E-01 +7.82560338363E-01 +2.26814779001E-05 -3.41881453543E-06 +4.65364687572E-05 +5.37840030052E-05 -6.78979444732E-01 +6.94668268824E-01
1.10000000000E+09 -5.50137887144E-01 +7.84621677195E-01 -3.01219835305E-06 -4.19307606148E-05 -9.68978554488E-07 -5.54096487770E-06 -6.75064721701E-01 +6.98412947173E-01
1.10500000000E+09 -5.46017420451E-01 +7.87123280337E-01 +2.42682259918E-05 -1.05527304616E-05 +4.46358080843E-05 -5.69218883941E-05 -6.70617863604E-01 +7.01786980905E-01
1.11000000000E+09 -5.40186510334E-01 +7.90425080920E-01 +2.36549522215E-05 -1.64789097045E-05 +4.94349372872E-05 -4.53962687064E-05 -6.66489767287E-01 +7.05167188796E-01
1.11500000000E+09 -5.33030406467E-01 +7.94221523750E-01 +4.74268915370E-06 -5.39351718974E-05 +5.01772473863E-05 -5.26176563834E-05 -6.62316675523E-01 +7.08723173599E-01
1.12000000000E+09 -5.25053588782E-01 +7.98085437877E-01 +7.55744912222E-06 -9.89355414663E-06 +2.91701848466E-05 -2.55829266796E-05 -6.58370641756E-01 +7.12189940765E-01
1.12500000000E+09 -5.16827294881E-01 +8.02225973354E-01 +5.21415811397E-06 +3.98274424251E-06 +2.62089311938E-05 +1.76712627018E-06 -6.54007810845E-01 +7.16212702188E-01
1.13000000000E+09 -5.09477891069E-01 +8.05948795079E-01 +2.74125976266E-05 -1.60242154635E-05 +6.74783315135E-05 -1.38090127721E-05 -6.49964931925E-01 +7.19899009052E-01
1.13500000000E+09 -5.02972768395E-01 +8.08906823066E-01 +1.03022815465E-05 -4.47051338381E-05 +4.74365303441E-05 -2.08560112816E-05 -6.45359476639E-01 +7.23636810195E-01
1.14000000000E+09 -4.97804519895E-01 +8.11426418729E-01 +3.39233010904E-05 -4.60477842642E-05 +4.55916996113E-05 -3.58081722872E-05 -6.40675715693E-01 +7.26902690471E-01
1.14500000000E+09 -4.93657339291E-01 +8.13071623633E-01 +1.98349863788E-05 -1.55145907100E-05 -1.18660944891E-05 -5.51847034667E-05 -6.35978392971E-01 +7.30525624114E-01
1.15000000000E+09 -4.89841683771E-01 +8.14474408453E-01 +1.24965469269E-05 -1.23001086268E-06 +1.81339681990E-05 -1.79205975991E-05 -6.31489563380E-01 +7.34270114074E-01
1.15500000000E+09 -4.86121408553E-01 +8.16173943846E-01 -1.59719731783E-05 -3.28509291255E-05 +3.57743757758E-05 -2.17373988129E-05 -6.26723161015E-01 +7.37988692864E-01
1.16000000000E+09 -4.81310442247E-01 +8.17942279336E-01 +2.09933336652E-05 -5.19355335914E-06 +1.39689611791E-06 -1.15914180537E-05 -6.21979194361E-01 +7.41869532851E-01
1.16500000000E+09 -4.75432103881E-01 +8.20576854801E-01 +1.10097816279E-05 -3.49739946568E-05 +4.58428045951E-05 -1.45238967244E-05 -6.16705908506E-01 +7.45430360894E-01
1.17000000000E+09 -4.68306652167E-01 +8.23587763078E-01 +2.61653928082E-05 -1.82175229791E-05 +1.98407459688E-05 +2.23046488268E-05 -6.11342912675E-01 +7.48738399592E-01
1.17500000000E+09 -4.60201873295E-01 +8.26986977268E-01 -2.58177657203E-06 -8.32973490486E-06 -4.18735901065E-05 -7.16686616955E-05 -6.05615816353E-01 +7.52014088810E-01
1.18000000000E+09 -4.52059146987E-01 +8.30528904960E-01 +7.74348670449E-06 -5.31307459367E-05 -3.96361493921E-05 -2.75026253863E-05 -6.00045760130E-01 +7.55117554627E-01
1.18500000000E+09 -4.43977285617E-01 +8.33802164877E-01 +1.17633067973E-05 -6.83338428661E-05 -1.03413663051E-05 -5.00572197670E-05 -5.94066481973E-01 +7.58137968095E-01
1.19000000000E+09 -4.36922758597E-01 +8.36420482128E-01 -1.62339715183E-05 -3.73032116196E-05 -1.60016094611E-05 -4.92594703051E-05 -5.88025174129E-01 +7.60721841802E-01
1.19500000000E+09 -4.30837754507E-01 +8.38495781813E-01 -2.25418439138E-05 -4.09408923468E-05 -3.02811968467E-05 -1.08926696313E-04 -5.82087694375E-01 +7.61869425445E-01
1.20000000000E+09 -4.26108140103E-01 +8.39444087247E-01 -1.08730850023E-04 -1.97230531599E-05 -8.47609836615E-05 -5.15725509176E-05 -5.77662688727E-01 +7.62212768526E-01
1.20500000000E+09 -4.21599074304E-01 +8.40480814073E-01 -9.91797324543E-05 -3.88833613397E-06 -9.99435787940E-05 +1.54865582035E-05 -5.75373213788E-01 +7.62969136604E-01
1.21000000000E+09 -4.16997407837E-01 +8.41547837720E-01 -6.19699862871E-05 -2.32641803807E-05 -4.79483928628E-05 +2.19229411210E-06 -5.73428261592E-01 +7.66044575761E-01
1.21500000000E+09 -4.11031963758E-01 +8.42951745805E-01 -1.32789568502E-05 +9.01574206269E-06 -5.54782701703E-05 -7.91016425956E-06 -5.70659613606E-01 +7.70510063299E-01
1.22000000000E+09 -4.03602187091E-01 +8.44463061440E-01 -3.79562511667E-05 +1.15924493888E-05 -5.84086062732E-05 -1.80234239902E-05 -5.66399993016E-01 +7.75895772031E-01
1.22500000000E+09 -3.94214834944E-01 +8.46815944639E-01 -2.12030724052E-05 +2.93869234273E-05 +2.12828366328E-07 +1.74427039178E-05 -5.61365494756E-01 +7.81032955672E-01
1.23000000000E+09 -3.83697201461E-01 +8.49852683387E-01 +2.29287644944E-05 +1.97278433943E-05 +9.99931297073E-06 -1.29356455085E-05 -5.55720345829E-01 +7.85565384036E-01
1.23500000000E+09 -3.72646841085E-01 +8.53171559610E-01 +2.46905182391E-05 -8.12398608772E-06 +2.53076869170E-05 -3.65704565690E-05 -5.49882558090E-01 +7.89767085397E-01
1.24000000000E+09 -3.61601302190E-01 +8.56946027525E-01 -3.24154922151E-05 +1.31800285167E-05 -3.80883166796E-05 -3.92509473681E-05 -5.43903512313E-01 +7.93576583736E-01
1.24500000000E+09 -3.51807692446E-01 +8.60773243982E-01 -4.26531033707E-05 -4.96152018924E-05 -6.99198070169E-06 -5.47212226571E-05 -5.37598213886E-01 +7.97355291624E-01
1.25000000000E+09 -3.43305733112E-01 +8.64103569316E-01 -3.95934009840E-05 -2.30162663548E-05 -1.18387211747E-06 +7.40727810161E-06 -5.30882850635E-01 +8.01488141989E-01
1.25500000000E+09 -3.36374119980E-01 +8.66511280958E-01 -5.36934039996E-05 -1.90569731530E-05 -1.79387579198E-05 -4.49440578077E-05 -5.24199431956E-01 +8.05574328320E-01
1.26000000000E+09 -3.30753834581E-01 +8.68167597271E-01 -4.76635234409E-05 -4.90673899915E-05 -6.04617803996E-05 -3.53473438700E-05 -5.17423029157E-01 +8.09936637634E-01
1.26500000000E+09 -3.25903670085E-01 +8.69311094935E-01 -9.01125217645E-05 -1.92977459352E-05 -8.07251393177E-05 +1.47946166077E-05 -5.10515591215E-01 +8.13729874818E-01
1.27000000000E+09 -3.20887328093E-01 +8.70136340154E-01 -4.76277861103E-05 -4.32589820216E-06 -4.09616032045E-05 +1.63108442964E-05 -5.03745688809E-01 +8.17468324116E-01
1.27500000000E+09 -3.14531207885E-01 +8.71244182769E-01 -7.74871899560E-05 +1.29782521390E-05 -4.14571391913E-05 +4.90428693620E-05 -4.96661167524E-01 +8.20926461889E-01
1.28000000000E+09 -3.06261367380E-01 +8.72481896711E-01 -1.16096785274E-04 +3.18359824678E-05 -1.18666926816E-04 +3.90003579644E-05 -4.89684581114E-01 +8.24462136183E-01
1.28500000000E+09 -2.95975531543E-01 +8.74299330278E-01 -7.66850118151E-05 +6.87848954000E-05 -7.77972297219E-05 +3.90940059121E-05 -4.82264822975E-01 +8.28062319159E-01
1.29000000000E+09 -2.84198278108E-01 +8.76532360749E-01 -3.51846328930E-05 +9.89505208857E-05 -7.53055471248E-05 +1.03696669926E-04 -4.74837320082E-01 +8.31640930271E-01
1.29500000000E+09 -2.71648567864E-01 +8.79537143897E-01 -8.50479532628E-05 +7.49344525894E-05 -4.94703440571E-05 +1.03354661405E-04 -4.67096651755E-01 +8.35052576688E-01
1.30000000000E+09 -2.59152037381E-01 +8.82820003218E-01 -7.43731636766E-05 +6.87408547105E-05 -4.18948906913E-05 +8.85913438594E-05 -4.59219677856E-01 +8.38620039461E-01
1.30500000000E+09 -2.47653998869E-01 +8.85806354477E-01 -4.06062695793E-05 +7.55781627122E-05 -5.08200339030E-05 +7.22022533211E-05 -4.51216260936E-01 +8.42035430002E-01
1.31000000000E+09 -2.37799163746E-01 +8.87908766419E-01 -8.79200124384E-06 +1.26197907300E-04 -3.31445289298E-05 +9.43611978729E-05 -4.42938213427E-01 +8.45460312171E-01
1.31500000000E+09 -2.29805966772E-01 +8.89416914752E-01 +7.35969947085E-06 +1.25454872874E-04 +1.80277273967E-05 +7.57553457326E-05 -4.34143013908E-01 +8.48817858437E-01
1.32000000000E+09 -2.23149140692E-01 +8.90020983786E-01 -2.99494973692E-05 +6.25848078020E-05 -9.28907972150E-07 +7.30497768353E-05 -4.25011478400E-01 +8.52234725535E-01
1.32500000000E+09 -2.17237539988E-01 +8.89767000409E-01 -2.85660214013E-06 +8.19931751211E-05 +9.43038627071E-06 +8.50917292878E-05 -4.15688214166E-01 +8.55658078825E-01
1.33000000000E+09 -2.10528080512E-01 +8.89189768329E-01 +1.29694073276E-05 +7.80948062082E-05 -2.91172450583E-05 +1.19223838426E-04 -4.05944491316E-01 +8.58981930230E-01
1.33500000000E+09 -2.02097152141E-01 +8.88367684212E-01 +4.69362004327E-05 +7.20883269653E-05 +1.26935113118E-05 +8.10021631510E-05 -3.96153948055E-01 +8.62139955579E-01
1.34000000000E+09 -1.91045263612E-01 +8.87481927214E-01 +2.49807192584E-06 +8.23517736348E-05 +1.48315660875E-05 +1.06980833668E-04 -3.85958771074E-01 +8.65405207815E-01
1.34500000000E+09 -1.77527066152E-01 +8.86748817934E-01 +3.13366687866E-05 +8.26511202256E-05 +5.15040530981E-05 +3.91703325859E-05 -3.75132302138E-01 +8.68745832026E-01
1.35000000000E+09 -1.62018885552E-01 +8.86454534815E-01 +7.26278688200E-06 +4.32714217645E-05 +3.63777727529E-05 +5.89973505896E-05 -3.64170890185E-01 +8.71741729444E-01
1.35500000000E+09 -1.45164810505E-01 +8.86628395864E-01 -1.54369419294E-06 +6.46259322980E-05 -2.97979498936E-05 +8.16768386127E-05 -3.52529906375E-01 +8.74579090819E-01
1.36000000000E+09 -1.28272008360E-01 +8.87219094981E-01 -5.64037271535E-05 +7.72181748652E-05 +3.15485757354E-06 +9.61356432118E-05 -3.40783979927E-01 +8.77243489826E-01
1.36500000000E+09 -1.12190062410E-01 +8.87555453576E-01 -3.80840102300E-05 +1.16506311137E-04 -4.26907846808E-05 +6.91955873180E-05 -3.28676189205E-01 +8.79764092662E-01
1.37000000000E+09 -9.77671127902E-02 +8.87481975492E-01 +7.05587629171E-06 +1.73743766008E-04 -5.91155483421E-06 +1.56490495261E-04 -3.15836136989E-01 +8.82054645791E-01
1.37500000000E+09 -8.54295393732E-02 +8.87105965822E-01 +4.00210623801E-07 +1.67536750747E-04 +1.49949703772E-05 +2.19710615535E-04 -3.02235945992E-01 +8.84354946332E-01
1.38000000000E+09 -7.45517930381E-02 +8.86074901528E-01 +9.38528634723E-05 +2.33671963889E-04 +6.40653177294E-05 +2.19930668267E-04 -2.87721004566E-01 +8.86424141872E-01
1.38500000000E+09 -6.36142750241E-02 +8.84324130980E-01 +1.57231564114E-04 +1.90144001325E-04 +1.24144311421E-04 +2.07451321663E-04 -2.72298986260E-01 +8.88364967867E-01
1.39000000000E+09 -5.20908115387E-02 +8.81607122334E-01 +1.42268115377E-04 +1.84851178386E-04 +1.97344065028E-04 +2.47456933850E-04 -2.56426527905E-01 +8.89604783853E-01
1.39500000000E+09 -3.84700767249E-02 +8.78097431288E-01 +2.26042164110E-04 +2.12156681376E-04 +3.17878482086E-04 +1.80601895231E-04 -2.39824242634E-01 +8.90377283544E-01
1.40000000000E+09 -2.20932418905E-02 +8.73544478516E-01 +2.82888118989E-04 +9.86138736902E-05 +2.99246257012E-04 +1.11796534603E-04 -2.22442343119E-01 +8.91051331205E-01
1.40500000000E+09 -3.67107582541E-03 +8.68215005407E-01 +2.67167405457E-04 +1.23911195997E-05 +3.09050435306E-04 -3.06636434176E-05 -2.03686338864E-01 +8.91045634199E-01
1.41000000000E+09 +1.68464284511E-02 +8.62364476238E-01 +2.02603488982E-04 +1.22597075702E-05 +2.40969593727E-04 +4.84627716918E-06 -1.83662649566E-01 +8.90262208883E-01
1.41500000000E+09 +3.88201834176E-02 +8.56548167681E-01 +1.68722727259E-04 +6.58926732197E-05 +1.92848354521E-04 +8.42615581334E-05 -1.61894448892E-01 +8.88765874371E-01
1.42000000000E+09 +6.13290197492E-02 +8.50204015773E-01 +3.18847824013E-04 +7.59393262848E-05 +3.13517190403E-04 +1.35885190663E-04 -1.39169915818E-01 +8.86058908318E-01
1.42500000000E+09 +8.32906718591E-02 +8.42846454512E-01 +3.80481352771E-04 -5.60089473710E-05 +4.56130661034E-04 -1.03441903515E-04 -1.15623973825E-01 +8.82525290025E-01
1.43000000000E+09 +1.03732700499E-01 +8.34203438584E-01 +2.90259289496E-04 -2.05228893245E-04 +2.79662111119E-04 -2.46871141319E-04 -9.09655096145E-02 +8.77835724369E-01
1.43500000000E+09 +1.23299354835E-01 +8.24080360448E-01 +1.82599996496E-04 -1.69978189187E-04 +1.59776107432E-04 -1.61148369392E-04 -6.47072000633E-02 +8.71194897696E-01
1.44000000000E+09 +1.42527838607E-01 +8.12649231120E-01 +1.13342927708E-04 -1.05454095511E-05 +1.14304607629E-04 -2.38578494818E-06 -3.66743762473E-02 +8.62480517874E-01
1.44500000000E+09 +1.62964998539E-01 +7.98592975853E-01 +2.76104428885E-04 +1.21607964291E-04 +3.49982891857E-04 +1.24259952619E-04 -6.76231897601E-03 +8.51156563699E-01
1.45000000000E+09 +1.85485981105E-01 +7.80940470107E-01 +5.50213728688E-04 -8.00601581887E-05 +5.60990085309E-04 -1.01621376930E-04 +2.49830076823E-02 +8.36737760354E-01
1.45500000000E+09 +2.10673313260E-01 +7.59216968163E-01 +4.33989863993E-04 -1.56835832558E-04 +3.91939520533E-04 -1.77772672948E-04 +5.81656566758E-02 +8.19096233416E-01
1.46000000000E+09 +2.38335299350E-01 +7.32819458416E-01 +5.51812342398E-04 -9.39921946356E-05 +5.29662963339E-04 -1.15303908868E-04 +9.28224649559E-02 +7.97038645048E-01
1.46500000000E+09 +2.67694781733E-01 +7.01851064591E-01 +6.63190980659E-04 -3.62489370409E-04 +5.72334110717E-04 -3.37149890651E-04 +1.28224782245E-01 +7.70731254850E-01
1.47000000000E+09 +2.98342181509E-01 +6.66527663407E-01 +8.48152237952E-04 -4.17204480107E-04 +7.74516434341E-04 -3.38068401914E-04 +1.65312010427E-01 +7.37432799467E-01
1.47500000000E+09 +3.28604179833E-01 +6.25923024522E-01 +8.91604441562E-04 -9.14404161408E-04 +9.10384216662E-04 -8.33009174288E-04 +2.02157290519E-01 +6.96894380808E-01
1.48000000000E+09 +3.55896262052E-01 +5.79775473006E-01 +5.46240795109E-04 -1.17895946902E-03 +5.98689748968E-04 -1.13130961279E-03 +2.38800267173E-01 +6.47985883556E-01
1.48500000000E+09 +3.79056358926E-01 +5.27791062006E-01 +6.10677570662E-04 -1.19385791966E-03 +5.87962479486E-04 -1.23367929972E-03 +2.73107056809E-01 +5.89789060277E-01
1.49000000000E+09 +3.96187524134E-01 +4.69521060421E-01 +6.44250044714E-04 -1.54661225793E-03 +6.00812595634E-04 -1.63324923925E-03 +3.01839656854E-01 +5.20204820416E-01
1.49500000000E+09 +4.05877297220E-01 +4.03712179205E-01 +4.32718085533E-04 -2.59526427624E-03 +3.37158774968E-04 -2.51728773239E-03 +3.20560842102E-01 +4.40985537827E-01
1.50000000000E+09 +4.04827695042E-01 +3.29740974163E-01 -1.07602597266E-03 -3.22253497594E-03 -9.78350377389E-04 -3.03146936665E-03 +3.26133563880E-01 +3.51556902233E-01
1.50500000000E+09 +3.92383091639E-01 +2.49799023588E-01 -2.28597485715E-03 -2.64457734092E-03 -2.16753615828E-03 -2.66878193187E-03 +3.15401826165E-01 +2.55457708219E-01
1.51000000000E+09 +3.65887635066E-01 +1.63795060221E-01 -3.15039437202E-03 -1.77654164839E-03 -3.08820019112E-03 -1.84680602289E-03 +2.83745732235E-01 +1.54744890721E-01
1.51500000000E+09 +3.21758181943E-01 +7.59257943376E-02 -3.70633497568E-03 -1.04697170064E-03 -3.71332439548E-03 -1.15743867805E-03 +2.29868347312E-01 +5.64825602470E-02
1.52000000000E+09 +2.58667991964E-01 -6.67781174385E-03 -4.02326881136E-03 +7.22502113826E-04 -4.13162940033E-03 +6.64022740000E-04 +1.53088041766E-01 -3.06291859995E-02
1.52500000000E+09 +1.77765626721E-01 -7.76836981485E-02 -3.09736461252E-03 +1.23529292333E-03 -3.18329198437E-03 +1.27111750181E-03 +5.68435498382E-02 -9.95687998297E-02
1.53000000000E+09 +8.06404825430E-02 -1.28737413119E-01 -3.07836888621E-03 +1.98784434200E-03 -3.10880293201E-03 +2.05894197667E-03 -5.05288889550E-02 -1.43860576549E-01
1.53500000000E+09 -2.41564762993E-02 -1.55226876254E-01 -2.88662858578E-03 +2.87639433718E-03 -2.86466402313E-03 +2.90795775629E-03 -1.62991532770E-01 -1.64020222080E-01
1.54000000000E+09 -1.30890762511E-01 -1.57186872086E-01 -1.87832366982E-03 +3.98959211248E-03 -1.82262466713E-03 +3.95806126901E-03 -2.72109679087E-01 -1.60530304589E-01
1.54500000000E+09 -2.33142898523E-01 -1.35944270753E-01 -2.97009615771E-04 +4.64480919781E-03 -3.96886082643E-04 +4.61257100795E-03 -3.71768385221E-01 -1.36073954598E-01
1.55000000000E+09 -3.26903253290E-01 -9.69289497985E-02 +1.61645969730E-03 +3.82751324675E-03 +1.49929188186E-03 +3.85734467374E-03 -4.56656412464E-01 -9.75234123670E-02
1.55500000000E+09 -4.07322319241E-01 -4.32280873833E-02 +2.00255928151E-03 +2.88685954062E-03 +1.95210108023E-03 +3.04316146650E-03 -5.27487655870E-01 -4.96479223052E-02
1.56000000000E+09 -4.71928497499E-01 +1.59373853051E-02 +2.60819266698E-03 +1.93778682641E-03 +2.64747269294E-03 +2.09541772031E-03 -5.84379383431E-01 +4.08403885982E-03
1.56500000000E+09 -5.23631097365E-01 +7.60798828294E-02 +2.42861819079E-03 +1.13268460259E-03 +2.61219643461E-03 +1.20615429400E-03 -6.28241480975E-01 +6.04977519349E-02
1.57000000000E+09 -5.63073089797E-01 +1.35504917936E-01 +2.17207005944E-03 +5.38163744139E-04 +2.30135137511E-03 +5.12962390351E-04 -6.61282544424E-01 +1.16144588844E-01
