# Hz S RI R 50
! CMT, C1220, 16058040, 17.2.0/1
! Date: 14/08/2018 12:21:10
! Data: Format (Calibration Info)
! Freq                      S11: Re/Im (F2)                       S21: Re/Im (F2)                       S12: Re/Im (F2)                       S22: Re/Im (F2)            
1.00000000000E+09 -6.44514179102E-01 +7.15989462959E-01 -1.32413464677E-05 +1.99689777547E-06 +4.28126830811E-05 -1.37396010881E-05 -7.48056312858E-01 +6.24050336028E-01
1.00500000000E+09 -6.37312333338E-01 +7.21053692949E-01 +3.88837296519E-06 -3.52997807201E-05 -5.10302471932E-06 +1.54202420269E-05 -7.44421813794E-01 +6.28197170399E-01
1.01000000000E+09 -6.31284636303E-01 +7.25754801977E-01 -3.34764708293E-06 +2.36233571537E-05 -4.92921457867E-06 +7.48050885734E-07 -7.40869233978E-01 +6.31663350465E-01
1.01500000000E+09 -6.27173935089E-01 +7.29413531011E-01 -5.81239191365E-05 +4.58402437332E-05 +2.24095843789E-05 +4.59350881262E-05 -7.37709412556E-01 +6.35455489904E-01
1.02000000000E+09 -6.24582831188E-01 +7.32679039473E-01 -3.42417373192E-05 +3.65094073282E-05 -5.51821255214E-05 +2.51211199202E-05 -7.34177951011E-01 +6.38986022782E-01
1.02500000000E+09 -6.23088973100E-01 +7.35248298858E-01 +2.50669272736E-05 +1.11065002985E-06 -1.33554495679E-05 +1.65253791408E-05 -7.31325137220E-01 +6.42624106299E-01
1.03000000000E+09 -6.21902600672E-01 +7.37547192922E-01 +1.79240480184E-05 -2.27896605035E-06 -2.49626871760E-05 +1.14230764649E-05 -7.27881727866E-01 +6.46397054764E-01
1.03500000000E+09 -6.19752810659E-01 +7.39713915897E-01 -5.73499554517E-07 -1.15291541559E-05 +1.71288949534E-05 +1.88016711527E-05 -7.24031609572E-01 +6.50397359789E-01
1.04000000000E+09 -6.16394266025E-01 +7.42535920839E-01 +6.16002640658E-05 -8.95387372054E-06 +4.54256592664E-05 +1.41189530772E-05 -7.20280468069E-01 +6.53956583351E-01
1.04500000000E+09 -6.11128695146E-01 +7.45777857259E-01 -1.20516914207E-05 +4.90426685319E-05 +1.19525528388E-05 +5.39706058622E-06 -7.16614277994E-01 +6.57426403369E-01
1.05000000000E+09 -6.03974843599E-01 +7.50003621495E-01 +6.58894514361E-06 +3.51414637309E-05 -2.75445082487E-05 -2.21662227322E-05 -7.13424214308E-01 +6.60785154236E-01
1.05500000000E+09 -5.95288728280E-01 +7.54530686378E-01 -7.09972458705E-06 -4.75586780909E-06 +1.88608981072E-05 +3.01820245145E-05 -7.10246975795E-01 +6.64429584331E-01
1.06000000000E+09 -5.85889853303E-01 +7.59769355374E-01 +1.84357355027E-05 +3.23933213976E-05 +1.55179901245E-05 +2.64096544609E-05 -7.06929153643E-01 +6.68123505332E-01
1.06500000000E+09 -5.76586384457E-01 +7.64840985152E-01 +1.37336057546E-05 +3.73490126470E-05 +3.36430675966E-06 +2.12106228218E-05 -7.03144482564E-01 +6.71931741611E-01
1.07000000000E+09 -5.68552537839E-01 +7.69214593850E-01 +1.05304228014E-05 +3.92711584803E-05 +9.84639385601E-06 +8.60016502646E-07 -6.99164218665E-01 +6.75679356398E-01
1.07500000000E+09 -5.62247741539E-01 +7.73251117938E-01 +6.51033167333E-05 -8.44700318714E-06 +2.64052049455E-05 -2.75923747079E-05 -6.94738721447E-01 +6.79258755316E-01
1.08000000000E+09 -5.57987282303E-01 +7.76396856748E-01 -6.59458065865E-06 +2.47046424635E-05 -2.56653529178E-05 +6.15397713926E-06 -6.90722074734E-01 +6.83123133228E-01
1.08500000000E+09 -5.55161021278E-01 +7.78854887338E-01 +1.11843537794E-05 +1.22790965947E-05 +4.18274225518E-05 -3.30945514324E-05 -6.86815395854E-01 +6.86776689232E-01
1.09000000000E+09 -5.53115940597E-01 +7.81052147843E-01 -8.13132397811E-06 -4.51384108296E-06 +2.69884093083E-05 +1.84614499503E-05 -6.82891883311E-01 +6.90405537821E-01
1.09500000000E+09 -5.51175404715E-01 +7.82837898051E-01 +3.29126922031E-05 -7.66746721855E-05 +2.16089244400E-05 +1.10200166708E-05 -6.79079584351E-01 +6.94531485412E-01
1.10000000000E+09 -5.48297958255E-01 +7.84832394369E-01 +5.97319204281E-05 -4.21489663435E-05 +1.08314314331E-05 -1.77821511038E-05 -6.75091528317E-01 +6.98138907350E-01
1.10500000000E+09 -5.44179143813E-01 +7.87384194673E-01 +8.17128487817E-06 -5.09654697689E-05 +4.59552753830E-06 -7.57732414766E-05 -6.70961714375E-01 +7.01796554750E-01
1.11000000000E+09 -5.38351860827E-01 +7.90587825402E-01 +2.00850170520E-05 +1.32434096793E-05 +4.58089591677E-05 -5.89421511724E-06 -6.66584513109E-01 +7.05288783310E-01
1.11500000000E+09 -5.31245718932E-01 +7.94450690047E-01 +5.71621783040E-05 -8.48417266561E-06 -2.45117065820E-05 -2.23740339854E-05 -6.62568032725E-01 +7.08371378228E-01
1.12000000000E+09 -5.23127743985E-01 +7.98407117693E-01 -4.55885350311E-06 +1.81164666050E-06 -1.71108145606E-05 -1.97652071462E-06 -6.58600422555E-01 +7.12189966857E-01
1.12500000000E+09 -5.14874464128E-01 +8.02285338011E-01 +1.20753772629E-05 +4.97624816910E-06 +3.43688718684E-05 -2.91639717145E-05 -6.54367123320E-01 +7.16103896200E-01
1.13000000000E+09 -5.07301945103E-01 +8.06042941260E-01 +1.68798859455E-05 -2.34570420723E-05 -1.78969670025E-05 +4.12290995355E-07 -6.50085977998E-01 +7.19720696428E-01
1.13500000000E+09 -5.00985091911E-01 +8.08869575819E-01 -2.10882320231E-05 -7.35928758803E-05 +6.47727364969E-06 -1.72738590180E-05 -6.45559010480E-01 +7.23485237498E-01
1.14000000000E+09 -4.95620638201E-01 +8.11525271909E-01 +1.83902768455E-05 -2.02186501989E-05 +4.28541546193E-05 -1.11782283791E-05 -6.40798866728E-01 +7.26920907002E-01
1.14500000000E+09 -4.91528590735E-01 +8.13039239905E-01 -1.80333515113E-05 -9.29568259421E-06 -3.33828309446E-05 +1.36980998426E-06 -6.36235734470E-01 +7.30282824261E-01
1.15000000000E+09 -4.87832519140E-01 +8.14564760716E-01 -8.69451210056E-06 -3.25733603753E-05 +3.03069262702E-05 -2.44799968294E-05 -6.31698453037E-01 +7.34134852846E-01
1.15500000000E+09 -4.84060290350E-01 +8.16193147914E-01 -4.24214336386E-05 +3.71841025138E-06 +9.59348619562E-06 -3.13149740140E-05 -6.26698823334E-01 +7.37883304415E-01
1.16000000000E+09 -4.79085340545E-01 +8.17918298359E-01 -2.11968960529E-05 -3.44683100397E-05 -9.41854713490E-06 -6.72521133269E-06 -6.22018297041E-01 +7.41685315595E-01
1.16500000000E+09 -4.73078337343E-01 +8.20509436096E-01 +1.58076587327E-05 -1.54140756909E-05 -3.18284105624E-05 -3.63519690583E-05 -6.16905252575E-01 +7.45228243858E-01
1.17000000000E+09 -4.65998930329E-01 +8.23707474432E-01 +5.31659044062E-06 +1.25145169356E-05 +6.76975828023E-05 -3.20738995758E-05 -6.11420267138E-01 +7.48527890033E-01
1.17500000000E+09 -4.57901586444E-01 +8.26819626002E-01 +7.17033089884E-06 -1.89158325213E-05 -8.11895504657E-06 -5.59148677692E-05 -6.05722693026E-01 +7.51734891234E-01
1.18000000000E+09 -4.49727159740E-01 +8.30408063698E-01 -2.06509919509E-05 -5.34263646030E-05 +8.00299574725E-06 -3.31505728264E-05 -6.00291134102E-01 +7.54883693617E-01
1.18500000000E+09 -4.41547311681E-01 +8.33564625417E-01 +2.78100232174E-06 -7.81820176714E-05 -2.48761962089E-05 -9.93926572444E-05 -5.94364320150E-01 +7.57752656093E-01
1.19000000000E+09 -4.34333948370E-01 +8.36318712871E-01 -8.81468244328E-06 -7.70145033107E-05 +9.56063461983E-06 -9.60303634756E-06 -5.88203619532E-01 +7.60488350534E-01
1.19500000000E+09 -4.28363223476E-01 +8.38395792135E-01 -3.52028701327E-05 -8.28665694224E-05 -6.83319473306E-05 -9.57202536619E-05 -5.82402657262E-01 +7.61680041367E-01
1.20000000000E+09 -4.23261729067E-01 +8.39241277386E-01 -1.29910129152E-04 -2.55425504751E-05 -9.89501579228E-05 -2.44309288879E-05 -5.77979963794E-01 +7.61882360879E-01
1.20500000000E+09 -4.18852387678E-01 +8.40370309024E-01 -1.13544341163E-04 +4.36558534333E-05 -9.47148976422E-05 +1.03463032870E-04 -5.75649639993E-01 +7.62959353620E-01
1.21000000000E+09 -4.14100408014E-01 +8.41250880078E-01 -4.71295265169E-05 +4.99108298145E-05 -5.94629613629E-05 +1.19289735335E-05 -5.73687132846E-01 +7.65839875942E-01
1.21500000000E+09 -4.08082048549E-01 +8.42480927416E-01 -7.06399477463E-06 +6.37822343065E-05 -6.85652031683E-06 +6.66042422228E-05 -5.70822886267E-01 +7.70431160971E-01
1.22000000000E+09 -4.00523751328E-01 +8.44056791075E-01 -4.95312915822E-05 +5.21312731098E-05 -2.02248169159E-05 +6.35673871177E-05 -5.66823661021E-01 +7.75599245885E-01
1.22500000000E+09 -3.91185043294E-01 +8.46398747207E-01 -3.30910741255E-05 +4.75341226101E-05 +1.89788941395E-05 +1.87675014438E-05 -5.61707220950E-01 +7.80776526276E-01
1.23000000000E+09 -3.80524297276E-01 +8.49328362407E-01 +3.16126201465E-05 +2.68609070160E-06 -1.15322586071E-05 +1.34315326715E-05 -5.55910688593E-01 +7.85338909599E-01
1.23500000000E+09 -3.69566752057E-01 +8.52683521665E-01 -1.10623486310E-06 +3.10018916718E-05 +1.59394058938E-05 +1.97403197644E-05 -5.50206731427E-01 +7.89626315468E-01
1.24000000000E+09 -3.58501583187E-01 +8.56416067723E-01 +3.07134703978E-05 -4.70467605496E-06 +2.51651020965E-05 +1.60361721319E-05 -5.44183883018E-01 +7.93520753573E-01
1.24500000000E+09 -3.48776719984E-01 +8.60156467422E-01 -6.54478614361E-06 -3.58355717318E-05 -1.27040657722E-05 +4.20213297640E-06 -5.37868130903E-01 +7.97217450210E-01
1.25000000000E+09 -3.40083302010E-01 +8.63274228626E-01 -2.41470728398E-05 -2.70494977166E-05 -3.83933328026E-05 -9.22719831601E-06 -5.31260850711E-01 +8.01357466676E-01
1.25500000000E+09 -3.33265383300E-01 +8.65749633471E-01 -3.29577529530E-05 +1.44461891112E-05 -1.46551551213E-05 -2.92883433588E-05 -5.24474229160E-01 +8.05458041616E-01
1.26000000000E+09 -3.27608886729E-01 +8.67385152467E-01 -3.10508865052E-05 -1.84212585620E-05 -4.22754740871E-05 -4.68881350021E-05 -5.17877047968E-01 +8.09717650223E-01
1.26500000000E+09 -3.22796876549E-01 +8.68590953604E-01 -3.66618728978E-05 -2.11209253502E-05 -4.46016695086E-05 -3.21085536352E-05 -5.10823110149E-01 +8.13494435058E-01
1.27000000000E+09 -3.17547732424E-01 +8.69369712891E-01 -6.78450398092E-05 +2.97622616311E-05 -5.52389703076E-05 +1.06719031850E-05 -5.04017391584E-01 +8.17357855850E-01
1.27500000000E+09 -3.11209877578E-01 +8.70417102963E-01 -7.67224091255E-05 -1.44482076645E-06 -9.17972050517E-05 +6.96981160337E-05 -4.97010105752E-01 +8.20823536723E-01
1.28000000000E+09 -3.02990500645E-01 +8.71621915708E-01 -6.48557857830E-05 +3.63093136933E-05 -5.21632755307E-05 +5.69402930396E-05 -4.90040358553E-01 +8.24329799568E-01
1.28500000000E+09 -2.92530534547E-01 +8.73389276198E-01 -7.63040604977E-05 +4.02606148353E-05 -3.36259556440E-05 +5.00163913470E-05 -4.82675878466E-01 +8.27852485180E-01
1.29000000000E+09 -2.80802620764E-01 +8.75538187730E-01 -4.11872516762E-05 +5.69804737205E-05 -4.13083247207E-05 +5.99187734799E-05 -4.75136986801E-01 +8.31554862851E-01
1.29500000000E+09 -2.68417567697E-01 +8.78418237482E-01 -6.92769379719E-05 +4.51271323692E-05 -2.36284296583E-05 +4.28918980517E-05 -4.67370008818E-01 +8.34892722660E-01
1.30000000000E+09 -2.55945134556E-01 +8.81612954619E-01 -5.87455400219E-05 +7.52086023328E-05 -3.09030275689E-05 +8.80809885826E-05 -4.59670076225E-01 +8.38540592130E-01
1.30500000000E+09 -2.44494201303E-01 +8.84528460492E-01 -6.40350726313E-05 +1.00672156125E-04 -5.36529680086E-05 +9.25524144340E-05 -4.51610570967E-01 +8.41912017494E-01
1.31000000000E+09 -2.34327241777E-01 +8.86782105011E-01 -2.71172753966E-05 +1.07351468124E-04 -2.88935345804E-06 +1.23619817631E-04 -4.43444809897E-01 +8.45297717505E-01
1.31500000000E+09 -2.26293370763E-01 +8.88106861905E-01 +1.23557161818E-05 +1.40598695685E-04 +2.71921361786E-05 +1.03893228398E-04 -4.34555455466E-01 +8.48838396415E-01
1.32000000000E+09 -2.19820571238E-01 +8.88767772490E-01 +5.03816876276E-05 +5.35494331026E-05 +1.28405420274E-05 +6.45826112431E-05 -4.25497314002E-01 +8.52256667033E-01
1.32500000000E+09 -2.13879474801E-01 +8.88434349822E-01 +2.28480058440E-05 +1.13859693314E-04 +5.24289718787E-05 +7.94383260892E-05 -4.16110697764E-01 +8.55608042925E-01
1.33000000000E+09 -2.07120667193E-01 +8.87808584333E-01 +7.69524076668E-05 +1.36887915723E-04 +2.23697102748E-05 +1.32690105717E-04 -4.06407190204E-01 +8.59043748906E-01
1.33500000000E+09 -1.98541520228E-01 +8.86805082817E-01 +6.89897222857E-05 +1.23757389294E-04 +1.08439620570E-04 +8.53363591535E-05 -3.96662933461E-01 +8.62300375353E-01
1.34000000000E+09 -1.87737197187E-01 +8.85917484688E-01 +7.48660919529E-05 +1.30911346114E-04 +9.41352084853E-05 +9.15367916966E-05 -3.86488085515E-01 +8.65583194012E-01
1.34500000000E+09 -1.74189452633E-01 +8.85252699460E-01 +8.21642350196E-05 +6.40799198530E-05 +9.85324468580E-05 +5.32925112521E-05 -3.75666445516E-01 +8.68986952269E-01
1.35000000000E+09 -1.58813917770E-01 +8.84981160983E-01 +8.25823691868E-05 +2.94659438540E-05 +5.34886300896E-05 +2.94362542106E-05 -3.64557190301E-01 +8.72066820348E-01
1.35500000000E+09 -1.42090815416E-01 +8.85057576339E-01 +2.86544627070E-05 +2.94358698054E-05 +7.03667046316E-05 +7.04562462313E-05 -3.52988785315E-01 +8.74886746278E-01
1.36000000000E+09 -1.25220238308E-01 +8.85654336389E-01 +3.95206080546E-05 +3.79152136547E-05 +7.65189598865E-05 +2.76675342175E-05 -3.41181435318E-01 +8.77656096929E-01
1.36500000000E+09 -1.09165620893E-01 +8.86200820853E-01 +4.98909583898E-05 +2.23060838915E-05 +5.37036434847E-05 +6.02003249027E-05 -3.28893849058E-01 +8.80112375560E-01
1.37000000000E+09 -9.46896816957E-02 +8.86177178215E-01 +3.75902776046E-05 +5.27945278747E-05 +3.15068828469E-05 +3.73594276919E-05 -3.16112726779E-01 +8.82450160151E-01
1.37500000000E+09 -8.23129294413E-02 +8.85576022833E-01 +6.19730325913E-05 +6.96985103697E-05 +3.76634172830E-05 +1.07812330395E-04 -3.02448784407E-01 +8.84677246361E-01
1.38000000000E+09 -7.14335355503E-02 +8.84548471465E-01 +1.51627599752E-04 +1.15892331155E-04 +1.11569488982E-04 +1.07666915693E-04 -2.87929812961E-01 +8.86956500558E-01
1.38500000000E+09 -6.04883424451E-02 +8.82760423240E-01 +1.76105891613E-04 +5.42240559429E-05 +1.81656813940E-04 +9.95625211478E-05 -2.72285339603E-01 +8.88730729377E-01
1.39000000000E+09 -4.89553912879E-02 +8.79982235670E-01 +1.92976075102E-04 +8.17315443368E-05 +1.69849383456E-04 +6.52030322271E-05 -2.56449932111E-01 +8.90208849118E-01
1.39500000000E+09 -3.54677660388E-02 +8.76387974420E-01 +2.49518569793E-04 +3.71580983422E-05 +2.42023568902E-04 +2.09824072204E-05 -2.39638233599E-01 +8.90920339882E-01
1.40000000000E+09 -1.92988057925E-02 +8.71840994366E-01 +2.40364645536E-04 -3.46427416344E-05 +2.41639305306E-04 -8.63919029623E-05 -2.22112977799E-01 +8.91532268654E-01
1.40500000000E+09 -8.32124581651E-04 +8.66535375523E-01 +1.67380917452E-04 -1.07379513727E-04 +1.57186274483E-04 -1.01818830136E-04 -2.03417624375E-01 +8.91432580433E-01
1.41000000000E+09 +1.96447913350E-02 +8.60940502805E-01 +1.64854397090E-04 -5.45857152428E-05 +1.73290440188E-04 -5.40659386461E-05 -1.83085915822E-01 +8.90625198838E-01
1.41500000000E+09 +4.16294247552E-02 +8.55232578532E-01 +1.90276071118E-04 -5.27887956947E-05 +1.77752817792E-04 -6.00729567503E-05 -1.61520425046E-01 +8.89092281425E-01
1.42000000000E+09 +6.41245186769E-02 +8.48954670158E-01 +2.26323135327E-04 -1.92429248939E-05 +2.52470009791E-04 +6.95310926521E-06 -1.38646289339E-01 +8.86422161665E-01
1.42500000000E+09 +8.60967340227E-02 +8.41737484019E-01 +3.20636570071E-04 -2.12084218864E-04 +3.44834549860E-04 -2.16308311955E-04 -1.15005982753E-01 +8.82868999731E-01
1.43000000000E+09 +1.06669816682E-01 +8.33242315949E-01 +1.61359727344E-04 -2.68589747261E-04 +1.50844033847E-04 -3.20817029257E-04 -9.00764002916E-02 +8.78180976059E-01
1.43500000000E+09 +1.26167731523E-01 +8.23456428828E-01 +9.67216341096E-05 -2.66819546764E-04 +4.13875137754E-05 -2.66134604599E-04 -6.36953957037E-02 +8.71506075770E-01
1.44000000000E+09 +1.45432080565E-01 +8.12178346883E-01 +5.72033419151E-05 -1.63235613148E-04 +2.62966664167E-05 -1.69557277672E-04 -3.55262418388E-02 +8.62614750174E-01
1.44500000000E+09 +1.66167801865E-01 +7.98101370161E-01 +1.44028931334E-04 -7.69578560467E-05 +1.04789243801E-04 -4.23338624892E-05 -5.46152702687E-03 +8.51196208696E-01
1.45000000000E+09 +1.88673872274E-01 +7.80753440237E-01 +3.25115147957E-04 -2.46742537000E-04 +3.03661027189E-04 -2.08747491777E-04 +2.66242537329E-02 +8.36454758620E-01
1.45500000000E+09 +2.14179548588E-01 +7.59174093247E-01 +2.45497450427E-04 -2.52496591587E-04 +2.30893706553E-04 -3.07326268323E-04 +6.02932573744E-02 +8.18523271040E-01
1.46000000000E+09 +2.42016987581E-01 +7.32944289645E-01 +3.90399287222E-04 -2.96685317525E-04 +3.51465725546E-04 -3.32432216274E-04 +9.50916821308E-02 +7.96065735251E-01
1.46500000000E+09 +2.71558670997E-01 +7.02492756242E-01 +3.15561477279E-04 -6.50595706339E-04 +2.51660987993E-04 -6.03802939646E-04 +1.30662104565E-01 +7.69134890890E-01
1.47000000000E+09 +3.02934040684E-01 +6.67679713014E-01 +2.72867643633E-04 -6.37719926472E-04 +2.62499099013E-04 -6.27337520072E-04 +1.67590421689E-01 +7.34937318598E-01
1.47500000000E+09 +3.33868584416E-01 +6.27347572926E-01 +7.37577305842E-05 -9.53235870520E-04 +1.40490347576E-04 -9.13268835383E-04 +2.04342936060E-01 +6.93389461067E-01
1.48000000000E+09 +3.62543505928E-01 +5.81560220995E-01 -2.02810205155E-04 -8.05351537909E-04 -1.05625906525E-04 -8.86025646892E-04 +2.40405384364E-01 +6.43242593026E-01
1.48500000000E+09 +3.87179979001E-01 +5.29326865897E-01 -5.04590871189E-05 -8.84998234946E-04 -9.19441138386E-05 -8.68732366589E-04 +2.73651890677E-01 +5.83889783995E-01
1.49000000000E+09 +4.05677418712E-01 +4.70106884304E-01 -7.11863083140E-05 -1.22306287712E-03 -1.10591225794E-04 -1.25408098764E-03 +3.00520592335E-01 +5.13563865222E-01
1.49500000000E+09 +4.16123366401E-01 +4.03343965713E-01 -5.53373361587E-04 -1.93326267942E-03 -6.08062533414E-04 -1.82189483939E-03 +3.16961264216E-01 +4.34196155975E-01
1.50000000000E+09 +4.16770512011E-01 +3.28655502735E-01 -1.83586011898E-03 -1.93320590966E-03 -1.75684568384E-03 -1.86865361653E-03 +3.20687323165E-01 +3.45623326655E-01
1.50500000000E+09 +4.05747066585E-01 +2.46339633491E-01 -2.71646062758E-03 -1.05479032470E-03 -2.63998626414E-03 -1.06609514731E-03 +3.07808391229E-01 +2.50574024528E-01
1.51000000000E+09 +3.79812373497E-01 +1.57304945475E-01 -3.07654203589E-03 +9.37856955430E-05 -3.11433887998E-03 +2.77873321695E-05 +2.74249277644E-01 +1.52006651390E-01
1.51500000000E+09 +3.35305080554E-01 +6.61571039568E-02 -2.91795884143E-03 +8.59434437515E-04 -2.95598124391E-03 +8.60564714186E-04 +2.19680102489E-01 +5.68379223390E-02
1.52000000000E+09 +2.70528476052E-01 -1.99625717871E-02 -2.64049823731E-03 +2.23997992379E-03 -2.78021746135E-03 +2.22229795378E-03 +1.42742676710E-01 -2.68810370693E-02
1.52500000000E+09 +1.86359674197E-01 -9.35335046955E-02 -1.31488080050E-03 +2.35548078061E-03 -1.34880474310E-03 +2.44361469217E-03 +4.85576641731E-02 -9.24516096819E-02
1.53000000000E+09 +8.57947576203E-02 -1.45832763545E-01 -9.13571716835E-04 +2.36097992934E-03 -1.02090170391E-03 +2.40756557542E-03 -5.59274277221E-02 -1.35087821804E-01
1.53500000000E+09 -2.28609990757E-02 -1.72780627878E-01 -9.16287142380E-04 +2.82530845900E-03 -9.01257996299E-04 +2.82655989069E-03 -1.65548825012E-01 -1.54613740433E-01
1.54000000000E+09 -1.33237984478E-01 -1.73895770521E-01 +1.12578258355E-04 +3.42460868877E-03 +9.90989762275E-05 +3.43282854891E-03 -2.71801507125E-01 -1.51148788638E-01
1.54500000000E+09 -2.38991721658E-01 -1.51077691201E-01 +1.55187615731E-03 +3.44415417549E-03 +1.50412627773E-03 +3.47070368875E-03 -3.68749914356E-01 -1.27933745051E-01
1.55000000000E+09 -3.35354948633E-01 -1.08873192873E-01 +2.68166447976E-03 +2.19314973503E-03 +2.66011914200E-03 +2.33731655527E-03 -4.52232220016E-01 -9.14205671160E-02
1.55500000000E+09 -4.16993534589E-01 -5.21723933405E-02 +2.78968309743E-03 +9.86134935643E-04 +2.82676255130E-03 +1.12503965174E-03 -5.22390612433E-01 -4.54164703430E-02
1.56000000000E+09 -4.82619359163E-01 +1.01013198794E-02 +2.39270909084E-03 +1.73117481121E-04 +2.58054573799E-03 +2.10175117067E-04 -5.79239304239E-01 +6.98850439241E-03
1.56500000000E+09 -5.33376221422E-01 +7.35777432800E-02 +2.08424036005E-03 -6.44445975691E-05 +2.21171581698E-03 -2.54545305260E-05 -6.23149701511E-01 +6.22488304047E-02
1.57000000000E+09 -5.71821237089E-01 +1.34708997620E-01 +1.91864870585E-03 -5.69377373967E-04 +2.08157751141E-03 -6.55642982841E-04 -6.56033752914E-01 +1.16817385488E-01
