# Hz S RI R 50
! CMT, C1220, 16058040, 17.2.0/1
! Date: 14/08/2018 12:24:10
! Data: Format (Calibration Info)
! Freq                      S11: Re/Im (F2)                       S21: Re/Im (F2)                       S12: Re/Im (F2)                       S22: Re/Im (F2)            
1.00000000000E+09 -6.45860115977E-01 +7.15522573664E-01 +8.43732524233E-06 -2.16197555051E-05 +6.30482540886E-05 +1.90451368058E-05 -7.47914825369E-01 +6.24338761034E-01
1.00500000000E+09 -6.38715662557E-01 +7.20676924555E-01 -7.07108989732E-06 +8.01884141177E-06 +1.68904014867E-05 +2.16851046068E-05 -7.44212067432E-01 +6.28137127320E-01
1.01000000000E+09 -6.32838204268E-01 +7.25210352073E-01 -3.17533690228E-05 +3.35127945677E-05 -2.44105993347E-05 +6.89109192403E-06 -7.40651375160E-01 +6.32066062709E-01
1.01500000000E+09 -6.28702803633E-01 +7.28957977521E-01 +1.19856051873E-05 -1.74514207959E-05 +4.10262398242E-05 -3.35584989257E-05 -7.37331725980E-01 +6.35670206031E-01
1.02000000000E+09 -6.26229646955E-01 +7.32199201796E-01 -5.62205454096E-06 +4.85735767462E-05 +4.69077913274E-05 +1.77437438039E-05 -7.33981873806E-01 +6.39215252580E-01
1.02500000000E+09 -6.24563397802E-01 +7.34702416103E-01 +2.84899343924E-05 -2.22423697881E-05 -1.11412140120E-05 +1.45327167171E-06 -7.31229643033E-01 +6.42794248653E-01
1.03000000000E+09 -6.23640697497E-01 +7.37063087555E-01 -1.45521020971E-05 +9.19078257550E-06 -1.07978971698E-05 +3.93001922138E-05 -7.27654549432E-01 +6.46584746125E-01
1.03500000000E+09 -6.21609900530E-01 +7.39191380615E-01 -2.74678981693E-06 +1.91155251488E-05 +2.22404240875E-05 -1.59925926035E-05 -7.23895795627E-01 +6.50692745007E-01
1.04000000000E+09 -6.18294388236E-01 +7.42036100915E-01 +3.28246866253E-05 -9.67729814866E-06 -2.65957453313E-05 +4.96301464347E-05 -7.20128468669E-01 +6.54280215331E-01
1.04500000000E+09 -6.13129109771E-01 +7.45423917135E-01 +2.97665766276E-05 -4.93928991874E-07 +1.89374053570E-05 +4.19627781044E-06 -7.16636285261E-01 +6.57655010932E-01
1.05000000000E+09 -6.05742525498E-01 +7.49583163789E-01 +2.27840787436E-05 +4.17015831383E-05 +2.58651905587E-05 -6.84176752062E-06 -7.13134046881E-01 +6.61270365001E-01
1.05500000000E+09 -5.97158139271E-01 +7.54252828652E-01 -1.76402520829E-06 +1.87098055205E-05 +2.30247642262E-05 +2.76239245604E-05 -7.09923086559E-01 +6.64614213376E-01
1.06000000000E+09 -5.87849460390E-01 +7.59352045320E-01 +2.64520450866E-06 +5.49955496105E-06 +5.50584558565E-05 -2.11488876492E-06 -7.06594853013E-01 +6.68485067925E-01
1.06500000000E+09 -5.78675030034E-01 +7.64469852760E-01 +5.58794790130E-05 -4.45198132148E-05 +6.62534296989E-05 +1.67567602223E-05 -7.02738447014E-01 +6.72309872160E-01
1.07000000000E+09 -5.70790906656E-01 +7.68939257825E-01 -4.50372143939E-05 -1.59268760494E-06 +7.20645989409E-07 +4.32311122187E-05 -6.98729970446E-01 +6.76000631045E-01
1.07500000000E+09 -5.64599788518E-01 +7.72750698210E-01 +3.63432990423E-05 -2.79256044710E-05 +3.07626486657E-06 -2.36722520178E-06 -6.94480621309E-01 +6.79501521944E-01
1.08000000000E+09 -5.60304182174E-01 +7.76080291285E-01 +5.54946863230E-05 -1.82624636065E-05 +3.76436783641E-05 -3.41168530594E-05 -6.90412263584E-01 +6.83287195310E-01
1.08500000000E+09 -5.57486791549E-01 +7.78475092568E-01 +3.35897888314E-05 +3.31200674785E-05 +1.69205269179E-05 -8.67846593060E-06 -6.86490439260E-01 +6.87024770439E-01
1.09000000000E+09 -5.55396593798E-01 +7.80461061921E-01 +5.24277489044E-05 -4.05682133780E-05 +5.92874304095E-05 +6.08434522391E-06 -6.82703122905E-01 +6.90805319359E-01
1.09500000000E+09 -5.53830324637E-01 +7.82112903893E-01 -1.25109646091E-05 -8.62557972469E-06 +4.26262931257E-05 +2.08898984513E-06 -6.78943986005E-01 +6.94684596574E-01
1.10000000000E+09 -5.50800581916E-01 +7.84295883303E-01 +5.31675555659E-05 -7.43783261113E-06 +2.71384054471E-05 -1.58486138290E-05 -6.74821496599E-01 +6.98538191403E-01
1.10500000000E+09 -5.46716276711E-01 +7.86746545655E-01 +4.22081554491E-06 -5.49758102622E-05 +2.14657884846E-05 +3.08020306624E-05 -6.70578441926E-01 +7.01871181409E-01
1.11000000000E+09 -5.40973625884E-01 +7.90127139219E-01 +2.33512722003E-05 +3.93508715626E-05 +1.38513146516E-05 +1.06486343272E-05 -6.66369235745E-01 +7.05283960300E-01
1.11500000000E+09 -5.33800037933E-01 +7.93993348973E-01 +2.55897678367E-06 -3.41178563124E-05 -6.04892335177E-06 -3.64844413080E-06 -6.62236711572E-01 +7.08692625580E-01
1.12000000000E+09 -5.25830251835E-01 +7.97924066035E-01 -2.13684317829E-05 -6.15665203083E-05 +1.51733243849E-05 -2.55516099846E-06 -6.58221719607E-01 +7.12351796911E-01
1.12500000000E+09 -5.17760102920E-01 +8.01967423011E-01 +7.26473308022E-06 -2.91972152183E-05 +4.57230822615E-05 -9.22143377896E-07 -6.53870453603E-01 +7.16298209392E-01
1.13000000000E+09 -5.10382682991E-01 +8.05721144871E-01 -9.95067022239E-06 -7.76751617490E-06 +5.62597094642E-06 -3.71591501558E-05 -6.49686552003E-01 +7.19834341405E-01
1.13500000000E+09 -5.03863044063E-01 +8.08593458733E-01 +1.57029926126E-05 -8.43716425928E-06 -2.07593404439E-05 -3.17224761879E-05 -6.45256315260E-01 +7.23758352479E-01
1.14000000000E+09 -4.98606173565E-01 +8.11145717864E-01 -2.58672244902E-05 -1.13596528296E-05 -2.26657060503E-05 -7.95303241327E-05 -6.40552698373E-01 +7.27073769459E-01
1.14500000000E+09 -4.94626995014E-01 +8.12790458638E-01 +7.79543119667E-08 -3.30285693536E-05 -1.67047871763E-05 -3.46547105707E-05 -6.35815325471E-01 +7.30498203776E-01
1.15000000000E+09 -4.90855304853E-01 +8.14195562023E-01 -1.13771234041E-05 +4.19493852402E-05 +3.07388995744E-05 -2.68867657607E-05 -6.31267756170E-01 +7.34161745621E-01
1.15500000000E+09 -4.87064852325E-01 +8.16026896865E-01 +1.47714416782E-05 -2.40191048530E-05 +3.13743976422E-07 -7.21802382037E-05 -6.26589414054E-01 +7.38107526437E-01
1.16000000000E+09 -4.82265864733E-01 +8.17694896454E-01 -1.71448923981E-05 -2.80400365955E-05 -2.52614965131E-05 -4.39849305677E-05 -6.21717943049E-01 +7.41895161749E-01
1.16500000000E+09 -4.76548460694E-01 +8.20389811712E-01 -1.06325923127E-05 -7.67010723474E-07 +2.78078934228E-05 -2.01943295445E-05 -6.16639946967E-01 +7.45360602683E-01
1.17000000000E+09 -4.69478792998E-01 +8.23417808920E-01 +1.52104707616E-05 -5.10877117753E-05 +4.42868272937E-05 -2.24900981380E-05 -6.11185883182E-01 +7.48707747751E-01
1.17500000000E+09 -4.61363802993E-01 +8.26737959253E-01 +4.95435763916E-06 -3.83013826848E-05 +1.37512318244E-05 -3.49804765102E-05 -6.05569526924E-01 +7.52013512622E-01
1.18000000000E+09 -4.53206768728E-01 +8.30278430947E-01 -1.62699837920E-05 -2.87546191948E-05 -2.63936131885E-05 -6.13845801576E-05 -6.00039987976E-01 +7.55115333902E-01
1.18500000000E+09 -4.45246154466E-01 +8.33570559224E-01 -5.43867939931E-05 -7.21150124348E-05 +6.86035581950E-06 -5.26659037204E-05 -5.94110076624E-01 +7.58119363846E-01
1.19000000000E+09 -4.38145567897E-01 +8.36246240344E-01 -4.96003488845E-05 -6.13828555621E-05 -1.14230909072E-05 -7.87063763740E-05 -5.87978461271E-01 +7.60685964345E-01
1.19500000000E+09 -4.32205358567E-01 +8.38319860206E-01 -5.23435251371E-05 -8.82450713097E-05 -3.47281935951E-05 -6.74967053461E-05 -5.81903393053E-01 +7.61965616514E-01
1.20000000000E+09 -4.27288549662E-01 +8.39301909364E-01 -1.07308915487E-04 -3.87029760102E-05 -1.00537937231E-04 -3.51526428509E-05 -5.77461566253E-01 +7.62224180345E-01
1.20500000000E+09 -4.22929762992E-01 +8.40237367492E-01 -1.10950858222E-04 +2.04034561271E-05 -5.17218318249E-05 +3.47408059608E-05 -5.75134996528E-01 +7.63026816535E-01
1.21000000000E+09 -4.18405907944E-01 +8.41278625025E-01 -4.28121479540E-05 -2.12703325331E-07 -5.24981260609E-05 -3.59636123387E-06 -5.73299456091E-01 +7.66109092952E-01
1.21500000000E+09 -4.12454200337E-01 +8.42615848707E-01 -1.09679603196E-04 +2.81238099645E-05 -4.73055154167E-05 +2.98120465981E-05 -5.70610763110E-01 +7.70601277873E-01
1.22000000000E+09 -4.04823240935E-01 +8.44179504791E-01 -1.26595685575E-05 +6.60676858750E-05 -3.16534048408E-05 +2.68460739411E-05 -5.66338219096E-01 +7.75896759575E-01
1.22500000000E+09 -3.95654911554E-01 +8.46750612831E-01 +6.96496060779E-05 +3.33726221729E-05 +3.56950736625E-05 +8.88271489115E-06 -5.61148633162E-01 +7.80813640778E-01
1.23000000000E+09 -3.85131854646E-01 +8.49602102140E-01 +1.58511254488E-05 +3.88586202935E-06 +5.96981020595E-05 -7.36073431715E-06 -5.55569393932E-01 +7.85548732454E-01
1.23500000000E+09 -3.74316674246E-01 +8.53056002226E-01 +2.26638737508E-05 -1.74112259152E-05 -1.50619709149E-05 +9.93018386256E-06 -5.49741755415E-01 +7.89958743358E-01
1.24000000000E+09 -3.63276804760E-01 +8.56841002479E-01 -3.14140952911E-08 -1.19921668719E-05 -1.16057124012E-05 -4.85543729137E-05 -5.43789542786E-01 +7.93698018064E-01
1.24500000000E+09 -3.53440642022E-01 +8.60699500601E-01 -7.64129412529E-06 -1.65053677644E-05 -3.85529346490E-06 -2.05091266213E-05 -5.37479613331E-01 +7.97427370521E-01
1.25000000000E+09 -3.45123516470E-01 +8.63817707985E-01 -2.74099976751E-05 -7.09803128846E-06 +4.17228970852E-06 +2.21070028611E-06 -5.31062450938E-01 +8.01609704293E-01
1.25500000000E+09 -3.38346123350E-01 +8.66341871570E-01 -7.08352799070E-05 -2.71121069814E-05 -7.55416187413E-05 +1.17316539804E-05 -5.24169360715E-01 +8.05619969540E-01
1.26000000000E+09 -3.32794952981E-01 +8.68110722086E-01 -4.14516111760E-05 -2.31838070515E-05 -4.00872916278E-05 -3.50002405030E-05 -5.17487854839E-01 +8.09728700017E-01
1.26500000000E+09 -3.27918647016E-01 +8.69250635875E-01 -6.83302053009E-05 +1.22273716496E-05 -7.25019216984E-05 +1.89031335365E-06 -5.10413538005E-01 +8.13705767213E-01
1.27000000000E+09 -3.22820138390E-01 +8.70216337137E-01 -5.06788652776E-05 +2.25276178369E-05 -6.89762301234E-05 +6.64350506554E-07 -5.03663284846E-01 +8.17406458347E-01
1.27500000000E+09 -3.16662306417E-01 +8.71213808860E-01 -8.14051665873E-05 +5.71479324319E-05 -8.94170789718E-05 +5.60152933399E-05 -4.96643966699E-01 +8.20928745216E-01
1.28000000000E+09 -3.08315246346E-01 +8.72656652188E-01 -1.19063824782E-04 +6.45006183705E-05 -9.08121661790E-05 +4.60080245190E-05 -4.89693083412E-01 +8.24395991635E-01
1.28500000000E+09 -2.97950005873E-01 +8.74529988330E-01 -5.70462090456E-05 +6.01171949862E-05 -1.26458756994E-04 +5.30855862081E-05 -4.82349688757E-01 +8.28149478793E-01
1.29000000000E+09 -2.86321486323E-01 +8.76949163397E-01 -2.11667629919E-05 +6.06904700692E-05 -4.97602066226E-05 +1.07325925184E-04 -4.74842312815E-01 +8.31776852741E-01
1.29500000000E+09 -2.73921118615E-01 +8.79932138084E-01 -3.00180654881E-05 +1.10154916911E-04 -7.20605861724E-05 +1.09129462146E-04 -4.66901683561E-01 +8.35199227144E-01
1.30000000000E+09 -2.61385527194E-01 +8.83063521662E-01 -4.10969406492E-05 +5.60292103092E-05 +3.21928104950E-06 +8.83522265801E-05 -4.59172067102E-01 +8.38745778498E-01
1.30500000000E+09 -2.49923117551E-01 +8.85982575414E-01 -8.25333418110E-05 +1.25953588374E-04 -5.62534308489E-05 +8.60348319644E-05 -4.51217505757E-01 +8.42106064988E-01
1.31000000000E+09 -2.40110505158E-01 +8.88303093727E-01 -1.66543992105E-05 +1.30605610697E-04 +2.67799454392E-05 +4.73334852972E-05 -4.42890178710E-01 +8.45592055142E-01
1.31500000000E+09 -2.32080857172E-01 +8.89812332854E-01 +6.63829730747E-05 +5.26573297457E-05 +2.18097850904E-06 +1.03751769315E-04 -4.34095505294E-01 +8.49001359315E-01
1.32000000000E+09 -2.25595988811E-01 +8.90431701087E-01 +1.98080834296E-05 +8.46688772136E-05 +2.96333069954E-05 +6.61716567284E-05 -4.25093338787E-01 +8.52428628955E-01
1.32500000000E+09 -2.19703191249E-01 +8.90180919280E-01 +4.62102215338E-05 +7.07720876711E-05 -6.30748100610E-06 +6.47668486320E-05 -4.15614990486E-01 +8.55918652406E-01
1.33000000000E+09 -2.13137033503E-01 +8.89730703495E-01 +4.50709715529E-06 +9.86472411245E-05 +3.11196974480E-05 +1.37066314468E-04 -4.06011516892E-01 +8.58985473135E-01
1.33500000000E+09 -2.04789762108E-01 +8.88992178695E-01 +7.34895709578E-05 +7.87280040775E-05 +4.95699722149E-05 +9.42296932604E-05 -3.96159668308E-01 +8.62454423890E-01
1.34000000000E+09 -1.93814768010E-01 +8.88277768433E-01 +6.33332352839E-05 +3.67712082233E-05 +8.39187597290E-05 +1.12077853709E-04 -3.85971709000E-01 +8.65685703544E-01
1.34500000000E+09 -1.80382409157E-01 +8.87669862349E-01 +8.60848391765E-08 +5.83743771862E-05 +5.76243800911E-05 -1.52138512223E-05 -3.75189158711E-01 +8.68984795892E-01
1.35000000000E+09 -1.64977423064E-01 +8.87490686897E-01 +1.23894146402E-05 +3.05896501538E-05 +1.53287170023E-05 +4.44056274951E-05 -3.64130524000E-01 +8.72033513769E-01
1.35500000000E+09 -1.48254473892E-01 +8.87833865531E-01 +2.20130069507E-05 +8.79488313063E-05 +1.23214707656E-05 +7.09848725734E-05 -3.52584351869E-01 +8.74805792189E-01
1.36000000000E+09 -1.31505851000E-01 +8.88507405916E-01 +2.02574925056E-05 +1.14673432643E-04 +1.13626909997E-05 +8.48841800200E-05 -3.40749943227E-01 +8.77617757979E-01
1.36500000000E+09 -1.15263852871E-01 +8.89147677723E-01 -5.83924439741E-06 +1.29806231310E-04 +4.65288102379E-05 +7.58603823985E-05 -3.28660269547E-01 +8.80278391284E-01
1.37000000000E+09 -1.00819675650E-01 +8.89236452129E-01 +3.06703964240E-05 +1.48297212100E-04 +3.91636786585E-05 +1.50177417790E-04 -3.15796645706E-01 +8.82452956347E-01
1.37500000000E+09 -8.85193460190E-02 +8.89000475245E-01 +3.96093268846E-05 +1.76916007975E-04 +4.31123707895E-05 +1.32341714474E-04 -3.02192654547E-01 +8.84763352970E-01
1.38000000000E+09 -7.75328660569E-02 +8.88137204775E-01 +1.32354169917E-04 +1.92510794397E-04 +1.23427204907E-04 +2.35110441694E-04 -2.87713115287E-01 +8.86819562859E-01
1.38500000000E+09 -6.66309350165E-02 +8.86627514859E-01 +2.23027680147E-04 +1.52088026480E-04 +2.47957975493E-04 +1.95083554553E-04 -2.72018082196E-01 +8.88833831614E-01
1.39000000000E+09 -5.50382922841E-02 +8.84201819471E-01 +2.37048492602E-04 +1.54193407320E-04 +2.78427008499E-04 +1.98679596397E-04 -2.56204246213E-01 +8.90277025431E-01
1.39500000000E+09 -4.13209949417E-02 +8.80966510058E-01 +2.97952820518E-04 +6.83519443122E-05 +3.48228928997E-04 +9.79120862278E-05 -2.39358593850E-01 +8.90957500442E-01
1.40000000000E+09 -2.49734984159E-02 +8.76700267551E-01 +3.13807344270E-04 +5.83184802952E-05 +3.52764562457E-04 -4.31398571884E-05 -2.21932672093E-01 +8.91577831706E-01
1.40500000000E+09 -6.39504214153E-03 +8.71717451469E-01 +3.03124607295E-04 -7.20179011776E-05 +2.56439743863E-04 -5.36247510346E-05 -2.03038227286E-01 +8.91458503870E-01
1.41000000000E+09 +1.44010623495E-02 +8.66375879041E-01 +2.44948469089E-04 -8.14755989378E-06 +2.74381498025E-04 -4.45383749761E-05 -1.82697261641E-01 +8.90759356326E-01
1.41500000000E+09 +3.64334626132E-02 +8.60572482898E-01 +2.81805207246E-04 -1.14784367792E-04 +2.93950419743E-04 -6.86786037428E-05 -1.61173838682E-01 +8.89155373055E-01
1.42000000000E+09 +5.91179025291E-02 +8.54539655709E-01 +3.10704217558E-04 -4.27739001250E-05 +3.64557524833E-04 -3.14712195795E-05 -1.38258584664E-01 +8.86496296003E-01
1.42500000000E+09 +8.11370409663E-02 +8.47393364072E-01 +4.07356139177E-04 -1.93248947975E-04 +4.16499257102E-04 -1.91092422352E-04 -1.14554285111E-01 +8.82770696571E-01
1.43000000000E+09 +1.01901607605E-01 +8.39175913284E-01 +2.57904443835E-04 -2.42801766708E-04 +2.49890697528E-04 -2.68807065151E-04 -8.96613812303E-02 +8.77985803404E-01
1.43500000000E+09 +1.21672925040E-01 +8.29596148878E-01 +2.38262513460E-04 -2.93441534812E-04 +2.42541427587E-04 -3.21898310905E-04 -6.34558091000E-02 +8.71107908157E-01
1.44000000000E+09 +1.41313550193E-01 +8.18693038514E-01 +1.87614500477E-04 -3.19649093700E-04 +1.87734410349E-04 -3.04656473964E-04 -3.54000693800E-02 +8.62229586507E-01
1.44500000000E+09 +1.62340741457E-01 +8.05135511827E-01 +1.93039947657E-04 -2.27473582536E-04 +1.85870183202E-04 -1.99361667704E-04 -5.52219527995E-03 +8.50747610361E-01
1.45000000000E+09 +1.85664111419E-01 +7.87990902208E-01 +2.77494718724E-04 -3.40281475611E-04 +2.32741856438E-04 -3.56517197223E-04 +2.64577573780E-02 +8.36162545521E-01
1.45500000000E+09 +2.11521668220E-01 +7.66768118276E-01 +2.08133962821E-04 -3.12748471661E-04 +1.65066493767E-04 -3.50332041078E-04 +5.98734944598E-02 +8.18216401026E-01
1.46000000000E+09 +2.40205763004E-01 +7.40863040200E-01 +3.47787481204E-04 -3.47012919889E-04 +3.51140439591E-04 -4.04352463366E-04 +9.44451302516E-02 +7.95908179869E-01
1.46500000000E+09 +2.70765336914E-01 +7.10392188142E-01 +2.41738732753E-04 -6.48137190223E-04 +1.84267866992E-04 -6.51692305383E-04 +1.29710475602E-01 +7.69091672960E-01
1.47000000000E+09 +3.03068520190E-01 +6.75401745630E-01 +1.96037744310E-04 -6.05303094381E-04 +1.83094510024E-04 -6.02381406351E-04 +1.66566244909E-01 +7.35386825367E-01
1.47500000000E+09 +3.35030707496E-01 +6.34778724186E-01 +4.18314863410E-05 -8.06274294361E-04 +5.98539231574E-05 -7.74364786157E-04 +2.03288884406E-01 +6.94170288896E-01
1.48000000000E+09 +3.64687147645E-01 +5.88421149181E-01 +5.50504763116E-06 -6.46143412426E-04 -5.11025901136E-05 -6.54742656885E-04 +2.39240876891E-01 +6.44743059383E-01
1.48500000000E+09 +3.90305845248E-01 +5.35471648112E-01 +2.29669760111E-04 -8.32873607386E-04 +1.65846165937E-04 -8.22918267364E-04 +2.72967251605E-01 +5.86088672395E-01
1.49000000000E+09 +4.10111157870E-01 +4.75353523950E-01 +1.91559686129E-04 -1.23200463948E-03 +1.38941096960E-04 -1.22395709978E-03 +3.00524448091E-01 +5.16217509835E-01
1.49500000000E+09 +4.21733273941E-01 +4.07380275146E-01 -1.45971202880E-04 -1.83463293755E-03 -1.88049711164E-04 -1.68644581284E-03 +3.17828214090E-01 +4.36898646342E-01
1.50000000000E+09 +4.23316616727E-01 +3.30486009887E-01 -1.12197444789E-03 -2.18213816768E-03 -1.05628657824E-03 -2.01486989951E-03 +3.22320393155E-01 +3.48218303417E-01
1.50500000000E+09 +4.12586008697E-01 +2.45820390792E-01 -2.18587290864E-03 -1.87832632112E-03 -1.98695602978E-03 -1.80450606303E-03 +3.10159615638E-01 +2.52528852839E-01
1.51000000000E+09 +3.86451915115E-01 +1.54307552646E-01 -2.91699394174E-03 -9.53666016186E-04 -2.81375943617E-03 -1.01691176792E-03 +2.77014786369E-01 +1.53555976273E-01
1.51500000000E+09 +3.40824584086E-01 +6.05914977747E-02 -3.19065822515E-03 -3.33706857314E-04 -3.12361714512E-03 -3.52321042016E-04 +2.23060697042E-01 +5.75268256902E-02
1.52000000000E+09 +2.74132080415E-01 -2.76735290532E-02 -3.58674652919E-03 +1.28082645773E-03 -3.61031224429E-03 +1.22358371027E-03 +1.46077562869E-01 -2.74614222619E-02
1.52500000000E+09 +1.87544279337E-01 -1.02673793705E-01 -2.17387730127E-03 +1.93316427411E-03 -2.21714762352E-03 +1.94214198353E-03 +5.12132736203E-02 -9.40507929581E-02
1.53000000000E+09 +8.40583208303E-02 -1.55728025094E-01 -1.92942538546E-03 +1.82146757583E-03 -1.90593185339E-03 +1.79385035475E-03 -5.44166851410E-02 -1.36902363653E-01
1.53500000000E+09 -2.74857722615E-02 -1.82587932673E-01 -2.49198386937E-03 +2.43445703677E-03 -2.46653127311E-03 +2.40821692470E-03 -1.64379387366E-01 -1.55991863615E-01
1.54000000000E+09 -1.40609202390E-01 -1.82239946410E-01 -1.61330712373E-03 +4.18161166991E-03 -1.60318804972E-03 +4.03409909369E-03 -2.70854869975E-01 -1.52912341164E-01
1.54500000000E+09 -2.48003714291E-01 -1.57783486011E-01 +4.52298294777E-04 +4.71106464989E-03 +3.53013599456E-04 +4.64412327677E-03 -3.68652633018E-01 -1.29453098962E-01
1.55000000000E+09 -3.45323952565E-01 -1.13810106066E-01 +2.32513271992E-03 +3.55670251449E-03 +2.14123195027E-03 +3.58119648068E-03 -4.52192522722E-01 -9.25135374213E-02
1.55500000000E+09 -4.27428740997E-01 -5.54361053915E-02 +2.57703579316E-03 +2.33944121271E-03 +2.49787942827E-03 +2.52271051500E-03 -5.22479081969E-01 -4.62389418154E-02
1.56000000000E+09 -4.93108643265E-01 +8.52096869677E-03 +2.81717492608E-03 +1.44317545808E-03 +2.87130194422E-03 +1.63058975000E-03 -5.79397078575E-01 +6.44418524822E-03
1.56500000000E+09 -5.43278947326E-01 +7.33437383607E-02 +2.64193900847E-03 +8.05190890352E-04 +2.77588925752E-03 +9.66339624237E-04 -6.23021939866E-01 +6.18036138314E-02
1.57000000000E+09 -5.81159280643E-01 +1.35496073081E-01 +2.59590492989E-03 +2.31701040880E-04 +2.76384939953E-03 +2.79409615697E-04 -6.56029689238E-01 +1.15998115272E-01
