# Hz S RI R 50
! CMT, C1220, 16058040, 17.2.0/1
! Date: 14/08/2018 12:21:44
! Data: Format (Calibration Info)
! Freq                      S11: Re/Im (F2)                       S21: Re/Im (F2)                       S12: Re/Im (F2)                       S22: Re/Im (F2)            
1.00000000000E+09 -6.44828798417E-01 +7.15830239159E-01 -5.30947301212E-05 -1.43090911638E-05 -9.89535457111E-06 -3.00658773380E-05 -7.47901172644E-01 +6.24146762684E-01
1.00500000000E+09 -6.37746355267E-01 +7.20981581039E-01 +1.43043108556E-05 -1.05218520609E-06 -1.51612623132E-05 -2.10068927304E-05 -7.44497152446E-01 +6.28079992998E-01
1.01000000000E+09 -6.31834062503E-01 +7.25586517974E-01 -1.46329122920E-05 +4.10020266309E-05 -4.67951648071E-05 +8.38457535220E-06 -7.41020769540E-01 +6.31787274693E-01
1.01500000000E+09 -6.27623880916E-01 +7.29341783484E-01 +5.84656687819E-06 +1.90243685029E-05 -6.50811212385E-07 +4.81594558560E-06 -7.37763760058E-01 +6.35494814499E-01
1.02000000000E+09 -6.24919195588E-01 +7.32575405924E-01 -2.09446139834E-05 -4.49059514992E-05 +7.30667115398E-06 +4.09914983522E-05 -7.34224562939E-01 +6.38997082826E-01
1.02500000000E+09 -6.23426870155E-01 +7.35229148904E-01 +1.24123905018E-05 -5.63990295653E-06 +2.05578844948E-05 -3.25952492893E-05 -7.31307580281E-01 +6.42599963934E-01
1.03000000000E+09 -6.22299539746E-01 +7.37509362929E-01 -3.31337722972E-05 +9.82101017744E-06 -3.43580252649E-05 +1.47158767394E-05 -7.27955144856E-01 +6.46559641043E-01
1.03500000000E+09 -6.20231180434E-01 +7.39690141454E-01 -5.65198040819E-05 -3.00696455397E-05 -6.18833406561E-06 +4.95450838608E-05 -7.23950095530E-01 +6.50467024307E-01
1.04000000000E+09 -6.16734568463E-01 +7.42511198037E-01 -3.29518705922E-06 -2.03466952297E-05 -2.89678828019E-05 -1.33807108301E-05 -7.20482563049E-01 +6.54050900066E-01
1.04500000000E+09 -6.11519833002E-01 +7.45809430386E-01 -6.85789697523E-07 +5.97026186061E-06 -7.99984082943E-06 +1.37501432825E-05 -7.16800478197E-01 +6.57450301173E-01
1.05000000000E+09 -6.04419360604E-01 +7.50031246254E-01 -2.79583698494E-05 +1.53568516836E-05 -8.87687323753E-06 -6.90524538800E-06 -7.13331901977E-01 +6.60992939697E-01
1.05500000000E+09 -5.95589872182E-01 +7.54695776870E-01 -1.25256267440E-05 -3.00247465730E-05 -4.57062699958E-05 +1.47216543306E-05 -7.10195909972E-01 +6.64416988235E-01
1.06000000000E+09 -5.86286011210E-01 +7.59751818858E-01 +6.09770113164E-05 -4.56730203681E-06 +8.21094037263E-07 +3.91995747707E-05 -7.06865113330E-01 +6.68217719649E-01
1.06500000000E+09 -5.77275709326E-01 +7.64970314651E-01 +5.11137920277E-05 -5.84686655439E-06 +6.26413913054E-06 -3.93679382037E-05 -7.03064939901E-01 +6.71872564907E-01
1.07000000000E+09 -5.69122608164E-01 +7.69322151224E-01 -3.97203158783E-05 -1.20680355618E-05 +3.69703706008E-05 +4.83835906428E-05 -6.98966096501E-01 +6.75783453844E-01
1.07500000000E+09 -5.62924692263E-01 +7.73215095872E-01 +3.37552035302E-05 +2.37232612196E-05 +6.28678764378E-05 -8.85683479541E-06 -6.94598268595E-01 +6.79293334756E-01
1.08000000000E+09 -5.58451649544E-01 +7.76552013081E-01 +4.08026940617E-05 +2.63632933830E-06 +2.21276051763E-05 +3.03680009604E-05 -6.90688806938E-01 +6.82984406025E-01
1.08500000000E+09 -5.55644001076E-01 +7.79048420085E-01 -2.74315531632E-05 +9.47641608998E-06 +2.96573806867E-05 -2.52159070415E-05 -6.86745860065E-01 +6.86812357118E-01
1.09000000000E+09 -5.53654984147E-01 +7.81026968297E-01 -1.23415032792E-05 -1.10837392679E-05 +1.73386411037E-05 -2.99908110267E-05 -6.82930917397E-01 +6.90647637541E-01
1.09500000000E+09 -5.51770095155E-01 +7.82961130403E-01 +2.12342691386E-05 -1.30414891353E-05 +5.06943722804E-05 -1.18490378129E-05 -6.79060051069E-01 +6.94567815244E-01
1.10000000000E+09 -5.48904047396E-01 +7.84807682918E-01 -1.09175860963E-06 -1.01853217524E-06 +5.16107628151E-05 +4.95968901723E-07 -6.75190457711E-01 +6.98296403486E-01
1.10500000000E+09 -5.44713485459E-01 +7.87465390835E-01 +1.07304068240E-05 -2.35891428448E-05 +5.53579183794E-06 -1.97826013676E-05 -6.70833075457E-01 +7.01716280501E-01
1.11000000000E+09 -5.38980194658E-01 +7.90742442569E-01 +5.39653646016E-05 -2.61970374698E-05 -9.93846007052E-07 -2.27209059805E-06 -6.66632234235E-01 +7.05128519128E-01
1.11500000000E+09 -5.31773954453E-01 +7.94612517810E-01 +6.15763534408E-06 -1.59099961156E-05 -1.82808027868E-05 -1.18655272410E-05 -6.62598198929E-01 +7.08598807377E-01
1.12000000000E+09 -5.23707038232E-01 +7.98591282145E-01 +1.47429715355E-05 -3.23182195291E-05 +6.13311695571E-05 +1.33353518726E-05 -6.58692841974E-01 +7.12185608484E-01
1.12500000000E+09 -5.15605419505E-01 +8.02551329882E-01 +1.34850709858E-05 -7.04262202301E-06 -2.17829389067E-05 +1.57548492900E-06 -6.54309174881E-01 +7.16079342551E-01
1.13000000000E+09 -5.08060416730E-01 +8.06222482808E-01 +3.30589538431E-05 -2.04264383266E-05 -1.58275279925E-05 -4.00428052854E-05 -6.50111700787E-01 +7.19706800748E-01
1.13500000000E+09 -5.01685330986E-01 +8.09023121523E-01 -3.85448275657E-05 -1.49427758670E-05 +3.86494430821E-05 -1.22268042727E-05 -6.45627046636E-01 +7.23652719331E-01
1.14000000000E+09 -4.96382243185E-01 +8.11650374508E-01 -3.55444978063E-05 -5.80065699671E-05 -1.75479477408E-05 -2.17175600765E-05 -6.40864024083E-01 +7.26901495353E-01
1.14500000000E+09 -4.92327656474E-01 +8.13202629639E-01 -5.41997296716E-05 -6.55929337372E-05 +2.48624206205E-05 +1.03004868054E-05 -6.36293740080E-01 +7.30262939314E-01
1.15000000000E+09 -4.88517262948E-01 +8.14779840532E-01 +2.40755338822E-06 +1.51236632937E-06 +1.03815423124E-05 -4.73705083051E-05 -6.31686826794E-01 +7.34220072705E-01
1.15500000000E+09 -4.84623131274E-01 +8.16445158424E-01 -2.34948858480E-05 +1.07393628112E-05 -1.17161542766E-05 +1.04241076834E-05 -6.26757922007E-01 +7.37982716578E-01
1.16000000000E+09 -4.79832600469E-01 +8.18301783656E-01 -1.29213729261E-05 +1.38007878643E-05 -1.27943786228E-05 -4.63635566844E-05 -6.22038240171E-01 +7.41812056729E-01
1.16500000000E+09 -4.73924219569E-01 +8.20908979837E-01 +5.19361464682E-05 +3.25287306180E-06 -6.08453493471E-06 +5.62388189254E-06 -6.16982265616E-01 +7.45421276264E-01
1.17000000000E+09 -4.66762467898E-01 +8.23833238387E-01 -8.59410548457E-06 -2.60380086386E-05 -2.86218957677E-05 -1.82459585728E-05 -6.11465162274E-01 +7.48593664434E-01
1.17500000000E+09 -4.58797872418E-01 +8.27079344100E-01 +4.60449383346E-06 -5.24030272154E-05 -4.20409952676E-06 -3.90562862017E-05 -6.05782538015E-01 +7.51826920899E-01
1.18000000000E+09 -4.50511264774E-01 +8.30790730705E-01 -2.99851866845E-05 -7.21470787542E-05 -5.19654878324E-05 -7.24687397041E-05 -6.00269000210E-01 +7.54745276382E-01
1.18500000000E+09 -4.42449207790E-01 +8.33993429038E-01 -5.46650102639E-07 -5.31052684469E-05 -2.24565866216E-06 -8.59841896565E-05 -5.94374914171E-01 +7.57730400647E-01
1.19000000000E+09 -4.35321150795E-01 +8.36706405119E-01 +1.96692233100E-05 -4.26379846865E-05 +2.87308822360E-07 -5.61458733920E-05 -5.88154233340E-01 +7.60499779535E-01
1.19500000000E+09 -4.29194492051E-01 +8.38817737598E-01 -9.63855006612E-05 -2.99086377161E-05 -4.35886558820E-05 -2.47160617177E-05 -5.82363479836E-01 +7.61803288914E-01
1.20000000000E+09 -4.24156254380E-01 +8.39631832072E-01 -1.28642824041E-04 -3.01091215807E-05 -1.31168638668E-04 -4.10246483584E-05 -5.77997468312E-01 +7.62116085231E-01
1.20500000000E+09 -4.19744875749E-01 +8.40760054970E-01 -5.41125307775E-05 +3.61510006003E-05 -1.00940779617E-04 +2.91662164921E-05 -5.75617668782E-01 +7.62903941268E-01
1.21000000000E+09 -4.14982452719E-01 +8.41653626932E-01 -5.18022362509E-05 +5.55794337369E-05 -4.39649891571E-05 +1.51685501341E-05 -5.73727027751E-01 +7.65907079503E-01
1.21500000000E+09 -4.09050166234E-01 +8.42924318911E-01 -5.75729979477E-05 +4.64868684844E-06 -5.46781177872E-05 +2.52628269892E-05 -5.70890051567E-01 +7.70318352569E-01
1.22000000000E+09 -4.01491429335E-01 +8.44506011108E-01 +1.07270147518E-05 +4.34851154288E-05 +3.24172933879E-05 +2.06136302254E-05 -5.66601938900E-01 +7.75852254024E-01
1.22500000000E+09 -3.92306594748E-01 +8.46956556750E-01 -2.66549858669E-06 +4.80594725172E-06 -1.33495222348E-05 -1.76434895587E-06 -5.61600980022E-01 +7.80765564966E-01
1.23000000000E+09 -3.81557983767E-01 +8.49797393342E-01 +2.76909514483E-06 -2.55533912865E-06 +4.65071425988E-06 +1.86612415229E-05 -5.55967224980E-01 +7.85339929968E-01
1.23500000000E+09 -3.70524261789E-01 +8.53252669446E-01 -1.52979877187E-05 -4.16679705218E-06 +2.72892289435E-05 +3.21676720453E-06 -5.50140949464E-01 +7.89627627639E-01
1.24000000000E+09 -3.59636780907E-01 +8.56975347398E-01 -2.37503069256E-05 -5.13080055893E-05 +1.46642005830E-06 -1.76856367520E-05 -5.44151687168E-01 +7.93391694269E-01
1.24500000000E+09 -3.49772914611E-01 +8.60727648545E-01 -1.38778417645E-05 -2.70386620155E-05 -8.79313242708E-06 -2.33407205313E-05 -5.37807202755E-01 +7.97154471712E-01
1.25000000000E+09 -3.41191997683E-01 +8.64015983188E-01 -7.04532666762E-06 -4.97465928844E-05 -6.03728941387E-05 -4.62849522504E-05 -5.31242724962E-01 +8.01527903107E-01
1.25500000000E+09 -3.34439951652E-01 +8.66350018542E-01 -7.08145986654E-05 +6.45665400928E-06 -3.98116271175E-05 +2.68340606351E-05 -5.24532147415E-01 +8.05412477422E-01
1.26000000000E+09 -3.28875654151E-01 +8.68092397477E-01 -8.04679978320E-05 -3.27436790771E-07 -1.67357033661E-05 -1.55007813334E-05 -5.17754312886E-01 +8.09735806068E-01
1.26500000000E+09 -3.23974422604E-01 +8.69239629933E-01 -8.27931550999E-05 -1.84597417149E-05 -5.02106251361E-05 -2.53261979323E-05 -5.10724414421E-01 +8.13542050496E-01
1.27000000000E+09 -3.18689770002E-01 +8.70297183408E-01 -2.60638703705E-05 +3.12192668135E-05 -8.16456529372E-05 +5.63618912184E-05 -5.03967152932E-01 +8.17284859916E-01
1.27500000000E+09 -3.12334234537E-01 +8.71218205405E-01 -2.46117715711E-05 +1.32577743297E-05 -5.34767641059E-05 +5.55265001650E-05 -4.97074730843E-01 +8.20783465806E-01
1.28000000000E+09 -3.04266475003E-01 +8.72534151468E-01 +1.32536197821E-05 +6.89793053980E-05 -9.21228713474E-05 +1.09572726226E-05 -4.89944317233E-01 +8.24172762835E-01
1.28500000000E+09 -2.93799562451E-01 +8.74215667815E-01 -6.24499628551E-05 +3.12182233323E-05 -6.80608690498E-05 +6.70347352411E-05 -4.82576030595E-01 +8.27897140741E-01
1.29000000000E+09 -2.82003655528E-01 +8.76579924032E-01 -2.16509144346E-05 +4.30407646334E-05 -4.76494417902E-05 +2.69502513296E-05 -4.75022843429E-01 +8.31516535545E-01
1.29500000000E+09 -2.69556332826E-01 +8.79435764324E-01 -3.85007074513E-05 +4.75099019690E-05 -4.61360712973E-05 +9.17321585780E-05 -4.67338890616E-01 +8.34927379759E-01
1.30000000000E+09 -2.57137672868E-01 +8.82693814293E-01 -1.12044752601E-04 +6.34665213206E-05 -8.15090001622E-05 +7.81801166150E-05 -4.59519185903E-01 +8.38557458712E-01
1.30500000000E+09 -2.45730857373E-01 +8.85571481703E-01 -6.32559082231E-05 +1.02277350661E-04 -9.90497858805E-05 +9.01367205483E-05 -4.51534236740E-01 +8.42039879691E-01
1.31000000000E+09 -2.35660606716E-01 +8.87892108343E-01 -5.48618052889E-05 +9.45898514623E-05 -2.45530455309E-05 +1.47229258608E-04 -4.43352431526E-01 +8.45493347339E-01
1.31500000000E+09 -2.27637019810E-01 +8.89323801471E-01 +4.67357773667E-05 +9.14632613752E-05 +1.07046195094E-05 +5.96841381520E-05 -4.34448767717E-01 +8.48763473952E-01
1.32000000000E+09 -2.21139823174E-01 +8.89886908508E-01 -2.47340089744E-06 +1.08282300650E-04 +2.50449321649E-05 +9.74678523497E-05 -4.25366308284E-01 +8.52279130726E-01
1.32500000000E+09 -2.15064592225E-01 +8.89685988388E-01 -2.32094932347E-05 +5.04852412250E-05 -1.53758026755E-05 +8.09846490957E-05 -4.15982746197E-01 +8.55722146244E-01
1.33000000000E+09 -2.08419507664E-01 +8.89140604163E-01 -1.15621309093E-05 +1.19095400214E-04 +4.79776826796E-06 +1.36077153115E-04 -4.06356547891E-01 +8.58904070871E-01
1.33500000000E+09 -1.99975806590E-01 +8.88210282163E-01 +3.84693333298E-05 +1.23158878290E-04 +7.88146249530E-06 +1.26638135200E-04 -3.96561989522E-01 +8.62103821899E-01
1.34000000000E+09 -1.88938085365E-01 +8.87460538948E-01 +9.37740481796E-05 +1.47839894125E-04 +6.38835208247E-05 +6.76003656024E-05 -3.86407771673E-01 +8.65472463779E-01
1.34500000000E+09 -1.75572333423E-01 +8.86857800838E-01 +8.73576491291E-05 +1.13984652101E-04 +9.74656591882E-05 +9.96910477303E-05 -3.75551120896E-01 +8.68772336487E-01
1.35000000000E+09 -1.60105608317E-01 +8.86586772132E-01 +6.48958908354E-05 +6.45628715222E-05 +8.18051643844E-05 +6.21264117663E-05 -3.64451095614E-01 +8.71951934749E-01
1.35500000000E+09 -1.43257509966E-01 +8.86971721325E-01 +4.32737250074E-05 +8.38325143518E-05 +7.38537937484E-05 +5.06912856018E-05 -3.52965956162E-01 +8.74703988083E-01
1.36000000000E+09 -1.26397213564E-01 +8.87557357882E-01 +5.21956053970E-05 +9.16364380921E-05 +7.20509674857E-05 +1.10358772072E-04 -3.41269453094E-01 +8.77445651393E-01
1.36500000000E+09 -1.10182455145E-01 +8.88071542239E-01 +3.08656872225E-05 +3.08943220893E-05 +4.23488259846E-05 +8.60845329879E-05 -3.29063938997E-01 +8.79988812917E-01
1.37000000000E+09 -9.57329072990E-02 +8.88087578294E-01 +7.08840744422E-05 +1.21666783339E-04 +2.94283916816E-05 +7.83060004715E-05 -3.16219212468E-01 +8.82262031863E-01
1.37500000000E+09 -8.32158281228E-02 +8.87894877595E-01 +1.28708548407E-04 +1.55642768413E-04 +4.66085905419E-05 +1.40708998858E-04 -3.02546968920E-01 +8.84565190315E-01
1.38000000000E+09 -7.22031575006E-02 +8.86827184623E-01 +1.37231392882E-04 +1.39305897530E-04 +1.59165317229E-04 +1.62718646692E-04 -2.88113811819E-01 +8.86731950374E-01
1.38500000000E+09 -6.13753087762E-02 +8.85079183415E-01 +2.13831497866E-04 +5.34853924893E-05 +2.71696563330E-04 +1.27969128851E-04 -2.72540676906E-01 +8.88543302606E-01
1.39000000000E+09 -4.96979695095E-02 +8.82487609204E-01 +2.05309187969E-04 +2.92282607050E-05 +2.27734640980E-04 +6.20970280769E-05 -2.56536262175E-01 +8.90119741456E-01
1.39500000000E+09 -3.59213022419E-02 +8.79044197075E-01 +2.33819258852E-04 -1.20892441417E-05 +2.45151320381E-04 +2.57105901528E-05 -2.40003801963E-01 +8.90721607784E-01
1.40000000000E+09 -1.95605832448E-02 +8.74454788971E-01 +1.92492605382E-04 -5.40487792484E-05 +2.06722591035E-04 -1.10055535603E-04 -2.22376231432E-01 +8.91430353654E-01
1.40500000000E+09 -1.08060583796E-03 +8.69275198488E-01 +1.58131968067E-04 -3.11152691983E-05 +1.72039426926E-04 -1.74499642069E-05 -2.03665846203E-01 +8.91415392618E-01
1.41000000000E+09 +1.95285657199E-02 +8.63853451815E-01 +1.62726506336E-04 +1.96249999562E-05 +2.18804630473E-04 +3.16036360210E-05 -1.83428623336E-01 +8.90512875799E-01
1.41500000000E+09 +4.15701029004E-02 +8.58155301071E-01 +2.15966765225E-04 -5.80404243586E-05 +2.61584004525E-04 -7.51879749374E-05 -1.61870037660E-01 +8.88948412790E-01
1.42000000000E+09 +6.43347595991E-02 +8.52047252020E-01 +1.98815035001E-04 -4.17279228650E-05 +2.36400458778E-04 -2.58188692619E-05 -1.39148277183E-01 +8.86286093886E-01
1.42500000000E+09 +8.64142492501E-02 +8.44969903064E-01 +2.87266689956E-04 -1.05907309007E-04 +3.59246298150E-04 -1.43536097070E-04 -1.15507314898E-01 +8.82692616513E-01
1.43000000000E+09 +1.07326252621E-01 +8.36710207865E-01 +2.58887960972E-04 -1.31644213598E-04 +2.96615644101E-04 -2.31101697646E-04 -9.06495769481E-02 +8.78053816254E-01
1.43500000000E+09 +1.27227171102E-01 +8.26829406283E-01 +2.30028025541E-04 -1.95752362586E-04 +2.46680389771E-04 -2.07269656880E-04 -6.44708047569E-02 +8.71478556436E-01
1.44000000000E+09 +1.47053606433E-01 +8.15675410986E-01 +1.77150316694E-04 -2.14060094294E-04 +1.49088314996E-04 -2.05906608731E-04 -3.64116401304E-02 +8.62768412967E-01
1.44500000000E+09 +1.68130695699E-01 +8.01765248547E-01 +1.54573097100E-04 -1.22440839177E-04 +1.64213730059E-04 -1.90329845736E-04 -6.42499859845E-03 +8.51402402604E-01
1.45000000000E+09 +1.91248231818E-01 +7.84291640577E-01 +3.40125467313E-04 -1.99403555613E-04 +3.00644294559E-04 -2.21890308209E-04 +2.56100709475E-02 +8.37101512360E-01
1.45500000000E+09 +2.17151435313E-01 +7.62727599715E-01 +3.34855205426E-04 -3.14354758944E-04 +2.80574895294E-04 -3.33915339552E-04 +5.91390285720E-02 +8.19225686141E-01
1.46000000000E+09 +2.45886229058E-01 +7.36539882535E-01 +4.10573462276E-04 -4.57589907366E-04 +3.61738525073E-04 -4.91258417038E-04 +9.39190124288E-02 +7.97231408545E-01
1.46500000000E+09 +2.76507467004E-01 +7.05714847652E-01 +2.44120966557E-04 -7.16039394896E-04 +1.92535025129E-04 -6.57134401529E-04 +1.29623027258E-01 +7.70680460310E-01
1.47000000000E+09 +3.08796488918E-01 +6.70099946966E-01 +2.25934607140E-04 -5.41821434426E-04 +1.69812231643E-04 -5.30208966957E-04 +1.66938289784E-01 +7.36924519349E-01
1.47500000000E+09 +3.40485657421E-01 +6.29065067024E-01 +1.36377480003E-04 -8.03836131939E-04 +1.38182605958E-04 -8.11490891443E-04 +2.04060679134E-01 +6.95836206663E-01
1.48000000000E+09 +3.69832649467E-01 +5.82075614305E-01 -1.68010105796E-05 -7.46971649676E-04 +3.70036890918E-05 -7.82381941906E-04 +2.40746825101E-01 +6.45934485782E-01
1.48500000000E+09 +3.95012976532E-01 +5.28615433276E-01 +1.45986467128E-04 -8.91273913113E-04 +1.36812092169E-04 -8.49957395322E-04 +2.74519035048E-01 +5.86867474658E-01
1.49000000000E+09 +4.14327327790E-01 +4.68036889225E-01 +6.66030135356E-05 -1.34211706149E-03 -2.17734554201E-05 -1.33115196919E-03 +3.02446492892E-01 +5.16621459420E-01
1.49500000000E+09 +4.25219374920E-01 +3.99094482675E-01 -3.85840413826E-04 -1.71259252714E-03 -5.02263605100E-04 -1.66576130367E-03 +3.20210429294E-01 +4.36974859993E-01
1.50000000000E+09 +4.25694983734E-01 +3.21650249719E-01 -1.25199330324E-03 -1.93203332536E-03 -1.19765012601E-03 -1.81473791736E-03 +3.24926606608E-01 +3.47206739781E-01
1.50500000000E+09 +4.13439203687E-01 +2.36567568996E-01 -2.21328908818E-03 -1.46787528207E-03 -2.09301332934E-03 -1.53015131546E-03 +3.12484972548E-01 +2.50840395923E-01
1.51000000000E+09 +3.85743056727E-01 +1.44996647393E-01 -2.69711261612E-03 -7.65784526709E-04 -2.65008426467E-03 -8.86742546248E-04 +2.79058051251E-01 +1.50937294682E-01
1.51500000000E+09 +3.38163742687E-01 +5.14136264497E-02 -3.12916097739E-03 -1.21022107826E-04 -3.10639784291E-03 -2.37845569817E-04 +2.24012143199E-01 +5.43687635962E-02
1.52000000000E+09 +2.69290313102E-01 -3.55756458771E-02 -3.34542666297E-03 +1.53135275603E-03 -3.41828504613E-03 +1.48608657613E-03 +1.46500671493E-01 -3.08671047535E-02
1.52500000000E+09 +1.81415745231E-01 -1.08931494121E-01 -1.82026462897E-03 +1.89388281232E-03 -1.88395431579E-03 +1.84827908852E-03 +5.04076996242E-02 -9.75553665657E-02
1.53000000000E+09 +7.69681604649E-02 -1.60127913762E-01 -1.86793343264E-03 +1.83820593731E-03 -1.90950801928E-03 +1.84208887705E-03 -5.55721036451E-02 -1.39977232201E-01
1.53500000000E+09 -3.51250291002E-02 -1.84713105119E-01 -2.22204445820E-03 +2.68055504103E-03 -2.17402959607E-03 +2.71108083169E-03 -1.66468708349E-01 -1.59080715546E-01
1.54000000000E+09 -1.48019344787E-01 -1.82222319327E-01 -9.75603545640E-04 +3.96194387681E-03 -1.03920315112E-03 +3.95716941687E-03 -2.73923856670E-01 -1.55204426684E-01
1.54500000000E+09 -2.54779784369E-01 -1.55758065907E-01 +8.46546136658E-04 +4.26588615055E-03 +7.18292128603E-04 +4.20915724521E-03 -3.71858689073E-01 -1.30844002128E-01
1.55000000000E+09 -3.51077481586E-01 -1.09810628495E-01 +2.19751785144E-03 +3.04192889931E-03 +2.07294192151E-03 +3.10812844385E-03 -4.55477499513E-01 -9.30337185519E-02
1.55500000000E+09 -4.31854132111E-01 -5.02154659756E-02 +2.36216316636E-03 +2.15923803362E-03 +2.33074145760E-03 +2.26883552171E-03 -5.25412760166E-01 -4.61461121665E-02
1.56000000000E+09 -4.95848810808E-01 +1.47076013085E-02 +2.75259092503E-03 +1.43475728097E-03 +2.75714457625E-03 +1.56353731720E-03 -5.81829903976E-01 +6.85846043026E-03
1.56500000000E+09 -5.44582216722E-01 +7.97496949324E-02 +2.82961029944E-03 +7.04975983880E-04 +2.98619113411E-03 +7.52597616566E-04 -6.25597359232E-01 +6.22353678645E-02
1.57000000000E+09 -5.81178184655E-01 +1.41873154137E-01 +2.67118317181E-03 -1.53865468922E-04 +2.79645673352E-03 -2.71363434348E-04 -6.58606217184E-01 +1.17250967849E-01
