# Hz S RI R 50
! CMT, C1220, 16058040, 17.2.0/1
! Date: 14/08/2018 12:24:20
! Data: Format (Calibration Info)
! Freq                      S11: Re/Im (F2)                       S21: Re/Im (F2)                       S12: Re/Im (F2)                       S22: Re/Im (F2)            
1.00000000000E+09 -6.45977446170E-01 +7.15416527312E-01 +3.28986314164E-05 +2.04628160726E-05 +1.55692187086E-05 -2.40792431639E-05 -7.47852900427E-01 +6.24272369276E-01
1.00500000000E+09 -6.38951905591E-01 +7.20489758870E-01 +1.91704354685E-05 +5.54054847857E-05 -1.11698176306E-05 +2.88529891229E-05 -7.44203456898E-01 +6.28442799484E-01
1.01000000000E+09 -6.33105659037E-01 +7.25144403989E-01 -4.74808089328E-05 -1.00418016487E-05 +2.55609088193E-05 -2.92687946014E-05 -7.40678842364E-01 +6.32076509600E-01
1.01500000000E+09 -6.28901933765E-01 +7.28837225183E-01 -3.99965952732E-07 +6.41058480497E-06 +9.93949255423E-06 +4.39678657780E-05 -7.37181862182E-01 +6.35610209616E-01
1.02000000000E+09 -6.26389563197E-01 +7.32003584147E-01 +2.10996219763E-05 +2.10433563916E-05 -4.03243192987E-05 +3.63287914869E-05 -7.33964507381E-01 +6.39182590514E-01
1.02500000000E+09 -6.24904340808E-01 +7.34580527182E-01 +6.67633476588E-05 +7.68303805155E-06 +1.17942935134E-05 -3.04347623642E-05 -7.30990960501E-01 +6.42827775274E-01
1.03000000000E+09 -6.23812099632E-01 +7.36826371021E-01 +1.94389001680E-05 +6.02918566759E-05 -1.52756277422E-05 +3.34538996634E-05 -7.27520241579E-01 +6.46688415004E-01
1.03500000000E+09 -6.21796924159E-01 +7.39065861517E-01 +4.36684910589E-05 +4.23145272560E-06 -1.15787796818E-05 -1.71522054460E-06 -7.23707315817E-01 +6.50729812747E-01
1.04000000000E+09 -6.18366208636E-01 +7.41748758560E-01 +1.57692055982E-05 -9.34740398716E-06 +6.54605343340E-05 +8.93339715385E-06 -7.19979762179E-01 +6.54201017060E-01
1.04500000000E+09 -6.13100128943E-01 +7.45039591591E-01 +1.74122614455E-05 +2.92080460228E-05 -1.67097797390E-05 +1.61757066748E-06 -7.16488455282E-01 +6.57801656119E-01
1.05000000000E+09 -6.05985148559E-01 +7.49397572405E-01 +3.87518697552E-06 +1.59029974525E-05 +7.02169440828E-06 +1.40198543248E-05 -7.13085200055E-01 +6.61054083849E-01
1.05500000000E+09 -5.97430075417E-01 +7.54013117813E-01 +1.37582648102E-05 -2.89386598432E-05 -2.55826283650E-05 -6.02297791336E-05 -7.09869001501E-01 +6.64674610487E-01
1.06000000000E+09 -5.88066755265E-01 +7.59054631977E-01 +3.26189013251E-05 +2.05084743660E-05 +9.91156203784E-06 -2.86210238402E-05 -7.06481412253E-01 +6.68448822709E-01
1.06500000000E+09 -5.78935353068E-01 +7.64214127182E-01 +3.28065810018E-05 -1.01511334494E-06 +3.28432736455E-06 +3.38977116093E-05 -7.02729324333E-01 +6.72282834569E-01
1.07000000000E+09 -5.71160250823E-01 +7.68621205289E-01 +4.16721148655E-05 -1.47357231717E-06 -4.50498425098E-06 +4.98715328204E-05 -6.98889534430E-01 +6.75843491437E-01
1.07500000000E+09 -5.64771631788E-01 +7.72520443788E-01 +3.66574986161E-06 -1.22400407924E-05 +1.35420374543E-05 -1.56096984785E-05 -6.94348492656E-01 +6.79554934724E-01
1.08000000000E+09 -5.60632996413E-01 +7.75638923082E-01 +1.96870897801E-05 +1.41685964085E-05 +2.05420321013E-05 +8.45013551938E-07 -6.90485775308E-01 +6.83276083878E-01
1.08500000000E+09 -5.57778005341E-01 +7.78357984335E-01 +3.95666437053E-05 -5.10191186436E-06 +1.73403357613E-05 -7.17376934011E-06 -6.86494648146E-01 +6.86921261410E-01
1.09000000000E+09 -5.55663597415E-01 +7.80323516974E-01 +6.70528182875E-05 -2.46879929193E-05 +3.37854689681E-05 +1.26336705994E-05 -6.82708093007E-01 +6.90731322205E-01
1.09500000000E+09 -5.54109505314E-01 +7.82082137049E-01 +5.30105600046E-06 -5.71744848926E-06 +9.81518376657E-05 +1.49515213871E-05 -6.78815936497E-01 +6.94611957094E-01
1.10000000000E+09 -5.51129463685E-01 +7.84124310973E-01 +1.04337152841E-05 -4.55997172013E-05 +1.02783418051E-05 +2.64417583761E-05 -6.75019001994E-01 +6.98475869151E-01
1.10500000000E+09 -5.47099293070E-01 +7.86637183247E-01 +5.01998391422E-05 -5.61809305256E-05 +2.90896657433E-05 -2.60428054363E-05 -6.70547018421E-01 +7.02052194686E-01
1.11000000000E+09 -5.41434285177E-01 +7.89741189532E-01 +1.69713545074E-05 +2.53945210055E-05 -1.11972231084E-05 -5.90010044949E-05 -6.66215059750E-01 +7.05351394909E-01
1.11500000000E+09 -5.34096288614E-01 +7.93680937865E-01 +1.59426883189E-05 -1.75792594138E-05 +4.33705519376E-05 -5.81576285946E-05 -6.62184944608E-01 +7.08612222994E-01
1.12000000000E+09 -5.26359954865E-01 +7.97666878673E-01 +3.62531284198E-05 -2.30814628827E-05 -1.60959374421E-06 -3.82110368077E-05 -6.58253519071E-01 +7.12370228927E-01
1.12500000000E+09 -5.18054995300E-01 +8.01815974487E-01 +4.93620006213E-05 -2.05512596827E-05 +3.84317711723E-05 -1.72022168636E-05 -6.53950267325E-01 +7.16303832791E-01
1.13000000000E+09 -5.10693249456E-01 +8.05380758263E-01 +5.49383189011E-07 -3.40091963055E-05 +1.54775387692E-05 -2.53855242961E-05 -6.49643932852E-01 +7.20048801119E-01
1.13500000000E+09 -5.04268767237E-01 +8.08256147338E-01 +1.46717281151E-05 -3.09497741835E-07 -2.27645769975E-06 -2.03837018507E-05 -6.45138892411E-01 +7.23702236812E-01
1.14000000000E+09 -4.99112175282E-01 +8.10706644573E-01 -3.43232983393E-05 -3.78336064865E-05 -1.55318794390E-05 -3.97831397042E-05 -6.40457848126E-01 +7.27001107482E-01
1.14500000000E+09 -4.95134477686E-01 +8.12326906946E-01 +4.86321394819E-05 +1.88692664156E-06 +2.30297100029E-05 -7.96338226093E-06 -6.35794214547E-01 +7.30565355432E-01
1.15000000000E+09 -4.91408383085E-01 +8.13940138359E-01 -2.27375518448E-05 -3.32364174402E-05 -3.71309660712E-05 -9.34953658800E-06 -6.31321750519E-01 +7.34336595432E-01
1.15500000000E+09 -4.87647879608E-01 +8.15707948743E-01 +7.53006433705E-06 -5.55177321910E-05 +1.70132388832E-05 +1.16683788945E-05 -6.26554310080E-01 +7.38026147169E-01
1.16000000000E+09 -4.82944095605E-01 +8.17477927610E-01 +7.92769296903E-06 -4.01230565657E-05 +2.60401127617E-05 -3.04494296592E-05 -6.21761700167E-01 +7.41994320395E-01
1.16500000000E+09 -4.77027887424E-01 +8.19970757881E-01 -9.76611095418E-06 -1.72232171086E-05 +1.21137869423E-05 -2.10446933480E-05 -6.16620821570E-01 +7.45451377835E-01
1.17000000000E+09 -4.69842576168E-01 +8.23107365684E-01 +1.55666437451E-06 -2.42648999071E-05 +2.29898788871E-05 -1.35560096489E-05 -6.11120548393E-01 +7.48839135470E-01
1.17500000000E+09 -4.62008148324E-01 +8.26311002755E-01 +1.50973113071E-05 -3.53011317741E-05 +7.09707630149E-06 -1.92676346512E-05 -6.05494512561E-01 +7.51916668024E-01
1.18000000000E+09 -4.53890207320E-01 +8.29993408518E-01 +6.85559937045E-06 -8.04021388688E-05 +4.00267281029E-06 -2.74408530842E-05 -5.99996590840E-01 +7.55148444577E-01
1.18500000000E+09 -4.45996130202E-01 +8.33217026258E-01 -2.04139435824E-05 -5.07229706400E-05 -5.63350372687E-06 -7.89695011900E-05 -5.94015380890E-01 +7.58225947583E-01
1.19000000000E+09 -4.38786805381E-01 +8.35933530637E-01 +1.21611152480E-05 -6.87960682991E-05 -1.10242231019E-05 -6.28250035746E-05 -5.87875244969E-01 +7.60645694657E-01
1.19500000000E+09 -4.32908762758E-01 +8.38083549010E-01 -7.49992221383E-05 -7.15039606035E-05 -5.20020302678E-05 -8.27695852766E-05 -5.81997316503E-01 +7.61911228904E-01
1.20000000000E+09 -4.28007318223E-01 +8.38953415013E-01 -9.13311736631E-05 -4.53129547363E-05 -9.22388507772E-05 -6.81180471938E-05 -5.77573145226E-01 +7.62098760558E-01
1.20500000000E+09 -4.23651685306E-01 +8.39979314392E-01 -8.96929878808E-05 +5.19732408482E-05 -1.27499338549E-04 +8.20313993836E-05 -5.75258808131E-01 +7.63085037619E-01
1.21000000000E+09 -4.19094540964E-01 +8.41058924398E-01 -4.39634008695E-05 +6.21743529857E-05 -5.40692752712E-05 +1.14462719582E-05 -5.73241145259E-01 +7.66134859307E-01
1.21500000000E+09 -4.13209189822E-01 +8.42189785711E-01 -5.14321301151E-05 +5.94906147682E-05 -1.91271864766E-05 +1.98392809731E-05 -5.70468821562E-01 +7.70526318809E-01
1.22000000000E+09 -4.05639706245E-01 +8.43992691030E-01 +1.48549040241E-06 +6.05908117456E-06 -4.56358802856E-05 +4.00442261585E-05 -5.66410887697E-01 +7.75694628668E-01
1.22500000000E+09 -3.96514120883E-01 +8.46439929695E-01 -3.87687255661E-05 +6.30241962886E-06 +1.84887882794E-06 +2.91197853732E-05 -5.61300624972E-01 +7.80866114450E-01
1.23000000000E+09 -3.85990836534E-01 +8.49423540888E-01 +2.92653109239E-07 +3.89504335601E-06 +2.33025334347E-06 -3.18436528914E-05 -5.55629654306E-01 +7.85648858104E-01
1.23500000000E+09 -3.75096363488E-01 +8.52832333647E-01 -8.31787428187E-06 +4.07401026161E-05 +2.13139471105E-05 +2.46336644862E-05 -5.49879960572E-01 +7.89690187831E-01
1.24000000000E+09 -3.64155496708E-01 +8.56569045796E-01 -1.81734721158E-05 -3.45770523281E-05 +2.72108642992E-05 -2.30468711396E-05 -5.43820509896E-01 +7.93661650903E-01
1.24500000000E+09 -3.54394592664E-01 +8.60418517371E-01 +2.98734966971E-05 +1.54026730563E-05 -7.96960144967E-06 -1.00629255197E-05 -5.37507712701E-01 +7.97339963021E-01
1.25000000000E+09 -3.45956969914E-01 +8.63645237354E-01 -3.53057798954E-05 +1.18492038494E-05 -9.16419285275E-05 -3.89794851535E-05 -5.31018050112E-01 +8.01639604371E-01
1.25500000000E+09 -3.39191723257E-01 +8.66094186360E-01 -1.07997283473E-05 -1.26935441614E-05 -3.01523285067E-05 -6.23420629368E-05 -5.24168633454E-01 +8.05570815592E-01
1.26000000000E+09 -3.33650745709E-01 +8.67747606525E-01 -7.22790294305E-05 -3.98168823888E-06 -5.91905751382E-05 -2.35648402000E-05 -5.17489857827E-01 +8.09905596237E-01
1.26500000000E+09 -3.28913315236E-01 +8.68922581837E-01 -2.62267241335E-05 +8.57713459606E-06 -6.23947589736E-05 -9.89980878780E-06 -5.10571835740E-01 +8.13529090837E-01
1.27000000000E+09 -3.23758352598E-01 +8.70047815881E-01 -8.60544238111E-05 -1.63818576669E-05 -3.63749989865E-05 +1.91028019386E-05 -5.03728241067E-01 +8.17425944207E-01
1.27500000000E+09 -3.17512522983E-01 +8.71068870238E-01 -3.64055545840E-05 +1.12497160641E-06 -5.10404327043E-05 +4.20018509562E-05 -4.96674380136E-01 +8.20906193396E-01
1.28000000000E+09 -3.09443234914E-01 +8.72473816397E-01 -9.36758287083E-05 +1.19020915169E-05 -7.56513547472E-05 +2.53669093626E-06 -4.89637618904E-01 +8.24403510406E-01
1.28500000000E+09 -2.99030586728E-01 +8.74360535593E-01 -3.94045423704E-05 +7.65930413054E-05 -4.67191984264E-05 +1.26300567734E-04 -4.82341618705E-01 +8.28139131929E-01
1.29000000000E+09 -2.87358166401E-01 +8.76755505039E-01 -6.47064886936E-05 +6.86496310057E-05 -8.18157484647E-05 +1.13697465730E-04 -4.74730421891E-01 +8.31908337156E-01
1.29500000000E+09 -2.74899200720E-01 +8.79663724472E-01 -2.42533622547E-05 +7.71552525536E-05 -3.40331860715E-05 +1.03040133025E-04 -4.67003595741E-01 +8.35214601029E-01
1.30000000000E+09 -2.62420385910E-01 +8.82943169224E-01 -4.14283674167E-05 +1.03140967182E-04 -6.73916629482E-05 +8.38326743785E-05 -4.59277384282E-01 +8.38810199299E-01
1.30500000000E+09 -2.51070401873E-01 +8.85954982581E-01 -3.50881497996E-05 +9.98642782284E-05 -1.83391130051E-05 +8.43646010690E-05 -4.51279714973E-01 +8.42092481453E-01
1.31000000000E+09 -2.41154837001E-01 +8.88317933159E-01 -1.83280506090E-05 +1.50337180189E-04 +8.30869885106E-06 +1.05482800206E-04 -4.42932576451E-01 +8.45642725120E-01
1.31500000000E+09 -2.33158444461E-01 +8.89745655536E-01 +1.13125925809E-05 +1.09426236536E-04 +7.04388485127E-06 +1.27919016857E-04 -4.34264444055E-01 +8.49015865902E-01
1.32000000000E+09 -2.26777808645E-01 +8.90228419863E-01 +3.27455409004E-05 +5.66705746084E-05 +2.06451883604E-05 +8.53514831383E-05 -4.25165814787E-01 +8.52459939053E-01
1.32500000000E+09 -2.20958118070E-01 +8.90318687005E-01 -2.14165110231E-06 +9.61249977204E-05 +1.26111180320E-05 +7.15036346195E-05 -4.15523015517E-01 +8.55821012868E-01
1.33000000000E+09 -2.14182918626E-01 +8.89752331832E-01 -1.04116484967E-05 +9.41327363610E-05 +3.67198389646E-05 +1.27143726868E-04 -4.05994684229E-01 +8.59180886264E-01
1.33500000000E+09 -2.05899316493E-01 +8.89008697510E-01 +1.50096938550E-05 +1.12735003956E-04 +4.66159268125E-05 +6.75502291985E-05 -3.96211275572E-01 +8.62400230627E-01
1.34000000000E+09 -1.95083332583E-01 +8.88369473584E-01 +8.56347215289E-05 +6.52324294522E-05 +5.03409117640E-05 +6.35778865121E-05 -3.85924494807E-01 +8.65657341953E-01
1.34500000000E+09 -1.81714977138E-01 +8.87708001245E-01 +5.75228010328E-05 +3.61466733233E-05 +2.81034946099E-05 +1.55002615519E-05 -3.75046548374E-01 +8.69071032857E-01
1.35000000000E+09 -1.66257879662E-01 +8.87710731524E-01 +3.33261615629E-06 +1.02034267941E-04 +4.27027557073E-05 +5.87421089116E-05 -3.63996188450E-01 +8.72194224818E-01
1.35500000000E+09 -1.49299999811E-01 +8.88047002385E-01 +5.36882941976E-05 +1.08137948858E-04 +1.48297477028E-05 +6.25225060998E-05 -3.52424295018E-01 +8.75065449323E-01
1.36000000000E+09 -1.32459246651E-01 +8.88695613819E-01 +3.62479345758E-05 +1.13939012411E-04 +4.24788236456E-05 +8.78245893621E-05 -3.40775292815E-01 +8.77713538072E-01
1.36500000000E+09 -1.16336195553E-01 +8.89352594859E-01 -8.25221930670E-06 +1.18052929930E-04 +1.17925502916E-05 +1.35463653101E-04 -3.28525704800E-01 +8.80294004956E-01
1.37000000000E+09 -1.01918730615E-01 +8.89557935691E-01 -1.08637558342E-05 +1.05003319034E-04 +2.79576747847E-05 +1.05127756777E-04 -3.15573390870E-01 +8.82584953048E-01
1.37500000000E+09 -8.96340208071E-02 +8.89168066251E-01 +2.47804554745E-05 +1.75218034506E-04 +3.90263975081E-05 +1.85417207987E-04 -3.01942279153E-01 +8.84798283140E-01
1.38000000000E+09 -7.86534126407E-02 +8.88452673073E-01 +1.40065373045E-04 +1.85601365835E-04 +6.76649300074E-05 +2.28511691969E-04 -2.87471316430E-01 +8.86973260670E-01
1.38500000000E+09 -6.77814014182E-02 +8.86890917184E-01 +1.57471431830E-04 +1.25970591801E-04 +2.11364856283E-04 +1.62201295006E-04 -2.71905427366E-01 +8.88770459966E-01
1.39000000000E+09 -5.61323671350E-02 +8.84587091183E-01 +2.42660184454E-04 +1.30273940082E-04 +2.26989144107E-04 +1.35500719272E-04 -2.56032038273E-01 +8.90202481127E-01
1.39500000000E+09 -4.25685218906E-02 +8.81342500843E-01 +2.47923881752E-04 +6.32636831816E-05 +3.02576461340E-04 +4.49796187450E-05 -2.39158505139E-01 +8.91053510468E-01
1.40000000000E+09 -2.60395699502E-02 +8.77006979242E-01 +2.79306383219E-04 -2.05782245643E-05 +2.58453669407E-04 -2.31199966554E-05 -2.21798342417E-01 +8.91522527413E-01
1.40500000000E+09 -7.45220395955E-03 +8.72064741700E-01 +2.95253703583E-04 -4.76452743697E-05 +2.43243747907E-04 -8.75504379089E-05 -2.02936898619E-01 +8.91549054553E-01
1.41000000000E+09 +1.32745496397E-02 +8.66787215708E-01 +2.02464369381E-04 -2.71593967729E-05 +2.24962739110E-04 -4.12369530640E-05 -1.82791562335E-01 +8.90765848552E-01
1.41500000000E+09 +3.53932967745E-02 +8.61189171209E-01 +2.54520448494E-04 -7.73706584133E-05 +2.46776361988E-04 -4.97062430374E-05 -1.60939478146E-01 +8.89249558708E-01
1.42000000000E+09 +5.81828925699E-02 +8.55102526304E-01 +2.67850792845E-04 -1.59023124411E-05 +2.72611036529E-04 -8.95324091019E-06 -1.38223718849E-01 +8.86491877297E-01
1.42500000000E+09 +8.02248496114E-02 +8.48002008785E-01 +4.03146131065E-04 -1.55457659294E-04 +3.79641179341E-04 -1.74318413834E-04 -1.14549865475E-01 +8.82726978435E-01
1.43000000000E+09 +1.01008625329E-01 +8.39818994981E-01 +2.68368417265E-04 -2.06454047882E-04 +2.29509510785E-04 -2.30229538703E-04 -8.95920383956E-02 +8.77996980445E-01
1.43500000000E+09 +1.20801181797E-01 +8.30257665650E-01 +2.30435766569E-04 -1.94487190499E-04 +2.90790010154E-04 -2.66341379681E-04 -6.32683758482E-02 +8.71208738869E-01
1.44000000000E+09 +1.40600980150E-01 +8.19431803045E-01 +1.76665171932E-04 -1.92410718476E-04 +2.12605778092E-04 -2.24410017873E-04 -3.50988488188E-02 +8.62334636465E-01
1.44500000000E+09 +1.61662211068E-01 +8.05893136110E-01 +2.12305226101E-04 -1.17970029146E-04 +2.54639171771E-04 -1.77650119166E-04 -5.19517826198E-03 +8.50723407846E-01
1.45000000000E+09 +1.84977979722E-01 +7.88801604372E-01 +3.53887647982E-04 -2.23424523273E-04 +3.54546879212E-04 -2.35715035690E-04 +2.68875901839E-02 +8.36039906096E-01
1.45500000000E+09 +2.11088360408E-01 +7.67534921742E-01 +3.43018704834E-04 -2.61357363204E-04 +3.13038421727E-04 -3.13162846122E-04 +6.03161843980E-02 +8.17945086777E-01
1.46000000000E+09 +2.40095906574E-01 +7.41642583753E-01 +5.57716594268E-04 -3.40278954193E-04 +4.80182210436E-04 -3.65792318034E-04 +9.49246992076E-02 +7.95264270874E-01
1.46500000000E+09 +2.70809930926E-01 +7.10980608713E-01 +3.99852899794E-04 -7.77390129279E-04 +3.73796726076E-04 -7.02294022010E-04 +1.30130429564E-01 +7.68459426838E-01
1.47000000000E+09 +3.03200410128E-01 +6.75727315139E-01 +2.90734334215E-04 -7.55149268031E-04 +3.08856368523E-04 -6.65736680765E-04 +1.66858108584E-01 +7.34547023084E-01
1.47500000000E+09 +3.35247495929E-01 +6.34954311272E-01 +1.19167270930E-04 -9.38841349101E-04 +1.30672637448E-04 -9.12776920223E-04 +2.03334809482E-01 +6.93116111164E-01
1.48000000000E+09 +3.64871798543E-01 +5.88359108029E-01 -4.78147794517E-07 -8.33969568308E-04 +1.75041640157E-05 -8.72937179760E-04 +2.39030984210E-01 +6.43442973063E-01
1.48500000000E+09 +3.90365276927E-01 +5.35135326680E-01 +2.18225220715E-04 -9.65564655613E-04 +1.80415917215E-04 -1.02542223328E-03 +2.72168031906E-01 +5.84697166973E-01
1.49000000000E+09 +4.10086989101E-01 +4.74845333014E-01 +1.79733611630E-04 -1.42094048614E-03 +1.26607020675E-04 -1.45293407670E-03 +2.99199989862E-01 +5.14938193582E-01
1.49500000000E+09 +4.21762664812E-01 +4.06524040205E-01 -2.51224989209E-04 -2.12484872815E-03 -3.43973160108E-04 -2.01555146453E-03 +3.16042673270E-01 +4.36103946451E-01
1.50000000000E+09 +4.23083930576E-01 +3.29409063627E-01 -1.37346298557E-03 -2.44207766559E-03 -1.31615713444E-03 -2.29885216814E-03 +3.20058361781E-01 +3.48149501789E-01
1.50500000000E+09 +4.11872849016E-01 +2.44544538556E-01 -2.60334863091E-03 -1.88585444103E-03 -2.47663904486E-03 -1.86617464635E-03 +3.07868979198E-01 +2.53327333044E-01
1.51000000000E+09 +3.85439686600E-01 +1.53062963846E-01 -3.22255159842E-03 -7.95120856672E-04 -3.21801016456E-03 -8.52303577696E-04 +2.75132947976E-01 +1.55049914321E-01
1.51500000000E+09 +3.39485246862E-01 +5.93184205574E-02 -3.48855745301E-03 -1.22380081572E-04 -3.48006591221E-03 -1.84960839557E-04 +2.21701296469E-01 +5.95756757876E-02
1.52000000000E+09 +2.72236876629E-01 -2.87478727262E-02 -3.83866285397E-03 +1.64679596569E-03 -3.91645090469E-03 +1.63018574577E-03 +1.45378463950E-01 -2.51121128565E-02
1.52500000000E+09 +1.85451683408E-01 -1.03334427130E-01 -2.25267429502E-03 +2.32761110319E-03 -2.26549448136E-03 +2.38260848377E-03 +5.14002182736E-02 -9.15649779659E-02
1.53000000000E+09 +8.18179413913E-02 -1.56112072131E-01 -1.86380995565E-03 +2.20020275647E-03 -1.84550927011E-03 +2.21665205139E-03 -5.34535975614E-02 -1.34832743666E-01
1.53500000000E+09 -2.98130460021E-02 -1.82594599911E-01 -2.28463041061E-03 +2.81935009679E-03 -2.22562785910E-03 +2.86727856787E-03 -1.62896515831E-01 -1.54374234519E-01
1.54000000000E+09 -1.42816858663E-01 -1.81873865544E-01 -1.16294636616E-03 +4.49467689586E-03 -1.12978154251E-03 +4.41598836397E-03 -2.69042959781E-01 -1.51950148359E-01
1.54500000000E+09 -2.49989093061E-01 -1.57052441709E-01 +9.85865341607E-04 +4.74618574242E-03 +8.72202140657E-04 +4.66965198063E-03 -3.66909309542E-01 -1.29150049477E-01
1.55000000000E+09 -3.47059241775E-01 -1.12932136355E-01 +2.66863687811E-03 +3.31282956799E-03 +2.54197650914E-03 +3.42990383958E-03 -4.50869711829E-01 -9.28550850839E-02
1.55500000000E+09 -4.28928033071E-01 -5.45752065551E-02 +2.82854963568E-03 +2.03329034354E-03 +2.79494608982E-03 +2.22630301598E-03 -5.21482731623E-01 -4.66952147440E-02
1.56000000000E+09 -4.94372523304E-01 +9.42640921102E-03 +2.96062225062E-03 +1.14001579145E-03 +3.03013145796E-03 +1.28473857501E-03 -5.78535510675E-01 +6.04034855682E-03
1.56500000000E+09 -5.44434158020E-01 +7.42398798125E-02 +2.67094270166E-03 +5.40332070175E-04 +2.87821907124E-03 +5.93342454797E-04 -6.22414737463E-01 +6.14390362296E-02
1.57000000000E+09 -5.82097341193E-01 +1.36275990793E-01 +2.54474205940E-03 -7.42184895093E-05 +2.71791184421E-03 -1.11656575256E-04 -6.55456226042E-01 +1.15720711199E-01
