# Hz S RI R 50
! CMT, C1220, 16058040, 17.2.0/1
! Date: 14/08/2018 12:20:21
! Data: Format (Calibration Info)
! Freq                      S11: Re/Im (F2)                       S21: Re/Im (F2)                       S12: Re/Im (F2)                       S22: Re/Im (F2)            
1.00000000000E+09 -6.43610181019E-01 +7.16039360002E-01 +9.60882075844E-06 +5.10008703664E-05 -2.51992311837E-05 +1.15573852357E-05 -7.48022009540E-01 +6.23953737524E-01
1.00500000000E+09 -6.36348483225E-01 +7.21145149447E-01 +2.21913272280E-05 -1.98616207048E-05 +3.41284448818E-05 -8.73943893395E-06 -7.44551385331E-01 +6.28003050371E-01
1.01000000000E+09 -6.30441108096E-01 +7.25712947420E-01 -4.01749827553E-05 -3.79819550605E-05 +4.10922139488E-05 +2.92559378631E-05 -7.40988930466E-01 +6.31670708223E-01
1.01500000000E+09 -6.26290684089E-01 +7.29418095416E-01 +2.55631730022E-06 -7.21161259954E-06 -1.06024422254E-05 +4.24198648901E-05 -7.37528030758E-01 +6.35542758646E-01
1.02000000000E+09 -6.23656234997E-01 +7.32668578408E-01 -2.81168137820E-05 -1.00665075790E-05 -3.40800224586E-05 +8.28359707494E-06 -7.34163057960E-01 +6.38912765945E-01
1.02500000000E+09 -6.22057814971E-01 +7.35185927045E-01 +5.20780753200E-07 +5.59169272890E-06 -5.28510553348E-05 -2.22377856170E-05 -7.31433554561E-01 +6.42574779060E-01
1.03000000000E+09 -6.20923949705E-01 +7.37578632773E-01 -1.71030862091E-05 +3.61843132318E-06 -2.80518267302E-06 +3.34822606906E-05 -7.27879767555E-01 +6.46385898118E-01
1.03500000000E+09 -6.18790149204E-01 +7.39710239542E-01 -5.07077469819E-06 +1.72110392421E-05 +1.09969361236E-05 -1.93996343756E-05 -7.24032289655E-01 +6.50426520839E-01
1.04000000000E+09 -6.15284191774E-01 +7.42575393980E-01 -2.75731065864E-05 +2.97334095703E-05 +1.69921601526E-05 -2.73582063170E-06 -7.20345658507E-01 +6.53948260153E-01
1.04500000000E+09 -6.10035258871E-01 +7.45804743222E-01 +3.14729943526E-06 +1.42641470023E-05 -1.66272193007E-05 +6.33056557794E-05 -7.16802301730E-01 +6.57426916429E-01
1.05000000000E+09 -6.02800783303E-01 +7.50010150987E-01 +1.01080656943E-05 +3.42092099133E-05 -6.28375999724E-05 +4.67830284459E-05 -7.13233529406E-01 +6.60874074186E-01
1.05500000000E+09 -5.93962178935E-01 +7.54628884390E-01 +4.88704312857E-05 -3.31495308103E-05 +1.05654027956E-05 -2.90666186186E-05 -7.09964122037E-01 +6.64285093971E-01
1.06000000000E+09 -5.84415547491E-01 +7.59786829655E-01 +3.19141149190E-05 +4.15220788833E-05 -1.47370269794E-05 -1.11971951563E-05 -7.06966583645E-01 +6.68179882439E-01
1.06500000000E+09 -5.75274836131E-01 +7.64918074588E-01 +2.16468160519E-05 +5.24164027190E-05 -3.29888806575E-05 +1.73079478049E-05 -7.03092835031E-01 +6.71902881123E-01
1.07000000000E+09 -5.67143301627E-01 +7.69329351052E-01 +4.26910019825E-05 +3.80821622880E-05 +1.30230481456E-05 +2.51834756784E-05 -6.98848431000E-01 +6.75529481773E-01
1.07500000000E+09 -5.60895778983E-01 +7.73155025012E-01 +1.41972681599E-05 +3.95005338808E-05 +5.04202097671E-05 -2.99492363044E-05 -6.94664094750E-01 +6.79291823145E-01
1.08000000000E+09 -5.56478739905E-01 +7.76404395668E-01 -2.88283425822E-05 +1.26328257729E-05 +4.04749432413E-05 +1.80621493985E-06 -6.90780625583E-01 +6.83123475851E-01
1.08500000000E+09 -5.53574722161E-01 +7.78891555458E-01 +2.45601289596E-05 -1.65635055858E-05 +2.14063114290E-06 +1.30176312689E-05 -6.86733177014E-01 +6.86828355075E-01
1.09000000000E+09 -5.51486910254E-01 +7.80905814251E-01 +1.32067186308E-05 +1.73986391879E-05 +3.70661095695E-05 +1.53257476789E-05 -6.82898054840E-01 +6.90584323294E-01
1.09500000000E+09 -5.49666981532E-01 +7.82656029959E-01 -1.14711219551E-06 -1.13201695288E-05 +7.53533608753E-05 -4.90025476997E-05 -6.79119384712E-01 +6.94446388825E-01
1.10000000000E+09 -5.46672632339E-01 +7.84737165041E-01 +2.83719842104E-05 -2.42822619530E-05 +5.17764399779E-05 +2.07309376086E-05 -6.75153504544E-01 +6.98104848361E-01
1.10500000000E+09 -5.42615170721E-01 +7.87307572526E-01 -1.44475484328E-05 -3.23541818873E-05 +1.94675384553E-05 -6.69277986506E-05 -6.70832653619E-01 +7.01725013168E-01
1.11000000000E+09 -5.36736026666E-01 +7.90494110440E-01 +5.35089798107E-05 -2.25322948369E-05 +9.19210761433E-06 +3.27096291671E-05 -6.66718480160E-01 +7.05014116409E-01
1.11500000000E+09 -5.29574759163E-01 +7.94280549874E-01 +3.40479785157E-05 -2.05379030713E-05 +2.48625528172E-05 -6.03171229391E-05 -6.62541031990E-01 +7.08571725846E-01
1.12000000000E+09 -5.21442468074E-01 +7.98123581600E-01 -1.44376043020E-05 +2.54269168961E-06 +6.47129813494E-06 +2.73605122814E-07 -6.58458719559E-01 +7.12190696809E-01
1.12500000000E+09 -5.13163222301E-01 +8.02216129082E-01 +1.03808392838E-05 -2.46259150804E-05 -1.33443241651E-06 -4.86648765465E-06 -6.54331299034E-01 +7.15966900172E-01
1.13000000000E+09 -5.05730500106E-01 +8.05765898007E-01 -2.10109900808E-06 -1.00215521688E-05 +1.25842335869E-05 -3.46985739604E-05 -6.50004166523E-01 +7.19641186132E-01
1.13500000000E+09 -4.99158189496E-01 +8.08639999422E-01 -2.98484584708E-06 -2.29297103439E-05 +2.02971486733E-05 -4.65325761873E-05 -6.45543103908E-01 +7.23404598099E-01
1.14000000000E+09 -4.93866480752E-01 +8.11051965130E-01 -1.97731554559E-05 -1.65352475953E-05 -1.99753041095E-06 -2.92975071376E-06 -6.40834727897E-01 +7.26815194008E-01
1.14500000000E+09 -4.89631092515E-01 +8.12661886294E-01 -8.19037448121E-06 -3.78973956491E-05 -3.31143937854E-05 -2.79285296710E-05 -6.36339535775E-01 +7.30216912303E-01
1.15000000000E+09 -4.85999418502E-01 +8.14229924761E-01 -2.93396284446E-05 -6.53571443681E-05 -5.15182934029E-06 -2.03584123418E-05 -6.31471097398E-01 +7.33963168374E-01
1.15500000000E+09 -4.82008220672E-01 +8.15762512230E-01 +8.95590402395E-07 -4.15077936381E-05 -9.71833295211E-07 -1.87700135718E-05 -6.26815924970E-01 +7.37790233411E-01
1.16000000000E+09 -4.77061157030E-01 +8.17608553328E-01 -2.00853452896E-06 +1.88884165566E-05 -5.16755506268E-05 -8.45308445934E-06 -6.21957910037E-01 +7.41700939454E-01
1.16500000000E+09 -4.71054737689E-01 +8.20117650409E-01 +1.39957114600E-05 -1.15996425592E-05 +1.36145466881E-05 -3.81028072642E-05 -6.16890851411E-01 +7.45145673972E-01
1.17000000000E+09 -4.63965290933E-01 +8.22951466135E-01 +5.31801293973E-05 -4.26847368568E-05 +3.90469962256E-05 +6.45691193928E-06 -6.11334489223E-01 +7.48613008711E-01
1.17500000000E+09 -4.55834991494E-01 +8.26345386056E-01 -1.35722310126E-05 -3.32362221000E-05 -1.07116554005E-06 -5.64503305641E-05 -6.05838648880E-01 +7.51734397123E-01
1.18000000000E+09 -4.47520352848E-01 +8.29869337138E-01 -5.10645872896E-06 -3.93863965697E-05 -4.78962981820E-06 -5.22141039440E-05 -6.00327227098E-01 +7.54867126689E-01
1.18500000000E+09 -4.39518064583E-01 +8.33090642473E-01 +1.93843748701E-05 -5.56953798326E-05 +4.28947496875E-05 -9.41898676346E-05 -5.94256381275E-01 +7.57956057421E-01
1.19000000000E+09 -4.32222344236E-01 +8.35682599275E-01 -2.09567312217E-05 -5.24881861398E-05 +3.18715354859E-07 -2.50003433243E-05 -5.88191226486E-01 +7.60449925484E-01
1.19500000000E+09 -4.26194946129E-01 +8.37729912676E-01 -5.21489083444E-05 -8.26663002553E-05 +1.46935379438E-06 -8.88952639625E-05 -5.82294940971E-01 +7.61652931619E-01
1.20000000000E+09 -4.21124331611E-01 +8.38476216181E-01 -4.27380005527E-05 -7.86107591193E-05 -5.96137803808E-05 -5.96746013946E-06 -5.77951213639E-01 +7.61829908543E-01
1.20500000000E+09 -4.16622418757E-01 +8.39610959807E-01 -1.03138071731E-04 +1.13317645545E-05 -7.33146085277E-05 +5.43677083392E-05 -5.75630361000E-01 +7.62827862962E-01
1.21000000000E+09 -4.11863219227E-01 +8.40455353311E-01 -8.76260756269E-05 +5.05303640072E-05 -5.12571568397E-05 +2.78227211129E-05 -5.73638973693E-01 +7.65724228372E-01
1.21500000000E+09 -4.05827294081E-01 +8.41543444085E-01 +3.70224164142E-06 +4.16945215136E-05 -2.17628874474E-05 +3.77754353993E-05 -5.70809425054E-01 +7.70364816876E-01
1.22000000000E+09 -3.98073408096E-01 +8.43334453935E-01 -3.59856665841E-05 +9.94126013243E-06 -2.10903259681E-06 +2.55735707187E-05 -5.66622804319E-01 +7.75728250851E-01
1.22500000000E+09 -3.88704094596E-01 +8.45600552719E-01 -5.39089103071E-06 +1.44771126254E-05 -7.01702915821E-06 -1.06559770260E-05 -5.61532886701E-01 +7.80678948645E-01
1.23000000000E+09 -3.78050749898E-01 +8.48266461607E-01 -4.68812677486E-05 -1.73137776843E-06 +2.26795645012E-05 +3.17944531704E-05 -5.55900804418E-01 +7.85305756723E-01
1.23500000000E+09 -3.66995680552E-01 +8.51576578776E-01 -9.60077114727E-06 -2.48010411719E-05 +1.10756617054E-05 -1.65082852359E-05 -5.50163249768E-01 +7.89481787206E-01
1.24000000000E+09 -3.55888334374E-01 +8.55266760275E-01 -2.25046339822E-05 -5.04816593774E-05 -4.31967795624E-05 -2.35440953511E-05 -5.44091931433E-01 +7.93336367797E-01
1.24500000000E+09 -3.46092291405E-01 +8.59153826525E-01 -3.11135294055E-05 -1.70788606265E-05 -6.49997355059E-05 -2.99083397153E-05 -5.38018082832E-01 +7.97171396715E-01
1.25000000000E+09 -3.37436331930E-01 +8.62104383845E-01 -3.26448761547E-05 -7.56971756955E-06 +3.16085323323E-05 -2.69936056321E-05 -5.31440555816E-01 +8.01304635967E-01
1.25500000000E+09 -3.30488680789E-01 +8.64416379117E-01 -3.73777179206E-05 +2.24737518793E-06 -5.10120117372E-05 -4.15060664128E-05 -5.24488663228E-01 +8.05289542546E-01
1.26000000000E+09 -3.24804539965E-01 +8.66168028788E-01 -7.15718303675E-05 -7.30138969900E-06 -3.08983893973E-05 -3.86197187475E-05 -5.17784050741E-01 +8.09642174730E-01
1.26500000000E+09 -3.19863662756E-01 +8.67011770020E-01 -5.98566619198E-05 -1.20062794290E-05 -9.65087660107E-05 -5.95482828751E-06 -5.10755324452E-01 +8.13367680442E-01
1.27000000000E+09 -3.14734947218E-01 +8.67812114131E-01 -3.81471736242E-05 +4.37367740581E-07 -8.91884354960E-05 +1.63170912242E-05 -5.04045054872E-01 +8.17187664960E-01
1.27500000000E+09 -3.08191159077E-01 +8.68738977181E-01 -5.59967268451E-05 -6.19152465949E-06 -9.83739583805E-05 +5.67328313239E-05 -4.96893699262E-01 +8.20703612473E-01
1.28000000000E+09 -3.00067763631E-01 +8.69845717530E-01 -6.30356919392E-05 +6.94420932829E-05 -7.39041069376E-05 +3.28849608318E-05 -4.90089182324E-01 +8.24304181099E-01
1.28500000000E+09 -2.89653399664E-01 +8.71427952017E-01 -8.78764375498E-05 +4.82470667098E-05 -1.19880538874E-04 +6.86616958535E-05 -4.82776245200E-01 +8.27848713285E-01
1.29000000000E+09 -2.78072610936E-01 +8.73619894643E-01 -6.47139833623E-05 +8.74568380384E-05 -1.87155146401E-05 +1.02555000861E-04 -4.75139125405E-01 +8.31592735723E-01
1.29500000000E+09 -2.65609905198E-01 +8.76380064451E-01 -5.35447485359E-05 +4.97229117878E-05 -2.56977718032E-05 +7.36962096640E-05 -4.67401651894E-01 +8.34889603523E-01
1.30000000000E+09 -2.53101842488E-01 +8.79656668684E-01 -4.68641687954E-05 +9.08172195972E-05 -4.92890509867E-05 +8.25902010707E-05 -4.59509689490E-01 +8.38534185439E-01
1.30500000000E+09 -2.41614979524E-01 +8.82577663483E-01 -4.67563889244E-05 +8.94956965984E-05 -6.90321407768E-05 +7.84646590723E-05 -4.51504258104E-01 +8.41851823043E-01
1.31000000000E+09 -2.31483841525E-01 +8.84688599197E-01 -1.46083241518E-06 +8.74914110952E-05 +1.43148591888E-05 +8.83315911949E-05 -4.43281091693E-01 +8.45312230551E-01
1.31500000000E+09 -2.23445317595E-01 +8.86081556342E-01 +1.25094539829E-05 +1.15490674992E-04 +1.64955326392E-05 +7.96393505955E-05 -4.34424717451E-01 +8.48696951785E-01
1.32000000000E+09 -2.16749993146E-01 +8.86586972893E-01 +3.19083070280E-06 +9.09566263414E-05 -1.40715326448E-05 +1.18887792520E-04 -4.25407448429E-01 +8.52050778846E-01
1.32500000000E+09 -2.10767825956E-01 +8.86149285935E-01 +4.07891172579E-05 +5.57906235433E-05 +3.03370931311E-05 +7.67631517523E-05 -4.16007964988E-01 +8.55512379766E-01
1.33000000000E+09 -2.03947195799E-01 +8.85382267467E-01 -6.04306421993E-06 +1.05372988622E-04 +3.81059392300E-05 +1.24538291110E-04 -4.06308784737E-01 +8.58713916073E-01
1.33500000000E+09 -1.95465939951E-01 +8.84344022415E-01 +5.05552318479E-06 +1.37468278968E-04 +6.56106142986E-05 +1.56275950276E-04 -3.96513427972E-01 +8.62030952566E-01
1.34000000000E+09 -1.84535361687E-01 +8.83147020723E-01 +5.23548910901E-05 +1.08207369145E-04 +9.31307205399E-05 +1.44964505854E-04 -3.86303838733E-01 +8.65410847646E-01
1.34500000000E+09 -1.71120512664E-01 +8.82321431489E-01 +1.21079374729E-04 +1.13921292599E-04 +7.57686546603E-05 +7.89227849860E-05 -3.75462014641E-01 +8.68577664551E-01
1.35000000000E+09 -1.55781036928E-01 +8.82025247913E-01 +3.74464291340E-05 +6.52158070364E-05 +6.04106876042E-06 +7.42415377881E-05 -3.64501455656E-01 +8.71739734310E-01
1.35500000000E+09 -1.38986411726E-01 +8.82037604213E-01 +8.07794326643E-05 +9.56269333451E-05 +4.04473733438E-05 +6.52162606827E-05 -3.52809871123E-01 +8.74639306379E-01
1.36000000000E+09 -1.22127089257E-01 +8.82294020633E-01 +5.35506080909E-05 +1.05682869831E-04 +2.64275946852E-05 +7.90007386898E-05 -3.41229236143E-01 +8.77397031166E-01
1.36500000000E+09 -1.06058771200E-01 +8.82617943089E-01 +8.23781284202E-05 +1.10535644079E-04 +4.23388427503E-05 +8.47966115085E-05 -3.29015139340E-01 +8.79767690931E-01
1.37000000000E+09 -9.16457373291E-02 +8.82384786247E-01 +7.31249803848E-05 +1.54182498651E-04 +8.17273953400E-05 +1.39987756194E-04 -3.16192035346E-01 +8.82217965412E-01
1.37500000000E+09 -7.94239768253E-02 +8.81772344508E-01 +6.80762167169E-05 +1.46731231993E-04 +7.26713477808E-05 +1.52888858521E-04 -3.02589469735E-01 +8.84309609589E-01
1.38000000000E+09 -6.84472543198E-02 +8.80445382963E-01 +1.36043545495E-04 +1.38763054484E-04 +1.59032242188E-04 +1.58561850166E-04 -2.88063541234E-01 +8.86533359079E-01
1.38500000000E+09 -5.76929731478E-02 +8.78362962425E-01 +1.67222162278E-04 +6.22201555925E-05 +2.27813819905E-04 +1.22679275619E-04 -2.72584371789E-01 +8.88395675050E-01
1.39000000000E+09 -4.62137896173E-02 +8.75282966189E-01 +2.12046226897E-04 +1.00840982313E-04 +2.35536103929E-04 +1.33613852605E-04 -2.56635251551E-01 +8.89803456224E-01
1.39500000000E+09 -3.28562317880E-02 +8.71414107131E-01 +3.25808638055E-04 +7.29593387729E-05 +3.69259912214E-04 +9.37818565887E-05 -2.39958509643E-01 +8.90737047632E-01
1.40000000000E+09 -1.68607197460E-02 +8.66677936205E-01 +3.45840023231E-04 -2.70241304133E-05 +3.76895584276E-04 -3.03147279472E-05 -2.22508705990E-01 +8.91358661723E-01
1.40500000000E+09 +1.37194459124E-03 +8.61243973539E-01 +3.15756379888E-04 -1.75193711558E-04 +2.84512526461E-04 -2.12582651473E-04 -2.03733881552E-01 +8.91263154320E-01
1.41000000000E+09 +2.17403276227E-02 +8.55406352757E-01 +1.58260725922E-04 -1.78614120847E-04 +1.74247244888E-04 -1.77652256991E-04 -1.83408243427E-01 +8.90573766392E-01
1.41500000000E+09 +4.33143572743E-02 +8.49420389115E-01 +9.96539372123E-05 -1.40387110559E-04 +1.30754263995E-04 -1.41027538605E-04 -1.61898042974E-01 +8.88989883263E-01
1.42000000000E+09 +6.56409292439E-02 +8.43148090363E-01 +2.52704670554E-04 +6.84904970004E-06 +2.27945274846E-04 -3.26363713818E-05 -1.39068506618E-01 +8.86295759485E-01
1.42500000000E+09 +8.75138893695E-02 +8.35546467452E-01 +3.36450062532E-04 -2.14943279786E-04 +3.69723575045E-04 -2.13529680148E-04 -1.15437042607E-01 +8.82834385018E-01
1.43000000000E+09 +1.07737866179E-01 +8.26717783441E-01 +1.18011040205E-04 -3.24402032763E-04 +1.18641824367E-04 -4.08067087209E-04 -9.05628490526E-02 +8.78091543554E-01
1.43500000000E+09 +1.26949744375E-01 +8.16363492863E-01 +3.48598282099E-05 -2.94724696905E-04 -5.86984332770E-06 -3.19343751182E-04 -6.43035226429E-02 +8.71457600881E-01
1.44000000000E+09 +1.45760130332E-01 +8.04902996925E-01 -1.18014774991E-04 -2.07235157535E-04 -1.26240951736E-04 -2.06978415953E-04 -3.62455871714E-02 +8.62723519296E-01
1.44500000000E+09 +1.65711834910E-01 +7.90489210933E-01 +1.97030137078E-05 +4.85965266392E-05 +2.93193711780E-05 +5.56733081116E-05 -6.15791713296E-03 +8.51305856018E-01
1.45000000000E+09 +1.87618264283E-01 +7.72742728357E-01 +3.25239177745E-04 -1.55031258149E-04 +2.68987082757E-04 -1.86255718545E-04 +2.57809133652E-02 +8.36869354830E-01
1.45500000000E+09 +2.12116501082E-01 +7.51126031505E-01 +9.06008901645E-05 -2.33236362220E-04 +5.19836643411E-05 -2.57076127217E-04 +5.93279868155E-02 +8.19055507067E-01
1.46000000000E+09 +2.39279084517E-01 +7.24695672740E-01 +1.67814294443E-04 -5.11814222258E-05 +1.55683694727E-04 -8.65890132931E-05 +9.42433621936E-02 +7.96804853037E-01
1.46500000000E+09 +2.67833557863E-01 +6.93928821925E-01 +3.24411210989E-04 -2.18396624130E-04 +3.06512982393E-04 -1.93550421815E-04 +1.29701427758E-01 +7.70059689002E-01
1.47000000000E+09 +2.98042468731E-01 +6.59092449622E-01 +4.98295767529E-04 -3.06142400676E-04 +4.29741774820E-04 -2.93048670554E-04 +1.66782460802E-01 +7.36453029284E-01
1.47500000000E+09 +3.27631271001E-01 +6.18701340432E-01 +4.09769440428E-04 -7.53427853289E-04 +4.04742988088E-04 -6.98847742987E-04 +2.03816468648E-01 +6.95374845664E-01
1.48000000000E+09 +3.54245311606E-01 +5.73168017079E-01 +9.54462696463E-05 -7.50230477471E-04 +1.51944811925E-04 -7.25925044116E-04 +2.40108339528E-01 +6.45843824319E-01
1.48500000000E+09 +3.77063112587E-01 +5.21938429128E-01 +2.30680567206E-04 -6.48529331013E-04 +1.77995897341E-04 -6.77291065094E-04 +2.74228957233E-01 +5.87089399298E-01
1.49000000000E+09 +3.93642179462E-01 +4.64152849857E-01 +4.72073152513E-04 -8.67088801868E-04 +4.35723993649E-04 -8.91721005224E-04 +3.02517580244E-01 +5.16871060528E-01
1.49500000000E+09 +4.02157748879E-01 +3.99370047874E-01 +5.24494927402E-04 -1.94212021110E-03 +4.29561606377E-04 -1.84214252787E-03 +3.20435790696E-01 +4.36969441660E-01
1.50000000000E+09 +4.00827379244E-01 +3.27168431909E-01 -8.38647664804E-04 -2.57193965720E-03 -7.49479124992E-04 -2.43294603350E-03 +3.24947958005E-01 +3.47370618631E-01
1.50500000000E+09 +3.88129564635E-01 +2.48873051177E-01 -2.10780589931E-03 -2.32556161021E-03 -1.91001902096E-03 -2.28801257056E-03 +3.12908847409E-01 +2.51005565155E-01
1.51000000000E+09 +3.62012499864E-01 +1.64510979919E-01 -3.22703503211E-03 -1.14061551595E-03 -3.08905411655E-03 -1.29449980591E-03 +2.79774606662E-01 +1.50906292462E-01
1.51500000000E+09 +3.18901277856E-01 +7.85371907177E-02 -3.22202382643E-03 -2.46668469727E-04 -3.23610580294E-03 -3.96163239317E-04 +2.25024111856E-01 +5.37624150919E-02
1.52000000000E+09 +2.57406665696E-01 -2.89766911864E-03 -3.43492628856E-03 +1.20103599876E-03 -3.52396398940E-03 +1.08782364738E-03 +1.47122023250E-01 -3.20455465857E-02
1.52500000000E+09 +1.78137809128E-01 -7.32386113412E-02 -2.40926150177E-03 +1.74938893213E-03 -2.46464914696E-03 +1.71560377731E-03 +5.05909896947E-02 -9.92228022908E-02
1.53000000000E+09 +8.26270149852E-02 -1.23851049276E-01 -2.11555938665E-03 +2.22759469685E-03 -2.12409858714E-03 +2.27833611532E-03 -5.64566748464E-02 -1.41814933107E-01
1.53500000000E+09 -2.02100257634E-02 -1.50236281792E-01 -1.85480268203E-03 +2.73019656455E-03 -1.88256743335E-03 +2.73938206131E-03 -1.67970354583E-01 -1.60424014312E-01
1.54000000000E+09 -1.25270395987E-01 -1.53082006883E-01 -1.14332298836E-03 +3.61498636440E-03 -1.18351392578E-03 +3.61156769994E-03 -2.75761156349E-01 -1.55697146682E-01
1.54500000000E+09 -2.26155374321E-01 -1.32805285906E-01 +3.53156529783E-04 +4.31473860950E-03 +2.60981466438E-04 +4.33821963813E-03 -3.73728214571E-01 -1.30724642837E-01
1.55000000000E+09 -3.19284242940E-01 -9.51039719223E-02 +2.27006584328E-03 +3.35712253710E-03 +2.08279744697E-03 +3.50917162582E-03 -4.56913747256E-01 -9.24617660825E-02
1.55500000000E+09 -3.99544391810E-01 -4.27249338653E-02 +2.83883949976E-03 +2.20422900963E-03 +2.75962213305E-03 +2.38698138515E-03 -5.26692936094E-01 -4.51901301840E-02
1.56000000000E+09 -4.64600285055E-01 +1.53386138970E-02 +2.96282345248E-03 +8.14866459725E-04 +3.04799612493E-03 +1.02002396532E-03 -5.82895460901E-01 +8.16966969603E-03
1.56500000000E+09 -5.16574058334E-01 +7.50996698752E-02 +2.28719841720E-03 +2.16839789737E-04 +2.48556733460E-03 +2.82696444395E-04 -6.25842280319E-01 +6.37515239950E-02
1.57000000000E+09 -5.56291077840E-01 +1.34183951085E-01 +1.94454905239E-03 -1.24000674278E-04 +2.08721848197E-03 -1.91405102988E-04 -6.58247157907E-01 +1.18563499737E-01
