# Hz S RI R 50
! CMT, C1220, 16058040, 17.2.0/1
! Date: 14/08/2018 12:23:42
! Data: Format (Calibration Info)
! Freq                      S11: Re/Im (F2)                       S21: Re/Im (F2)                       S12: Re/Im (F2)                       S22: Re/Im (F2)            
1.00000000000E+09 -6.45756190568E-01 +7.15745455047E-01 -4.02426331412E-06 -3.46104843310E-05 -2.45671280433E-05 -3.41147769431E-05 -7.47952866448E-01 +6.24208478703E-01
1.00500000000E+09 -6.38494231037E-01 +7.20776913846E-01 -2.56064649900E-05 -2.08506314387E-05 -2.23937676923E-06 +4.91017873009E-05 -7.44472702176E-01 +6.28240418832E-01
1.01000000000E+09 -6.32593283128E-01 +7.25320566657E-01 +1.55989627275E-05 +1.25486124916E-05 -1.80087969390E-05 +2.26682678998E-05 -7.40817012724E-01 +6.31865371746E-01
1.01500000000E+09 -6.28560907406E-01 +7.29198986890E-01 +1.24218624577E-05 -2.00275254874E-05 +3.78463190420E-06 +4.33891778256E-05 -7.37406119320E-01 +6.35695460792E-01
1.02000000000E+09 -6.26059154751E-01 +7.32342442352E-01 +2.45704066257E-05 +3.78467098054E-05 +1.51475696083E-05 -3.37056187993E-06 -7.34096509906E-01 +6.39109076878E-01
1.02500000000E+09 -6.24361911710E-01 +7.34922654349E-01 +2.60458508429E-05 -2.04349381154E-05 -2.52427235912E-05 +1.33066587006E-05 -7.31222250080E-01 +6.42768969207E-01
1.03000000000E+09 -6.23317346165E-01 +7.37174303819E-01 -2.38381692680E-05 +6.03824041690E-06 -1.86864150297E-05 -3.71283707640E-05 -7.27707310471E-01 +6.46544250720E-01
1.03500000000E+09 -6.21454461713E-01 +7.39398483409E-01 +4.00721553384E-05 -5.80296169576E-06 -4.85398638130E-05 -2.17151495097E-05 -7.23858597970E-01 +6.50480154093E-01
1.04000000000E+09 -6.17908549902E-01 +7.42238947902E-01 -2.62126618709E-05 +2.15673775806E-05 -3.45076504579E-05 -5.66383533201E-06 -7.20141274290E-01 +6.54040477820E-01
1.04500000000E+09 -6.12727890641E-01 +7.45653490060E-01 -1.69137111945E-06 +9.22867889915E-06 +6.26364751273E-05 -5.30381394017E-05 -7.16612908958E-01 +6.57727144938E-01
1.05000000000E+09 -6.05606555067E-01 +7.49820341068E-01 +1.12617232577E-05 +2.37175202896E-05 -1.01568732041E-05 +4.51377279109E-05 -7.13180626676E-01 +6.61098038182E-01
1.05500000000E+09 -5.96959925893E-01 +7.54419142453E-01 -1.49417947816E-05 +4.65339908880E-05 +6.95581693060E-05 +3.33443245946E-05 -7.09869777343E-01 +6.64639439579E-01
1.06000000000E+09 -5.87367872527E-01 +7.59523248548E-01 +2.50609200600E-05 +1.48432121504E-05 -2.42148643103E-06 +7.34519949972E-05 -7.06565505965E-01 +6.68400853503E-01
1.06500000000E+09 -5.78396179205E-01 +7.64666987998E-01 +4.03295780363E-05 +5.89188194562E-05 +2.36341666212E-05 -8.32105508374E-06 -7.02959047948E-01 +6.72046598036E-01
1.07000000000E+09 -5.70433202298E-01 +7.69127974433E-01 +3.13704686959E-06 -1.64072118848E-05 +6.29843143432E-05 +2.46971468034E-05 -6.98818881331E-01 +6.75830192494E-01
1.07500000000E+09 -5.64306250747E-01 +7.73101659474E-01 +3.46347099241E-05 -2.13531760252E-05 +4.24027697909E-05 +9.69717487632E-06 -6.94502067815E-01 +6.79485519276E-01
1.08000000000E+09 -5.59823316189E-01 +7.76368895388E-01 +5.53681491473E-05 +2.94868170768E-05 +3.56285252982E-05 -1.75011780392E-05 -6.90587806457E-01 +6.83322601898E-01
1.08500000000E+09 -5.57177633171E-01 +7.78812894886E-01 +2.45746714758E-05 -3.33555062854E-05 +4.08680045447E-05 +5.32241200722E-05 -6.86655457706E-01 +6.86932602615E-01
1.09000000000E+09 -5.55082435029E-01 +7.80900408033E-01 +3.02543159746E-05 +7.15893159462E-06 -6.43748918252E-06 -1.52652464518E-05 -6.82781933470E-01 +6.90736562061E-01
1.09500000000E+09 -5.53398015847E-01 +7.82696175464E-01 -3.04680763780E-06 +5.27651987126E-07 +4.02175143474E-05 -1.48063052822E-05 -6.79023865358E-01 +6.94604224508E-01
1.10000000000E+09 -5.50311718047E-01 +7.84639795968E-01 +6.18712977052E-05 +1.23679733207E-05 +5.09656702783E-05 -6.25011583301E-06 -6.74954220300E-01 +6.98424191028E-01
1.10500000000E+09 -5.46340489201E-01 +7.87160327557E-01 +4.92971365536E-05 -4.65658244445E-05 -5.28252317365E-06 -3.30745926632E-06 -6.70691490619E-01 +7.01850114423E-01
1.11000000000E+09 -5.40620298760E-01 +7.90453097834E-01 +5.67782813826E-05 -2.00555923261E-05 +4.55193314718E-06 -2.91519033405E-05 -6.66491123432E-01 +7.05378205193E-01
1.11500000000E+09 -5.33228347740E-01 +7.94295359683E-01 +2.38182894212E-05 -4.27778604479E-05 +2.88847343608E-05 -9.09600395389E-06 -6.62397305219E-01 +7.08697402649E-01
1.12000000000E+09 -5.25526124382E-01 +7.98329168457E-01 +1.73479717908E-05 -5.54452342326E-05 +3.06632611034E-05 -3.34671118699E-05 -6.58377832063E-01 +7.12383129899E-01
1.12500000000E+09 -5.17136115236E-01 +8.02368299334E-01 +4.69870270934E-05 +1.56367948104E-05 +2.21320696903E-05 -4.66686737550E-05 -6.54161488213E-01 +7.16364349845E-01
1.13000000000E+09 -5.09746553213E-01 +8.06104607885E-01 -2.03339331821E-06 -1.99889565167E-05 +1.39024812091E-05 -3.48308052721E-05 -6.49832534285E-01 +7.19880266585E-01
1.13500000000E+09 -5.03297176737E-01 +8.08947856870E-01 -1.22102971684E-05 -6.81902189622E-05 +7.18227400760E-06 -3.71998037497E-05 -6.45375901076E-01 +7.23644243840E-01
1.14000000000E+09 -4.98045763261E-01 +8.11333336481E-01 -2.57487771271E-05 +1.94570100549E-05 +3.94846151582E-05 -1.47792386603E-05 -6.40713114044E-01 +7.27017161822E-01
1.14500000000E+09 -4.94026939642E-01 +8.13137297747E-01 +3.65150506928E-06 -3.50505428328E-05 +3.96810649529E-05 -3.84713904362E-05 -6.36040758705E-01 +7.30454705053E-01
1.15000000000E+09 -4.90237866542E-01 +8.14701209919E-01 +5.26309537057E-05 +7.75604813884E-06 -4.05419596661E-07 +3.99065805144E-06 -6.31510599942E-01 +7.34273692381E-01
1.15500000000E+09 -4.86484337304E-01 +8.16349751397E-01 -7.13724419868E-07 -2.20750679925E-05 +2.13396597575E-05 -1.09144977367E-05 -6.26735538430E-01 +7.38053604339E-01
1.16000000000E+09 -4.81622316550E-01 +8.18173800195E-01 -1.30120413986E-05 -2.39100967488E-05 -7.47834187842E-06 +8.24142413641E-06 -6.21847869426E-01 +7.41859694691E-01
1.16500000000E+09 -4.75728428512E-01 +8.20813837788E-01 +3.08951116349E-05 +2.43035508007E-05 -8.98330966601E-06 +2.14923078500E-05 -6.16812671343E-01 +7.45418548381E-01
1.17000000000E+09 -4.68688714025E-01 +8.23906473494E-01 -1.77735261519E-05 -2.31446805455E-05 +4.49471292913E-05 +5.34519751832E-07 -6.11429723035E-01 +7.48647388027E-01
1.17500000000E+09 -4.60657217699E-01 +8.27059542315E-01 -1.36788297373E-05 -3.80509485317E-05 +4.83128396786E-05 -3.22157607209E-05 -6.05642494080E-01 +7.51897187940E-01
1.18000000000E+09 -4.52433798445E-01 +8.30718411927E-01 -1.78689291886E-05 -6.26003765736E-05 -9.48799745406E-07 -2.11474613359E-05 -6.00076886454E-01 +7.54928791715E-01
1.18500000000E+09 -4.44402790793E-01 +8.33918260224E-01 +3.08061853031E-05 -4.33983738172E-05 -9.30591051590E-06 -1.04422744407E-05 -5.94029455059E-01 +7.58027055928E-01
1.19000000000E+09 -4.37190709354E-01 +8.36668199312E-01 -1.93108956138E-05 -4.39110191731E-05 -2.50513596955E-05 -3.95526279874E-05 -5.87995560176E-01 +7.60655594428E-01
1.19500000000E+09 -4.31295509174E-01 +8.38718990966E-01 -2.50703582071E-05 -5.50184611828E-05 -5.51862140913E-05 -1.04482707876E-04 -5.82123584680E-01 +7.61880336839E-01
1.20000000000E+09 -4.26495659466E-01 +8.39560504636E-01 -9.20330315446E-05 -5.29112370870E-05 -9.49602687630E-05 -5.85592365788E-05 -5.77721409193E-01 +7.62100230067E-01
1.20500000000E+09 -4.22051415798E-01 +8.40733614324E-01 -1.01318182774E-04 -4.24186210381E-06 -1.01782712080E-04 +3.76976106279E-07 -5.75354179703E-01 +7.62964950893E-01
1.21000000000E+09 -4.17420946227E-01 +8.41745791763E-01 -4.54674863865E-05 -1.78493838369E-05 -4.42877534902E-05 -3.69299476623E-05 -5.73418105960E-01 +7.65933389139E-01
1.21500000000E+09 -4.11528231490E-01 +8.43116124477E-01 -3.59652971341E-05 +7.79188747524E-07 -1.67851227555E-05 -3.23188954754E-05 -5.70615415449E-01 +7.70442818125E-01
1.22000000000E+09 -4.03901733208E-01 +8.44636731514E-01 -3.63576204277E-05 +1.32478889485E-05 -2.61606702072E-06 +1.25013295137E-05 -5.66521939319E-01 +7.75742712309E-01
1.22500000000E+09 -3.94612568175E-01 +8.47142123677E-01 -3.71165186554E-06 +2.51703977854E-05 -5.15821970414E-05 -1.14323705636E-05 -5.61383201179E-01 +7.80868882955E-01
1.23000000000E+09 -3.83995355819E-01 +8.50021023052E-01 -2.57152268484E-05 -1.26091214099E-05 +2.19924098109E-06 -1.49084474911E-05 -5.55678613077E-01 +7.85369444462E-01
1.23500000000E+09 -3.73070946119E-01 +8.53577041674E-01 -1.16037031820E-05 -8.96255005309E-06 -5.71559815318E-05 +1.79713554735E-06 -5.50010205202E-01 +7.89675864137E-01
1.24000000000E+09 -3.61992705198E-01 +8.57232998144E-01 -1.81507385101E-05 -1.01809210766E-05 -5.79442602558E-05 -4.13118133708E-05 -5.43936320154E-01 +7.93584472756E-01
1.24500000000E+09 -3.52258256129E-01 +8.61017195169E-01 -2.96544262364E-05 +1.03197990221E-05 -2.82643012932E-05 -4.09178257916E-05 -5.37525664437E-01 +7.97352365604E-01
1.25000000000E+09 -3.43810660804E-01 +8.64353865317E-01 -6.58451613268E-05 -2.34948203470E-05 -8.15950507669E-05 -5.02773838496E-05 -5.31082304785E-01 +8.01626471043E-01
1.25500000000E+09 -3.36908783753E-01 +8.66629639529E-01 -7.49463063191E-05 +2.05210030226E-05 -1.11707485316E-04 -3.61767291589E-06 -5.24079768783E-01 +8.05503212255E-01
1.26000000000E+09 -3.31328061093E-01 +8.68324403838E-01 -2.18899503977E-05 +1.50551020576E-05 -2.54525595010E-05 -4.10554097082E-05 -5.17525751542E-01 +8.09804080595E-01
1.26500000000E+09 -3.26509389014E-01 +8.69486585524E-01 -9.99046453043E-05 -2.22379828330E-06 -6.40416708701E-05 +5.68829659963E-05 -5.10551509913E-01 +8.13567232429E-01
1.27000000000E+09 -3.21341572708E-01 +8.70386788809E-01 -1.10931051021E-04 +1.31415986976E-05 -6.18420245624E-05 +4.00307607135E-05 -5.03888522730E-01 +8.17418328289E-01
1.27500000000E+09 -3.15175792264E-01 +8.71387878857E-01 -8.63372665029E-05 +4.13381887858E-05 -1.15096415771E-04 +6.55595216655E-05 -4.96793726085E-01 +8.20893787658E-01
1.28000000000E+09 -3.06971712679E-01 +8.72789232814E-01 -6.95698676943E-05 +1.94990809077E-05 -8.17997576177E-05 +9.24051180127E-05 -4.89773895839E-01 +8.24328556252E-01
1.28500000000E+09 -2.96501126969E-01 +8.74655891470E-01 -5.87758068327E-05 +8.56833553648E-05 -1.16633550880E-04 +9.64737813557E-05 -4.82276313750E-01 +8.27992807598E-01
1.29000000000E+09 -2.84808125877E-01 +8.76876291703E-01 -8.99082245615E-05 +6.80159500448E-05 -1.03975951732E-04 +6.84042862155E-05 -4.74864632713E-01 +8.31664483420E-01
1.29500000000E+09 -2.72200030152E-01 +8.79840253298E-01 -5.08130394793E-05 +7.13861425673E-05 +1.03621634684E-05 +7.43056556760E-05 -4.66976532161E-01 +8.35093977731E-01
1.30000000000E+09 -2.59766349525E-01 +8.83007560848E-01 -4.15813654793E-05 +3.95156227460E-05 -5.97109940124E-06 +6.95177447096E-05 -4.59145429584E-01 +8.38614553846E-01
1.30500000000E+09 -2.48321841441E-01 +8.85999174929E-01 -4.69645243369E-05 +1.07564189516E-04 -7.95500102482E-05 +9.99061559537E-05 -4.51251197735E-01 +8.42050924581E-01
1.31000000000E+09 -2.38341221951E-01 +8.88187983961E-01 -5.33646845404E-05 +1.08209527660E-04 -2.62158778075E-05 +1.17364693906E-04 -4.42975286369E-01 +8.45459041572E-01
1.31500000000E+09 -2.30346087925E-01 +8.89595762745E-01 +2.25615588758E-06 +1.09435855564E-04 +4.04850341669E-05 +1.59862990696E-04 -4.34171720806E-01 +8.48997219269E-01
1.32000000000E+09 -2.23903130120E-01 +8.90246462081E-01 -2.14941212402E-05 +1.19759916426E-04 +1.34375328270E-05 +1.37884660470E-04 -4.25246519492E-01 +8.52336885364E-01
1.32500000000E+09 -2.17986518874E-01 +8.90070996283E-01 -3.34947162790E-05 +7.43265380989E-05 -2.36858963465E-06 +5.98571464363E-05 -4.15659506485E-01 +8.55613546357E-01
1.33000000000E+09 -2.11223332185E-01 +8.89461911976E-01 +3.34614885723E-06 +8.91199766972E-05 +1.43663431972E-05 +1.28601415161E-04 -4.06029736585E-01 +8.58938916550E-01
1.33500000000E+09 -2.02795284464E-01 +8.88539926538E-01 +2.42439535475E-05 +1.51520449399E-04 +6.62346818172E-05 +1.45876976750E-04 -3.96236483988E-01 +8.62233347449E-01
1.34000000000E+09 -1.91869640870E-01 +8.87844436664E-01 +1.01842839641E-04 +1.46761336292E-04 +7.38697831901E-05 +7.00931159225E-05 -3.86011320668E-01 +8.65537801133E-01
1.34500000000E+09 -1.78366837413E-01 +8.87103813027E-01 +5.29521957601E-05 +6.26338983720E-05 +6.34169203725E-05 +1.08971986239E-04 -3.75289411614E-01 +8.68780859853E-01
1.35000000000E+09 -1.62866394365E-01 +8.86922855813E-01 +6.79616619693E-05 +8.34644245419E-05 +3.06937476782E-05 +9.18882330885E-05 -3.64219901502E-01 +8.71874420080E-01
1.35500000000E+09 -1.46009161726E-01 +8.87157166894E-01 +9.72435453184E-05 +1.24923796970E-04 +7.29092590044E-05 +1.18907365018E-04 -3.52561671992E-01 +8.74609392601E-01
1.36000000000E+09 -1.29217745617E-01 +8.87504345968E-01 +1.03533678544E-04 +9.24594129452E-05 +7.03581965811E-05 +1.24992801655E-04 -3.40852731292E-01 +8.77318442650E-01
1.36500000000E+09 -1.13279567049E-01 +8.88093985746E-01 +5.42091550471E-05 +1.10658896944E-04 +1.03355491584E-04 +6.30812254476E-05 -3.28689597745E-01 +8.79928271696E-01
1.37000000000E+09 -9.87555628789E-02 +8.88078270300E-01 +1.17121497255E-04 +8.54616108888E-05 +8.51014198345E-05 +1.17969411894E-04 -3.15982859659E-01 +8.82246628284E-01
1.37500000000E+09 -8.65262731012E-02 +8.87704722018E-01 +8.94927869968E-05 +9.53518376098E-05 +9.71350062765E-05 +1.31551384429E-04 -3.02339403308E-01 +8.84483088875E-01
1.38000000000E+09 -7.55829103375E-02 +8.86628286400E-01 +1.57690807625E-04 +1.60227926784E-04 +1.31652465585E-04 +1.75991228681E-04 -2.87848003556E-01 +8.86569776951E-01
1.38500000000E+09 -6.47662458975E-02 +8.84879319560E-01 +1.89609899530E-04 +7.30616516183E-05 +2.13646295002E-04 +1.02731182243E-04 -2.72321359264E-01 +8.88457521642E-01
1.39000000000E+09 -5.32064230157E-02 +8.82343233590E-01 +2.06795872527E-04 +8.05085445998E-05 +2.39117126293E-04 +9.62213520092E-05 -2.56513468890E-01 +8.89950768872E-01
1.39500000000E+09 -3.97006981469E-02 +8.78859657325E-01 +2.59658608527E-04 +4.95561926606E-05 +2.93744291200E-04 +4.06977059100E-05 -2.39743239660E-01 +8.90721305059E-01
1.40000000000E+09 -2.33718446537E-02 +8.74328304560E-01 +2.85074955929E-04 +7.50465545757E-06 +3.20634834348E-04 -8.23013837935E-05 -2.22267727257E-01 +8.91174213291E-01
1.40500000000E+09 -4.90864759396E-03 +8.69282758580E-01 +2.11078206507E-04 -1.65859779484E-04 +2.14706592955E-04 -1.44143731547E-04 -2.03599690380E-01 +8.91197411241E-01
1.41000000000E+09 +1.55929977742E-02 +8.63657761092E-01 +1.11065339772E-04 -5.94759640996E-05 +1.00071687687E-04 -8.88319014786E-05 -1.83461789051E-01 +8.90568883446E-01
1.41500000000E+09 +3.74774339055E-02 +8.57789432520E-01 +1.55865648480E-04 -7.25546278533E-05 +1.66353650923E-04 -1.28446743321E-04 -1.61829512603E-01 +8.88924698995E-01
1.42000000000E+09 +5.99411511600E-02 +8.51527494252E-01 +2.42173505307E-04 +1.45496432995E-06 +2.14016816540E-04 -1.02421481593E-05 -1.38964085198E-01 +8.86318806453E-01
1.42500000000E+09 +8.18122827939E-02 +8.44105390462E-01 +2.93523927517E-04 -1.54276090333E-04 +3.06100746983E-04 -2.03164002978E-04 -1.15436346627E-01 +8.82706245948E-01
1.43000000000E+09 +1.02211720090E-01 +8.35702977298E-01 +1.18127284288E-04 -2.58912063635E-04 +1.37902685188E-04 -2.68437900034E-04 -9.06573841667E-02 +8.77983414232E-01
1.43500000000E+09 +1.21621030056E-01 +8.25989278819E-01 +8.77115636594E-05 -2.05549970642E-04 +7.76497748867E-05 -2.62667265181E-04 -6.44295787246E-02 +8.71431056461E-01
1.44000000000E+09 +1.40851435416E-01 +8.14771868471E-01 -1.79538031435E-05 -1.03909781795E-04 -3.33734495955E-05 -1.42250087931E-04 -3.63712582905E-02 +8.62611370746E-01
1.44500000000E+09 +1.61320308074E-01 +8.00936917856E-01 +1.03708825473E-04 +3.63479487623E-05 +1.19745282173E-04 +7.50821583802E-06 -6.39337546673E-03 +8.51350635360E-01
1.45000000000E+09 +1.84036753539E-01 +7.83733554247E-01 +2.86418852557E-04 -1.52405240265E-04 +2.78521633869E-04 -1.37909421120E-04 +2.55934037074E-02 +8.37058348387E-01
1.45500000000E+09 +2.09363564083E-01 +7.62307523661E-01 +1.51755881097E-04 -1.23881651189E-04 +1.30075418166E-04 -1.42729484113E-04 +5.89668655682E-02 +8.19260579077E-01
1.46000000000E+09 +2.37222931315E-01 +7.36179112717E-01 +3.48339775060E-04 -6.04358241642E-05 +2.66409106887E-04 -4.09570459322E-05 +9.37068757746E-02 +7.97072622674E-01
1.46500000000E+09 +2.66524904220E-01 +7.05720172164E-01 +4.20915086281E-04 -2.48024635858E-04 +3.62707750648E-04 -2.32271575140E-04 +1.29088092365E-01 +7.70517106250E-01
1.47000000000E+09 +2.97654910190E-01 +6.71018820447E-01 +5.86498481379E-04 -2.57753831670E-04 +5.10867735540E-04 -2.62613287649E-04 +1.66216436527E-01 +7.37105583338E-01
1.47500000000E+09 +3.28295172670E-01 +6.30836023436E-01 +4.63450240016E-04 -6.80474152478E-04 +4.35824426452E-04 -6.84739078132E-04 +2.03220886943E-01 +6.96249617529E-01
1.48000000000E+09 +3.56404412713E-01 +5.85472035632E-01 +2.66486429877E-04 -6.65274953748E-04 +2.64614466809E-04 -6.68379652102E-04 +2.39633336379E-01 +6.46995915825E-01
1.48500000000E+09 +3.80787815980E-01 +5.33923891277E-01 +4.23172165755E-04 -6.79655907592E-04 +4.05683229130E-04 -6.92221970285E-04 +2.73922275575E-01 +5.88379583670E-01
1.49000000000E+09 +3.99286553954E-01 +4.75507639055E-01 +6.35255950979E-04 -9.91581538546E-04 +6.26412996116E-04 -1.00095172202E-03 +3.02205100778E-01 +5.18519591250E-01
1.49500000000E+09 +4.09842461683E-01 +4.09627271150E-01 +5.98288020802E-04 -1.92383677000E-03 +4.95876637679E-04 -1.85269336753E-03 +3.20374132328E-01 +4.38941139004E-01
1.50000000000E+09 +4.10538571084E-01 +3.35729986719E-01 -5.54637776568E-04 -2.54916708039E-03 -4.79744148433E-04 -2.37273284233E-03 +3.25517021853E-01 +3.49535469733E-01
1.50500000000E+09 +4.00012540409E-01 +2.54842211302E-01 -1.70773430875E-03 -2.44446665321E-03 -1.51787082083E-03 -2.38104170950E-03 +3.13809189437E-01 +2.53288024360E-01
1.51000000000E+09 +3.75067011042E-01 +1.67079273832E-01 -2.70044183771E-03 -1.59564825366E-03 -2.56641053487E-03 -1.70744761153E-03 +2.81310935854E-01 +1.53247043182E-01
1.51500000000E+09 +3.32148382296E-01 +7.71727622444E-02 -3.04137615502E-03 -1.04339638396E-03 -2.99223670254E-03 -1.10766870722E-03 +2.27234395791E-01 +5.58062324781E-02
1.52000000000E+09 +2.69870770589E-01 -8.31747519908E-03 -3.52613244167E-03 +4.01427387848E-04 -3.57677225333E-03 +3.20344533732E-04 +1.50022102721E-01 -3.04926526174E-02
1.52500000000E+09 +1.88085077930E-01 -8.24844281870E-02 -2.80456896384E-03 +9.84141930201E-04 -2.84167142006E-03 +1.01133070364E-03 +5.42021495417E-02 -9.85643294216E-02
1.53000000000E+09 +8.93799235644E-02 -1.35723537210E-01 -2.81279979013E-03 +1.53700235655E-03 -2.80607746453E-03 +1.53414251746E-03 -5.28728861527E-02 -1.42229453199E-01
1.53500000000E+09 -1.73731467916E-02 -1.64052032287E-01 -2.84147164169E-03 +2.37708598116E-03 -2.89137440200E-03 +2.40355354607E-03 -1.64768791922E-01 -1.61887418315E-01
1.54000000000E+09 -1.26556039911E-01 -1.67172658814E-01 -2.15444535321E-03 +3.71982868487E-03 -2.15363572623E-03 +3.71837732651E-03 -2.73286993615E-01 -1.57924386087E-01
1.54500000000E+09 -2.31141852496E-01 -1.46643770113E-01 -3.42729093666E-04 +4.79688676887E-03 -4.57418857101E-04 +4.70989946604E-03 -3.72142252022E-01 -1.33085277298E-01
1.55000000000E+09 -3.27858130982E-01 -1.07193458219E-01 +1.58919664019E-03 +3.96483776607E-03 +1.49243842705E-03 +4.00298350079E-03 -4.56102175521E-01 -9.49205881645E-02
1.55500000000E+09 -4.10298789515E-01 -5.24337774752E-02 +2.43458710251E-03 +2.79411683005E-03 +2.35745676455E-03 +2.96742601222E-03 -5.26488177504E-01 -4.74360785508E-02
1.56000000000E+09 -4.76924466848E-01 +7.95510688306E-03 +2.66523495324E-03 +1.53376739309E-03 +2.67389724278E-03 +1.76864734487E-03 -5.83000278031E-01 +6.18560240170E-03
1.56500000000E+09 -5.29360379335E-01 +7.06279256839E-02 +2.22725325726E-03 +1.01235593665E-03 +2.38988817963E-03 +1.15627368895E-03 -6.26423347859E-01 +6.20134274114E-02
1.57000000000E+09 -5.68863437508E-01 +1.31444194997E-01 +2.32796124310E-03 +5.48436840131E-04 +2.50105608633E-03 +5.53756843036E-04 -6.59256110600E-01 +1.17122715522E-01
