# Hz S RI R 50
! CMT, C1220, 16058040, 17.2.0/1
! Date: 15/08/2018 12:24:14
! Data: Format (Calibration Info)
! Freq                      S11: Re/Im (F2)                       S21: Re/Im (F2)                       S12: Re/Im (F2)                       S22: Re/Im (F2)            
4.00000000000E+09 +6.55120952905E-01 -3.50493009715E-01 +3.53662336493E-04 -3.67866959896E-04 +3.81653778059E-04 -3.78320253790E-04 +7.44031463509E-01 -3.24035351486E-01
4.00500000000E+09 +6.47444590386E-01 -3.56921939487E-01 +3.71845387954E-04 -2.81366004548E-04 +3.82600669054E-04 -3.36082681107E-04 +7.33471814733E-01 -3.34812920226E-01
4.01000000000E+09 +6.38605905320E-01 -3.63532723419E-01 +4.48469194884E-04 -6.03912278645E-04 +4.71453578214E-04 -5.82583180976E-04 +7.22426648346E-01 -3.45855919810E-01
4.01500000000E+09 +6.28137450843E-01 -3.70421736010E-01 +2.71469473195E-04 -7.63638783930E-04 +3.26944499591E-04 -7.37355996978E-04 +7.11006777848E-01 -3.56044266183E-01
4.02000000000E+09 +6.17597156629E-01 -3.78023812204E-01 -1.25472433493E-04 -8.47156155969E-04 -6.13197912813E-05 -8.52563642592E-04 +6.99289287354E-01 -3.66129021020E-01
4.02500000000E+09 +6.06286038475E-01 -3.87290180896E-01 -2.96482308510E-04 -4.28421221226E-04 -2.41359825012E-04 -4.11948917913E-04 +6.87062268215E-01 -3.75924147530E-01
4.03000000000E+09 +5.95307769624E-01 -3.97320387486E-01 +1.60606133159E-05 -3.72563989021E-04 +8.73442003306E-05 -3.26986201082E-04 +6.74141517412E-01 -3.85341875339E-01
4.03500000000E+09 +5.84598249159E-01 -4.08371436185E-01 +1.67554771248E-04 -5.70184629620E-04 +1.28844609225E-04 -6.15129989328E-04 +6.61495098268E-01 -3.95106145965E-01
4.04000000000E+09 +5.73664819116E-01 -4.19431946165E-01 +2.61393487175E-05 -7.77376193382E-04 +9.10749436333E-05 -8.29497024185E-04 +6.48068233037E-01 -4.05401024291E-01
4.04500000000E+09 +5.62699897440E-01 -4.29405019035E-01 -3.41538420284E-04 -8.86758337441E-04 -2.84875985134E-04 -9.91991812104E-04 +6.33977151861E-01 -4.14889267373E-01
4.05000000000E+09 +5.51705215913E-01 -4.37667294866E-01 -6.22505066787E-04 -6.10612686751E-04 -6.69894873870E-04 -6.99113101021E-04 +6.20073103666E-01 -4.23647780482E-01
4.05500000000E+09 +5.40520585994E-01 -4.43671390406E-01 -5.21983187313E-04 -3.00331250390E-04 -5.56295243954E-04 -3.45774334361E-04 +6.05385040332E-01 -4.31991296635E-01
4.06000000000E+09 +5.29377116320E-01 -4.48606158119E-01 -4.89814465885E-04 -2.82554937554E-04 -4.86727373087E-04 -3.54495982511E-04 +5.90762110146E-01 -4.39987946860E-01
4.06500000000E+09 +5.17122762070E-01 -4.52689056853E-01 -3.10518242569E-04 -2.76116819220E-04 -3.45359614000E-04 -3.25959424416E-04 +5.74916263882E-01 -4.47819275112E-01
4.07000000000E+09 +5.03688547382E-01 -4.57110786088E-01 -4.53043125998E-04 -4.65401823520E-04 -4.55835590065E-04 -5.06450700621E-04 +5.58808845616E-01 -4.54897246749E-01
4.07500000000E+09 +4.88768711058E-01 -4.61899979796E-01 -5.49699044756E-04 -2.72213399812E-04 -5.61413536043E-04 -2.89787651634E-04 +5.42133604897E-01 -4.62347333718E-01
4.08000000000E+09 +4.72455803395E-01 -4.67653089793E-01 -5.37397027849E-04 -3.21622774897E-04 -6.07187427762E-04 -3.43531255814E-04 +5.25885020123E-01 -4.68859404485E-01
4.08500000000E+09 +4.55110670541E-01 -4.73445555799E-01 -6.93748834602E-04 -2.73097160458E-04 -7.00118183650E-04 -2.92184922910E-04 +5.09436559117E-01 -4.76308490959E-01
4.09000000000E+09 +4.38192456479E-01 -4.79996295062E-01 -7.43043830164E-04 -2.58536019607E-04 -7.42858231431E-04 -2.20907918384E-04 +4.91158010723E-01 -4.81782098799E-01
4.09500000000E+09 +4.21545328330E-01 -4.86891455634E-01 -8.27951722530E-04 -3.69959908372E-05 -8.15394060758E-04 +1.54145394703E-05 +4.74121109600E-01 -4.86423699185E-01
4.10000000000E+09 +4.04790625031E-01 -4.93248275430E-01 -7.72275404936E-04 +1.51386528338E-04 -7.94152310080E-04 +1.89935604591E-04 +4.55436631360E-01 -4.91180438140E-01
4.10500000000E+09 +3.88996828578E-01 -4.98112603197E-01 -5.15200707403E-04 +3.12216598382E-04 -5.60536601688E-04 +3.37568835808E-04 +4.36358659798E-01 -4.94736850084E-01
4.11000000000E+09 +3.73191821885E-01 -5.01840429195E-01 -4.61337074858E-04 +1.70783618456E-04 -4.61665697849E-04 +1.97375915195E-04 +4.17384551338E-01 -4.97795178968E-01
4.11500000000E+09 +3.57514588400E-01 -5.03949440862E-01 -2.99888859848E-04 +3.67136231254E-05 -3.04384812387E-04 +4.46310542585E-05 +3.98703706036E-01 -5.01353723468E-01
4.12000000000E+09 +3.41193301451E-01 -5.05351094022E-01 -6.02905902205E-04 -2.46642489744E-04 -6.15702507033E-04 -2.22627445046E-04 +3.79116751481E-01 -5.04521648103E-01
4.12500000000E+09 +3.23762659340E-01 -5.05930296191E-01 -1.06119568402E-03 -2.15778933419E-05 -1.05851782418E-03 -9.11652660369E-05 +3.58710149417E-01 -5.06381015783E-01
4.13000000000E+09 +3.05456203978E-01 -5.06831087853E-01 -1.19728897190E-03 +5.48296139425E-04 -1.19224578456E-03 +5.18993123661E-04 +3.38448653545E-01 -5.07398275720E-01
4.13500000000E+09 +2.86313672625E-01 -5.08274928377E-01 -7.85479950085E-04 +9.85573844862E-04 -7.83101035755E-04 +9.21602852326E-04 +3.17903877680E-01 -5.07069167361E-01
4.14000000000E+09 +2.66416989276E-01 -5.11054203251E-01 -3.67182289560E-04 +7.33906212088E-04 -3.90111917463E-04 +7.49365899815E-04 +2.97470205477E-01 -5.07089544318E-01
4.14500000000E+09 +2.46551897288E-01 -5.15244576997E-01 -4.10862339893E-04 +8.00710522419E-04 -4.57489007672E-04 +7.55021376838E-04 +2.76407607652E-01 -5.05868757704E-01
4.15000000000E+09 +2.25959140665E-01 -5.19949553788E-01 -1.93451239423E-04 +8.19574075161E-04 -2.30136025374E-04 +8.23905854073E-04 +2.56560704560E-01 -5.04346187697E-01
4.15500000000E+09 +2.06083598334E-01 -5.24095604513E-01 -1.51704237758E-04 +3.91081255730E-04 -2.28588056703E-04 +4.17702190726E-04 +2.35814124529E-01 -5.02329882137E-01
4.16000000000E+09 +1.87676377358E-01 -5.27134181309E-01 -5.52201711293E-04 +5.10502293026E-04 -6.81771022319E-04 +5.46272156190E-04 +2.14976952913E-01 -4.98269977298E-01
4.16500000000E+09 +1.70207962943E-01 -5.28318625896E-01 -6.31153180832E-04 +9.64149308828E-04 -6.83425626873E-04 +9.86940651442E-04 +1.94996965730E-01 -4.93757672361E-01
4.17000000000E+09 +1.54118799946E-01 -5.27270731078E-01 -5.42849976021E-04 +1.07741551498E-03 -5.75042562055E-04 +1.06778317970E-03 +1.73904259315E-01 -4.88583332704E-01
4.17500000000E+09 +1.38873556058E-01 -5.24475370863E-01 -3.66561226815E-04 +1.48056554283E-03 -4.16179250377E-04 +1.56049835604E-03 +1.52923563192E-01 -4.82117840730E-01
4.18000000000E+09 +1.23454983387E-01 -5.20692489119E-01 +2.23110709095E-04 +1.76232534982E-03 +1.77558427596E-04 +1.82102271754E-03 +1.32751559383E-01 -4.74688530912E-01
4.18500000000E+09 +1.06989964404E-01 -5.16562900409E-01 +8.26656491282E-04 +1.58189283024E-03 +8.30590422937E-04 +1.76570351246E-03 +1.13202768077E-01 -4.67543738609E-01
4.19000000000E+09 +8.86538037767E-02 -5.11426212481E-01 +9.93589945523E-04 +9.12605133449E-04 +9.63991993042E-04 +1.02816688231E-03 +9.25868797332E-02 -4.60045785852E-01
4.19500000000E+09 +6.99207308852E-02 -5.05718186641E-01 +6.60895539066E-04 +6.13389945959E-04 +6.96235414342E-04 +6.82667192562E-04 +7.22383098827E-02 -4.50492839955E-01
4.20000000000E+09 +5.03968596625E-02 -5.00783514307E-01 +6.25706295383E-04 +9.51285012640E-04 +7.18024003429E-04 +1.00660146705E-03 +5.31267222496E-02 -4.39910135734E-01
4.20500000000E+09 +3.07504969401E-02 -4.95956201014E-01 +6.66440033031E-04 +7.22943344511E-04 +7.64302911464E-04 +7.58175198608E-04 +3.36066538699E-02 -4.29316989756E-01
4.21000000000E+09 +1.21091031978E-02 -4.91219704143E-01 +5.60117096316E-04 +1.17209750447E-03 +6.41375944086E-04 +1.19008167934E-03 +1.46380099944E-02 -4.17582056364E-01
4.21500000000E+09 -6.03395540536E-03 -4.86042843734E-01 +1.28407490121E-03 +1.38394191123E-03 +1.38972769461E-03 +1.46704933686E-03 -3.61760111970E-03 -4.05933505990E-01
4.22000000000E+09 -2.28377838111E-02 -4.79494346865E-01 +1.73995456861E-03 +9.49645791579E-04 +1.85888430289E-03 +9.10159552348E-04 -2.16726493130E-02 -3.93960266612E-01
4.22500000000E+09 -3.84422343788E-02 -4.71794069785E-01 +2.02310288281E-03 +3.40073301639E-04 +2.09492922833E-03 +2.82881767905E-04 -3.95105071040E-02 -3.80692969815E-01
4.23000000000E+09 -5.39656065335E-02 -4.62346420186E-01 +1.73226855717E-03 -2.91567518668E-04 +1.79146344593E-03 -3.38302821821E-04 -5.60817143126E-02 -3.66601637218E-01
4.23500000000E+09 -6.97266299089E-02 -4.50763867338E-01 +1.40087720873E-03 -1.13590618528E-04 +1.39087068429E-03 -1.94347060132E-04 -7.32446523251E-02 -3.51476887309E-01
4.24000000000E+09 -8.59885784516E-02 -4.37778613057E-01 +1.29538297329E-03 -6.18821282628E-05 +1.32590261350E-03 -8.25674730478E-05 -8.89580263513E-02 -3.34940769749E-01
4.24500000000E+09 -1.03125405772E-01 -4.24185523469E-01 +1.73150573703E-03 +1.44115637686E-04 +1.72990605843E-03 +7.34900431684E-05 -1.04614869339E-01 -3.18375729254E-01
4.25000000000E+09 -1.21920727819E-01 -4.10651953266E-01 +2.26453641446E-03 -3.73605848475E-04 +2.17586143790E-03 -4.23570427741E-04 -1.18947954822E-01 -3.00105894552E-01
4.25500000000E+09 -1.41185218920E-01 -3.97529167781E-01 +2.14188272862E-03 -1.24505684357E-03 +2.13110145437E-03 -1.33298308617E-03 -1.31878510559E-01 -2.82762046039E-01
4.26000000000E+09 -1.61636395659E-01 -3.85776109015E-01 +1.54282209513E-03 -1.62379076513E-03 +1.51047796507E-03 -1.62855286757E-03 -1.44867307856E-01 -2.65549821829E-01
4.26500000000E+09 -1.81824165385E-01 -3.73882894662E-01 +1.38205487954E-03 -1.58482976796E-03 +1.35840350658E-03 -1.63625497631E-03 -1.57119103233E-01 -2.46599934258E-01
4.27000000000E+09 -1.99501869121E-01 -3.62248084258E-01 +1.23350692153E-03 -1.86778682846E-03 +1.18060056775E-03 -1.82311483526E-03 -1.69216856245E-01 -2.27634721687E-01
4.27500000000E+09 -2.16137189391E-01 -3.51255993557E-01 +8.46926290447E-04 -2.25148171449E-03 +8.50501242462E-04 -2.23793216333E-03 -1.80704329285E-01 -2.06971742315E-01
4.28000000000E+09 -2.30690160072E-01 -3.38347266964E-01 +3.60045484686E-04 -1.96807769307E-03 +3.22998451000E-04 -1.93974550626E-03 -1.90517640666E-01 -1.86382874570E-01
4.28500000000E+09 -2.42863801861E-01 -3.23888196974E-01 +5.54755633174E-04 -2.00052001601E-03 +5.47383831594E-04 -1.98302974834E-03 -1.99251431468E-01 -1.65882550785E-01
4.29000000000E+09 -2.52980770118E-01 -3.08279716800E-01 +1.85197323256E-04 -2.53568206764E-03 +2.38292832459E-04 -2.54557761144E-03 -2.07020518320E-01 -1.46000270159E-01
4.29500000000E+09 -2.63236554843E-01 -2.91738910177E-01 -4.33498519285E-04 -2.65548786874E-03 -4.28538042699E-04 -2.64537129218E-03 -2.14029628458E-01 -1.27003986782E-01
4.30000000000E+09 -2.74629220532E-01 -2.73385895042E-01 -1.16596612516E-03 -2.38797628661E-03 -1.14382729906E-03 -2.32330053917E-03 -2.20923605422E-01 -1.07251965404E-01
4.30500000000E+09 -2.86758713123E-01 -2.53569593210E-01 -1.25670951538E-03 -1.87950614685E-03 -1.23155661105E-03 -1.83595514679E-03 -2.26920354594E-01 -8.61548407570E-02
4.31000000000E+09 -2.99723483285E-01 -2.33578868167E-01 -1.33420408624E-03 -1.95118255670E-03 -1.34282080808E-03 -1.99696730544E-03 -2.30842256221E-01 -6.52640590923E-02
4.31500000000E+09 -3.13636183793E-01 -2.13943931850E-01 -1.84877240889E-03 -1.72203083449E-03 -1.85114983800E-03 -1.72368619942E-03 -2.34298048438E-01 -4.39128009264E-02
4.32000000000E+09 -3.26456299789E-01 -1.95092422234E-01 -2.10560126400E-03 -1.14289109351E-03 -2.13507809873E-03 -1.19111661870E-03 -2.36979577356E-01 -2.26481917122E-02
4.32500000000E+09 -3.38318856215E-01 -1.78025896462E-01 -1.75747558677E-03 -9.45134991324E-04 -1.81805857316E-03 -9.07682062689E-04 -2.38762383254E-01 -1.72185971889E-03
4.33000000000E+09 -3.48671276019E-01 -1.61805522496E-01 -2.13484077036E-03 -1.00187498233E-03 -2.16495122460E-03 -9.89200045249E-04 -2.39899004820E-01 +1.91214448472E-02
4.33500000000E+09 -3.56493807599E-01 -1.46051064868E-01 -2.10398104635E-03 -5.84646018209E-04 -2.18240135374E-03 -5.44777607987E-04 -2.40179361482E-01 +4.00220014635E-02
4.34000000000E+09 -3.62179737258E-01 -1.29909629868E-01 -2.53723571086E-03 -5.59978897462E-04 -2.54496302782E-03 -5.32903255612E-04 -2.40190256797E-01 +6.04575389659E-02
4.34500000000E+09 -3.65959839999E-01 -1.12718598980E-01 -2.82439325436E-03 +1.80037803962E-04 -2.83302092867E-03 +2.31012144760E-04 -2.38720275941E-01 +8.15365837317E-02
4.35000000000E+09 -3.68295592005E-01 -9.39490135972E-02 -2.30092203324E-03 +1.00540343204E-03 -2.31261195638E-03 +1.03844506880E-03 -2.37208208585E-01 +1.00878187164E-01
4.35500000000E+09 -3.70923860889E-01 -7.25977685874E-02 -1.91587209013E-03 +5.85965675450E-04 -1.93533519138E-03 +5.89440353444E-04 -2.34882803027E-01 +1.21058799176E-01
4.36000000000E+09 -3.72920427700E-01 -4.95115238073E-02 -2.20053365704E-03 +9.20026376010E-04 -2.20968493249E-03 +1.02707630663E-03 -2.31312088585E-01 +1.39704738905E-01
4.36500000000E+09 -3.75505852499E-01 -2.62353260467E-02 -2.21374263393E-03 +9.01989412808E-04 -2.15598475922E-03 +9.57210999004E-04 -2.27410234773E-01 +1.57951153238E-01
4.37000000000E+09 -3.79987048941E-01 -3.05351934836E-03 -2.56947838276E-03 +1.75818393245E-03 -2.43811013184E-03 +1.74612618900E-03 -2.22822948055E-01 +1.75964196818E-01
4.37500000000E+09 -3.84495382644E-01 +1.91792244173E-02 -1.80562596056E-03 +2.30536757482E-03 -1.73665787124E-03 +2.33324843319E-03 -2.17828904486E-01 +1.93891591621E-01
4.38000000000E+09 -3.89977161204E-01 +3.95053044730E-02 -1.26163334640E-03 +2.47036999287E-03 -1.17135245507E-03 +2.51188028743E-03 -2.11605219707E-01 +2.11824456205E-01
4.38500000000E+09 -3.94425633795E-01 +5.76054132880E-02 -7.98417683492E-04 +2.61970039462E-03 -6.82326985197E-04 +2.60151182621E-03 -2.05291300516E-01 +2.29399160781E-01
4.39000000000E+09 -3.97666821969E-01 +7.45144431984E-02 -3.59359974669E-04 +2.37969353872E-03 -2.44948553537E-04 +2.30390831659E-03 -1.98376190975E-01 +2.46681571576E-01
4.39500000000E+09 -3.98232683352E-01 +9.00400239727E-02 -3.01166127734E-04 +2.36797357794E-03 -2.08278329048E-04 +2.23601984688E-03 -1.91490534257E-01 +2.62725414590E-01
4.40000000000E+09 -3.96110437203E-01 +1.05443638594E-01 -2.42941234270E-05 +2.58791850938E-03 +2.11454062386E-06 +2.43947877642E-03 -1.83763559082E-01 +2.79015210768E-01
4.40500000000E+09 -3.91636864096E-01 +1.20961230281E-01 +2.65311198225E-04 +2.64242133612E-03 +2.05680820865E-04 +2.58478253201E-03 -1.75188030318E-01 +2.94200240343E-01
4.41000000000E+09 -3.86075068578E-01 +1.37799848189E-01 +9.51682096500E-04 +2.71582712835E-03 +9.68752392928E-04 +2.63689742080E-03 -1.66123142224E-01 +3.08572084776E-01
4.41500000000E+09 -3.80098517337E-01 +1.56806993129E-01 +1.25698037298E-03 +2.41924175489E-03 +1.26117775510E-03 +2.29620547259E-03 -1.57434087200E-01 +3.22718731786E-01
4.42000000000E+09 -3.74078689752E-01 +1.78082275257E-01 +1.57140637019E-03 +2.16426259315E-03 +1.56147147620E-03 +2.09426840572E-03 -1.48417231937E-01 +3.37657645544E-01
4.42500000000E+09 -3.69014258746E-01 +1.99977762320E-01 +1.99185710928E-03 +1.92428831003E-03 +1.95027910828E-03 +1.85349548964E-03 -1.37985487805E-01 +3.51556223272E-01
4.43000000000E+09 -3.65395597980E-01 +2.22528496179E-01 +2.17899819984E-03 +1.41007220617E-03 +2.16270287294E-03 +1.36876063155E-03 -1.28981280531E-01 +3.64821771072E-01
4.43500000000E+09 -3.61804347073E-01 +2.43970781068E-01 +2.26777407246E-03 +1.10278359187E-03 +2.26083746697E-03 +1.07078176282E-03 -1.18307156628E-01 +3.78185510161E-01
4.44000000000E+09 -3.58987723901E-01 +2.62721086764E-01 +2.34304547023E-03 +6.76751334624E-04 +2.27547332840E-03 +7.17438975428E-04 -1.07891659810E-01 +3.89683175855E-01
4.44500000000E+09 -3.56479064477E-01 +2.79113361069E-01 +2.42879759130E-03 +2.84879493792E-04 +2.38436422339E-03 +2.74172985799E-04 -9.75435496923E-02 +4.01154225803E-01
4.45000000000E+09 -3.53501660560E-01 +2.93304617179E-01 +2.05287506256E-03 +2.23921361029E-04 +2.02805376849E-03 +2.21200935407E-04 -8.66907087913E-02 +4.11968364338E-01
4.45500000000E+09 -3.48673107802E-01 +3.06517034406E-01 +2.60638474394E-03 +3.30545380757E-04 +2.61664194984E-03 +3.64442208355E-04 -7.54980600601E-02 +4.22581533352E-01
4.46000000000E+09 -3.41570635385E-01 +3.19135796698E-01 +2.87740973576E-03 -1.00513847924E-03 +2.83345367565E-03 -9.66022387344E-04 -6.38861614643E-02 +4.32603181207E-01
4.46500000000E+09 -3.31956040749E-01 +3.32491156324E-01 +2.15206577274E-03 -1.34159833238E-03 +2.01188115471E-03 -1.39104348928E-03 -5.21130136146E-02 +4.41434038579E-01
4.47000000000E+09 -3.20662539348E-01 +3.46675966890E-01 +1.45715372417E-03 -1.61888154266E-03 +1.43300630711E-03 -1.61860007946E-03 -4.12798036772E-02 +4.50659497680E-01
4.47500000000E+09 -3.08218217148E-01 +3.63497250170E-01 +1.06390200789E-03 -1.08613116340E-03 +9.92488609502E-04 -1.12061583763E-03 -2.93237242978E-02 +4.59906984726E-01
4.48000000000E+09 -2.95171206733E-01 +3.80787874067E-01 +1.28540761676E-03 -8.22740937769E-04 +1.26069599361E-03 -8.50205873939E-04 -1.76110458876E-02 +4.67516062487E-01
4.48500000000E+09 -2.83415926558E-01 +3.98527625533E-01 +1.56352211974E-03 -1.29515467008E-03 +1.46838517918E-03 -1.27895999954E-03 -6.27259127766E-03 +4.75605046305E-01
4.49000000000E+09 -2.73670912458E-01 +4.15921937636E-01 +1.49787830790E-03 -1.60344444314E-03 +1.45053202407E-03 -1.54572334143E-03 +5.89224962120E-03 +4.83107670796E-01
4.49500000000E+09 -2.65624374725E-01 +4.32471568961E-01 +1.04100671929E-03 -2.10125344810E-03 +9.48583479398E-04 -2.04753239568E-03 +1.71921608006E-02 +4.89548063307E-01
4.50000000000E+09 -2.59298821849E-01 +4.46683151896E-01 +5.45128479201E-04 -2.04206859657E-03 +4.82987969410E-04 -1.97777907995E-03 +2.89426168449E-02 +4.96060289367E-01
4.50500000000E+09 -2.54075897216E-01 +4.59055866709E-01 +2.45929791401E-04 -2.02368268495E-03 +2.13253511297E-04 -1.97492050103E-03 +4.04948600158E-02 +5.01959069388E-01
4.51000000000E+09 -2.48061715801E-01 +4.69593575005E-01 -2.70624856959E-05 -1.87994597721E-03 -4.14122567830E-05 -1.85596347397E-03 +5.18015255358E-02 +5.07369934764E-01
4.51500000000E+09 -2.39558527500E-01 +4.77825538994E-01 -1.24096948576E-04 -1.68470334990E-03 -1.67423424815E-04 -1.63506372108E-03 +6.29504873320E-02 +5.12899468081E-01
4.52000000000E+09 -2.29954233445E-01 +4.84179886741E-01 -3.44157191977E-04 -1.82046954911E-03 -3.85383730637E-04 -1.68972866848E-03 +7.45742931443E-02 +5.17824668205E-01
4.52500000000E+09 -2.18235791482E-01 +4.91179224288E-01 -3.41225227306E-04 -1.56076637029E-03 -3.51593509877E-04 -1.50939450301E-03 +8.58906880366E-02 +5.22133666162E-01
4.53000000000E+09 -2.04877643546E-01 +4.98513302407E-01 -4.41890549194E-04 -1.62382912896E-03 -4.51382453468E-04 -1.57140257145E-03 +9.75335448272E-02 +5.26214749058E-01
4.53500000000E+09 -1.90150902622E-01 +5.08193729562E-01 -6.91267198571E-04 -1.85854856618E-03 -6.99456803530E-04 -1.76018385484E-03 +1.08842968015E-01 +5.29745474495E-01
4.54000000000E+09 -1.74475247436E-01 +5.18479314184E-01 -1.01774592621E-03 -2.00766602448E-03 -1.06216911353E-03 -1.87105144439E-03 +1.20421282113E-01 +5.33218493609E-01
4.54500000000E+09 -1.59412286510E-01 +5.29691843717E-01 -1.77762871479E-03 -1.55562463551E-03 -1.73795701090E-03 -1.42246925564E-03 +1.31395071553E-01 +5.36581996530E-01
4.55000000000E+09 -1.45924939867E-01 +5.40130227970E-01 -1.96471390766E-03 -9.34571787573E-04 -1.88788081356E-03 -8.83581899930E-04 +1.42988085128E-01 +5.39981626229E-01
4.55500000000E+09 -1.34803413619E-01 +5.50093919590E-01 -1.65912853481E-03 -4.01903479582E-04 -1.59150031144E-03 -3.65672326711E-04 +1.54019091282E-01 +5.42566611157E-01
4.56000000000E+09 -1.25315252549E-01 +5.59380839072E-01 -1.37643102533E-03 -4.73081142343E-04 -1.29340514373E-03 -4.46969256541E-04 +1.64605929906E-01 +5.45247194873E-01
4.56500000000E+09 -1.16322778578E-01 +5.67053091406E-01 -1.40176065438E-03 -5.79072195707E-04 -1.31674709227E-03 -5.24053440054E-04 +1.74937951544E-01 +5.47609924579E-01
4.57000000000E+09 -1.07072355079E-01 +5.72827224815E-01 -1.68339364392E-03 -5.27813410932E-04 -1.63150448398E-03 -4.86255320491E-04 +1.85743773139E-01 +5.49844730975E-01
