# Hz S RI R 50
! CMT, C1220, 16058040, 17.2.0/1
! Date: 15/08/2018 12:18:34
! Data: Format (Calibration Info)
! Freq                      S11: Re/Im (F2)                       S21: Re/Im (F2)                       S12: Re/Im (F2)                       S22: Re/Im (F2)            
4.00000000000E+09 +6.53087281452E-01 -3.52958686118E-01 +2.45781879313E-04 -3.11293690683E-04 +2.88604624497E-04 -2.74927306209E-04 +7.42650702090E-01 -3.25498105324E-01
4.00500000000E+09 +6.44848466878E-01 -3.59155369522E-01 +2.23818185095E-04 -2.25161228966E-04 +2.26460497749E-04 -2.11267366418E-04 +7.32128062345E-01 -3.36177661214E-01
4.01000000000E+09 +6.36111362225E-01 -3.65877127668E-01 +2.86322777511E-04 -3.79901792663E-04 +3.03787908603E-04 -4.18405409522E-04 +7.21081319221E-01 -3.47084257146E-01
4.01500000000E+09 +6.25809146925E-01 -3.73492574501E-01 +2.87235819418E-04 -4.92281619104E-04 +2.99906445501E-04 -4.92819527425E-04 +7.09749175450E-01 -3.57260447342E-01
4.02000000000E+09 +6.15116606562E-01 -3.82060775134E-01 -1.11341483963E-05 -6.01809076477E-04 -1.91768923190E-05 -6.18063400362E-04 +6.98085278418E-01 -3.67163765500E-01
4.02500000000E+09 +6.03508013421E-01 -3.91728416467E-01 -1.40117403758E-04 -2.12547886276E-04 -1.54817320840E-04 -2.67716204922E-04 +6.85990279076E-01 -3.76875601899E-01
4.03000000000E+09 +5.92218816556E-01 -4.01799404294E-01 +1.20757941451E-04 -2.12510828988E-04 +1.49791738556E-04 -2.28201933205E-04 +6.73249662335E-01 -3.86294714363E-01
4.03500000000E+09 +5.81054696126E-01 -4.12346814867E-01 +3.06388471024E-04 -3.18288694771E-04 +2.28155601186E-04 -3.62707991925E-04 +6.60366538200E-01 -3.95901922378E-01
4.04000000000E+09 +5.70222457367E-01 -4.22761549703E-01 +2.38173731158E-04 -6.55668336693E-04 +2.29666983623E-04 -6.89794379183E-04 +6.47027064523E-01 -4.06383854309E-01
4.04500000000E+09 +5.59251514830E-01 -4.32519189482E-01 -2.20152453465E-04 -7.57880540990E-04 -2.44160327085E-04 -7.80269028975E-04 +6.32611984920E-01 -4.16099327907E-01
4.05000000000E+09 +5.47745400705E-01 -4.40655682356E-01 -3.69654162409E-04 -4.26021167263E-04 -3.96921567568E-04 -4.36807253203E-04 +6.18411955045E-01 -4.24723814166E-01
4.05500000000E+09 +5.35978229393E-01 -4.46091442866E-01 -2.07083995026E-04 -3.47433297038E-04 -2.76648186073E-04 -3.29024451843E-04 +6.04014685164E-01 -4.32955777958E-01
4.06000000000E+09 +5.24273908036E-01 -4.50636970946E-01 -2.30774984222E-04 -2.25227218920E-04 -2.77925608358E-04 -2.26825064899E-04 +5.89153665106E-01 -4.41023326645E-01
4.06500000000E+09 +5.11563269621E-01 -4.54699252116E-01 -1.21014624324E-05 -3.80865354583E-04 +5.50312445642E-05 -3.06975543622E-04 +5.73088356192E-01 -4.48406761260E-01
4.07000000000E+09 +4.97302046588E-01 -4.58959422041E-01 -2.56101988155E-04 -6.18489131857E-04 -1.58139682966E-04 -5.90341395874E-04 +5.57202788461E-01 -4.55302600351E-01
4.07500000000E+09 +4.81845235854E-01 -4.63438311669E-01 -3.73197959446E-04 -4.29398810948E-04 -3.42920141112E-04 -4.56568976171E-04 +5.40656136214E-01 -4.62907214506E-01
4.08000000000E+09 +4.65227275960E-01 -4.68763250970E-01 -4.73741972934E-04 -4.27099251642E-04 -3.96890718021E-04 -4.33225547691E-04 +5.24039750001E-01 -4.69326504964E-01
4.08500000000E+09 +4.47796225396E-01 -4.74346980984E-01 -6.45476260096E-04 -3.41754302498E-04 -5.80824369490E-04 -3.40572715804E-04 +5.07359658391E-01 -4.76539983099E-01
4.09000000000E+09 +4.30946397370E-01 -4.80620529851E-01 -5.41285503670E-04 -1.49712899945E-04 -5.26411071556E-04 -1.45169376221E-04 +4.89197600158E-01 -4.81796624846E-01
4.09500000000E+09 +4.14100283959E-01 -4.87478407316E-01 -4.56312034186E-04 -1.15422104937E-04 -4.75313287419E-04 -1.18578599312E-04 +4.72178781465E-01 -4.86024874946E-01
4.10000000000E+09 +3.97052927655E-01 -4.93747498565E-01 -5.92738823301E-04 -2.84914716243E-04 -5.72601080420E-04 -3.11204538249E-04 +4.53855109543E-01 -4.90638118400E-01
4.10500000000E+09 +3.80447556272E-01 -4.98238094811E-01 -5.50571210138E-04 +9.54578221319E-05 -5.04658353351E-04 +1.37061759840E-04 +4.35018795761E-01 -4.94113282627E-01
4.11000000000E+09 +3.64372478115E-01 -5.01030182516E-01 -3.64374319676E-04 -8.99228748677E-05 -3.25727750105E-04 -1.36887219975E-04 +4.16192436173E-01 -4.97288995636E-01
4.11500000000E+09 +3.48874013245E-01 -5.02351500041E-01 -3.12316515313E-04 -1.91745470629E-04 -3.37209973284E-04 -2.16536875405E-04 +3.97289309337E-01 -5.01098990044E-01
4.12000000000E+09 +3.33067317237E-01 -5.03558950709E-01 -6.47023952236E-04 -3.46330538177E-04 -6.70227067793E-04 -3.13436458914E-04 +3.77529592946E-01 -5.04084077918E-01
4.12500000000E+09 +3.15356715295E-01 -5.04103522092E-01 -9.45245740047E-04 -2.21670454816E-04 -1.03744313308E-03 -1.82948086464E-04 +3.57265661113E-01 -5.05831239638E-01
4.13000000000E+09 +2.97111214904E-01 -5.04692416811E-01 -1.15290439422E-03 +4.81596025561E-04 -1.23742504315E-03 +4.00130412045E-04 +3.36975445381E-01 -5.06838357615E-01
4.13500000000E+09 +2.77794510626E-01 -5.06175085843E-01 -6.09085955475E-04 +7.41077187530E-04 -6.73816693367E-04 +7.27392946062E-04 +3.16404427136E-01 -5.06567408221E-01
4.14000000000E+09 +2.57498819661E-01 -5.08293076924E-01 -2.60433949853E-04 +5.99470546052E-04 -2.85986745130E-04 +6.41389313061E-04 +2.95930366631E-01 -5.06059253761E-01
4.14500000000E+09 +2.37500478019E-01 -5.11565132915E-01 -1.97998613129E-04 +3.99529462150E-04 -2.35164654493E-04 +4.44911592974E-04 +2.75206341281E-01 -5.04962111662E-01
4.15000000000E+09 +2.16968165276E-01 -5.15633683427E-01 -2.18210861299E-04 +2.23488240599E-04 -2.14905720677E-04 +3.08132433164E-04 +2.54796358721E-01 -5.03356549183E-01
4.15500000000E+09 +1.97130630036E-01 -5.19081608245E-01 -4.26514390459E-04 +9.04965882701E-05 -4.13369923662E-04 +1.12489054571E-04 +2.34272277231E-01 -5.00555123589E-01
4.16000000000E+09 +1.78428786450E-01 -5.21580994782E-01 -7.26511783180E-04 +1.48447341036E-04 -7.39046463372E-04 +2.04256717848E-04 +2.14221733680E-01 -4.96616089288E-01
4.16500000000E+09 +1.60698982607E-01 -5.21769285474E-01 -9.45516706722E-04 +5.91972702899E-04 -8.57447093332E-04 +6.83371406629E-04 +1.93694134668E-01 -4.92186016929E-01
4.17000000000E+09 +1.45024339907E-01 -5.20226248912E-01 -8.10996092326E-04 +7.78879994921E-04 -7.31689710140E-04 +8.08630619117E-04 +1.73096172640E-01 -4.86696171373E-01
4.17500000000E+09 +1.29700783998E-01 -5.17655639055E-01 -6.11894215479E-04 +1.16499731166E-03 -5.78582558006E-04 +1.15787596094E-03 +1.52267258361E-01 -4.80287767479E-01
4.18000000000E+09 +1.14231174274E-01 -5.13592880454E-01 -3.42422309075E-04 +1.36055017805E-03 -2.76737121229E-04 +1.35294321416E-03 +1.32034581501E-01 -4.72670930844E-01
4.18500000000E+09 +9.75521744848E-02 -5.09361537236E-01 +3.47957605296E-04 +1.24716456327E-03 +3.87805419235E-04 +1.29142525195E-03 +1.13058516000E-01 -4.65439549124E-01
4.19000000000E+09 +7.94601424191E-02 -5.03606391676E-01 +2.17172158890E-04 +6.42428902382E-04 +2.21731396205E-04 +6.40612817483E-04 +9.25635155410E-02 -4.58095792512E-01
4.19500000000E+09 +6.12070353307E-02 -4.97208755060E-01 -9.93478998847E-05 +6.49352346777E-04 -5.79182251291E-05 +6.57171685865E-04 +7.24181532737E-02 -4.48566704742E-01
4.20000000000E+09 +4.26838080162E-02 -4.91538118528E-01 -1.83347357420E-04 +1.08562466994E-03 -2.80758888954E-04 +1.05322265884E-03 +5.33233663776E-02 -4.38063565519E-01
4.20500000000E+09 +2.40626484217E-02 -4.86471872972E-01 -1.67461873169E-04 +1.15327451764E-03 -1.94454073391E-04 +1.13180830417E-03 +3.39258107053E-02 -4.27688232836E-01
4.21000000000E+09 +5.65840457915E-03 -4.81260039329E-01 +7.32135564710E-05 +1.76854897689E-03 +1.86302545086E-05 +1.81600092581E-03 +1.45065254775E-02 -4.15917063288E-01
4.21500000000E+09 -1.22610514108E-02 -4.75523700921E-01 +9.75589976094E-04 +2.00739091827E-03 +9.80733815774E-04 +2.00596345198E-03 -3.65662704629E-03 -4.04185221939E-01
4.22000000000E+09 -2.96087600461E-02 -4.67998934195E-01 +1.60755442938E-03 +1.35201098483E-03 +1.58585135383E-03 +1.40349186582E-03 -2.16790775631E-02 -3.92074467379E-01
4.22500000000E+09 -4.51407049953E-02 -4.58827707260E-01 +1.76994053732E-03 +8.20288698862E-04 +1.79439249700E-03 +8.27986176273E-04 -3.90619133657E-02 -3.78604971060E-01
4.23000000000E+09 -5.99650384533E-02 -4.48323853257E-01 +1.51930650618E-03 +1.56391319840E-04 +1.51915183243E-03 +1.78752581397E-04 -5.56362162099E-02 -3.64592797912E-01
4.23500000000E+09 -7.52156401457E-02 -4.36783952132E-01 +1.12136998469E-03 +3.86633902740E-04 +1.10702294565E-03 +3.96886752226E-04 -7.25085510100E-02 -3.49272320050E-01
4.24000000000E+09 -9.12649056964E-02 -4.24061199000E-01 +1.10226735055E-03 +5.88595121255E-04 +1.14575581765E-03 +6.24307722886E-04 -8.81963470472E-02 -3.32771562135E-01
4.24500000000E+09 -1.08521411777E-01 -4.10774413815E-01 +1.71104425664E-03 +6.93472197370E-04 +1.80796796993E-03 +7.40293470572E-04 -1.03321765671E-01 -3.15874098148E-01
4.25000000000E+09 -1.27193346818E-01 -3.97206410706E-01 +2.14806417207E-03 +1.29687640801E-04 +2.25989001094E-03 +1.81585729090E-04 -1.17593363778E-01 -2.98173165624E-01
4.25500000000E+09 -1.45741023146E-01 -3.83726938043E-01 +2.13178098737E-03 -5.82112411726E-04 +2.19214522165E-03 -6.28514849653E-04 -1.30534759042E-01 -2.81015517428E-01
4.26000000000E+09 -1.64814349959E-01 -3.71720914177E-01 +1.58225406706E-03 -1.01664869412E-03 +1.66703787509E-03 -1.08056623924E-03 -1.43577176758E-01 -2.63889329312E-01
4.26500000000E+09 -1.83481428651E-01 -3.59988994571E-01 +1.35548502288E-03 -8.27304320264E-04 +1.35794964284E-03 -8.93069067825E-04 -1.55854354955E-01 -2.44948196463E-01
4.27000000000E+09 -2.00535623603E-01 -3.48509195351E-01 +1.43130663915E-03 -8.49813430688E-04 +1.41556704758E-03 -9.68322748234E-04 -1.67862254848E-01 -2.25571764637E-01
4.27500000000E+09 -2.16269069700E-01 -3.36482138491E-01 +1.38989732103E-03 -1.23592606374E-03 +1.36510951091E-03 -1.30838873497E-03 -1.78888434941E-01 -2.04993552818E-01
4.28000000000E+09 -2.29663124718E-01 -3.22974328202E-01 +1.09442202541E-03 -1.38579184136E-03 +1.05693201316E-03 -1.40858358173E-03 -1.88730284597E-01 -1.84391869515E-01
4.28500000000E+09 -2.40775055630E-01 -3.08314146779E-01 +1.13566745258E-03 -1.25370009854E-03 +1.14610659297E-03 -1.27161636017E-03 -1.97143318290E-01 -1.64007360586E-01
4.29000000000E+09 -2.50873583051E-01 -2.92856689912E-01 +1.31886862947E-03 -1.77729085330E-03 +1.23491799526E-03 -1.79755480235E-03 -2.04878203224E-01 -1.44740884030E-01
4.29500000000E+09 -2.61482521007E-01 -2.75887099100E-01 +7.52009951770E-04 -2.33168110041E-03 +7.32912318075E-04 -2.34545714823E-03 -2.12647870479E-01 -1.25702079369E-01
4.30000000000E+09 -2.73088822536E-01 -2.57183332041E-01 +6.79469044867E-05 -1.97300622261E-03 +2.25293375561E-05 -1.93687397877E-03 -2.19148917249E-01 -1.05472709690E-01
4.30500000000E+09 -2.85311921778E-01 -2.36948925553E-01 +3.25714369305E-04 -2.05003141203E-03 +2.36326811766E-04 -2.03064364517E-03 -2.24464708817E-01 -8.44148502645E-02
4.31000000000E+09 -2.97424055372E-01 -2.16704056953E-01 -2.33644486747E-04 -2.41939360252E-03 -2.89233554137E-04 -2.37279457893E-03 -2.28448602071E-01 -6.38916365354E-02
4.31500000000E+09 -3.10136891322E-01 -1.97934566502E-01 -8.28920279828E-04 -2.25904704386E-03 -8.95040451774E-04 -2.12797170287E-03 -2.31963909950E-01 -4.25217621167E-02
4.32000000000E+09 -3.22311637489E-01 -1.80211050756E-01 -1.01573793334E-03 -1.59686918550E-03 -1.01890866683E-03 -1.56727782059E-03 -2.34415685085E-01 -2.13903806500E-02
4.32500000000E+09 -3.33874786180E-01 -1.64135426458E-01 -7.55811647155E-04 -1.64370655170E-03 -7.72538827755E-04 -1.60199908720E-03 -2.36532579909E-01 -7.56094741104E-04
4.33000000000E+09 -3.43869642764E-01 -1.48031831573E-01 -1.11429726284E-03 -1.99969503041E-03 -1.13881478611E-03 -1.95664699688E-03 -2.37960024728E-01 +2.02670679542E-02
4.33500000000E+09 -3.50506172942E-01 -1.32362373988E-01 -1.36601534452E-03 -1.95538220144E-03 -1.31000487893E-03 -1.86188563717E-03 -2.38260239494E-01 +4.14748544554E-02
4.34000000000E+09 -3.55314473826E-01 -1.16725524564E-01 -2.35662498953E-03 -2.00575556255E-03 -2.31391704639E-03 -1.91000356380E-03 -2.37936547106E-01 +6.22604468107E-02
4.34500000000E+09 -3.57978701129E-01 -9.95046835701E-02 -2.82715280913E-03 -8.06395671914E-04 -2.76978873294E-03 -8.48300402342E-04 -2.36089209788E-01 +8.29808608435E-02
4.35000000000E+09 -3.59316619097E-01 -8.13538758751E-02 -2.31769351216E-03 -5.21974311336E-05 -2.28897798547E-03 -4.62059413579E-05 -2.34652056762E-01 +1.02461268280E-01
4.35500000000E+09 -3.61341151899E-01 -6.06493790221E-02 -1.97842631069E-03 -2.38696250234E-04 -1.96486731799E-03 -3.07854138199E-04 -2.31752500775E-01 +1.22860902575E-01
4.36000000000E+09 -3.63002947186E-01 -3.80565415013E-02 -2.10114721392E-03 -2.95386344470E-05 -2.06647866795E-03 -1.23913104422E-04 -2.27855387629E-01 +1.40956382412E-01
4.36500000000E+09 -3.65400439683E-01 -1.53731005940E-02 -2.37300799094E-03 -3.06101861530E-04 -2.38053272595E-03 -2.86183724343E-04 -2.24159787907E-01 +1.59278477524E-01
4.37000000000E+09 -3.69499763719E-01 +7.70635169247E-03 -2.96006672407E-03 +6.46552012654E-04 -2.97114747356E-03 +5.59613679650E-04 -2.19304442415E-01 +1.77398376480E-01
4.37500000000E+09 -3.73577609316E-01 +2.91183571425E-02 -2.25665044927E-03 +1.38975030824E-03 -2.28924567002E-03 +1.37090957451E-03 -2.14071971051E-01 +1.95020115235E-01
4.38000000000E+09 -3.79122588991E-01 +4.89366522192E-02 -1.95847615995E-03 +1.32140529143E-03 -1.95429546921E-03 +1.36879564861E-03 -2.07628867237E-01 +2.12660333458E-01
4.38500000000E+09 -3.82830853744E-01 +6.71790142748E-02 -1.85727369048E-03 +1.74402169553E-03 -1.86340923745E-03 +1.81970079901E-03 -2.01390675044E-01 +2.30013276920E-01
4.39000000000E+09 -3.85372355556E-01 +8.31344267148E-02 -1.42972704313E-03 +2.04080470779E-03 -1.45994262017E-03 +2.14570829413E-03 -1.94286241605E-01 +2.46968756830E-01
4.39500000000E+09 -3.85897198444E-01 +9.80602615775E-02 -9.88019472679E-04 +1.98736026599E-03 -9.70745110279E-04 +2.06168897783E-03 -1.87498266813E-01 +2.62760011321E-01
4.40000000000E+09 -3.83812970826E-01 +1.12717429049E-01 -6.72354180426E-04 +2.01443233220E-03 -6.53991092295E-04 +2.13614684446E-03 -1.80205624956E-01 +2.79172213499E-01
4.40500000000E+09 -3.79474214626E-01 +1.27942453095E-01 -6.62624592066E-04 +1.99178362942E-03 -5.74241495248E-04 +2.05325244209E-03 -1.71342537226E-01 +2.94644693957E-01
4.41000000000E+09 -3.73913553780E-01 +1.44657257148E-01 -1.92159647116E-04 +2.28293982406E-03 -1.39850660214E-04 +2.29500838807E-03 -1.62438087635E-01 +3.08893986415E-01
4.41500000000E+09 -3.67403686763E-01 +1.63047690640E-01 -3.16152072270E-05 +1.99388887687E-03 +7.11474209642E-05 +1.98418814932E-03 -1.53402265143E-01 +3.23136146023E-01
4.42000000000E+09 -3.61247423574E-01 +1.83563664635E-01 -1.31178757014E-04 +2.16627479721E-03 -4.31337492706E-05 +2.11015059055E-03 -1.44049307127E-01 +3.37886294720E-01
4.42500000000E+09 -3.55404339232E-01 +2.04243144458E-01 +6.07703030999E-04 +2.38751914806E-03 +6.49392439864E-04 +2.39200178662E-03 -1.33473538442E-01 +3.51297403206E-01
4.43000000000E+09 -3.52229346033E-01 +2.25052385973E-01 +9.78519341753E-04 +2.10225441559E-03 +1.03285962984E-03 +1.99151736074E-03 -1.24347204500E-01 +3.64543664116E-01
4.43500000000E+09 -3.48989835314E-01 +2.46107945613E-01 +1.31328757140E-03 +1.95433198336E-03 +1.30974360844E-03 +1.85462658775E-03 -1.13609580588E-01 +3.77501764207E-01
4.44000000000E+09 -3.46064982190E-01 +2.64317916916E-01 +1.57464796597E-03 +1.47298916571E-03 +1.56803996595E-03 +1.34034947595E-03 -1.03336390708E-01 +3.89042064692E-01
4.44500000000E+09 -3.43680347545E-01 +2.80229612321E-01 +1.34752146495E-03 +1.06209534247E-03 +1.34298761171E-03 +9.45622600737E-04 -9.27241621305E-02 +4.00514491415E-01
4.45000000000E+09 -3.40508889688E-01 +2.94193659441E-01 +1.18314255413E-03 +1.28122173172E-03 +1.18471053481E-03 +1.20874298785E-03 -8.17428547289E-02 +4.11129191857E-01
4.45500000000E+09 -3.35816655290E-01 +3.07310517242E-01 +1.83104828140E-03 +1.40036263106E-03 +1.76477790074E-03 +1.25840234833E-03 -7.03392436952E-02 +4.21214963596E-01
4.46000000000E+09 -3.28930678777E-01 +3.19632379330E-01 +2.12330112147E-03 +5.34025260841E-04 +1.97090697019E-03 +4.54483907119E-04 -5.87514086517E-02 +4.30716775432E-01
4.46500000000E+09 -3.20026274502E-01 +3.32187729723E-01 +1.88737683375E-03 +4.03161716881E-04 +1.78049346265E-03 +3.53419803825E-04 -4.71483440611E-02 +4.39193324668E-01
4.47000000000E+09 -3.09881674657E-01 +3.46423920100E-01 +1.66613818557E-03 +2.50671685846E-04 +1.55636124738E-03 +2.20290638949E-04 -3.63245983648E-02 +4.47892553480E-01
4.47500000000E+09 -2.98205345383E-01 +3.62721033943E-01 +1.88805565947E-03 +3.20986212322E-04 +1.77544704753E-03 +3.11172967975E-04 -2.47609998344E-02 +4.56786896055E-01
4.48000000000E+09 -2.86143235854E-01 +3.79709441617E-01 +2.24133202764E-03 +1.15938674896E-04 +2.09732558046E-03 +1.04856211105E-04 -1.33639844419E-02 +4.64687205665E-01
4.48500000000E+09 -2.74389194657E-01 +3.96633873600E-01 +2.23443607357E-03 -5.71903932936E-04 +2.12462912534E-03 -5.03278844530E-04 -2.03627228684E-03 +4.72739026465E-01
4.49000000000E+09 -2.65334012017E-01 +4.12901952580E-01 +2.26406370669E-03 -9.52419742505E-04 +2.15884950444E-03 -8.49628459577E-04 +9.90857797709E-03 +4.80057741723E-01
4.49500000000E+09 -2.57745682021E-01 +4.28702342741E-01 +1.51544480562E-03 -1.54297629822E-03 +1.42346555663E-03 -1.47666316878E-03 +2.09820641146E-02 +4.86268877372E-01
4.50000000000E+09 -2.51245572464E-01 +4.41908016814E-01 +1.08687292714E-03 -1.13596052080E-03 +1.05382495279E-03 -1.05690175236E-03 +3.22649326096E-02 +4.92696493448E-01
4.50500000000E+09 -2.46571589381E-01 +4.53798627400E-01 +1.38469635787E-03 -1.05384907192E-03 +1.31633057709E-03 -9.85387969228E-04 +4.36297196657E-02 +4.98724820202E-01
4.51000000000E+09 -2.40246311095E-01 +4.64575235467E-01 +1.36398070159E-03 -1.66765458435E-03 +1.35559621891E-03 -1.61289581197E-03 +5.49743379162E-02 +5.04224182771E-01
4.51500000000E+09 -2.31437809858E-01 +4.72735800984E-01 +9.04765312251E-04 -1.88110237603E-03 +9.08456581648E-04 -1.77706822115E-03 +6.60721244267E-02 +5.09837052873E-01
4.52000000000E+09 -2.21815401662E-01 +4.79674493061E-01 +5.56890490872E-04 -1.98199461186E-03 +5.28910577137E-04 -1.93085901393E-03 +7.79143088341E-02 +5.15036201975E-01
4.52500000000E+09 -2.09897545091E-01 +4.86570609981E-01 +1.49762965661E-04 -1.70653760688E-03 +1.81954096516E-04 -1.63182452996E-03 +8.93509900577E-02 +5.19031668167E-01
4.53000000000E+09 -1.97242912874E-01 +4.94435053212E-01 +1.87639090480E-04 -1.64545838544E-03 +1.52153582131E-04 -1.63145264947E-03 +1.01072904999E-01 +5.22976824359E-01
4.53500000000E+09 -1.82483181722E-01 +5.04120583918E-01 -6.76685019577E-05 -1.73686047272E-03 -1.04612415667E-04 -1.73809245254E-03 +1.12530825282E-01 +5.26152761064E-01
4.54000000000E+09 -1.67712840638E-01 +5.14019479502E-01 -2.34414596495E-04 -1.75428702188E-03 -2.61284297042E-04 -1.68956429600E-03 +1.23754404009E-01 +5.29006882999E-01
4.54500000000E+09 -1.53873195431E-01 +5.25148137347E-01 -7.24700610671E-04 -1.74308448495E-03 -6.89068086241E-04 -1.71167072681E-03 +1.34136418946E-01 +5.32028928849E-01
4.55000000000E+09 -1.41053697731E-01 +5.35405246211E-01 -1.14477844926E-03 -1.20965309213E-03 -1.12342121715E-03 -1.14958318922E-03 +1.45478766566E-01 +5.35623569422E-01
4.55500000000E+09 -1.30703079604E-01 +5.45027481046E-01 -8.45482911870E-04 -7.96336929696E-04 -7.87360333256E-04 -8.22759006309E-04 +1.56440003350E-01 +5.38070288784E-01
4.56000000000E+09 -1.21415486678E-01 +5.54292298908E-01 -6.21750575137E-04 -1.08344832144E-03 -6.47687983276E-04 -1.05476136197E-03 +1.66709703534E-01 +5.40684563627E-01
4.56500000000E+09 -1.11982595019E-01 +5.61492745370E-01 -8.51957863848E-04 -1.19019869221E-03 -8.54867923879E-04 -1.14181905318E-03 +1.76691552515E-01 +5.43162425369E-01
4.57000000000E+09 -1.02607077154E-01 +5.66714549470E-01 -1.25600654949E-03 -1.08581383314E-03 -1.22584663781E-03 -1.02631644583E-03 +1.87190211596E-01 +5.45582439881E-01
