# Hz S RI R 50
! CMT, C1220, 16058040, 17.2.0/1
! Date: 15/08/2018 12:18:23
! Data: Format (Calibration Info)
! Freq                      S11: Re/Im (F2)                       S21: Re/Im (F2)                       S12: Re/Im (F2)                       S22: Re/Im (F2)            
4.00000000000E+09 +6.53134274524E-01 -3.51533255766E-01 +1.04432714729E-04 -2.85761563376E-04 +1.43953369743E-04 -3.14467749837E-04 +7.42953098890E-01 -3.24567887258E-01
4.00500000000E+09 +6.45011588046E-01 -3.57843273045E-01 +1.17606744912E-04 -2.70255343794E-04 +1.62281135660E-04 -2.81187954340E-04 +7.32595272555E-01 -3.35388117155E-01
4.01000000000E+09 +6.36088904142E-01 -3.64585056308E-01 +1.82912125737E-04 -4.02317724685E-04 +1.83246497506E-04 -3.97011646115E-04 +7.21697100455E-01 -3.46298025534E-01
4.01500000000E+09 +6.25887018705E-01 -3.72044745296E-01 +1.64716907503E-04 -5.06611004838E-04 +1.69055148272E-04 -5.27907542937E-04 +7.10408907346E-01 -3.56652852484E-01
4.02000000000E+09 +6.15366403551E-01 -3.80375810710E-01 -1.45922373445E-04 -6.39156332747E-04 -1.60841367448E-04 -6.53235206224E-04 +6.98709728276E-01 -3.66618040597E-01
4.02500000000E+09 +6.04073550418E-01 -3.90062544128E-01 -3.22625078626E-04 -1.43735595037E-04 -3.06841168295E-04 -1.66350950598E-04 +6.86526537759E-01 -3.76485428618E-01
4.03000000000E+09 +5.92888971515E-01 -4.00271095683E-01 +9.30915325187E-05 -1.14170476310E-04 +7.97010866184E-05 -6.19045237043E-05 +6.73704422969E-01 -3.85996237270E-01
4.03500000000E+09 +5.81767358674E-01 -4.10994207124E-01 +2.41966465498E-04 -2.94838998978E-04 +1.89343979912E-04 -2.77328043729E-04 +6.60852161140E-01 -3.95523349145E-01
4.04000000000E+09 +5.70958527535E-01 -4.21318554586E-01 +2.15779295856E-04 -5.81806937133E-04 +2.07367274876E-04 -5.63114140457E-04 +6.47540909225E-01 -4.05836387675E-01
4.04500000000E+09 +5.59953091483E-01 -4.31026667359E-01 -2.14834486179E-04 -7.61415199087E-04 -1.94249045067E-04 -8.02991281922E-04 +6.33146729678E-01 -4.15533547863E-01
4.05000000000E+09 +5.48654277716E-01 -4.38943843368E-01 -4.89468509195E-04 -5.04508897080E-04 -5.03296131548E-04 -5.38501807315E-04 +6.19112083986E-01 -4.24198625225E-01
4.05500000000E+09 +5.37243598380E-01 -4.44608625260E-01 -3.26664779850E-04 -3.12556688983E-04 -3.65647897354E-04 -3.19882457182E-04 +6.04752262918E-01 -4.32517122982E-01
4.06000000000E+09 +5.25534977146E-01 -4.49249789837E-01 -3.27128944503E-04 -2.22168152402E-04 -3.39679701958E-04 -1.69224005348E-04 +5.90176333605E-01 -4.40422067800E-01
4.06500000000E+09 +5.12922036048E-01 -4.53300759618E-01 -1.65024108402E-04 -2.03256001609E-04 -1.71347589125E-04 -2.40799606350E-04 +5.74360874809E-01 -4.48016475036E-01
4.07000000000E+09 +4.98678710026E-01 -4.57773290039E-01 -2.24511928524E-04 -5.13463445154E-04 -2.22881714679E-04 -5.18730785810E-04 +5.58456384570E-01 -4.55159401029E-01
4.07500000000E+09 +4.83226979607E-01 -4.62236667963E-01 -4.38635075949E-04 -4.22508430344E-04 -3.59656403604E-04 -4.06257943420E-04 +5.42178548016E-01 -4.63034199118E-01
4.08000000000E+09 +4.66698801842E-01 -4.67602161370E-01 -5.62369184745E-04 -4.08500336507E-04 -5.52875212023E-04 -4.91499371647E-04 +5.25349615230E-01 -4.69602394073E-01
4.08500000000E+09 +4.49275929317E-01 -4.73285855760E-01 -7.96900318839E-04 -2.09986373161E-04 -7.40293619658E-04 -2.25963775277E-04 +5.08747142326E-01 -4.76883565908E-01
4.09000000000E+09 +4.32530402064E-01 -4.79537649036E-01 -6.33822121248E-04 -7.86662732006E-05 -6.58354582907E-04 -1.32417907911E-04 +4.90784045137E-01 -4.82491903337E-01
4.09500000000E+09 +4.15811085099E-01 -4.86469539859E-01 -6.24862153663E-04 +1.26871128453E-04 -6.90631965967E-04 +9.36010496528E-05 +4.73699603175E-01 -4.87217663173E-01
4.10000000000E+09 +3.98841702047E-01 -4.92678398339E-01 -6.00029796502E-04 +3.08535939756E-05 -6.43705300933E-04 +1.65071441223E-05 +4.55147803841E-01 -4.92224113564E-01
4.10500000000E+09 +3.82441357631E-01 -4.97139404817E-01 -5.55585156196E-04 +3.72930303209E-04 -5.85462959765E-04 +4.32127422994E-04 +4.35796902348E-01 -4.95912902382E-01
4.11000000000E+09 +3.66458777608E-01 -5.00125594504E-01 -2.46366411749E-04 +2.05807054962E-04 -2.54936995105E-04 +2.35503875524E-04 +4.16464809513E-01 -4.99122630170E-01
4.11500000000E+09 +3.50978394624E-01 -5.01544465580E-01 -1.98054943424E-04 -8.00102430671E-05 -1.89443795093E-04 -1.96422828258E-05 +3.97229934109E-01 -5.02428685490E-01
4.12000000000E+09 +3.35183417409E-01 -5.02813228167E-01 -5.59877148794E-04 -2.04045837137E-04 -5.53360637605E-04 -2.23810430855E-04 +3.77430924043E-01 -5.05323538636E-01
4.12500000000E+09 +3.17645464184E-01 -5.03295928279E-01 -8.57735783573E-04 -7.29145049382E-05 -8.73495865192E-04 -9.44378652215E-05 +3.57213361340E-01 -5.07008310152E-01
4.13000000000E+09 +2.99615010203E-01 -5.03791886232E-01 -1.07798147824E-03 +5.39708285027E-04 -1.15345281902E-03 +5.32524280677E-04 +3.36794757264E-01 -5.08040983396E-01
4.13500000000E+09 +2.80588656195E-01 -5.05470270907E-01 -5.68659167127E-04 +8.18653501596E-04 -6.39038354255E-04 +8.58209821100E-04 +3.16031944531E-01 -5.07835174903E-01
4.14000000000E+09 +2.60433912182E-01 -5.07888688515E-01 -2.29771835010E-04 +7.67022859863E-04 -2.72491134103E-04 +7.69193919577E-04 +2.95544591834E-01 -5.07241964436E-01
4.14500000000E+09 +2.40592586202E-01 -5.11569709919E-01 -7.88276615787E-05 +6.14185519498E-04 -1.15238905191E-04 +6.37825756044E-04 +2.74516673150E-01 -5.06068321202E-01
4.15000000000E+09 +2.19928036305E-01 -5.15884177620E-01 +3.05905708982E-05 +3.84456527721E-04 +4.12794281442E-05 +4.73224934715E-04 +2.54143365145E-01 -5.04403989983E-01
4.15500000000E+09 +2.00068599560E-01 -5.19451542101E-01 -1.62313638965E-04 +3.82768022085E-05 -1.73760361977E-04 +5.56003173881E-06 +2.33556156562E-01 -5.01571562780E-01
4.16000000000E+09 +1.81482454397E-01 -5.22076864979E-01 -5.59701516153E-04 +1.49006042533E-04 -5.82495526836E-04 +1.95326459412E-04 +2.13390443580E-01 -4.97697862940E-01
4.16500000000E+09 +1.63678072781E-01 -5.22639275452E-01 -7.87124878500E-04 +5.65208027568E-04 -7.60889935092E-04 +5.82229652130E-04 +1.92937594234E-01 -4.93192888066E-01
4.17000000000E+09 +1.48100288678E-01 -5.21205545074E-01 -7.05179980084E-04 +7.33979142703E-04 -6.72568553254E-04 +7.12067052028E-04 +1.72083815938E-01 -4.87909295414E-01
4.17500000000E+09 +1.32810014161E-01 -5.19009931293E-01 -5.15474589124E-04 +1.25164356602E-03 -5.53237779039E-04 +1.19693813217E-03 +1.50928348387E-01 -4.81439623428E-01
4.18000000000E+09 +1.17170813701E-01 -5.15275632201E-01 -1.76974549041E-04 +1.35832459403E-03 -1.79571819730E-04 +1.37231701001E-03 +1.30483486348E-01 -4.73739378597E-01
4.18500000000E+09 +1.00430421199E-01 -5.11101306293E-01 +4.55439665854E-04 +1.36038142270E-03 +4.51221201803E-04 +1.33134877101E-03 +1.11058292064E-01 -4.66360464022E-01
4.19000000000E+09 +8.22821068373E-02 -5.05545133097E-01 +4.52499823132E-04 +6.83280575905E-04 +4.50603189275E-04 +6.36014439288E-04 +9.04952937860E-02 -4.58619449444E-01
4.19500000000E+09 +6.40361212336E-02 -4.99499772852E-01 +8.36648212468E-05 +6.54867555424E-04 +6.48134500506E-05 +6.76392596864E-04 +7.00745323315E-02 -4.48842020968E-01
4.20000000000E+09 +4.53303988968E-02 -4.94115642277E-01 +7.33541493767E-05 +1.02289269947E-03 +5.28460910068E-05 +1.08090711957E-03 +5.08213095616E-02 -4.37936734090E-01
4.20500000000E+09 +2.64824385861E-02 -4.89150459405E-01 +8.77831930946E-05 +1.01028001238E-03 +7.38527341311E-05 +1.00835294931E-03 +3.13595233794E-02 -4.27000747306E-01
4.21000000000E+09 +7.88849196683E-03 -4.83947895238E-01 +2.61102039660E-04 +1.61767279626E-03 +2.36170834029E-04 +1.70143025913E-03 +1.21500670606E-02 -4.14826553104E-01
4.21500000000E+09 -9.88949694987E-03 -4.78224125796E-01 +1.11337534563E-03 +1.90971048557E-03 +1.09860194342E-03 +1.96958857864E-03 -5.61983741406E-03 -4.02665096387E-01
4.22000000000E+09 -2.71544298895E-02 -4.71246722183E-01 +1.87520357974E-03 +1.27248937684E-03 +1.88670421174E-03 +1.34935676322E-03 -2.33938354519E-02 -3.90561243081E-01
4.22500000000E+09 -4.29799396462E-02 -4.62410670673E-01 +2.08519960698E-03 +5.93605851980E-04 +2.17074844210E-03 +6.31587171411E-04 -4.06671652709E-02 -3.76814573431E-01
4.23000000000E+09 -5.82917082163E-02 -4.52324058641E-01 +1.82153062665E-03 -1.86345722172E-04 +1.88690972730E-03 -1.94830794526E-04 -5.69885976450E-02 -3.62646004169E-01
4.23500000000E+09 -7.39531752021E-02 -4.40780584026E-01 +1.23194300119E-03 -8.88910388229E-05 +1.30910737211E-03 -4.54728563060E-05 -7.35885958359E-02 -3.47192218489E-01
4.24000000000E+09 -9.01653140138E-02 -4.27846778987E-01 +1.15526238328E-03 +1.79014488089E-04 +1.23418505866E-03 +1.70901007647E-04 -8.88534456292E-02 -3.30529627413E-01
4.24500000000E+09 -1.07404994461E-01 -4.14877255115E-01 +1.70597283631E-03 +3.23951857184E-04 +1.82112566120E-03 +3.24218693414E-04 -1.03755739873E-01 -3.13730947365E-01
4.25000000000E+09 -1.26322800854E-01 -4.01616941794E-01 +2.17454067054E-03 -2.02874191800E-04 +2.23325215218E-03 -2.47160247318E-04 -1.17731250598E-01 -2.96080459497E-01
4.25500000000E+09 -1.45379552714E-01 -3.88569032972E-01 +2.00616616786E-03 -9.03844183059E-04 +2.05655233282E-03 -1.01191966327E-03 -1.30407370330E-01 -2.79266740979E-01
4.26000000000E+09 -1.65232049334E-01 -3.76542323497E-01 +1.65386389354E-03 -1.32288618929E-03 +1.65292482756E-03 -1.44527067193E-03 -1.43514363084E-01 -2.62303331073E-01
4.26500000000E+09 -1.84475499713E-01 -3.64478119846E-01 +1.25095742796E-03 -1.42089709153E-03 +1.28019010757E-03 -1.52783246215E-03 -1.55889298751E-01 -2.43263113476E-01
4.27000000000E+09 -2.01667079965E-01 -3.52751743932E-01 +1.06007584967E-03 -1.41329010989E-03 +1.01761047208E-03 -1.42416512873E-03 -1.67767950683E-01 -2.23806913820E-01
4.27500000000E+09 -2.17771940445E-01 -3.40666336824E-01 +9.21479375852E-04 -1.57296858688E-03 +8.44580183418E-04 -1.67363028713E-03 -1.78885980900E-01 -2.03249645408E-01
4.28000000000E+09 -2.31375446908E-01 -3.26974868262E-01 +5.94918885602E-04 -1.57496216054E-03 +5.46654365023E-04 -1.63219228181E-03 -1.88509797458E-01 -1.82261614642E-01
4.28500000000E+09 -2.42660708692E-01 -3.12154230002E-01 +7.16393696842E-04 -1.39916225505E-03 +6.36246138753E-04 -1.41369362058E-03 -1.96582951882E-01 -1.61959697120E-01
4.29000000000E+09 -2.53192070553E-01 -2.96647628110E-01 +8.22110517696E-04 -1.78913026688E-03 +7.41327340527E-04 -1.82918096283E-03 -2.04302394461E-01 -1.42702910236E-01
4.29500000000E+09 -2.63960968880E-01 -2.79463345265E-01 +3.65923697499E-04 -2.34945395777E-03 +3.11396257322E-04 -2.33226768129E-03 -2.11704643744E-01 -1.23529362487E-01
4.30000000000E+09 -2.75825442713E-01 -2.60620364881E-01 -4.09983767538E-04 -2.06226156480E-03 -4.28632314985E-04 -2.00304631923E-03 -2.18131931345E-01 -1.03379752818E-01
4.30500000000E+09 -2.88189855684E-01 -2.40319678429E-01 -2.18933419851E-04 -1.99985145135E-03 -2.20823372014E-04 -1.91580550700E-03 -2.23271668352E-01 -8.21536544298E-02
4.31000000000E+09 -3.00671001251E-01 -2.20050094778E-01 -6.93928300512E-04 -2.30979087330E-03 -7.34653513741E-04 -2.29871676383E-03 -2.26697529666E-01 -6.15741137555E-02
4.31500000000E+09 -3.13698816798E-01 -2.00888234726E-01 -1.31665897377E-03 -1.89315851021E-03 -1.33346386012E-03 -1.92001570741E-03 -2.29471485979E-01 -4.04787166261E-02
4.32000000000E+09 -3.26080916880E-01 -1.82646753260E-01 -1.36481428765E-03 -1.35179663089E-03 -1.37642044991E-03 -1.28455786566E-03 -2.31515870175E-01 -1.98489647887E-02
4.32500000000E+09 -3.37462464424E-01 -1.66406721086E-01 -1.18927698267E-03 -1.29399588207E-03 -1.14028031449E-03 -1.35480399894E-03 -2.33433026184E-01 +7.78542538221E-05
4.33000000000E+09 -3.47686755345E-01 -1.50544805527E-01 -1.43153542874E-03 -1.54408160458E-03 -1.43946220707E-03 -1.51516610029E-03 -2.35073416823E-01 +2.06765017946E-02
4.33500000000E+09 -3.54740902555E-01 -1.34594626070E-01 -1.53937804377E-03 -1.48523960918E-03 -1.54487891129E-03 -1.44686437182E-03 -2.35375849404E-01 +4.15749613357E-02
4.34000000000E+09 -3.59724735317E-01 -1.18496616105E-01 -2.46758527558E-03 -1.66210535586E-03 -2.47601725500E-03 -1.64481310375E-03 -2.34932899863E-01 +6.18591536541E-02
4.34500000000E+09 -3.62601495264E-01 -1.00829232946E-01 -2.96172400514E-03 -4.24596784529E-04 -2.91324670659E-03 -4.30428806817E-04 -2.33387125824E-01 +8.20142421778E-02
4.35000000000E+09 -3.63792120643E-01 -8.22806317746E-02 -2.50695399129E-03 +3.14565919181E-04 -2.42375305784E-03 +2.60521412559E-04 -2.32471792658E-01 +1.01056355233E-01
4.35500000000E+09 -3.65730073557E-01 -6.12682331703E-02 -2.08239762740E-03 +2.89035780846E-04 -2.02159642924E-03 +2.46076163601E-04 -2.30031577999E-01 +1.21401938532E-01
4.36000000000E+09 -3.67307917971E-01 -3.86363747615E-02 -1.99657364218E-03 +4.20062742652E-04 -1.92809959680E-03 +4.48141635100E-04 -2.26359976977E-01 +1.39630070686E-01
4.36500000000E+09 -3.69754405077E-01 -1.57222691775E-02 -2.27043172958E-03 +7.54756649277E-05 -2.26199793641E-03 +6.95085833206E-05 -2.23188768305E-01 +1.57706980796E-01
4.37000000000E+09 -3.74108786551E-01 +7.59048176355E-03 -2.84791904589E-03 +1.02141439504E-03 -2.87529442453E-03 +1.02321550328E-03 -2.18623314665E-01 +1.76303490117E-01
4.37500000000E+09 -3.78142021569E-01 +2.95578026917E-02 -2.17101160016E-03 +1.81184606688E-03 -2.15941921682E-03 +1.74903531598E-03 -2.13372925436E-01 +1.94052199490E-01
4.38000000000E+09 -3.83386197090E-01 +4.96017810979E-02 -1.73605720248E-03 +1.85027941601E-03 -1.69954768719E-03 +1.89522745222E-03 -2.06950023069E-01 +2.11886809863E-01
4.38500000000E+09 -3.86956612104E-01 +6.78509148521E-02 -1.41029797281E-03 +2.20718340921E-03 -1.41053412694E-03 +2.19215885904E-03 -2.00328200375E-01 +2.29396900701E-01
4.39000000000E+09 -3.89461457929E-01 +8.40635405123E-02 -9.86124900933E-04 +2.17019568146E-03 -9.52710955711E-04 +2.22133689223E-03 -1.92999566903E-01 +2.46080022903E-01
4.39500000000E+09 -3.90086998651E-01 +9.91355380756E-02 -8.14468372088E-04 +2.18753281691E-03 -7.74234022981E-04 +2.25823321652E-03 -1.86316288897E-01 +2.61567097279E-01
4.40000000000E+09 -3.87958121990E-01 +1.14126124404E-01 -4.12750089051E-04 +2.39421889315E-03 -3.26649089668E-04 +2.43095405962E-03 -1.78946032684E-01 +2.77868940981E-01
4.40500000000E+09 -3.83576879073E-01 +1.29684142287E-01 -7.36484744354E-05 +2.29103527195E-03 -4.98670469058E-05 +2.26578831248E-03 -1.70263297890E-01 +2.93159490229E-01
4.41000000000E+09 -3.77958543661E-01 +1.46509255295E-01 +4.29599942824E-04 +2.32721064811E-03 +4.17915290527E-04 +2.27145016327E-03 -1.61327365724E-01 +3.07261089558E-01
4.41500000000E+09 -3.71390547131E-01 +1.65245974421E-01 +5.12835588170E-04 +2.01450627703E-03 +5.62922283167E-04 +2.00272633563E-03 -1.52433748392E-01 +3.21109870077E-01
4.42000000000E+09 -3.65126734923E-01 +1.86052235617E-01 +3.85168555963E-04 +1.95033607154E-03 +4.49463207140E-04 +1.86041474826E-03 -1.43541729167E-01 +3.35524593880E-01
4.42500000000E+09 -3.59297179927E-01 +2.07191146996E-01 +9.26818737044E-04 +2.33612771621E-03 +9.41442843765E-04 +2.25546527061E-03 -1.33413422867E-01 +3.48877869218E-01
4.43000000000E+09 -3.55567607302E-01 +2.28472281423E-01 +1.38039582866E-03 +1.97799023380E-03 +1.42902924386E-03 +1.90209936790E-03 -1.24644298084E-01 +3.62105545576E-01
4.43500000000E+09 -3.52154132803E-01 +2.49351851005E-01 +1.78074547430E-03 +1.76183574423E-03 +1.66872260623E-03 +1.66314992345E-03 -1.14461124472E-01 +3.75101338214E-01
4.44000000000E+09 -3.49040065913E-01 +2.67844720942E-01 +2.06825521576E-03 +1.12817317894E-03 +2.02379999096E-03 +1.04763543654E-03 -1.04597994933E-01 +3.87074756526E-01
4.44500000000E+09 -3.46350295033E-01 +2.83983350712E-01 +1.75740343591E-03 +5.73496417091E-04 +1.70937223393E-03 +5.44283092998E-04 -9.42206002501E-02 +3.98836558285E-01
4.45000000000E+09 -3.43141884413E-01 +2.98048408701E-01 +1.40879497703E-03 +8.72089402895E-04 +1.39208339356E-03 +8.51562374086E-04 -8.34865893071E-02 +4.09824616543E-01
4.45500000000E+09 -3.38073304963E-01 +3.11499419365E-01 +2.14868249511E-03 +8.87031620492E-04 +2.05677521927E-03 +8.49232892008E-04 -7.21013385483E-02 +4.20265232203E-01
4.46000000000E+09 -3.30689648554E-01 +3.23789476018E-01 +2.13849041371E-03 -4.52933926412E-05 +2.05645311538E-03 -9.14037976610E-05 -6.05965869150E-02 +4.30135358458E-01
4.46500000000E+09 -3.21389373853E-01 +3.36336051798E-01 +1.84142343455E-03 +4.00912580817E-06 +1.83456333146E-03 -8.03108889645E-05 -4.89452571842E-02 +4.38758028039E-01
4.47000000000E+09 -3.11061464923E-01 +3.50493319699E-01 +1.57758641751E-03 -3.37453445373E-04 +1.48466933427E-03 -3.98826043707E-04 -3.80892248627E-02 +4.47894760437E-01
4.47500000000E+09 -2.99210403251E-01 +3.66625984208E-01 +1.62272062618E-03 +3.80349835090E-05 +1.56878188945E-03 -2.44205920643E-05 -2.63767560931E-02 +4.57167869424E-01
4.48000000000E+09 -2.87008440633E-01 +3.83757700238E-01 +2.00885168359E-03 -2.13558384512E-04 +1.95674836775E-03 -2.07050855187E-04 -1.45800221811E-02 +4.65076016773E-01
4.48500000000E+09 -2.75022226374E-01 +4.01007743269E-01 +1.99838254457E-03 -8.98259558247E-04 +1.87575303320E-03 -9.06599914619E-04 -3.08951964792E-03 +4.73337522088E-01
4.49000000000E+09 -2.65516422763E-01 +4.17028140306E-01 +1.91466577460E-03 -1.17088386454E-03 +1.82110127537E-03 -1.13889299168E-03 +9.12942912175E-03 +4.80511341702E-01
4.49500000000E+09 -2.57736707025E-01 +4.32837282466E-01 +1.25256316152E-03 -1.66928489918E-03 +1.16457068030E-03 -1.67323827281E-03 +2.02811703424E-02 +4.86662808586E-01
4.50000000000E+09 -2.50910985019E-01 +4.46086261389E-01 +6.88673269819E-04 -1.36963768386E-03 +6.64248084850E-04 -1.33025659132E-03 +3.16087124580E-02 +4.93094056121E-01
4.50500000000E+09 -2.45873422495E-01 +4.57743550996E-01 +9.25844530129E-04 -1.09969029389E-03 +9.16320893978E-04 -1.03565737003E-03 +4.31072197139E-02 +4.98911613299E-01
4.51000000000E+09 -2.39548414531E-01 +4.68329547695E-01 +1.02680653664E-03 -1.45753814817E-03 +1.00796226123E-03 -1.40678292299E-03 +5.42040263488E-02 +5.04277542739E-01
4.51500000000E+09 -2.30596625926E-01 +4.76707846328E-01 +8.37450851429E-04 -1.69057041373E-03 +8.19236456113E-04 -1.61526577075E-03 +6.52299790799E-02 +5.10106209272E-01
4.52000000000E+09 -2.20569597172E-01 +4.83409652851E-01 +4.62386849798E-04 -1.95304363483E-03 +3.62825431824E-04 -1.86426009301E-03 +7.68746516206E-02 +5.15262940127E-01
4.52500000000E+09 -2.08451521686E-01 +4.90305695406E-01 +2.72438592274E-05 -1.67513911139E-03 +1.59658401639E-05 -1.68285771546E-03 +8.83019919503E-02 +5.19788621830E-01
4.53000000000E+09 -1.95482808750E-01 +4.97794060743E-01 +1.20225070639E-04 -1.63994272261E-03 +8.84682057238E-05 -1.64015170000E-03 +1.00067783640E-01 +5.23716656859E-01
4.53500000000E+09 -1.80872611950E-01 +5.07411457045E-01 -2.43824737075E-04 -1.81499826390E-03 -2.42611602239E-04 -1.72514946176E-03 +1.11555805749E-01 +5.27028944692E-01
4.54000000000E+09 -1.65846948423E-01 +5.17259173061E-01 -3.75401880821E-04 -1.79625387038E-03 -3.62654926462E-04 -1.70842658066E-03 +1.22826636316E-01 +5.30231293795E-01
4.54500000000E+09 -1.51812529710E-01 +5.28044755143E-01 -8.25864197766E-04 -1.80621605189E-03 -7.89721240261E-04 -1.73090414391E-03 +1.33328049042E-01 +5.33646937043E-01
4.55000000000E+09 -1.38897084539E-01 +5.38094016308E-01 -1.37034646896E-03 -1.32837481269E-03 -1.27338714139E-03 -1.26640627022E-03 +1.45062057666E-01 +5.37261022707E-01
4.55500000000E+09 -1.28488460743E-01 +5.47606565036E-01 -1.08982979224E-03 -8.00963637696E-04 -9.70639406762E-04 -7.99615760678E-04 +1.56209982784E-01 +5.39911349322E-01
4.56000000000E+09 -1.19267522485E-01 +5.56509314387E-01 -7.89189793556E-04 -1.03676704461E-03 -7.79296059406E-04 -9.80087675880E-04 +1.66982171231E-01 +5.42582858624E-01
4.56500000000E+09 -1.09941657522E-01 +5.63759332159E-01 -1.11791288827E-03 -1.13780994555E-03 -1.07147056262E-03 -1.18421471455E-03 +1.77389687029E-01 +5.44933667220E-01
4.57000000000E+09 -1.00427616624E-01 +5.68986220833E-01 -1.52125964158E-03 -9.70358518909E-04 -1.47229586317E-03 -9.41995790902E-04 +1.88161281178E-01 +5.47163789049E-01
