# Hz S RI R 50
! CMT, C1220, 16058040, 17.2.0/1
! Date: 15/08/2018 12:24:35
! Data: Format (Calibration Info)
! Freq                      S11: Re/Im (F2)                       S21: Re/Im (F2)                       S12: Re/Im (F2)                       S22: Re/Im (F2)            
4.00000000000E+09 +6.53251610664E-01 -3.50729460550E-01 +7.08941848924E-05 -2.72363170165E-04 +1.23894573452E-04 -2.58297774332E-04 +7.43567058605E-01 -3.22883535774E-01
4.00500000000E+09 +6.45503801890E-01 -3.56970434514E-01 +1.90746395550E-04 -1.90021379946E-04 +1.98990202550E-04 -1.93382444430E-04 +7.32959966442E-01 -3.33458538382E-01
4.01000000000E+09 +6.36771356015E-01 -3.63507466187E-01 +3.30530697513E-04 -4.55977499460E-04 +3.58305774448E-04 -4.52051972123E-04 +7.22220057464E-01 -3.44316342214E-01
4.01500000000E+09 +6.26328074536E-01 -3.70228494717E-01 +2.02624635221E-04 -6.81140698426E-04 +2.41033970351E-04 -6.27088753845E-04 +7.11146507019E-01 -3.54598875119E-01
4.02000000000E+09 +6.15823745520E-01 -3.77896637910E-01 -1.62113417385E-04 -7.48320391728E-04 -1.70891284240E-04 -7.37289457881E-04 +6.99624639841E-01 -3.64689106420E-01
4.02500000000E+09 +6.04592287166E-01 -3.87014153622E-01 -3.99251118669E-04 -2.77665458827E-04 -4.14065900015E-04 -2.13234434178E-04 +6.87560483263E-01 -3.74719982322E-01
4.03000000000E+09 +5.93737319760E-01 -3.96999920908E-01 +1.02853301662E-04 -1.46712668077E-04 +6.41240017436E-05 -1.16149246733E-04 +6.74744788159E-01 -3.84281068756E-01
4.03500000000E+09 +5.82738512136E-01 -4.07947595333E-01 +1.95053047560E-04 -4.72294548777E-04 +2.01529374392E-04 -4.04015602935E-04 +6.61987603004E-01 -3.93879612771E-01
4.04000000000E+09 +5.71812994704E-01 -4.18837035463E-01 +9.07580001668E-05 -7.31548776859E-04 +1.66533825546E-04 -7.15159885742E-04 +6.48593095965E-01 -4.04094166269E-01
4.04500000000E+09 +5.60779479875E-01 -4.28652887254E-01 -1.91868593396E-04 -8.90355151329E-04 -1.93849357315E-04 -9.56860219773E-04 +6.34819195838E-01 -4.13253135259E-01
4.05000000000E+09 +5.49916062968E-01 -4.36766055992E-01 -6.53058951205E-04 -6.92644482161E-04 -6.03603867752E-04 -8.04818861693E-04 +6.21400327898E-01 -4.22203230658E-01
4.05500000000E+09 +5.38872013009E-01 -4.42655895788E-01 -6.11327904526E-04 -4.20757264608E-04 -6.25654637474E-04 -4.54579937864E-04 +6.06962827171E-01 -4.30919438914E-01
4.06000000000E+09 +5.27738144068E-01 -4.47488074520E-01 -6.25840984118E-04 -2.68884288558E-04 -6.61468173773E-04 -3.20402434959E-04 +5.92561398384E-01 -4.38885939452E-01
4.06500000000E+09 +5.15542785564E-01 -4.51564816578E-01 -5.03398883943E-04 -2.65629683133E-04 -5.10269290129E-04 -2.95453912320E-04 +5.76798131324E-01 -4.47005322329E-01
4.07000000000E+09 +5.01958756182E-01 -4.55989194396E-01 -6.43048714422E-04 -3.61338702906E-04 -6.06075429290E-04 -4.06355032267E-04 +5.60718676055E-01 -4.54164920433E-01
4.07500000000E+09 +4.87125691588E-01 -4.60513310160E-01 -7.05445756975E-04 -1.55024251296E-04 -6.70339151657E-04 -2.63375503302E-04 +5.44597039829E-01 -4.61987040232E-01
4.08000000000E+09 +4.70841296620E-01 -4.66030574129E-01 -6.96459909163E-04 -2.07222164352E-04 -7.00510325932E-04 -2.26878360810E-04 +5.28103661870E-01 -4.68954362285E-01
4.08500000000E+09 +4.53596198626E-01 -4.71670946765E-01 -8.86205411402E-04 -1.35761089164E-04 -9.22799508626E-04 -1.51829772613E-04 +5.11730555180E-01 -4.76400179526E-01
4.09000000000E+09 +4.36816412222E-01 -4.77887709842E-01 -8.71072724591E-04 +8.99988623042E-05 -9.48753886852E-04 +5.84399165089E-05 +4.93902646828E-01 -4.82216755200E-01
4.09500000000E+09 +4.20444540772E-01 -4.84721667686E-01 -9.58134892800E-04 +3.74825187793E-04 -1.00246154080E-03 +3.66494702388E-04 +4.76496962809E-01 -4.87569532913E-01
4.10000000000E+09 +4.03830761194E-01 -4.91070147840E-01 -7.73795310170E-04 +5.44758636948E-04 -8.42050445535E-04 +5.28368938739E-04 +4.57698522432E-01 -4.92674117085E-01
4.10500000000E+09 +3.88009573556E-01 -4.95816770713E-01 -5.12677691655E-04 +8.10917758108E-04 -5.53249997777E-04 +8.32901697935E-04 +4.38157955500E-01 -4.96497208692E-01
4.11000000000E+09 +3.72500227527E-01 -4.99384779376E-01 -1.69947127563E-04 +6.33853953002E-04 -2.02447076267E-04 +6.58729797610E-04 +4.18990428016E-01 -4.99677569169E-01
4.11500000000E+09 +3.57051533023E-01 -5.01518395341E-01 +2.90075581795E-05 +2.95925190587E-04 -2.45580912669E-05 +3.07129594527E-04 +3.99926068130E-01 -5.03320053680E-01
4.12000000000E+09 +3.40996313808E-01 -5.02868628876E-01 -3.17406954784E-04 +3.93990859588E-05 -2.82150087360E-04 +3.44452285280E-05 +3.80266154933E-01 -5.06315520640E-01
4.12500000000E+09 +3.23576912664E-01 -5.03544138898E-01 -6.26175809722E-04 +9.72883559198E-05 -6.91753721482E-04 +1.03959801586E-04 +3.59903684835E-01 -5.08458850329E-01
4.13000000000E+09 +3.05342547918E-01 -5.04189475773E-01 -8.19636879410E-04 +6.06485042209E-04 -8.56293144154E-04 +6.56243058436E-04 +3.39440956476E-01 -5.09512989902E-01
4.13500000000E+09 +2.86503241871E-01 -5.05559688405E-01 -4.19412627485E-04 +9.97528420006E-04 -4.20610187169E-04 +1.03708447550E-03 +3.18799970651E-01 -5.09347536074E-01
4.14000000000E+09 +2.66982772317E-01 -5.08205253435E-01 -6.92315153686E-05 +9.21945315862E-04 -5.64287736402E-05 +8.50538774006E-04 +2.98287967315E-01 -5.09401109785E-01
4.14500000000E+09 +2.47446878430E-01 -5.12536042140E-01 +7.21289587355E-05 +8.57193435892E-04 +6.27035812456E-05 +8.54808921437E-04 +2.76924484799E-01 -5.08527785112E-01
4.15000000000E+09 +2.27011465509E-01 -5.17617613302E-01 +3.29524489634E-04 +6.30967147790E-04 +3.55155547147E-04 +6.33825345969E-04 +2.56520682904E-01 -5.07247728501E-01
4.15500000000E+09 +2.07269858894E-01 -5.21672930974E-01 +1.60847537571E-04 +1.25862414960E-04 +1.83391528556E-04 +1.25071429553E-04 +2.35498024885E-01 -5.04869381572E-01
4.16000000000E+09 +1.89086066086E-01 -5.24604866708E-01 -2.36002055721E-04 +1.74098630768E-04 -2.26742877550E-04 +1.96392520552E-04 +2.14689524958E-01 -5.00813997538E-01
4.16500000000E+09 +1.71678599056E-01 -5.25760428223E-01 -4.02908484019E-04 +5.30791273955E-04 -4.09162027624E-04 +5.97590091450E-04 +1.94532103077E-01 -4.96470359494E-01
4.17000000000E+09 +1.56086383700E-01 -5.24668871195E-01 -4.34328204011E-04 +6.16725432555E-04 -4.36258703587E-04 +6.17562900312E-04 +1.73171673174E-01 -4.91712794470E-01
4.17500000000E+09 +1.41204997962E-01 -5.22153042347E-01 -3.87408980374E-04 +1.15402634213E-03 -4.27492592504E-04 +1.21745315372E-03 +1.51599502584E-01 -4.85303682448E-01
4.18000000000E+09 +1.26078568389E-01 -5.18697379613E-01 +1.51713035504E-04 +1.53049126955E-03 +1.27687184875E-04 +1.50485826071E-03 +1.30688870584E-01 -4.77644984122E-01
4.18500000000E+09 +1.09361925466E-01 -5.14863571635E-01 +7.52843148482E-04 +1.41846331481E-03 +7.65918653679E-04 +1.41244638845E-03 +1.10618198622E-01 -4.70334833984E-01
4.19000000000E+09 +9.10444057546E-02 -5.09562553481E-01 +9.60900304685E-04 +8.02576029830E-04 +1.02766086649E-03 +8.39315973797E-04 +8.97793424448E-02 -4.61961870033E-01
4.19500000000E+09 +7.25455627704E-02 -5.03863136882E-01 +6.82294833597E-04 +4.70421101136E-04 +6.63328279718E-04 +4.63859503597E-04 +6.94831319432E-02 -4.52255652874E-01
4.20000000000E+09 +5.33484176296E-02 -4.99048841419E-01 +5.93670434762E-04 +7.88958954780E-04 +6.08725565035E-04 +7.97178058642E-04 +4.99273617813E-02 -4.41446779416E-01
4.20500000000E+09 +3.39336914877E-02 -4.94478331003E-01 +6.56443917294E-04 +5.22664752325E-04 +6.48373453949E-04 +5.06695030665E-04 +3.02689934261E-02 -4.30318893662E-01
4.21000000000E+09 +1.53187261663E-02 -4.89898082743E-01 +4.52787683143E-04 +9.93412304340E-04 +4.34139946018E-04 +1.01454956425E-03 +1.12143148708E-02 -4.18167898788E-01
4.21500000000E+09 -2.55840159186E-03 -4.84939342038E-01 +1.10163919626E-03 +1.42973341850E-03 +1.07631329887E-03 +1.40815694953E-03 -7.07199452881E-03 -4.05936984832E-01
4.22000000000E+09 -1.94224164452E-02 -4.78843648273E-01 +1.88398487792E-03 +1.11608213109E-03 +1.92005499169E-03 +1.13130498161E-03 -2.51092919275E-02 -3.93474880807E-01
4.22500000000E+09 -3.49795340065E-02 -4.71183155821E-01 +2.46293240729E-03 +2.56745536305E-04 +2.49244669031E-03 +2.65902530279E-04 -4.23338985703E-02 -3.79392270204E-01
4.23000000000E+09 -5.04535315790E-02 -4.61904625178E-01 +2.07964996502E-03 -7.65191434730E-04 +2.16945833387E-03 -7.48611462635E-04 -5.85097879966E-02 -3.65450642079E-01
4.23500000000E+09 -6.61175858358E-02 -4.50514956743E-01 +1.37993267597E-03 -7.80250412867E-04 +1.35984869793E-03 -7.99746545515E-04 -7.54891703055E-02 -3.50431922139E-01
4.24000000000E+09 -8.22714731422E-02 -4.37663468515E-01 +1.09777094446E-03 -5.93841053199E-04 +1.13391543789E-03 -5.66248792974E-04 -9.10255887864E-02 -3.33883428335E-01
4.24500000000E+09 -9.92105258444E-02 -4.24311445867E-01 +1.43145114140E-03 -2.41862017872E-04 +1.48599376874E-03 -2.60710120911E-04 -1.06643527951E-01 -3.17267629092E-01
4.25000000000E+09 -1.17869972137E-01 -4.11220154929E-01 +1.87570378649E-03 -6.42534129060E-04 +1.99243687762E-03 -6.79637517244E-04 -1.21304985610E-01 -2.99098639320E-01
4.25500000000E+09 -1.37255288936E-01 -3.98717164965E-01 +1.81159032390E-03 -1.44525049291E-03 +1.91314887747E-03 -1.53247795294E-03 -1.34376540445E-01 -2.81518577565E-01
4.26000000000E+09 -1.57930123717E-01 -3.87219356236E-01 +1.31532551225E-03 -1.90616938231E-03 +1.34673824834E-03 -1.99994723448E-03 -1.47469911184E-01 -2.63675025704E-01
4.26500000000E+09 -1.78321531232E-01 -3.75635389867E-01 +8.65991552249E-04 -1.87128330847E-03 +9.14598662181E-04 -1.98690341992E-03 -1.59308154962E-01 -2.44039951144E-01
4.27000000000E+09 -1.96283846927E-01 -3.64153028955E-01 +6.58399074812E-04 -1.97091873600E-03 +6.19622842799E-04 -1.98163418671E-03 -1.71044985758E-01 -2.25086284169E-01
4.27500000000E+09 -2.13017091844E-01 -3.53177897207E-01 +2.83645159789E-04 -2.31206357499E-03 +2.15727991885E-04 -2.31688318675E-03 -1.82536150669E-01 -2.04290000616E-01
4.28000000000E+09 -2.27647746690E-01 -3.40396799925E-01 -3.55523042830E-04 -1.82321451573E-03 -2.90287543469E-04 -1.84385289518E-03 -1.91983903975E-01 -1.83110905607E-01
4.28500000000E+09 -2.39681765772E-01 -3.26120096114E-01 +4.64136890290E-05 -1.53514996440E-03 -4.84298160498E-05 -1.61782030478E-03 -2.00224407337E-01 -1.62566101069E-01
4.29000000000E+09 -2.50021252146E-01 -3.10960449840E-01 -7.84152080096E-05 -2.03099208279E-03 -1.57892466771E-04 -2.01034482655E-03 -2.07771899313E-01 -1.42299627687E-01
4.29500000000E+09 -2.60684672048E-01 -2.94603340826E-01 -4.57989922585E-04 -2.17373643892E-03 -5.55334546932E-04 -2.19779824177E-03 -2.14197516441E-01 -1.22999889745E-01
4.30000000000E+09 -2.72422335051E-01 -2.76326714260E-01 -1.02893384179E-03 -2.09641950865E-03 -1.11828758670E-03 -2.10410458171E-03 -2.20300803460E-01 -1.02982246141E-01
4.30500000000E+09 -2.84900343624E-01 -2.56401942819E-01 -1.25190274776E-03 -1.67984041456E-03 -1.31977406681E-03 -1.65411183471E-03 -2.25059177549E-01 -8.21160849136E-02
4.31000000000E+09 -2.97829180386E-01 -2.36193433794E-01 -1.39337227500E-03 -1.81154809784E-03 -1.44236971172E-03 -1.73166846765E-03 -2.28308250929E-01 -6.21328823500E-02
4.31500000000E+09 -3.11492077803E-01 -2.16651879120E-01 -1.96116097738E-03 -1.47815936858E-03 -1.96202888709E-03 -1.39499747956E-03 -2.31789802769E-01 -4.16302615910E-02
4.32000000000E+09 -3.24413740037E-01 -1.98060737516E-01 -2.02343277889E-03 -7.97785378840E-04 -2.06043128119E-03 -7.24836467008E-04 -2.34311128673E-01 -2.07669031867E-02
4.32500000000E+09 -3.36346049132E-01 -1.81125624431E-01 -1.52884296137E-03 -7.34072029476E-04 -1.53926044149E-03 -6.81800100788E-04 -2.36394662825E-01 -5.71865534087E-04
4.33000000000E+09 -3.47057992625E-01 -1.65229631694E-01 -1.95629411312E-03 -9.82135613433E-04 -1.96097813409E-03 -9.05851439043E-04 -2.37976010931E-01 +2.04349672074E-02
4.33500000000E+09 -3.55124074925E-01 -1.49565090556E-01 -1.87883601621E-03 -7.41659121353E-04 -1.82467179228E-03 -6.52366786094E-04 -2.38042853737E-01 +4.15217383274E-02
4.34000000000E+09 -3.61128931380E-01 -1.33413020381E-01 -2.64183219799E-03 -8.83215086886E-04 -2.56788675619E-03 -7.99413654460E-04 -2.37277307825E-01 +6.17362743860E-02
4.34500000000E+09 -3.65196862172E-01 -1.16064494993E-01 -3.08428786320E-03 +1.48488392332E-04 -2.97993092796E-03 +2.10375701961E-04 -2.35913786432E-01 +8.19953358304E-02
4.35000000000E+09 -3.67507445667E-01 -9.72312546243E-02 -2.58688976342E-03 +1.06487456879E-03 -2.45324927465E-03 +1.03257623726E-03 -2.34890564312E-01 +1.00989991985E-01
4.35500000000E+09 -3.70182614729E-01 -7.60506011339E-02 -2.15774102089E-03 +8.69162268448E-04 -2.10385501910E-03 +8.56233053156E-04 -2.32563195214E-01 +1.21143607005E-01
4.36000000000E+09 -3.72258611445E-01 -5.32208389141E-02 -2.21241548675E-03 +1.22340714451E-03 -2.14122569563E-03 +1.13415473505E-03 -2.29275056949E-01 +1.39627414177E-01
4.36500000000E+09 -3.75331261304E-01 -3.01116562000E-02 -2.23530423069E-03 +1.13592669323E-03 -2.22288849908E-03 +1.04599892243E-03 -2.25315812333E-01 +1.58282370135E-01
4.37000000000E+09 -3.80253885333E-01 -6.69937463223E-03 -2.62031382650E-03 +1.87309023002E-03 -2.62020904776E-03 +1.87467739913E-03 -2.20393060213E-01 +1.76257040572E-01
4.37500000000E+09 -3.85099701721E-01 +1.56742166277E-02 -1.92822951009E-03 +2.56414575437E-03 -1.88476632760E-03 +2.55942439659E-03 -2.14817475049E-01 +1.93796769427E-01
4.38000000000E+09 -3.90731235639E-01 +3.62760741291E-02 -1.35408197582E-03 +2.70084170754E-03 -1.32389458735E-03 +2.73545080368E-03 -2.08699015469E-01 +2.11070709890E-01
4.38500000000E+09 -3.95042145506E-01 +5.47525303929E-02 -8.90433691185E-04 +3.20556810238E-03 -8.09372151579E-04 +3.18700116081E-03 -2.02494793600E-01 +2.28347319186E-01
4.39000000000E+09 -3.98316308341E-01 +7.14944496136E-02 -8.67029653017E-05 +2.94069403940E-03 -8.20273701862E-05 +2.93467453846E-03 -1.95593696944E-01 +2.44996678133E-01
4.39500000000E+09 -3.99097652994E-01 +8.70806851005E-02 +1.19565937637E-04 +2.74565203614E-03 +1.80194910591E-04 +2.74103455104E-03 -1.89127741198E-01 +2.60633383426E-01
4.40000000000E+09 -3.97226484146E-01 +1.02456250641E-01 +4.58078211204E-04 +2.80936211839E-03 +4.61359317063E-04 +2.76475093198E-03 -1.81845435649E-01 +2.76792276072E-01
4.40500000000E+09 -3.92834653091E-01 +1.18134262026E-01 +8.08563888172E-04 +2.63985690137E-03 +8.25989560416E-04 +2.65412471522E-03 -1.73593177240E-01 +2.91875931578E-01
4.41000000000E+09 -3.87415633102E-01 +1.35013075756E-01 +1.36693421496E-03 +2.60118203524E-03 +1.41436518218E-03 +2.59564842533E-03 -1.64747506025E-01 +3.06277224454E-01
4.41500000000E+09 -3.81577683604E-01 +1.54212755853E-01 +1.62615902595E-03 +2.30253455807E-03 +1.58255626113E-03 +2.25930106698E-03 -1.56113221384E-01 +3.20055783668E-01
4.42000000000E+09 -3.75640561287E-01 +1.75669829587E-01 +1.73986175786E-03 +1.95817748495E-03 +1.83336845470E-03 +1.92983788122E-03 -1.47535424597E-01 +3.34679163477E-01
4.42500000000E+09 -3.70609924736E-01 +1.97725521669E-01 +2.26519506103E-03 +1.83915118187E-03 +2.25188448616E-03 +1.82381666256E-03 -1.37597971766E-01 +3.48537660285E-01
4.43000000000E+09 -3.66875031389E-01 +2.20302166017E-01 +2.44419082139E-03 +1.20150544488E-03 +2.37547832687E-03 +1.13392443695E-03 -1.29159740132E-01 +3.61823425040E-01
4.43500000000E+09 -3.63413373469E-01 +2.41637141527E-01 +2.40186931900E-03 +9.94966680728E-04 +2.37490341917E-03 +9.60799171950E-04 -1.19005678547E-01 +3.75551312978E-01
4.44000000000E+09 -3.61025131659E-01 +2.60532805620E-01 +2.67752792317E-03 +4.15577285930E-04 +2.63212207374E-03 +3.76549186774E-04 -1.08730962333E-01 +3.87395825731E-01
4.44500000000E+09 -3.58721565570E-01 +2.77240352799E-01 +2.34199857215E-03 -1.48226902831E-04 +2.25421334627E-03 -1.89032374279E-04 -9.85864820869E-02 +3.99116915254E-01
4.45000000000E+09 -3.55610104577E-01 +2.91573415585E-01 +1.88595784901E-03 +1.23723763234E-04 +1.85175747522E-03 +1.02704744682E-04 -8.76120387403E-02 +4.10352971048E-01
4.45500000000E+09 -3.50940961799E-01 +3.05014136373E-01 +2.48310660877E-03 +2.77476614539E-04 +2.45329699525E-03 +1.83877029320E-04 -7.63975873386E-02 +4.20791829387E-01
4.46000000000E+09 -3.43749597327E-01 +3.17778516794E-01 +2.69406839089E-03 -8.97134877903E-04 +2.55977350753E-03 -9.61746524618E-04 -6.48334669818E-02 +4.30771562179E-01
4.46500000000E+09 -3.34343981492E-01 +3.31136870714E-01 +2.09033205577E-03 -9.88548706490E-04 +2.01183340901E-03 -1.03153377641E-03 -5.34216402671E-02 +4.39665826170E-01
4.47000000000E+09 -3.23032550492E-01 +3.45513539498E-01 +1.77713226461E-03 -1.30324516967E-03 +1.74130798816E-03 -1.38549340289E-03 -4.28085818111E-02 +4.49150403160E-01
4.47500000000E+09 -3.10609150430E-01 +3.62299600236E-01 +1.56088027773E-03 -1.11297924010E-03 +1.48395305175E-03 -1.10792174788E-03 -3.09332068931E-02 +4.58548813016E-01
4.48000000000E+09 -2.97810870047E-01 +3.79865209725E-01 +1.63749876807E-03 -1.08334145465E-03 +1.53172592470E-03 -1.08284265346E-03 -1.92521298966E-02 +4.66507514437E-01
4.48500000000E+09 -2.86014059347E-01 +3.97943701033E-01 +1.78169043375E-03 -1.50747373863E-03 +1.67433696602E-03 -1.48196931349E-03 -7.65550823516E-03 +4.74573613220E-01
4.49000000000E+09 -2.76239641129E-01 +4.15533625239E-01 +1.76801407123E-03 -1.90824888187E-03 +1.67733830494E-03 -1.84977127777E-03 +4.29516152070E-03 +4.81792216787E-01
4.49500000000E+09 -2.68198085529E-01 +4.32173886439E-01 +1.02168847667E-03 -2.43421517037E-03 +9.42108290055E-04 -2.34810717547E-03 +1.52024605797E-02 +4.88303247193E-01
4.50000000000E+09 -2.61567112252E-01 +4.46405414286E-01 +4.60432535475E-04 -2.17914535511E-03 +3.99988742374E-04 -2.06781887811E-03 +2.65403006890E-02 +4.95278119240E-01
4.50500000000E+09 -2.56626934451E-01 +4.58781261563E-01 +3.65122247011E-04 -2.02584360453E-03 +3.33362642508E-04 -1.97799927732E-03 +3.80366935626E-02 +5.01455021708E-01
4.51000000000E+09 -2.50649318252E-01 +4.69680771746E-01 +2.02258902064E-04 -2.10496268537E-03 +1.82200970766E-04 -2.00122295526E-03 +4.92695423721E-02 +5.07479862305E-01
4.51500000000E+09 -2.42271314204E-01 +4.78182880145E-01 -7.33310580728E-06 -2.12252747481E-03 +1.01747031789E-05 -2.03495532282E-03 +6.06443029792E-02 +5.13315955807E-01
4.52000000000E+09 -2.32465794140E-01 +4.84871402475E-01 -4.25084942763E-04 -2.20620738759E-03 -4.04187256436E-04 -2.08299763601E-03 +7.24537235461E-02 +5.18498379276E-01
4.52500000000E+09 -2.20505670010E-01 +4.91853319773E-01 -5.59167165348E-04 -1.90569645551E-03 -5.32715929088E-04 -1.81789147851E-03 +8.40242508292E-02 +5.22953954752E-01
4.53000000000E+09 -2.07112598256E-01 +4.99420546801E-01 -6.32333070990E-04 -1.87324349081E-03 -6.30353085045E-04 -1.86087673018E-03 +9.57737144025E-02 +5.26995038019E-01
4.53500000000E+09 -1.92331738608E-01 +5.09068336483E-01 -9.08567878756E-04 -1.91984332321E-03 -9.03521170619E-04 -1.84847484340E-03 +1.07052011382E-01 +5.30711054318E-01
4.54000000000E+09 -1.76538094267E-01 +5.19431918011E-01 -1.14013043221E-03 -2.01715855748E-03 -1.07975351610E-03 -1.89221325669E-03 +1.18791385763E-01 +5.34327370511E-01
4.54500000000E+09 -1.61574529544E-01 +5.30743464167E-01 -1.82367922539E-03 -1.72602038424E-03 -1.67963272922E-03 -1.62545794946E-03 +1.29668129140E-01 +5.37857853660E-01
4.55000000000E+09 -1.47937186789E-01 +5.41466156840E-01 -2.07818726191E-03 -1.23273249028E-03 -1.95543894317E-03 -1.16772888598E-03 +1.41367924775E-01 +5.41740802287E-01
4.55500000000E+09 -1.36571599422E-01 +5.51552036367E-01 -1.96512754468E-03 -6.46124346536E-04 -1.86710300239E-03 -6.71096920502E-04 +1.53065300341E-01 +5.44455306005E-01
4.56000000000E+09 -1.26920767927E-01 +5.60799032549E-01 -1.66524144175E-03 -5.95792109136E-04 -1.60242652029E-03 -6.09883505414E-04 +1.64023484148E-01 +5.46784566343E-01
4.56500000000E+09 -1.17870910833E-01 +5.68507090723E-01 -1.77761240477E-03 -6.87851935874E-04 -1.69509245585E-03 -6.44099697557E-04 +1.74359491007E-01 +5.49137139187E-01
4.57000000000E+09 -1.08522744735E-01 +5.74478186391E-01 -2.04442296790E-03 -4.58055458627E-04 -2.00718449383E-03 -3.96236684174E-04 +1.85066857644E-01 +5.51232194044E-01
