# Hz S RI R 50
! CMT, C1220, 16058040, 17.2.0/1
! Date: 15/08/2018 12:23:03
! Data: Format (Calibration Info)
! Freq                      S11: Re/Im (F2)                       S21: Re/Im (F2)                       S12: Re/Im (F2)                       S22: Re/Im (F2)            
4.00000000000E+09 +6.48752835014E-01 -3.53611934758E-01 +1.23286374389E-03 -1.99036810691E-04 +1.32088989744E-03 -1.87539491544E-04 +7.42223569469E-01 -3.24205241043E-01
4.00500000000E+09 +6.40632006494E-01 -3.59395813240E-01 +1.32450559095E-03 -3.81775613097E-04 +1.36969874387E-03 -3.44583904295E-04 +7.31584174794E-01 -3.34819509280E-01
4.01000000000E+09 +6.31849352311E-01 -3.65582509423E-01 +1.52028533649E-03 -7.83029552572E-04 +1.52808984553E-03 -7.19614356719E-04 +7.20482892086E-01 -3.45461244479E-01
4.01500000000E+09 +6.21196746341E-01 -3.72399158936E-01 +1.32496106196E-03 -1.22811741652E-03 +1.35958780547E-03 -1.15836232253E-03 +7.09450310933E-01 -3.55509224847E-01
4.02000000000E+09 +6.10162976550E-01 -3.79744974992E-01 +8.12742040018E-04 -1.41235341351E-03 +8.34180136443E-04 -1.42219140104E-03 +6.97878472671E-01 -3.65249095469E-01
4.02500000000E+09 +5.98850820965E-01 -3.88558554491E-01 +4.98790655844E-04 -9.87436069366E-04 +5.35983648909E-04 -9.21643120925E-04 +6.85843035569E-01 -3.75179817553E-01
4.03000000000E+09 +5.87478443344E-01 -3.98336524069E-01 +8.75482836679E-04 -9.45774122827E-04 +9.48796269324E-04 -8.85180291823E-04 +6.73233850431E-01 -3.84572026224E-01
4.03500000000E+09 +5.76564784953E-01 -4.08763104690E-01 +1.04660615882E-03 -1.33458698775E-03 +1.13496700557E-03 -1.31518767988E-03 +6.60281759836E-01 -3.94123120326E-01
4.04000000000E+09 +5.65561464434E-01 -4.19333788258E-01 +8.05737525450E-04 -1.87263170454E-03 +9.23956458095E-04 -1.87243751480E-03 +6.46910774155E-01 -4.04188725196E-01
4.04500000000E+09 +5.54335707292E-01 -4.29152189683E-01 +2.25990503133E-04 -2.06158186028E-03 +3.50470749511E-04 -2.13080498231E-03 +6.33048832289E-01 -4.13361291871E-01
4.05000000000E+09 +5.43012866941E-01 -4.36664948495E-01 -2.77477902958E-04 -1.92411626918E-03 -1.19758801546E-04 -1.98194748706E-03 +6.19371745982E-01 -4.21839217634E-01
4.05500000000E+09 +5.31931025685E-01 -4.41776598704E-01 -3.68765044034E-04 -1.75195675772E-03 -2.99201063102E-04 -1.84926502114E-03 +6.05493852762E-01 -4.30140302489E-01
4.06000000000E+09 +5.21209914653E-01 -4.46215627278E-01 -6.13031877590E-04 -1.57932683657E-03 -5.81779520353E-04 -1.70916056025E-03 +5.91197361494E-01 -4.38283491505E-01
4.06500000000E+09 +5.09340457623E-01 -4.50124108627E-01 -5.96600544932E-04 -1.56400949291E-03 -5.64983764467E-04 -1.60807550262E-03 +5.75471222580E-01 -4.46116758730E-01
4.07000000000E+09 +4.95421541851E-01 -4.54557595085E-01 -7.89206870991E-04 -1.65323220582E-03 -7.20767069254E-04 -1.68933889728E-03 +5.59651629317E-01 -4.53559023794E-01
4.07500000000E+09 +4.80040325219E-01 -4.58471763906E-01 -9.97859804001E-04 -1.47778944509E-03 -9.68560579465E-04 -1.60344438617E-03 +5.43230725515E-01 -4.61182913991E-01
4.08000000000E+09 +4.63774010732E-01 -4.63175267897E-01 -1.24269729793E-03 -1.45135272802E-03 -1.22075765005E-03 -1.60875359381E-03 +5.27150097174E-01 -4.67622371586E-01
4.08500000000E+09 +4.46836630600E-01 -4.67944562498E-01 -1.58977679358E-03 -1.27224890280E-03 -1.60457392796E-03 -1.37329994240E-03 +5.10842600461E-01 -4.75214068265E-01
4.09000000000E+09 +4.30880778518E-01 -4.74132126585E-01 -1.63673142198E-03 -1.02684508352E-03 -1.70467429510E-03 -1.13652720893E-03 +4.93031867067E-01 -4.80741322663E-01
4.09500000000E+09 +4.14321841295E-01 -4.80863689121E-01 -1.76678937381E-03 -7.78354291240E-04 -1.88477965458E-03 -7.91708553448E-04 +4.76280040551E-01 -4.85870657968E-01
4.10000000000E+09 +3.97711483790E-01 -4.87048208398E-01 -1.86288115177E-03 -4.95369718774E-04 -1.92714682884E-03 -5.08718020745E-04 +4.57720289970E-01 -4.91186495646E-01
4.10500000000E+09 +3.81807540605E-01 -4.91482298895E-01 -1.58361923993E-03 -7.89897474722E-06 -1.64680969956E-03 -7.22536681642E-05 +4.38491529867E-01 -4.94835267906E-01
4.11000000000E+09 +3.66019017431E-01 -4.94225211137E-01 -1.43799670914E-03 -1.55959515961E-04 -1.51641818988E-03 -1.70285205125E-04 +4.19645122246E-01 -4.98551696149E-01
4.11500000000E+09 +3.51262752282E-01 -4.95638850705E-01 -1.28519946748E-03 -3.71271791093E-04 -1.36824900713E-03 -3.53716680738E-04 +4.00396329285E-01 -5.01958231841E-01
4.12000000000E+09 +3.35677342872E-01 -4.96785876657E-01 -1.70697606509E-03 -6.33871279687E-04 -1.73693026960E-03 -6.34248488765E-04 +3.81142301923E-01 -5.05069875937E-01
4.12500000000E+09 +3.18619807575E-01 -4.97183156741E-01 -2.40268251270E-03 -3.05468832946E-04 -2.48586923025E-03 -2.22049503213E-04 +3.60856611809E-01 -5.07478617094E-01
4.13000000000E+09 +3.00658089123E-01 -4.97767946492E-01 -2.52570373263E-03 +6.12446284495E-04 -2.55982889967E-03 +6.30624418555E-04 +3.40500536171E-01 -5.08457104631E-01
4.13500000000E+09 +2.81970320479E-01 -4.98766882568E-01 -2.00446154942E-03 +1.18726478317E-03 -2.04398003157E-03 +1.23511564548E-03 +3.19980929618E-01 -5.08668230173E-01
4.14000000000E+09 +2.62717232003E-01 -5.01344236386E-01 -1.60161887884E-03 +1.15196802159E-03 -1.61120318265E-03 +1.15681326040E-03 +2.99507207949E-01 -5.08783302060E-01
4.14500000000E+09 +2.43459138494E-01 -5.05590976058E-01 -1.38219107630E-03 +1.20244424239E-03 -1.38743200135E-03 +1.23616227599E-03 +2.78655472586E-01 -5.07934995812E-01
4.15000000000E+09 +2.22905643152E-01 -5.10168190373E-01 -1.20907127302E-03 +1.02821206879E-03 -1.25111521537E-03 +1.02747810902E-03 +2.58135598394E-01 -5.07058488330E-01
4.15500000000E+09 +2.03512024843E-01 -5.13740616609E-01 -1.53777169830E-03 +7.46194196318E-04 -1.53178764137E-03 +6.99624313532E-04 +2.37070360047E-01 -5.04802417705E-01
4.16000000000E+09 +1.85732351929E-01 -5.16419511264E-01 -1.96265166681E-03 +1.20934931941E-03 -1.99280717072E-03 +1.18068262343E-03 +2.16781375703E-01 -5.01200017311E-01
4.16500000000E+09 +1.69121291090E-01 -5.17263511474E-01 -2.03027410334E-03 +1.93079542437E-03 -1.98488730155E-03 +1.91375933965E-03 +1.96007961622E-01 -4.97319437861E-01
4.17000000000E+09 +1.54291528765E-01 -5.16465559974E-01 -1.70794088819E-03 +2.32550373744E-03 -1.75644183373E-03 +2.27890463682E-03 +1.74684900338E-01 -4.92200690080E-01
4.17500000000E+09 +1.39469588640E-01 -5.14327441739E-01 -1.41728103054E-03 +2.93801500410E-03 -1.44791325898E-03 +2.90249167979E-03 +1.53303584874E-01 -4.86160462414E-01
4.18000000000E+09 +1.24311617991E-01 -5.10809100515E-01 -5.74745129354E-04 +3.42522062729E-03 -6.23989571455E-04 +3.45693786670E-03 +1.32306505266E-01 -4.78919868426E-01
4.18500000000E+09 +1.07967179689E-01 -5.06429759951E-01 +4.82406754866E-04 +3.28525759223E-03 +4.23376390441E-04 +3.33955935943E-03 +1.12405947729E-01 -4.71705428176E-01
4.19000000000E+09 +9.03907942527E-02 -5.01000591820E-01 +6.50998534875E-04 +2.44451361082E-03 +6.05902998903E-04 +2.44620804512E-03 +9.09673225017E-02 -4.64330229435E-01
4.19500000000E+09 +7.26668117389E-02 -4.95158702278E-01 +4.87616877857E-04 +2.26811953605E-03 +3.76756855647E-04 +2.31523243107E-03 +7.00873169294E-02 -4.54325526934E-01
4.20000000000E+09 +5.42325094323E-02 -4.90856452250E-01 +4.97451507270E-04 +2.58855585491E-03 +4.70049725093E-04 +2.65635528983E-03 +5.04786628916E-02 -4.43414814973E-01
4.20500000000E+09 +3.50705706721E-02 -4.86752309835E-01 +6.04511923783E-04 +2.74113138220E-03 +5.92231536954E-04 +2.80973116775E-03 +3.05753493645E-02 -4.32534382454E-01
4.21000000000E+09 +1.65797951818E-02 -4.82425186842E-01 +1.22809355878E-03 +3.36686804519E-03 +1.15873846924E-03 +3.45880988742E-03 +1.10037219988E-02 -4.20222764862E-01
4.21500000000E+09 -1.16731049657E-03 -4.77447937897E-01 +2.42925920795E-03 +3.28784257657E-03 +2.41076380495E-03 +3.40761128429E-03 -7.38914750177E-03 -4.08035902453E-01
4.22000000000E+09 -1.78383125601E-02 -4.71113010674E-01 +3.25024737797E-03 +2.41594852077E-03 +3.25889816466E-03 +2.51074653894E-03 -2.55840833165E-02 -3.95399988851E-01
4.22500000000E+09 -3.26418732680E-02 -4.63495665468E-01 +3.57943325829E-03 +1.37521792772E-03 +3.65323649212E-03 +1.50088152279E-03 -4.30419567571E-02 -3.81477261754E-01
4.23000000000E+09 -4.75102072484E-02 -4.54811113680E-01 +3.14139625920E-03 +4.76090619070E-04 +3.21013356387E-03 +5.37839613922E-04 -5.96816157539E-02 -3.67245834667E-01
4.23500000000E+09 -6.30138167083E-02 -4.43809875617E-01 +2.52020560176E-03 +6.43834685993E-04 +2.64177597053E-03 +7.10619272522E-04 -7.66070529392E-02 -3.51811818833E-01
4.24000000000E+09 -7.93332505736E-02 -4.31280232940E-01 +2.61417354803E-03 +8.86988130696E-04 +2.76633530132E-03 +9.32088060441E-04 -9.23429256315E-02 -3.35189539449E-01
4.24500000000E+09 -9.60152579390E-02 -4.17717115203E-01 +3.37752172858E-03 +9.09710646359E-04 +3.48762715826E-03 +8.71647886086E-04 -1.07855871460E-01 -3.18069406074E-01
4.25000000000E+09 -1.14170187657E-01 -4.04769220318E-01 +4.13782828674E-03 +3.14582484668E-05 +4.21512121842E-03 -6.12162426426E-05 -1.22039372489E-01 -3.00102129489E-01
4.25500000000E+09 -1.33588110562E-01 -3.92916949542E-01 +3.91633915622E-03 -1.21520170131E-03 +4.06814507017E-03 -1.29009173853E-03 -1.35215710161E-01 -2.82633945221E-01
4.26000000000E+09 -1.54200271155E-01 -3.81360509058E-01 +3.09354716998E-03 -1.71623368851E-03 +3.15826576866E-03 -1.87095653558E-03 -1.48541932942E-01 -2.65105568997E-01
4.26500000000E+09 -1.74410049637E-01 -3.69801227577E-01 +2.92765309765E-03 -1.71007011122E-03 +2.93289498060E-03 -1.76037689651E-03 -1.61070945131E-01 -2.45790862639E-01
4.27000000000E+09 -1.92321314861E-01 -3.58573753955E-01 +2.85133953457E-03 -2.10015286443E-03 +2.83810001379E-03 -2.21838291613E-03 -1.73366537527E-01 -2.25914685204E-01
4.27500000000E+09 -2.08902125454E-01 -3.47654855867E-01 +2.52065915571E-03 -2.55726396272E-03 +2.47243015623E-03 -2.73579676183E-03 -1.84269447130E-01 -2.04821691961E-01
4.28000000000E+09 -2.23164775750E-01 -3.35080079337E-01 +1.97782140772E-03 -2.78114841405E-03 +1.87697897583E-03 -2.91201981545E-03 -1.94046498447E-01 -1.83872480453E-01
4.28500000000E+09 -2.35107161115E-01 -3.21482760277E-01 +1.81252210841E-03 -2.67697432098E-03 +1.68368098925E-03 -2.76736333513E-03 -2.02538324008E-01 -1.62778380901E-01
4.29000000000E+09 -2.45737808978E-01 -3.06802429341E-01 +1.74459813342E-03 -3.13321781401E-03 +1.64353678109E-03 -3.18948545549E-03 -2.10196936345E-01 -1.42556007984E-01
4.29500000000E+09 -2.56823230216E-01 -2.90251961963E-01 +1.30705755951E-03 -3.87351230692E-03 +1.14003555064E-03 -3.92530685525E-03 -2.17146976494E-01 -1.22633368965E-01
4.30000000000E+09 -2.68220854787E-01 -2.71660271426E-01 +2.89116722950E-04 -3.82415596399E-03 +1.19572913345E-04 -3.79036605334E-03 -2.22965634171E-01 -1.01838066109E-01
4.30500000000E+09 -2.79980301317E-01 -2.52217243414E-01 +2.88880582133E-06 -3.66944037022E-03 -1.37840848386E-04 -3.59769396916E-03 -2.27394117576E-01 -8.07783491480E-02
4.31000000000E+09 -2.93075339314E-01 -2.32752053009E-01 -5.40886801403E-04 -3.77442444541E-03 -6.32262765305E-04 -3.72520895025E-03 -2.30633351466E-01 -6.02600242976E-02
4.31500000000E+09 -3.06936393798E-01 -2.13361978947E-01 -1.13239805146E-03 -3.44825845817E-03 -1.18783364953E-03 -3.34553966184E-03 -2.33432484399E-01 -3.89646220867E-02
4.32000000000E+09 -3.19790910253E-01 -1.95245179592E-01 -1.36656467245E-03 -3.23666013138E-03 -1.51669186221E-03 -3.14232775611E-03 -2.35170934686E-01 -1.82129543289E-02
4.32500000000E+09 -3.32357161246E-01 -1.78414809097E-01 -1.66497632088E-03 -3.09391437690E-03 -1.71508720171E-03 -3.00940408585E-03 -2.36862887511E-01 +2.04736803934E-03
4.33000000000E+09 -3.42607413482E-01 -1.62300712338E-01 -2.27399498737E-03 -2.99599982116E-03 -2.34104015049E-03 -2.84339650685E-03 -2.37904732030E-01 +2.24967299033E-02
4.33500000000E+09 -3.50478266671E-01 -1.47226293012E-01 -2.37471551948E-03 -2.71491594647E-03 -2.35989920131E-03 -2.60378341849E-03 -2.37932471434E-01 +4.33019739719E-02
4.34000000000E+09 -3.56901753087E-01 -1.31590563851E-01 -3.27311377118E-03 -2.70583035001E-03 -3.18085362635E-03 -2.61762117606E-03 -2.37529806069E-01 +6.36696957058E-02
4.34500000000E+09 -3.61092674110E-01 -1.14348444259E-01 -3.73134079059E-03 -1.67014975682E-03 -3.65830428131E-03 -1.62226082223E-03 -2.35793833293E-01 +8.39199005573E-02
4.35000000000E+09 -3.63859064987E-01 -9.56253808111E-02 -3.53608204227E-03 -1.05624245007E-03 -3.43715710782E-03 -9.95472860037E-04 -2.34177116496E-01 +1.03169225687E-01
4.35500000000E+09 -3.66331595574E-01 -7.43828252999E-02 -3.73974335466E-03 -8.82024795242E-04 -3.69767967154E-03 -8.96452614245E-04 -2.31733272300E-01 +1.22707412842E-01
4.36000000000E+09 -3.68600140386E-01 -5.17693328416E-02 -3.84335669856E-03 -7.40108434721E-05 -3.83212276350E-03 -6.75489673349E-05 -2.28514416294E-01 +1.41071540195E-01
4.36500000000E+09 -3.71761251375E-01 -2.86971541937E-02 -3.83971258343E-03 +7.03866357855E-05 -3.78678408610E-03 +5.19730704483E-06 -2.24899629384E-01 +1.59425950058E-01
4.37000000000E+09 -3.76505119813E-01 -5.37485351271E-03 -4.05155335058E-03 +1.02917787351E-03 -3.98599567546E-03 +1.07495546100E-03 -2.19970513124E-01 +1.77756358346E-01
4.37500000000E+09 -3.81482118914E-01 +1.63922806899E-02 -3.48043489821E-03 +1.61867531593E-03 -3.45901085417E-03 +1.55417353392E-03 -2.14635747565E-01 +1.95528858077E-01
4.38000000000E+09 -3.87666210033E-01 +3.70061709375E-02 -3.13455489437E-03 +1.93675910164E-03 -3.17559780818E-03 +1.98067291829E-03 -2.07853625791E-01 +2.13255621783E-01
4.38500000000E+09 -3.92054908333E-01 +5.56959357539E-02 -2.98469376839E-03 +2.56000290189E-03 -2.89432315502E-03 +2.52471443347E-03 -2.01387803890E-01 +2.30261356097E-01
4.39000000000E+09 -3.95069596083E-01 +7.25103514834E-02 -2.28898727472E-03 +2.96104774976E-03 -2.26825482766E-03 +2.91765623350E-03 -1.94209974863E-01 +2.47238483419E-01
4.39500000000E+09 -3.95912190246E-01 +8.77627037784E-02 -1.64260760416E-03 +3.09272104597E-03 -1.61188814456E-03 +3.05160104452E-03 -1.87103181816E-01 +2.62546399985E-01
4.40000000000E+09 -3.94225222598E-01 +1.03127339427E-01 -1.20095219987E-03 +2.96145439109E-03 -1.19459550412E-03 +2.93561819809E-03 -1.79658577846E-01 +2.78408431824E-01
4.40500000000E+09 -3.90186960678E-01 +1.18730068678E-01 -9.77888743761E-04 +3.09710980763E-03 -1.00561676373E-03 +3.09666365835E-03 -1.71002360896E-01 +2.93186367309E-01
4.41000000000E+09 -3.84791683030E-01 +1.35776865917E-01 -3.70978141989E-04 +3.17798543597E-03 -3.37354050347E-04 +3.23030983205E-03 -1.62405194430E-01 +3.07041796301E-01
4.41500000000E+09 -3.79146990671E-01 +1.55099177239E-01 -1.78138057668E-04 +3.05954678515E-03 -1.62868341907E-04 +3.11156213346E-03 -1.53597235631E-01 +3.21169203137E-01
4.42000000000E+09 -3.72968280195E-01 +1.76563166139E-01 +3.00548063033E-04 +3.28433258223E-03 +3.27775389455E-04 +3.31707181331E-03 -1.44404489356E-01 +3.35460731578E-01
4.42500000000E+09 -3.68070552250E-01 +1.98520712033E-01 +1.06866381164E-03 +3.07047841574E-03 +1.07000929841E-03 +3.03163307938E-03 -1.34367086404E-01 +3.48318821470E-01
4.43000000000E+09 -3.64227822668E-01 +2.20904867742E-01 +1.21789453831E-03 +2.48093629849E-03 +1.28534847393E-03 +2.44755538493E-03 -1.26116606953E-01 +3.61248894041E-01
4.43500000000E+09 -3.61313192293E-01 +2.42034201652E-01 +1.37808018427E-03 +2.45934367423E-03 +1.44641345380E-03 +2.45742163672E-03 -1.16375237453E-01 +3.74210820559E-01
4.44000000000E+09 -3.58770896934E-01 +2.61179315443E-01 +1.90677518693E-03 +2.12525622474E-03 +1.92363110211E-03 +2.11612156332E-03 -1.06992565594E-01 +3.86153183997E-01
4.44500000000E+09 -3.56593686874E-01 +2.77721890314E-01 +1.99503299369E-03 +1.62348303130E-03 +2.02664268945E-03 +1.58667108124E-03 -9.68901220336E-02 +3.98179296264E-01
4.45000000000E+09 -3.53588501380E-01 +2.92311743723E-01 +1.81999714154E-03 +1.53091923877E-03 +1.87391191307E-03 +1.45314479157E-03 -8.59665123415E-02 +4.09220410141E-01
4.45500000000E+09 -3.48812619686E-01 +3.05705403026E-01 +2.25123807495E-03 +1.47581928432E-03 +2.36005660133E-03 +1.36091392469E-03 -7.49953058667E-02 +4.19605921722E-01
4.46000000000E+09 -3.41626804790E-01 +3.18647309250E-01 +2.47997707710E-03 +5.60911327265E-04 +2.48326483592E-03 +4.65741623222E-04 -6.38800760495E-02 +4.29774020713E-01
4.46500000000E+09 -3.31982691469E-01 +3.32034458673E-01 +2.03444039281E-03 +4.40216587420E-04 +2.03783298539E-03 +3.55206899450E-04 -5.22221247397E-02 +4.38962937471E-01
4.47000000000E+09 -3.20557437800E-01 +3.46441892640E-01 +1.95325626860E-03 +3.18625803894E-04 +1.87378452558E-03 +1.94743967627E-04 -4.14191806797E-02 +4.48258703060E-01
4.47500000000E+09 -3.08269040881E-01 +3.62950742619E-01 +2.02657054081E-03 +3.95210492849E-04 +1.92574821471E-03 +2.74740721652E-04 -2.96983288239E-02 +4.57484852433E-01
4.48000000000E+09 -2.95598332857E-01 +3.80582762005E-01 +2.34180660919E-03 +2.45719670155E-04 +2.25978682319E-03 +8.41206561487E-05 -1.80127714413E-02 +4.65555181733E-01
4.48500000000E+09 -2.84014909715E-01 +3.98490680171E-01 +2.35123489064E-03 -4.80927073918E-04 +2.23072200788E-03 -5.61206859034E-04 -6.65158941263E-03 +4.73755640439E-01
4.49000000000E+09 -2.74616410885E-01 +4.16596003015E-01 +2.25084208191E-03 -8.13693570793E-04 +2.12227839098E-03 -8.68366919822E-04 +5.55410415979E-03 +4.81282887412E-01
4.49500000000E+09 -2.66288501877E-01 +4.33692088912E-01 +1.66867431225E-03 -1.26028066080E-03 +1.54410082253E-03 -1.22232528131E-03 +1.67745648545E-02 +4.87813730297E-01
4.50000000000E+09 -2.59323830208E-01 +4.47950714756E-01 +1.39455381616E-03 -9.96555724716E-04 +1.32321964481E-03 -1.01864595490E-03 +2.83127149510E-02 +4.94005597456E-01
4.50500000000E+09 -2.54075679503E-01 +4.60020150024E-01 +1.44484054329E-03 -1.01712509007E-03 +1.32586059331E-03 -9.74394053730E-04 +3.94930681232E-02 +4.99669666228E-01
4.51000000000E+09 -2.48260448747E-01 +4.70448277894E-01 +1.40303628217E-03 -1.32417462420E-03 +1.36979821371E-03 -1.27934297944E-03 +5.02321840842E-02 +5.05466407102E-01
4.51500000000E+09 -2.40237124536E-01 +4.78899948917E-01 +1.25517388745E-03 -1.42856098247E-03 +1.16780520893E-03 -1.36348289822E-03 +6.12057818853E-02 +5.11550936064E-01
4.52000000000E+09 -2.30402356573E-01 +4.85845771134E-01 +1.04984095121E-03 -1.65071461283E-03 +9.96176968565E-04 -1.55643985928E-03 +7.30534825800E-02 +5.16879564773E-01
4.52500000000E+09 -2.18621220406E-01 +4.92894504715E-01 +9.01724357303E-04 -1.66392778799E-03 +8.56606186789E-04 -1.56297847358E-03 +8.44218704002E-02 +5.21178428302E-01
4.53000000000E+09 -2.05045202424E-01 +5.00732836984E-01 +8.13059158463E-04 -1.97173835852E-03 +8.48825796957E-04 -1.90359324408E-03 +9.58065063901E-02 +5.25436043764E-01
4.53500000000E+09 -1.89770120734E-01 +5.10206949935E-01 +2.12963110227E-04 -2.19046651253E-03 +2.51921323364E-04 -2.07463993168E-03 +1.07101217068E-01 +5.29399924150E-01
4.54000000000E+09 -1.73923199414E-01 +5.20530859556E-01 -4.91499491926E-05 -2.16557618458E-03 -4.92042584456E-05 -2.05025895290E-03 +1.18616203784E-01 +5.32886122710E-01
4.54500000000E+09 -1.59052930096E-01 +5.31351927679E-01 -6.93270398831E-04 -1.91463252664E-03 -6.66720644664E-04 -1.80769817470E-03 +1.29104933925E-01 +5.36626999675E-01
4.55000000000E+09 -1.45835990873E-01 +5.42051546085E-01 -8.78664429793E-04 -1.53444465227E-03 -7.74054302480E-04 -1.46716393090E-03 +1.41229161755E-01 +5.40985694040E-01
4.55500000000E+09 -1.34708962284E-01 +5.52301128999E-01 -7.68139585275E-04 -1.23298666468E-03 -6.51800093074E-04 -1.20317315519E-03 +1.52764015510E-01 +5.43569324733E-01
4.56000000000E+09 -1.25026242896E-01 +5.61587568149E-01 -7.02564188139E-04 -1.40903173291E-03 -6.58120474572E-04 -1.34662541987E-03 +1.63682144242E-01 +5.46576524546E-01
4.56500000000E+09 -1.16067854848E-01 +5.69468241024E-01 -1.06611373797E-03 -1.42756941883E-03 -1.00393406864E-03 -1.42084736943E-03 +1.74616250225E-01 +5.48834030657E-01
4.57000000000E+09 -1.06571466462E-01 +5.75422590405E-01 -1.48422985398E-03 -1.13542502339E-03 -1.36689123926E-03 -1.11569693822E-03 +1.85415025344E-01 +5.50959614168E-01
