# Hz S RI R 50
! CMT, C1220, 16058040, 17.2.0/1
! Date: 15/08/2018 12:17:47
! Data: Format (Calibration Info)
! Freq                      S11: Re/Im (F2)                       S21: Re/Im (F2)                       S12: Re/Im (F2)                       S22: Re/Im (F2)            
4.00000000000E+09 +6.49340153376E-01 -3.48552055659E-01 +1.67710182996E-04 -2.72198033785E-04 +2.21202715507E-04 -3.08682520996E-04 +7.42239259683E-01 -3.23892614284E-01
4.00500000000E+09 +6.41253066792E-01 -3.54801486094E-01 +2.39884927176E-04 -1.79072353889E-04 +2.44381694787E-04 -2.22578337853E-04 +7.31602212526E-01 -3.34458384029E-01
4.01000000000E+09 +6.32254668705E-01 -3.61492174324E-01 +3.84620006728E-04 -4.74309672506E-04 +3.85193193316E-04 -4.79521898538E-04 +7.20767965677E-01 -3.45219842464E-01
4.01500000000E+09 +6.21734747512E-01 -3.68413984448E-01 +2.98834950062E-04 -6.40167356956E-04 +2.95045791435E-04 -7.24636083627E-04 +7.09815221016E-01 -3.55375759432E-01
4.02000000000E+09 +6.11362962350E-01 -3.76339041356E-01 -1.43250477845E-04 -8.08049175320E-04 -1.17678995124E-04 -8.92699695709E-04 +6.98328692023E-01 -3.65509199884E-01
4.02500000000E+09 +6.00292919249E-01 -3.85563663579E-01 -4.73547518753E-04 -2.69320702695E-04 -3.98425101530E-04 -3.19352870336E-04 +6.86196883790E-01 -3.75405174399E-01
4.03000000000E+09 +5.89532314726E-01 -3.95487481277E-01 +4.64938539987E-05 -1.41582591390E-04 +3.05713589414E-05 -1.18878312871E-04 +6.73229191316E-01 -3.84737299712E-01
4.03500000000E+09 +5.78669594283E-01 -4.06191632680E-01 +2.02851225238E-04 -5.06408149580E-04 +2.62454886787E-04 -5.06508900785E-04 +6.60529198289E-01 -3.94201124777E-01
4.04000000000E+09 +5.67773348422E-01 -4.16758344825E-01 +4.85490067866E-05 -7.36131489877E-04 +8.59067664096E-05 -7.64714690310E-04 +6.47263767962E-01 -4.04369721609E-01
4.04500000000E+09 +5.56573231395E-01 -4.25964115954E-01 -2.74040428753E-04 -9.29056583291E-04 -2.48425764012E-04 -9.45083334439E-04 +6.33313879347E-01 -4.13785429944E-01
4.05000000000E+09 +5.45240625662E-01 -4.33435576702E-01 -7.24221728303E-04 -7.25007560783E-04 -6.94575404437E-04 -6.91660450670E-04 +6.19584168599E-01 -4.22817966392E-01
4.05500000000E+09 +5.33859279616E-01 -4.38663658859E-01 -6.76935991356E-04 -3.52435277026E-04 -7.20727536892E-04 -3.80489474954E-04 +6.05186518663E-01 -4.31255456537E-01
4.06000000000E+09 +5.22522557370E-01 -4.42977751268E-01 -6.04975410090E-04 -2.15768936031E-04 -5.89945928881E-04 -2.69336003510E-04 +5.90886169535E-01 -4.39330716883E-01
4.06500000000E+09 +5.10100697076E-01 -4.46722548501E-01 -5.17746862062E-04 -2.37084280936E-04 -5.12440091318E-04 -2.88188578154E-04 +5.74983978390E-01 -4.47277297833E-01
4.07000000000E+09 +4.96190895065E-01 -4.50908613083E-01 -6.14305542267E-04 -3.15612816291E-04 -5.53581959450E-04 -3.10928989684E-04 +5.58766698255E-01 -4.54337916259E-01
4.07500000000E+09 +4.81118081820E-01 -4.55256038804E-01 -6.56751916873E-04 -1.13970085283E-04 -6.44421833784E-04 -1.57545997064E-04 +5.42590490670E-01 -4.61782699192E-01
4.08000000000E+09 +4.64822927009E-01 -4.60695835965E-01 -6.14125197793E-04 -1.67686574694E-04 -6.34149925142E-04 -1.64303117247E-04 +5.26125254726E-01 -4.68642202575E-01
4.08500000000E+09 +4.47761409058E-01 -4.66255524376E-01 -7.63094617098E-04 -1.04639596949E-04 -7.98042570415E-04 -1.69749345801E-04 +5.09628027123E-01 -4.76106960922E-01
4.09000000000E+09 +4.30904571042E-01 -4.72549355932E-01 -7.89770684008E-04 -3.40884052713E-05 -8.16749622927E-04 -6.47287305499E-05 +4.91711451705E-01 -4.81789358281E-01
4.09500000000E+09 +4.14309473509E-01 -4.79103068799E-01 -9.20604623201E-04 +2.33485119774E-04 -9.81163859024E-04 +2.45709582482E-04 +4.74631016647E-01 -4.86784065613E-01
4.10000000000E+09 +3.97701715389E-01 -4.85141401510E-01 -7.48979606327E-04 +4.97833257983E-04 -8.03719738259E-04 +5.04010870232E-04 +4.56109178779E-01 -4.91854406680E-01
4.10500000000E+09 +3.81933822629E-01 -4.89608786599E-01 -4.71699927646E-04 +7.21703151599E-04 -4.63747880704E-04 +7.55040028007E-04 +4.36533148529E-01 -4.95790265616E-01
4.11000000000E+09 +3.66360249262E-01 -4.92818739182E-01 -2.32125848946E-04 +5.44630423005E-04 -1.82077482342E-04 +5.51103381152E-04 +4.17160542506E-01 -4.98700949900E-01
4.11500000000E+09 +3.50943046313E-01 -4.94593645418E-01 -2.68081908584E-06 +2.37741247694E-04 +2.99230417570E-06 +3.01249460648E-04 +3.98222399203E-01 -5.02032717419E-01
4.12000000000E+09 +3.34946299429E-01 -4.95533824833E-01 -3.05890002218E-04 -1.21010252105E-04 -3.27604754780E-04 -1.36029097495E-04 +3.78626231651E-01 -5.05295440095E-01
4.12500000000E+09 +3.17763576784E-01 -4.96020736950E-01 -8.05234788089E-04 +4.77412933939E-05 -8.11085953560E-04 +1.71888829059E-05 +3.58080751340E-01 -5.07368011075E-01
4.13000000000E+09 +2.99853147010E-01 -4.96551600930E-01 -9.91866727058E-04 +6.05790366784E-04 -9.87689468730E-04 +6.38756929398E-04 +3.37722428000E-01 -5.08212317786E-01
4.13500000000E+09 +2.81251026093E-01 -4.97735525917E-01 -4.79602586818E-04 +1.08176271958E-03 -5.12595157869E-04 +1.12845228637E-03 +3.17178062198E-01 -5.08205956630E-01
4.14000000000E+09 +2.61870415948E-01 -5.00164903273E-01 -3.86003218414E-05 +9.08034975653E-04 -7.60585966720E-05 +9.60543036791E-04 +2.96463766180E-01 -5.08188407414E-01
4.14500000000E+09 +2.42601180187E-01 -5.04272352162E-01 +7.90921302578E-05 +8.52228550613E-04 +4.61651167440E-05 +8.89480560164E-04 +2.75049695478E-01 -5.07064622881E-01
4.15000000000E+09 +2.22182351425E-01 -5.08984688162E-01 +2.61919544298E-04 +6.21651804248E-04 +2.26832488061E-04 +6.55373667774E-04 +2.54534154815E-01 -5.05285028488E-01
4.15500000000E+09 +2.02226765596E-01 -5.12699653113E-01 +8.44192593032E-05 +1.85396578553E-04 +1.67656365725E-04 +1.26904781578E-04 +2.33747830754E-01 -5.02721282003E-01
4.16000000000E+09 +1.83936224420E-01 -5.15143701346E-01 -3.21735496571E-04 +2.48578608107E-04 -3.30870339121E-04 +3.41928728310E-04 +2.12911887982E-01 -4.98639018138E-01
4.16500000000E+09 +1.66514944291E-01 -5.15926643732E-01 -3.94823742171E-04 +6.30518723302E-04 -3.91514026989E-04 +6.83840574652E-04 +1.92588958726E-01 -4.93850785941E-01
4.17000000000E+09 +1.50899963416E-01 -5.14501972946E-01 -3.95358062512E-04 +7.02525019743E-04 -4.48517950878E-04 +6.89199009686E-04 +1.71543856903E-01 -4.88743682157E-01
4.17500000000E+09 +1.36058137501E-01 -5.11849399411E-01 -3.42346909073E-04 +1.26146054272E-03 -3.67695063270E-04 +1.30525909634E-03 +1.50342772042E-01 -4.82095015764E-01
4.18000000000E+09 +1.21055743401E-01 -5.08535052234E-01 +2.38561061740E-04 +1.54755133980E-03 +2.25209093928E-04 +1.61609863585E-03 +1.29719451213E-01 -4.74391775898E-01
4.18500000000E+09 +1.04633728152E-01 -5.04646904136E-01 +9.25004217662E-04 +1.45091412552E-03 +9.11692013827E-04 +1.51162806874E-03 +1.09994484985E-01 -4.66893491844E-01
4.19000000000E+09 +8.68538904326E-02 -4.99324072533E-01 +1.10552714259E-03 +6.20927521617E-04 +1.12351062800E-03 +7.19881900190E-04 +8.93999625082E-02 -4.58422707336E-01
4.19500000000E+09 +6.89781586462E-02 -4.93662034812E-01 +6.98468727939E-04 +3.29488951786E-04 +6.27833556929E-04 +3.33135397637E-04 +6.93760158462E-02 -4.48652949570E-01
4.20000000000E+09 +5.03341333791E-02 -4.88689756518E-01 +4.91793729812E-04 +6.87885397602E-04 +5.60677713654E-04 +7.22834548828E-04 +5.01744008841E-02 -4.38075419623E-01
4.20500000000E+09 +3.13486994144E-02 -4.83878982433E-01 +5.74270024144E-04 +4.90926704558E-04 +5.93387430112E-04 +6.23716134937E-04 +3.04040709853E-02 -4.27136132465E-01
4.21000000000E+09 +1.31296273291E-02 -4.78628145396E-01 +5.30226266283E-04 +1.00114751129E-03 +5.10956538501E-04 +1.04092177835E-03 +1.12698003944E-02 -4.14942437171E-01
4.21500000000E+09 -4.39334948497E-03 -4.73084546315E-01 +1.17984810134E-03 +1.28620424512E-03 +1.19147143028E-03 +1.33202791573E-03 -6.88136241616E-03 -4.02795233502E-01
4.22000000000E+09 -2.09967264062E-02 -4.66400435317E-01 +1.83231041384E-03 +9.62163064448E-04 +1.85834910948E-03 +9.51068085761E-04 -2.48534487375E-02 -3.90483416631E-01
4.22500000000E+09 -3.66630922550E-02 -4.58270997266E-01 +2.27425973326E-03 +1.94733742645E-04 +2.34440244937E-03 +1.84466729806E-04 -4.21546756493E-02 -3.76325549716E-01
4.23000000000E+09 -5.21974265214E-02 -4.48625570096E-01 +1.89473038592E-03 -7.88326820078E-04 +1.97759743082E-03 -7.86679043269E-04 -5.82421085660E-02 -3.62100750450E-01
4.23500000000E+09 -6.79414422431E-02 -4.37265471784E-01 +1.18015678541E-03 -6.99618652524E-04 +1.19202882186E-03 -7.19836522784E-04 -7.51738250293E-02 -3.46826733407E-01
4.24000000000E+09 -8.42064450681E-02 -4.24685913043E-01 +9.84125751065E-04 -4.06776788570E-04 +9.52913172178E-04 -4.46329374108E-04 -9.06586199900E-02 -3.29738210811E-01
4.24500000000E+09 -1.01144472919E-01 -4.11742496192E-01 +1.41428141013E-03 -1.31392642386E-04 +1.42505145743E-03 -1.42761772460E-04 -1.05907916360E-01 -3.12854290631E-01
4.25000000000E+09 -1.19773972889E-01 -3.99104206741E-01 +1.80997792504E-03 -5.35766795295E-04 +1.87280400419E-03 -5.93451288058E-04 -1.20119232563E-01 -2.94283653272E-01
4.25500000000E+09 -1.38729051843E-01 -3.86856577801E-01 +1.79140249743E-03 -1.26828253019E-03 +1.77387054643E-03 -1.29488960382E-03 -1.32552370664E-01 -2.76655631476E-01
4.26000000000E+09 -1.58725232657E-01 -3.75773086052E-01 +1.32177267043E-03 -1.63300484543E-03 +1.30351778008E-03 -1.69552168334E-03 -1.44986457653E-01 -2.58943392448E-01
4.26500000000E+09 -1.78672287104E-01 -3.64232046425E-01 +1.15816159022E-03 -1.70705709164E-03 +1.12501544361E-03 -1.68402132253E-03 -1.56269839659E-01 -2.39623352354E-01
4.27000000000E+09 -1.96135547271E-01 -3.52467576135E-01 +8.64070193143E-04 -1.92877586673E-03 +8.38733007145E-04 -1.97538804291E-03 -1.67515588239E-01 -2.21190991117E-01
4.27500000000E+09 -2.12414402410E-01 -3.41035327504E-01 +3.59662040876E-04 -2.17996245328E-03 +3.62477525924E-04 -2.23573390054E-03 -1.79053320045E-01 -2.00622406680E-01
4.28000000000E+09 -2.26525207321E-01 -3.27697101660E-01 -5.85880002436E-05 -1.76211183020E-03 -8.57089820551E-05 -1.78682609112E-03 -1.88183521971E-01 -1.79489804657E-01
4.28500000000E+09 -2.38312308519E-01 -3.12999265088E-01 +2.84108168952E-04 -1.63359804791E-03 +2.82294661830E-04 -1.60412361477E-03 -1.96303206152E-01 -1.59446660618E-01
4.29000000000E+09 -2.48810291412E-01 -2.97464782514E-01 +1.88681198560E-04 -2.10394901325E-03 +1.32763579965E-04 -2.08039490126E-03 -2.03951087664E-01 -1.39594686015E-01
4.29500000000E+09 -2.59839376197E-01 -2.80560937607E-01 -2.41772426064E-04 -2.37847916159E-03 -2.45301327557E-04 -2.42066189503E-03 -2.10659686027E-01 -1.20475998910E-01
4.30000000000E+09 -2.71812995251E-01 -2.62143177703E-01 -9.96144871387E-04 -2.35548455040E-03 -1.04692420334E-03 -2.34660066346E-03 -2.16758444295E-01 -1.00423176658E-01
4.30500000000E+09 -2.84483160510E-01 -2.42342360823E-01 -1.16185123839E-03 -1.96660340169E-03 -1.20018641926E-03 -1.95858676866E-03 -2.21472180617E-01 -7.97072879050E-02
4.31000000000E+09 -2.97646396588E-01 -2.22425715893E-01 -1.50066057380E-03 -2.19551481460E-03 -1.52051486494E-03 -2.15846984435E-03 -2.24793356924E-01 -5.96664561480E-02
4.31500000000E+09 -3.11364736300E-01 -2.03246431187E-01 -2.23466807237E-03 -1.69877066620E-03 -2.23874374099E-03 -1.61427130838E-03 -2.28190270445E-01 -3.87516765110E-02
4.32000000000E+09 -3.24107656587E-01 -1.84967162365E-01 -2.26993684486E-03 -8.35430311507E-04 -2.25979555212E-03 -7.97741092655E-04 -2.30265600661E-01 -1.75501555948E-02
4.32500000000E+09 -3.35323349274E-01 -1.68346941877E-01 -1.74404264046E-03 -7.01284614502E-04 -1.77217429002E-03 -6.91664067783E-04 -2.31868274559E-01 +2.61066982507E-03
4.33000000000E+09 -3.45305729912E-01 -1.53065426687E-01 -2.10396704874E-03 -9.56544638998E-04 -2.08405528207E-03 -9.17133567776E-04 -2.33186820636E-01 +2.32866051195E-02
4.33500000000E+09 -3.52947006760E-01 -1.37624920815E-01 -2.13313875485E-03 -6.41900651307E-04 -2.18144973174E-03 -5.99099695226E-04 -2.33118390050E-01 +4.44059264409E-02
4.34000000000E+09 -3.58230829445E-01 -1.21647980303E-01 -2.77856736283E-03 -6.41930325098E-04 -2.78334626211E-03 -6.09416925677E-04 -2.31833282788E-01 +6.44673319492E-02
4.34500000000E+09 -3.61707107258E-01 -1.04248351852E-01 -3.11259031897E-03 +3.85877778139E-04 -3.07268650077E-03 +4.38440177642E-04 -2.29821847328E-01 +8.41597334079E-02
4.35000000000E+09 -3.63403650929E-01 -8.53532895811E-02 -2.52159544111E-03 +1.25730667296E-03 -2.51088904763E-03 +1.21272504170E-03 -2.28574824365E-01 +1.02509827793E-01
4.35500000000E+09 -3.65582406607E-01 -6.42747610967E-02 -1.99233933457E-03 +1.12517354350E-03 -2.02868998526E-03 +1.14211098977E-03 -2.26294767379E-01 +1.22269888238E-01
4.36000000000E+09 -3.67411876345E-01 -4.15508953544E-02 -1.90232165895E-03 +1.33175272762E-03 -1.88307777405E-03 +1.31113356502E-03 -2.22972020140E-01 +1.40594555907E-01
4.36500000000E+09 -3.70197475894E-01 -1.85357052750E-02 -1.90750855004E-03 +1.08580696585E-03 -1.90721705326E-03 +1.12128271708E-03 -2.18866991778E-01 +1.58620528953E-01
4.37000000000E+09 -3.74722197718E-01 +4.55254731300E-03 -2.30211648583E-03 +1.81312759940E-03 -2.26545244423E-03 +1.82996538355E-03 -2.14247153311E-01 +1.76073515459E-01
4.37500000000E+09 -3.79346150957E-01 +2.66740734470E-02 -1.68313450305E-03 +2.29796943904E-03 -1.58077514737E-03 +2.27918821431E-03 -2.09113904173E-01 +1.93278627225E-01
4.38000000000E+09 -3.84664883682E-01 +4.70319370961E-02 -1.32653665451E-03 +2.41787312331E-03 -1.28658197887E-03 +2.40436727909E-03 -2.03162361006E-01 +2.10439026115E-01
4.38500000000E+09 -3.88651836808E-01 +6.52705300937E-02 -9.36858128609E-04 +2.93253782690E-03 -8.19716714252E-04 +2.89639298837E-03 -1.97104313135E-01 +2.27477066814E-01
4.39000000000E+09 -3.91324378367E-01 +8.18645808400E-02 -1.05160222979E-04 +2.75137249004E-03 -5.49300055657E-05 +2.71144485106E-03 -1.90511946833E-01 +2.44193131780E-01
4.39500000000E+09 -3.91896739962E-01 +9.71478408621E-02 -9.83965468982E-06 +2.54915098611E-03 +7.16613359484E-05 +2.53824078087E-03 -1.84096853872E-01 +2.60006741560E-01
4.40000000000E+09 -3.89817378454E-01 +1.12369437610E-01 +3.34611436725E-04 +2.58178972250E-03 +3.68235426509E-04 +2.52475454986E-03 -1.76711530562E-01 +2.76543521147E-01
4.40500000000E+09 -3.85274692963E-01 +1.27926190128E-01 +5.51744340421E-04 +2.49915100766E-03 +5.62616970740E-04 +2.47565974442E-03 -1.68080593640E-01 +2.91581974170E-01
4.41000000000E+09 -3.79789188520E-01 +1.44783874136E-01 +1.03987150371E-03 +2.50941581239E-03 +1.11868286141E-03 +2.46527835284E-03 -1.59210489901E-01 +3.05865908377E-01
4.41500000000E+09 -3.73736079545E-01 +1.63601393257E-01 +1.27475038287E-03 +2.32276732421E-03 +1.29740052966E-03 +2.25100417355E-03 -1.50427640494E-01 +3.19490175930E-01
4.42000000000E+09 -3.67692587312E-01 +1.84644964085E-01 +1.47538225326E-03 +2.11780157838E-03 +1.53772155523E-03 +2.04279492578E-03 -1.41588855166E-01 +3.34025346549E-01
4.42500000000E+09 -3.62559545269E-01 +2.06285479930E-01 +2.00498523900E-03 +2.08961928348E-03 +1.94733759267E-03 +1.99892739633E-03 -1.31282441810E-01 +3.47340454696E-01
4.43000000000E+09 -3.58654809259E-01 +2.28293961539E-01 +2.34126894360E-03 +1.54774718101E-03 +2.26809918689E-03 +1.50356853250E-03 -1.22704992356E-01 +3.59996017147E-01
4.43500000000E+09 -3.54832366140E-01 +2.49265546685E-01 +2.50736065457E-03 +1.30012543935E-03 +2.39160651849E-03 +1.22082938068E-03 -1.12772068669E-01 +3.73343215166E-01
4.44000000000E+09 -3.52043959500E-01 +2.67753784807E-01 +2.74537708633E-03 +7.01819688427E-04 +2.66522517516E-03 +6.48706120613E-04 -1.02610542034E-01 +3.84926193477E-01
4.44500000000E+09 -3.49505247649E-01 +2.84263382601E-01 +2.53015565113E-03 +6.86871072776E-06 +2.50185879345E-03 +8.95238593696E-07 -9.26867031732E-02 +3.96300530436E-01
4.45000000000E+09 -3.46202141119E-01 +2.98471302349E-01 +2.00324016097E-03 +1.79635357333E-04 +1.99124213848E-03 +1.00998168475E-04 -8.20325902888E-02 +4.07208976745E-01
4.45500000000E+09 -3.41436015398E-01 +3.12012773337E-01 +2.58945609205E-03 +3.13745345823E-04 +2.54915583357E-03 +2.76361028994E-04 -7.11885704823E-02 +4.17541055260E-01
4.46000000000E+09 -3.34184361902E-01 +3.24899038327E-01 +2.79906956144E-03 -8.01011103013E-04 +2.73402385704E-03 -8.64291382697E-04 -5.99624204848E-02 +4.27257692459E-01
4.46500000000E+09 -3.24823811133E-01 +3.38237787863E-01 +2.22405964344E-03 -1.00356593153E-03 +2.20259859923E-03 -1.02382093200E-03 -4.87774012599E-02 +4.36160597222E-01
4.47000000000E+09 -3.13823569225E-01 +3.52482442823E-01 +1.94255086140E-03 -1.35415173973E-03 +1.83714760233E-03 -1.32704366592E-03 -3.83301540991E-02 +4.45597999892E-01
4.47500000000E+09 -3.01820267292E-01 +3.68859634833E-01 +1.68726828963E-03 -1.19857254259E-03 +1.64920375877E-03 -1.17797863745E-03 -2.65590553172E-02 +4.55268401818E-01
4.48000000000E+09 -2.89330037417E-01 +3.85686851327E-01 +1.64723891662E-03 -1.27860739643E-03 +1.57731203736E-03 -1.26770802782E-03 -1.47487409730E-02 +4.63206164182E-01
4.48500000000E+09 -2.77880570006E-01 +4.02857256378E-01 +1.68456156132E-03 -1.63017515662E-03 +1.59850171090E-03 -1.60698095633E-03 -3.26814108147E-03 +4.71299454289E-01
4.49000000000E+09 -2.68327667993E-01 +4.19450624771E-01 +1.65304048620E-03 -1.90133652746E-03 +1.54148338218E-03 -1.84895285171E-03 +8.57735448497E-03 +4.78646896465E-01
4.49500000000E+09 -2.60306348747E-01 +4.35358260337E-01 +9.21034494966E-04 -2.37912079619E-03 +9.01290159709E-04 -2.33025726183E-03 +1.95419078896E-02 +4.85064632476E-01
4.50000000000E+09 -2.53447367005E-01 +4.48825070609E-01 +5.04661967045E-04 -2.15986983271E-03 +4.63157569788E-04 -2.08617345506E-03 +3.08302662205E-02 +4.91821182953E-01
4.50500000000E+09 -2.47974709527E-01 +4.60601600821E-01 +4.42110346645E-04 -2.03461533601E-03 +3.82356908859E-04 -1.99277612933E-03 +4.24139580134E-02 +4.97935988404E-01
4.51000000000E+09 -2.41434769303E-01 +4.71059834790E-01 +1.76756852548E-04 -2.16240962783E-03 +1.84448047594E-04 -2.13302543595E-03 +5.38237967863E-02 +5.03738338843E-01
4.51500000000E+09 -2.32433420682E-01 +4.79450677532E-01 -3.92933229818E-05 -2.13614216309E-03 -4.55639569465E-05 -2.06678648936E-03 +6.51985166884E-02 +5.09235175319E-01
4.52000000000E+09 -2.21966443156E-01 +4.86213880806E-01 -4.56075288720E-04 -2.19689958657E-03 -4.03511264224E-04 -2.10884305835E-03 +7.68851134973E-02 +5.14213982156E-01
4.52500000000E+09 -2.09758695456E-01 +4.93341022754E-01 -6.12800845546E-04 -1.93567707788E-03 -6.47728629996E-04 -1.86697196066E-03 +8.81667284184E-02 +5.18484521364E-01
4.53000000000E+09 -1.96264876570E-01 +5.00736784402E-01 -7.16050807638E-04 -1.85948141608E-03 -7.39741098394E-04 -1.76497985439E-03 +9.97431374473E-02 +5.22274714426E-01
4.53500000000E+09 -1.81528130721E-01 +5.10332568017E-01 -9.21331504157E-04 -1.78492216154E-03 -9.33685804895E-04 -1.69132488808E-03 +1.10629314501E-01 +5.25912454329E-01
4.54000000000E+09 -1.66204178637E-01 +5.20599938308E-01 -1.11331103951E-03 -1.90273053834E-03 -1.01586272851E-03 -1.79186346464E-03 +1.22153292489E-01 +5.29401043918E-01
4.54500000000E+09 -1.51510705193E-01 +5.31350142130E-01 -1.69339424628E-03 -1.66083018669E-03 -1.63194236509E-03 -1.58466331958E-03 +1.32827493196E-01 +5.32931271342E-01
4.55000000000E+09 -1.38287476404E-01 +5.41293352777E-01 -1.95664593403E-03 -1.15960075760E-03 -1.92299403589E-03 -1.15853732179E-03 +1.44425075950E-01 +5.36633001840E-01
4.55500000000E+09 -1.27407432312E-01 +5.50684001138E-01 -1.89556212654E-03 -6.25040891741E-04 -1.80056293488E-03 -6.15074046471E-04 +1.55760412382E-01 +5.39471153618E-01
4.56000000000E+09 -1.17889871442E-01 +5.59124798831E-01 -1.57568111012E-03 -6.32134033771E-04 -1.57662574849E-03 -5.64412433720E-04 +1.66569071705E-01 +5.41939608632E-01
4.56500000000E+09 -1.08641015509E-01 +5.66095459514E-01 -1.60354412512E-03 -6.69892954393E-04 -1.54612382539E-03 -6.57419768666E-04 +1.76894388239E-01 +5.44567948405E-01
4.57000000000E+09 -9.89927639778E-02 +5.71472930352E-01 -1.91505317901E-03 -5.32275971783E-04 -1.87972110496E-03 -4.63244342037E-04 +1.87640889626E-01 +5.46748021299E-01
