# Hz S RI R 50
! CMT, C1220, 16058040, 17.2.0/1
! Date: 15/08/2018 12:18:55
! Data: Format (Calibration Info)
! Freq                      S11: Re/Im (F2)                       S21: Re/Im (F2)                       S12: Re/Im (F2)                       S22: Re/Im (F2)            
4.00000000000E+09 +6.49900709752E-01 -3.54030947904E-01 +5.62768941196E-04 +3.40652733744E-05 +6.09418567377E-04 +9.04568623911E-05 +7.40971046063E-01 -3.25674322697E-01
4.00500000000E+09 +6.41786371181E-01 -3.60231504380E-01 +6.50135364727E-04 +6.95313522735E-05 +6.53692241197E-04 +8.36201006432E-05 +7.30467517181E-01 -3.36268543189E-01
4.01000000000E+09 +6.33032014277E-01 -3.66932379650E-01 +7.56193535741E-04 -1.63855063101E-04 +8.65791725174E-04 -1.77073909206E-04 +7.19383536892E-01 -3.47032168873E-01
4.01500000000E+09 +6.22456907702E-01 -3.74593442626E-01 +8.29612644397E-04 -3.99777415480E-04 +8.51040937544E-04 -3.73022395088E-04 +7.08301490154E-01 -3.57161911827E-01
4.02000000000E+09 +6.11343566547E-01 -3.82860119646E-01 +5.21418844920E-04 -6.69147795974E-04 +5.85131846316E-04 -6.50808807086E-04 +6.96645403417E-01 -3.66928316720E-01
4.02500000000E+09 +5.99684348619E-01 -3.92001667225E-01 +2.67108474391E-04 -4.26489563358E-04 +3.13111628631E-04 -3.72679541344E-04 +6.84565319447E-01 -3.76590024470E-01
4.03000000000E+09 +5.88325511764E-01 -4.01563507496E-01 +4.52194547307E-04 -3.03496106240E-04 +5.47336414008E-04 -2.76172375438E-04 +6.71924955126E-01 -3.85895208659E-01
4.03500000000E+09 +5.77466293457E-01 -4.11819011060E-01 +6.92352167985E-04 -4.96643585276E-04 +7.36169642555E-04 -5.08848931965E-04 +6.59012205456E-01 -3.95576369098E-01
4.04000000000E+09 +5.66787831025E-01 -4.22111639932E-01 +5.52192271644E-04 -8.54823478936E-04 +5.97019946297E-04 -9.24440653965E-04 +6.45436711240E-01 -4.05792963550E-01
4.04500000000E+09 +5.55836996231E-01 -4.32077448537E-01 +1.58064296150E-04 -9.12730962911E-04 +2.12956721765E-04 -9.56005760176E-04 +6.31081844588E-01 -4.15163876554E-01
4.05000000000E+09 +5.43764796872E-01 -4.39955835295E-01 +7.19429503599E-06 -6.60929973763E-04 +2.75816129938E-05 -6.73563131681E-04 +6.17052619361E-01 -4.23495054249E-01
4.05500000000E+09 +5.32018708773E-01 -4.44731309170E-01 +8.11744485297E-05 -5.68685643594E-04 +9.05949654588E-05 -6.32504221527E-04 +6.02843735440E-01 -4.31420949475E-01
4.06000000000E+09 +5.20489606567E-01 -4.48986120316E-01 +1.86690284034E-04 -5.20752978760E-04 +1.81552031950E-04 -6.09447211788E-04 +5.88394522206E-01 -4.39268769226E-01
4.06500000000E+09 +5.07891539319E-01 -4.52622343493E-01 +2.87070276168E-04 -8.61510956269E-04 +2.92885439354E-04 -8.72888342655E-04 +5.72799781361E-01 -4.46736709154E-01
4.07000000000E+09 +4.93881616955E-01 -4.56717798061E-01 -1.28711909692E-04 -1.05563568417E-03 -1.69153236243E-04 -1.08054302268E-03 +5.56950927735E-01 -4.53701223945E-01
4.07500000000E+09 +4.78434578804E-01 -4.61014714403E-01 -3.47911940230E-04 -6.85386591141E-04 -3.52701868412E-04 -7.04225298957E-04 +5.40561283578E-01 -4.61155564615E-01
4.08000000000E+09 +4.61888252947E-01 -4.66060950934E-01 -1.72969986126E-04 -6.46643077163E-04 -2.22772595611E-04 -6.25132685615E-04 +5.24248992166E-01 -4.67341928581E-01
4.08500000000E+09 +4.44556691664E-01 -4.71320902590E-01 -3.16044183310E-04 -6.14997840981E-04 -3.41778830924E-04 -5.92653569793E-04 +5.08032175093E-01 -4.74547202764E-01
4.09000000000E+09 +4.27979102825E-01 -4.77429741005E-01 -1.43564044592E-04 -5.81206699159E-04 -1.11623499947E-04 -5.64096050680E-04 +4.90169502411E-01 -4.79710075954E-01
4.09500000000E+09 +4.11279402642E-01 -4.84048190582E-01 -1.35999780730E-04 -8.55085306701E-04 -1.71379887262E-04 -8.28497547266E-04 +4.74073543131E-01 -4.84083823089E-01
4.10000000000E+09 +3.94193280103E-01 -4.90214118588E-01 -4.79420476552E-04 -8.79641297426E-04 -4.22689354485E-04 -8.74897606726E-04 +4.56103475917E-01 -4.89410710216E-01
4.10500000000E+09 +3.77734408708E-01 -4.94175978707E-01 -3.99333852037E-04 -6.72113561105E-04 -4.00731485206E-04 -6.64017243931E-04 +4.37251742840E-01 -4.93207277000E-01
4.11000000000E+09 +3.61875437556E-01 -4.96562714991E-01 -5.51515299339E-04 -8.61675083834E-04 -5.29974103882E-04 -9.00317452877E-04 +4.18677513597E-01 -4.96996878678E-01
4.11500000000E+09 +3.47076120390E-01 -4.97560192500E-01 -5.30089611567E-04 -9.28851942983E-04 -5.05865050020E-04 -9.57052964640E-04 +3.99305268044E-01 -5.00947375589E-01
4.12000000000E+09 +3.31459434125E-01 -4.99039663968E-01 -9.42816388446E-04 -1.06659192215E-03 -9.33789984275E-04 -1.12624946502E-03 +3.79732579209E-01 -5.03753588812E-01
4.12500000000E+09 +3.13944795407E-01 -4.99387853521E-01 -1.56749572704E-03 -8.83997371981E-04 -1.48706451541E-03 -9.04439727031E-04 +3.59806652440E-01 -5.05907770497E-01
4.13000000000E+09 +2.95879195904E-01 -4.99867869438E-01 -1.59307784867E-03 -1.36220320956E-04 -1.60673573397E-03 -1.82446162917E-04 +3.39678565754E-01 -5.07239778174E-01
4.13500000000E+09 +2.76458107013E-01 -5.00910153730E-01 -1.19788019694E-03 +7.07225585451E-05 -1.22654831788E-03 +9.01476692518E-06 +3.19018380236E-01 -5.07396033771E-01
4.14000000000E+09 +2.56937982683E-01 -5.02352591526E-01 -1.07054853854E-03 -1.55901179533E-04 -1.06179841293E-03 -1.60274131113E-04 +2.98482273830E-01 -5.07217726026E-01
4.14500000000E+09 +2.37869059860E-01 -5.05618203719E-01 -1.34603388459E-03 -7.37455727421E-05 -1.38017564528E-03 -1.57808065958E-04 +2.77723592610E-01 -5.06402451158E-01
4.15000000000E+09 +2.17862204705E-01 -5.10120260942E-01 -1.42909717764E-03 +2.00063409999E-04 -1.51019471473E-03 +1.43805932342E-04 +2.57442939434E-01 -5.05260408204E-01
4.15500000000E+09 +1.98063168291E-01 -5.13586547338E-01 -1.36423094742E-03 +2.58566178690E-04 -1.49204206123E-03 +1.93915141243E-04 +2.36559740496E-01 -5.02848179897E-01
4.16000000000E+09 +1.79513237645E-01 -5.15768769946E-01 -1.61530817799E-03 +4.34527527128E-04 -1.70638056773E-03 +4.73904571688E-04 +2.16072199647E-01 -4.99126833474E-01
4.16500000000E+09 +1.62545131438E-01 -5.15698257825E-01 -1.57588675314E-03 +1.00161539721E-03 -1.70739097919E-03 +9.97164903780E-04 +1.95623343774E-01 -4.94783675405E-01
4.17000000000E+09 +1.47358469706E-01 -5.14349221529E-01 -1.32334603470E-03 +9.93315520107E-04 -1.40393055728E-03 +1.01419421226E-03 +1.74768212719E-01 -4.89421500942E-01
4.17500000000E+09 +1.32516670660E-01 -5.11848079590E-01 -1.37910722760E-03 +1.35728949375E-03 -1.48169920180E-03 +1.36343542854E-03 +1.53993076232E-01 -4.83279632680E-01
4.18000000000E+09 +1.17402506274E-01 -5.07971838750E-01 -1.06537908743E-03 +1.92915703634E-03 -1.21416895879E-03 +1.98766204199E-03 +1.33654704167E-01 -4.76186160537E-01
4.18500000000E+09 +1.01141290373E-01 -5.03777508334E-01 -3.00350735824E-04 +1.82482267616E-03 -3.19804107386E-04 +1.99305959229E-03 +1.14249392372E-01 -4.69363897561E-01
4.19000000000E+09 +8.33620179841E-02 -4.97885094546E-01 -2.48647158943E-04 +1.46176992990E-03 -2.75426599005E-04 +1.60165353449E-03 +9.32647140325E-02 -4.62375383007E-01
4.19500000000E+09 +6.59196154570E-02 -4.91550744964E-01 -2.83188926106E-04 +1.36284380222E-03 -2.60935169858E-04 +1.40777218170E-03 +7.24956856134E-02 -4.52942280916E-01
4.20000000000E+09 +4.80360394004E-02 -4.86445629308E-01 -3.68872467958E-04 +1.60594786567E-03 -3.34622023545E-04 +1.75036305941E-03 +5.29496562547E-02 -4.42549528701E-01
4.20500000000E+09 +2.97299694533E-02 -4.81840243872E-01 -3.28557245926E-04 +1.63256616374E-03 -2.94935469690E-04 +1.69802461861E-03 +3.29536403136E-02 -4.32392730137E-01
4.21000000000E+09 +1.12986205979E-02 -4.76984409558E-01 -1.47942231922E-04 +2.36240705627E-03 -9.73413025983E-05 +2.38317272694E-03 +1.31209724214E-02 -4.20521276269E-01
4.21500000000E+09 -6.47524835566E-03 -4.71092930644E-01 +7.84132072981E-04 +2.48648001152E-03 +8.75523976854E-04 +2.55726426932E-03 -5.71323616318E-03 -4.08920632300E-01
4.22000000000E+09 -2.31555800089E-02 -4.63424546635E-01 +1.15806410237E-03 +1.88531585391E-03 +1.22538701646E-03 +1.85503643345E-03 -2.45396096911E-02 -3.96495473577E-01
4.22500000000E+09 -3.77020575611E-02 -4.54694612023E-01 +1.33246624006E-03 +1.76292934980E-03 +1.40271858357E-03 +1.68631880194E-03 -4.26690999791E-02 -3.82408571224E-01
4.23000000000E+09 -5.20240735551E-02 -4.45316836465E-01 +1.44232371016E-03 +1.36724544631E-03 +1.50587050545E-03 +1.37675572306E-03 -5.93858693749E-02 -3.67929962810E-01
4.23500000000E+09 -6.74018441798E-02 -4.34539882379E-01 +1.41985038444E-03 +1.41566543601E-03 +1.43996433406E-03 +1.33092180930E-03 -7.67247321310E-02 -3.52276784592E-01
4.24000000000E+09 -8.36248740504E-02 -4.22007910503E-01 +1.49101706730E-03 +1.51058179561E-03 +1.43551607177E-03 +1.42181968983E-03 -9.25822400891E-02 -3.34933715514E-01
4.24500000000E+09 -1.00586997786E-01 -4.08708382899E-01 +2.05840654030E-03 +1.60374260473E-03 +2.06869439098E-03 +1.52316428510E-03 -1.07967371176E-01 -3.17616784795E-01
4.25000000000E+09 -1.18765626527E-01 -3.95593622789E-01 +2.64070904555E-03 +1.10954107072E-03 +2.60797907597E-03 +1.04877375202E-03 -1.22096318330E-01 -2.99492233009E-01
4.25500000000E+09 -1.36781321975E-01 -3.82847827162E-01 +2.81790202199E-03 +4.23758160144E-04 +2.74333127088E-03 +3.79509823312E-04 -1.35062587019E-01 -2.81754876458E-01
4.26000000000E+09 -1.55554828530E-01 -3.71704229879E-01 +2.49348340285E-03 -6.29917107344E-05 +2.47525956931E-03 -1.22243201762E-04 -1.48061871176E-01 -2.64191525335E-01
4.26500000000E+09 -1.74784191855E-01 -3.60891690916E-01 +2.53682229519E-03 -9.01678753904E-05 +2.43997512302E-03 -4.12221185758E-05 -1.60225309564E-01 -2.44807247108E-01
4.27000000000E+09 -1.92312952937E-01 -3.49364522657E-01 +2.85104066075E-03 -3.94168349422E-04 +2.76563917556E-03 -3.56319477359E-04 -1.72013193076E-01 -2.25145355076E-01
4.27500000000E+09 -2.07504315094E-01 -3.37741999624E-01 +2.96031501988E-03 -1.20909450069E-03 +2.86717088831E-03 -1.18298600212E-03 -1.82779746942E-01 -2.04562843392E-01
4.28000000000E+09 -2.20722566168E-01 -3.24836786890E-01 +2.34532966195E-03 -1.71695293032E-03 +2.27047691370E-03 -1.65770830164E-03 -1.92999229229E-01 -1.84088985060E-01
4.28500000000E+09 -2.31932310358E-01 -3.11089065570E-01 +2.34904083044E-03 -1.55784330630E-03 +2.30156927032E-03 -1.52153533092E-03 -2.01790217453E-01 -1.63011407204E-01
4.29000000000E+09 -2.42546603513E-01 -2.96178186298E-01 +2.31201834058E-03 -2.32750657525E-03 +2.33338302875E-03 -2.27575779804E-03 -2.09512716854E-01 -1.43169279026E-01
4.29500000000E+09 -2.53478072000E-01 -2.79231829241E-01 +1.74411642150E-03 -3.00572257146E-03 +1.79670651590E-03 -2.99418582818E-03 -2.17051798830E-01 -1.23307777933E-01
4.30000000000E+09 -2.64865925755E-01 -2.60864937661E-01 +8.68909566246E-04 -2.91047595622E-03 +9.16645275962E-04 -2.91388178503E-03 -2.23338982239E-01 -1.02611156115E-01
4.30500000000E+09 -2.77030672658E-01 -2.41039465393E-01 +6.85024921046E-04 -3.00078089846E-03 +7.00967418651E-04 -3.02383630473E-03 -2.28434305110E-01 -8.11558650063E-02
4.31000000000E+09 -2.88907366163E-01 -2.21653574588E-01 +9.45493674435E-05 -3.15330017126E-03 +1.49580827915E-04 -3.16767977676E-03 -2.31952037069E-01 -5.99719767329E-02
4.31500000000E+09 -3.02078970973E-01 -2.03970528564E-01 -5.14382094733E-04 -2.99394979040E-03 -4.79920798472E-04 -3.00455472328E-03 -2.35013584401E-01 -3.81408342877E-02
4.32000000000E+09 -3.15299255093E-01 -1.86506859380E-01 -8.12052625820E-04 -2.43572433646E-03 -7.71294807454E-04 -2.50059758889E-03 -2.36620809594E-01 -1.65589086035E-02
4.32500000000E+09 -3.27225178467E-01 -1.70100786346E-01 -7.28404458761E-04 -2.60862365816E-03 -7.22664931924E-04 -2.67053757057E-03 -2.38117743912E-01 +4.36275085122E-03
4.33000000000E+09 -3.36815119357E-01 -1.54111732979E-01 -1.42808221146E-03 -2.83258244605E-03 -1.44858400671E-03 -2.84021233052E-03 -2.38677610047E-01 +2.54664234692E-02
4.33500000000E+09 -3.43458555306E-01 -1.39557165110E-01 -1.85076905812E-03 -2.48747724692E-03 -1.90637003473E-03 -2.50193501626E-03 -2.38311574506E-01 +4.66101717848E-02
4.34000000000E+09 -3.48907087754E-01 -1.24507408727E-01 -2.61676300571E-03 -2.10766388624E-03 -2.70460866558E-03 -2.08662819746E-03 -2.37059787289E-01 +6.73410686921E-02
4.34500000000E+09 -3.52268882871E-01 -1.07855254674E-01 -2.72487232001E-03 -1.16720363307E-03 -2.78587420302E-03 -1.19016163093E-03 -2.34604498953E-01 +8.76374651056E-02
4.35000000000E+09 -3.54475604516E-01 -8.97949036355E-02 -2.23219015087E-03 -6.26082557714E-04 -2.28169125564E-03 -5.70037117915E-04 -2.32347106733E-01 +1.06731584252E-01
4.35500000000E+09 -3.56928485631E-01 -6.90358934024E-02 -2.06277720595E-03 -9.89828692044E-04 -2.12250642979E-03 -9.29044974440E-04 -2.29120761196E-01 +1.26038035942E-01
4.36000000000E+09 -3.58727408892E-01 -4.65168794993E-02 -2.50405769041E-03 -7.04993731914E-04 -2.52414951876E-03 -6.64787205264E-04 -2.25477395019E-01 +1.43829361808E-01
4.36500000000E+09 -3.61608194227E-01 -2.42214012670E-02 -2.77931097915E-03 -7.22042920833E-04 -2.78390162394E-03 -6.57589064022E-04 -2.21623042588E-01 +1.61646510806E-01
4.37000000000E+09 -3.66110335051E-01 -1.54375797595E-03 -3.36320274477E-03 +2.59488722857E-04 -3.41425159729E-03 +3.63484942408E-04 -2.16885173411E-01 +1.79647553290E-01
4.37500000000E+09 -3.71047726174E-01 +1.97123768719E-02 -2.59497858101E-03 +9.24220284347E-04 -2.55073464013E-03 +1.02587533245E-03 -2.11476567145E-01 +1.96987136888E-01
4.38000000000E+09 -3.76862955271E-01 +3.98453911341E-02 -2.46596487445E-03 +9.88358021722E-04 -2.38613540345E-03 +1.10855050393E-03 -2.05088014818E-01 +2.14322329594E-01
4.38500000000E+09 -3.81022636056E-01 +5.77876539933E-02 -2.26276537881E-03 +1.33081155466E-03 -2.21314146115E-03 +1.48287421987E-03 -1.98860435517E-01 +2.31461678391E-01
4.39000000000E+09 -3.84147544597E-01 +7.37317934097E-02 -2.02012358098E-03 +1.69637416260E-03 -1.89374707163E-03 +1.78583420409E-03 -1.91598298115E-01 +2.48644954581E-01
4.39500000000E+09 -3.85110187521E-01 +8.88825517182E-02 -1.68390996694E-03 +1.81234786303E-03 -1.52207447475E-03 +1.79830196270E-03 -1.84343911740E-01 +2.63894674337E-01
4.40000000000E+09 -3.83364375634E-01 +1.03694273581E-01 -1.49876711679E-03 +1.87722804043E-03 -1.32645674305E-03 +1.87238800700E-03 -1.77120015317E-01 +2.80258165518E-01
4.40500000000E+09 -3.79454328018E-01 +1.18886344588E-01 -1.51957610134E-03 +2.06399045463E-03 -1.35141700412E-03 +2.02566073407E-03 -1.67987575683E-01 +2.95350548632E-01
4.41000000000E+09 -3.74054003897E-01 +1.35740780588E-01 -9.14908699105E-04 +2.65044508761E-03 -8.38081884615E-04 +2.61008859183E-03 -1.58925337688E-01 +3.09283900243E-01
4.41500000000E+09 -3.67920934622E-01 +1.53788957017E-01 -5.90633271539E-04 +2.41930497539E-03 -5.18762071265E-04 +2.30452493388E-03 -1.49871436156E-01 +3.23185779558E-01
4.42000000000E+09 -3.62327555303E-01 +1.74270930652E-01 -4.06645319597E-04 +2.74802048914E-03 -3.59708442404E-04 +2.66397801607E-03 -1.40228592881E-01 +3.37515928114E-01
4.42500000000E+09 -3.57350019410E-01 +1.94912190931E-01 +4.58873553129E-04 +2.82605493626E-03 +5.31100868895E-04 +2.64810753057E-03 -1.29604525019E-01 +3.50099908425E-01
4.43000000000E+09 -3.54819679673E-01 +2.16403249518E-01 +7.00407089159E-04 +2.27482552016E-03 +7.43617741514E-04 +2.15304459159E-03 -1.20788453615E-01 +3.62730285028E-01
4.43500000000E+09 -3.51640997493E-01 +2.37782842642E-01 +8.73555093606E-04 +2.21439170839E-03 +8.65489461637E-04 +2.05541815387E-03 -1.10331952908E-01 +3.75286890447E-01
4.44000000000E+09 -3.49001469642E-01 +2.55909552282E-01 +1.20464531384E-03 +2.02527677447E-03 +1.13036012335E-03 +1.93095992406E-03 -1.00461339723E-01 +3.86180809210E-01
4.44500000000E+09 -3.47183512926E-01 +2.72056568606E-01 +1.39172712878E-03 +1.83809211713E-03 +1.26528963344E-03 +1.79833957287E-03 -9.06702627130E-02 +3.97299307778E-01
4.45000000000E+09 -3.44470253682E-01 +2.86194616913E-01 +1.51047053528E-03 +1.75362613665E-03 +1.44582238801E-03 +1.75209844212E-03 -8.01323590519E-02 +4.07814300390E-01
4.45500000000E+09 -3.40586361736E-01 +2.99603723570E-01 +2.05645826171E-03 +1.58403997090E-03 +2.00326815964E-03 +1.57603131759E-03 -6.94500543850E-02 +4.17799709626E-01
4.46000000000E+09 -3.33851558527E-01 +3.12780213457E-01 +2.27485343972E-03 +6.77091850921E-04 +2.18923120027E-03 +6.44334787078E-04 -5.85702061859E-02 +4.27397827830E-01
4.46500000000E+09 -3.25156007857E-01 +3.25766700938E-01 +1.90049658462E-03 +5.35741546329E-04 +1.80358583529E-03 +5.68318633672E-04 -4.72129877329E-02 +4.36307695994E-01
4.47000000000E+09 -3.15246987129E-01 +3.40422875830E-01 +1.93869187347E-03 +4.49991843999E-04 +1.83573016033E-03 +4.80821393089E-04 -3.66991994722E-02 +4.45175157216E-01
4.47500000000E+09 -3.03748021162E-01 +3.57162432508E-01 +2.02923604823E-03 +2.93911769640E-04 +1.97778946758E-03 +3.10321166811E-04 -2.55563370387E-02 +4.54344334970E-01
4.48000000000E+09 -2.91433769338E-01 +3.74457199197E-01 +2.21943859910E-03 +1.37922943409E-04 +2.18300740551E-03 +1.48283315664E-04 -1.42066816466E-02 +4.62478276434E-01
4.48500000000E+09 -2.80227083423E-01 +3.91530440549E-01 +2.11970801074E-03 -4.34399512271E-04 +2.05706223427E-03 -4.08142294927E-04 -3.03477237844E-03 +4.70654589400E-01
4.49000000000E+09 -2.71301732814E-01 +4.08259121460E-01 +2.30797949028E-03 -7.58343506953E-04 +2.22643463313E-03 -7.42037662067E-04 +8.78805353599E-03 +4.78177536636E-01
4.49500000000E+09 -2.63758041719E-01 +4.24625481605E-01 +1.61888890656E-03 -1.29377806910E-03 +1.58024812610E-03 -1.24845401077E-03 +1.98161020048E-02 +4.84739554699E-01
4.50000000000E+09 -2.57273409614E-01 +4.38332218249E-01 +1.31025960977E-03 -1.15499456587E-03 +1.31992721094E-03 -1.10150589180E-03 +3.12441342480E-02 +4.91272869848E-01
4.50500000000E+09 -2.52322223688E-01 +4.50607055504E-01 +1.48064966353E-03 -1.17121895216E-03 +1.53681503075E-03 -1.16663315401E-03 +4.26907717180E-02 +4.97140979281E-01
4.51000000000E+09 -2.45980586863E-01 +4.61423228625E-01 +1.19807022405E-03 -1.80106719311E-03 +1.18867225507E-03 -1.76137154108E-03 +5.36864251711E-02 +5.02674397428E-01
4.51500000000E+09 -2.37315309285E-01 +4.69952949449E-01 +6.19113992796E-04 -1.73326228170E-03 +6.31408081972E-04 -1.67690852676E-03 +6.45931554371E-02 +5.08361979444E-01
4.52000000000E+09 -2.27548655895E-01 +4.77116859670E-01 +3.68693213722E-04 -1.67196369168E-03 +4.15499172590E-04 -1.67347165873E-03 +7.63988896239E-02 +5.13503635457E-01
4.52500000000E+09 -2.15795697634E-01 +4.84481178276E-01 +2.19005421016E-04 -1.42638301289E-03 +1.95716878933E-04 -1.40118926435E-03 +8.74635505799E-02 +5.17791923073E-01
4.53000000000E+09 -2.02788863217E-01 +4.92503809739E-01 +3.22709208925E-04 -1.38882693943E-03 +2.90851604830E-04 -1.41676435375E-03 +9.90196566228E-02 +5.21822160648E-01
4.53500000000E+09 -1.88327314754E-01 +5.02287477094E-01 +5.45405616947E-05 -1.69515889147E-03 +8.58607694912E-06 -1.66711568617E-03 +1.10063480505E-01 +5.25384059928E-01
4.54000000000E+09 -1.73629693190E-01 +5.12446618207E-01 -2.07653402947E-04 -1.76210228160E-03 -2.53490633050E-04 -1.74198726292E-03 +1.21294978510E-01 +5.28652063006E-01
4.54500000000E+09 -1.59630420021E-01 +5.24144866226E-01 -7.91424743127E-04 -1.50167789426E-03 -8.54254609589E-04 -1.47356308311E-03 +1.31505721406E-01 +5.32036676186E-01
4.55000000000E+09 -1.46505607726E-01 +5.34627062439E-01 -8.64910559208E-04 -9.34130806361E-04 -9.39707082711E-04 -8.28042287871E-04 +1.42844403790E-01 +5.36211142821E-01
4.55500000000E+09 -1.35928352346E-01 +5.44476070960E-01 -5.55622546511E-04 -7.41344029643E-04 -6.08139699744E-04 -7.03083818855E-04 +1.53876226666E-01 +5.38964743698E-01
4.56000000000E+09 -1.26557341108E-01 +5.53760892247E-01 -3.96318715417E-04 -1.00065460920E-03 -4.44799849835E-04 -9.32316553224E-04 +1.64445306418E-01 +5.42247479633E-01
4.56500000000E+09 -1.17201249851E-01 +5.61155519311E-01 -6.97092124825E-04 -1.18003019395E-03 -7.56863334707E-04 -1.10042299585E-03 +1.74980783595E-01 +5.44681764952E-01
4.57000000000E+09 -1.07893066351E-01 +5.66797526283E-01 -1.07552833066E-03 -1.00816660445E-03 -1.05047148047E-03 -9.40678945309E-04 +1.85504345001E-01 +5.47255003956E-01
