# Hz S RI R 50
! CMT, C1220, 16058040, 17.2.0/1
! Date: 15/08/2018 12:23:47
! Data: Format (Calibration Info)
! Freq                      S11: Re/Im (F2)                       S21: Re/Im (F2)                       S12: Re/Im (F2)                       S22: Re/Im (F2)            
4.00000000000E+09 +6.55037323143E-01 -3.54686299173E-01 +8.58870783951E-04 -3.42627211147E-04 +8.60303115473E-04 -2.69571261327E-04 +7.42668324802E-01 -3.22524681362E-01
4.00500000000E+09 +6.46950162337E-01 -3.60961682240E-01 +1.00301967080E-03 -4.20023866034E-04 +9.67704546803E-04 -3.29300969446E-04 +7.32402371707E-01 -3.33106768363E-01
4.01000000000E+09 +6.38014562099E-01 -3.67351708986E-01 +1.04940201941E-03 -8.45998512313E-04 +1.07655564040E-03 -8.08266121692E-04 +7.21668790548E-01 -3.43999540491E-01
4.01500000000E+09 +6.27687052153E-01 -3.74436250466E-01 +7.82620911538E-04 -1.14475198735E-03 +7.78907807193E-04 -1.13928197830E-03 +7.10481186595E-01 -3.54173099958E-01
4.02000000000E+09 +6.16901382191E-01 -3.82472632968E-01 +2.87889845246E-04 -1.36375014000E-03 +3.29221168600E-04 -1.30050215300E-03 +6.98883723983E-01 -3.64177774095E-01
4.02500000000E+09 +6.05407084088E-01 -3.91742976900E-01 -8.67220360676E-05 -8.33094873871E-04 +2.00335179730E-05 -8.64750098977E-04 +6.86839685483E-01 -3.73890034927E-01
4.03000000000E+09 +5.94141276255E-01 -4.01802887857E-01 +2.60383282807E-04 -6.39175769178E-04 +2.91142946038E-04 -6.26242483407E-04 +6.74249288144E-01 -3.83239615652E-01
4.03500000000E+09 +5.82917205257E-01 -4.12719603191E-01 +4.25803475890E-04 -9.47527929082E-04 +5.30255580786E-04 -9.77306033913E-04 +6.61696797407E-01 -3.92953199359E-01
4.04000000000E+09 +5.72043796512E-01 -4.23744164784E-01 +3.55509294819E-04 -1.20569018360E-03 +4.13847785568E-04 -1.21108421073E-03 +6.48659313666E-01 -4.03120031528E-01
4.04500000000E+09 +5.60891658317E-01 -4.33847234352E-01 -2.53380009907E-05 -1.48985356057E-03 +5.70755523684E-05 -1.57068084590E-03 +6.34803756715E-01 -4.12727981512E-01
4.05000000000E+09 +5.49516479148E-01 -4.42064299350E-01 -5.66200505782E-04 -1.28245608626E-03 -5.24900171681E-04 -1.43084449469E-03 +6.21087160372E-01 -4.21491084792E-01
4.05500000000E+09 +5.38140922279E-01 -4.48034075472E-01 -6.05722725318E-04 -1.01824648958E-03 -5.97361584391E-04 -1.11365993991E-03 +6.06961195049E-01 -4.30187874244E-01
4.06000000000E+09 +5.26630271608E-01 -4.52881199036E-01 -7.42140732082E-04 -8.66354953299E-04 -7.84934572102E-04 -9.54545035353E-04 +5.92262108724E-01 -4.38354805219E-01
4.06500000000E+09 +5.14258179617E-01 -4.56856376713E-01 -6.05865107117E-04 -6.57319932726E-04 -5.98599931800E-04 -7.02090424935E-04 +5.76617627895E-01 -4.46140813301E-01
4.07000000000E+09 +5.00589924466E-01 -4.61371691558E-01 -5.91431651194E-04 -7.33503442914E-04 -6.49591181675E-04 -7.43126720352E-04 +5.60691162216E-01 -4.53665116140E-01
4.07500000000E+09 +4.85064409741E-01 -4.66122515313E-01 -5.63416785450E-04 -6.38075966632E-04 -5.54875979072E-04 -7.11549025652E-04 +5.44161228323E-01 -4.61245683818E-01
4.08000000000E+09 +4.68455022597E-01 -4.71476857344E-01 -6.45213229526E-04 -8.04517317876E-04 -6.21319253525E-04 -8.43447534308E-04 +5.27821027177E-01 -4.67969813350E-01
4.08500000000E+09 +4.50813463402E-01 -4.77059586773E-01 -9.33855465072E-04 -8.11279243232E-04 -9.20302452161E-04 -9.14241821631E-04 +5.11368421844E-01 -4.75411615080E-01
4.09000000000E+09 +4.33776938611E-01 -4.83347348120E-01 -1.05203578547E-03 -7.15906367055E-04 -1.12207100700E-03 -7.50156307788E-04 +4.93430567361E-01 -4.81106216280E-01
4.09500000000E+09 +4.16902760727E-01 -4.90102968771E-01 -1.23379163136E-03 -4.55356946557E-04 -1.27128653293E-03 -4.61088576673E-04 +4.76460936813E-01 -4.85934112254E-01
4.10000000000E+09 +3.99953035966E-01 -4.96341379569E-01 -1.29629121861E-03 -2.48862650088E-04 -1.30637685315E-03 -2.18927427275E-04 +4.57949117120E-01 -4.91000033121E-01
4.10500000000E+09 +3.83609872631E-01 -5.01130704346E-01 -1.00740355611E-03 +1.15937176240E-04 -1.09064665434E-03 +2.01863200050E-04 +4.38812342832E-01 -4.94694019551E-01
4.11000000000E+09 +3.67292790285E-01 -5.04217903021E-01 -7.90069296699E-04 -6.73101863177E-05 -7.96260896876E-04 -2.86387105123E-05 +4.19919295461E-01 -4.98144741138E-01
4.11500000000E+09 +3.51702633046E-01 -5.05650114341E-01 -8.25346589832E-04 -3.40929218294E-04 -7.34339627321E-04 -3.61334797256E-04 +4.01258793775E-01 -5.01749512854E-01
4.12000000000E+09 +3.35733342721E-01 -5.06760896483E-01 -1.22059874951E-03 -6.62259277740E-04 -1.17823451403E-03 -6.76730001714E-04 +3.81812129268E-01 -5.05073886308E-01
4.12500000000E+09 +3.18345624330E-01 -5.07236642340E-01 -1.93041027398E-03 -3.43366853789E-04 -1.87420752863E-03 -4.25920449965E-04 +3.61674959043E-01 -5.07461272270E-01
4.13000000000E+09 +2.99819450753E-01 -5.08101027773E-01 -2.10810973428E-03 +4.29217896074E-04 -2.07305886374E-03 +4.15984223839E-04 +3.41168602092E-01 -5.08947259662E-01
4.13500000000E+09 +2.80174223133E-01 -5.09300791441E-01 -1.64972379515E-03 +1.01526872644E-03 -1.76795587479E-03 +9.17632897867E-04 +3.20262499841E-01 -5.09182444116E-01
4.14000000000E+09 +2.60017108989E-01 -5.11666102988E-01 -1.24596332480E-03 +1.03101869727E-03 -1.27219577104E-03 +9.57663032445E-04 +2.99597463280E-01 -5.09114094474E-01
4.14500000000E+09 +2.39902734771E-01 -5.15191682990E-01 -1.14002223264E-03 +1.14044933997E-03 -1.23596510198E-03 +1.15107870716E-03 +2.78502788582E-01 -5.08380622618E-01
4.15000000000E+09 +2.19560411775E-01 -5.19374370714E-01 -8.08937131260E-04 +1.18639864217E-03 -8.75228150518E-04 +1.18215826704E-03 +2.58143916832E-01 -5.07397727629E-01
4.15500000000E+09 +1.99951190112E-01 -5.23092666445E-01 -8.15847945742E-04 +7.69524307556E-04 -8.47608262147E-04 +7.60589467374E-04 +2.37066048013E-01 -5.05189850354E-01
4.16000000000E+09 +1.81657606286E-01 -5.25931373656E-01 -1.31308225118E-03 +9.48870405529E-04 -1.43221862947E-03 +9.65051673064E-04 +2.16045622479E-01 -5.01872997042E-01
4.16500000000E+09 +1.64021400351E-01 -5.26935194748E-01 -1.27753182153E-03 +1.68710936696E-03 -1.35410154994E-03 +1.64183158074E-03 +1.94919584467E-01 -4.97376767298E-01
4.17000000000E+09 +1.47893959485E-01 -5.25275375119E-01 -9.66674551879E-04 +1.86447474667E-03 -1.02363292605E-03 +1.97265306614E-03 +1.73491479245E-01 -4.92047252868E-01
4.17500000000E+09 +1.32807932558E-01 -5.22170580835E-01 -6.69221531243E-04 +2.27268095555E-03 -7.38092754319E-04 +2.37311187780E-03 +1.51884638013E-01 -4.85206015775E-01
4.18000000000E+09 +1.17567929479E-01 -5.18093196431E-01 -3.50645014350E-05 +2.60403663021E-03 -4.63698828481E-05 +2.72472221650E-03 +1.31415335238E-01 -4.77384157488E-01
4.18500000000E+09 +1.01195940163E-01 -5.13578324484E-01 +8.90376596383E-04 +2.38690000078E-03 +8.71230829800E-04 +2.50730745433E-03 +1.11984142290E-01 -4.70094555082E-01
4.19000000000E+09 +8.29131207784E-02 -5.08117543640E-01 +9.79612552608E-04 +1.56453256432E-03 +9.66910044840E-04 +1.68690948008E-03 +9.10202098556E-02 -4.62494797919E-01
4.19500000000E+09 +6.42182334540E-02 -5.01954836783E-01 +6.39616489641E-04 +1.29374998405E-03 +6.80961198301E-04 +1.33505906375E-03 +7.04914297262E-02 -4.52813640246E-01
4.20000000000E+09 +4.51074708479E-02 -4.96458680984E-01 +6.36345099742E-04 +1.51618090860E-03 +6.99846677081E-04 +1.61577715278E-03 +5.11438964538E-02 -4.42064699965E-01
4.20500000000E+09 +2.58710106211E-02 -4.91614323304E-01 +5.58516450119E-04 +1.42195844321E-03 +5.72832861667E-04 +1.47024586874E-03 +3.14493730309E-02 -4.31332051239E-01
4.21000000000E+09 +7.24197794232E-03 -4.86631231743E-01 +6.83873214584E-04 +2.16984015823E-03 +7.62995668039E-04 +2.21990567688E-03 +1.21318150826E-02 -4.19359665417E-01
4.21500000000E+09 -1.09969576482E-02 -4.81000103294E-01 +1.84614788263E-03 +2.30837347695E-03 +1.99477615801E-03 +2.35337360344E-03 -6.31248566062E-03 -4.07372301595E-01
4.22000000000E+09 -2.75606754573E-02 -4.73756829834E-01 +2.41855873876E-03 +1.46976682811E-03 +2.51893766644E-03 +1.40182685180E-03 -2.44921864466E-02 -3.95106371930E-01
4.22500000000E+09 -4.25796250596E-02 -4.65516816191E-01 +2.56926885707E-03 +6.57376202780E-04 +2.61922946601E-03 +6.32709957640E-04 -4.22769571847E-02 -3.81311861964E-01
4.23000000000E+09 -5.73124503698E-02 -4.55901311688E-01 +2.04894223576E-03 +7.56424330160E-05 +2.08366255524E-03 +3.23701290975E-05 -5.88598908355E-02 -3.67172151654E-01
4.23500000000E+09 -7.27462125966E-02 -4.44448239922E-01 +1.68338528995E-03 +3.02065720889E-04 +1.68758492893E-03 +3.12576670295E-04 -7.60947012437E-02 -3.51935593275E-01
4.24000000000E+09 -8.89984390421E-02 -4.31319204749E-01 +1.67229727703E-03 +5.51236334844E-04 +1.69289071716E-03 +5.35443730598E-04 -9.21859194428E-02 -3.35372184503E-01
4.24500000000E+09 -1.06081147763E-01 -4.17096534263E-01 +2.36915002228E-03 +7.06837121398E-04 +2.48185289248E-03 +6.82712129159E-04 -1.08111550820E-01 -3.18099078522E-01
4.25000000000E+09 -1.24106951810E-01 -4.02785427247E-01 +3.02123674042E-03 +4.46347502572E-05 +3.00472809509E-03 +2.87404939939E-05 -1.22693157862E-01 -2.99461628788E-01
4.25500000000E+09 -1.42422493590E-01 -3.89702428254E-01 +2.89025190284E-03 -1.01973759730E-03 +2.95037392386E-03 -1.04296468559E-03 -1.35419703162E-01 -2.81232781255E-01
4.26000000000E+09 -1.62141130520E-01 -3.77906489067E-01 +2.17766457954E-03 -1.37036771197E-03 +2.17442553395E-03 -1.46123309351E-03 -1.48060738585E-01 -2.63660969489E-01
4.26500000000E+09 -1.81813686071E-01 -3.66114788086E-01 +2.10509918303E-03 -1.32291413846E-03 +2.12781902428E-03 -1.35680784030E-03 -1.60138475928E-01 -2.44265066323E-01
4.27000000000E+09 -1.99041251285E-01 -3.54514137303E-01 +2.06619558284E-03 -1.51183531308E-03 +2.03042447497E-03 -1.61118185904E-03 -1.71933355131E-01 -2.24724075816E-01
4.27500000000E+09 -2.15288550339E-01 -3.43534108548E-01 +1.86263839350E-03 -2.12141624191E-03 +1.86842887018E-03 -2.16279660295E-03 -1.82803275560E-01 -2.03875439369E-01
4.28000000000E+09 -2.29285202725E-01 -3.30281002547E-01 +1.55928461477E-03 -2.13094450160E-03 +1.46559156343E-03 -2.16698040896E-03 -1.92177103642E-01 -1.83150910753E-01
4.28500000000E+09 -2.40577017438E-01 -3.15886674841E-01 +1.53583329595E-03 -2.38278806655E-03 +1.48045896942E-03 -2.40267407036E-03 -2.00573525034E-01 -1.62537813758E-01
4.29000000000E+09 -2.50055291817E-01 -3.00757264366E-01 +1.05628883009E-03 -2.86051395584E-03 +1.02795295950E-03 -2.87273704072E-03 -2.08144339388E-01 -1.42671105349E-01
4.29500000000E+09 -2.60126889791E-01 -2.84610354027E-01 +5.73660396241E-04 -3.02568385692E-03 +5.38662804881E-04 -3.01615303843E-03 -2.14828642171E-01 -1.23224001981E-01
4.30000000000E+09 -2.71345997889E-01 -2.66203944576E-01 -9.47186725625E-05 -3.07889522208E-03 -1.60222682222E-04 -3.01109456180E-03 -2.21126407752E-01 -1.03168309757E-01
4.30500000000E+09 -2.82840594849E-01 -2.46551309459E-01 -2.02642934436E-04 -2.88981015442E-03 -2.20914314765E-04 -2.86216130924E-03 -2.26163176223E-01 -8.23392865382E-02
4.31000000000E+09 -2.95311138336E-01 -2.26739059082E-01 -7.18672738626E-04 -3.19650929441E-03 -7.49346805587E-04 -3.20397408364E-03 -2.29569542190E-01 -6.18376311382E-02
4.31500000000E+09 -3.08801563979E-01 -2.07235167841E-01 -1.62780968284E-03 -2.86215642009E-03 -1.61852023432E-03 -2.80369092249E-03 -2.32777904374E-01 -4.09447703612E-02
4.32000000000E+09 -3.20961613966E-01 -1.88816579244E-01 -1.87329495724E-03 -2.10008132466E-03 -1.84383591096E-03 -2.09241211713E-03 -2.35279110799E-01 -2.01023938131E-02
4.32500000000E+09 -3.32626378399E-01 -1.72291360855E-01 -1.63646535185E-03 -2.01126311500E-03 -1.59723418587E-03 -2.05279320113E-03 -2.37416069955E-01 +5.30094329507E-04
4.33000000000E+09 -3.42733159280E-01 -1.55980602086E-01 -2.08976796243E-03 -2.11293560765E-03 -2.11950256531E-03 -2.12001940143E-03 -2.38464813782E-01 +2.16350061824E-02
4.33500000000E+09 -3.49729128607E-01 -1.40719286393E-01 -2.26977622190E-03 -1.79804950922E-03 -2.31207044739E-03 -1.83672714624E-03 -2.38542738689E-01 +4.26799468799E-02
4.34000000000E+09 -3.55076156788E-01 -1.25409448165E-01 -3.05205614432E-03 -1.65488824503E-03 -3.04861132518E-03 -1.58983861128E-03 -2.37735803838E-01 +6.33481180293E-02
4.34500000000E+09 -3.58893628155E-01 -1.08685834792E-01 -3.36014047013E-03 -5.12930853629E-04 -3.33687165721E-03 -4.74720989883E-04 -2.35901023346E-01 +8.35003674708E-02
4.35000000000E+09 -3.60991977650E-01 -9.00858968796E-02 -2.66479684182E-03 +2.73822351417E-04 -2.60926805588E-03 +2.38501296044E-04 -2.34224364205E-01 +1.02731083480E-01
4.35500000000E+09 -3.63368801585E-01 -6.93503150667E-02 -2.48990459462E-03 -2.90823735726E-04 -2.48929852685E-03 -3.33835120479E-04 -2.31519461291E-01 +1.22311602217E-01
4.36000000000E+09 -3.65172511078E-01 -4.63785677339E-02 -2.88402499515E-03 +3.02397325967E-04 -2.90727117479E-03 +3.81197344288E-04 -2.28242288281E-01 +1.40439331003E-01
4.36500000000E+09 -3.67216883718E-01 -2.36722299569E-02 -2.80730135567E-03 +4.41228614201E-04 -2.85753700387E-03 +4.79172530148E-04 -2.24430457602E-01 +1.58760700479E-01
4.37000000000E+09 -3.71311434124E-01 -1.11059422943E-03 -3.22330034403E-03 +1.30582453907E-03 -3.17192317419E-03 +1.29567560831E-03 -2.19518149548E-01 +1.76648866605E-01
4.37500000000E+09 -3.75812832607E-01 +1.98443138608E-02 -2.43766746774E-03 +1.94803260668E-03 -2.40361149517E-03 +1.98681615576E-03 -2.14230740151E-01 +1.94049773451E-01
4.38000000000E+09 -3.81775241328E-01 +3.95904760687E-02 -1.87921198181E-03 +1.99066730075E-03 -1.85964689994E-03 +2.00570943870E-03 -2.07985853589E-01 +2.11365727656E-01
4.38500000000E+09 -3.86510154098E-01 +5.77044665733E-02 -1.68032779457E-03 +2.12476312711E-03 -1.60488877491E-03 +2.21117088337E-03 -2.01740901415E-01 +2.28278329262E-01
4.39000000000E+09 -3.89483066847E-01 +7.45368142539E-02 -1.29286518458E-03 +2.21452491967E-03 -1.20003976358E-03 +2.22653588145E-03 -1.95326884840E-01 +2.45137109446E-01
4.39500000000E+09 -3.89621493256E-01 +8.95400986838E-02 -1.08739304489E-03 +2.41468295336E-03 -1.00377457943E-03 +2.40509475608E-03 -1.88778575522E-01 +2.60820962779E-01
4.40000000000E+09 -3.87461317183E-01 +1.04027794620E-01 -5.37987060454E-04 +2.45944825488E-03 -4.93768020259E-04 +2.45710984766E-03 -1.81538594665E-01 +2.77185754626E-01
4.40500000000E+09 -3.83233395482E-01 +1.18902968040E-01 -4.20508697476E-04 +2.41338760591E-03 -3.74715687295E-04 +2.36615396932E-03 -1.73063805411E-01 +2.92266471509E-01
4.41000000000E+09 -3.78098137478E-01 +1.35203827177E-01 -4.11136919093E-05 +2.47434045283E-03 -1.56218861404E-05 +2.46459389333E-03 -1.64322085600E-01 +3.06562512210E-01
4.41500000000E+09 -3.72416603895E-01 +1.54176460540E-01 +2.60057099493E-04 +2.39453457128E-03 +2.60211904059E-04 +2.31074984397E-03 -1.55661301947E-01 +3.20573291529E-01
4.42000000000E+09 -3.66274286680E-01 +1.75171727166E-01 +2.65351947698E-04 +2.39379972913E-03 +3.81380927023E-04 +2.30702979279E-03 -1.46585636109E-01 +3.35307253478E-01
4.42500000000E+09 -3.61066904712E-01 +1.96410906799E-01 +1.01488899716E-03 +2.50918163100E-03 +1.00770509720E-03 +2.44912729854E-03 -1.36527715892E-01 +3.48729492458E-01
4.43000000000E+09 -3.57405418540E-01 +2.18268814575E-01 +1.41135641140E-03 +2.08710311159E-03 +1.44496179942E-03 +2.03409585166E-03 -1.27932921476E-01 +3.61996772323E-01
4.43500000000E+09 -3.54387070000E-01 +2.38774784349E-01 +1.59143774074E-03 +1.64086184313E-03 +1.49643934950E-03 +1.56260332052E-03 -1.17758519445E-01 +3.75263423741E-01
4.44000000000E+09 -3.52184024600E-01 +2.57257819072E-01 +1.51152258733E-03 +1.40078132993E-03 +1.47712993038E-03 +1.35819453352E-03 -1.07714710960E-01 +3.87118664135E-01
4.44500000000E+09 -3.50151700790E-01 +2.73227164219E-01 +1.53923744640E-03 +1.29659982211E-03 +1.55479040767E-03 +1.19192077463E-03 -9.74158677596E-02 +3.98648010318E-01
4.45000000000E+09 -3.47635392891E-01 +2.87231571003E-01 +1.59435620764E-03 +1.47840776150E-03 +1.56749860294E-03 +1.40795000793E-03 -8.65723848576E-02 +4.09396992580E-01
4.45500000000E+09 -3.43045657246E-01 +3.00212224916E-01 +2.35210703246E-03 +1.35582378323E-03 +2.35198073579E-03 +1.31255421390E-03 -7.57039379056E-02 +4.19668303184E-01
4.46000000000E+09 -3.36239693551E-01 +3.12445191299E-01 +2.61653749053E-03 +2.08170222510E-04 +2.54434775557E-03 +1.17452023883E-04 -6.46423470945E-02 +4.29750361345E-01
4.46500000000E+09 -3.27074795416E-01 +3.25494357204E-01 +2.02411608298E-03 -9.57493427918E-05 +1.96193220115E-03 -1.46238110390E-04 -5.31241277487E-02 +4.38962974251E-01
4.47000000000E+09 -3.16490701061E-01 +3.39508619568E-01 +1.68814246211E-03 -3.19953760856E-04 +1.62074387106E-03 -3.23359106551E-04 -4.24351144680E-02 +4.48247809357E-01
4.47500000000E+09 -3.04307438191E-01 +3.56083030496E-01 +1.65969997458E-03 +7.09017108940E-05 +1.62441891228E-03 +4.01593257062E-05 -3.07696914229E-02 +4.57649818262E-01
4.48000000000E+09 -2.92042011063E-01 +3.73366248714E-01 +2.08996232725E-03 -6.50349646484E-05 +1.96345562308E-03 -1.01836101765E-04 -1.92035900046E-02 +4.65642702634E-01
4.48500000000E+09 -2.80684757652E-01 +3.91000828866E-01 +2.17342455587E-03 -6.47130359162E-04 +2.09619581967E-03 -7.62086066346E-04 -8.03505530717E-03 +4.73666760219E-01
4.49000000000E+09 -2.71696679195E-01 +4.08469934518E-01 +2.15481547278E-03 -1.14409292028E-03 +2.04421977683E-03 -1.10501220668E-03 +3.91028483948E-03 +4.81251267498E-01
4.49500000000E+09 -2.64053735022E-01 +4.25291997525E-01 +1.44247501896E-03 -1.72364856661E-03 +1.39530530487E-03 -1.64701282919E-03 +1.48613410580E-02 +4.88149953467E-01
4.50000000000E+09 -2.57739017588E-01 +4.39749478543E-01 +9.77466025365E-04 -1.49538539578E-03 +9.33768265650E-04 -1.45430288369E-03 +2.63978365941E-02 +4.95053682334E-01
4.50500000000E+09 -2.52632010796E-01 +4.51939196943E-01 +9.32870202093E-04 -1.44924145149E-03 +9.02629734102E-04 -1.33828839538E-03 +3.78894339603E-02 +5.01264664998E-01
4.51000000000E+09 -2.46961002627E-01 +4.62298153736E-01 +8.41792289001E-04 -1.55344937235E-03 +8.27631511999E-04 -1.46656477844E-03 +4.93058237615E-02 +5.07147700724E-01
4.51500000000E+09 -2.39027417860E-01 +4.70247934542E-01 +6.82727173722E-04 -1.60022817426E-03 +6.94564029677E-04 -1.61011613896E-03 +6.07026914546E-02 +5.12955218646E-01
4.52000000000E+09 -2.30140809784E-01 +4.76859958049E-01 +3.07361541741E-04 -1.72672794332E-03 +3.15219288984E-04 -1.67461242920E-03 +7.26962803412E-02 +5.18081620973E-01
4.52500000000E+09 -2.18772809675E-01 +4.84168180531E-01 +1.75100263747E-04 -1.49710799925E-03 +1.23977706081E-04 -1.41340601867E-03 +8.39991709484E-02 +5.22284744444E-01
4.53000000000E+09 -2.05668592985E-01 +4.91896566824E-01 +2.76041039998E-04 -1.54792469115E-03 +2.76808956861E-04 -1.53039286397E-03 +9.56447825635E-02 +5.26439653882E-01
4.53500000000E+09 -1.90813863510E-01 +5.01451714286E-01 -2.48811924755E-05 -1.79398433301E-03 -5.95071543398E-06 -1.76584029717E-03 +1.06950002049E-01 +5.30247856032E-01
4.54000000000E+09 -1.75599544673E-01 +5.11660991331E-01 -4.05748594865E-04 -2.04925214430E-03 -3.75039665524E-04 -1.99280975828E-03 +1.18632158190E-01 +5.33697115381E-01
4.54500000000E+09 -1.60922855169E-01 +5.22836118456E-01 -1.10077620227E-03 -1.58849611618E-03 -1.09863463978E-03 -1.55870512656E-03 +1.29483255902E-01 +5.37209063014E-01
4.55000000000E+09 -1.48100073070E-01 +5.33454407693E-01 -1.19310726386E-03 -1.11443672215E-03 -1.12916696606E-03 -1.03963511431E-03 +1.41192511995E-01 +5.40867047221E-01
4.55500000000E+09 -1.37399719886E-01 +5.43945358007E-01 -8.72170920912E-04 -7.94909098256E-04 -8.58796823630E-04 -6.89076661158E-04 +1.52249572784E-01 +5.43562451747E-01
4.56000000000E+09 -1.28096068348E-01 +5.53416942579E-01 -7.43592378672E-04 -9.67361575384E-04 -6.62170822201E-04 -9.11059417426E-04 +1.63049717814E-01 +5.46498048396E-01
4.56500000000E+09 -1.19282930435E-01 +5.61305964079E-01 -9.54418858637E-04 -1.17346495756E-03 -9.04937179254E-04 -1.10330712269E-03 +1.73615435874E-01 +5.48919575195E-01
4.57000000000E+09 -1.10440471729E-01 +5.67229967045E-01 -1.41379189922E-03 -1.03625982128E-03 -1.40245243636E-03 -9.82643649989E-04 +1.84298688365E-01 +5.51193943187E-01
