# Hz S RI R 50
! CMT, C1220, 16058040, 17.2.0/1
! Date: 15/08/2018 12:21:51
! Data: Format (Calibration Info)
! Freq                      S11: Re/Im (F2)                       S21: Re/Im (F2)                       S12: Re/Im (F2)                       S22: Re/Im (F2)            
4.00000000000E+09 +6.55072703348E-01 -3.52771201344E-01 +8.09414598918E-05 -3.82583119808E-04 +1.42612307000E-04 -3.73357560804E-04 +7.43059714922E-01 -3.23868454117E-01
4.00500000000E+09 +6.47376720883E-01 -3.58971048410E-01 +1.07400137607E-04 -2.78134995828E-04 +1.18924784686E-04 -3.13787642205E-04 +7.32530531408E-01 -3.34687192891E-01
4.01000000000E+09 +6.38708866035E-01 -3.65455161700E-01 +1.97249935856E-04 -4.32813084118E-04 +2.01551721276E-04 -4.32323690819E-04 +7.21644912067E-01 -3.45568155184E-01
4.01500000000E+09 +6.28466760179E-01 -3.72453356914E-01 +1.84499954002E-04 -5.71470721946E-04 +1.72511821592E-04 -5.59567995045E-04 +7.10596606932E-01 -3.55822962956E-01
4.02000000000E+09 +6.17904007767E-01 -3.80531628377E-01 -1.29253367066E-04 -6.49426785116E-04 -1.36352772342E-04 -6.39782762589E-04 +6.98966628635E-01 -3.65810026363E-01
4.02500000000E+09 +6.06475053051E-01 -3.90055167500E-01 -2.57735976076E-04 -2.49784211210E-04 -2.75698278445E-04 -2.48857985075E-04 +6.86927495308E-01 -3.75671447117E-01
4.03000000000E+09 +5.95299986475E-01 -4.00286983274E-01 -1.15069290891E-05 -2.65685626067E-04 +1.18405905900E-05 -2.90951961109E-04 +6.74280721434E-01 -3.85229736498E-01
4.03500000000E+09 +5.83938235026E-01 -4.11327373132E-01 +9.05470253376E-05 -3.58849810083E-04 +1.22763251117E-04 -4.20484799976E-04 +6.61248760136E-01 -3.95045782732E-01
4.04000000000E+09 +5.72965876490E-01 -4.22114112985E-01 -4.98576911269E-06 -5.90964558465E-04 +1.24071175147E-04 -5.99367947089E-04 +6.48014441827E-01 -4.05087403846E-01
4.04500000000E+09 +5.62203489345E-01 -4.32108737790E-01 -2.80807291727E-04 -7.55219906602E-04 -2.57038733721E-04 -8.07265483817E-04 +6.34047495914E-01 -4.14712707493E-01
4.05000000000E+09 +5.51095321352E-01 -4.40518046201E-01 -5.77509466702E-04 -4.88256250673E-04 -5.68855182220E-04 -5.29793372997E-04 +6.20052179180E-01 -4.23430049441E-01
4.05500000000E+09 +5.40010555784E-01 -4.46579862287E-01 -4.33876165796E-04 -3.38777171448E-04 -4.74824624004E-04 -3.95763320240E-04 +6.05758490289E-01 -4.31742535801E-01
4.06000000000E+09 +5.28561910344E-01 -4.51645153658E-01 -4.73589802310E-04 -2.42542969727E-04 -5.52978295292E-04 -2.57393575463E-04 +5.91153998407E-01 -4.39753157795E-01
4.06500000000E+09 +5.16199487252E-01 -4.55923147144E-01 -3.45382735654E-04 -2.26381812616E-04 -3.35656761771E-04 -2.81211479474E-04 +5.75366331613E-01 -4.47304252783E-01
4.07000000000E+09 +5.02322756676E-01 -4.60500463398E-01 -4.83332517622E-04 -4.24621783510E-04 -4.91667042126E-04 -4.41931004539E-04 +5.59696826774E-01 -4.54523640428E-01
4.07500000000E+09 +4.86860171416E-01 -4.65032421429E-01 -5.86796537409E-04 -1.25053918348E-04 -5.90109025508E-04 -1.93011079442E-04 +5.43451803915E-01 -4.62200426783E-01
4.08000000000E+09 +4.70359084291E-01 -4.70570231441E-01 -5.66169643366E-04 -2.11566589593E-04 -5.72730891718E-04 -1.84066031925E-04 +5.27061696911E-01 -4.68902199266E-01
4.08500000000E+09 +4.52807673160E-01 -4.76289895162E-01 -7.52329371078E-04 -1.17229434248E-04 -7.79592770915E-04 -1.72360896242E-04 +5.10787059361E-01 -4.76367757850E-01
4.09000000000E+09 +4.35960904921E-01 -4.82519065389E-01 -7.44166400500E-04 +5.70289747104E-05 -7.52982416726E-04 +3.31939874555E-05 +4.92902143241E-01 -4.82116253688E-01
4.09500000000E+09 +4.19177764717E-01 -4.89761463976E-01 -6.87096732223E-04 +2.99587486252E-04 -7.07449701335E-04 +3.27413746315E-04 +4.76128210186E-01 -4.87180967141E-01
4.10000000000E+09 +4.01988471567E-01 -4.96375256621E-01 -5.08365819042E-04 +3.24740419574E-04 -5.64499530736E-04 +2.73035641363E-04 +4.57348383676E-01 -4.92589121117E-01
4.10500000000E+09 +3.85472358386E-01 -5.01156537797E-01 -3.62063872653E-04 +5.54520910811E-04 -3.92486390332E-04 +5.24104792776E-04 +4.38071618543E-01 -4.96205716002E-01
4.11000000000E+09 +3.69208106256E-01 -5.04424929315E-01 -1.01776241841E-04 +2.96849271546E-04 -1.09090992948E-04 +3.08424534592E-04 +4.19171339543E-01 -4.99832861980E-01
4.11500000000E+09 +3.53470715929E-01 -5.05935847527E-01 -1.80559273588E-05 +7.44559987858E-06 -5.01358869927E-06 +1.29558736236E-05 +3.99935304748E-01 -5.03618186388E-01
4.12000000000E+09 +3.37574261571E-01 -5.07219939456E-01 -4.03173174468E-04 -2.22166344555E-04 -3.80213392374E-04 -2.27403113468E-04 +3.80142310034E-01 -5.06926022284E-01
4.12500000000E+09 +3.19862857383E-01 -5.07842371270E-01 -8.09523149627E-04 -7.16889826000E-05 -7.92751142367E-04 -8.65024235297E-05 +3.59365101543E-01 -5.08989732069E-01
4.13000000000E+09 +3.01551678556E-01 -5.08459728841E-01 -9.44782708770E-04 +5.18127471267E-04 -9.56766325165E-04 +5.66929907153E-04 +3.38805299030E-01 -5.09817232618E-01
4.13500000000E+09 +2.82325087597E-01 -5.10165703125E-01 -4.27283674141E-04 +7.95609330298E-04 -4.78356791461E-04 +8.24664335640E-04 +3.18196683614E-01 -5.09755360216E-01
4.14000000000E+09 +2.62061868692E-01 -5.12907763694E-01 -1.28970301836E-04 +6.52729677918E-04 -1.73403308060E-04 +6.91705729463E-04 +2.97309943429E-01 -5.09369766869E-01
4.14500000000E+09 +2.41765833599E-01 -5.17063367342E-01 -1.03696985364E-04 +5.96189347333E-04 -8.33790643997E-05 +5.93849307874E-04 +2.76606328504E-01 -5.08187245727E-01
4.15000000000E+09 +2.20649098878E-01 -5.21568960858E-01 +5.51200781722E-05 +4.83886946986E-04 +7.37870793862E-05 +5.26338864069E-04 +2.56397521602E-01 -5.07212781776E-01
4.15500000000E+09 +2.00588662061E-01 -5.25167447263E-01 -9.54798955902E-05 +8.91347687624E-05 -1.09831371167E-04 +7.68283802793E-05 +2.35110188995E-01 -5.04853226184E-01
4.16000000000E+09 +1.82065444786E-01 -5.27847362908E-01 -5.22697615483E-04 +1.98011906938E-04 -5.33409573548E-04 +2.01419038608E-04 +2.14434441557E-01 -5.00651200504E-01
4.16500000000E+09 +1.64441794886E-01 -5.28655646400E-01 -6.66550173442E-04 +6.86393200334E-04 -6.80977501192E-04 +6.78718045992E-04 +1.93878182847E-01 -4.96142430919E-01
4.17000000000E+09 +1.48784929870E-01 -5.27410183612E-01 -5.05183444611E-04 +8.50571301299E-04 -5.19884188624E-04 +8.52269402113E-04 +1.73126152522E-01 -4.90736628808E-01
4.17500000000E+09 +1.33395708949E-01 -5.25002920420E-01 -2.66998630411E-04 +1.26509131693E-03 -3.03634703978E-04 +1.29706211791E-03 +1.52164601815E-01 -4.84725510400E-01
4.18000000000E+09 +1.17497605929E-01 -5.21094675722E-01 +1.48278940586E-04 +1.29586067746E-03 +1.12531227954E-04 +1.39684835899E-03 +1.31427068666E-01 -4.77411053896E-01
4.18500000000E+09 +1.00528580023E-01 -5.16402565330E-01 +8.47184640985E-04 +1.30302256404E-03 +8.63733992078E-04 +1.39871332469E-03 +1.11761611379E-01 -4.70226851482E-01
4.19000000000E+09 +8.22907292193E-02 -5.10592568145E-01 +7.99387108537E-04 +4.07308267849E-04 +8.06493031826E-04 +4.53555339319E-04 +9.07663798860E-02 -4.62641195094E-01
4.19500000000E+09 +6.35807572873E-02 -5.04473143342E-01 +2.83490635614E-04 +3.70104913460E-04 +2.87790383410E-04 +3.71693017551E-04 +7.03824947182E-02 -4.53034138395E-01
4.20000000000E+09 +4.43613983119E-02 -4.99003160234E-01 +3.31937107758E-04 +7.05620341052E-04 +4.02574252093E-04 +7.58009821716E-04 +5.05636939606E-02 -4.42696514695E-01
4.20500000000E+09 +2.51886558189E-02 -4.94152925163E-01 +1.73559236530E-04 +4.79641779703E-04 +1.50540249315E-04 +4.87463435632E-04 +3.04302663574E-02 -4.31654543212E-01
4.21000000000E+09 +6.34079616241E-03 -4.89380899905E-01 +7.80808929529E-05 +1.20398920368E-03 +1.38704040934E-04 +1.31469444016E-03 +1.10041724883E-02 -4.19373355307E-01
4.21500000000E+09 -1.18263110006E-02 -4.84107189946E-01 +9.09166460420E-04 +1.55029719111E-03 +9.76749147233E-04 +1.57207763591E-03 -7.41201385088E-03 -4.07423097945E-01
4.22000000000E+09 -2.93287436315E-02 -4.77478321039E-01 +1.62961105326E-03 +1.15819187093E-03 +1.72684629364E-03 +1.10300963789E-03 -2.57002023316E-02 -3.94986417560E-01
4.22500000000E+09 -4.50994168794E-02 -4.68741373879E-01 +1.97388861131E-03 +3.88085919895E-04 +1.98378589315E-03 +3.80231393166E-04 -4.36353245802E-02 -3.81020434303E-01
4.23000000000E+09 -6.01010972972E-02 -4.58575584921E-01 +1.48069584091E-03 -3.92238637410E-04 +1.53009367539E-03 -4.30476847442E-04 -6.05371164586E-02 -3.66230155508E-01
4.23500000000E+09 -7.54806419962E-02 -4.46878244236E-01 +9.09544454618E-04 -9.76501062313E-05 +9.27502493032E-04 -1.52068862031E-04 -7.73552552218E-02 -3.50233959883E-01
4.24000000000E+09 -9.15547997768E-02 -4.33484518942E-01 +9.40363737913E-04 +2.25131200204E-04 +9.04042308710E-04 +1.98929672465E-04 -9.25871928183E-02 -3.33215379958E-01
4.24500000000E+09 -1.08582093977E-01 -4.20113912367E-01 +1.54498825774E-03 +4.38333903108E-04 +1.57867066378E-03 +4.32969447586E-04 -1.07876355389E-01 -3.15789519175E-01
4.25000000000E+09 -1.27724466303E-01 -4.06557390799E-01 +2.06492178905E-03 +3.16406637998E-05 +2.08886318799E-03 -2.73219270773E-05 -1.21482861319E-01 -2.97504534686E-01
4.25500000000E+09 -1.47459384880E-01 -3.92882912613E-01 +2.17409758734E-03 -9.03006887981E-04 +2.16806313071E-03 -9.82848654899E-04 -1.33750650943E-01 -2.80167137332E-01
4.26000000000E+09 -1.67881289391E-01 -3.80180441451E-01 +1.72324707416E-03 -1.59036093156E-03 +1.65572296193E-03 -1.52049558435E-03 -1.46355840981E-01 -2.63155775078E-01
4.26500000000E+09 -1.87714232549E-01 -3.67550952970E-01 +1.22194439024E-03 -1.63083148045E-03 +1.17535842061E-03 -1.63159107310E-03 -1.58528987992E-01 -2.44545163493E-01
4.27000000000E+09 -2.05131920587E-01 -3.55666871590E-01 +8.76190570797E-04 -1.51153844409E-03 +8.82566665824E-04 -1.56489959856E-03 -1.70702715468E-01 -2.25389857240E-01
4.27500000000E+09 -2.21597674865E-01 -3.44085957234E-01 +7.78591517914E-04 -1.67969268293E-03 +7.95970414515E-04 -1.65344877907E-03 -1.81859136508E-01 -2.04649842891E-01
4.28000000000E+09 -2.35770282557E-01 -3.30924431516E-01 +6.39166240879E-04 -1.61581681438E-03 +5.89890242141E-04 -1.62047489727E-03 -1.91801584970E-01 -1.84081451182E-01
4.28500000000E+09 -2.47420548807E-01 -3.16425175918E-01 +6.21128009520E-04 -1.56579668651E-03 +6.01475260084E-04 -1.59693222410E-03 -2.00275622251E-01 -1.63185486289E-01
4.29000000000E+09 -2.57820167986E-01 -3.01044913684E-01 +6.46817451298E-04 -2.02890368257E-03 +6.17163099682E-04 -2.01581212711E-03 -2.07977530487E-01 -1.43601366887E-01
4.29500000000E+09 -2.68310518212E-01 -2.83636516112E-01 +1.44306966643E-04 -2.63209247709E-03 +1.41350883380E-04 -2.62361274261E-03 -2.15468572512E-01 -1.24225735484E-01
4.30000000000E+09 -2.79434485559E-01 -2.64768848080E-01 -8.35091815849E-04 -2.34689339847E-03 -8.42541533170E-04 -2.37070525486E-03 -2.21785598768E-01 -1.03845308527E-01
4.30500000000E+09 -2.91339619438E-01 -2.44456418436E-01 -8.81089242171E-04 -1.94858933544E-03 -8.88944497948E-04 -1.96986712933E-03 -2.27387730512E-01 -8.24847838540E-02
4.31000000000E+09 -3.03466703626E-01 -2.23717208496E-01 -1.16887548195E-03 -2.03637615529E-03 -1.15096594364E-03 -2.04475912614E-03 -2.30613729100E-01 -6.10582461346E-02
4.31500000000E+09 -3.16494148816E-01 -2.04124424388E-01 -1.59683591077E-03 -1.70523044739E-03 -1.61852359046E-03 -1.70218969161E-03 -2.33298028571E-01 -3.99205131505E-02
4.32000000000E+09 -3.28918650239E-01 -1.85359471560E-01 -1.68898223211E-03 -1.14546510584E-03 -1.70532813138E-03 -1.17238241393E-03 -2.35486338839E-01 -1.87936435604E-02
4.32500000000E+09 -3.40667634788E-01 -1.68580030196E-01 -1.39324981531E-03 -1.10283555768E-03 -1.40070187065E-03 -1.11177572941E-03 -2.36941095338E-01 +1.96943695161E-03
4.33000000000E+09 -3.51263601196E-01 -1.51778741215E-01 -1.77967749402E-03 -1.26737780497E-03 -1.80632993935E-03 -1.28759663451E-03 -2.37645794904E-01 +2.27289113041E-02
4.33500000000E+09 -3.58393222045E-01 -1.35157769271E-01 -1.79496266015E-03 -1.07478925445E-03 -1.78345435987E-03 -1.07553896496E-03 -2.37460838043E-01 +4.35850507551E-02
4.34000000000E+09 -3.63288847251E-01 -1.19034954212E-01 -2.65543039251E-03 -1.19004863605E-03 -2.72070470954E-03 -1.16563128094E-03 -2.36527725671E-01 +6.36658107000E-02
4.34500000000E+09 -3.66409438968E-01 -1.01426831895E-01 -3.03505997748E-03 -3.28477135756E-05 -3.03012500210E-03 +1.52773542236E-05 -2.34729089593E-01 +8.38199235322E-02
4.35000000000E+09 -3.67659267620E-01 -8.28754462384E-02 -2.53172618345E-03 +8.28318470749E-04 -2.47911514193E-03 +8.44312933862E-04 -2.33179086189E-01 +1.02652779838E-01
4.35500000000E+09 -3.69649093820E-01 -6.21166994161E-02 -1.98304348168E-03 +7.40511092186E-04 -1.97290362293E-03 +7.38454606009E-04 -2.30560741132E-01 +1.22277734708E-01
4.36000000000E+09 -3.71519915673E-01 -3.93834286122E-02 -1.88319144953E-03 +9.04830432036E-04 -1.92083654346E-03 +9.51163791280E-04 -2.26939714571E-01 +1.40309910246E-01
4.36500000000E+09 -3.73957273898E-01 -1.60719875743E-02 -1.96384584579E-03 +6.34400674784E-04 -1.93675574670E-03 +6.73124273533E-04 -2.23395399868E-01 +1.57917223746E-01
4.37000000000E+09 -3.78112638154E-01 +7.61420185195E-03 -2.42553348641E-03 +1.27405385742E-03 -2.40333221208E-03 +1.31030819940E-03 -2.19201648730E-01 +1.75879530202E-01
4.37500000000E+09 -3.81644392095E-01 +2.98369373340E-02 -1.98821989173E-03 +1.76986554880E-03 -1.91341638246E-03 +1.84973697829E-03 -2.14144925145E-01 +1.93448944264E-01
4.38000000000E+09 -3.86486514659E-01 +4.99087931146E-02 -1.57602763760E-03 +2.16107919129E-03 -1.58601834549E-03 +2.18087565044E-03 -2.08008289199E-01 +2.10987407164E-01
4.38500000000E+09 -3.90271754353E-01 +6.80194286070E-02 -1.03352359720E-03 +2.46126383190E-03 -9.54309502975E-04 +2.46384980186E-03 -2.02282582509E-01 +2.28280967541E-01
4.39000000000E+09 -3.92790541588E-01 +8.44006927907E-02 -5.75584428220E-04 +2.31948541880E-03 -5.29538253174E-04 +2.24781967395E-03 -1.95463460787E-01 +2.45716221999E-01
4.39500000000E+09 -3.93376998932E-01 +9.98441708837E-02 -4.61217295654E-04 +2.20837919762E-03 -3.94448154657E-04 +2.21587026261E-03 -1.88533413289E-01 +2.61542142532E-01
4.40000000000E+09 -3.90743375019E-01 +1.15006040930E-01 -1.40050620563E-04 +2.26513427752E-03 -1.42758450042E-04 +2.26186622289E-03 -1.81148537176E-01 +2.77853280607E-01
4.40500000000E+09 -3.85994956304E-01 +1.30508459198E-01 -7.09147395164E-05 +2.41408705881E-03 +3.90646259863E-06 +2.38200272630E-03 -1.72571401760E-01 +2.93177933940E-01
4.41000000000E+09 -3.79982683994E-01 +1.47272354366E-01 +6.05129078754E-04 +2.43933146211E-03 +6.07928188128E-04 +2.40268468862E-03 -1.63633246560E-01 +3.07444427513E-01
4.41500000000E+09 -3.73372634146E-01 +1.66318847651E-01 +7.18220781572E-04 +2.26208307430E-03 +8.14081686868E-04 +2.21111513195E-03 -1.54709758274E-01 +3.21690651758E-01
4.42000000000E+09 -3.66692401681E-01 +1.87205160043E-01 +8.55756555361E-04 +2.13143275956E-03 +9.00692417548E-04 +2.01095104601E-03 -1.45052717438E-01 +3.36325065771E-01
4.42500000000E+09 -3.60904223493E-01 +2.08835543897E-01 +1.29920693684E-03 +2.34473760550E-03 +1.33557560435E-03 +2.23199414524E-03 -1.34856749545E-01 +3.49409443424E-01
4.43000000000E+09 -3.56792580054E-01 +2.30246889435E-01 +1.82275280363E-03 +1.96622283560E-03 +1.81381424762E-03 +1.83326750156E-03 -1.25883411469E-01 +3.62443472851E-01
4.43500000000E+09 -3.53558230727E-01 +2.50965190149E-01 +2.09655461287E-03 +1.69054710578E-03 +2.13119097033E-03 +1.63391772221E-03 -1.15417149677E-01 +3.75094185280E-01
4.44000000000E+09 -3.50670671593E-01 +2.69814905354E-01 +2.54211279323E-03 +1.05123401783E-03 +2.46028250896E-03 +9.30170091375E-04 -1.05800500385E-01 +3.86277241761E-01
4.44500000000E+09 -3.47578155637E-01 +2.85713734577E-01 +2.24252326802E-03 +2.84659617992E-04 +2.10934460429E-03 +1.85480786481E-04 -9.60163160268E-02 +3.97786307548E-01
4.45000000000E+09 -3.44516260400E-01 +2.99263192505E-01 +1.64164121532E-03 +6.42009592232E-04 +1.53329506493E-03 +6.16065751251E-04 -8.55837204705E-02 +4.08569727365E-01
4.45500000000E+09 -3.39410372687E-01 +3.12355906361E-01 +2.49287834578E-03 +7.97380921300E-04 +2.40119404548E-03 +6.95925083895E-04 -7.48396905969E-02 +4.19226009992E-01
4.46000000000E+09 -3.31915573880E-01 +3.24282907888E-01 +2.63568785282E-03 -4.08093956292E-04 +2.57928677756E-03 -4.28129660533E-04 -6.37053541388E-02 +4.29237645621E-01
4.46500000000E+09 -3.22405392958E-01 +3.36925559038E-01 +2.27611345969E-03 -5.88895220934E-04 +2.19882711626E-03 -5.81949065173E-04 -5.23940381096E-02 +4.38434212663E-01
4.47000000000E+09 -3.11176287254E-01 +3.51002608605E-01 +1.75848424889E-03 -1.03389752398E-03 +1.74125828855E-03 -9.98843043009E-04 -4.18797013364E-02 +4.47897844388E-01
4.47500000000E+09 -2.98863405511E-01 +3.67251490601E-01 +1.51955393192E-03 -7.09616461731E-04 +1.47891277867E-03 -6.24802418198E-04 -3.02389557602E-02 +4.57489283731E-01
4.48000000000E+09 -2.86017925392E-01 +3.84783093641E-01 +1.83507987644E-03 -5.87527849555E-04 +1.71517991092E-03 -5.85546898552E-04 -1.85044373157E-02 +4.65759766342E-01
4.48500000000E+09 -2.73620876218E-01 +4.02364029121E-01 +1.95242629133E-03 -1.18505130743E-03 +1.83103194363E-03 -1.13709965601E-03 -7.03344018035E-03 +4.74207187141E-01
4.49000000000E+09 -2.63855905768E-01 +4.19059929504E-01 +1.93627493109E-03 -1.54099282385E-03 +1.87097310927E-03 -1.47092963003E-03 +5.20044576411E-03 +4.81869075044E-01
4.49500000000E+09 -2.55915711689E-01 +4.35252530100E-01 +1.22770043596E-03 -2.02654621986E-03 +1.15503951615E-03 -1.95484380355E-03 +1.66158414076E-02 +4.88553232582E-01
4.50000000000E+09 -2.49327082018E-01 +4.48813896253E-01 +8.14765217715E-04 -1.98550339890E-03 +8.44135932920E-04 -1.83600511693E-03 +2.83088177913E-02 +4.95062352233E-01
4.50500000000E+09 -2.44573194254E-01 +4.60636697902E-01 +6.17769091909E-04 -1.83094344665E-03 +6.54504981961E-04 -1.71138791032E-03 +4.00052338068E-02 +5.01085207331E-01
4.51000000000E+09 -2.38653256359E-01 +4.71003550823E-01 +5.54058028608E-04 -1.94443151774E-03 +6.30818149804E-04 -1.85069353955E-03 +5.14461437195E-02 +5.06579369454E-01
4.51500000000E+09 -2.29965729743E-01 +4.78923065464E-01 +4.14191775653E-04 -1.93747981824E-03 +4.84064286025E-04 -1.88856373878E-03 +6.26516297321E-02 +5.12158681155E-01
4.52000000000E+09 -2.20315171661E-01 +4.84882551756E-01 +5.60073389596E-05 -2.22876796139E-03 +1.25929145046E-04 -2.17908801159E-03 +7.44400407869E-02 +5.17262532545E-01
4.52500000000E+09 -2.08585782958E-01 +4.91284836082E-01 -3.45091190630E-04 -2.04636817984E-03 -3.79513666679E-04 -1.95192154920E-03 +8.58034592518E-02 +5.21491798563E-01
4.53000000000E+09 -1.95578508079E-01 +4.98323774587E-01 -3.82543862360E-04 -1.84222674268E-03 -3.40691040363E-04 -1.78728934602E-03 +9.73269376864E-02 +5.25418916791E-01
4.53500000000E+09 -1.80389614844E-01 +5.07801030485E-01 -7.70733289064E-04 -2.02483097540E-03 -7.02438201229E-04 -1.98397368201E-03 +1.08544346280E-01 +5.29230757482E-01
4.54000000000E+09 -1.64801921217E-01 +5.17187086604E-01 -1.02967306892E-03 -1.93276396330E-03 -9.67568628665E-04 -1.86518728705E-03 +1.20146457953E-01 +5.32415889050E-01
4.54500000000E+09 -1.50592522307E-01 +5.27898739831E-01 -1.49348919780E-03 -1.66583516689E-03 -1.47000446596E-03 -1.61111325419E-03 +1.30632711338E-01 +5.35883785019E-01
4.55000000000E+09 -1.37249515670E-01 +5.38355868116E-01 -1.85439897575E-03 -1.14664392650E-03 -1.82699671083E-03 -1.14979266418E-03 +1.42268850278E-01 +5.39705601687E-01
4.55500000000E+09 -1.26521141363E-01 +5.47998031381E-01 -1.55692112677E-03 -5.04018982015E-04 -1.50741062518E-03 -5.23779090529E-04 +1.53476656543E-01 +5.42436343918E-01
4.56000000000E+09 -1.17365680946E-01 +5.57166016585E-01 -1.24878068409E-03 -7.07458903008E-04 -1.18752319815E-03 -6.80323381832E-04 +1.64255752823E-01 +5.45519486193E-01
4.56500000000E+09 -1.08646007512E-01 +5.64871889008E-01 -1.32824605517E-03 -8.01130543436E-04 -1.41810238415E-03 -7.15348573218E-04 +1.74762124054E-01 +5.47807606711E-01
4.57000000000E+09 -9.93329084057E-02 +5.70254483762E-01 -1.62711760859E-03 -6.42909146167E-04 -1.64847319886E-03 -5.43697758106E-04 +1.85506578557E-01 +5.50289387197E-01
