# Hz S RI R 50
! CMT, C1220, 16058040, 17.2.0/1
! Date: 15/08/2018 12:23:56
! Data: Format (Calibration Info)
! Freq                      S11: Re/Im (F2)                       S21: Re/Im (F2)                       S12: Re/Im (F2)                       S22: Re/Im (F2)            
4.00000000000E+09 +6.56278340727E-01 -3.52464094631E-01 +5.21845959427E-04 -3.35099049085E-04 +5.90213352752E-04 -3.24346634150E-04 +7.41712298828E-01 -3.23547026625E-01
4.00500000000E+09 +6.48364518436E-01 -3.58972271998E-01 +6.11074305206E-04 -2.87409491724E-04 +6.88049436644E-04 -2.50381106041E-04 +7.31102177796E-01 -3.33898997861E-01
4.01000000000E+09 +6.39452994152E-01 -3.65536230555E-01 +8.01955611327E-04 -6.81338880951E-04 +8.46525933748E-04 -6.22204280104E-04 +7.20419072448E-01 -3.44571969430E-01
4.01500000000E+09 +6.29267259767E-01 -3.72542657107E-01 +6.51190262098E-04 -9.42254595110E-04 +6.68585750553E-04 -9.26332820267E-04 +7.09091027006E-01 -3.54625381640E-01
4.02000000000E+09 +6.18425905284E-01 -3.80553234298E-01 +2.35417955514E-04 -1.04534382198E-03 +2.47861704915E-04 -1.08305013503E-03 +6.97520089299E-01 -3.64500866738E-01
4.02500000000E+09 +6.06985981903E-01 -3.89721787747E-01 -1.00336099351E-04 -6.51552864106E-04 -1.03926164295E-04 -7.22863888930E-04 +6.85436081824E-01 -3.74118675900E-01
4.03000000000E+09 +5.95895675011E-01 -3.99983076876E-01 +2.27562829259E-04 -4.82413755606E-04 +2.24790075249E-04 -4.69309240140E-04 +6.72690842578E-01 -3.83353885755E-01
4.03500000000E+09 +5.85036531450E-01 -4.10920280332E-01 +4.28198766725E-04 -7.41579405011E-04 +4.79559470158E-04 -7.50700560843E-04 +6.60129778449E-01 -3.92722097430E-01
4.04000000000E+09 +5.74137023151E-01 -4.22046863941E-01 +3.64413572341E-04 -1.03466995607E-03 +3.68938144808E-04 -1.05578748529E-03 +6.47022939649E-01 -4.02817661689E-01
4.04500000000E+09 +5.62965834856E-01 -4.32304486253E-01 +1.92147222327E-05 -1.32572194955E-03 +5.13398330332E-05 -1.41344395361E-03 +6.33324946360E-01 -4.12251101565E-01
4.05000000000E+09 +5.51751244895E-01 -4.40503922747E-01 -4.71063238533E-04 -1.18959555683E-03 -4.67797287561E-04 -1.22811841124E-03 +6.19586285417E-01 -4.20915643096E-01
4.05500000000E+09 +5.40599398747E-01 -4.46546846002E-01 -5.02811492976E-04 -8.67707530724E-04 -5.29092788434E-04 -9.67869502585E-04 +6.05420871262E-01 -4.29299795754E-01
4.06000000000E+09 +5.29214638752E-01 -4.51592303266E-01 -6.07456447552E-04 -7.99838521501E-04 -6.94280139590E-04 -8.52564353235E-04 +5.91005330332E-01 -4.37283610310E-01
4.06500000000E+09 +5.16883355635E-01 -4.55601357838E-01 -4.78277603494E-04 -6.81861159374E-04 -4.87634956919E-04 -7.17662479200E-04 +5.75308299145E-01 -4.44966096341E-01
4.07000000000E+09 +5.03310010996E-01 -4.60166622086E-01 -6.09559866507E-04 -8.04599333593E-04 -6.68066619070E-04 -7.74628767956E-04 +5.59397930991E-01 -4.52310121618E-01
4.07500000000E+09 +4.87898944786E-01 -4.65031745211E-01 -6.41333574742E-04 -6.45225713658E-04 -6.63418061600E-04 -6.37750275607E-04 +5.43089354123E-01 -4.59645111620E-01
4.08000000000E+09 +4.71532565880E-01 -4.70516477958E-01 -7.41851837656E-04 -7.78289639506E-04 -7.05936657165E-04 -7.50214250580E-04 +5.27094472648E-01 -4.66416286329E-01
4.08500000000E+09 +4.54013999662E-01 -4.76412578523E-01 -9.55085261727E-04 -6.96757634685E-04 -9.74509654405E-04 -7.51245727397E-04 +5.10722765638E-01 -4.73937506619E-01
4.09000000000E+09 +4.37042876541E-01 -4.82964911974E-01 -1.16458531374E-03 -5.67849642617E-04 -1.15433799991E-03 -6.40344649755E-04 +4.92701488461E-01 -4.79501506358E-01
4.09500000000E+09 +4.20112014674E-01 -4.89931089107E-01 -1.30940662077E-03 -1.99180375511E-04 -1.34550184113E-03 -2.54857142277E-04 +4.75831537598E-01 -4.83988845886E-01
4.10000000000E+09 +4.03210873398E-01 -4.96398696616E-01 -1.26432704157E-03 -2.81318236821E-05 -1.26622912079E-03 -4.67479930967E-06 +4.57540036456E-01 -4.88933723757E-01
4.10500000000E+09 +3.87027696647E-01 -5.01312670623E-01 -1.01335109307E-03 +3.42962321713E-04 -1.02758478589E-03 +3.37900690070E-04 +4.38673408591E-01 -4.92476342962E-01
4.11000000000E+09 +3.70769615048E-01 -5.04763297829E-01 -7.37734979996E-04 +2.08345134171E-04 -7.50232253116E-04 +1.84098298066E-04 +4.20094344252E-01 -4.95804746420E-01
4.11500000000E+09 +3.55249027930E-01 -5.06712594105E-01 -5.97695723591E-04 -4.04734915850E-05 -6.69903601007E-04 -5.22040377599E-05 +4.01760797613E-01 -4.99712587195E-01
4.12000000000E+09 +3.38919952165E-01 -5.07941758399E-01 -9.43492243363E-04 -2.96843303147E-04 -9.63067603323E-04 -2.94921486679E-04 +3.82378732360E-01 -5.03070313827E-01
4.12500000000E+09 +3.21349702666E-01 -5.08680507724E-01 -1.49778928485E-03 -5.71813875084E-06 -1.56271484520E-03 -2.95360177688E-05 +3.62373926541E-01 -5.05443151573E-01
4.13000000000E+09 +3.02789576649E-01 -5.09653752428E-01 -1.54145581155E-03 +6.27718186865E-04 -1.62644390785E-03 +6.60121697949E-04 +3.42240799469E-01 -5.06810376692E-01
4.13500000000E+09 +2.83173946069E-01 -5.11026593616E-01 -1.08207286868E-03 +1.10477243622E-03 -1.13856120646E-03 +1.09446440664E-03 +3.21787733188E-01 -5.06944920600E-01
4.14000000000E+09 +2.62958533145E-01 -5.13520891762E-01 -5.78003885760E-04 +9.42915502293E-04 -6.73761648728E-04 +9.27397518940E-04 +3.01485623659E-01 -5.07185445567E-01
4.14500000000E+09 +2.42824517299E-01 -5.17379436868E-01 -6.15158548318E-04 +9.12084780018E-04 -6.97068476667E-04 +8.82500794645E-04 +2.80649862227E-01 -5.06826695830E-01
4.15000000000E+09 +2.22139237200E-01 -5.21682613421E-01 -4.24489335656E-04 +8.81631303005E-04 -5.05416416868E-04 +9.03151164976E-04 +2.60523557327E-01 -5.06042353497E-01
4.15500000000E+09 +2.02348334489E-01 -5.25525256990E-01 -4.60497855771E-04 +4.44178809300E-04 -4.68078206656E-04 +4.72130258068E-04 +2.39509852536E-01 -5.04248586212E-01
4.16000000000E+09 +1.83988464682E-01 -5.28421992745E-01 -9.31974089625E-04 +5.85803340861E-04 -9.57950354760E-04 +5.59091835678E-04 +2.18669470448E-01 -5.01028057502E-01
4.16500000000E+09 +1.66328963671E-01 -5.29552157608E-01 -9.77092467996E-04 +1.07392021565E-03 -9.85777825495E-04 +1.08557072395E-03 +1.97891262308E-01 -4.97054179113E-01
4.17000000000E+09 +1.50062126943E-01 -5.28224908627E-01 -8.68481356262E-04 +1.23336234125E-03 -9.19719101997E-04 +1.26664119588E-03 +1.76436065628E-01 -4.92149045085E-01
4.17500000000E+09 +1.34792748138E-01 -5.25224924099E-01 -7.16768834618E-04 +1.69734076470E-03 -7.58919422701E-04 +1.76056030378E-03 +1.54828078988E-01 -4.85893838234E-01
4.18000000000E+09 +1.19211036334E-01 -5.21205207364E-01 -3.21891152457E-04 +1.97598268629E-03 -2.97688451842E-04 +2.02121647203E-03 +1.34150665648E-01 -4.78377550183E-01
4.18500000000E+09 +1.02815715178E-01 -5.16519806746E-01 +3.74270968210E-04 +2.01283832504E-03 +3.99310104932E-04 +2.08473985181E-03 +1.14470636122E-01 -4.71563048469E-01
4.19000000000E+09 +8.45307822426E-02 -5.11254431744E-01 +5.44104459892E-04 +1.43819489683E-03 +5.27175452274E-04 +1.46357578291E-03 +9.31786118889E-02 -4.64175193354E-01
4.19500000000E+09 +6.57309317807E-02 -5.05443001277E-01 +2.50387741705E-04 +1.22479039020E-03 +2.65189442286E-04 +1.23750801282E-03 +7.23284322999E-02 -4.54629056684E-01
4.20000000000E+09 +4.61551380250E-02 -5.00306305196E-01 +2.98674359833E-04 +1.65930180452E-03 +3.37813479101E-04 +1.68209787139E-03 +5.26988556601E-02 -4.43870525181E-01
4.20500000000E+09 +2.65497344653E-02 -4.95323009272E-01 +3.95929360596E-04 +1.63254051611E-03 +4.27973467811E-04 +1.70161826993E-03 +3.28111218728E-02 -4.33184434879E-01
4.21000000000E+09 +7.84135607364E-03 -4.90363226483E-01 +6.54864415538E-04 +2.28735062568E-03 +6.69731627295E-04 +2.31692151438E-03 +1.35321234352E-02 -4.21237974386E-01
4.21500000000E+09 -1.05134005078E-02 -4.84781912242E-01 +1.84538433503E-03 +2.40107758884E-03 +1.90865610109E-03 +2.42789920199E-03 -4.92237374665E-03 -4.09425371833E-01
4.22000000000E+09 -2.71748192550E-02 -4.77749049697E-01 +2.37871107029E-03 +1.50970438027E-03 +2.50482531792E-03 +1.53364664549E-03 -2.33911633900E-02 -3.97439414886E-01
4.22500000000E+09 -4.24585144588E-02 -4.69754262805E-01 +2.67010788273E-03 +8.04655545978E-04 +2.72469886815E-03 +7.43608893630E-04 -4.13472355078E-02 -3.83963648156E-01
4.23000000000E+09 -5.77182284058E-02 -4.60102516524E-01 +2.25332740809E-03 +9.29838586947E-05 +2.24719149039E-03 +7.33119138090E-05 -5.83999975156E-02 -3.69908164446E-01
4.23500000000E+09 -7.34173973516E-02 -4.48571484645E-01 +1.91699363537E-03 +2.89447179393E-04 +1.95845722816E-03 +2.63632771144E-04 -7.56334055313E-02 -3.54633707105E-01
4.24000000000E+09 -8.98049308500E-02 -4.35339171740E-01 +1.98798187820E-03 +2.69050197562E-04 +1.98400955470E-03 +2.57772528324E-04 -9.20701556689E-02 -3.38252399633E-01
4.24500000000E+09 -1.06947831625E-01 -4.21341975442E-01 +2.51531087963E-03 +2.74310722420E-04 +2.51633349419E-03 +2.76845335038E-04 -1.08371952224E-01 -3.21257520050E-01
4.25000000000E+09 -1.25580254715E-01 -4.07274920045E-01 +3.00104684206E-03 -5.08108656149E-04 +3.01825791853E-03 -5.10802435484E-04 -1.23326203722E-01 -3.02696990863E-01
4.25500000000E+09 -1.44347420376E-01 -3.94027521749E-01 +2.68477073250E-03 -1.46998858790E-03 +2.69481952702E-03 -1.49580124990E-03 -1.36650123522E-01 -2.84527153748E-01
4.26000000000E+09 -1.64486931517E-01 -3.82091036411E-01 +1.90920255407E-03 -1.78045616471E-03 +1.87562343565E-03 -1.84869622689E-03 -1.50096030810E-01 -2.66785419226E-01
4.26500000000E+09 -1.84437278312E-01 -3.70035131037E-01 +1.70742640844E-03 -1.64210919194E-03 +1.71486646398E-03 -1.66431038605E-03 -1.62627755347E-01 -2.46878871666E-01
4.27000000000E+09 -2.01958026653E-01 -3.58233763299E-01 +1.60700146360E-03 -1.75569986586E-03 +1.59171864929E-03 -1.84254898227E-03 -1.74639089668E-01 -2.26984234535E-01
4.27500000000E+09 -2.18323694054E-01 -3.47086819114E-01 +1.35287553488E-03 -2.34290498087E-03 +1.34423274691E-03 -2.39204988008E-03 -1.85889165578E-01 -2.05744046378E-01
4.28000000000E+09 -2.32742668748E-01 -3.33881094776E-01 +8.44531628699E-04 -2.17185985235E-03 +8.26434035414E-04 -2.23828582056E-03 -1.95604032896E-01 -1.84366399973E-01
4.28500000000E+09 -2.44444954537E-01 -3.19233921201E-01 +9.08749749258E-04 -2.27450077992E-03 +9.21244675683E-04 -2.26017631673E-03 -2.03928756262E-01 -1.63216947323E-01
4.29000000000E+09 -2.54174271306E-01 -3.03567904080E-01 +4.72622539348E-04 -2.56598448088E-03 +4.91148087354E-04 -2.64067036674E-03 -2.11342683819E-01 -1.42830986281E-01
4.29500000000E+09 -2.64280891624E-01 -2.86995023985E-01 +1.15745733061E-04 -2.65588710995E-03 +1.25021247059E-04 -2.68368076824E-03 -2.18013038653E-01 -1.23066854307E-01
4.30000000000E+09 -2.75407995163E-01 -2.68486697714E-01 -5.02156809199E-04 -2.62647200489E-03 -6.07356573046E-04 -2.64216133633E-03 -2.24001391113E-01 -1.02642871850E-01
4.30500000000E+09 -2.87199185830E-01 -2.48686812517E-01 -5.91595311456E-04 -2.23767436456E-03 -5.86349857227E-04 -2.22610666247E-03 -2.28990154197E-01 -8.14645665168E-02
4.31000000000E+09 -2.99930897903E-01 -2.28649844659E-01 -8.04040133848E-04 -2.51658772586E-03 -8.45344581851E-04 -2.52903729080E-03 -2.32118474426E-01 -6.06235442388E-02
4.31500000000E+09 -3.13724298489E-01 -2.08815164151E-01 -1.46944332173E-03 -2.33233210237E-03 -1.48771894497E-03 -2.26493578694E-03 -2.35052691063E-01 -3.96170454078E-02
4.32000000000E+09 -3.25986136303E-01 -1.89828479832E-01 -1.73945220221E-03 -1.76203910871E-03 -1.80046672142E-03 -1.72589101404E-03 -2.37440393619E-01 -1.85795635296E-02
4.32500000000E+09 -3.37433006008E-01 -1.72943677750E-01 -1.44748229561E-03 -1.56264232348E-03 -1.46130688265E-03 -1.52650217555E-03 -2.39162805292E-01 +2.12313980656E-03
4.33000000000E+09 -3.47537338508E-01 -1.56605462771E-01 -1.90516872059E-03 -1.79114239985E-03 -1.93206201360E-03 -1.72186174749E-03 -2.40144504756E-01 +2.32023636524E-02
4.33500000000E+09 -3.54763972858E-01 -1.40980068001E-01 -2.01998172001E-03 -1.37993402729E-03 -2.04909769754E-03 -1.39028016115E-03 -2.40123011023E-01 +4.41899527832E-02
4.34000000000E+09 -3.60210580786E-01 -1.25187966807E-01 -2.66308113789E-03 -1.39862958124E-03 -2.65985062552E-03 -1.22927820884E-03 -2.39703032949E-01 +6.48521258436E-02
4.34500000000E+09 -3.63944223676E-01 -1.08115825532E-01 -2.93203169422E-03 -4.00625497044E-04 -2.89489781183E-03 -3.35378655690E-04 -2.37796107892E-01 +8.58895521961E-02
4.35000000000E+09 -3.65925118214E-01 -8.92506659578E-02 -2.33622993300E-03 +2.53950336860E-04 -2.31022527312E-03 +2.42890749660E-04 -2.35675628798E-01 +1.05348305713E-01
4.35500000000E+09 -3.68278154490E-01 -6.81862998138E-02 -2.19354541108E-03 -2.96933012637E-04 -2.17370091713E-03 -2.54584020325E-04 -2.32518413802E-01 +1.25183704187E-01
4.36000000000E+09 -3.70090648506E-01 -4.51154609353E-02 -2.59593762539E-03 +2.08299419313E-04 -2.59188176358E-03 +2.42689331328E-04 -2.28770734424E-01 +1.43365587402E-01
4.36500000000E+09 -3.72168493534E-01 -2.19169289235E-02 -2.71007086286E-03 +2.70962372612E-04 -2.69074616546E-03 +2.57608014773E-04 -2.24572512795E-01 +1.61770729685E-01
4.37000000000E+09 -3.76215440220E-01 +1.06028824746E-03 -3.14691581053E-03 +1.21886135141E-03 -3.08411156049E-03 +1.24022628538E-03 -2.19293879579E-01 +1.79560382877E-01
4.37500000000E+09 -3.80419049822E-01 +2.25316433435E-02 -2.44485893756E-03 +1.85968136958E-03 -2.42709674712E-03 +1.87536943684E-03 -2.13666318793E-01 +1.96863127434E-01
4.38000000000E+09 -3.85844826830E-01 +4.25044427021E-02 -1.83107331366E-03 +2.04355669904E-03 -1.81756118149E-03 +2.06221135277E-03 -2.07046864472E-01 +2.14169567395E-01
4.38500000000E+09 -3.90339731964E-01 +6.05949617274E-02 -1.60829447322E-03 +2.18793031442E-03 -1.55771013963E-03 +2.18876392397E-03 -2.00365596614E-01 +2.31008647729E-01
4.39000000000E+09 -3.93305730689E-01 +7.73731312357E-02 -1.31488081871E-03 +2.25474975724E-03 -1.23543939648E-03 +2.29006389444E-03 -1.93451190524E-01 +2.47478899510E-01
4.39500000000E+09 -3.93427260310E-01 +9.27450056167E-02 -1.18129369517E-03 +2.49661703343E-03 -1.08357282465E-03 +2.50504957481E-03 -1.86452808707E-01 +2.62903220954E-01
4.40000000000E+09 -3.91041327490E-01 +1.07561620004E-01 -6.49970912683E-04 +2.73430453481E-03 -6.07344941868E-04 +2.72303024089E-03 -1.79092135519E-01 +2.78506373258E-01
4.40500000000E+09 -3.86534506173E-01 +1.22749107164E-01 -3.38097063888E-04 +2.73995263452E-03 -2.98546323293E-04 +2.67341671774E-03 -1.70716799655E-01 +2.93288070560E-01
4.41000000000E+09 -3.80945915601E-01 +1.39137059610E-01 +1.63278580687E-04 +2.79028525862E-03 +3.01312352154E-04 +2.75459275989E-03 -1.62083122758E-01 +3.07045226027E-01
4.41500000000E+09 -3.74929454643E-01 +1.58028377436E-01 +5.91341255267E-04 +2.56157968180E-03 +6.63508779250E-04 +2.54092109572E-03 -1.53594433597E-01 +3.20835947731E-01
4.42000000000E+09 -3.68726794951E-01 +1.78995502366E-01 +7.00917736045E-04 +2.51930296428E-03 +7.53784850105E-04 +2.46667113247E-03 -1.44707181414E-01 +3.35464311059E-01
4.42500000000E+09 -3.63518674575E-01 +2.00517618409E-01 +1.51397374489E-03 +2.64247744520E-03 +1.43503153910E-03 +2.53014678858E-03 -1.34651019277E-01 +3.48990551051E-01
4.43000000000E+09 -3.59767797823E-01 +2.22635952130E-01 +1.96011999830E-03 +1.97173402585E-03 +1.92573008116E-03 +1.92370340510E-03 -1.26004389180E-01 +3.62031526520E-01
4.43500000000E+09 -3.56193967913E-01 +2.43441573746E-01 +2.04077519606E-03 +1.42064750449E-03 +1.96812681720E-03 +1.36873751797E-03 -1.15823961754E-01 +3.75170493414E-01
4.44000000000E+09 -3.53627020986E-01 +2.61863479503E-01 +1.93730356817E-03 +1.07404002711E-03 +1.84318165109E-03 +1.03390311917E-03 -1.05808943483E-01 +3.86661813100E-01
4.44500000000E+09 -3.51305259724E-01 +2.77839919367E-01 +1.86654117781E-03 +8.39712787949E-04 +1.86216353328E-03 +7.84176094819E-04 -9.55039248887E-02 +3.98002381036E-01
4.45000000000E+09 -3.48467508787E-01 +2.91777179972E-01 +1.69318805598E-03 +1.04155662206E-03 +1.64335189725E-03 +9.86668787597E-04 -8.47853981773E-02 +4.08699260811E-01
4.45500000000E+09 -3.43705581534E-01 +3.04855578757E-01 +2.50449732404E-03 +1.06901501521E-03 +2.43201545928E-03 +1.04543430042E-03 -7.39776661900E-02 +4.18877857536E-01
4.46000000000E+09 -3.36591389284E-01 +3.17134672245E-01 +2.75167843577E-03 -2.45600766377E-04 +2.73430617932E-03 -2.55821354644E-04 -6.29826597022E-02 +4.28684275264E-01
4.46500000000E+09 -3.27129608625E-01 +3.30085366547E-01 +1.99916331600E-03 -6.18142416311E-04 +2.03833058148E-03 -6.06610085381E-04 -5.16314889658E-02 +4.37643643563E-01
4.47000000000E+09 -3.16183797958E-01 +3.43969433265E-01 +1.43615910597E-03 -7.70713777175E-04 +1.44034846196E-03 -7.73314917488E-04 -4.10507422678E-02 +4.46934837825E-01
4.47500000000E+09 -3.03889834069E-01 +3.60438070217E-01 +1.36474068690E-03 -1.59765374538E-04 +1.34695694397E-03 -1.81000419469E-04 -2.95443450390E-02 +4.56079331560E-01
4.48000000000E+09 -2.91368863058E-01 +3.77523437029E-01 +1.80388277590E-03 -1.70488919128E-04 +1.73386310352E-03 -2.11149761897E-04 -1.80278228156E-02 +4.63758784129E-01
4.48500000000E+09 -2.79809643049E-01 +3.95185620070E-01 +2.03662027528E-03 -8.39837158539E-04 +1.98089613880E-03 -8.17929246088E-04 -7.14335795915E-03 +4.71711638788E-01
4.49000000000E+09 -2.70441618338E-01 +4.12472117495E-01 +1.98409877076E-03 -1.25055756487E-03 +1.88527057825E-03 -1.17262652066E-03 +4.48098263627E-03 +4.79217985206E-01
4.49500000000E+09 -2.62674616467E-01 +4.29039705163E-01 +1.40771689573E-03 -1.75929001337E-03 +1.38223324849E-03 -1.69649124618E-03 +1.51506208138E-02 +4.86025659349E-01
4.50000000000E+09 -2.56349263033E-01 +4.43157844953E-01 +9.42918978495E-04 -1.60855637533E-03 +8.87160719322E-04 -1.61660803659E-03 +2.63005485938E-02 +4.93032715422E-01
4.50500000000E+09 -2.51270594164E-01 +4.55336273075E-01 +8.37199328592E-04 -1.58642280748E-03 +7.89790597018E-04 -1.54649571427E-03 +3.76086843075E-02 +4.99308881205E-01
4.51000000000E+09 -2.45576075567E-01 +4.65715822421E-01 +6.49035808656E-04 -1.72446083787E-03 +6.35975534096E-04 -1.63618506718E-03 +4.87734169233E-02 +5.05319014625E-01
4.51500000000E+09 -2.37218980448E-01 +4.73787081205E-01 +4.62432306337E-04 -1.72634410486E-03 +4.27657042029E-04 -1.64392665767E-03 +5.99283089290E-02 +5.11264631532E-01
4.52000000000E+09 -2.28116442097E-01 +4.80032306456E-01 +6.81960016990E-05 -1.78830145171E-03 +7.15787450375E-05 -1.72605709440E-03 +7.17294318609E-02 +5.16615863225E-01
4.52500000000E+09 -2.16774166011E-01 +4.87198991876E-01 -2.94143026973E-06 -1.41554223257E-03 -7.08690603980E-06 -1.40939818992E-03 +8.30368809240E-02 +5.21066166058E-01
4.53000000000E+09 -2.03480710868E-01 +4.94797946729E-01 +2.10283327248E-04 -1.58376808226E-03 +1.50832554761E-04 -1.46176296266E-03 +9.47547047103E-02 +5.25332172147E-01
4.53500000000E+09 -1.88712287213E-01 +5.04253969834E-01 -1.67251627571E-04 -1.92895363293E-03 -1.12288689525E-04 -1.85842067017E-03 +1.05854247138E-01 +5.28978052375E-01
4.54000000000E+09 -1.73252072701E-01 +5.14516265891E-01 -5.18008311556E-04 -2.13740092173E-03 -5.34752591638E-04 -2.04451088293E-03 +1.17332637182E-01 +5.32683315378E-01
4.54500000000E+09 -1.58352569452E-01 +5.25540848163E-01 -1.32014241185E-03 -1.70540063365E-03 -1.26515924169E-03 -1.57394109901E-03 +1.28231376896E-01 +5.36469327626E-01
4.55000000000E+09 -1.45332017175E-01 +5.35725008075E-01 -1.43441918507E-03 -1.08008377836E-03 -1.35519467530E-03 -1.08944677140E-03 +1.40087748023E-01 +5.40115201395E-01
4.55500000000E+09 -1.34637364227E-01 +5.45886412874E-01 -1.08124038794E-03 -6.75930910352E-04 -1.05041725924E-03 -6.13456158853E-04 +1.51111957993E-01 +5.42804267431E-01
4.56000000000E+09 -1.25383734281E-01 +5.55284408823E-01 -9.49533727959E-04 -8.87316893540E-04 -8.70407089163E-04 -8.91279557318E-04 +1.61766868863E-01 +5.45827220442E-01
4.56500000000E+09 -1.16504554499E-01 +5.63063769598E-01 -1.02970197674E-03 -1.09493429755E-03 -9.85503799250E-04 -1.05830926938E-03 +1.72202343022E-01 +5.48479806919E-01
4.57000000000E+09 -1.07509215205E-01 +5.68820759397E-01 -1.54376911747E-03 -1.06418238536E-03 -1.47500229228E-03 -9.59775783444E-04 +1.83038228105E-01 +5.50853176230E-01
