# Hz S RI R 50
! CMT, C1220, 16058040, 17.2.0/1
! Date: 15/08/2018 12:19:38
! Data: Format (Calibration Info)
! Freq                      S11: Re/Im (F2)                       S21: Re/Im (F2)                       S12: Re/Im (F2)                       S22: Re/Im (F2)            
4.00000000000E+09 +6.51243433100E-01 -3.49797708647E-01 +1.14099257238E-03 +7.45234520041E-06 +1.17819618779E-03 +3.37938561322E-05 +7.40668560811E-01 -3.26015494717E-01
4.00500000000E+09 +6.43245921172E-01 -3.56193769095E-01 +1.23120862094E-03 +5.16618024918E-05 +1.21073922306E-03 +5.16697042023E-05 +7.30211664067E-01 -3.36380597429E-01
4.01000000000E+09 +6.34337299849E-01 -3.63082880013E-01 +1.40633221220E-03 -3.90945646647E-04 +1.40174184997E-03 -3.26784904807E-04 +7.19277182994E-01 -3.46972011950E-01
4.01500000000E+09 +6.23952536183E-01 -3.70479334879E-01 +1.33626707311E-03 -5.56797951081E-04 +1.41783241447E-03 -5.35415878961E-04 +7.08201232228E-01 -3.56928369812E-01
4.02000000000E+09 +6.13296466078E-01 -3.78442500834E-01 +1.05004840053E-03 -9.69027798024E-04 +1.08180305612E-03 -9.49430688371E-04 +6.96799882283E-01 -3.66988955831E-01
4.02500000000E+09 +6.01986308033E-01 -3.87765933370E-01 +7.27035429569E-04 -6.47593144292E-04 +7.45992495161E-04 -6.38085244821E-04 +6.84531318091E-01 -3.76906008710E-01
4.03000000000E+09 +5.90907714294E-01 -3.97645188471E-01 +1.10764616197E-03 -6.50316016492E-04 +1.10082241081E-03 -6.59535696676E-04 +6.71776520998E-01 -3.86041873934E-01
4.03500000000E+09 +5.80270232722E-01 -4.08071496389E-01 +1.09101171124E-03 -9.67875635261E-04 +1.15829271432E-03 -9.44670878674E-04 +6.58931566404E-01 -3.95735863504E-01
4.04000000000E+09 +5.69716806951E-01 -4.18558087029E-01 +1.01289540849E-03 -1.25558277553E-03 +1.08149911544E-03 -1.29588175249E-03 +6.45374012276E-01 -4.05821573048E-01
4.04500000000E+09 +5.58701378585E-01 -4.28292585184E-01 +6.14761157358E-04 -1.52059926443E-03 +6.98835939378E-04 -1.49512683314E-03 +6.31053264855E-01 -4.15123309345E-01
4.05000000000E+09 +5.47331631298E-01 -4.35894324253E-01 +3.33201373805E-04 -1.30691025699E-03 +4.09192928734E-04 -1.36566201002E-03 +6.17254205756E-01 -4.23390567565E-01
4.05500000000E+09 +5.36279065645E-01 -4.41042478447E-01 +4.47202418915E-04 -1.27680392856E-03 +4.74573601725E-04 -1.35968550358E-03 +6.03105693354E-01 -4.31638003314E-01
4.06000000000E+09 +5.24919633402E-01 -4.45809987283E-01 +2.09677819501E-04 -1.40465330597E-03 +2.80933649587E-04 -1.48732330093E-03 +5.88493203746E-01 -4.39558892974E-01
4.06500000000E+09 +5.12502695874E-01 -4.49595328242E-01 +2.49195396518E-04 -1.55680688371E-03 +3.03114003885E-04 -1.60133337548E-03 +5.72740967222E-01 -4.46958587897E-01
4.07000000000E+09 +4.98684570626E-01 -4.53908869325E-01 -1.17682844885E-04 -1.75773949916E-03 -9.85101221125E-05 -1.84418606761E-03 +5.56845588190E-01 -4.53799937494E-01
4.07500000000E+09 +4.83536966573E-01 -4.58227870801E-01 -4.33056279097E-04 -1.57846918628E-03 -3.91518775521E-04 -1.59569050996E-03 +5.40473175911E-01 -4.60971830104E-01
4.08000000000E+09 +4.67352474815E-01 -4.63374689577E-01 -4.98287397518E-04 -1.53049205547E-03 -4.41815659942E-04 -1.64665208567E-03 +5.24604909751E-01 -4.67144964942E-01
4.08500000000E+09 +4.50528746208E-01 -4.69021534021E-01 -7.48143779731E-04 -1.44500868465E-03 -7.41264871252E-04 -1.51301198235E-03 +5.08460120054E-01 -4.74601949923E-01
4.09000000000E+09 +4.34087893929E-01 -4.75483016967E-01 -7.36829687755E-04 -1.33048668688E-03 -7.56884787501E-04 -1.37492366795E-03 +4.90849563488E-01 -4.80011213889E-01
4.09500000000E+09 +4.17689320408E-01 -4.82461987879E-01 -8.95137070767E-04 -1.32216803542E-03 -8.98133295351E-04 -1.37254807571E-03 +4.74405632761E-01 -4.84744298007E-01
4.10000000000E+09 +4.00767915681E-01 -4.88810188734E-01 -1.01891302504E-03 -1.24820450516E-03 -1.06715819783E-03 -1.30157453384E-03 +4.56241120496E-01 -4.89881698630E-01
4.10500000000E+09 +3.84664564843E-01 -4.93028077912E-01 -1.17920357108E-03 -1.13836859906E-03 -1.22369044995E-03 -1.12471905855E-03 +4.37371213487E-01 -4.93758992370E-01
4.11000000000E+09 +3.69091876805E-01 -4.95754553741E-01 -1.32196699255E-03 -1.03544109809E-03 -1.26826207576E-03 -1.07504455757E-03 +4.18577937844E-01 -4.97335535566E-01
4.11500000000E+09 +3.54341950361E-01 -4.97715682324E-01 -1.32928560757E-03 -1.24033287030E-03 -1.34307529712E-03 -1.24728419214E-03 +3.99372406101E-01 -5.01104709494E-01
4.12000000000E+09 +3.38605353499E-01 -4.99197620527E-01 -1.85740729145E-03 -1.20429781388E-03 -1.87082316152E-03 -1.29092454910E-03 +3.79942756757E-01 -5.04133929862E-01
4.12500000000E+09 +3.21344101830E-01 -4.99906683019E-01 -2.34330788054E-03 -7.34239137701E-04 -2.44096860127E-03 -7.77573405394E-04 +3.59940067907E-01 -5.06378260070E-01
4.13000000000E+09 +3.03309656851E-01 -5.00838525471E-01 -2.33135701646E-03 -1.76186950693E-05 -2.36172408574E-03 -9.33121328409E-05 +3.39703199149E-01 -5.07756180857E-01
4.13500000000E+09 +2.84228039272E-01 -5.02153819971E-01 -1.90249450363E-03 +2.69240664366E-04 -1.98087860704E-03 +2.26064988718E-04 +3.19065141865E-01 -5.07853406633E-01
4.14000000000E+09 +2.64710024089E-01 -5.04605186675E-01 -1.79025108480E-03 +2.38029002321E-04 -1.83734902232E-03 +1.96516651186E-04 +2.98372122056E-01 -5.07617342407E-01
4.14500000000E+09 +2.45188622767E-01 -5.08521677609E-01 -1.84300570177E-03 +3.72987546348E-04 -1.92570053400E-03 +3.55213301987E-04 +2.77770322204E-01 -5.06672806182E-01
4.15000000000E+09 +2.24962943319E-01 -5.13043938220E-01 -1.74332477869E-03 +5.00237008852E-04 -1.78315801123E-03 +5.10565352030E-04 +2.57479431784E-01 -5.05567094165E-01
4.15500000000E+09 +2.05218846029E-01 -5.16867920836E-01 -1.84604431216E-03 +3.67413827068E-04 -1.94033748551E-03 +3.23532471105E-04 +2.36716660786E-01 -5.03105573957E-01
4.16000000000E+09 +1.87032897681E-01 -5.19459306901E-01 -2.31980206561E-03 +7.27169877077E-04 -2.39781674245E-03 +7.22151846357E-04 +2.16448054339E-01 -4.99467380608E-01
4.16500000000E+09 +1.69977559174E-01 -5.20625007222E-01 -2.25840565630E-03 +1.37948462656E-03 -2.31338901445E-03 +1.42201148630E-03 +1.96024902481E-01 -4.95421255554E-01
4.17000000000E+09 +1.54169224607E-01 -5.19921759423E-01 -2.03670421835E-03 +1.61855469085E-03 -2.11151424688E-03 +1.68184969708E-03 +1.75150951318E-01 -4.90431937490E-01
4.17500000000E+09 +1.38873756700E-01 -5.17774269248E-01 -1.74009472326E-03 +2.19063671752E-03 -1.77450934047E-03 +2.25581167133E-03 +1.54005347484E-01 -4.84462510244E-01
4.18000000000E+09 +1.23189009544E-01 -5.14404213171E-01 -1.28280664875E-03 +2.46205518404E-03 -1.32157747122E-03 +2.50343692739E-03 +1.33503516389E-01 -4.77212981572E-01
4.18500000000E+09 +1.06711030060E-01 -5.10241419260E-01 -6.81548244537E-04 +2.54569883351E-03 -6.53079581886E-04 +2.61141314140E-03 +1.13924824614E-01 -4.70562771456E-01
4.19000000000E+09 +8.88503325921E-02 -5.04893423792E-01 -4.75250046247E-04 +2.06420444010E-03 -4.95236597261E-04 +2.16469062581E-03 +9.25518285115E-02 -4.63287016007E-01
4.19500000000E+09 +7.10550330534E-02 -4.99295239887E-01 -7.89333637140E-04 +2.00155941302E-03 -7.62657109825E-04 +2.04329567243E-03 +7.20215744336E-02 -4.53682484507E-01
4.20000000000E+09 +5.26642279958E-02 -4.94598798600E-01 -6.03151388391E-04 +2.67850214220E-03 -5.76597472825E-04 +2.76336701824E-03 +5.25487250014E-02 -4.43299989269E-01
4.20500000000E+09 +3.37046471246E-02 -4.90438968230E-01 -3.93677708636E-04 +2.59183557619E-03 -3.96774083708E-04 +2.57681522048E-03 +3.23868173758E-02 -4.33053007945E-01
4.21000000000E+09 +1.47927124994E-02 -4.85742599368E-01 -1.67520187142E-04 +3.37069006301E-03 -1.97547589553E-04 +3.47975440560E-03 +1.25276399496E-02 -4.21307658583E-01
4.21500000000E+09 -3.33516002858E-03 -4.80010553216E-01 +1.02481709290E-03 +3.61913869090E-03 +1.04728529420E-03 +3.73296345838E-03 -6.57923827462E-03 -4.09361672429E-01
4.22000000000E+09 -2.01857686721E-02 -4.72884579378E-01 +1.71356204476E-03 +3.04417602731E-03 +1.75055195250E-03 +3.00865223242E-03 -2.52266828400E-02 -3.96687465069E-01
4.22500000000E+09 -3.53627078885E-02 -4.64620942984E-01 +2.02444555364E-03 +2.53666690137E-03 +2.06381022382E-03 +2.57009660150E-03 -4.31209619978E-02 -3.82567441434E-01
4.23000000000E+09 -5.05455214171E-02 -4.55596781248E-01 +2.12204473871E-03 +1.96677820641E-03 +2.14434839925E-03 +2.04172970256E-03 -5.97067764525E-02 -3.68074729871E-01
4.23500000000E+09 -6.68612885870E-02 -4.44776799999E-01 +2.02906813467E-03 +2.14221764978E-03 +2.04175279268E-03 +2.16918399572E-03 -7.68485601206E-02 -3.52612988636E-01
4.24000000000E+09 -8.35897479940E-02 -4.32109611342E-01 +2.33250825861E-03 +2.15625079480E-03 +2.41005114274E-03 +2.18242503802E-03 -9.27705749412E-02 -3.35635002208E-01
4.24500000000E+09 -1.00790646565E-01 -4.19142396662E-01 +3.11423170378E-03 +2.15796736476E-03 +3.10190243585E-03 +2.22656821316E-03 -1.08337234462E-01 -3.18448778979E-01
4.25000000000E+09 -1.19756829373E-01 -4.06263625915E-01 +3.86189534789E-03 +1.48615433771E-03 +3.89938396228E-03 +1.48792481938E-03 -1.22773497490E-01 -3.00269731311E-01
4.25500000000E+09 -1.38870504415E-01 -3.93854350147E-01 +4.02055884192E-03 +3.99545678137E-04 +4.11972874769E-03 +4.04280592768E-04 -1.35946457170E-01 -2.82378375071E-01
4.26000000000E+09 -1.58969332347E-01 -3.82120240944E-01 +3.58187579056E-03 -2.70707093412E-04 +3.62138750642E-03 -3.28103028066E-04 -1.48849190598E-01 -2.64482947735E-01
4.26500000000E+09 -1.78382984902E-01 -3.70380889699E-01 +3.46317901610E-03 -3.53932116799E-04 +3.45214410014E-03 -3.60355742842E-04 -1.60936613574E-01 -2.45359342037E-01
4.27000000000E+09 -1.95734694379E-01 -3.59003138740E-01 +3.62399731557E-03 -7.29537963024E-04 +3.61189568787E-03 -7.63253753272E-04 -1.72833369966E-01 -2.25646174586E-01
4.27500000000E+09 -2.11829063958E-01 -3.47768489419E-01 +3.55770795679E-03 -1.49535239992E-03 +3.59403137303E-03 -1.55077448268E-03 -1.83671878939E-01 -2.04998588200E-01
4.28000000000E+09 -2.26162484237E-01 -3.34591850707E-01 +3.10918937466E-03 -1.91852997361E-03 +3.10762428967E-03 -1.93486362560E-03 -1.94015181779E-01 -1.84524497819E-01
4.28500000000E+09 -2.38255411192E-01 -3.20338500039E-01 +3.09178117996E-03 -2.12530304768E-03 +3.12355686748E-03 -2.16078307611E-03 -2.02897420367E-01 -1.63323580783E-01
4.29000000000E+09 -2.49392768094E-01 -3.04546467011E-01 +2.99811513234E-03 -2.77354882705E-03 +2.95307815278E-03 -2.83506715501E-03 -2.10914447030E-01 -1.42968122202E-01
4.29500000000E+09 -2.60593182889E-01 -2.87022677131E-01 +2.41351195283E-03 -3.60019716942E-03 +2.43049683601E-03 -3.63667735779E-03 -2.17962812207E-01 -1.22819198391E-01
4.30000000000E+09 -2.72098861906E-01 -2.68202748623E-01 +1.28056040417E-03 -3.74656988429E-03 +1.28386194105E-03 -3.78131293935E-03 -2.24101247869E-01 -1.02149975626E-01
4.30500000000E+09 -2.84654281629E-01 -2.48492663862E-01 +1.11183160066E-03 -3.40907877422E-03 +1.11520974426E-03 -3.49124092606E-03 -2.28824515874E-01 -8.07426998987E-02
4.31000000000E+09 -2.97579611240E-01 -2.28781054104E-01 +6.02790211293E-04 -4.00660535519E-03 +5.95320223066E-04 -4.04937282483E-03 -2.32264343335E-01 -5.97469356686E-02
4.31500000000E+09 -3.11634204273E-01 -2.09979241993E-01 -2.82817657096E-04 -3.71723624423E-03 -3.55547799769E-04 -3.79683087194E-03 -2.35134721043E-01 -3.81710048580E-02
4.32000000000E+09 -3.24834187236E-01 -1.91383986609E-01 -5.12304246447E-04 -3.31630275853E-03 -5.49548863014E-04 -3.33801065755E-03 -2.37291098625E-01 -1.66836270882E-02
4.32500000000E+09 -3.36546100764E-01 -1.74439925300E-01 -6.39164802889E-04 -3.50297940877E-03 -7.25198165786E-04 -3.54548984095E-03 -2.38676694926E-01 +4.50424311830E-03
4.33000000000E+09 -3.46535072150E-01 -1.58198024666E-01 -1.36871061953E-03 -3.47792364998E-03 -1.50165007858E-03 -3.47747418526E-03 -2.39292645230E-01 +2.57449308423E-02
4.33500000000E+09 -3.53506692771E-01 -1.42692394210E-01 -1.57465319752E-03 -3.26966338306E-03 -1.67019094367E-03 -3.26864603296E-03 -2.38818088942E-01 +4.68109712714E-02
4.34000000000E+09 -3.58952548746E-01 -1.27033848548E-01 -2.58851781744E-03 -3.27907303774E-03 -2.63184049121E-03 -3.19342958964E-03 -2.37407058153E-01 +6.75648983567E-02
4.34500000000E+09 -3.62462677461E-01 -1.09477933352E-01 -3.04490554038E-03 -2.20074502105E-03 -3.06602558972E-03 -2.11572682717E-03 -2.34913290965E-01 +8.77800722170E-02
4.35000000000E+09 -3.64217904551E-01 -9.05644230937E-02 -2.74461496988E-03 -1.56439827978E-03 -2.78281644748E-03 -1.48974962373E-03 -2.32574354116E-01 +1.06744443405E-01
4.35500000000E+09 -3.66558987972E-01 -6.95452804351E-02 -2.71219704199E-03 -1.70052058263E-03 -2.73913818212E-03 -1.63710152421E-03 -2.29651921847E-01 +1.25906046657E-01
4.36000000000E+09 -3.68467232563E-01 -4.65321167776E-02 -3.02572738156E-03 -1.24337304825E-03 -3.03659763046E-03 -1.18182118413E-03 -2.26071374732E-01 +1.44000926276E-01
4.36500000000E+09 -3.71141254766E-01 -2.31085752639E-02 -3.27308824092E-03 -1.33213300230E-03 -3.29204930447E-03 -1.17502101819E-03 -2.22127226179E-01 +1.62039573648E-01
4.37000000000E+09 -3.75318130415E-01 +1.33257705521E-05 -3.96391794377E-03 -5.15363773493E-04 -3.94111367643E-03 -3.96360298449E-04 -2.17213047760E-01 +1.79922171158E-01
4.37500000000E+09 -3.79604982534E-01 +2.18808655892E-02 -3.64311419331E-03 +1.98824115128E-04 -3.52347243405E-03 +3.50926749475E-04 -2.11466094789E-01 +1.97353072273E-01
4.38000000000E+09 -3.85094499809E-01 +4.17500156034E-02 -3.48245069949E-03 +7.91280068009E-04 -3.39723352786E-03 +8.63466104880E-04 -2.05127844992E-01 +2.14369669894E-01
4.38500000000E+09 -3.89653922284E-01 +6.01782654452E-02 -3.11976156909E-03 +1.25574188032E-03 -3.02025656709E-03 +1.34117853866E-03 -1.98713790752E-01 +2.31327038014E-01
4.39000000000E+09 -3.92485583602E-01 +7.67983760628E-02 -2.82786684390E-03 +1.55762353190E-03 -2.71668790291E-03 +1.60652977252E-03 -1.91791081525E-01 +2.48174700181E-01
4.39500000000E+09 -3.93225031985E-01 +9.21964488594E-02 -2.58240864322E-03 +1.72717914888E-03 -2.44537306338E-03 +1.71543785516E-03 -1.84901152107E-01 +2.63631587977E-01
4.40000000000E+09 -3.91250385080E-01 +1.07566844159E-01 -2.42687292235E-03 +1.98452770392E-03 -2.29213562600E-03 +1.91333425756E-03 -1.77599354307E-01 +2.80065312501E-01
4.40500000000E+09 -3.86684751557E-01 +1.23145651724E-01 -2.35891246245E-03 +2.40908404604E-03 -2.28046047008E-03 +2.37291836142E-03 -1.68599455064E-01 +2.95337131310E-01
4.41000000000E+09 -3.80829300667E-01 +1.39627036018E-01 -1.79442376955E-03 +2.83152110129E-03 -1.73567230459E-03 +2.75509530060E-03 -1.59230800129E-01 +3.09454382273E-01
4.41500000000E+09 -3.75013558653E-01 +1.58289557464E-01 -1.49778737508E-03 +2.98331086601E-03 -1.42057284537E-03 +2.90917842244E-03 -1.49927062503E-01 +3.22918588289E-01
4.42000000000E+09 -3.69055022488E-01 +1.79022654139E-01 -1.07431511865E-03 +3.37158170163E-03 -1.02022644944E-03 +3.22459310530E-03 -1.40554294868E-01 +3.37030736389E-01
4.42500000000E+09 -3.63906047296E-01 +2.00592921109E-01 -9.56479330072E-05 +3.48345491288E-03 -1.05912117486E-04 +3.33073487828E-03 -1.30273305783E-01 +3.49642449562E-01
4.43000000000E+09 -3.60125087030E-01 +2.22546324343E-01 +2.63161883942E-04 +3.06164376035E-03 +2.42724796602E-04 +2.97800509502E-03 -1.21665911478E-01 +3.62371023128E-01
4.43500000000E+09 -3.56576081030E-01 +2.43449179028E-01 +6.28792087211E-04 +2.97800590536E-03 +5.74805965147E-04 +2.85049736995E-03 -1.11390500944E-01 +3.75194652583E-01
4.44000000000E+09 -3.53670815608E-01 +2.62133591603E-01 +1.10776631619E-03 +2.70747051646E-03 +1.03865478359E-03 +2.64917509916E-03 -1.01457768117E-01 +3.86538808992E-01
4.44500000000E+09 -3.50947108187E-01 +2.78269529291E-01 +1.30492635089E-03 +2.23829269119E-03 +1.20485342051E-03 +2.19503291491E-03 -9.11027734996E-02 +3.97651006426E-01
4.45000000000E+09 -3.48173299317E-01 +2.92378128275E-01 +1.13220918004E-03 +2.49033421730E-03 +1.09684546699E-03 +2.52013015141E-03 -8.04073130080E-02 +4.07668244310E-01
4.45500000000E+09 -3.43583749322E-01 +3.06247191427E-01 +2.12265934740E-03 +2.50450415310E-03 +2.07597534897E-03 +2.50558076640E-03 -7.00638498992E-02 +4.17455400543E-01
4.46000000000E+09 -3.36225441940E-01 +3.19009652832E-01 +2.48236167689E-03 +1.34770809568E-03 +2.41702393479E-03 +1.35509532716E-03 -5.94759134269E-02 +4.27164001302E-01
4.46500000000E+09 -3.27221216708E-01 +3.32064644310E-01 +2.17186020163E-03 +1.24128408757E-03 +2.15770868733E-03 +1.17255374781E-03 -4.83092719416E-02 +4.36279523461E-01
4.47000000000E+09 -3.16651528096E-01 +3.46525033462E-01 +2.26613917453E-03 +6.75695637198E-04 +2.24299695521E-03 +6.86697193604E-04 -3.78276490385E-02 +4.45252475000E-01
4.47500000000E+09 -3.04639184998E-01 +3.63115595306E-01 +2.07149595067E-03 +6.45933768967E-04 +2.09347901590E-03 +6.57920080938E-04 -2.66671728780E-02 +4.54695357275E-01
4.48000000000E+09 -2.92180676950E-01 +3.80053776719E-01 +2.28270032825E-03 +5.50832657446E-04 +2.27505799508E-03 +5.41798779814E-04 -1.51534995320E-02 +4.62825862497E-01
4.48500000000E+09 -2.80713025349E-01 +3.96930439655E-01 +2.32346900865E-03 -2.00943215239E-05 +2.32862270904E-03 -7.17252842686E-05 -3.98181234816E-03 +4.71098722418E-01
4.49000000000E+09 -2.71566890118E-01 +4.13754754626E-01 +2.46925317371E-03 -3.95234074278E-04 +2.40471188849E-03 -4.48304752931E-04 +7.94364476891E-03 +4.78599946501E-01
4.49500000000E+09 -2.63691177529E-01 +4.30136963820E-01 +1.88431770637E-03 -9.62317855270E-04 +1.84572932943E-03 -9.89214402692E-04 +1.87775008172E-02 +4.85250688218E-01
4.50000000000E+09 -2.56768117900E-01 +4.43803440959E-01 +1.56954807147E-03 -7.67038229086E-04 +1.55505299967E-03 -7.08971570363E-04 +3.02893369810E-02 +4.91883499980E-01
4.50500000000E+09 -2.51407446947E-01 +4.55700832013E-01 +1.75107224659E-03 -8.94722742551E-04 +1.67576529977E-03 -9.61307049751E-04 +4.15796136153E-02 +4.97798295936E-01
4.51000000000E+09 -2.45134419492E-01 +4.66406526278E-01 +1.54526825997E-03 -1.29567431185E-03 +1.42703351547E-03 -1.36398248987E-03 +5.28142690920E-02 +5.03709247632E-01
4.51500000000E+09 -2.36250025749E-01 +4.74853860481E-01 +1.15891724929E-03 -1.25895539828E-03 +1.08463345186E-03 -1.32799890734E-03 +6.39940140490E-02 +5.09520543257E-01
4.52000000000E+09 -2.26302691385E-01 +4.81772471742E-01 +9.99614822484E-04 -1.38301588074E-03 +8.89493892140E-04 -1.42741971993E-03 +7.59261347261E-02 +5.14559337028E-01
4.52500000000E+09 -2.14456687335E-01 +4.88801158793E-01 +7.20527533923E-04 -1.32727461013E-03 +6.94969518398E-04 -1.33288287844E-03 +8.72198442901E-02 +5.18617241968E-01
4.53000000000E+09 -2.01420992018E-01 +4.96725288331E-01 +8.42491830337E-04 -1.25078131403E-03 +7.70389582542E-04 -1.24399956553E-03 +9.87926170769E-02 +5.22373591373E-01
4.53500000000E+09 -1.86853484981E-01 +5.06585679085E-01 +6.53650260580E-04 -1.63555782444E-03 +5.41250620290E-04 -1.54054462798E-03 +1.09470004535E-01 +5.25985743564E-01
4.54000000000E+09 -1.71631131611E-01 +5.16709274426E-01 +4.24929807065E-04 -1.83635116905E-03 +3.14284448592E-04 -1.71245535881E-03 +1.20585269805E-01 +5.29404786853E-01
4.54500000000E+09 -1.57514207605E-01 +5.27657411724E-01 -1.73116490204E-04 -1.56596271143E-03 -1.63759685584E-04 -1.50917828284E-03 +1.30888249734E-01 +5.33122396846E-01
4.55000000000E+09 -1.44592305964E-01 +5.37943134948E-01 -2.84287197128E-04 -1.32584335873E-03 -3.13069829571E-04 -1.25776772411E-03 +1.42542694117E-01 +5.37169548875E-01
4.55500000000E+09 -1.33833346583E-01 +5.47485102789E-01 -1.90137657365E-04 -1.18041048710E-03 -1.51768515017E-04 -1.05772209854E-03 +1.53465048963E-01 +5.39799746426E-01
4.56000000000E+09 -1.24624842457E-01 +5.56419203220E-01 -7.68822641107E-05 -1.44406528289E-03 -1.04656377376E-04 -1.35868814278E-03 +1.64132330609E-01 +5.43168007245E-01
4.56500000000E+09 -1.15506586807E-01 +5.63935082562E-01 -3.93296630690E-04 -1.61241115295E-03 -4.17468278893E-04 -1.50242491698E-03 +1.74679615824E-01 +5.45702936749E-01
4.57000000000E+09 -1.05652660712E-01 +5.69447508456E-01 -9.58463222153E-04 -1.53277419587E-03 -8.68408650058E-04 -1.41732983785E-03 +1.85117815453E-01 +5.48332868103E-01
