# Hz S RI R 50
! CMT, C1220, 16058040, 17.2.0/1
! Date: 15/08/2018 12:21:24
! Data: Format (Calibration Info)
! Freq                      S11: Re/Im (F2)                       S21: Re/Im (F2)                       S12: Re/Im (F2)                       S22: Re/Im (F2)            
4.00000000000E+09 +6.54203170685E-01 -3.53496372570E-01 +3.13212908838E-04 -2.51709929120E-04 +3.28780651249E-04 -2.84722824588E-04 +7.42183742787E-01 -3.24230139772E-01
4.00500000000E+09 +6.46367488822E-01 -3.59780127792E-01 +3.41806930457E-04 -1.79617519212E-04 +4.33273433262E-04 -2.03226075163E-04 +7.31669236196E-01 -3.35000601041E-01
4.01000000000E+09 +6.37385264998E-01 -3.66191936178E-01 +5.33790061554E-04 -4.97660391366E-04 +5.27425056525E-04 -4.87616424790E-04 +7.20781529029E-01 -3.45685954153E-01
4.01500000000E+09 +6.27189806995E-01 -3.72946898821E-01 +4.14849624241E-04 -6.83644852878E-04 +4.16153043750E-04 -6.94625039286E-04 +7.09829673769E-01 -3.55850893981E-01
4.02000000000E+09 +6.16745238516E-01 -3.80903074000E-01 -3.11217065690E-05 -8.52168977681E-04 -1.50813476496E-05 -8.84556234846E-04 +6.98309534961E-01 -3.65865838191E-01
4.02500000000E+09 +6.05412950075E-01 -3.90110259190E-01 -3.43415003926E-04 -3.48433960911E-04 -3.39754354676E-04 -3.98503182797E-04 +6.86323480370E-01 -3.75691076585E-01
4.03000000000E+09 +5.94321389024E-01 -4.00440192205E-01 +7.41051540122E-05 -1.16829429503E-04 +2.27812159430E-05 -1.11044303086E-04 +6.73542390474E-01 -3.85139731445E-01
4.03500000000E+09 +5.83180083503E-01 -4.11634492254E-01 +3.11456922546E-04 -3.86628042491E-04 +3.30375509227E-04 -3.54788730172E-04 +6.60730264563E-01 -3.94673619959E-01
4.04000000000E+09 +5.72089758891E-01 -4.22323488160E-01 +2.84291463118E-04 -6.30840553338E-04 +2.92096765489E-04 -6.52594492036E-04 +6.47621259290E-01 -4.04859838509E-01
4.04500000000E+09 +5.61261131549E-01 -4.32358574191E-01 -5.63487111477E-05 -8.98839942661E-04 +3.52961925065E-05 -9.39361360978E-04 +6.33496802068E-01 -4.14319318250E-01
4.05000000000E+09 +5.49906853879E-01 -4.40624020395E-01 -4.32528959307E-04 -8.14677074572E-04 -4.36230704216E-04 -8.84851495987E-04 +6.19697094325E-01 -4.23016483018E-01
4.05500000000E+09 +5.38900882536E-01 -4.46375875126E-01 -4.51322409281E-04 -5.58997622862E-04 -4.71378082196E-04 -5.36608148084E-04 +6.05535173142E-01 -4.31361110826E-01
4.06000000000E+09 +5.27722030847E-01 -4.51197344555E-01 -5.25204950163E-04 -3.50134183219E-04 -5.29023438046E-04 -4.30987612243E-04 +5.91006446657E-01 -4.39344071480E-01
4.06500000000E+09 +5.15690529881E-01 -4.55243793375E-01 -3.21707073414E-04 -2.98804373238E-04 -3.27146229561E-04 -3.26952269878E-04 +5.75420943505E-01 -4.46991036797E-01
4.07000000000E+09 +5.02036239101E-01 -4.59993407493E-01 -4.10210856252E-04 -4.15005472997E-04 -4.29068453035E-04 -4.14657294404E-04 +5.59644505257E-01 -4.54264931295E-01
4.07500000000E+09 +4.86565075998E-01 -4.64740620735E-01 -3.27055261914E-04 -3.54691950994E-04 -3.32766941530E-04 -3.67404582946E-04 +5.43337410473E-01 -4.61933060971E-01
4.08000000000E+09 +4.69961251439E-01 -4.70182004881E-01 -4.58266965098E-04 -5.70480177478E-04 -4.46131953074E-04 -6.36928862497E-04 +5.27090646957E-01 -4.68651486126E-01
4.08500000000E+09 +4.52494097917E-01 -4.75773592134E-01 -8.24222792327E-04 -5.33477224434E-04 -8.33484891597E-04 -5.81099505138E-04 +5.10753533308E-01 -4.76143552059E-01
4.09000000000E+09 +4.35614617839E-01 -4.82218267814E-01 -9.27711145473E-04 -3.02345539071E-04 -9.61190567073E-04 -3.25977886681E-04 +4.92904013316E-01 -4.81846663747E-01
4.09500000000E+09 +4.18976442401E-01 -4.89156029456E-01 -9.90325496416E-04 +2.36632022914E-05 -1.01714554435E-03 -1.51217989439E-05 +4.76188517372E-01 -4.86746930246E-01
4.10000000000E+09 +4.01998934082E-01 -4.95668640198E-01 -8.55255202044E-04 +2.41406267676E-04 -8.95344482919E-04 +2.05025129550E-04 +4.57655863483E-01 -4.92078391199E-01
4.10500000000E+09 +3.85709497682E-01 -5.00771862767E-01 -6.69542763305E-04 +4.58791114789E-04 -6.30089227256E-04 +4.89263242375E-04 +4.38448874238E-01 -4.96019478236E-01
4.11000000000E+09 +3.69338977924E-01 -5.04207881031E-01 -4.36913450850E-04 +3.46254701357E-04 -3.92152887087E-04 +2.91549255854E-04 +4.19430857519E-01 -4.99552205562E-01
4.11500000000E+09 +3.53700884369E-01 -5.05755183213E-01 -2.13675034193E-04 +4.13821165464E-05 -2.12466801411E-04 +5.43251345816E-05 +4.00284308586E-01 -5.03306631389E-01
4.12000000000E+09 +3.37772259634E-01 -5.06879160684E-01 -6.18030122120E-04 -2.30323958377E-04 -6.04763687170E-04 -2.73956329331E-04 +3.80639896587E-01 -5.06639324812E-01
4.12500000000E+09 +3.20347831413E-01 -5.07488714993E-01 -1.15282116584E-03 -3.23430454812E-05 -1.17145538679E-03 -7.83249205444E-05 +3.60128511480E-01 -5.08774723807E-01
4.13000000000E+09 +3.02028244937E-01 -5.08438591658E-01 -1.28914731511E-03 +6.77395230030E-04 -1.37083032944E-03 +6.99603044231E-04 +3.39561835075E-01 -5.09752812595E-01
4.13500000000E+09 +2.82615502690E-01 -5.10116193762E-01 -6.73028403417E-04 +1.20349653946E-03 -7.61524176433E-04 +1.22007237404E-03 +3.18901010429E-01 -5.09856835474E-01
4.14000000000E+09 +2.62423129308E-01 -5.12842587702E-01 -1.69111288698E-04 +1.01284616524E-03 -1.95889953660E-04 +1.05093345863E-03 +2.98223261641E-01 -5.09639774937E-01
4.14500000000E+09 +2.42247646121E-01 -5.16848116978E-01 -2.57218723172E-05 +9.07309731733E-04 -1.14187296511E-04 +9.24829614521E-04 +2.77417969055E-01 -5.08781329135E-01
4.15000000000E+09 +2.21464983967E-01 -5.21381909639E-01 +2.28795496627E-04 +7.35656952309E-04 +2.13330539302E-04 +7.15980549241E-04 +2.56937351550E-01 -5.07814410655E-01
4.15500000000E+09 +2.01364850307E-01 -5.25369667256E-01 +1.14314224695E-04 +1.40955691900E-04 +1.28766615566E-04 +1.97149342098E-04 +2.35676839095E-01 -5.05405952273E-01
4.16000000000E+09 +1.82850389363E-01 -5.28142428208E-01 -4.19794020770E-04 +1.91907069423E-04 -4.49750547492E-04 +1.83067286292E-04 +2.15137356302E-01 -5.01477668879E-01
4.16500000000E+09 +1.65177110991E-01 -5.29301703363E-01 -6.70152467606E-04 +6.72215874581E-04 -6.99211860427E-04 +6.81189571884E-04 +1.94584880167E-01 -4.97021076678E-01
4.17000000000E+09 +1.49169466720E-01 -5.27908957200E-01 -5.22002363249E-04 +8.23239283271E-04 -5.41358176997E-04 +8.38786499606E-04 +1.73826745029E-01 -4.91867733166E-01
4.17500000000E+09 +1.34125823035E-01 -5.25192335888E-01 -4.04474686865E-04 +1.34224244546E-03 -4.06225591193E-04 +1.36657303982E-03 +1.52457155921E-01 -4.85793073288E-01
4.18000000000E+09 +1.18481355587E-01 -5.21241730944E-01 +1.50067488869E-04 +1.36844107555E-03 +1.95982985824E-04 +1.36244451583E-03 +1.31605649715E-01 -4.78418965765E-01
4.18500000000E+09 +1.02026463092E-01 -5.16887960395E-01 +6.23216227476E-04 +1.36016838118E-03 +6.79330391279E-04 +1.35994740461E-03 +1.11927367946E-01 -4.71292882626E-01
4.19000000000E+09 +8.36115217620E-02 -5.11449730295E-01 +6.52671484678E-04 +6.66750491153E-04 +7.06183500839E-04 +6.68944698605E-04 +9.06139583826E-02 -4.63902835166E-01
4.19500000000E+09 +6.47979178749E-02 -5.05482143345E-01 +2.50883410622E-04 +6.19324118413E-04 +2.37812299521E-04 +5.25159384587E-04 +6.98533232582E-02 -4.54099826966E-01
4.20000000000E+09 +4.53890578270E-02 -5.00220216412E-01 +2.91650661914E-04 +9.47525589530E-04 +2.87982683295E-04 +9.32095740296E-04 +5.01785591244E-02 -4.43358452082E-01
4.20500000000E+09 +2.57834290223E-02 -4.95107707532E-01 +2.40536994819E-04 +8.24376246786E-04 +2.15435470493E-04 +8.15631946747E-04 +3.01512913352E-02 -4.32409331314E-01
4.21000000000E+09 +7.09399329245E-03 -4.90022081208E-01 +2.28592839515E-04 +1.53959816539E-03 +2.05193991246E-04 +1.64293346310E-03 +1.06715846776E-02 -4.20158841053E-01
4.21500000000E+09 -1.10625118759E-02 -4.84560623344E-01 +1.23182456670E-03 +1.87903888102E-03 +1.22666929131E-03 +1.90608794177E-03 -7.90016370440E-03 -4.08053523706E-01
4.22000000000E+09 -2.80700460053E-02 -4.78002133988E-01 +2.03809734396E-03 +1.32258080984E-03 +2.05955278685E-03 +1.37068235799E-03 -2.60226951470E-02 -3.95638871690E-01
4.22500000000E+09 -4.39569121327E-02 -4.69917152307E-01 +2.34200456103E-03 +4.70373099536E-04 +2.41307132902E-03 +5.07465391950E-04 -4.40570191732E-02 -3.81534488251E-01
4.23000000000E+09 -5.94044516867E-02 -4.59761729786E-01 +1.98092053056E-03 -3.53620038351E-04 +2.00708143667E-03 -3.93312976032E-04 -6.06108855628E-02 -3.66828203201E-01
4.23500000000E+09 -7.50195106314E-02 -4.48027150513E-01 +1.41946189870E-03 -2.15345990314E-04 +1.40742024528E-03 -2.31978592302E-04 -7.73483232190E-02 -3.51125765422E-01
4.24000000000E+09 -9.14341922559E-02 -4.34501073964E-01 +1.49138988793E-03 -8.64299464399E-05 +1.48705224439E-03 -6.36648474272E-05 -9.27549925692E-02 -3.34257289217E-01
4.24500000000E+09 -1.08360345517E-01 -4.20640478238E-01 +1.88593137294E-03 -4.45919071501E-05 +1.95531153455E-03 -6.52015869384E-06 -1.08228393228E-01 -3.17242853547E-01
4.25000000000E+09 -1.27242763682E-01 -4.06817966523E-01 +2.37139599427E-03 -5.57086056531E-04 +2.37731639419E-03 -5.50901595126E-04 -1.22316333595E-01 -2.99102884484E-01
4.25500000000E+09 -1.46721944099E-01 -3.93386113908E-01 +2.19509526353E-03 -1.41985466491E-03 +2.24201287645E-03 -1.49646877863E-03 -1.35217885992E-01 -2.81593856362E-01
4.26000000000E+09 -1.67156859416E-01 -3.81068742472E-01 +1.57102187623E-03 -1.99899476711E-03 +1.59694800982E-03 -2.02246062666E-03 -1.48337153004E-01 -2.64230187901E-01
4.26500000000E+09 -1.87290642847E-01 -3.68665756032E-01 +1.17286975897E-03 -1.91782783508E-03 +1.18888808876E-03 -1.96524352351E-03 -1.60668571914E-01 -2.44862619351E-01
4.27000000000E+09 -2.05020659209E-01 -3.56665868673E-01 +7.47436106181E-04 -2.01500403336E-03 +7.88582836627E-04 -2.08437672066E-03 -1.72583326427E-01 -2.25236691904E-01
4.27500000000E+09 -2.21833676219E-01 -3.45242889808E-01 +4.99687825914E-04 -2.14004579621E-03 +5.13768136057E-04 -2.09852317189E-03 -1.83745517571E-01 -2.04346998055E-01
4.28000000000E+09 -2.36270582111E-01 -3.31434746060E-01 +2.01387242873E-04 -1.94802367020E-03 +1.88495343529E-04 -2.05039807489E-03 -1.93494917912E-01 -1.83316102534E-01
4.28500000000E+09 -2.47639413241E-01 -3.16786062052E-01 +2.12463817224E-04 -1.82121983037E-03 +1.68021181065E-04 -1.82031585194E-03 -2.01935263155E-01 -1.62436451028E-01
4.29000000000E+09 -2.57683672474E-01 -3.01464685791E-01 +1.76712100006E-05 -2.13376341573E-03 -1.79067340092E-05 -2.15629503330E-03 -2.09528195501E-01 -1.42312754463E-01
4.29500000000E+09 -2.68176035639E-01 -2.84332182040E-01 -3.46093115014E-04 -2.29615481886E-03 -4.33632068677E-04 -2.37812803007E-03 -2.16538709795E-01 -1.22638200703E-01
4.30000000000E+09 -2.79340196571E-01 -2.65650532233E-01 -9.60059172758E-04 -2.09554877845E-03 -1.05789899766E-03 -2.09138481430E-03 -2.22658678863E-01 -1.02312634741E-01
4.30500000000E+09 -2.91305294539E-01 -2.45455845634E-01 -9.44304463770E-04 -1.72401386686E-03 -1.03547097240E-03 -1.70366489434E-03 -2.27675259314E-01 -8.06909256530E-02
4.31000000000E+09 -3.03882765080E-01 -2.24940438842E-01 -1.10351455706E-03 -1.90914280056E-03 -1.16378319747E-03 -1.89216728797E-03 -2.30576493191E-01 -5.96579774307E-02
4.31500000000E+09 -3.17246265732E-01 -2.04765015245E-01 -1.72302729472E-03 -1.77843105275E-03 -1.71581672962E-03 -1.74416950741E-03 -2.33129815898E-01 -3.86581471671E-02
4.32000000000E+09 -3.29389731547E-01 -1.85831609801E-01 -1.99687933843E-03 -1.04677202515E-03 -2.00835458548E-03 -1.01406720169E-03 -2.35130608260E-01 -1.78015278396E-02
4.32500000000E+09 -3.40717216969E-01 -1.68436986514E-01 -1.45748834378E-03 -8.36397159824E-04 -1.54289432830E-03 -7.90783621678E-04 -2.36653132801E-01 +2.65214634871E-03
4.33000000000E+09 -3.50742348228E-01 -1.52061592130E-01 -1.78493358240E-03 -1.21246554988E-03 -1.79669221677E-03 -1.07310666405E-03 -2.37631928296E-01 +2.32937220389E-02
4.33500000000E+09 -3.57814200847E-01 -1.35802012456E-01 -1.89083276243E-03 -1.00142001136E-03 -1.88348879232E-03 -9.00142489250E-04 -2.37636750808E-01 +4.41374194896E-02
4.34000000000E+09 -3.62647659254E-01 -1.20056589201E-01 -2.64851060048E-03 -1.01802275326E-03 -2.57805167060E-03 -9.25725784104E-04 -2.36888525641E-01 +6.47046492056E-02
4.34500000000E+09 -3.66191358520E-01 -1.02822341351E-01 -2.95652798997E-03 +6.28315530892E-05 -2.92801950930E-03 +1.34655841515E-04 -2.34864191208E-01 +8.49511586359E-02
4.35000000000E+09 -3.68019836508E-01 -8.37714841734E-02 -2.44291074029E-03 +6.78197163795E-04 -2.30167746639E-03 +7.26940048561E-04 -2.32958060342E-01 +1.03854375329E-01
4.35500000000E+09 -3.69878987922E-01 -6.25721586895E-02 -2.15902179873E-03 +4.73234421130E-04 -2.17580157264E-03 +5.19636250794E-04 -2.30361931855E-01 +1.23248491786E-01
4.36000000000E+09 -3.71283153993E-01 -3.95352434017E-02 -2.30246874925E-03 +9.29214813235E-04 -2.27488820899E-03 +9.00167700335E-04 -2.26921474901E-01 +1.41434293707E-01
4.36500000000E+09 -3.73232427229E-01 -1.63887712166E-02 -2.37199251599E-03 +8.39130810461E-04 -2.31262640707E-03 +8.12730728112E-04 -2.23365924633E-01 +1.59358420951E-01
4.37000000000E+09 -3.77242964092E-01 +6.61818408220E-03 -2.70505443383E-03 +1.67255463432E-03 -2.66593499434E-03 +1.66917544648E-03 -2.18938842122E-01 +1.77563916567E-01
4.37500000000E+09 -3.81186478969E-01 +2.85240665396E-02 -2.12741095347E-03 +2.30301596673E-03 -2.03033881913E-03 +2.25492265283E-03 -2.13445765836E-01 +1.95467365871E-01
4.38000000000E+09 -3.86518742862E-01 +4.85433105747E-02 -1.54336417294E-03 +2.50009170476E-03 -1.46875542916E-03 +2.48561218268E-03 -2.06810373410E-01 +2.12758106116E-01
4.38500000000E+09 -3.90942290159E-01 +6.71420960250E-02 -1.11117166356E-03 +2.80215593556E-03 -1.05103840941E-03 +2.78405382353E-03 -2.00465121753E-01 +2.29997611872E-01
4.39000000000E+09 -3.93243528897E-01 +8.43302846251E-02 -5.50292176482E-04 +2.63093398414E-03 -5.53882771098E-04 +2.58282244642E-03 -1.93341167431E-01 +2.46830856957E-01
4.39500000000E+09 -3.93007683606E-01 +9.98471596160E-02 -4.65454419125E-04 +2.71596492543E-03 -4.35235086513E-04 +2.68049485729E-03 -1.86382988766E-01 +2.62020514186E-01
4.40000000000E+09 -3.90416449566E-01 +1.14417053275E-01 -4.21814738878E-05 +2.94540670960E-03 -8.62188936366E-06 +2.86040246698E-03 -1.79234053170E-01 +2.78147687323E-01
4.40500000000E+09 -3.85848878234E-01 +1.30061114455E-01 +5.01389873232E-04 +3.09638924923E-03 +5.15407038999E-04 +3.04862009140E-03 -1.70546409478E-01 +2.93388985046E-01
4.41000000000E+09 -3.79903461220E-01 +1.46782493293E-01 +1.25998119371E-03 +2.75605204988E-03 +1.23419507622E-03 +2.72484469226E-03 -1.61448486915E-01 +3.07310692017E-01
4.41500000000E+09 -3.73560787493E-01 +1.65883004500E-01 +1.58257911053E-03 +2.35575714693E-03 +1.58282869914E-03 +2.37475690662E-03 -1.52768722680E-01 +3.20891622754E-01
4.42000000000E+09 -3.67062052231E-01 +1.87081215031E-01 +1.55127038680E-03 +1.94269352009E-03 +1.56985542910E-03 +1.91178226861E-03 -1.43775986190E-01 +3.35534190073E-01
4.42500000000E+09 -3.61291335579E-01 +2.08937870653E-01 +1.77277339780E-03 +1.98920503740E-03 +1.82947956459E-03 +1.97578194042E-03 -1.33625533141E-01 +3.48744684181E-01
4.43000000000E+09 -3.56937441753E-01 +2.30981091205E-01 +2.19400426169E-03 +1.66061515649E-03 +2.15570762571E-03 +1.62443405618E-03 -1.24793306061E-01 +3.61572200043E-01
4.43500000000E+09 -3.53004944325E-01 +2.51590131382E-01 +2.46579531869E-03 +1.39187208499E-03 +2.47410947612E-03 +1.37416827158E-03 -1.14816954269E-01 +3.74311974316E-01
4.44000000000E+09 -3.50100089677E-01 +2.69855235304E-01 +2.75144199878E-03 +7.48938095300E-04 +2.64868152789E-03 +7.22094811194E-04 -1.05336148043E-01 +3.85915046381E-01
4.44500000000E+09 -3.47236745422E-01 +2.85753823079E-01 +2.53350964158E-03 +2.66940464043E-05 +2.51210976657E-03 -5.40207089787E-05 -9.52998783065E-02 +3.97615803349E-01
4.45000000000E+09 -3.44354736473E-01 +2.99342095613E-01 +1.91625540049E-03 +1.81396121956E-04 +1.87775721681E-03 +2.20241076427E-04 -8.45868106989E-02 +4.08560514908E-01
4.45500000000E+09 -3.39416865078E-01 +3.12723350210E-01 +2.59719411201E-03 +3.09297681695E-04 +2.60641631616E-03 +2.71213551655E-04 -7.37089898886E-02 +4.19042344272E-01
4.46000000000E+09 -3.31689839418E-01 +3.25164474274E-01 +2.67185998148E-03 -9.43065906400E-04 +2.65035955390E-03 -9.76826554100E-04 -6.24589585076E-02 +4.28981570310E-01
4.46500000000E+09 -3.21327670206E-01 +3.37871443285E-01 +1.98553089674E-03 -1.06721840050E-03 +1.89730588477E-03 -1.08516534999E-03 -5.08492063383E-02 +4.37858746697E-01
4.47000000000E+09 -3.10207784133E-01 +3.51177411803E-01 +1.45631060730E-03 -1.28771242856E-03 +1.37650854635E-03 -1.27014576347E-03 -4.03830281336E-02 +4.46985634345E-01
4.47500000000E+09 -2.97845462203E-01 +3.67486728220E-01 +1.23146616313E-03 -6.83041162279E-04 +1.21536524242E-03 -7.12407832781E-04 -2.88924212539E-02 +4.56524612392E-01
4.48000000000E+09 -2.85310146143E-01 +3.84549366597E-01 +1.68442272344E-03 -5.83642857969E-04 +1.58926010359E-03 -6.55895705974E-04 -1.72231779388E-02 +4.64697206478E-01
4.48500000000E+09 -2.73317469568E-01 +4.02467463045E-01 +1.97951872170E-03 -1.14989898632E-03 +1.87372610677E-03 -1.13585107488E-03 -5.81782550308E-03 +4.72897951408E-01
4.49000000000E+09 -2.63609945136E-01 +4.19453209619E-01 +2.01020857647E-03 -1.69870322467E-03 +1.84759276438E-03 -1.64345005862E-03 +6.30306990255E-03 +4.80307549185E-01
4.49500000000E+09 -2.55477995185E-01 +4.35805160545E-01 +1.19421226129E-03 -2.32199845630E-03 +1.07115950897E-03 -2.27642038856E-03 +1.74383413473E-02 +4.86721282555E-01
4.50000000000E+09 -2.48910367603E-01 +4.49488162815E-01 +5.21129502330E-04 -2.16203824457E-03 +5.06715321118E-04 -2.09015806788E-03 +2.87723314039E-02 +4.93280660034E-01
4.50500000000E+09 -2.43764615268E-01 +4.61179696928E-01 +2.90966404630E-04 -1.82323117366E-03 +2.25733621828E-04 -1.76359196967E-03 +4.00894607959E-02 +4.99322712313E-01
4.51000000000E+09 -2.38025387193E-01 +4.71282469388E-01 +3.53809763426E-04 -1.78082400427E-03 +3.17215131922E-04 -1.68556901399E-03 +5.11893034663E-02 +5.04971466680E-01
4.51500000000E+09 -2.29407269625E-01 +4.79374514344E-01 +4.74157532109E-04 -1.78740096478E-03 +4.18178187764E-04 -1.73108751685E-03 +6.21800354255E-02 +5.10864680441E-01
4.52000000000E+09 -2.19768072083E-01 +4.85298612522E-01 +7.35251374810E-05 -2.25586396371E-03 +8.22597277485E-05 -2.15147751750E-03 +7.40535907921E-02 +5.16130775788E-01
4.52500000000E+09 -2.07978832512E-01 +4.92028785986E-01 -3.03351863091E-04 -2.08455366380E-03 -2.88131317092E-04 -1.96320998718E-03 +8.53771713510E-02 +5.20548074098E-01
4.53000000000E+09 -1.94683668476E-01 +4.99053938696E-01 -2.97048821838E-04 -1.97306166755E-03 -2.73384697493E-04 -1.85097155157E-03 +9.70608073617E-02 +5.24535847727E-01
4.53500000000E+09 -1.79492706194E-01 +5.08499147865E-01 -7.43572305648E-04 -2.21871741147E-03 -6.62974888846E-04 -2.12640114037E-03 +1.08159838436E-01 +5.28185040475E-01
4.54000000000E+09 -1.63709148056E-01 +5.18165966551E-01 -1.17516209743E-03 -2.25173403574E-03 -1.07068350302E-03 -2.18130489798E-03 +1.19509270588E-01 +5.31657065887E-01
4.54500000000E+09 -1.48848521541E-01 +5.28871734389E-01 -1.78170255234E-03 -1.68499308967E-03 -1.65303618152E-03 -1.65398885474E-03 +1.30095354726E-01 +5.35424649157E-01
4.55000000000E+09 -1.35560594920E-01 +5.38875389314E-01 -2.01344270883E-03 -1.28551844693E-03 -1.91164601377E-03 -1.25215210595E-03 +1.41889352320E-01 +5.39303208014E-01
4.55500000000E+09 -1.24900439515E-01 +5.48422613833E-01 -1.85721806682E-03 -5.63002531714E-04 -1.69468372042E-03 -6.02073453892E-04 +1.53062281410E-01 +5.42109039193E-01
4.56000000000E+09 -1.15840406175E-01 +5.57514877901E-01 -1.40835115426E-03 -7.22383911541E-04 -1.38890921357E-03 -7.36881525553E-04 +1.63942657892E-01 +5.45035834873E-01
4.56500000000E+09 -1.06925684633E-01 +5.65265569625E-01 -1.56239706487E-03 -9.16208570277E-04 -1.49027505124E-03 -8.77248521223E-04 +1.74407583747E-01 +5.47525467765E-01
4.57000000000E+09 -9.76397497784E-02 +5.70736314173E-01 -2.04159671041E-03 -8.10913114134E-04 -1.99822066214E-03 -8.26861511489E-04 +1.85282864313E-01 +5.50079811480E-01
