# Hz S RI R 50
! CMT, C1220, 16058040, 17.2.0/1
! Date: 15/08/2018 12:24:24
! Data: Format (Calibration Info)
! Freq                      S11: Re/Im (F2)                       S21: Re/Im (F2)                       S12: Re/Im (F2)                       S22: Re/Im (F2)            
4.00000000000E+09 +6.54205440934E-01 -3.50368480082E-01 +2.38962049646E-04 -3.20141785023E-04 +2.60112876531E-04 -3.59584237888E-04 +7.43564630636E-01 -3.23037128333E-01
4.00500000000E+09 +6.46440958332E-01 -3.56655463157E-01 +2.70582184271E-04 -3.40647368110E-04 +3.07518190173E-04 -2.85153976070E-04 +7.33200785991E-01 -3.33581090964E-01
4.01000000000E+09 +6.37646602558E-01 -3.63220821790E-01 +3.40608727828E-04 -5.56510655447E-04 +4.18582350546E-04 -5.46063719235E-04 +7.22487599420E-01 -3.44642213562E-01
4.01500000000E+09 +6.27188035059E-01 -3.70008021729E-01 +1.72717901272E-04 -6.84784325510E-04 +1.81519326063E-04 -6.58607387260E-04 +7.11417965053E-01 -3.54792333237E-01
4.02000000000E+09 +6.16577787561E-01 -3.77657456175E-01 -1.81033914814E-04 -8.07575314990E-04 -1.53904929359E-04 -7.92960685657E-04 +6.99904360746E-01 -3.64965228567E-01
4.02500000000E+09 +6.05377974996E-01 -3.86731379418E-01 -3.62270618716E-04 -3.13916355839E-04 -3.25862716792E-04 -2.89536284194E-04 +6.87947708235E-01 -3.75041123514E-01
4.03000000000E+09 +5.94342926578E-01 -3.96727734447E-01 -2.10759335224E-05 -2.36695566840E-04 +1.58870226477E-05 -2.72367799208E-04 +6.75048694731E-01 -3.84717342672E-01
4.03500000000E+09 +5.83607608116E-01 -4.07664628043E-01 +1.20334245610E-04 -4.88307502323E-04 +1.33080039202E-04 -5.22459148311E-04 +6.62349073993E-01 -3.94535821291E-01
4.04000000000E+09 +5.72689628239E-01 -4.18678814472E-01 -3.13875633276E-05 -6.72233875982E-04 -3.65723964761E-06 -7.10119715472E-04 +6.48942564434E-01 -4.04932952450E-01
4.04500000000E+09 +5.61743966259E-01 -4.28539817791E-01 -3.82869439339E-04 -8.54696029485E-04 -3.36354850884E-04 -9.05505227910E-04 +6.34741351958E-01 -4.14338541130E-01
4.05000000000E+09 +5.50715977339E-01 -4.36709673289E-01 -7.56194996254E-04 -5.94681962786E-04 -7.17884028373E-04 -6.48573191615E-04 +6.20993694373E-01 -4.23188186666E-01
4.05500000000E+09 +5.39704027324E-01 -4.42651865451E-01 -6.27630734215E-04 -2.87486355410E-04 -6.68468383226E-04 -2.68279118247E-04 +6.06337183885E-01 -4.31749478939E-01
4.06000000000E+09 +5.28676207152E-01 -4.47588969551E-01 -5.59751152908E-04 -1.49988051252E-04 -6.00668824941E-04 -1.81644338083E-04 +5.91806396095E-01 -4.39476341199E-01
4.06500000000E+09 +5.16406506662E-01 -4.51626684556E-01 -4.00052927856E-04 -9.50414270965E-05 -3.77261454888E-04 -1.12577079581E-04 +5.75859181840E-01 -4.47535899039E-01
4.07000000000E+09 +5.02964152881E-01 -4.55986029317E-01 -4.40358835351E-04 -2.87420015059E-04 -4.38363542169E-04 -2.87424245186E-04 +5.59867557202E-01 -4.54576795600E-01
4.07500000000E+09 +4.88094019462E-01 -4.60678321647E-01 -4.77097224148E-04 -1.78918267320E-04 -5.11531978807E-04 -1.82204805136E-04 +5.43590609447E-01 -4.62177940845E-01
4.08000000000E+09 +4.71812853006E-01 -4.66292558732E-01 -5.53641584954E-04 -2.10122878857E-04 -5.28219854106E-04 -2.29998055563E-04 +5.27225224210E-01 -4.68919405025E-01
4.08500000000E+09 +4.54630925354E-01 -4.71992651810E-01 -7.08313198641E-04 -1.82047176055E-04 -7.36132210976E-04 -1.88425157549E-04 +5.10981110243E-01 -4.76297065713E-01
4.09000000000E+09 +4.37749180541E-01 -4.78418502327E-01 -7.39266029212E-04 -3.56534610601E-05 -7.08358600504E-04 -2.72632009052E-05 +4.92983618833E-01 -4.82152410765E-01
4.09500000000E+09 +4.21208903806E-01 -4.85301047455E-01 -7.94516597236E-04 +2.09322050580E-04 -8.01665606863E-04 +2.32208330094E-04 +4.75804809966E-01 -4.87146677590E-01
4.10000000000E+09 +4.04555263993E-01 -4.91581271566E-01 -6.70162454986E-04 +3.67563356902E-04 -6.77213422567E-04 +3.81126533337E-04 +4.57213767115E-01 -4.92091578615E-01
4.10500000000E+09 +3.88804345909E-01 -4.96379434238E-01 -3.27941953939E-04 +5.45648818456E-04 -3.92653593223E-04 +5.16228682064E-04 +4.37816658321E-01 -4.96031038145E-01
4.11000000000E+09 +3.73098780606E-01 -5.00039408103E-01 -1.88516166131E-04 +2.64904688106E-04 -2.17120020537E-04 +2.65342943957E-04 +4.18768253891E-01 -4.99321968954E-01
4.11500000000E+09 +3.57624642634E-01 -5.02198391386E-01 -1.76990346162E-04 +4.27225904136E-05 -1.75370723769E-04 +2.72509597920E-05 +3.99794242525E-01 -5.03074035798E-01
4.12000000000E+09 +3.41455041047E-01 -5.03549263919E-01 -5.37277719297E-04 -1.72693032264E-04 -5.32114898622E-04 -2.20334952838E-04 +3.80146517799E-01 -5.06367482928E-01
4.12500000000E+09 +3.24021797217E-01 -5.04195618538E-01 -9.95061204687E-04 +8.32314924101E-05 -1.02003865442E-03 +4.58731885550E-05 +3.59542559269E-01 -5.08555189093E-01
4.13000000000E+09 +3.05873456278E-01 -5.04904149387E-01 -1.03774667087E-03 +7.01331149922E-04 -1.06678449914E-03 +6.91186961728E-04 +3.38785696182E-01 -5.09611663162E-01
4.13500000000E+09 +2.86859814797E-01 -5.06373378461E-01 -5.31329635075E-04 +1.10221586556E-03 -5.93196824996E-04 +1.05223145353E-03 +3.17901575193E-01 -5.09231001882E-01
4.14000000000E+09 +2.67141148998E-01 -5.08963682291E-01 -4.79003088578E-05 +9.16229685253E-04 -1.15403351764E-04 +8.96279587433E-04 +2.97319651528E-01 -5.09209031893E-01
4.14500000000E+09 +2.47555822525E-01 -5.13368953897E-01 -5.60041882582E-05 +8.13371618121E-04 -1.16304869711E-04 +8.32302741825E-04 +2.75791940598E-01 -5.08029019754E-01
4.15000000000E+09 +2.27053387987E-01 -5.18181813236E-01 +1.42775480990E-04 +7.01581029916E-04 +1.27193727680E-04 +6.85667734598E-04 +2.55702764995E-01 -5.06328681362E-01
4.15500000000E+09 +2.07265263270E-01 -5.22393796349E-01 +7.82866663768E-05 +2.84097596973E-04 +5.67960545710E-05 +2.46590189800E-04 +2.34654891949E-01 -5.03968033144E-01
4.16000000000E+09 +1.88895950485E-01 -5.25354353510E-01 -3.56364273279E-04 +3.53704084426E-04 -3.74492633629E-04 +4.16219365979E-04 +2.13750777531E-01 -4.99652121950E-01
4.16500000000E+09 +1.71593613302E-01 -5.26536336526E-01 -3.61652701620E-04 +8.12250212115E-04 -3.91219792446E-04 +8.34287017803E-04 +1.93771354580E-01 -4.94892416662E-01
4.17000000000E+09 +1.55753410564E-01 -5.25622495347E-01 -1.93765879875E-04 +8.69977779231E-04 -2.20490255667E-04 +8.96380529815E-04 +1.72726848803E-01 -4.89752880623E-01
4.17500000000E+09 +1.40680672796E-01 -5.22879762562E-01 -1.11865850857E-04 +1.22525340437E-03 -1.34241566974E-04 +1.25868882271E-03 +1.51776010858E-01 -4.83015462321E-01
4.18000000000E+09 +1.25551106440E-01 -5.19369855995E-01 +4.12993105153E-04 +1.32598568410E-03 +4.12012990415E-04 +1.41153310261E-03 +1.31602200634E-01 -4.75566827078E-01
4.18500000000E+09 +1.08924820580E-01 -5.15434379438E-01 +8.69835321869E-04 +1.13112999847E-03 +9.09737463213E-04 +1.21699794933E-03 +1.12017945727E-01 -4.68606199475E-01
4.19000000000E+09 +9.07250122745E-02 -5.10295082080E-01 +9.55547257669E-04 +4.73397508279E-04 +9.97714552103E-04 +5.29677524188E-04 +9.14007876915E-02 -4.60866380715E-01
4.19500000000E+09 +7.21543481916E-02 -5.04796340252E-01 +5.20112494601E-04 +2.92975539306E-04 +5.66649618235E-04 +2.75158860368E-04 +7.10186910147E-02 -4.51454720989E-01
4.20000000000E+09 +5.26340881871E-02 -4.99904200253E-01 +4.11965473180E-04 +7.41957955115E-04 +5.06026598982E-04 +7.53802882048E-04 +5.16388921991E-02 -4.41043060046E-01
4.20500000000E+09 +3.31900201029E-02 -4.95329091750E-01 +6.13810264991E-04 +5.00425030675E-04 +7.05026516314E-04 +5.26627786232E-04 +3.18637410123E-02 -4.30405613579E-01
4.21000000000E+09 +1.44568298189E-02 -4.90711007025E-01 +4.52279814436E-04 +8.53177878337E-04 +5.07740618283E-04 +8.07772907173E-04 +1.23137399418E-02 -4.18480111220E-01
4.21500000000E+09 -3.60745492279E-03 -4.85758632001E-01 +1.02753726724E-03 +1.14249492273E-03 +1.06418539300E-03 +1.13309222589E-03 -6.24923697332E-03 -4.06508703092E-01
4.22000000000E+09 -2.05035413171E-02 -4.79388455968E-01 +1.55944803637E-03 +8.49406395242E-04 +1.60492853901E-03 +8.14804158614E-04 -2.44787249401E-02 -3.93901469332E-01
4.22500000000E+09 -3.60537095344E-02 -4.71708511942E-01 +2.01861642905E-03 +1.90534466162E-04 +1.98637351188E-03 +1.19710631330E-04 -4.21403881922E-02 -3.80037884499E-01
4.23000000000E+09 -5.15391123319E-02 -4.62320031537E-01 +1.60244341694E-03 -5.75674444202E-04 +1.56555607209E-03 -6.38104822160E-04 -5.86185007904E-02 -3.65572669892E-01
4.23500000000E+09 -6.71910523614E-02 -4.51038281158E-01 +1.06462054359E-03 -3.61817836740E-04 +1.06435766919E-03 -4.22941098366E-04 -7.57679069162E-02 -3.50179612666E-01
4.24000000000E+09 -8.35873930795E-02 -4.38090293786E-01 +9.89068497652E-04 -2.08177278608E-04 +1.02517621523E-03 -2.31479045960E-04 -9.12380974020E-02 -3.33097743427E-01
4.24500000000E+09 -1.00628386895E-01 -4.24669070052E-01 +1.36971015533E-03 -8.73375636986E-05 +1.34789495627E-03 -6.41857384834E-05 -1.06525729857E-01 -3.16020653604E-01
4.25000000000E+09 -1.19310442641E-01 -4.11339869436E-01 +1.79911564270E-03 -3.98205808871E-04 +1.80503771099E-03 -4.31239106600E-04 -1.20406660958E-01 -2.97559087684E-01
4.25500000000E+09 -1.38624263638E-01 -3.98576070511E-01 +1.78269570757E-03 -1.10519653637E-03 +1.82035932262E-03 -1.18196955039E-03 -1.32684293341E-01 -2.79998046618E-01
4.26000000000E+09 -1.59143840758E-01 -3.87036536034E-01 +1.38639338121E-03 -1.51927434700E-03 +1.32985959723E-03 -1.51111089089E-03 -1.45047343175E-01 -2.62921722984E-01
4.26500000000E+09 -1.79428014522E-01 -3.75445507117E-01 +1.13295574292E-03 -1.57003861567E-03 +1.08336651749E-03 -1.54747585028E-03 -1.56817270647E-01 -2.44269961163E-01
4.27000000000E+09 -1.97379690149E-01 -3.63954866600E-01 +9.66129545227E-04 -1.68966040917E-03 +9.26145310214E-04 -1.73235443323E-03 -1.68821214088E-01 -2.25848624420E-01
4.27500000000E+09 -2.14265936313E-01 -3.52989021513E-01 +6.49068672420E-04 -2.15238145887E-03 +5.58819409348E-04 -2.12839719385E-03 -1.80410929631E-01 -2.05310285543E-01
4.28000000000E+09 -2.28885800830E-01 -3.40072349698E-01 +1.18879473063E-04 -1.80863470156E-03 +1.00234706707E-04 -1.76268456966E-03 -1.90101510394E-01 -1.84713204175E-01
4.28500000000E+09 -2.41052358176E-01 -3.25795308389E-01 +4.68058959459E-04 -1.79806260946E-03 +4.45293529725E-04 -1.76405807276E-03 -1.98732745065E-01 -1.64373827790E-01
4.29000000000E+09 -2.51265703100E-01 -3.10484475144E-01 +1.10787088709E-04 -2.33632410620E-03 +9.94024646238E-05 -2.36278443315E-03 -2.06579707080E-01 -1.44517118245E-01
4.29500000000E+09 -2.61938641152E-01 -2.93997236935E-01 -4.47508266674E-04 -2.48043717014E-03 -4.17488320837E-04 -2.49162829331E-03 -2.13552162977E-01 -1.25613812839E-01
4.30000000000E+09 -2.73628503392E-01 -2.75613385207E-01 -1.17913412494E-03 -2.31636027159E-03 -1.22624137789E-03 -2.27713071446E-03 -2.20405449346E-01 -1.05661506947E-01
4.30500000000E+09 -2.85907906843E-01 -2.55738401485E-01 -1.39748636052E-03 -1.87467053556E-03 -1.37099555672E-03 -1.85171530156E-03 -2.26127726405E-01 -8.45349551677E-02
4.31000000000E+09 -2.98891981240E-01 -2.35623397457E-01 -1.59934919888E-03 -1.85788152213E-03 -1.57043168229E-03 -1.88608132448E-03 -2.29942067735E-01 -6.37133169188E-02
4.31500000000E+09 -3.12632218665E-01 -2.16044717321E-01 -2.08694604420E-03 -1.43083018174E-03 -2.11910749656E-03 -1.45696157430E-03 -2.33326780164E-01 -4.24284159697E-02
4.32000000000E+09 -3.25547018714E-01 -1.97384230679E-01 -2.21139261651E-03 -8.03831633194E-04 -2.20667429249E-03 -8.50488105304E-04 -2.35750924591E-01 -2.10831332124E-02
4.32500000000E+09 -3.37539055204E-01 -1.80312314864E-01 -1.78876207248E-03 -6.38087547606E-04 -1.80257796719E-03 -6.48361084234E-04 -2.37491759001E-01 -3.83499045546E-04
4.33000000000E+09 -3.48173597234E-01 -1.64406332307E-01 -2.17679673746E-03 -6.89784295680E-04 -2.21578461304E-03 -7.41083737800E-04 -2.38477708388E-01 +2.06734306531E-02
4.33500000000E+09 -3.56326555707E-01 -1.48656248242E-01 -2.11338249096E-03 -3.32223819773E-04 -2.12375280969E-03 -3.39875799847E-04 -2.38248827048E-01 +4.17505521378E-02
4.34000000000E+09 -3.62215816942E-01 -1.32369293411E-01 -2.50698015273E-03 -3.33682537355E-04 -2.53716348939E-03 -2.67200017665E-04 -2.37345959743E-01 +6.18554089806E-02
4.34500000000E+09 -3.66108028038E-01 -1.15165833032E-01 -2.86062828769E-03 +5.57051074148E-04 -2.77229202616E-03 +6.02502374735E-04 -2.35672551699E-01 +8.21663679049E-02
4.35000000000E+09 -3.68504885155E-01 -9.62533673207E-02 -2.12493658199E-03 +1.34104310141E-03 -2.12487801353E-03 +1.38758458565E-03 -2.34072303838E-01 +1.00775158863E-01
4.35500000000E+09 -3.71227029146E-01 -7.49683189852E-02 -1.60184837166E-03 +9.06000872528E-04 -1.61604593160E-03 +9.37797956875E-04 -2.31931776590E-01 +1.20275726182E-01
4.36000000000E+09 -3.73391722812E-01 -5.19134434595E-02 -1.73435035634E-03 +1.12885808023E-03 -1.74297929478E-03 +1.14802505320E-03 -2.28802915836E-01 +1.38625775058E-01
4.36500000000E+09 -3.76282178080E-01 -2.85854451723E-02 -1.79994126706E-03 +9.52381559026E-04 -1.82577554229E-03 +9.75737875091E-04 -2.24985897826E-01 +1.56539191612E-01
4.37000000000E+09 -3.80985874626E-01 -5.23798425703E-03 -2.24494683503E-03 +1.69637822868E-03 -2.16214082441E-03 +1.72792735134E-03 -2.20723560099E-01 +1.74269711232E-01
4.37500000000E+09 -3.85887058228E-01 +1.72803226694E-02 -1.56117576968E-03 +2.19504871531E-03 -1.53288123081E-03 +2.24131640154E-03 -2.16000820477E-01 +1.91721280043E-01
4.38000000000E+09 -3.91376116475E-01 +3.78394391851E-02 -1.18478330145E-03 +2.35761236114E-03 -1.11802256722E-03 +2.41023326360E-03 -2.10343647492E-01 +2.09397604539E-01
4.38500000000E+09 -3.95649748822E-01 +5.63245477709E-02 -6.79683795606E-04 +2.77338033439E-03 -6.46329292829E-04 +2.73615848625E-03 -2.04745291704E-01 +2.27010365305E-01
4.39000000000E+09 -3.98880989181E-01 +7.32109647645E-02 +3.18776143549E-05 +2.50952371181E-03 +7.52749054156E-05 +2.41441899058E-03 -1.98395027637E-01 +2.44491355068E-01
4.39500000000E+09 -3.99494357056E-01 +8.87339837138E-02 +4.53680968968E-05 +2.27786824460E-03 +1.67471235146E-04 +2.23968109125E-03 -1.91795901224E-01 +2.60936263291E-01
4.40000000000E+09 -3.97383262037E-01 +1.04356800594E-01 +2.59894126269E-04 +2.37699538901E-03 +3.01136029940E-04 +2.29783547307E-03 -1.84232401830E-01 +2.77729667727E-01
4.40500000000E+09 -3.92851640445E-01 +1.19715023433E-01 +4.56248263038E-04 +2.32720172818E-03 +5.28884138676E-04 +2.28164153073E-03 -1.75518277895E-01 +2.93243646098E-01
4.41000000000E+09 -3.87409351187E-01 +1.36758297507E-01 +9.42858262819E-04 +2.49114822649E-03 +1.00855388516E-03 +2.43642140506E-03 -1.66223517971E-01 +3.07965585694E-01
4.41500000000E+09 -3.81390399014E-01 +1.55986668747E-01 +1.36175611284E-03 +2.30232993105E-03 +1.34494027043E-03 +2.21973397206E-03 -1.57008089449E-01 +3.21928707016E-01
4.42000000000E+09 -3.75219294646E-01 +1.77229356027E-01 +1.65895391057E-03 +2.01478866516E-03 +1.65169458570E-03 +1.94186374577E-03 -1.47816898613E-01 +3.36448277359E-01
4.42500000000E+09 -3.70084944602E-01 +1.99050886017E-01 +2.09974210158E-03 +1.83036354364E-03 +2.07172535854E-03 +1.70922002381E-03 -1.37522967586E-01 +3.50006490495E-01
4.43000000000E+09 -3.66508909887E-01 +2.21495003232E-01 +2.30794772948E-03 +1.18892238550E-03 +2.25529217850E-03 +1.15505169884E-03 -1.28727641479E-01 +3.63133479457E-01
4.43500000000E+09 -3.63104723980E-01 +2.42889731030E-01 +2.23112638437E-03 +8.78518754077E-04 +2.16123996201E-03 +8.13807647034E-04 -1.18260196274E-01 +3.76374806443E-01
4.44000000000E+09 -3.60518527633E-01 +2.61724972562E-01 +2.33802100423E-03 +5.20687532844E-04 +2.24546805779E-03 +4.53036899053E-04 -1.08187968378E-01 +3.87703622461E-01
4.44500000000E+09 -3.58151620157E-01 +2.78324370303E-01 +2.23517205641E-03 +1.06816469358E-04 +2.16723268835E-03 +6.12574184141E-05 -9.81328393929E-02 +3.99009551995E-01
4.45000000000E+09 -3.55046047972E-01 +2.92505358968E-01 +1.80676853641E-03 +1.93562837487E-04 +1.70640010546E-03 +1.59656943765E-04 -8.76277372097E-02 +4.09923055281E-01
4.45500000000E+09 -3.50330381735E-01 +3.05813357761E-01 +2.47098713632E-03 +4.29164562289E-04 +2.37548785764E-03 +4.02179644023E-04 -7.68906753838E-02 +4.20539864498E-01
4.46000000000E+09 -3.43203336696E-01 +3.18605847455E-01 +2.82389014251E-03 -8.30516908294E-04 +2.70385520359E-03 -8.41430215263E-04 -6.57697981223E-02 +4.30693396588E-01
4.46500000000E+09 -3.33670911480E-01 +3.32050608388E-01 +2.18866923567E-03 -1.13082082644E-03 +2.03735607501E-03 -1.10497226375E-03 -5.44872237563E-02 +4.40069579099E-01
4.47000000000E+09 -3.22287430996E-01 +3.46496779434E-01 +1.69759845420E-03 -1.51330381643E-03 +1.56393145818E-03 -1.43137529396E-03 -4.37782175076E-02 +4.49922015647E-01
4.47500000000E+09 -3.09692874059E-01 +3.63220031093E-01 +1.30011327051E-03 -1.19483148996E-03 +1.28506389828E-03 -1.10849951518E-03 -3.16172139175E-02 +4.59715768573E-01
4.48000000000E+09 -2.96854762985E-01 +3.80518633910E-01 +1.41168193718E-03 -9.46667482088E-04 +1.36758907852E-03 -8.90391054274E-04 -1.96705039030E-02 +4.67682510550E-01
4.48500000000E+09 -2.85091421979E-01 +3.98464962599E-01 +1.72118144148E-03 -1.35990358329E-03 +1.61357053498E-03 -1.38264787985E-03 -8.14325449889E-03 +4.75925691508E-01
4.49000000000E+09 -2.75263800233E-01 +4.16052969610E-01 +1.65847001427E-03 -1.83019199784E-03 +1.55703144271E-03 -1.73216702620E-03 +4.02610011452E-03 +4.83488727497E-01
4.49500000000E+09 -2.67281225728E-01 +4.32697959746E-01 +9.90572210776E-04 -2.32431856867E-03 +9.95209255932E-04 -2.24021605149E-03 +1.53713942226E-02 +4.90255048536E-01
4.50000000000E+09 -2.60684080627E-01 +4.46840985183E-01 +4.63057812313E-04 -2.18451223073E-03 +4.87394326202E-04 -2.08908637010E-03 +2.72943294739E-02 +4.97169309165E-01
4.50500000000E+09 -2.55533056639E-01 +4.59239476654E-01 +3.17986298370E-04 -2.16116923573E-03 +2.96168782670E-04 -2.10327405991E-03 +3.91922760152E-02 +5.03148247194E-01
4.51000000000E+09 -2.49577084348E-01 +4.69836723135E-01 -2.46937301058E-05 -2.18689271121E-03 +5.85120606320E-06 -2.15873871739E-03 +5.09764636912E-02 +5.08665921179E-01
4.51500000000E+09 -2.41263785285E-01 +4.78293990375E-01 -3.33089306527E-04 -2.02828461485E-03 -2.91028356656E-04 -1.99862360089E-03 +6.23101273403E-02 +5.14005644112E-01
4.52000000000E+09 -2.31418483576E-01 +4.84874791974E-01 -6.76203871467E-04 -1.94208508853E-03 -6.42959192964E-04 -1.89841534048E-03 +7.41591219183E-02 +5.18804978170E-01
4.52500000000E+09 -2.19588992909E-01 +4.91884999571E-01 -7.44587593517E-04 -1.69758164377E-03 -7.00924741960E-04 -1.66319712159E-03 +8.54059406540E-02 +5.22901402886E-01
4.53000000000E+09 -2.06050436101E-01 +4.99300653661E-01 -7.94507928387E-04 -1.58344280972E-03 -7.75850053357E-04 -1.58163958902E-03 +9.70757209699E-02 +5.26942286507E-01
4.53500000000E+09 -1.91312801272E-01 +5.08814395214E-01 -9.40301563242E-04 -1.60645064265E-03 -9.32089008452E-04 -1.57441919124E-03 +1.08324891754E-01 +5.30432675800E-01
4.54000000000E+09 -1.75697199842E-01 +5.19203833192E-01 -1.07904928525E-03 -1.74660210134E-03 -1.10047609277E-03 -1.72340916051E-03 +1.19932085427E-01 +5.33826357686E-01
4.54500000000E+09 -1.60716238490E-01 +5.30356631516E-01 -1.82373382363E-03 -1.43523775145E-03 -1.73634577372E-03 -1.39681197571E-03 +1.30669123019E-01 +5.37214557359E-01
4.55000000000E+09 -1.47073616415E-01 +5.40981028119E-01 -1.99350674058E-03 -8.99374334236E-04 -1.96624137750E-03 -8.68361317578E-04 +1.42104716158E-01 +5.40907552290E-01
4.55500000000E+09 -1.35829052066E-01 +5.51027527076E-01 -1.84457759077E-03 -3.47745391829E-04 -1.78074018101E-03 -3.39769356246E-04 +1.53303023848E-01 +5.43744317837E-01
4.56000000000E+09 -1.26245345641E-01 +5.60146336988E-01 -1.50523405671E-03 -2.68883110808E-04 -1.50120448145E-03 -2.89319810694E-04 +1.64121212022E-01 +5.46393264543E-01
4.56500000000E+09 -1.17346834390E-01 +5.67812147526E-01 -1.41796377859E-03 -3.26695554347E-04 -1.42912710381E-03 -3.10735833698E-04 +1.74492547334E-01 +5.48946982171E-01
4.57000000000E+09 -1.08139057990E-01 +5.73731559791E-01 -1.56503094634E-03 -3.66739522797E-04 -1.55819156179E-03 -2.78463050956E-04 +1.85315747012E-01 +5.51325397303E-01
