# Hz S RI R 50
! CMT, C1220, 16058040, 17.2.0/1
! Date: 15/08/2018 12:22:14
! Data: Format (Calibration Info)
! Freq                      S11: Re/Im (F2)                       S21: Re/Im (F2)                       S12: Re/Im (F2)                       S22: Re/Im (F2)            
4.00000000000E+09 +6.52610098861E-01 -3.57232709034E-01 +3.62732598041E-04 -3.36710805392E-04 +3.71994391495E-04 -3.39805155881E-04 +7.43374429387E-01 -3.24716895769E-01
4.00500000000E+09 +6.44559297402E-01 -3.63256445410E-01 +2.15860791907E-04 -2.29045962947E-04 +2.00514583095E-04 -2.88985553158E-04 +7.32906524484E-01 -3.35593205097E-01
4.01000000000E+09 +6.35942365808E-01 -3.69663849402E-01 +4.61712946722E-04 -2.86114810840E-04 +4.51900672346E-04 -3.18853552316E-04 +7.21942357951E-01 -3.46348966868E-01
4.01500000000E+09 +6.25443151749E-01 -3.77041800130E-01 +4.45057276941E-04 -4.98600806900E-04 +4.80819324903E-04 -5.30567094208E-04 +7.10855390574E-01 -3.56775945807E-01
4.02000000000E+09 +6.14445971400E-01 -3.85175849473E-01 +1.85709328733E-04 -6.71769780942E-04 +2.38263597305E-04 -6.83120569233E-04 +6.99057206966E-01 -3.66823076802E-01
4.02500000000E+09 +6.02402862370E-01 -3.94479893457E-01 +4.14625985803E-05 -4.07003728485E-04 +2.05670598290E-05 -4.37113039801E-04 +6.86860674909E-01 -3.76541028453E-01
4.03000000000E+09 +5.90767832700E-01 -4.04624866032E-01 +1.43597184763E-04 -4.37907779582E-04 +1.40918756282E-04 -4.53293017464E-04 +6.74126377516E-01 -3.86117700839E-01
4.03500000000E+09 +5.79162945306E-01 -4.15246473216E-01 +2.34448517119E-04 -4.40384384689E-04 +2.28799430622E-04 -4.49346751350E-04 +6.61149015172E-01 -3.95772710085E-01
4.04000000000E+09 +5.68109280945E-01 -4.25797170289E-01 +2.04576771974E-04 -6.81009283097E-04 +2.97173095957E-04 -7.08879468617E-04 +6.47809939538E-01 -4.05741559728E-01
4.04500000000E+09 +5.57133484310E-01 -4.35860359374E-01 -4.62101208174E-05 -8.06410686980E-04 -7.16781297647E-05 -8.43510913702E-04 +6.33994880525E-01 -4.15537930082E-01
4.05000000000E+09 +5.45520659185E-01 -4.44316892362E-01 -2.19294366375E-04 -6.77773303398E-04 -2.46306604774E-04 -7.03465737645E-04 +6.19783382616E-01 -4.24287212206E-01
4.05500000000E+09 +5.33695584395E-01 -4.50036383322E-01 -2.52261822353E-04 -5.58132191919E-04 -2.86387031176E-04 -6.19497572693E-04 +6.05469100848E-01 -4.32809524365E-01
4.06000000000E+09 +5.22000457969E-01 -4.54576311323E-01 -2.75090209748E-04 -4.18251759428E-04 -2.29025984881E-04 -4.58888187582E-04 +5.90612313789E-01 -4.40919380667E-01
4.06500000000E+09 +5.09329608790E-01 -4.58480081282E-01 -5.50593376534E-05 -5.16544361520E-04 -2.32069509193E-05 -5.46020293541E-04 +5.74602504700E-01 -4.48294221286E-01
4.07000000000E+09 +4.95313631326E-01 -4.62461652513E-01 -2.36420391817E-04 -8.77659963612E-04 -2.25935378697E-04 -8.73026407869E-04 +5.58826086872E-01 -4.55432725667E-01
4.07500000000E+09 +4.79906787649E-01 -4.66762900652E-01 -5.27329571329E-04 -6.94796374437E-04 -5.05689169094E-04 -6.94904786467E-04 +5.42343171404E-01 -4.63189733711E-01
4.08000000000E+09 +4.63067444627E-01 -4.72050224334E-01 -5.88757821307E-04 -5.65873784474E-04 -5.90669066735E-04 -6.19976057116E-04 +5.25690501320E-01 -4.69711516755E-01
4.08500000000E+09 +4.45207646371E-01 -4.77211220412E-01 -8.03911796077E-04 -4.75835518435E-04 -7.96765894361E-04 -4.57128205690E-04 +5.09311886796E-01 -4.77054503606E-01
4.09000000000E+09 +4.28294509532E-01 -4.83302635615E-01 -6.62323871449E-04 -2.54006409299E-04 -6.36195352370E-04 -2.96165223746E-04 +4.91230866048E-01 -4.82518289860E-01
4.09500000000E+09 +4.11286997518E-01 -4.89858507572E-01 -6.66841104591E-04 -2.58791680458E-04 -6.62224960982E-04 -2.49926955925E-04 +4.74342584792E-01 -4.87448255222E-01
4.10000000000E+09 +3.94211324901E-01 -4.96239951441E-01 -8.44808676447E-04 -2.49331276579E-04 -8.64606194234E-04 -2.90465550401E-04 +4.55520522835E-01 -4.92345438705E-01
4.10500000000E+09 +3.77239541588E-01 -5.00713448730E-01 -6.96349261252E-04 +2.26881641276E-04 -7.24760135351E-04 +1.83437047437E-04 +4.36290122003E-01 -4.95706299239E-01
4.11000000000E+09 +3.60708950689E-01 -5.03352486967E-01 -6.14808827616E-04 -4.90201112937E-05 -6.18288656011E-04 -8.47460574260E-05 +4.17557175916E-01 -4.99167362958E-01
4.11500000000E+09 +3.45239012084E-01 -5.04162039141E-01 -5.26140091293E-04 -8.50049279671E-06 -5.46962600133E-04 -1.12504129063E-04 +3.98352742755E-01 -5.02688323080E-01
4.12000000000E+09 +3.29258517592E-01 -5.05269955867E-01 -7.05595919998E-04 -1.83116664921E-04 -6.91202771332E-04 -1.46310486917E-04 +3.78626300670E-01 -5.05804628819E-01
4.12500000000E+09 +3.11522137572E-01 -5.05316210507E-01 -1.00358963358E-03 -1.06760668585E-04 -1.04808081070E-03 -1.83710547278E-04 +3.58313266877E-01 -5.07621363724E-01
4.13000000000E+09 +2.93293339535E-01 -5.05691820635E-01 -1.15217219185E-03 +4.50052648949E-04 -1.21023463901E-03 +3.87680236647E-04 +3.37865821333E-01 -5.08456399758E-01
4.13500000000E+09 +2.73531225639E-01 -5.06968040335E-01 -7.65751998150E-04 +7.46102521988E-04 -7.87539616184E-04 +7.80340586275E-04 +3.17410927323E-01 -5.08293316354E-01
4.14000000000E+09 +2.52978859224E-01 -5.08732930739E-01 -3.50107296894E-04 +6.80935973763E-04 -3.80067157209E-04 +7.20205614552E-04 +2.96737834414E-01 -5.08011149731E-01
4.14500000000E+09 +2.33129120745E-01 -5.11716636300E-01 -3.12642882380E-04 +4.51519682202E-04 -3.14221853491E-04 +5.01023627737E-04 +2.76037029183E-01 -5.06718138822E-01
4.15000000000E+09 +2.12693356663E-01 -5.15691301760E-01 -2.19959072611E-04 +3.10644731737E-04 -2.54410967472E-04 +3.22985805554E-04 +2.55896454176E-01 -5.05544715425E-01
4.15500000000E+09 +1.92977014603E-01 -5.18970640434E-01 -4.74241355263E-04 +6.89014487333E-05 -4.53786738552E-04 +7.38771043300E-05 +2.34990486702E-01 -5.03009606159E-01
4.16000000000E+09 +1.74510335660E-01 -5.21495194293E-01 -8.39500618871E-04 +1.78805387010E-04 -9.26361822200E-04 +1.93535966435E-04 +2.14799920210E-01 -4.99267098126E-01
4.16500000000E+09 +1.56887822117E-01 -5.21571207332E-01 -1.07286197299E-03 +6.84853595775E-04 -1.06413895049E-03 +7.35223682440E-04 +1.94221225101E-01 -4.95073964381E-01
4.17000000000E+09 +1.41496606074E-01 -5.19676897578E-01 -7.13888789931E-04 +9.64851547842E-04 -7.71170531932E-04 +9.90495376096E-04 +1.73193030550E-01 -4.89745325847E-01
4.17500000000E+09 +1.26589342921E-01 -5.16361643486E-01 -6.80902551807E-04 +1.16132141900E-03 -6.39896680536E-04 +1.14791007561E-03 +1.52029604901E-01 -4.83536783992E-01
4.18000000000E+09 +1.11555347231E-01 -5.11919274479E-01 -4.50745743431E-04 +1.49474205229E-03 -4.51621840940E-04 +1.48334683910E-03 +1.31297332831E-01 -4.75984426496E-01
4.18500000000E+09 +9.51371157945E-02 -5.07250398195E-01 +2.59502154339E-04 +1.47732215037E-03 +2.92991127400E-04 +1.51866748015E-03 +1.11723169129E-01 -4.68532396295E-01
4.19000000000E+09 +7.68374869050E-02 -5.01031769040E-01 +1.60210334826E-04 +9.50656357228E-04 +2.22116234901E-04 +9.21652931926E-04 +9.11694867758E-02 -4.60828067564E-01
4.19500000000E+09 +5.86092066749E-02 -4.94096260628E-01 +8.77490652496E-05 +9.94435709729E-04 +6.19053046886E-05 +9.57746966968E-04 +7.09439003682E-02 -4.51305918365E-01
4.20000000000E+09 +4.02425391665E-02 -4.88044298505E-01 +1.71968759581E-04 +1.05645533172E-03 +1.77799535115E-04 +1.07231003652E-03 +5.12152660529E-02 -4.40777106009E-01
4.20500000000E+09 +2.19865993761E-02 -4.82891185416E-01 -4.88302362750E-05 +1.01555718717E-03 -2.78713413910E-05 +1.05028375013E-03 +3.15549362307E-02 -4.29651272935E-01
4.21000000000E+09 +3.57120004390E-03 -4.78087316128E-01 +3.71448566487E-05 +1.72365208618E-03 +1.42626371023E-05 +1.75302617597E-03 +1.27110104331E-02 -4.17440011658E-01
4.21500000000E+09 -1.42537090204E-02 -4.72496051851E-01 +9.55372604050E-04 +2.16724548660E-03 +9.63363757332E-04 +2.23159367561E-03 -5.28295306629E-03 -4.05672208107E-01
4.22000000000E+09 -3.12114749849E-02 -4.65054755865E-01 +1.79069588309E-03 +1.45375947937E-03 +1.79372172190E-03 +1.44500390168E-03 -2.30938377674E-02 -3.93518980852E-01
4.22500000000E+09 -4.58115355840E-02 -4.55681574530E-01 +1.92302779995E-03 +7.34353164785E-04 +1.91452938968E-03 +7.44528040581E-04 -4.06049773614E-02 -3.80354446667E-01
4.23000000000E+09 -5.94909469172E-02 -4.45585741023E-01 +1.54632487746E-03 +2.13006775262E-04 +1.57993724728E-03 +1.82362982784E-04 -5.76182784326E-02 -3.66281349798E-01
4.23500000000E+09 -7.41102431317E-02 -4.34207598176E-01 +1.23014169626E-03 +3.85359524292E-04 +1.21788300085E-03 +3.77340206695E-04 -7.45291579888E-02 -3.50632056097E-01
4.24000000000E+09 -8.95918204570E-02 -4.21171425755E-01 +1.21671564304E-03 +5.71259771795E-04 +1.19147755321E-03 +6.41635940359E-04 -8.99943102992E-02 -3.34177701793E-01
4.24500000000E+09 -1.06517258518E-01 -4.07212452324E-01 +1.80129861598E-03 +6.95136681578E-04 +1.81839615281E-03 +7.32062197770E-04 -1.05466069216E-01 -3.17173226750E-01
4.25000000000E+09 -1.24426227782E-01 -3.93009596320E-01 +2.43805689314E-03 +9.68528354148E-05 +2.49361618925E-03 +2.04960225007E-04 -1.19520732898E-01 -2.99351490408E-01
4.25500000000E+09 -1.42582020710E-01 -3.79452542710E-01 +2.34458005440E-03 -8.12623243788E-04 +2.37667744072E-03 -8.01546250815E-04 -1.32578634105E-01 -2.82340449415E-01
4.26000000000E+09 -1.61677682077E-01 -3.67182160824E-01 +1.72692697770E-03 -1.30569985018E-03 +1.71286141700E-03 -1.33401466726E-03 -1.45757023593E-01 -2.65077020565E-01
4.26500000000E+09 -1.80388289539E-01 -3.55633402778E-01 +1.34022016806E-03 -1.19643434484E-03 +1.31838273538E-03 -1.16730047286E-03 -1.58128503805E-01 -2.46139439733E-01
4.27000000000E+09 -1.97718285328E-01 -3.44393970544E-01 +1.26363964716E-03 -1.18333110434E-03 +1.28737772178E-03 -1.18566509504E-03 -1.70639488845E-01 -2.26760648086E-01
4.27500000000E+09 -2.13458703975E-01 -3.32923673681E-01 +1.31500767650E-03 -1.43101415032E-03 +1.26485619183E-03 -1.43308208693E-03 -1.81779993143E-01 -2.05669429175E-01
4.28000000000E+09 -2.26744516962E-01 -3.19889646417E-01 +9.63177155619E-04 -1.56452902243E-03 +9.65701606608E-04 -1.65109068140E-03 -1.91383665044E-01 -1.84791674130E-01
4.28500000000E+09 -2.37187741399E-01 -3.06169539117E-01 +8.27076398131E-04 -1.33717739025E-03 +8.21487539058E-04 -1.35973008638E-03 -1.99714349846E-01 -1.64219859725E-01
4.29000000000E+09 -2.46862712594E-01 -2.91766160208E-01 +9.64738675365E-04 -1.87924263852E-03 +9.25179237342E-04 -1.94123215177E-03 -2.07448272389E-01 -1.44587177018E-01
4.29500000000E+09 -2.57267533973E-01 -2.75472198969E-01 +2.87747139272E-04 -2.16389306758E-03 +2.18786925631E-04 -2.21008904078E-03 -2.14970036821E-01 -1.25299880899E-01
4.30000000000E+09 -2.68005105181E-01 -2.56816925951E-01 -2.49253954732E-05 -1.71274537116E-03 -1.54201505813E-04 -1.70229673833E-03 -2.21041495418E-01 -1.04664864269E-01
4.30500000000E+09 -2.79378707022E-01 -2.37017160711E-01 +1.25170254887E-04 -1.84199562073E-03 +5.19083035206E-05 -1.86938006423E-03 -2.26249751612E-01 -8.40252371611E-02
4.31000000000E+09 -2.90587178796E-01 -2.16807890347E-01 -4.09137472577E-04 -2.08097392967E-03 -4.60296429328E-04 -2.01228696873E-03 -2.30055982380E-01 -6.31560134162E-02
4.31500000000E+09 -3.02657913262E-01 -1.98553815777E-01 -7.28432042380E-04 -1.84670470518E-03 -8.31977702911E-04 -1.84672369315E-03 -2.32969972059E-01 -4.20486416445E-02
4.32000000000E+09 -3.15134208236E-01 -1.81286317901E-01 -9.63937035959E-04 -1.49385344241E-03 -9.53391419141E-04 -1.41853786340E-03 -2.35298652179E-01 -2.12174357263E-02
4.32500000000E+09 -3.27245485812E-01 -1.65051000824E-01 -6.71237800826E-04 -1.48110210519E-03 -6.93699971381E-04 -1.44827322646E-03 -2.37334634709E-01 -7.44154869164E-04
4.33000000000E+09 -3.37327671398E-01 -1.48566163506E-01 -9.84575861232E-04 -1.84319171743E-03 -1.03409524123E-03 -1.73642906513E-03 -2.38612069745E-01 +2.00281386257E-02
4.33500000000E+09 -3.43823474895E-01 -1.33090728952E-01 -1.24387205845E-03 -1.84843846654E-03 -1.23900615423E-03 -1.78543880153E-03 -2.38807814839E-01 +4.08695067275E-02
4.34000000000E+09 -3.48529399534E-01 -1.18056643835E-01 -2.15674982939E-03 -1.89058123636E-03 -2.13651270991E-03 -1.80697718422E-03 -2.38699615868E-01 +6.11289725610E-02
4.34500000000E+09 -3.51490161891E-01 -1.02000659805E-01 -2.62779857481E-03 -8.75182406817E-04 -2.56341655026E-03 -8.22872708564E-04 -2.37597513638E-01 +8.17160126942E-02
4.35000000000E+09 -3.53562381511E-01 -8.44175459006E-02 -2.26950933167E-03 -2.35074296292E-04 -2.12735548698E-03 -1.94146430962E-04 -2.36502335620E-01 +1.01518369791E-01
4.35500000000E+09 -3.55821730851E-01 -6.42168181935E-02 -1.91527014924E-03 -4.33526623847E-04 -1.91714089090E-03 -4.07165808234E-04 -2.33731071681E-01 +1.21966946229E-01
4.36000000000E+09 -3.57790618872E-01 -4.18908299201E-02 -2.30416450710E-03 -2.39748244948E-04 -2.21058114622E-03 -2.64826306285E-04 -2.29877395431E-01 +1.40548167267E-01
4.36500000000E+09 -3.60107787572E-01 -1.95525967857E-02 -2.59997697213E-03 -9.42072301520E-05 -2.60514349356E-03 -8.30979468905E-05 -2.26182563988E-01 +1.58715488903E-01
4.37000000000E+09 -3.64124097641E-01 +3.03343513672E-03 -2.98056997939E-03 +7.40280040202E-04 -2.99069483915E-03 +7.39770970268E-04 -2.21282017358E-01 +1.77054778189E-01
4.37500000000E+09 -3.68402917905E-01 +2.37573206338E-02 -2.46517963212E-03 +1.51941463198E-03 -2.43171685886E-03 +1.55057548245E-03 -2.16183814095E-01 +1.94646650970E-01
4.38000000000E+09 -3.74182169087E-01 +4.32802332964E-02 -2.00387602690E-03 +1.73002124352E-03 -1.99702121712E-03 +1.69860867239E-03 -2.09620065528E-01 +2.12655733699E-01
4.38500000000E+09 -3.78547652689E-01 +6.07723275946E-02 -1.67479141656E-03 +2.03963769651E-03 -1.63532828785E-03 +2.08960511929E-03 -2.03080984312E-01 +2.29941977956E-01
4.39000000000E+09 -3.81545946437E-01 +7.67967096835E-02 -1.25949863260E-03 +2.19026274151E-03 -1.20641189881E-03 +2.24633627690E-03 -1.95793338190E-01 +2.46921912333E-01
4.39500000000E+09 -3.82174823870E-01 +9.13186299416E-02 -8.26712064401E-04 +2.32719669607E-03 -7.41820975901E-04 +2.36044020432E-03 -1.88765213903E-01 +2.62267538619E-01
4.40000000000E+09 -3.80494888259E-01 +1.05710763122E-01 -4.01314597317E-04 +2.25682736657E-03 -3.35591103768E-04 +2.18737758992E-03 -1.81579736795E-01 +2.78288092954E-01
4.40500000000E+09 -3.76622265118E-01 +1.20679766836E-01 -2.49921199575E-04 +2.15760170498E-03 -1.97921253803E-04 +2.15417475897E-03 -1.73078132593E-01 +2.93492452706E-01
4.41000000000E+09 -3.71341944419E-01 +1.37641482727E-01 +2.73231669847E-04 +2.25174976287E-03 +3.18049026282E-04 +2.24836178890E-03 -1.64377958517E-01 +3.07600600219E-01
4.41500000000E+09 -3.64918971087E-01 +1.55898061969E-01 +3.87806503124E-04 +2.00051228389E-03 +3.63468490115E-04 +1.99101945031E-03 -1.55688558237E-01 +3.21828018612E-01
4.42000000000E+09 -3.58737654000E-01 +1.76396568996E-01 +3.49558062296E-04 +1.97861346896E-03 +3.75531932137E-04 +1.98623689264E-03 -1.46766030497E-01 +3.36466163784E-01
4.42500000000E+09 -3.53534024809E-01 +1.96737003102E-01 +9.94236107812E-04 +2.24007037290E-03 +9.86582132474E-04 +2.18591796542E-03 -1.36669948817E-01 +3.50144622725E-01
4.43000000000E+09 -3.51146473917E-01 +2.17909340291E-01 +1.42382063907E-03 +1.72420611015E-03 +1.40954015834E-03 +1.65115003902E-03 -1.27743827037E-01 +3.63702304447E-01
4.43500000000E+09 -3.48602071642E-01 +2.39161380391E-01 +1.62313182086E-03 +1.38359723817E-03 +1.61519528289E-03 +1.36616009379E-03 -1.17084893725E-01 +3.76879164546E-01
4.44000000000E+09 -3.45980037133E-01 +2.57701144918E-01 +1.56526856790E-03 +7.82097614816E-04 +1.59248545462E-03 +7.94519840163E-04 -1.07192843881E-01 +3.88584237528E-01
4.44500000000E+09 -3.43807568059E-01 +2.73389767909E-01 +1.31634484568E-03 +8.04238774169E-04 +1.29714667045E-03 +7.31502310299E-04 -9.66728675490E-02 +4.00347734564E-01
4.45000000000E+09 -3.40933288602E-01 +2.86875622323E-01 +1.18687928521E-03 +9.70368957654E-04 +1.24464857521E-03 +9.22123100665E-04 -8.56984508424E-02 +4.11203179195E-01
4.45500000000E+09 -3.36758374166E-01 +2.99108592787E-01 +1.86584691218E-03 +1.00261699945E-03 +1.85653493560E-03 +9.06566053125E-04 -7.43933934751E-02 +4.21685170680E-01
4.46000000000E+09 -3.30483072170E-01 +3.11470909658E-01 +2.05207050179E-03 +9.79763531355E-05 +2.06212959702E-03 +4.66134493210E-05 -6.28484565706E-02 +4.31563963061E-01
4.46500000000E+09 -3.21643480179E-01 +3.24110933782E-01 +1.71802503349E-03 -1.54861615162E-04 +1.66263143605E-03 -1.84341834791E-04 -5.09965636884E-02 +4.40445364332E-01
4.47000000000E+09 -3.11268123151E-01 +3.38529703171E-01 +1.27405554512E-03 -2.02964360027E-04 +1.22138271615E-03 -2.60718394104E-04 -4.00374227844E-02 +4.49396001110E-01
4.47500000000E+09 -2.99566560960E-01 +3.54858818901E-01 +1.39138783515E-03 +5.39417738757E-05 +1.31568939655E-03 +9.56434339170E-06 -2.84575690209E-02 +4.58311449685E-01
4.48000000000E+09 -2.87215949132E-01 +3.72432408554E-01 +1.75219630826E-03 -6.73066790877E-06 +1.66115265555E-03 -3.88051226706E-05 -1.67064526335E-02 +4.66182972231E-01
4.48500000000E+09 -2.75705127195E-01 +3.89767174015E-01 +1.84481521647E-03 -7.16760276787E-04 +1.72789315484E-03 -6.72515026666E-04 -5.62014744167E-03 +4.74104885187E-01
4.49000000000E+09 -2.66957584438E-01 +4.06913648160E-01 +1.80549775731E-03 -9.59828257048E-04 +1.64825822249E-03 -8.92085932553E-04 +6.26024259551E-03 +4.81638803010E-01
4.49500000000E+09 -2.59718013959E-01 +4.23435954794E-01 +1.20969219688E-03 -1.30042771339E-03 +1.15405690234E-03 -1.21185644647E-03 +1.74004263976E-02 +4.88293810833E-01
4.50000000000E+09 -2.53950540710E-01 +4.37422905976E-01 +9.71055290860E-04 -1.14560897295E-03 +9.25930863521E-04 -1.13104339359E-03 +2.89030281653E-02 +4.94748574329E-01
4.50500000000E+09 -2.49708291655E-01 +4.49790830370E-01 +1.09720671102E-03 -1.02040352413E-03 +1.08402060692E-03 -1.01085162244E-03 +4.03716888522E-02 +5.00809913856E-01
4.51000000000E+09 -2.44373646833E-01 +4.60530900954E-01 +1.00615164633E-03 -1.62789561025E-03 +9.75396072148E-04 -1.57054305899E-03 +5.17078244525E-02 +5.06486990764E-01
4.51500000000E+09 -2.36612714882E-01 +4.68738667118E-01 +6.59209020291E-04 -1.68479403017E-03 +6.67698332334E-04 -1.66627710812E-03 +6.26121658058E-02 +5.12171539297E-01
4.52000000000E+09 -2.27381230662E-01 +4.75696313199E-01 +3.21809394159E-04 -1.79396171999E-03 +3.07078840540E-04 -1.70174350841E-03 +7.44059752059E-02 +5.17508376588E-01
4.52500000000E+09 -2.15988786969E-01 +4.82513052318E-01 +1.24403383517E-04 -1.50809580402E-03 +9.06372275452E-05 -1.46602668942E-03 +8.60170341392E-02 +5.21878039925E-01
4.53000000000E+09 -2.03242773563E-01 +4.90253505550E-01 +1.50715519592E-04 -1.62617953999E-03 +1.49049308819E-04 -1.59357030688E-03 +9.76706537504E-02 +5.25923593586E-01
4.53500000000E+09 -1.88653441497E-01 +4.99795274969E-01 -1.74958379800E-04 -1.80802162630E-03 -1.81930775485E-04 -1.68562216223E-03 +1.09030007613E-01 +5.29623738269E-01
4.54000000000E+09 -1.73761236333E-01 +5.10003992366E-01 -3.95437385234E-04 -1.94138617537E-03 -3.84236688897E-04 -1.83730250471E-03 +1.20747507453E-01 +5.32872295280E-01
4.54500000000E+09 -1.59761473341E-01 +5.21632805349E-01 -1.06164739831E-03 -1.76070489355E-03 -1.06165238181E-03 -1.66090391993E-03 +1.31471889991E-01 +5.36254736387E-01
4.55000000000E+09 -1.46723642939E-01 +5.32850702778E-01 -1.47862461619E-03 -1.06543490409E-03 -1.40980573608E-03 -1.01916857329E-03 +1.43325333916E-01 +5.39824269962E-01
4.55500000000E+09 -1.35717329532E-01 +5.43416489934E-01 -1.10360648431E-03 -6.41889187970E-04 -1.00908658416E-03 -6.49736482860E-04 +1.54434557905E-01 +5.42200660293E-01
4.56000000000E+09 -1.26378567114E-01 +5.52928165252E-01 -9.22093543430E-04 -8.49792947886E-04 -9.31707315726E-04 -8.67676013868E-04 +1.64958625132E-01 +5.45071218676E-01
4.56500000000E+09 -1.17455051571E-01 +5.60701904505E-01 -1.15023125890E-03 -9.05108816940E-04 -1.09299755890E-03 -8.97777228863E-04 +1.75479774167E-01 +5.47406398014E-01
4.57000000000E+09 -1.08664303091E-01 +5.66461940901E-01 -1.49329866464E-03 -7.31524902315E-04 -1.44804137846E-03 -7.25818777958E-04 +1.86200837866E-01 +5.49652355491E-01
