# Hz S RI R 50
! CMT, C1220, 16058040, 17.2.0/1
! Date: 15/08/2018 12:19:18
! Data: Format (Calibration Info)
! Freq                      S11: Re/Im (F2)                       S21: Re/Im (F2)                       S12: Re/Im (F2)                       S22: Re/Im (F2)            
4.00000000000E+09 +6.49078543533E-01 -3.50844410046E-01 +9.90689725234E-04 +1.03329236607E-04 +1.06035513236E-03 +1.62433003259E-04 +7.40959170167E-01 -3.25936262098E-01
4.00500000000E+09 +6.41162494703E-01 -3.57079434665E-01 +1.04128178668E-03 +1.25696596687E-04 +1.13118080422E-03 +1.62191829340E-04 +7.30548324364E-01 -3.36473859780E-01
4.01000000000E+09 +6.32197968446E-01 -3.63953612989E-01 +1.30917548533E-03 -1.77577899090E-04 +1.35766840342E-03 -1.16973375285E-04 +7.19546050605E-01 -3.47384284749E-01
4.01500000000E+09 +6.21605893193E-01 -3.71223287284E-01 +1.27559900386E-03 -4.80172611833E-04 +1.35394400999E-03 -4.15455742087E-04 +7.08315866171E-01 -3.57331376562E-01
4.02000000000E+09 +6.10671661570E-01 -3.79231683815E-01 +9.49131668811E-04 -8.53915021491E-04 +1.04917525693E-03 -8.50669467444E-04 +6.96750133857E-01 -3.67224653164E-01
4.02500000000E+09 +5.99320394066E-01 -3.88231952951E-01 +6.01847932520E-04 -5.44185191875E-04 +7.05135757197E-04 -5.70975657385E-04 +6.84527060097E-01 -3.77088202080E-01
4.03000000000E+09 +5.88123843031E-01 -3.97884349959E-01 +8.83244673746E-04 -5.09099301726E-04 +8.97449776797E-04 -4.91253416852E-04 +6.71793083299E-01 -3.86193802967E-01
4.03500000000E+09 +5.77472948527E-01 -4.08060272681E-01 +1.00456419451E-03 -7.45533630986E-04 +1.10039800659E-03 -7.21409259472E-04 +6.58905991984E-01 -3.95923987774E-01
4.04000000000E+09 +5.66910064335E-01 -4.18501875064E-01 +9.40235346290E-04 -1.00676482867E-03 +9.93377672472E-04 -9.99588398557E-04 +6.45291766429E-01 -4.05927789592E-01
4.04500000000E+09 +5.55803486390E-01 -4.28268163689E-01 +6.15273050818E-04 -1.16947625400E-03 +6.81946815459E-04 -1.21849800452E-03 +6.31107327752E-01 -4.15312864156E-01
4.05000000000E+09 +5.44212968893E-01 -4.35647111636E-01 +4.36741089848E-04 -1.02280977855E-03 +4.49487376774E-04 -1.06626446679E-03 +6.17103294011E-01 -4.23575703964E-01
4.05500000000E+09 +5.33132215246E-01 -4.40599712104E-01 +5.33463187476E-04 -1.03386619909E-03 +5.42252030375E-04 -1.09492964331E-03 +6.03261101375E-01 -4.31688205417E-01
4.06000000000E+09 +5.21815747223E-01 -4.44983467860E-01 +4.35086223160E-04 -1.16512681462E-03 +4.65357373592E-04 -1.24689380984E-03 +5.88727533840E-01 -4.39507525567E-01
4.06500000000E+09 +5.09361374548E-01 -4.48610342930E-01 +4.23522473778E-04 -1.41297536564E-03 +4.80778589698E-04 -1.41088951554E-03 +5.73118933631E-01 -4.47105575388E-01
4.07000000000E+09 +4.95655212826E-01 -4.52721361691E-01 -1.48038010348E-05 -1.66182254954E-03 +6.40182992732E-06 -1.68429874373E-03 +5.57242166323E-01 -4.54207733688E-01
4.07500000000E+09 +4.80502339327E-01 -4.56991092194E-01 -2.78334160508E-04 -1.35871718184E-03 -2.32753296401E-04 -1.39854522168E-03 +5.40806619498E-01 -4.61526268052E-01
4.08000000000E+09 +4.64332663645E-01 -4.62022246283E-01 -2.36223444821E-04 -1.29862311423E-03 -2.10786638034E-04 -1.32091417349E-03 +5.24690684483E-01 -4.67767090202E-01
4.08500000000E+09 +4.47449044647E-01 -4.67289411460E-01 -4.22127245701E-04 -1.28998435149E-03 -4.04554481045E-04 -1.29077655269E-03 +5.08412076510E-01 -4.75120861098E-01
4.09000000000E+09 +4.31105559630E-01 -4.73700170971E-01 -3.27749303046E-04 -1.31871313328E-03 -2.77300546621E-04 -1.35789485248E-03 +4.90805747834E-01 -4.80482189830E-01
4.09500000000E+09 +4.14633383960E-01 -4.80515986503E-01 -5.26121525198E-04 -1.50657597951E-03 -5.05628549845E-04 -1.52303191071E-03 +4.74363055310E-01 -4.85186586629E-01
4.10000000000E+09 +3.97672521384E-01 -4.86609426348E-01 -8.79409399147E-04 -1.46332137245E-03 -8.57436093792E-04 -1.48272598108E-03 +4.56217223947E-01 -4.90485903452E-01
4.10500000000E+09 +3.81721143161E-01 -4.90547406802E-01 -1.01108930242E-03 -1.25576105480E-03 -1.00909247164E-03 -1.32949634868E-03 +4.37162799117E-01 -4.94293852497E-01
4.11000000000E+09 +3.66378120408E-01 -4.93108473675E-01 -1.24001010124E-03 -1.19972641852E-03 -1.27534076934E-03 -1.27016657482E-03 +4.18459723400E-01 -4.97866652731E-01
4.11500000000E+09 +3.51772203575E-01 -4.94901348487E-01 -1.17068868832E-03 -1.20472614098E-03 -1.20837100392E-03 -1.23647651896E-03 +3.99118393334E-01 -5.01677154882E-01
4.12000000000E+09 +3.36062418510E-01 -4.96453250946E-01 -1.67073648086E-03 -1.23726092547E-03 -1.68564257885E-03 -1.28403200206E-03 +3.79575899340E-01 -5.04537967917E-01
4.12500000000E+09 +3.18915575465E-01 -4.96831795777E-01 -2.20332293640E-03 -8.14649940925E-04 -2.20330514684E-03 -8.76498909830E-04 +3.59583198280E-01 -5.06727146042E-01
4.13000000000E+09 +3.00879348249E-01 -4.97697503205E-01 -2.06031322955E-03 -1.58885417123E-04 -2.21371806569E-03 -1.88286698072E-04 +3.39386777303E-01 -5.07994368259E-01
4.13500000000E+09 +2.81904395310E-01 -4.98685589681E-01 -1.75729891025E-03 +6.55656466252E-05 -1.84854963485E-03 +2.10379781782E-05 +3.18859067131E-01 -5.08128423418E-01
4.14000000000E+09 +2.62647059450E-01 -5.00792612112E-01 -1.64203328215E-03 +3.93896068334E-06 -1.73739860115E-03 -4.22767295205E-05 +2.98199667708E-01 -5.08050298501E-01
4.14500000000E+09 +2.43588123527E-01 -5.04569858775E-01 -1.86653299829E-03 +1.42210142950E-04 -1.96661708083E-03 +1.07782159159E-04 +2.77497768503E-01 -5.07208798969E-01
4.15000000000E+09 +2.23544595540E-01 -5.09293333369E-01 -1.73133710284E-03 +4.16926010361E-04 -1.86512363048E-03 +4.38702519511E-04 +2.57170540443E-01 -5.06080478386E-01
4.15500000000E+09 +2.03936212982E-01 -5.13071738222E-01 -1.76086061408E-03 +2.81933724843E-04 -1.85261150967E-03 +3.04760700694E-04 +2.36209723423E-01 -5.03534691313E-01
4.16000000000E+09 +1.85710839483E-01 -5.15472916576E-01 -2.19193955734E-03 +5.86541337580E-04 -2.18665723679E-03 +6.34610083940E-04 +2.15960603690E-01 -4.99807772195E-01
4.16500000000E+09 +1.68915974183E-01 -5.16320906777E-01 -2.06764229642E-03 +1.20401976346E-03 -2.17100433934E-03 +1.23450575818E-03 +1.95526618695E-01 -4.95786580464E-01
4.17000000000E+09 +1.53436765280E-01 -5.15672640219E-01 -1.83279764227E-03 +1.20336307457E-03 -1.89726251953E-03 +1.21890800021E-03 +1.74728225025E-01 -4.90608215562E-01
4.17500000000E+09 +1.38383145502E-01 -5.13460921712E-01 -1.85324088210E-03 +1.67730157000E-03 -1.88042904201E-03 +1.74057882252E-03 +1.53593497267E-01 -4.84689999817E-01
4.18000000000E+09 +1.22948730515E-01 -5.10009102604E-01 -1.50714020274E-03 +2.10910787786E-03 -1.53588186949E-03 +2.20838089776E-03 +1.33010733511E-01 -4.77686752447E-01
4.18500000000E+09 +1.06608315091E-01 -5.05868892313E-01 -9.69482500637E-04 +2.26976327717E-03 -9.42759556879E-04 +2.27547429811E-03 +1.13260940707E-01 -4.71025729399E-01
4.19000000000E+09 +8.89915154336E-02 -5.00417305366E-01 -8.29439107644E-04 +2.01062100422E-03 -7.84397200557E-04 +2.07753421921E-03 +9.17683433230E-02 -4.63572784454E-01
4.19500000000E+09 +7.16004326577E-02 -4.94660108037E-01 -9.45746835590E-04 +2.00869928086E-03 -9.21139491090E-04 +2.03415619487E-03 +7.10888020590E-02 -4.53794666423E-01
4.20000000000E+09 +5.34713906722E-02 -4.90231494976E-01 -7.59920501480E-04 +2.56638306146E-03 -7.25008623640E-04 +2.58001398417E-03 +5.14420085421E-02 -4.43259848642E-01
4.20500000000E+09 +3.45367541945E-02 -4.86266692428E-01 -6.38396418929E-04 +2.42759437571E-03 -6.29994873726E-04 +2.44102925868E-03 +3.13269579425E-02 -4.32796155733E-01
4.21000000000E+09 +1.57566412966E-02 -4.81375936521E-01 -4.63692242996E-04 +3.32461534123E-03 -5.03934778033E-04 +3.31168206295E-03 +1.15883144351E-02 -4.20835457985E-01
4.21500000000E+09 -2.12669642927E-03 -4.75633893352E-01 +6.55844110467E-04 +3.65053900742E-03 +6.38492500617E-04 +3.67075272777E-03 -7.46933454710E-03 -4.08890493248E-01
4.22000000000E+09 -1.86912235148E-02 -4.68310809523E-01 +1.37361181503E-03 +3.16972525173E-03 +1.36937065958E-03 +3.14322564750E-03 -2.61109371636E-02 -3.96093618813E-01
4.22500000000E+09 -3.33485279554E-02 -4.60225572756E-01 +1.85074938479E-03 +2.91469695803E-03 +1.90418864219E-03 +2.90129794677E-03 -4.38861060768E-02 -3.81733383835E-01
4.23000000000E+09 -4.81942163692E-02 -4.51554713873E-01 +2.18932078503E-03 +2.28852216891E-03 +2.20364349373E-03 +2.32247872949E-03 -6.02927837873E-02 -3.67098314761E-01
4.23500000000E+09 -6.43407650480E-02 -4.40835574005E-01 +2.15104173531E-03 +2.19240613752E-03 +2.16436078289E-03 +2.22509159259E-03 -7.72195883465E-02 -3.51576326937E-01
4.24000000000E+09 -8.08404972714E-02 -4.28367553239E-01 +2.41000527037E-03 +2.09136664748E-03 +2.42350668967E-03 +2.08926354755E-03 -9.28876620116E-02 -3.34569742038E-01
4.24500000000E+09 -9.79379422635E-02 -4.15476583810E-01 +3.07891676275E-03 +2.06395627628E-03 +3.09821811608E-03 +2.13392269038E-03 -1.08295207182E-01 -3.17422286905E-01
4.25000000000E+09 -1.16621118775E-01 -4.02712307676E-01 +3.78253515487E-03 +1.39195486571E-03 +3.80003192427E-03 +1.42306118597E-03 -1.22542501327E-01 -2.99560816218E-01
4.25500000000E+09 -1.35376367696E-01 -3.90437185374E-01 +3.88244052356E-03 +3.98663616462E-04 +3.92964849885E-03 +4.05297204616E-04 -1.35645598909E-01 -2.81852493721E-01
4.26000000000E+09 -1.55164686516E-01 -3.79339596930E-01 +3.42898044468E-03 -2.79071634448E-04 +3.47703574416E-03 -2.67012255780E-04 -1.48809187678E-01 -2.64119542755E-01
4.26500000000E+09 -1.74725030778E-01 -3.68040356201E-01 +3.29592159309E-03 -2.83180594823E-04 +3.39922089434E-03 -3.45556386661E-04 -1.61180682244E-01 -2.44811378320E-01
4.27000000000E+09 -1.92212993179E-01 -3.56550979814E-01 +3.59754910491E-03 -8.03760862114E-04 +3.66756845306E-03 -8.19006022890E-04 -1.72984013208E-01 -2.24949990491E-01
4.27500000000E+09 -2.08043212789E-01 -3.45412853510E-01 +3.44157167863E-03 -1.65205578365E-03 +3.49708747064E-03 -1.73828184638E-03 -1.83844338800E-01 -2.04271458336E-01
4.28000000000E+09 -2.22150433721E-01 -3.32567632814E-01 +2.79429720039E-03 -1.98900949034E-03 +2.83627890557E-03 -2.04642950053E-03 -1.94017360379E-01 -1.83525212262E-01
4.28500000000E+09 -2.34245642192E-01 -3.18760844319E-01 +2.83276335453E-03 -2.04329693583E-03 +2.90132026747E-03 -2.09047407069E-03 -2.02912465445E-01 -1.62333001251E-01
4.29000000000E+09 -2.45465716353E-01 -3.03224921330E-01 +2.55441115019E-03 -2.73840078994E-03 +2.58089070954E-03 -2.84456635596E-03 -2.10743811225E-01 -1.41989348553E-01
4.29500000000E+09 -2.56662017651E-01 -2.85855802456E-01 +1.99797389841E-03 -3.32504187631E-03 +1.97607157466E-03 -3.41709487811E-03 -2.17856608934E-01 -1.21741458652E-01
4.30000000000E+09 -2.68258958113E-01 -2.67337657888E-01 +1.06053690368E-03 -3.24236120579E-03 +1.01549676235E-03 -3.30779913255E-03 -2.23750549728E-01 -1.00780352458E-01
4.30500000000E+09 -2.80741265442E-01 -2.47639322527E-01 +1.03410494456E-03 -3.01601442056E-03 +9.38765555322E-04 -3.11856044641E-03 -2.28081059271E-01 -7.92820240191E-02
4.31000000000E+09 -2.93423624592E-01 -2.28303133765E-01 +6.70551401381E-04 -3.47824538484E-03 +6.28277134687E-04 -3.57401633580E-03 -2.31136195841E-01 -5.84332794134E-02
4.31500000000E+09 -3.07544244823E-01 -2.10056010636E-01 -1.16808353930E-04 -3.34978205655E-03 -2.53744291966E-04 -3.38104967209E-03 -2.33801471651E-01 -3.70331252748E-02
4.32000000000E+09 -3.21078454168E-01 -1.91918416396E-01 -3.19088956667E-04 -3.01434578316E-03 -4.03036587317E-04 -2.98655827457E-03 -2.35595308269E-01 -1.58959242114E-02
4.32500000000E+09 -3.33154381036E-01 -1.75008356436E-01 -4.38711533574E-04 -3.22243900301E-03 -5.53451603943E-04 -3.17862959261E-03 -2.37017205936E-01 +4.90664226472E-03
4.33000000000E+09 -3.42912159463E-01 -1.58902597879E-01 -1.19966661029E-03 -3.24112302557E-03 -1.30451298125E-03 -3.18243492537E-03 -2.37573857781E-01 +2.58490049562E-02
4.33500000000E+09 -3.50045783266E-01 -1.43905375833E-01 -1.35194907287E-03 -2.92872923017E-03 -1.42654668399E-03 -2.84006323199E-03 -2.37178038491E-01 +4.66732993903E-02
4.34000000000E+09 -3.55709391360E-01 -1.28339622248E-01 -2.08852741273E-03 -2.93002750942E-03 -2.11201363549E-03 -2.80729690821E-03 -2.35852102345E-01 +6.71503817696E-02
4.34500000000E+09 -3.59419480374E-01 -1.11057316743E-01 -2.43442242432E-03 -2.18598044514E-03 -2.46984376452E-03 -2.09372410792E-03 -2.33576412669E-01 +8.70264249422E-02
4.35000000000E+09 -3.61542557303E-01 -9.24343031928E-02 -2.25167457881E-03 -1.75908703300E-03 -2.26659328110E-03 -1.60675563075E-03 -2.31577602541E-01 +1.05890491384E-01
4.35500000000E+09 -3.64220014939E-01 -7.14061644941E-02 -2.38530675841E-03 -2.01786155010E-03 -2.31878447489E-03 -1.90690366709E-03 -2.28890102741E-01 +1.25066354600E-01
4.36000000000E+09 -3.66219986934E-01 -4.84226949489E-02 -2.89511330113E-03 -1.59111360287E-03 -2.87658677419E-03 -1.54107688681E-03 -2.25602728812E-01 +1.43223325230E-01
4.36500000000E+09 -3.69169691863E-01 -2.53279647050E-02 -3.28912341240E-03 -1.53859732410E-03 -3.17691683989E-03 -1.46891602188E-03 -2.21858412748E-01 +1.61362225481E-01
4.37000000000E+09 -3.73564061890E-01 -2.28083840172E-03 -3.96915384913E-03 -5.97931322689E-04 -3.89000632849E-03 -5.23483922740E-04 -2.17066129566E-01 +1.79470619874E-01
4.37500000000E+09 -3.78343369649E-01 +1.96538319488E-02 -3.56892217606E-03 +1.29029108819E-04 -3.48901081816E-03 +1.55839491822E-04 -2.11383018619E-01 +1.97076486521E-01
4.38000000000E+09 -3.83904225922E-01 +3.97723144459E-02 -3.49378171153E-03 +6.24735004162E-04 -3.35444109745E-03 +6.91322519551E-04 -2.04771446603E-01 +2.14339725156E-01
4.38500000000E+09 -3.88412554368E-01 +5.80847178494E-02 -3.25817794355E-03 +1.09967014669E-03 -3.09287635149E-03 +1.08629664752E-03 -1.98255999185E-01 +2.31292646938E-01
4.39000000000E+09 -3.91507556087E-01 +7.45200580717E-02 -2.98475884677E-03 +1.57020093914E-03 -2.82531304636E-03 +1.54390134173E-03 -1.91090501302E-01 +2.48236800789E-01
4.39500000000E+09 -3.92572820312E-01 +8.98900716339E-02 -2.64959166656E-03 +1.76451450556E-03 -2.56062896259E-03 +1.71609668362E-03 -1.83917647741E-01 +2.63422809267E-01
4.40000000000E+09 -3.90869975836E-01 +1.05396952664E-01 -2.41728051801E-03 +2.06601681978E-03 -2.35374355301E-03 +2.04641551193E-03 -1.76615660809E-01 +2.79633905264E-01
4.40500000000E+09 -3.86563756260E-01 +1.21094914909E-01 -2.38002734578E-03 +2.49726244991E-03 -2.28401772279E-03 +2.45860235848E-03 -1.67603242942E-01 +2.94577921696E-01
4.41000000000E+09 -3.80877024087E-01 +1.38018094971E-01 -1.59245150316E-03 +3.02485515810E-03 -1.56665478076E-03 +2.95830898396E-03 -1.58484922892E-01 +3.08415142355E-01
4.41500000000E+09 -3.75027750402E-01 +1.56508185489E-01 -1.18045473647E-03 +3.10022022711E-03 -1.19206616336E-03 +2.99942176353E-03 -1.49384527613E-01 +3.21833988661E-01
4.42000000000E+09 -3.69304802483E-01 +1.77328141674E-01 -6.56803205790E-04 +3.30772868630E-03 -6.60128214754E-04 +3.25309313781E-03 -1.40247630576E-01 +3.35828917652E-01
4.42500000000E+09 -3.64406539561E-01 +1.98694958750E-01 +1.98129909973E-04 +3.19079875046E-03 +2.42120807169E-04 +3.19030948128E-03 -1.30192804017E-01 +3.48352197142E-01
4.43000000000E+09 -3.61198282148E-01 +2.20967331131E-01 +5.15908691381E-04 +2.70860073101E-03 +4.78222185712E-04 +2.65322842958E-03 -1.21766341848E-01 +3.61124063482E-01
4.43500000000E+09 -3.57750014270E-01 +2.42315694533E-01 +7.10411385718E-04 +2.65209365259E-03 +6.89568885384E-04 +2.59017973600E-03 -1.11893200374E-01 +3.73964388252E-01
4.44000000000E+09 -3.54852896897E-01 +2.61062032324E-01 +1.13229847460E-03 +2.39777135430E-03 +1.10877095395E-03 +2.39260353940E-03 -1.02212412919E-01 +3.85527018762E-01
4.44500000000E+09 -3.52272617021E-01 +2.77565813576E-01 +1.35932979539E-03 +2.00487783838E-03 +1.34357286934E-03 +2.02428962111E-03 -9.21651703966E-02 +3.97001104258E-01
4.45000000000E+09 -3.49457335687E-01 +2.91655788226E-01 +1.28349495828E-03 +2.08910872197E-03 +1.28592427246E-03 +2.04592002057E-03 -8.15052829965E-02 +4.07496203909E-01
4.45500000000E+09 -3.45120335224E-01 +3.05713144400E-01 +1.99858876794E-03 +2.03130826262E-03 +2.03857684131E-03 +1.98516154489E-03 -7.10245165882E-02 +4.17635454175E-01
4.46000000000E+09 -3.37881918590E-01 +3.18809546022E-01 +2.18540394527E-03 +8.73372899686E-04 +2.23826903625E-03 +8.04436758444E-04 -6.02308574671E-02 +4.27591635224E-01
4.46500000000E+09 -3.28912660814E-01 +3.32105894354E-01 +1.68570686188E-03 +9.28503061613E-04 +1.73813101586E-03 +8.38374020157E-04 -4.87206084458E-02 +4.36873697524E-01
4.47000000000E+09 -3.18345929779E-01 +3.46750201156E-01 +1.88639699177E-03 +6.00784447320E-04 +1.91290497817E-03 +5.11988489189E-04 -3.79872281582E-02 +4.45910506527E-01
4.47500000000E+09 -3.06252105014E-01 +3.63596315250E-01 +1.61111033205E-03 +5.74949819270E-04 +1.64754306678E-03 +5.55862580128E-04 -2.65201884607E-02 +4.55265874920E-01
4.48000000000E+09 -2.93678221725E-01 +3.80490269143E-01 +1.88749697892E-03 +5.39103873874E-04 +1.85764266169E-03 +4.47075138901E-04 -1.48497976189E-02 +4.63334759617E-01
4.48500000000E+09 -2.82426515470E-01 +3.97687077053E-01 +1.91274047422E-03 +1.28049923684E-04 +1.89514763225E-03 +1.26480769014E-05 -3.59239141346E-03 +4.71432879117E-01
4.49000000000E+09 -2.73088031535E-01 +4.14704413448E-01 +2.19070737859E-03 -5.98299239281E-05 +2.13434334514E-03 -1.55243182212E-04 +8.30893697206E-03 +4.78815276321E-01
4.49500000000E+09 -2.65187998489E-01 +4.31015929898E-01 +1.79859795531E-03 -6.55206834531E-04 +1.71276357014E-03 -6.89349195257E-04 +1.92770166607E-02 +4.85356324391E-01
4.50000000000E+09 -2.58281072678E-01 +4.44876033110E-01 +1.51179802180E-03 -5.72778322845E-04 +1.40777384018E-03 -5.88913991872E-04 +3.06796982046E-02 +4.91892971839E-01
4.50500000000E+09 -2.52897644582E-01 +4.56900011601E-01 +1.71290100072E-03 -7.46082322746E-04 +1.62962787150E-03 -7.22264750374E-04 +4.20016592554E-02 +4.97734911438E-01
4.51000000000E+09 -2.46501504809E-01 +4.67830180746E-01 +1.41983005998E-03 -1.13131641212E-03 +1.33859829840E-03 -1.12979535706E-03 +5.29905067006E-02 +5.03475565149E-01
4.51500000000E+09 -2.37507062909E-01 +4.76478810775E-01 +1.03229606935E-03 -1.04454515174E-03 +9.74047161274E-04 -1.06564034378E-03 +6.39922791539E-02 +5.09385892778E-01
4.52000000000E+09 -2.27465757730E-01 +4.83588100918E-01 +1.00892046874E-03 -1.07874340603E-03 +9.59404050328E-04 -1.05551853630E-03 +7.58136406142E-02 +5.14487010786E-01
4.52500000000E+09 -2.15440579429E-01 +4.90974443411E-01 +9.15031732630E-04 -1.12507628117E-03 +8.28144658508E-04 -1.10067443526E-03 +8.70427014969E-02 +5.18822452589E-01
4.53000000000E+09 -2.02055351798E-01 +4.98865458363E-01 +1.00982332704E-03 -1.19347367484E-03 +9.21649718379E-04 -1.10195235087E-03 +9.86804516258E-02 +5.22725115088E-01
4.53500000000E+09 -1.87519281030E-01 +5.08618470385E-01 +7.91215750871E-04 -1.61074885725E-03 +7.22024295842E-04 -1.51134653716E-03 +1.09469630004E-01 +5.26468683141E-01
4.54000000000E+09 -1.72306694214E-01 +5.18852583882E-01 +4.75397263517E-04 -1.83222035665E-03 +4.66949427836E-04 -1.70804455991E-03 +1.20739987146E-01 +5.30040156757E-01
4.54500000000E+09 -1.58000839701E-01 +5.30219460851E-01 -1.34819712441E-04 -1.66834629548E-03 -8.94718732132E-05 -1.54187876302E-03 +1.31227037897E-01 +5.33679403902E-01
4.55000000000E+09 -1.44600675913E-01 +5.40591041946E-01 -3.03748720812E-04 -1.38961110983E-03 -2.11362921615E-04 -1.29571090814E-03 +1.43039913273E-01 +5.37770956152E-01
4.55500000000E+09 -1.33677435961E-01 +5.50128806606E-01 -2.00016883269E-04 -1.13747780697E-03 -1.95397478987E-04 -1.01969258290E-03 +1.54172790657E-01 +5.40483564260E-01
4.56000000000E+09 -1.24122422527E-01 +5.59105609601E-01 -6.38942107668E-05 -1.43107577605E-03 -5.24291925613E-06 -1.33680360481E-03 +1.65112724165E-01 +5.43659456170E-01
4.56500000000E+09 -1.14877338088E-01 +5.66340049384E-01 -4.21436900170E-04 -1.61589979372E-03 -3.79961721295E-04 -1.52648989191E-03 +1.75733442580E-01 +5.45935954924E-01
4.57000000000E+09 -1.05087442118E-01 +5.71929624234E-01 -9.32873035406E-04 -1.53644466210E-03 -8.36560356521E-04 -1.47050633404E-03 +1.86355422324E-01 +5.48383534433E-01
