# Hz S RI R 50
! CMT, C1220, 16058040, 17.2.0/1
! Date: 15/08/2018 12:17:59
! Data: Format (Calibration Info)
! Freq                      S11: Re/Im (F2)                       S21: Re/Im (F2)                       S12: Re/Im (F2)                       S22: Re/Im (F2)            
4.00000000000E+09 +6.51021376523E-01 -3.50087044433E-01 -4.53056795080E-06 -3.94817755149E-04 +2.10948627256E-05 -4.80571905175E-04 +7.42539282012E-01 -3.23937672307E-01
4.00500000000E+09 +6.42905067132E-01 -3.56449019287E-01 +6.73813027520E-05 -3.30423521706E-04 +2.78227802884E-05 -3.49835223941E-04 +7.32008511132E-01 -3.34673428502E-01
4.01000000000E+09 +6.33942305307E-01 -3.63057474597E-01 +1.66908050629E-04 -5.32764775281E-04 +1.09673076779E-04 -5.58820661018E-04 +7.21094406888E-01 -3.45508770575E-01
4.01500000000E+09 +6.23422856616E-01 -3.70195569868E-01 +1.96900300355E-05 -6.14948726417E-04 -1.17885768645E-05 -6.65244284507E-04 +7.10220191438E-01 -3.55884413254E-01
4.02000000000E+09 +6.13054227216E-01 -3.78223024488E-01 -3.07401810121E-04 -7.47156195938E-04 -3.02159579098E-04 -8.19087976135E-04 +6.98582208800E-01 -3.66012715627E-01
4.02500000000E+09 +6.01964859441E-01 -3.87611062918E-01 -5.29119948722E-04 -2.23066146873E-04 -5.70324274436E-04 -2.83760589830E-04 +6.86265206880E-01 -3.75965016584E-01
4.03000000000E+09 +5.90920394790E-01 -3.97751605031E-01 -8.13795463012E-05 -8.99054060040E-05 -1.35549725116E-04 -1.09212688422E-04 +6.73312559504E-01 -3.85329606608E-01
4.03500000000E+09 +5.79946178282E-01 -4.08537664719E-01 +8.27627126923E-05 -3.19296858571E-04 +6.84398027277E-05 -3.25968293790E-04 +6.60381877692E-01 -3.94922589065E-01
4.04000000000E+09 +5.68916366934E-01 -4.19013576581E-01 +1.46292680375E-05 -5.97146172798E-04 +3.60806163858E-05 -6.27903639754E-04 +6.46761719696E-01 -4.05034331194E-01
4.04500000000E+09 +5.57801265306E-01 -4.28291424688E-01 -3.20581806168E-04 -8.41862613155E-04 -2.89108574854E-04 -8.53453005979E-04 +6.32682173654E-01 -4.14239646113E-01
4.05000000000E+09 +5.46521230040E-01 -4.35942007986E-01 -7.48408104729E-04 -6.09209645580E-04 -8.00961508223E-04 -6.37328666347E-04 +6.18896273259E-01 -4.22869758792E-01
4.05500000000E+09 +5.35117840472E-01 -4.41301421622E-01 -6.76540959508E-04 -2.96533642449E-04 -6.32991202389E-04 -2.55112401928E-04 +6.04716878869E-01 -4.31136721460E-01
4.06000000000E+09 +5.23646801226E-01 -4.45661029623E-01 -5.96038938916E-04 -1.73973829068E-04 -6.64263763853E-04 -1.61313302720E-04 +5.90362017644E-01 -4.38976120111E-01
4.06500000000E+09 +5.11243215632E-01 -4.49663576725E-01 -4.77800873240E-04 -2.03440668571E-04 -4.73384712756E-04 -1.84079960545E-04 +5.74635626670E-01 -4.46639960057E-01
4.07000000000E+09 +4.97213144115E-01 -4.53935009394E-01 -5.99283431848E-04 -2.94005156775E-04 -5.21871001470E-04 -2.86051653826E-04 +5.58908256837E-01 -4.53728011450E-01
4.07500000000E+09 +4.82004611059E-01 -4.58317911996E-01 -7.42060219667E-04 -1.00937510978E-04 -6.79869947287E-04 -1.36319664968E-04 +5.42979541117E-01 -4.61520034581E-01
4.08000000000E+09 +4.65652943414E-01 -4.63797817489E-01 -7.15373960092E-04 -1.18875757446E-04 -6.51424057637E-04 -1.05542768010E-04 +5.26498547908E-01 -4.68376223265E-01
4.08500000000E+09 +4.48422254370E-01 -4.69404221266E-01 -8.80157187415E-04 -5.73796413496E-05 -8.41983625654E-04 -6.33174472613E-05 +5.10045430917E-01 -4.75924348035E-01
4.09000000000E+09 +4.31564532197E-01 -4.75568536681E-01 -8.85476280037E-04 +1.68497078971E-04 -8.75676283022E-04 +9.73589965350E-05 +4.92289471298E-01 -4.81619373593E-01
4.09500000000E+09 +4.15136671941E-01 -4.82259366015E-01 -9.91127505340E-04 +4.50154300043E-04 -9.90749680199E-04 +4.40044338360E-04 +4.75378021203E-01 -4.86976727069E-01
4.10000000000E+09 +3.98349036370E-01 -4.88459340793E-01 -8.09486553787E-04 +6.19846906442E-04 -8.13745028720E-04 +5.82782093704E-04 +4.56551152062E-01 -4.92157673013E-01
4.10500000000E+09 +3.82216627349E-01 -4.92990334699E-01 -5.45293523985E-04 +8.89483574041E-04 -4.93833661342E-04 +8.48956919125E-04 +4.37128366551E-01 -4.96013852405E-01
4.11000000000E+09 +3.66534090558E-01 -4.96051221373E-01 -2.17891897413E-04 +7.25569737391E-04 -1.71770406251E-04 +6.61447195457E-04 +4.17787813095E-01 -4.99581340054E-01
4.11500000000E+09 +3.51129606563E-01 -4.97749369044E-01 +1.67527928979E-04 +5.01540654904E-04 +8.06303118026E-05 +5.10244222261E-04 +3.97918924681E-01 -5.02709719946E-01
4.12000000000E+09 +3.35146678189E-01 -4.98941405596E-01 -1.47718407577E-04 +1.54342355352E-04 -1.67443738011E-04 +1.40899237905E-04 +3.77976526337E-01 -5.05407122885E-01
4.12500000000E+09 +3.17707513697E-01 -4.99372677852E-01 -5.06005126145E-04 +2.53297310371E-04 -5.25480512687E-04 +2.34963513072E-04 +3.57775382060E-01 -5.06991622808E-01
4.13000000000E+09 +2.99610707742E-01 -4.99824390986E-01 -7.28879218173E-04 +8.05850280159E-04 -7.88992536625E-04 +8.53167228582E-04 +3.37771524833E-01 -5.07818050020E-01
4.13500000000E+09 +2.80900278765E-01 -5.01101842509E-01 -1.20028014997E-04 +1.12292542268E-03 -1.44158861000E-04 +1.22827273991E-03 +3.17288821169E-01 -5.07832506314E-01
4.14000000000E+09 +2.61315479750E-01 -5.03534289795E-01 +2.28162099470E-04 +9.27195148150E-04 +1.92327927216E-04 +9.94395648190E-04 +2.96854408639E-01 -5.07766172145E-01
4.14500000000E+09 +2.41721660232E-01 -5.07412522657E-01 +3.57362700722E-04 +7.94936912491E-04 +3.58601220240E-04 +9.08158520648E-04 +2.75704939506E-01 -5.06905869061E-01
4.15000000000E+09 +2.21113351435E-01 -5.11999760228E-01 +6.60967837993E-04 +6.02110409963E-04 +7.04400277172E-04 +6.75277770319E-04 +2.55286999532E-01 -5.05325967925E-01
4.15500000000E+09 +2.01257401003E-01 -5.15602622274E-01 +5.23056804462E-04 -5.13596054176E-05 +6.09979013158E-04 +3.27732788389E-05 +2.34465324239E-01 -5.02858587115E-01
4.16000000000E+09 +1.82665761356E-01 -5.18008043768E-01 +4.62024723536E-05 -6.97256380030E-05 +9.15139029739E-05 -6.53813966699E-05 +2.13877696100E-01 -4.98868871546E-01
4.16500000000E+09 +1.65183427209E-01 -5.18544053536E-01 -1.91811628728E-04 +2.25157940197E-04 -1.26999227728E-04 +2.05251172310E-04 +1.93824708452E-01 -4.94449079063E-01
4.17000000000E+09 +1.49575416335E-01 -5.17026742313E-01 -3.34542899611E-04 +2.52739789630E-04 -3.16709857436E-04 +2.79622337354E-04 +1.72713502460E-01 -4.89775270857E-01
4.17500000000E+09 +1.34692268458E-01 -5.14435157225E-01 -3.54678193888E-04 +9.20045157551E-04 -3.34078760546E-04 +8.89550805621E-04 +1.51102569241E-01 -4.83447212127E-01
4.18000000000E+09 +1.19530327754E-01 -5.11043848977E-01 +1.49026594736E-04 +1.18093477195E-03 +2.31231459957E-04 +1.16254613966E-03 +1.30174834725E-01 -4.75954915767E-01
4.18500000000E+09 +1.03074653911E-01 -5.07047097401E-01 +8.06731780906E-04 +1.07151920825E-03 +8.63168656660E-04 +1.05168759202E-03 +1.10020197095E-01 -4.68364168703E-01
4.19000000000E+09 +8.51034993767E-02 -5.01514775524E-01 +8.87425556279E-04 +3.59905168714E-04 +9.46784947059E-04 +3.12310000576E-04 +8.91875180815E-02 -4.59816678119E-01
4.19500000000E+09 +6.71144788730E-02 -4.95746960532E-01 +3.80750982262E-04 +7.21194146989E-05 +3.30457116276E-04 -2.54301400657E-05 +6.90151560389E-02 -4.50008903900E-01
4.20000000000E+09 +4.84156916987E-02 -4.90564624561E-01 +1.62915967913E-04 +4.59402232889E-04 +1.37819349478E-04 +3.83288586144E-04 +4.94988726448E-02 -4.39295709316E-01
4.20500000000E+09 +2.95523512340E-02 -4.85582369182E-01 +9.50222965497E-05 +5.17362950019E-04 +6.31199271569E-05 +4.15314722192E-04 +2.96604357028E-02 -4.28083758885E-01
4.21000000000E+09 +1.14140852493E-02 -4.80329077877E-01 +1.35422290031E-04 +1.10143239846E-03 +7.37695658163E-05 +1.10251356553E-03 +1.03779726279E-02 -4.15645062016E-01
4.21500000000E+09 -6.02415375101E-03 -4.74786463387E-01 +8.90912305860E-04 +1.53100153492E-03 +8.55637979522E-04 +1.56775176274E-03 -7.66742971087E-03 -4.03222977354E-01
4.22000000000E+09 -2.27582059958E-02 -4.68166835517E-01 +1.70482875928E-03 +1.21933783792E-03 +1.63188737545E-03 +1.22055983399E-03 -2.55035316609E-02 -3.90696359807E-01
4.22500000000E+09 -3.85850670344E-02 -4.59943702840E-01 +2.19629351803E-03 +3.75724071776E-04 +2.15565831613E-03 +4.49083141882E-04 -4.26802141241E-02 -3.76289792806E-01
4.23000000000E+09 -5.41369774714E-02 -4.50124242980E-01 +1.92399697758E-03 -6.00579830699E-04 +1.92287928823E-03 -5.24234361440E-04 -5.85880249550E-02 -3.62082595570E-01
4.23500000000E+09 -6.98629450030E-02 -4.38553231405E-01 +1.22798355603E-03 -6.20634265622E-04 +1.22113006960E-03 -5.74344168602E-04 -7.51268725143E-02 -3.46745932546E-01
4.24000000000E+09 -8.60821226989E-02 -4.25889762216E-01 +1.02655431799E-03 -3.71124775940E-04 +1.04216760126E-03 -3.17505915039E-04 -9.02305525845E-02 -3.30063949772E-01
4.24500000000E+09 -1.03053134856E-01 -4.12918311623E-01 +1.42090094578E-03 -1.19900557206E-04 +1.45282627313E-03 -6.05042470372E-05 -1.05544880332E-01 -3.13453467841E-01
4.25000000000E+09 -1.21624208542E-01 -4.00116077598E-01 +1.84031951430E-03 -5.75254316050E-04 +1.90641336234E-03 -5.12059201394E-04 -1.19713187334E-01 -2.95410016598E-01
4.25500000000E+09 -1.40710877461E-01 -3.87636938079E-01 +1.74525805030E-03 -1.35916318974E-03 +1.88932194409E-03 -1.29197627703E-03 -1.32522560159E-01 -2.78182777625E-01
4.26000000000E+09 -1.60694660199E-01 -3.76105357825E-01 +1.21462540226E-03 -1.78916831046E-03 +1.33441012665E-03 -1.83693609650E-03 -1.45619347831E-01 -2.60599450288E-01
4.26500000000E+09 -1.80321263738E-01 -3.64329379691E-01 +8.50880003629E-04 -1.84617394010E-03 +9.21973758294E-04 -1.91097343431E-03 -1.57568960374E-01 -2.40995140729E-01
4.27000000000E+09 -1.97696620911E-01 -3.52484991187E-01 +4.17185427038E-04 -1.83316930694E-03 +4.79440309154E-04 -1.89721497787E-03 -1.68896289726E-01 -2.21822069932E-01
4.27500000000E+09 -2.13884194185E-01 -3.40851089175E-01 +1.68011012681E-04 -1.96795338423E-03 +1.28379019056E-04 -2.03851453326E-03 -1.80224124175E-01 -2.01302455863E-01
4.28000000000E+09 -2.27642041403E-01 -3.27315757341E-01 -3.50241432285E-04 -1.60689830593E-03 -3.42676324170E-04 -1.68130789400E-03 -1.89918058280E-01 -1.80148958005E-01
4.28500000000E+09 -2.39229876597E-01 -3.12676635213E-01 -4.18978218580E-05 -1.25924490979E-03 +1.57573137099E-05 -1.27202584384E-03 -1.98072588423E-01 -1.59342839150E-01
4.29000000000E+09 -2.49560635495E-01 -2.97245203698E-01 +1.06718312150E-06 -1.61284611915E-03 -1.08054397891E-05 -1.68571583681E-03 -2.05442929397E-01 -1.39225937788E-01
4.29500000000E+09 -2.60562902087E-01 -2.80270864310E-01 -2.18936414115E-04 -1.85628798660E-03 -3.45683273870E-04 -1.98924057170E-03 -2.11876270920E-01 -1.19863494499E-01
4.30000000000E+09 -2.72402310913E-01 -2.61638539503E-01 -8.67966028333E-04 -1.75619797961E-03 -9.53813838168E-04 -1.82263551617E-03 -2.17827608507E-01 -9.98030840473E-02
4.30500000000E+09 -2.84982958072E-01 -2.41760720438E-01 -9.00219153657E-04 -1.44993229596E-03 -1.01047663679E-03 -1.49425470421E-03 -2.22269340772E-01 -7.87414931775E-02
4.31000000000E+09 -2.97821468489E-01 -2.21701432644E-01 -1.10613553582E-03 -1.70353649047E-03 -1.21095063474E-03 -1.70894008187E-03 -2.25068779148E-01 -5.86830199949E-02
4.31500000000E+09 -3.11205475000E-01 -2.02520141517E-01 -1.57476369805E-03 -1.38251802764E-03 -1.68708057692E-03 -1.25393468152E-03 -2.28060795651E-01 -3.79712862236E-02
4.32000000000E+09 -3.23701190456E-01 -1.84477092691E-01 -1.65920992463E-03 -6.75901419469E-04 -1.78054351346E-03 -5.87100104844E-04 -2.30078748564E-01 -1.73743747832E-02
4.32500000000E+09 -3.35027019652E-01 -1.68098938443E-01 -1.16310205557E-03 -6.52893462102E-04 -1.17635674627E-03 -6.21678681272E-04 -2.31845730520E-01 +2.42351392452E-03
4.33000000000E+09 -3.45207206889E-01 -1.52768362736E-01 -1.46354931325E-03 -9.89204988417E-04 -1.52062514561E-03 -9.20390200074E-04 -2.33318681635E-01 +2.30809582977E-02
4.33500000000E+09 -3.52937326290E-01 -1.37163562030E-01 -1.47652869453E-03 -8.12285847240E-04 -1.44428935750E-03 -7.89441977890E-04 -2.33273244426E-01 +4.40785768552E-02
4.34000000000E+09 -3.58002765002E-01 -1.21035285251E-01 -2.28629411278E-03 -1.10160568646E-03 -2.21340933657E-03 -9.64281720652E-04 -2.32311774518E-01 +6.42010799269E-02
4.34500000000E+09 -3.61276175295E-01 -1.03641788015E-01 -2.70571613778E-03 -1.15936954416E-04 -2.57616902685E-03 -8.09449908567E-07 -2.30482051727E-01 +8.38893879819E-02
4.35000000000E+09 -3.62836075746E-01 -8.48653919456E-02 -2.32056821159E-03 +6.21807759139E-04 -2.23978485823E-03 +6.71906932162E-04 -2.29471738465E-01 +1.02468213710E-01
4.35500000000E+09 -3.64883997481E-01 -6.38423690731E-02 -1.95632228075E-03 +6.36821844199E-04 -1.84029192430E-03 +6.35486469710E-04 -2.27062901734E-01 +1.22580848193E-01
4.36000000000E+09 -3.66549506283E-01 -4.11694327837E-02 -1.80830899410E-03 +9.34180690039E-04 -1.71617343809E-03 +9.27956467555E-04 -2.23577591970E-01 +1.40628177349E-01
4.36500000000E+09 -3.69206857782E-01 -1.82303438913E-02 -1.86392193773E-03 +5.68649426922E-04 -1.81194194182E-03 +5.35569410220E-04 -2.19811243340E-01 +1.58934059514E-01
4.37000000000E+09 -3.73673524266E-01 +4.84229869244E-03 -2.46630649354E-03 +1.22102104922E-03 -2.44761546211E-03 +1.27421454150E-03 -2.15099413416E-01 +1.76953684253E-01
4.37500000000E+09 -3.78148373081E-01 +2.69190845601E-02 -1.88756274120E-03 +1.97297113277E-03 -1.85400921017E-03 +1.91271700516E-03 -2.09450394975E-01 +1.94234508858E-01
4.38000000000E+09 -3.83442423996E-01 +4.72103667295E-02 -1.47106317476E-03 +2.07559977159E-03 -1.42966006289E-03 +2.08659976032E-03 -2.03326172224E-01 +2.11137872259E-01
4.38500000000E+09 -3.87140951383E-01 +6.54764695512E-02 -1.15043251700E-03 +2.52782482562E-03 -1.13441228411E-03 +2.46254806758E-03 -1.97217085171E-01 +2.28206493997E-01
4.39000000000E+09 -3.89915293934E-01 +8.18822520123E-02 -5.27608773287E-04 +2.47778652818E-03 -5.21873209977E-04 +2.40516380729E-03 -1.90168559902E-01 +2.44844024430E-01
4.39500000000E+09 -3.90496848670E-01 +9.69173737101E-02 -3.73331824681E-04 +2.38296337503E-03 -2.51011023970E-04 +2.30465270971E-03 -1.83709267574E-01 +2.60222267174E-01
4.40000000000E+09 -3.88531466220E-01 +1.12007864430E-01 -1.06748543368E-05 +2.55443254382E-03 +2.36730112170E-05 +2.48186231263E-03 -1.76501259803E-01 +2.76519583613E-01
4.40500000000E+09 -3.84233088310E-01 +1.27494336979E-01 +3.33600795267E-04 +2.45356483506E-03 +3.33228843549E-04 +2.38898233295E-03 -1.67963697620E-01 +2.91575066899E-01
4.41000000000E+09 -3.78740165434E-01 +1.44313075148E-01 +7.94159930661E-04 +2.43571619836E-03 +7.80320889086E-04 +2.34462347995E-03 -1.59231396397E-01 +3.05753661708E-01
4.41500000000E+09 -3.72785381346E-01 +1.63161537269E-01 +9.82568520617E-04 +2.14495842630E-03 +9.38464863343E-04 +2.11980130924E-03 -1.50456726027E-01 +3.19478525282E-01
4.42000000000E+09 -3.66657334490E-01 +1.84172692931E-01 +1.02851497559E-03 +2.04060463773E-03 +1.05190727081E-03 +1.97871328121E-03 -1.41574065536E-01 +3.33767191807E-01
4.42500000000E+09 -3.61311164311E-01 +2.05667825262E-01 +1.57378248120E-03 +2.23187050761E-03 +1.57678855486E-03 +2.13001328540E-03 -1.31487517203E-01 +3.47025248564E-01
4.43000000000E+09 -3.57405310536E-01 +2.27505092271E-01 +1.93977349808E-03 +1.73994220318E-03 +1.89875597142E-03 +1.71587197445E-03 -1.22981352720E-01 +3.59875760947E-01
4.43500000000E+09 -3.53733918798E-01 +2.48312096607E-01 +2.19432988975E-03 +1.50190979929E-03 +2.15875392065E-03 +1.42878366425E-03 -1.13019642486E-01 +3.73056923257E-01
4.44000000000E+09 -3.51004476687E-01 +2.66808028181E-01 +2.60940706747E-03 +8.56730373267E-04 +2.54911414305E-03 +8.35695756170E-04 -1.03202792679E-01 +3.84787066624E-01
4.44500000000E+09 -3.48501523489E-01 +2.83351645195E-01 +2.35679127331E-03 +5.39047390110E-05 +2.25806604351E-03 +8.29613458618E-05 -9.31881519478E-02 +3.96376699891E-01
4.45000000000E+09 -3.45158461235E-01 +2.97615227611E-01 +1.77461804707E-03 +3.09145771866E-04 +1.77352271760E-03 +3.43917507691E-04 -8.26172922248E-02 +4.07395297321E-01
4.45500000000E+09 -3.40358787166E-01 +3.11134764475E-01 +2.35067335637E-03 +4.13044760351E-04 +2.30275409870E-03 +4.07047371145E-04 -7.15380555101E-02 +4.17677077968E-01
4.46000000000E+09 -3.32961165526E-01 +3.23760223357E-01 +2.41394573996E-03 -6.15168807499E-04 +2.40181224806E-03 -6.37730309046E-04 -6.03243675827E-02 +4.27383514643E-01
4.46500000000E+09 -3.23629179605E-01 +3.36712278868E-01 +1.91451083264E-03 -5.91192408742E-04 +1.92895869723E-03 -6.15654013614E-04 -4.90145292106E-02 +4.36227303990E-01
4.47000000000E+09 -3.13029008103E-01 +3.50976256111E-01 +1.78665449256E-03 -8.56974249599E-04 +1.73012295911E-03 -9.33050477335E-04 -3.85345061019E-02 +4.45599457661E-01
4.47500000000E+09 -3.01041000406E-01 +3.67238502560E-01 +1.63998801512E-03 -8.13094846196E-04 +1.56910629419E-03 -7.41813006844E-04 -2.69106714310E-02 +4.55164297891E-01
4.48000000000E+09 -2.88887582818E-01 +3.84207798222E-01 +1.63934412539E-03 -8.60284694009E-04 +1.60090335650E-03 -8.95517348745E-04 -1.53317160832E-02 +4.63198868230E-01
4.48500000000E+09 -2.77334535208E-01 +4.01488476625E-01 +1.69967419384E-03 -1.26781700618E-03 +1.65738245093E-03 -1.26701774497E-03 -3.89853932213E-03 +4.71516264586E-01
4.49000000000E+09 -2.67785454144E-01 +4.18145331072E-01 +1.68839415627E-03 -1.58149012594E-03 +1.68519125047E-03 -1.55990966131E-03 +8.21504643865E-03 +4.78867680420E-01
4.49500000000E+09 -2.59693919230E-01 +4.33997179176E-01 +1.02158986038E-03 -2.13908184817E-03 +9.56387054890E-04 -2.05471532770E-03 +1.91542684532E-02 +4.85170232400E-01
4.50000000000E+09 -2.52876656326E-01 +4.47369337873E-01 +4.55662330068E-04 -1.84906692127E-03 +3.86901989957E-04 -1.75839801591E-03 +3.03805054711E-02 +4.91926003493E-01
4.50500000000E+09 -2.47622305604E-01 +4.59136058814E-01 +3.93847796158E-04 -1.52721060042E-03 +4.20254150881E-04 -1.47593149347E-03 +4.19268904941E-02 +4.97996102657E-01
4.51000000000E+09 -2.41265750807E-01 +4.69775391729E-01 +5.31202222127E-04 -1.63746928011E-03 +5.22534597078E-04 -1.61073592137E-03 +5.29861977939E-02 +5.03771672816E-01
4.51500000000E+09 -2.32323692741E-01 +4.78320257103E-01 +4.59783488708E-04 -1.87035201431E-03 +4.15859830287E-04 -1.79702496939E-03 +6.44016941401E-02 +5.09803685412E-01
4.52000000000E+09 -2.21986453237E-01 +4.85174854800E-01 -4.49442901205E-05 -2.01588911389E-03 -6.30350446631E-06 -1.95172969406E-03 +7.62368387159E-02 +5.14824227411E-01
4.52500000000E+09 -2.09780336327E-01 +4.92299356244E-01 -2.20311626137E-04 -1.81835825601E-03 -2.73685483904E-04 -1.77985896233E-03 +8.76341466917E-02 +5.19087181739E-01
4.53000000000E+09 -1.96422999480E-01 +4.99755877842E-01 -3.64736475961E-04 -1.77412918201E-03 -3.61216544051E-04 -1.66743017133E-03 +9.93608147294E-02 +5.23083319306E-01
4.53500000000E+09 -1.81787925358E-01 +5.09426617454E-01 -6.27764235618E-04 -1.77656026162E-03 -6.45990037310E-04 -1.67751233729E-03 +1.10421570540E-01 +5.26536648518E-01
4.54000000000E+09 -1.66410675487E-01 +5.19456574740E-01 -7.65861683484E-04 -1.77109790204E-03 -7.36770598412E-04 -1.68216188682E-03 +1.21916369268E-01 +5.30081941827E-01
4.54500000000E+09 -1.51996188866E-01 +5.30242814429E-01 -1.16093236361E-03 -1.70503481625E-03 -1.09973955587E-03 -1.55876563278E-03 +1.32650022239E-01 +5.33495694484E-01
4.55000000000E+09 -1.38943952889E-01 +5.40234197831E-01 -1.48308808992E-03 -1.35684308116E-03 -1.40234068767E-03 -1.24567441811E-03 +1.44179105031E-01 +5.37208836075E-01
4.55500000000E+09 -1.28201083965E-01 +5.49657490671E-01 -1.48779897038E-03 -8.64027504453E-04 -1.40689767256E-03 -8.21136071590E-04 +1.55516539481E-01 +5.40060596845E-01
4.56000000000E+09 -1.18732987031E-01 +5.58382604167E-01 -1.25238740206E-03 -8.96625413070E-04 -1.15571739165E-03 -8.30023899968E-04 +1.66438430757E-01 +5.42659576124E-01
4.56500000000E+09 -1.09515257057E-01 +5.65393845336E-01 -1.37179777110E-03 -1.02293301518E-03 -1.27694803919E-03 -9.78805771604E-04 +1.76722011091E-01 +5.44966268466E-01
4.57000000000E+09 -9.99469146695E-02 +5.70802691290E-01 -1.75884348028E-03 -8.39472573102E-04 -1.69651067026E-03 -8.39596679741E-04 +1.87431267329E-01 +5.47332487957E-01
