# Hz S RI R 50
! CMT, C1220, 16058040, 17.2.0/1
! Date: 15/08/2018 12:19:49
! Data: Format (Calibration Info)
! Freq                      S11: Re/Im (F2)                       S21: Re/Im (F2)                       S12: Re/Im (F2)                       S22: Re/Im (F2)            
4.00000000000E+09 +6.53212805498E-01 -3.50531737596E-01 +1.11118359994E-03 -1.18582114527E-04 +1.13902570393E-03 -1.27832601586E-04 +7.41198948026E-01 -3.26053828082E-01
4.00500000000E+09 +6.45138926657E-01 -3.57009059154E-01 +1.16679271994E-03 -1.92682241891E-04 +1.18710579364E-03 -1.28156939207E-04 +7.30722997824E-01 -3.36555584568E-01
4.01000000000E+09 +6.36250143432E-01 -3.63821998470E-01 +1.26703119609E-03 -5.38579569897E-04 +1.33435589568E-03 -5.25209510035E-04 +7.19821507041E-01 -3.47349171607E-01
4.01500000000E+09 +6.25869262381E-01 -3.71333719781E-01 +1.14427679061E-03 -7.21900432151E-04 +1.15562957170E-03 -7.25212596710E-04 +7.08733026672E-01 -3.57398648775E-01
4.02000000000E+09 +6.15375960338E-01 -3.79537832094E-01 +8.40235574396E-04 -1.04669599860E-03 +8.53259004289E-04 -9.74956668699E-04 +6.97094884709E-01 -3.67645878079E-01
4.02500000000E+09 +6.04023551792E-01 -3.89100732863E-01 +5.37173460436E-04 -6.19868228360E-04 +5.72624153634E-04 -5.97549447217E-04 +6.84677243764E-01 -3.77499802171E-01
4.03000000000E+09 +5.92941798373E-01 -3.99274892521E-01 +9.72052372205E-04 -6.76545425682E-04 +1.04685820621E-03 -5.65766393448E-04 +6.71724662483E-01 -3.86626516570E-01
4.03500000000E+09 +5.81905318608E-01 -4.09945207327E-01 +1.09088127228E-03 -9.90777064768E-04 +1.10527245774E-03 -9.91952562713E-04 +6.58867374718E-01 -3.96203690092E-01
4.04000000000E+09 +5.71287139476E-01 -4.20374461614E-01 +9.04456293126E-04 -1.41338659979E-03 +1.00794941320E-03 -1.36248365387E-03 +6.45158060529E-01 -4.06272745377E-01
4.04500000000E+09 +5.60312713351E-01 -4.30064619455E-01 +4.69259197896E-04 -1.62680545879E-03 +5.44808473804E-04 -1.63482044562E-03 +6.30835045476E-01 -4.15449114141E-01
4.05000000000E+09 +5.49002930176E-01 -4.37838434869E-01 +2.61787008437E-05 -1.37331400629E-03 +1.19198656004E-04 -1.47987403639E-03 +6.16897036864E-01 -4.23693938098E-01
4.05500000000E+09 +5.37901837981E-01 -4.43400570128E-01 +1.37788180749E-04 -1.19688395391E-03 +2.29286469289E-04 -1.28114932342E-03 +6.02853247304E-01 -4.31794003112E-01
4.06000000000E+09 +5.26314290846E-01 -4.48250890516E-01 +1.03920169958E-04 -1.27822076902E-03 +1.26288128859E-04 -1.29782784662E-03 +5.88299861978E-01 -4.39539806675E-01
4.06500000000E+09 +5.13749011060E-01 -4.52360787577E-01 +7.17498275699E-05 -1.46892450613E-03 +1.47857424359E-04 -1.51912064207E-03 +5.72656467646E-01 -4.46797134158E-01
4.07000000000E+09 +4.99625072985E-01 -4.56802130451E-01 -2.15701475750E-04 -1.61357389317E-03 -1.57907266479E-04 -1.71998790510E-03 +5.56932467910E-01 -4.53961371861E-01
4.07500000000E+09 +4.84275551238E-01 -4.61191877428E-01 -4.11836689797E-04 -1.54141961327E-03 -4.39859548302E-04 -1.54733153152E-03 +5.40410174876E-01 -4.61123171714E-01
4.08000000000E+09 +4.67953816522E-01 -4.66392971885E-01 -6.28212735114E-04 -1.53473503191E-03 -6.60084247290E-04 -1.55295326307E-03 +5.24469380161E-01 -4.67197258858E-01
4.08500000000E+09 +4.51004080552E-01 -4.72028954215E-01 -9.55629677188E-04 -1.33160161031E-03 -9.48828275041E-04 -1.40928864968E-03 +5.08601814651E-01 -4.74807309805E-01
4.09000000000E+09 +4.34313477132E-01 -4.78593459190E-01 -1.04788263233E-03 -1.12533345998E-03 -1.05581671778E-03 -1.20639611001E-03 +4.90876049062E-01 -4.80418408778E-01
4.09500000000E+09 +4.17693887278E-01 -4.85493941175E-01 -1.05193908419E-03 -9.10494487572E-04 -1.11409750696E-03 -9.55013407274E-04 +4.74160859982E-01 -4.85133623920E-01
4.10000000000E+09 +4.00776864712E-01 -4.92003866586E-01 -1.00571236941E-03 -9.27121476174E-04 -1.05389946927E-03 -9.59627845869E-04 +4.55749770384E-01 -4.90512191693E-01
4.10500000000E+09 +3.84377230298E-01 -4.96529685365E-01 -1.01800050891E-03 -8.40892150024E-04 -1.06100844669E-03 -8.36857449121E-04 +4.36663124979E-01 -4.94114222140E-01
4.11000000000E+09 +3.68420805719E-01 -4.99336210206E-01 -1.12959696150E-03 -8.85873758423E-04 -1.17685341764E-03 -9.21591557449E-04 +4.17762741004E-01 -4.97551281984E-01
4.11500000000E+09 +3.53240182370E-01 -5.00977665802E-01 -1.17744840763E-03 -1.01615286775E-03 -1.18992804432E-03 -1.04671908647E-03 +3.98771881294E-01 -5.00923622784E-01
4.12000000000E+09 +3.37364625365E-01 -5.02224766194E-01 -1.70589801225E-03 -1.09330974724E-03 -1.70088406225E-03 -1.14157752586E-03 +3.79504538569E-01 -5.04081000007E-01
4.12500000000E+09 +3.20063654531E-01 -5.02985321497E-01 -2.20878434026E-03 -6.00054541233E-04 -2.26065943047E-03 -6.40090894854E-04 +3.59372855215E-01 -5.06284771136E-01
4.13000000000E+09 +3.01982994035E-01 -5.03861282609E-01 -2.26413750287E-03 +1.55965232556E-04 -2.28182485284E-03 +7.86871085459E-05 +3.39018031463E-01 -5.07542247403E-01
4.13500000000E+09 +2.82930793632E-01 -5.05560055920E-01 -1.75062832942E-03 +5.14879070571E-04 -1.80573772244E-03 +4.62926872711E-04 +3.18367369116E-01 -5.07554123988E-01
4.14000000000E+09 +2.62816527128E-01 -5.08313930771E-01 -1.48987467306E-03 +4.00262708103E-04 -1.56229121194E-03 +3.62672953539E-04 +2.97635888704E-01 -5.07234370232E-01
4.14500000000E+09 +2.42663273138E-01 -5.12080210207E-01 -1.47063434631E-03 +4.52085348542E-04 -1.56159524707E-03 +4.27474830475E-04 +2.77061720966E-01 -5.05906420301E-01
4.15000000000E+09 +2.22083796559E-01 -5.16136975844E-01 -1.38887219861E-03 +3.33940504134E-04 -1.41614236686E-03 +3.74119441510E-04 +2.57155735212E-01 -5.04603784188E-01
4.15500000000E+09 +2.02129738873E-01 -5.19807431431E-01 -1.73694914698E-03 +1.08657462282E-04 -1.77756907607E-03 +8.57944265355E-05 +2.36643417646E-01 -5.02260602581E-01
4.16000000000E+09 +1.83841036301E-01 -5.22413198912E-01 -2.26081103538E-03 +6.38315750375E-04 -2.27032458726E-03 +6.30468423145E-04 +2.16250940647E-01 -4.98961778857E-01
4.16500000000E+09 +1.66297974822E-01 -5.23346268858E-01 -2.15498221590E-03 +1.33851059646E-03 -2.24136401260E-03 +1.31043776921E-03 +1.95937880179E-01 -4.94685872323E-01
4.17000000000E+09 +1.50377593367E-01 -5.22451872507E-01 -1.98454524563E-03 +1.68056675136E-03 -2.06203209779E-03 +1.68689600740E-03 +1.75110058341E-01 -4.89636556289E-01
4.17500000000E+09 +1.34698076644E-01 -5.20166420225E-01 -1.46756589622E-03 +2.23700438607E-03 -1.57793397078E-03 +2.33588412421E-03 +1.54003315015E-01 -4.83696228299E-01
4.18000000000E+09 +1.18701822096E-01 -5.16524218022E-01 -9.84392672971E-04 +2.35769781630E-03 -1.09387649371E-03 +2.43418223492E-03 +1.33584683612E-01 -4.76517584810E-01
4.18500000000E+09 +1.01977762691E-01 -5.11871421287E-01 -2.96100735496E-04 +2.34910798999E-03 -3.35813028298E-04 +2.44047838657E-03 +1.13988521234E-01 -4.69726299851E-01
4.19000000000E+09 +8.40631748285E-02 -5.06294018486E-01 -2.85354113400E-04 +1.65238800397E-03 -3.17106110523E-04 +1.79081746027E-03 +9.29965898208E-02 -4.62316131226E-01
4.19500000000E+09 +6.58922984830E-02 -5.00353813991E-01 -7.37798609254E-04 +1.62905193473E-03 -7.13846241099E-04 +1.72356365171E-03 +7.25404098653E-02 -4.53121242546E-01
4.20000000000E+09 +4.72951994741E-02 -4.95108653792E-01 -6.37702841971E-04 +2.33435778756E-03 -6.42497268875E-04 +2.47360333552E-03 +5.30346018191E-02 -4.42702434550E-01
4.20500000000E+09 +2.85212647819E-02 -4.90412382343E-01 -4.91214487308E-04 +2.30109905799E-03 -4.21953519242E-04 +2.40722986802E-03 +3.28172547043E-02 -4.32474078467E-01
4.21000000000E+09 +9.76856967041E-03 -4.85555781102E-01 -1.98411759189E-04 +3.14549169830E-03 -1.76711525169E-04 +3.24666828009E-03 +1.30190877459E-02 -4.20671966505E-01
4.21500000000E+09 -8.29370243866E-03 -4.79733771655E-01 +9.96554624603E-04 +3.38673686051E-03 +1.00939891573E-03 +3.42972004071E-03 -6.03399189033E-03 -4.08757480393E-01
4.22000000000E+09 -2.54710960376E-02 -4.72527925447E-01 +1.69645528623E-03 +2.64307348097E-03 +1.77192319878E-03 +2.67710382672E-03 -2.46154306230E-02 -3.96073020865E-01
4.22500000000E+09 -4.10599089177E-02 -4.63803303031E-01 +1.86679773625E-03 +2.05955849001E-03 +1.93914134432E-03 +2.02798904187E-03 -4.22698446361E-02 -3.81962426928E-01
4.23000000000E+09 -5.61968137073E-02 -4.53873621914E-01 +1.60381713739E-03 +1.56526931876E-03 +1.68180574756E-03 +1.54449715412E-03 -5.87573512848E-02 -3.67648483246E-01
4.23500000000E+09 -7.20453388623E-02 -4.42627255641E-01 +1.38010656976E-03 +1.96121773234E-03 +1.46882584103E-03 +1.92745183673E-03 -7.58269465317E-02 -3.52304588895E-01
4.24000000000E+09 -8.85198917923E-02 -4.29855449494E-01 +1.78183805142E-03 +2.18705872350E-03 +1.80676621331E-03 +2.20540060211E-03 -9.17772052842E-02 -3.35564113329E-01
4.24500000000E+09 -1.05893647312E-01 -4.16833383350E-01 +2.66589468989E-03 +2.40290623791E-03 +2.68502135997E-03 +2.31371704478E-03 -1.07406564453E-01 -3.18390708748E-01
4.25000000000E+09 -1.24797744371E-01 -4.03614713167E-01 +3.55845077852E-03 +1.67143401490E-03 +3.54642855818E-03 +1.59854687186E-03 -1.21769044221E-01 -3.00175029080E-01
4.25500000000E+09 -1.44017386169E-01 -3.90534476745E-01 +3.78331931509E-03 +5.44412142256E-04 +3.77504283260E-03 +4.81186042154E-04 -1.34707447419E-01 -2.82387527987E-01
4.26000000000E+09 -1.63780796017E-01 -3.78413185251E-01 +3.11298315665E-03 -2.05647387353E-04 +3.12529302741E-03 -2.70447883252E-04 -1.47558630869E-01 -2.64878430330E-01
4.26500000000E+09 -1.82850295594E-01 -3.66251742090E-01 +3.02404757847E-03 -6.03865323798E-05 +3.02165944173E-03 -9.01066571278E-05 -1.59770469505E-01 -2.45916293021E-01
4.27000000000E+09 -1.99868382169E-01 -3.54691736988E-01 +3.28990611572E-03 -2.43531076421E-04 +3.30114328449E-03 -2.90909121778E-04 -1.71816165086E-01 -2.26444170387E-01
4.27500000000E+09 -2.15833762590E-01 -3.43244172929E-01 +3.35321792556E-03 -1.01091281631E-03 +3.32239397454E-03 -1.03697770804E-03 -1.82925133387E-01 -2.05873792865E-01
4.28000000000E+09 -2.30101380741E-01 -3.29653589887E-01 +3.08452095180E-03 -1.36072060506E-03 +3.02644300791E-03 -1.35807639775E-03 -1.93269580241E-01 -1.85397557721E-01
4.28500000000E+09 -2.41756077054E-01 -3.14777273752E-01 +3.19240120220E-03 -1.63689374968E-03 +3.15214865185E-03 -1.69751052550E-03 -2.02511910051E-01 -1.64253898495E-01
4.29000000000E+09 -2.52329514345E-01 -2.98820358739E-01 +3.14882748285E-03 -2.34871977019E-03 +3.12323267857E-03 -2.32895506927E-03 -2.10414992535E-01 -1.43873054793E-01
4.29500000000E+09 -2.63087988306E-01 -2.81288361041E-01 +2.73516134615E-03 -3.32187644330E-03 +2.69692632845E-03 -3.32271994960E-03 -2.17565111176E-01 -1.23809315064E-01
4.30000000000E+09 -2.74420012434E-01 -2.62292610689E-01 +1.46608236398E-03 -3.58344466802E-03 +1.46352498044E-03 -3.60645722472E-03 -2.23600291731E-01 -1.03273843849E-01
4.30500000000E+09 -2.86600659057E-01 -2.42397382799E-01 +1.22553765084E-03 -3.16311545338E-03 +1.18585834386E-03 -3.18592181602E-03 -2.28785462539E-01 -8.20491785194E-02
4.31000000000E+09 -2.99103175022E-01 -2.22351646060E-01 +8.57719355488E-04 -3.61074931783E-03 +8.08876362236E-04 -3.65330023896E-03 -2.32422041511E-01 -6.08221269926E-02
4.31500000000E+09 -3.12511021010E-01 -2.03220036077E-01 +1.01564659145E-04 -3.46597862570E-03 +5.90825452023E-05 -3.48101301202E-03 -2.35306484722E-01 -3.89979197963E-02
4.32000000000E+09 -3.24846147215E-01 -1.84948423126E-01 -1.85732309512E-04 -3.09260678977E-03 -1.89561696715E-04 -3.18084681652E-03 -2.37392754490E-01 -1.77916143858E-02
4.32500000000E+09 -3.36425242829E-01 -1.68533182666E-01 -1.54941528955E-04 -3.31188042394E-03 -1.72695078852E-04 -3.32347201505E-03 -2.38990689094E-01 +3.43936265451E-03
4.33000000000E+09 -3.46410534684E-01 -1.52318325623E-01 -9.03178563774E-04 -3.49280110060E-03 -9.60466273854E-04 -3.45192988454E-03 -2.39562135976E-01 +2.47165229537E-02
4.33500000000E+09 -3.53200307214E-01 -1.36440456582E-01 -1.12738654181E-03 -3.35760363591E-03 -1.21365682270E-03 -3.36006516351E-03 -2.39149112047E-01 +4.56992862538E-02
4.34000000000E+09 -3.57923468001E-01 -1.20650011147E-01 -2.23217612473E-03 -3.38282856370E-03 -2.21826279851E-03 -3.33758839003E-03 -2.37944342844E-01 +6.63523996096E-02
4.34500000000E+09 -3.60899789168E-01 -1.03197537028E-01 -2.71962789321E-03 -2.46269398001E-03 -2.70025022367E-03 -2.44348208404E-03 -2.35755421117E-01 +8.66020533989E-02
4.35000000000E+09 -3.62231600646E-01 -8.47022769638E-02 -2.47895341900E-03 -1.74164708671E-03 -2.47988491323E-03 -1.70308013170E-03 -2.33672687709E-01 +1.05648505454E-01
4.35500000000E+09 -3.64316673720E-01 -6.40474827849E-02 -2.36861061972E-03 -1.95777972533E-03 -2.35559094172E-03 -1.97462114232E-03 -2.30919676482E-01 +1.25060001131E-01
4.36000000000E+09 -3.66396776470E-01 -4.10471199900E-02 -2.84614369020E-03 -1.60021687466E-03 -2.82743582405E-03 -1.64752903862E-03 -2.27386005927E-01 +1.43419866816E-01
4.36500000000E+09 -3.68573138010E-01 -1.75245520885E-02 -3.06997606720E-03 -1.62260643342E-03 -3.10554668763E-03 -1.59148731524E-03 -2.23521398633E-01 +1.61577692288E-01
4.37000000000E+09 -3.72151778059E-01 +5.59756332749E-03 -3.77511254741E-03 -8.93685109141E-04 -3.77916477409E-03 -8.31227631158E-04 -2.18687868138E-01 +1.79607247295E-01
4.37500000000E+09 -3.75907880306E-01 +2.68341157847E-02 -3.61561331285E-03 -1.60085340002E-04 -3.60355078444E-03 -8.37846437866E-05 -2.12954974716E-01 +1.97242740694E-01
4.38000000000E+09 -3.81463860497E-01 +4.63111195305E-02 -3.48471462220E-03 +4.04114019849E-04 -3.45659153197E-03 +4.46778009200E-04 -2.06615783101E-01 +2.14482336077E-01
4.38500000000E+09 -3.86061122804E-01 +6.44924489697E-02 -3.20758102298E-03 +9.89400147400E-04 -3.17273051698E-03 +1.06108189084E-03 -2.00069938995E-01 +2.31643680818E-01
4.39000000000E+09 -3.88542296218E-01 +8.12187106220E-02 -2.90750075456E-03 +1.23439358272E-03 -2.84515335503E-03 +1.29578825852E-03 -1.93053071655E-01 +2.48700909391E-01
4.39500000000E+09 -3.88910909022E-01 +9.62975744967E-02 -2.67623807137E-03 +1.48665357764E-03 -2.56278156604E-03 +1.56655063648E-03 -1.85928211761E-01 +2.64296404560E-01
4.40000000000E+09 -3.86646164350E-01 +1.11116361462E-01 -2.43751693125E-03 +1.67411489270E-03 -2.36036532719E-03 +1.75146180467E-03 -1.78353209614E-01 +2.80781843570E-01
4.40500000000E+09 -3.81944230192E-01 +1.26373587333E-01 -2.45684283898E-03 +1.99755443787E-03 -2.34492586395E-03 +2.02684762758E-03 -1.69274073011E-01 +2.95961799342E-01
4.41000000000E+09 -3.76400484153E-01 +1.42384686045E-01 -2.03346448829E-03 +2.40661108143E-03 -1.98818702561E-03 +2.50104041973E-03 -1.59850918954E-01 +3.10018949138E-01
4.41500000000E+09 -3.70431808248E-01 +1.61119646533E-01 -1.87807573784E-03 +2.73097835553E-03 -1.72754014413E-03 +2.76852869244E-03 -1.50557499182E-01 +3.23358314303E-01
4.42000000000E+09 -3.64113134201E-01 +1.81643932912E-01 -1.32854651352E-03 +3.21520033948E-03 -1.23269390267E-03 +3.17596867809E-03 -1.41231410226E-01 +3.37527121987E-01
4.42500000000E+09 -3.58761018626E-01 +2.02704045070E-01 -4.43311976075E-04 +3.25799301173E-03 -3.34897167514E-04 +3.20324666066E-03 -1.30950331095E-01 +3.50204097184E-01
4.43000000000E+09 -3.55002658500E-01 +2.24180768006E-01 +8.30044193588E-05 +2.94202446362E-03 +1.58007784070E-04 +2.80262404877E-03 -1.22275176520E-01 +3.62796333509E-01
4.43500000000E+09 -3.51607716242E-01 +2.44556322166E-01 +3.72625655776E-04 +2.72625469292E-03 +3.40195605633E-04 +2.52472509593E-03 -1.12159127736E-01 +3.75701405623E-01
4.44000000000E+09 -3.48902170593E-01 +2.63132489845E-01 +5.82539020975E-04 +2.51441314891E-03 +6.38397551853E-04 +2.40736772227E-03 -1.02130718183E-01 +3.87175538313E-01
4.44500000000E+09 -3.46232007275E-01 +2.79226243898E-01 +7.43936714153E-04 +2.25160447928E-03 +7.71521412652E-04 +2.11652444989E-03 -9.17155013125E-02 +3.98427005790E-01
4.45000000000E+09 -3.43198809963E-01 +2.93144298847E-01 +6.51710823464E-04 +2.52016185840E-03 +6.70491828581E-04 +2.40537008353E-03 -8.10907594796E-02 +4.08571530209E-01
4.45500000000E+09 -3.38278239196E-01 +3.06462368996E-01 +1.54185932931E-03 +2.59291375804E-03 +1.53948774166E-03 +2.49058801716E-03 -7.07219354200E-02 +4.18574377734E-01
4.46000000000E+09 -3.31369222127E-01 +3.18707241514E-01 +1.94354204909E-03 +1.63528374815E-03 +1.83091237249E-03 +1.51928195588E-03 -5.99123838219E-02 +4.28361548413E-01
4.46500000000E+09 -3.22493633240E-01 +3.31656528858E-01 +1.71128345079E-03 +1.60962051500E-03 +1.67455468945E-03 +1.50059208651E-03 -4.85919785277E-02 +4.37479893463E-01
4.47000000000E+09 -3.12087340566E-01 +3.45910584247E-01 +1.70004781882E-03 +1.23206814114E-03 +1.63559268522E-03 +1.16209910785E-03 -3.80652105707E-02 +4.46766117447E-01
4.47500000000E+09 -3.00098714916E-01 +3.62331801858E-01 +1.90691006368E-03 +1.33552545254E-03 +1.80297483520E-03 +1.28081170103E-03 -2.64359313224E-02 +4.56202877520E-01
4.48000000000E+09 -2.87771796666E-01 +3.79062128589E-01 +2.28101686759E-03 +1.15488259007E-03 +2.20024022342E-03 +1.12296686584E-03 -1.45764491821E-02 +4.64182893735E-01
4.48500000000E+09 -2.76365558071E-01 +3.95761276258E-01 +2.41086867898E-03 +4.68910155728E-04 +2.26717527611E-03 +4.15695755121E-04 -3.28274230105E-03 +4.72253120368E-01
4.49000000000E+09 -2.67425066688E-01 +4.12398965702E-01 +2.36904636201E-03 +2.02130433537E-04 +2.28727288978E-03 +1.78788105108E-04 +8.73997127552E-03 +4.79507701943E-01
4.49500000000E+09 -2.59625081928E-01 +4.28573614199E-01 +2.03918607110E-03 -2.35926069561E-04 +1.89610386975E-03 -2.37407166361E-04 +1.97360726821E-02 +4.85836852851E-01
4.50000000000E+09 -2.52795869377E-01 +4.42125433603E-01 +1.96575201272E-03 -8.78635688570E-05 +1.90502585494E-03 -9.12695736297E-05 +3.11138382591E-02 +4.92280985044E-01
4.50500000000E+09 -2.47352559886E-01 +4.53748334043E-01 +2.20577073362E-03 -4.56737313525E-04 +2.12185773103E-03 -3.99226878154E-04 +4.22949064732E-02 +4.98150874516E-01
4.51000000000E+09 -2.41253437789E-01 +4.64060743071E-01 +2.04546351767E-03 -1.02237442876E-03 +2.00321118225E-03 -9.10458180056E-04 +5.34203386727E-02 +5.03880931565E-01
4.51500000000E+09 -2.32718808804E-01 +4.72247924344E-01 +1.65539348498E-03 -1.11397106268E-03 +1.71068379606E-03 -1.05107385720E-03 +6.47095391400E-02 +5.09715781390E-01
4.52000000000E+09 -2.23268341979E-01 +4.79220238534E-01 +1.53470497360E-03 -1.35976499481E-03 +1.48000344360E-03 -1.32539945422E-03 +7.65709187611E-02 +5.14556946782E-01
4.52500000000E+09 -2.11419149039E-01 +4.86283703965E-01 +1.29025250183E-03 -1.35875711839E-03 +1.27529710202E-03 -1.31980718164E-03 +8.76355440427E-02 +5.18565679689E-01
4.53000000000E+09 -1.98616299674E-01 +4.94107085341E-01 +1.24991571153E-03 -1.50193821542E-03 +1.26251716749E-03 -1.48070789593E-03 +9.88550421083E-02 +5.22439016360E-01
4.53500000000E+09 -1.84010222437E-01 +5.03795504677E-01 +8.90206711696E-04 -1.84595841849E-03 +8.14726701367E-04 -1.78579312813E-03 +1.09667112429E-01 +5.26206743516E-01
4.54000000000E+09 -1.69121247340E-01 +5.13637101202E-01 +6.04924698099E-04 -1.95835012851E-03 +5.81324826519E-04 -1.90284544315E-03 +1.20885183945E-01 +5.29701334791E-01
4.54500000000E+09 -1.55277115832E-01 +5.24371705119E-01 +6.03925184604E-06 -1.78609801533E-03 -2.13771470668E-05 -1.70694166553E-03 +1.31247544437E-01 +5.33580741516E-01
4.55000000000E+09 -1.42878364490E-01 +5.34586157257E-01 -1.36740749763E-04 -1.42533927132E-03 -2.15464478890E-04 -1.35092455411E-03 +1.43201134747E-01 +5.37508213910E-01
4.55500000000E+09 -1.32325892896E-01 +5.44407609314E-01 +3.61101868003E-05 -1.32940960959E-03 -3.85876279450E-06 -1.32467697473E-03 +1.54164927614E-01 +5.40166234127E-01
4.56000000000E+09 -1.23212751368E-01 +5.53319986042E-01 -7.63870038947E-05 -1.60328502953E-03 -1.40080434068E-04 -1.61125262637E-03 +1.64992278733E-01 +5.43348611849E-01
4.56500000000E+09 -1.14202903563E-01 +5.60770981498E-01 -4.49920976066E-04 -1.71304340046E-03 -4.81854084888E-04 -1.66322117382E-03 +1.75693126950E-01 +5.45652228053E-01
4.57000000000E+09 -1.04593635790E-01 +5.66230262581E-01 -9.52489029448E-04 -1.40231069771E-03 -9.28534734035E-04 -1.37100294215E-03 +1.86134603112E-01 +5.47952146769E-01
