# Hz S RI R 50
! CMT, C1220, 16058040, 17.2.0/1
! Date: 15/08/2018 12:18:45
! Data: Format (Calibration Info)
! Freq                      S11: Re/Im (F2)                       S21: Re/Im (F2)                       S12: Re/Im (F2)                       S22: Re/Im (F2)            
4.00000000000E+09 +6.51993570472E-01 -3.53794885634E-01 +3.62381128692E-04 -1.37201929747E-04 +3.60271515635E-04 -1.26720797424E-04 +7.41664420602E-01 -3.26246022195E-01
4.00500000000E+09 +6.43795076978E-01 -3.60154016780E-01 +3.64307497683E-04 -1.51853280828E-04 +3.86508851607E-04 -6.52349674312E-05 +7.31055317905E-01 -3.36825198530E-01
4.01000000000E+09 +6.34908680589E-01 -3.66807142768E-01 +4.42316080880E-04 -3.13925633187E-04 +5.07179940538E-04 -2.81562790266E-04 +7.19871331341E-01 -3.47729325287E-01
4.01500000000E+09 +6.24461931439E-01 -3.74630327673E-01 +4.02511851961E-04 -4.04842325089E-04 +4.71036651895E-04 -4.02228616211E-04 +7.08609036755E-01 -3.57743459745E-01
4.02000000000E+09 +6.13516319766E-01 -3.82975973726E-01 +2.04289094269E-04 -5.63300797697E-04 +2.47455881627E-04 -5.76320263265E-04 +6.96818104851E-01 -3.67617422412E-01
4.02500000000E+09 +6.01857041835E-01 -3.92420256474E-01 +2.69106735749E-05 -2.55529487363E-04 +4.84124184458E-05 -2.36565101375E-04 +6.84602686859E-01 -3.77233753199E-01
4.03000000000E+09 +5.90387033265E-01 -4.02325329867E-01 +2.76139281557E-04 -2.09341468063E-04 +3.30253829477E-04 -2.29531083432E-04 +6.71892782890E-01 -3.86496958191E-01
4.03500000000E+09 +5.79233546237E-01 -4.12787900054E-01 +4.74243400175E-04 -4.19299479991E-04 +5.14446750471E-04 -3.82711534957E-04 +6.58928956450E-01 -3.96087831960E-01
4.04000000000E+09 +5.68459619311E-01 -4.23043066292E-01 +3.36690577468E-04 -7.50946386898E-04 +4.15015141508E-04 -7.82434134442E-04 +6.45531287980E-01 -4.06358081210E-01
4.04500000000E+09 +5.57540221132E-01 -4.33060329935E-01 -7.63287875777E-05 -8.47855606634E-04 -5.41709314719E-05 -9.27411496289E-04 +6.30937805964E-01 -4.15780122785E-01
4.05000000000E+09 +5.45633692774E-01 -4.41006484536E-01 -2.84005338655E-04 -4.54754204279E-04 -2.88622485500E-04 -4.74451439202E-04 +6.16940691094E-01 -4.24151658512E-01
4.05500000000E+09 +5.33768400701E-01 -4.46200732981E-01 -1.27420328719E-04 -3.85853328960E-04 -1.71235136822E-04 -3.98503433185E-04 +6.02576333901E-01 -4.32164910051E-01
4.06000000000E+09 +5.22031979709E-01 -4.50397499077E-01 -5.84578729281E-05 -2.72638064168E-04 -7.60171236268E-05 -3.20807613577E-04 +5.87953722871E-01 -4.39897185771E-01
4.06500000000E+09 +5.09297656038E-01 -4.54317023802E-01 +1.65300520731E-04 -5.09717634741E-04 +1.88779054328E-04 -5.29597859642E-04 +5.72346239869E-01 -4.47267651092E-01
4.07000000000E+09 +4.95156470879E-01 -4.58506888339E-01 -1.37666471297E-04 -8.29627673638E-04 -1.43153026899E-04 -8.29790888601E-04 +5.56459218416E-01 -4.54145239989E-01
4.07500000000E+09 +4.79587802111E-01 -4.62862438615E-01 -3.25351410309E-04 -5.46222041950E-04 -3.33815562963E-04 -6.13113357576E-04 +5.40008602861E-01 -4.61669484116E-01
4.08000000000E+09 +4.62992301285E-01 -4.68125000624E-01 -4.06276081099E-04 -4.74235779958E-04 -4.45892309151E-04 -5.19446425598E-04 +5.23427998352E-01 -4.67927499977E-01
4.08500000000E+09 +4.45377459806E-01 -4.73450265989E-01 -5.19499735890E-04 -4.06292535827E-04 -5.26138723937E-04 -3.77016426587E-04 +5.07045111646E-01 -4.75088136027E-01
4.09000000000E+09 +4.28723171663E-01 -4.79653260102E-01 -3.19542229747E-04 -2.62754798539E-04 -2.92657416776E-04 -2.46038746248E-04 +4.89045522526E-01 -4.80345348341E-01
4.09500000000E+09 +4.11830059157E-01 -4.86395202439E-01 -1.56681348372E-04 -3.08935831125E-04 -1.99139867996E-04 -2.94061401448E-04 +4.72323061927E-01 -4.84508134691E-01
4.10000000000E+09 +3.94759911498E-01 -4.92575313723E-01 -4.46766848202E-04 -5.29706651621E-04 -4.24795776667E-04 -5.24307870081E-04 +4.54199897509E-01 -4.89248408724E-01
4.10500000000E+09 +3.78098732468E-01 -4.96773757810E-01 -4.11428087036E-04 -1.49337017924E-04 -3.94209213848E-04 -1.66381227689E-04 +4.35417630063E-01 -4.92710417195E-01
4.11000000000E+09 +3.61896364258E-01 -4.99229790667E-01 -3.32752742447E-04 -4.44723557232E-04 -3.42200327290E-04 -4.14333535715E-04 +4.17063915802E-01 -4.95997196809E-01
4.11500000000E+09 +3.46806714755E-01 -5.00209634489E-01 -3.28911087993E-04 -5.82319305358E-04 -2.88345722980E-04 -5.92221039179E-04 +3.98053177638E-01 -4.99792649069E-01
4.12000000000E+09 +3.31039085904E-01 -5.01573318515E-01 -7.65312540332E-04 -7.23789873359E-04 -7.58712023888E-04 -7.73308268558E-04 +3.78516908634E-01 -5.02624161270E-01
4.12500000000E+09 +3.13448023535E-01 -5.01902975328E-01 -1.19464787109E-03 -5.38923952239E-04 -1.16642033391E-03 -5.34648332732E-04 +3.58532510125E-01 -5.04562769464E-01
4.13000000000E+09 +2.95319167748E-01 -5.02435502756E-01 -1.31549479734E-03 +1.39023920805E-04 -1.35007339920E-03 +1.39991906796E-04 +3.38522896501E-01 -5.05636691955E-01
4.13500000000E+09 +2.75779713086E-01 -5.03771584851E-01 -8.38120565764E-04 +3.98576983222E-04 -8.92654075419E-04 +3.82790983583E-04 +3.18236228005E-01 -5.05663694547E-01
4.14000000000E+09 +2.55778511984E-01 -5.05349366301E-01 -5.19693228709E-04 +2.73467406649E-04 -5.72532261083E-04 +2.08508593028E-04 +2.97966851154E-01 -5.05401918455E-01
4.14500000000E+09 +2.36298928094E-01 -5.08366574175E-01 -7.14283858741E-04 +9.35491072294E-05 -7.24234027221E-04 +2.21352424363E-05 +2.77420291325E-01 -5.04666965424E-01
4.15000000000E+09 +2.16080961922E-01 -5.12604487076E-01 -7.57610883557E-04 +9.71416178062E-05 -8.44688354001E-04 +1.37697911099E-04 +2.57136726820E-01 -5.03475434276E-01
4.15500000000E+09 +1.96338272842E-01 -5.16092189370E-01 -9.37184768904E-04 +6.19638616520E-05 -9.74391504905E-04 +5.78747667233E-05 +2.36486077235E-01 -5.01063448105E-01
4.16000000000E+09 +1.77630665904E-01 -5.18443823609E-01 -1.18976219057E-03 +3.41366521227E-04 -1.23180783358E-03 +3.46687898132E-04 +2.16177498655E-01 -4.97408267957E-01
4.16500000000E+09 +1.60089257071E-01 -5.18335961300E-01 -1.18271429292E-03 +8.03839397213E-04 -1.24765922820E-03 +8.12557814738E-04 +1.95619284658E-01 -4.93131092288E-01
4.17000000000E+09 +1.44817805516E-01 -5.16711257230E-01 -9.77284699735E-04 +8.63141065651E-04 -9.83128348039E-04 +8.76134455382E-04 +1.74933674602E-01 -4.87763446251E-01
4.17500000000E+09 +1.29654375243E-01 -5.14117500897E-01 -9.17288029341E-04 +1.14784568149E-03 -9.56634049795E-04 +1.13403465232E-03 +1.54153892029E-01 -4.81511993143E-01
4.18000000000E+09 +1.14485301258E-01 -5.09918870521E-01 -7.52724778919E-04 +1.57022796915E-03 -7.74861333791E-04 +1.59581382577E-03 +1.33927075344E-01 -4.74213679760E-01
4.18500000000E+09 +9.81640319617E-02 -5.05624289926E-01 +1.84240964257E-05 +1.53840785453E-03 +3.44588891296E-05 +1.56630244092E-03 +1.14633217695E-01 -4.67314426141E-01
4.19000000000E+09 +8.01925224342E-02 -4.99833486204E-01 -9.37663397915E-05 +1.03189496912E-03 -6.99811666292E-05 +1.14575723775E-03 +9.39322546016E-02 -4.60200974038E-01
4.19500000000E+09 +6.21708229494E-02 -4.93329236360E-01 -1.59627752633E-04 +9.96812395861E-04 -2.02553152333E-04 +1.04191154722E-03 +7.35442646582E-02 -4.50720379813E-01
4.20000000000E+09 +4.41338878233E-02 -4.87735195756E-01 -2.71655665332E-04 +1.26281541226E-03 -2.75140929204E-04 +1.29453641252E-03 +5.44163630849E-02 -4.40252251989E-01
4.20500000000E+09 +2.58660928308E-02 -4.82814640980E-01 -2.67833618007E-04 +1.34456158887E-03 -2.66129988107E-04 +1.38940989070E-03 +3.48532889708E-02 -4.30271144450E-01
4.21000000000E+09 +7.46059904757E-03 -4.77793853712E-01 -2.87284030496E-05 +1.97621938748E-03 -1.53067819434E-05 +2.05107738806E-03 +1.52375887131E-02 -4.18591029194E-01
4.21500000000E+09 -1.03476394150E-02 -4.71873591797E-01 +9.44338653417E-04 +2.14319708676E-03 +9.96660039622E-04 +2.19967259247E-03 -3.07612065530E-03 -4.07173928651E-01
4.22000000000E+09 -2.72734580570E-02 -4.64248957073E-01 +1.37704240087E-03 +1.43846787053E-03 +1.39854972783E-03 +1.49059187591E-03 -2.16273349371E-02 -3.95349314782E-01
4.22500000000E+09 -4.23508964221E-02 -4.55167760442E-01 +1.45536406723E-03 +1.10348719696E-03 +1.51061809224E-03 +1.11863365790E-03 -3.96549976564E-02 -3.81742583742E-01
4.23000000000E+09 -5.67265261755E-02 -4.45040273575E-01 +1.27828162899E-03 +6.84659277669E-04 +1.31273571106E-03 +6.70044402273E-04 -5.63837184972E-02 -3.67665308686E-01
4.23500000000E+09 -7.19088222387E-02 -4.33982961068E-01 +1.08325328125E-03 +8.64136043157E-04 +1.11502663445E-03 +8.22984771334E-04 -7.36462212233E-02 -3.52746200430E-01
4.24000000000E+09 -8.79844844530E-02 -4.21436068515E-01 +1.18520821924E-03 +1.01582041624E-03 +1.19251153643E-03 +1.03912643614E-03 -8.99504834056E-02 -3.35831346190E-01
4.24500000000E+09 -1.05206832629E-01 -4.08100786837E-01 +1.81261325823E-03 +1.09400276299E-03 +1.83757165689E-03 +1.14061477433E-03 -1.05599232138E-01 -3.18801428222E-01
4.25000000000E+09 -1.23596756621E-01 -3.94642674352E-01 +2.32995114260E-03 +6.02532342275E-04 +2.41850958687E-03 +5.75141781510E-04 -1.20150483357E-01 -3.00637539243E-01
4.25500000000E+09 -1.41775883508E-01 -3.81340131289E-01 +2.30633678471E-03 -1.14088220666E-04 +2.29526137292E-03 -1.66049692556E-04 -1.33409989875E-01 -2.83004036021E-01
4.26000000000E+09 -1.60474887429E-01 -3.69714989802E-01 +1.84298986850E-03 -5.48012855027E-04 +1.81280932355E-03 -5.77981335951E-04 -1.46526865203E-01 -2.65416800397E-01
4.26500000000E+09 -1.79306195461E-01 -3.58553469034E-01 +1.76309163421E-03 -3.82630813013E-04 +1.76365698899E-03 -3.96471534264E-04 -1.58910858005E-01 -2.46198734779E-01
4.27000000000E+09 -1.96590453714E-01 -3.47197458096E-01 +1.99698642926E-03 -5.10219201934E-04 +2.00256660563E-03 -5.71622970920E-04 -1.70866869219E-01 -2.26383377212E-01
4.27500000000E+09 -2.12091080784E-01 -3.35149141913E-01 +2.03833042448E-03 -1.10529606093E-03 +2.05557976016E-03 -1.07782600268E-03 -1.81777728573E-01 -2.05785636295E-01
4.28000000000E+09 -2.25282096506E-01 -3.21884951034E-01 +1.63729952281E-03 -1.36564552148E-03 +1.58046859240E-03 -1.36226801425E-03 -1.91889176372E-01 -1.85191672760E-01
4.28500000000E+09 -2.36243116169E-01 -3.07639400629E-01 +1.73759267673E-03 -1.20957733267E-03 +1.67399659722E-03 -1.20716330986E-03 -2.00571550940E-01 -1.64179620425E-01
4.29000000000E+09 -2.46441590491E-01 -2.92551484509E-01 +1.85609023819E-03 -1.88344957245E-03 +1.83486284712E-03 -1.89014223715E-03 -2.08203727245E-01 -1.44465444959E-01
4.29500000000E+09 -2.57137379529E-01 -2.75720015523E-01 +1.26703176716E-03 -2.51010119442E-03 +1.30160793321E-03 -2.55138364066E-03 -2.15861901345E-01 -1.25129011634E-01
4.30000000000E+09 -2.68636734755E-01 -2.57015595870E-01 +5.23049324372E-04 -2.35709207301E-03 +5.28839636479E-04 -2.38602725537E-03 -2.22349847914E-01 -1.04615120695E-01
4.30500000000E+09 -2.80679867580E-01 -2.36984739413E-01 +5.71090880198E-04 -2.47494142987E-03 +5.39105118278E-04 -2.47144475161E-03 -2.27645873687E-01 -8.33770928557E-02
4.31000000000E+09 -2.92402221199E-01 -2.17095071011E-01 -3.56960305925E-05 -2.69081845691E-03 -2.96022679747E-05 -2.70953201199E-03 -2.31466231594E-01 -6.24600769814E-02
4.31500000000E+09 -3.05192176296E-01 -1.99009277012E-01 -6.23268554804E-04 -2.52283009293E-03 -6.49051971449E-04 -2.51760025145E-03 -2.34981544860E-01 -4.07166683370E-02
4.32000000000E+09 -3.17729239271E-01 -1.81565981934E-01 -8.11950423705E-04 -1.94065926283E-03 -8.32202653885E-04 -1.88068709013E-03 -2.37117478997E-01 -1.90990084080E-02
4.32500000000E+09 -3.29512418513E-01 -1.65405903278E-01 -5.30620556197E-04 -2.16160372854E-03 -6.13893308335E-04 -2.15391420413E-03 -2.39129131785E-01 +1.85108359944E-03
4.33000000000E+09 -3.39238090833E-01 -1.49296956068E-01 -1.15329210492E-03 -2.46609537691E-03 -1.16018756141E-03 -2.45974092831E-03 -2.40027444153E-01 +2.33911220500E-02
4.33500000000E+09 -3.45586030631E-01 -1.34152840086E-01 -1.55373280013E-03 -2.21879829838E-03 -1.60382761029E-03 -2.20906133771E-03 -2.39887941415E-01 +4.46322660596E-02
4.34000000000E+09 -3.50519064279E-01 -1.19063146014E-01 -2.42933732428E-03 -2.00785251634E-03 -2.46098697671E-03 -1.95032447126E-03 -2.39116222931E-01 +6.55941968875E-02
4.34500000000E+09 -3.53567768410E-01 -1.02217897199E-01 -2.60953256713E-03 -9.93618186055E-04 -2.63510695761E-03 -9.74489132282E-04 -2.36929593161E-01 +8.64935316745E-02
4.35000000000E+09 -3.55290557442E-01 -8.42907429892E-02 -2.16289647915E-03 -4.09336747047E-04 -2.17377102204E-03 -3.81758709556E-04 -2.34766184528E-01 +1.05994814281E-01
4.35500000000E+09 -3.57504263556E-01 -6.35350559253E-02 -1.84291416261E-03 -7.05652326976E-04 -1.87086725306E-03 -6.77731093303E-04 -2.31459049228E-01 +1.26041544085E-01
4.36000000000E+09 -3.59133420373E-01 -4.09855755373E-02 -2.20630365179E-03 -5.29249161019E-04 -2.19737621754E-03 -5.12060303828E-04 -2.27389236237E-01 +1.44260166989E-01
4.36500000000E+09 -3.61541199215E-01 -1.87137601201E-02 -2.58317970493E-03 -6.57082572035E-04 -2.59458160427E-03 -6.06981558033E-04 -2.23226181391E-01 +1.62327298982E-01
4.37000000000E+09 -3.65835510602E-01 +3.99707163731E-03 -3.13162508762E-03 +2.63560403511E-04 -3.10055618122E-03 +3.61319067717E-04 -2.18123290859E-01 +1.80221005926E-01
4.37500000000E+09 -3.70321909058E-01 +2.52027636120E-02 -2.43572816660E-03 +1.00920916116E-03 -2.43542441041E-03 +1.03337015445E-03 -2.12622947210E-01 +1.97390626679E-01
4.38000000000E+09 -3.76121758032E-01 +4.51138543837E-02 -2.36143036470E-03 +1.01589681535E-03 -2.33173201533E-03 +1.08560385280E-03 -2.06226692465E-01 +2.14949854693E-01
4.38500000000E+09 -3.79938682005E-01 +6.31524282827E-02 -2.24285482721E-03 +1.51059898688E-03 -2.16185070617E-03 +1.51823693896E-03 -1.99760039177E-01 +2.32050098217E-01
4.39000000000E+09 -3.82661298810E-01 +7.89427169925E-02 -1.88192925261E-03 +1.92734966102E-03 -1.82904952805E-03 +1.97759204150E-03 -1.92542861669E-01 +2.49141517900E-01
4.39500000000E+09 -3.83512518163E-01 +9.38271671647E-02 -1.41007797938E-03 +2.02822468618E-03 -1.34871555846E-03 +2.04590067173E-03 -1.85222045020E-01 +2.64522745833E-01
4.40000000000E+09 -3.81552881031E-01 +1.08346547776E-01 -1.07064990426E-03 +2.07757339394E-03 -9.85742809776E-04 +2.00514028561E-03 -1.77855416757E-01 +2.80710778799E-01
4.40500000000E+09 -3.77659785139E-01 +1.23499845942E-01 -1.09293524126E-03 +2.01977023785E-03 -1.04976261023E-03 +2.01063054621E-03 -1.68815813629E-01 +2.95910580516E-01
4.41000000000E+09 -3.72293107292E-01 +1.40389942860E-01 -5.94171136668E-04 +2.56394830973E-03 -6.03807112612E-04 +2.51041728831E-03 -1.59789301162E-01 +3.09793533574E-01
4.41500000000E+09 -3.65714059021E-01 +1.58487190865E-01 -3.47308150993E-04 +2.29024673777E-03 -2.96491114210E-04 +2.30610361159E-03 -1.50858563038E-01 +3.23815290805E-01
4.42000000000E+09 -3.59946462387E-01 +1.78877591299E-01 -2.67921777455E-04 +2.60021236333E-03 -1.55523080279E-04 +2.55193457052E-03 -1.41346451047E-01 +3.38415376824E-01
4.42500000000E+09 -3.54331512220E-01 +1.99335129721E-01 +6.27884282181E-04 +2.71609402235E-03 +6.79820523763E-04 +2.65120148361E-03 -1.30690940348E-01 +3.51397338797E-01
4.43000000000E+09 -3.51748354736E-01 +2.20359019723E-01 +1.01979644495E-03 +2.17692350739E-03 +1.03756131718E-03 +2.14847184350E-03 -1.21597045887E-01 +3.64157712603E-01
4.43500000000E+09 -3.48597037736E-01 +2.41565373968E-01 +1.24131364249E-03 +1.95082168999E-03 +1.20772515507E-03 +1.91866905553E-03 -1.10878537253E-01 +3.76857577836E-01
4.44000000000E+09 -3.45646154930E-01 +2.59594249889E-01 +1.45598727390E-03 +1.62093817520E-03 +1.42524977601E-03 +1.57231830449E-03 -1.00717977711E-01 +3.87953098196E-01
4.44500000000E+09 -3.43653659589E-01 +2.75436502690E-01 +1.39327685208E-03 +1.30836875856E-03 +1.40695894766E-03 +1.27772753779E-03 -9.04430327907E-02 +3.99066141467E-01
4.45000000000E+09 -3.40694965700E-01 +2.89374943177E-01 +1.37000234784E-03 +1.45615561446E-03 +1.32831395195E-03 +1.36135270582E-03 -7.98625488640E-02 +4.09435367181E-01
4.45500000000E+09 -3.36525006944E-01 +3.02392119590E-01 +1.92019823020E-03 +1.29085641751E-03 +1.89677886069E-03 +1.25631139578E-03 -6.87605957460E-02 +4.19442986123E-01
4.46000000000E+09 -3.29963648972E-01 +3.15040617456E-01 +2.09798969978E-03 +5.13698162558E-04 +2.11582560110E-03 +4.77253029541E-04 -5.76404583725E-02 +4.28825313795E-01
4.46500000000E+09 -3.21176891040E-01 +3.27752424959E-01 +1.66838539503E-03 +3.88714698653E-04 +1.74656215169E-03 +2.68472265678E-04 -4.61564072183E-02 +4.37506497936E-01
4.47000000000E+09 -3.11253506346E-01 +3.42079356477E-01 +1.57215387692E-03 +3.31306034939E-04 +1.52404160751E-03 +2.54743430215E-04 -3.55820988622E-02 +4.46180426636E-01
4.47500000000E+09 -2.99874294959E-01 +3.58437289350E-01 +1.72824052207E-03 +4.00383574370E-04 +1.69183865769E-03 +3.15512639672E-04 -2.41174336520E-02 +4.55156075261E-01
4.48000000000E+09 -2.87729490401E-01 +3.75736450820E-01 +2.06668288424E-03 +2.05375983244E-04 +1.95641180941E-03 +1.29043062644E-04 -1.27818905419E-02 +4.62979296575E-01
4.48500000000E+09 -2.76419300443E-01 +3.92542286442E-01 +2.01988479013E-03 -3.57128420363E-04 +1.89381939730E-03 -3.30876347252E-04 -1.56067012978E-03 +4.70971331237E-01
4.49000000000E+09 -2.67590081296E-01 +4.08987829922E-01 +2.17174218868E-03 -6.23421556717E-04 +2.04603366958E-03 -6.49126805220E-04 +1.01470905561E-02 +4.78205379786E-01
4.49500000000E+09 -2.60252002485E-01 +4.25124984831E-01 +1.49368378155E-03 -1.17539707500E-03 +1.43705152537E-03 -1.13065408723E-03 +2.09756793179E-02 +4.84554749706E-01
4.50000000000E+09 -2.53847976046E-01 +4.38657528018E-01 +1.26960075709E-03 -8.39231224795E-04 +1.20575657463E-03 -7.92471172896E-04 +3.22377921772E-02 +4.90998050097E-01
4.50500000000E+09 -2.49035360493E-01 +4.50777048517E-01 +1.59917476147E-03 -9.17917158547E-04 +1.52551453365E-03 -8.78202305037E-04 +4.34581732089E-02 +4.96968800760E-01
4.51000000000E+09 -2.42828140312E-01 +4.61474231489E-01 +1.41753545371E-03 -1.58188610255E-03 +1.33176372867E-03 -1.54790289344E-03 +5.45943248849E-02 +5.02513731017E-01
4.51500000000E+09 -2.34234375807E-01 +4.69892768914E-01 +9.96339296493E-04 -1.65713838132E-03 +9.06154001604E-04 -1.56987377740E-03 +6.54725467550E-02 +5.08161469575E-01
4.52000000000E+09 -2.24549776307E-01 +4.77028649034E-01 +6.70870933432E-04 -1.74197813181E-03 +6.69068426880E-04 -1.67503579989E-03 +7.71446449737E-02 +5.13358026238E-01
4.52500000000E+09 -2.12777202491E-01 +4.84125785188E-01 +3.62608965998E-04 -1.59456558249E-03 +3.92386471488E-04 -1.50212225571E-03 +8.83066423453E-02 +5.17444111890E-01
4.53000000000E+09 -1.99938415332E-01 +4.92055491737E-01 +5.12598287360E-04 -1.58856821886E-03 +4.50893267422E-04 -1.54927172548E-03 +9.97776665087E-02 +5.21510320129E-01
4.53500000000E+09 -1.85409225500E-01 +5.01801627649E-01 +1.75474885017E-04 -1.86905619232E-03 +1.93574395864E-04 -1.80329023497E-03 +1.10906728313E-01 +5.24951608072E-01
4.54000000000E+09 -1.70813662653E-01 +5.11839269928E-01 -7.70488198016E-05 -1.92351558708E-03 -7.01642494699E-05 -1.84435673925E-03 +1.22154822350E-01 +5.28081873576E-01
4.54500000000E+09 -1.56988544717E-01 +5.23309141699E-01 -6.62889472435E-04 -1.89007195278E-03 -6.35951549959E-04 -1.78468317291E-03 +1.32427443803E-01 +5.31449740984E-01
4.55000000000E+09 -1.44031090615E-01 +5.33671540851E-01 -9.48466701553E-04 -1.23745153982E-03 -9.26813427299E-04 -1.23784621075E-03 +1.43841875268E-01 +5.35405900560E-01
4.55500000000E+09 -1.33701540747E-01 +5.43551230880E-01 -7.14469272921E-04 -9.82425263676E-04 -6.66273536902E-04 -9.83369587462E-04 +1.54735710413E-01 +5.37983121110E-01
4.56000000000E+09 -1.24400470175E-01 +5.52851001778E-01 -5.97086571423E-04 -1.25486562274E-03 -6.00744281497E-04 -1.18380347946E-03 +1.65114476921E-01 +5.40973851834E-01
4.56500000000E+09 -1.15078180243E-01 +5.60134054390E-01 -9.34884385543E-04 -1.36487308326E-03 -8.98415200995E-04 -1.33430227624E-03 +1.75405070740E-01 +5.43515592787E-01
4.57000000000E+09 -1.05811057424E-01 +5.65709324665E-01 -1.33595623586E-03 -1.14521048070E-03 -1.29303344441E-03 -1.06294472753E-03 +1.85987744629E-01 +5.46041884692E-01
