# Hz S RI R 50
! CMT, C1220, 16058040, 17.2.0/1
! Date: 15/08/2018 12:22:24
! Data: Format (Calibration Info)
! Freq                      S11: Re/Im (F2)                       S21: Re/Im (F2)                       S12: Re/Im (F2)                       S22: Re/Im (F2)            
4.00000000000E+09 +6.49497469435E-01 -3.56033103643E-01 +4.38738269020E-04 -2.64076546629E-04 +4.10377328222E-04 -2.67997243540E-04 +7.43368007275E-01 -3.25077481402E-01
4.00500000000E+09 +6.41639131589E-01 -3.61846619361E-01 +3.71845172574E-04 -1.24417788672E-04 +3.25272450643E-04 -1.54282750156E-04 +7.32863338507E-01 -3.35958214404E-01
4.01000000000E+09 +6.32913133559E-01 -3.68126466816E-01 +6.83200579967E-04 -2.33922017736E-04 +6.74964995110E-04 -2.91042346976E-04 +7.21802227730E-01 -3.47047930706E-01
4.01500000000E+09 +6.22310398455E-01 -3.75341478644E-01 +6.39623857978E-04 -5.46851895893E-04 +6.28316451399E-04 -5.25225828150E-04 +7.10461582952E-01 -3.57204493899E-01
4.02000000000E+09 +6.11120683296E-01 -3.83210036038E-01 +4.04623108628E-04 -7.61368943479E-04 +3.10626742231E-04 -7.27107252401E-04 +6.98652280736E-01 -3.67239754775E-01
4.02500000000E+09 +5.99130934019E-01 -3.92253576803E-01 +1.82671322907E-04 -4.49949035371E-04 +1.32322114985E-04 -4.82440293085E-04 +6.86348177113E-01 -3.76953431180E-01
4.03000000000E+09 +5.87493561340E-01 -4.01821233799E-01 +3.63812280168E-04 -4.02656068194E-04 +3.52820825019E-04 -3.44166083515E-04 +6.73517270582E-01 -3.86533264260E-01
4.03500000000E+09 +5.76117753818E-01 -4.12165707276E-01 +5.86456750670E-04 -5.44981914256E-04 +6.10039926209E-04 -4.98243055124E-04 +6.60538925549E-01 -3.96105466318E-01
4.04000000000E+09 +5.65401789718E-01 -4.22738423114E-01 +4.93521687692E-04 -9.85179407567E-04 +6.24689641399E-04 -9.51969580341E-04 +6.47177090959E-01 -4.06141131270E-01
4.04500000000E+09 +5.54259960295E-01 -4.32719000642E-01 +9.28926885505E-05 -1.18075210114E-03 +1.87465359554E-04 -1.15490501048E-03 +6.32981974744E-01 -4.15781905188E-01
4.05000000000E+09 +5.42476606741E-01 -4.40841898326E-01 -2.63385013021E-04 -9.92610163120E-04 -1.66522263208E-04 -9.90121406357E-04 +6.18911799336E-01 -4.24331879427E-01
4.05500000000E+09 +5.30876939685E-01 -4.45913935801E-01 -2.65307851375E-04 -7.61765087027E-04 -2.28983624895E-04 -7.93590516550E-04 +6.04578985153E-01 -4.32538001326E-01
4.06000000000E+09 +5.19769648196E-01 -4.50310563067E-01 -1.98210304503E-04 -6.63757971658E-04 -1.57309823786E-04 -6.51522768654E-04 +5.89831662395E-01 -4.40572121202E-01
4.06500000000E+09 +5.07242596198E-01 -4.53964283541E-01 -5.11585324349E-05 -8.48025294855E-04 +4.63016139032E-05 -8.82737923816E-04 +5.74018326862E-01 -4.47908706896E-01
4.07000000000E+09 +4.93381050688E-01 -4.57984841192E-01 -3.54001091237E-04 -1.14420486494E-03 -2.62139836880E-04 -1.19524028829E-03 +5.58175857271E-01 -4.55069584401E-01
4.07500000000E+09 +4.77988293813E-01 -4.62148889833E-01 -6.70322702635E-04 -9.69278238416E-04 -6.09080118811E-04 -1.00373786381E-03 +5.41858739990E-01 -4.62690983559E-01
4.08000000000E+09 +4.61166760777E-01 -4.66895560620E-01 -8.41717634728E-04 -7.98109773565E-04 -7.87413519186E-04 -8.84124955229E-04 +5.25355801907E-01 -4.69309430409E-01
4.08500000000E+09 +4.43901365638E-01 -4.71562339632E-01 -9.51738597234E-04 -5.06499064122E-04 -9.96854089686E-04 -6.24418960872E-04 +5.08825249485E-01 -4.76706202876E-01
4.09000000000E+09 +4.27447281526E-01 -4.77505296130E-01 -7.76934996778E-04 -3.81040429659E-04 -8.30131174022E-04 -4.91698983279E-04 +4.90812037172E-01 -4.82123854861E-01
4.09500000000E+09 +4.11005000121E-01 -4.84088706905E-01 -8.11809695194E-04 -3.61074705639E-04 -9.23625958828E-04 -3.90935823151E-04 +4.73784620821E-01 -4.86858251202E-01
4.10000000000E+09 +3.94111537497E-01 -4.90488736369E-01 -9.15349597028E-04 -2.70511396412E-04 -1.07330085302E-03 -3.51454585107E-04 +4.55045870192E-01 -4.91850389059E-01
4.10500000000E+09 +3.77363511564E-01 -4.94727890510E-01 -7.17062583098E-04 +1.24133092489E-04 -7.87431142973E-04 +6.95593333221E-05 +4.35869891611E-01 -4.95187176956E-01
4.11000000000E+09 +3.61131276558E-01 -4.96941556493E-01 -6.84763548727E-04 -1.90884246352E-04 -7.42013488427E-04 -1.96122222359E-04 +4.17094764513E-01 -4.98454987508E-01
4.11500000000E+09 +3.46320116323E-01 -4.97809199237E-01 -5.38482343507E-04 -1.99928496942E-04 -6.03539829789E-04 -1.83230602096E-04 +3.97848181011E-01 -5.01992533648E-01
4.12000000000E+09 +3.30879265083E-01 -4.98920690119E-01 -7.74513292644E-04 -4.41628454996E-04 -8.96475354202E-04 -4.44130457822E-04 +3.78155584805E-01 -5.04906706470E-01
4.12500000000E+09 +3.13533745151E-01 -4.99109485360E-01 -1.36680646806E-03 -3.31585607394E-04 -1.48662577011E-03 -2.84548111458E-04 +3.57831990204E-01 -5.06662070169E-01
4.13000000000E+09 +2.95453093858E-01 -4.99601080338E-01 -1.38585572838E-03 +3.80265932705E-04 -1.52722174258E-03 +4.36575630588E-04 +3.37664807444E-01 -5.07322569978E-01
4.13500000000E+09 +2.76054588901E-01 -5.00651029076E-01 -9.28447457553E-04 +6.63415888545E-04 -9.78127372973E-04 +8.54835112835E-04 +3.17306590383E-01 -5.07098953857E-01
4.14000000000E+09 +2.56168654739E-01 -5.02249872648E-01 -4.77649271089E-04 +4.66389153468E-04 -4.98114661334E-04 +5.87630551075E-04 +2.96781461250E-01 -5.06735779714E-01
4.14500000000E+09 +2.36997841345E-01 -5.05672094801E-01 -6.31995156099E-04 +2.26495770094E-04 -6.20356974106E-04 +2.46331170678E-04 +2.76306719303E-01 -5.05364494172E-01
4.15000000000E+09 +2.16828936905E-01 -5.10056732439E-01 -7.56079490907E-04 +2.36014135266E-04 -7.46188093508E-04 +3.04608028267E-04 +2.56504519139E-01 -5.04130550643E-01
4.15500000000E+09 +1.97416308155E-01 -5.13550973222E-01 -9.18305921729E-04 +1.80033751738E-04 -9.34385005099E-04 +1.90361718055E-04 +2.35984680048E-01 -5.01924360549E-01
4.16000000000E+09 +1.79114891181E-01 -5.15924361043E-01 -1.32455235064E-03 +4.71823505409E-04 -1.21020893997E-03 +4.56916369822E-04 +2.15817058860E-01 -4.98349311330E-01
4.16500000000E+09 +1.62270262128E-01 -5.15995973813E-01 -1.36590442136E-03 +1.01573351156E-03 -1.27547190323E-03 +1.01021258074E-03 +1.95210681213E-01 -4.94425957066E-01
4.17000000000E+09 +1.47511887155E-01 -5.14511210417E-01 -9.79559675071E-04 +1.14073943128E-03 -9.21025045497E-04 +1.06086051352E-03 +1.74339562022E-01 -4.89206026928E-01
4.17500000000E+09 +1.33009950135E-01 -5.11826668612E-01 -1.03190368634E-03 +1.34586154430E-03 -1.04056718995E-03 +1.34119741988E-03 +1.53144658345E-01 -4.83166942325E-01
4.18000000000E+09 +1.18190819293E-01 -5.08088799604E-01 -7.12603796392E-04 +1.90190778273E-03 -7.22278101947E-04 +1.83510680533E-03 +1.32505108039E-01 -4.75717342278E-01
4.18500000000E+09 +1.01657215410E-01 -5.03485611832E-01 +7.11374380063E-05 +1.87339489866E-03 +6.70126469581E-05 +1.82211908382E-03 +1.12992500235E-01 -4.68566260576E-01
4.19000000000E+09 +8.39831868123E-02 -4.97380361880E-01 -1.92622924336E-05 +1.41491239611E-03 -1.41906946623E-05 +1.30414458114E-03 +9.20284296864E-02 -4.61025659156E-01
4.19500000000E+09 +6.63472119128E-02 -4.90754379681E-01 +5.50761110457E-05 +1.33321871263E-03 +1.53165100650E-05 +1.31915342393E-03 +7.16447707830E-02 -4.51444027174E-01
4.20000000000E+09 +4.84971745968E-02 -4.85554894794E-01 +3.35496631617E-05 +1.47363073760E-03 -2.07129723076E-05 +1.45536120933E-03 +5.19308742944E-02 -4.40787642613E-01
4.20500000000E+09 +3.02995804057E-02 -4.81370347516E-01 -1.42479522313E-04 +1.56270256415E-03 -1.84376922694E-04 +1.56723730393E-03 +3.23635336963E-02 -4.29682552229E-01
4.21000000000E+09 +1.18273484059E-02 -4.77123850878E-01 +1.13269425758E-04 +2.29045819983E-03 +6.80746349733E-05 +2.32521387010E-03 +1.34096287227E-02 -4.17406781022E-01
4.21500000000E+09 -6.02194900972E-03 -4.71683454315E-01 +1.35935670692E-03 +2.58806633123E-03 +1.30017866910E-03 +2.61465803352E-03 -4.39674973458E-03 -4.05682554193E-01
4.22000000000E+09 -2.25775095171E-02 -4.64625813098E-01 +1.99822410743E-03 +1.60874700843E-03 +1.95585732768E-03 +1.73040011670E-03 -2.22160835173E-02 -3.93691026668E-01
4.22500000000E+09 -3.66829418039E-02 -4.56130824205E-01 +2.06842556237E-03 +9.88528501764E-04 +2.09809406280E-03 +1.11705297666E-03 -3.97132617964E-02 -3.80669988596E-01
4.23000000000E+09 -5.04390837730E-02 -4.47083993071E-01 +1.71876268107E-03 +5.15927950190E-04 +1.76126592386E-03 +5.84875633268E-04 -5.67123522191E-02 -3.66614202202E-01
4.23500000000E+09 -6.54242861036E-02 -4.36389492936E-01 +1.48965747709E-03 +7.47331837016E-04 +1.55988540245E-03 +8.01765558767E-04 -7.34244994046E-02 -3.51063359418E-01
4.24000000000E+09 -8.12862975330E-02 -4.23851863336E-01 +1.64636548094E-03 +8.58113646199E-04 +1.70731234595E-03 +9.32804451963E-04 -8.89370142106E-02 -3.34821330465E-01
4.24500000000E+09 -9.80944284313E-02 -4.10037772888E-01 +2.24343728779E-03 +8.19197691609E-04 +2.29040386987E-03 +8.25864681110E-04 -1.04469645904E-01 -3.18077400416E-01
4.25000000000E+09 -1.15777435461E-01 -3.96660118367E-01 +2.72284570881E-03 +1.65000189129E-04 +2.81108199457E-03 +1.58489322348E-04 -1.18555725015E-01 -3.00513962612E-01
4.25500000000E+09 -1.34123440444E-01 -3.84154330882E-01 +2.52796208945E-03 -7.10058810697E-04 +2.71036374466E-03 -7.42878240515E-04 -1.31863919762E-01 -2.83711712130E-01
4.26000000000E+09 -1.53874233371E-01 -3.72744347002E-01 +1.97071278760E-03 -1.03313181400E-03 +2.06432933394E-03 -1.10595650868E-03 -1.45549744933E-01 -2.66395874516E-01
4.26500000000E+09 -1.73418824329E-01 -3.61484876373E-01 +1.85053961556E-03 -9.71750840170E-04 +1.83402874559E-03 -1.07925547544E-03 -1.57870804966E-01 -2.47355145641E-01
4.27000000000E+09 -1.91117485815E-01 -3.50448825744E-01 +1.77502883313E-03 -1.11273112537E-03 +1.77822485980E-03 -1.19815120247E-03 -1.70441903462E-01 -2.27950677521E-01
4.27500000000E+09 -2.06755928382E-01 -3.39152246581E-01 +1.79369782007E-03 -1.46328433607E-03 +1.76389015815E-03 -1.51421996911E-03 -1.81279433561E-01 -2.06070905226E-01
4.28000000000E+09 -2.20171532959E-01 -3.27014611758E-01 +1.29330718429E-03 -1.66389781050E-03 +1.24333527489E-03 -1.72355577595E-03 -1.90828447987E-01 -1.85539217123E-01
4.28500000000E+09 -2.31260314941E-01 -3.14171895425E-01 +1.31812780326E-03 -1.41767901122E-03 +1.27422526807E-03 -1.49971570766E-03 -1.99283384334E-01 -1.65195704672E-01
4.29000000000E+09 -2.42067421190E-01 -3.00110818042E-01 +1.44127595217E-03 -1.90069710222E-03 +1.31525830778E-03 -1.90538817083E-03 -2.07176971262E-01 -1.45782601161E-01
4.29500000000E+09 -2.53210945111E-01 -2.83534890674E-01 +1.01558280059E-03 -2.30945904728E-03 +8.70422894135E-04 -2.30325858162E-03 -2.15004949779E-01 -1.26592748467E-01
4.30000000000E+09 -2.64101368836E-01 -2.64897494737E-01 +4.83243325202E-04 -2.32555499344E-03 +3.77476265121E-04 -2.26007593877E-03 -2.21128861681E-01 -1.06139252944E-01
4.30500000000E+09 -2.75500492708E-01 -2.45401095067E-01 +3.17967907548E-04 -2.52274020689E-03 +2.86755737018E-04 -2.48184546344E-03 -2.26798658647E-01 -8.55958263108E-02
4.31000000000E+09 -2.87234688396E-01 -2.26109410191E-01 -2.91743272611E-04 -2.62994121771E-03 -3.01339229549E-04 -2.59139248188E-03 -2.30857483095E-01 -6.47385769675E-02
4.31500000000E+09 -3.00487931588E-01 -2.08221022059E-01 -7.33802968554E-04 -2.39248052055E-03 -7.67213225935E-04 -2.34855745426E-03 -2.34344022878E-01 -4.34863226239E-02
4.32000000000E+09 -3.13883370588E-01 -1.90847018885E-01 -1.02675520587E-03 -1.88990421868E-03 -1.07527144603E-03 -1.88373711352E-03 -2.36956586114E-01 -2.21726505941E-02
4.32500000000E+09 -3.26625839390E-01 -1.74253774737E-01 -8.15961349950E-04 -1.88918069832E-03 -8.28469058757E-04 -1.85807807360E-03 -2.39033830398E-01 -1.42868382678E-03
4.33000000000E+09 -3.36857692883E-01 -1.57826441719E-01 -1.28055131896E-03 -2.07839817973E-03 -1.35288158525E-03 -2.02634776559E-03 -2.40398688710E-01 +1.97223647434E-02
4.33500000000E+09 -3.44056227893E-01 -1.42815827308E-01 -1.44886403734E-03 -1.99319631639E-03 -1.49274941611E-03 -1.94253240343E-03 -2.40498321696E-01 +4.08744685229E-02
4.34000000000E+09 -3.49763863920E-01 -1.27787495266E-01 -2.31925520690E-03 -1.91256273635E-03 -2.29048772787E-03 -1.86363948290E-03 -2.40441304051E-01 +6.14526379748E-02
4.34500000000E+09 -3.53785752099E-01 -1.11152956489E-01 -2.63879289519E-03 -9.35588076518E-04 -2.60858802168E-03 -9.22382054732E-04 -2.39004058828E-01 +8.23865492673E-02
4.35000000000E+09 -3.56314280947E-01 -9.31940871973E-02 -2.22510060986E-03 -3.93573300572E-04 -2.19021045502E-03 -4.06874026300E-04 -2.37427394592E-01 +1.02375452555E-01
4.35500000000E+09 -3.58982243226E-01 -7.25676365906E-02 -2.08526764259E-03 -5.44896143346E-04 -2.10143328809E-03 -5.32303890743E-04 -2.34384170583E-01 +1.22659216424E-01
4.36000000000E+09 -3.61148206352E-01 -5.01071826684E-02 -2.33160776468E-03 -1.74528714235E-04 -2.34150750164E-03 -1.78978866382E-04 -2.30534399433E-01 +1.40944961604E-01
4.36500000000E+09 -3.64300096402E-01 -2.78643489487E-02 -2.40822148882E-03 -1.64076082677E-04 -2.33310154703E-03 -1.15679479363E-04 -2.26772135974E-01 +1.59274747462E-01
4.37000000000E+09 -3.69147323105E-01 -4.87139388210E-03 -2.76733066400E-03 +4.62533188131E-04 -2.68441329934E-03 +5.09119298660E-04 -2.21835710807E-01 +1.77611457865E-01
4.37500000000E+09 -3.74145277978E-01 +1.66264591731E-02 -2.30677759235E-03 +1.02331536010E-03 -2.26222519768E-03 +1.05484882439E-03 -2.16592917762E-01 +1.95073393579E-01
4.38000000000E+09 -3.79993348973E-01 +3.69545498009E-02 -2.25214890717E-03 +1.14919514708E-03 -2.10559253076E-03 +1.18086344230E-03 -2.10057208119E-01 +2.12929534128E-01
4.38500000000E+09 -3.84306517596E-01 +5.48068524131E-02 -1.98586412774E-03 +1.61273638509E-03 -1.92819270057E-03 +1.61763825439E-03 -2.03680927992E-01 +2.30194054213E-01
4.39000000000E+09 -3.87398339475E-01 +7.09365762899E-02 -1.64238744042E-03 +1.97025596513E-03 -1.52050175073E-03 +1.94804350613E-03 -1.96747817090E-01 +2.47191299855E-01
4.39500000000E+09 -3.88736425557E-01 +8.55313349770E-02 -1.14003002673E-03 +1.97532362445E-03 -1.09193762356E-03 +1.96905928200E-03 -1.89734304595E-01 +2.62936028000E-01
4.40000000000E+09 -3.87420922987E-01 +1.00523093180E-01 -9.09564692767E-04 +1.98627320379E-03 -8.45409042485E-04 +1.85390996970E-03 -1.82502198837E-01 +2.78992091272E-01
4.40500000000E+09 -3.83777942994E-01 +1.16185865160E-01 -8.48049806842E-04 +2.08620057738E-03 -8.85149331397E-04 +1.97686809914E-03 -1.73907543660E-01 +2.94455527053E-01
4.41000000000E+09 -3.78238610547E-01 +1.33544605321E-01 -3.02296809297E-04 +2.38827338879E-03 -2.77809519878E-04 +2.37220869675E-03 -1.65131737171E-01 +3.08545824929E-01
4.41500000000E+09 -3.72009092997E-01 +1.51885061654E-01 -7.81749432930E-05 +2.15592396991E-03 -1.02608785570E-04 +2.14633314321E-03 -1.56493844154E-01 +3.23131874088E-01
4.42000000000E+09 -3.66309019335E-01 +1.72477333954E-01 -1.83727598868E-05 +2.26563292370E-03 -9.01849992820E-06 +2.29533150895E-03 -1.47084930916E-01 +3.38290949967E-01
4.42500000000E+09 -3.61845094984E-01 +1.93621699812E-01 +6.95041042997E-04 +2.46854348630E-03 +6.81533195235E-04 +2.44550552841E-03 -1.36478442399E-01 +3.51824217218E-01
4.43000000000E+09 -3.59341606295E-01 +2.15599242800E-01 +1.15206433991E-03 +2.04774841607E-03 +1.09617487452E-03 +1.98918836774E-03 -1.27310478619E-01 +3.65140322358E-01
4.43500000000E+09 -3.56749549574E-01 +2.37342505629E-01 +1.39740244449E-03 +1.73360815321E-03 +1.37138887252E-03 +1.72736997067E-03 -1.16514436921E-01 +3.78269104720E-01
4.44000000000E+09 -3.54212139075E-01 +2.56203356752E-01 +1.59111361946E-03 +1.34635215229E-03 +1.56685284251E-03 +1.35495170449E-03 -1.06334781911E-01 +3.89620425832E-01
4.44500000000E+09 -3.52314852571E-01 +2.72575707348E-01 +1.55694858056E-03 +1.00327523152E-03 +1.58518026844E-03 +1.02043035070E-03 -9.58820125898E-02 +4.01192443118E-01
4.45000000000E+09 -3.49401929658E-01 +2.86566343453E-01 +1.34545038963E-03 +8.98259450182E-04 +1.38836174586E-03 +9.02819175134E-04 -8.47438550504E-02 +4.11962324498E-01
4.45500000000E+09 -3.45278087033E-01 +2.99626566585E-01 +1.72166424823E-03 +9.69909288310E-04 +1.69627468059E-03 +9.33975500800E-04 -7.33598180899E-02 +4.22121242525E-01
4.46000000000E+09 -3.38582456759E-01 +3.12541510343E-01 +1.92679244271E-03 +2.26589014372E-04 +1.99147998698E-03 +1.83988237587E-04 -6.20636362349E-02 +4.31702176434E-01
4.46500000000E+09 -3.29571825139E-01 +3.25584635256E-01 +1.50479700994E-03 +6.62914989571E-05 +1.58744234465E-03 -1.39544604672E-05 -5.05804984224E-02 +4.40576245953E-01
4.47000000000E+09 -3.18880732974E-01 +3.40273205783E-01 +1.31061057093E-03 +3.19560182511E-05 +1.32631737217E-03 -3.75996787523E-05 -3.96546974148E-02 +4.49597401446E-01
4.47500000000E+09 -3.07177316700E-01 +3.57207506725E-01 +1.39707647987E-03 +1.09462920938E-04 +1.40426378928E-03 +5.08530104864E-05 -2.81611445467E-02 +4.58750408404E-01
4.48000000000E+09 -2.94395854133E-01 +3.75215226387E-01 +1.61392158145E-03 -2.52201959595E-05 +1.59198406911E-03 -1.05413921238E-04 -1.62841118208E-02 +4.66569713798E-01
4.48500000000E+09 -2.82693793777E-01 +3.92871306783E-01 +1.54872186763E-03 -5.06866090692E-04 +1.47352735330E-03 -5.64374715936E-04 -5.06503238658E-03 +4.74618929284E-01
4.49000000000E+09 -2.73532528397E-01 +4.10455235660E-01 +1.65543385718E-03 -6.41142594761E-04 +1.50268098615E-03 -6.38044415657E-04 +7.06593955646E-03 +4.82257590451E-01
4.49500000000E+09 -2.65886523784E-01 +4.27254660022E-01 +1.14799763887E-03 -9.71897453665E-04 +1.07009246428E-03 -9.71653297952E-04 +1.84065627755E-02 +4.88637110254E-01
4.50000000000E+09 -2.59814679329E-01 +4.41558524179E-01 +9.62206074640E-04 -8.13648039955E-04 +9.30317484127E-04 -8.33107570968E-04 +2.99976673114E-02 +4.95054749759E-01
4.50500000000E+09 -2.55126050996E-01 +4.54110194694E-01 +1.21507797637E-03 -7.81917335985E-04 +1.15444571251E-03 -7.72061297777E-04 +4.14442481698E-02 +5.00918823157E-01
4.51000000000E+09 -2.49577669848E-01 +4.64757853489E-01 +1.03877968011E-03 -1.34337814550E-03 +1.01163242572E-03 -1.28601682954E-03 +5.27686294474E-02 +5.06402252143E-01
4.51500000000E+09 -2.41785302567E-01 +4.73522173866E-01 +6.43128121641E-04 -1.30787269801E-03 +5.61079368597E-04 -1.30885051087E-03 +6.38268064810E-02 +5.11758286065E-01
4.52000000000E+09 -2.32085792604E-01 +4.80653556863E-01 +4.90622616019E-04 -1.35839505188E-03 +4.04051129159E-04 -1.31351952154E-03 +7.55112708997E-02 +5.16946205695E-01
4.52500000000E+09 -2.20393682120E-01 +4.87758857770E-01 +4.32946840361E-04 -1.25999227997E-03 +3.78668879784E-04 -1.18878959497E-03 +8.69645160264E-02 +5.21138441384E-01
4.53000000000E+09 -2.07197579726E-01 +4.95570944757E-01 +3.70822962536E-04 -1.43431066082E-03 +3.62646559340E-04 -1.34093006150E-03 +9.84396549807E-02 +5.25101173090E-01
4.53500000000E+09 -1.92346333862E-01 +5.05229006894E-01 +8.08571073457E-05 -1.63721226722E-03 +4.87026009548E-05 -1.51644257948E-03 +1.09716459999E-01 +5.28693157593E-01
4.54000000000E+09 -1.76940044398E-01 +5.15739445652E-01 -1.54316360924E-04 -1.75657262467E-03 -8.74519514930E-05 -1.59645086861E-03 +1.21206541198E-01 +5.31941485592E-01
4.54500000000E+09 -1.62446170597E-01 +5.27317903240E-01 -7.67002881895E-04 -1.58030677292E-03 -7.15223842732E-04 -1.48313991475E-03 +1.31628698671E-01 +5.35281501305E-01
4.55000000000E+09 -1.49108060244E-01 +5.38487080162E-01 -9.62029303176E-04 -9.98785150387E-04 -9.07060759045E-04 -9.50063414791E-04 +1.43400369503E-01 +5.38991663488E-01
4.55500000000E+09 -1.37926479948E-01 +5.49020193483E-01 -6.53524712204E-04 -7.93643513925E-04 -6.61060689982E-04 -7.66662193542E-04 +1.54399762394E-01 +5.41314637959E-01
4.56000000000E+09 -1.28190668542E-01 +5.58546751178E-01 -6.80458211294E-04 -9.29170288402E-04 -5.83713152789E-04 -8.82192184053E-04 +1.64837468351E-01 +5.44422145410E-01
4.56500000000E+09 -1.18948412720E-01 +5.66371573889E-01 -8.55672662319E-04 -1.06737173781E-03 -7.89499809169E-04 -9.73910848170E-04 +1.75392928370E-01 +5.46843461796E-01
4.57000000000E+09 -1.09961205309E-01 +5.72281756138E-01 -1.20842135175E-03 -9.15795070224E-04 -1.15445016559E-03 -8.79829216076E-04 +1.86208327347E-01 +5.49041261327E-01
