# Hz S RI R 50
! CMT, C1220, 16058040, 17.2.0/1
! Date: 15/08/2018 12:21:12
! Data: Format (Calibration Info)
! Freq                      S11: Re/Im (F2)                       S21: Re/Im (F2)                       S12: Re/Im (F2)                       S22: Re/Im (F2)            
4.00000000000E+09 +6.54378990389E-01 -3.55289000403E-01 +4.46145393633E-04 -7.09187505226E-05 +4.29337943291E-04 -2.13200555521E-05 +7.42074928266E-01 -3.24165253382E-01
4.00500000000E+09 +6.46499930979E-01 -3.61574969126E-01 +5.64498167820E-04 -5.77530641642E-05 +5.30632965733E-04 -2.21811269947E-05 +7.31783080762E-01 -3.34781560794E-01
4.01000000000E+09 +6.37510449469E-01 -3.67992339391E-01 +6.71787155669E-04 -4.52786078058E-04 +7.43228642478E-04 -3.69113526328E-04 +7.20908992018E-01 -3.45552901995E-01
4.01500000000E+09 +6.27286510638E-01 -3.74696896109E-01 +4.99770365923E-04 -6.71422715801E-04 +5.85986870878E-04 -6.48784103482E-04 +7.09910346326E-01 -3.55736819637E-01
4.02000000000E+09 +6.16629961560E-01 -3.82713071357E-01 +1.22159645925E-04 -8.40953179258E-04 +1.67017573850E-04 -8.23679535967E-04 +6.98528824883E-01 -3.65791146246E-01
4.02500000000E+09 +6.05337731977E-01 -3.92051039454E-01 -2.44878074886E-04 -3.55907129731E-04 -2.24292482686E-04 -3.25838128602E-04 +6.86317009344E-01 -3.75670606326E-01
4.03000000000E+09 +5.94042715123E-01 -4.02563745934E-01 +2.11376079637E-04 -1.41535410105E-04 +2.78117806957E-04 -1.15435657443E-04 +6.73751034392E-01 -3.85126257992E-01
4.03500000000E+09 +5.82982596740E-01 -4.13570845490E-01 +3.37266127151E-04 -4.70254634521E-04 +3.95561500359E-04 -3.88439392358E-04 +6.60914251454E-01 -3.94808962169E-01
4.04000000000E+09 +5.71875014718E-01 -4.24454857416E-01 +3.35492810618E-04 -6.18241827740E-04 +3.33504116893E-04 -6.53463064043E-04 +6.47639473704E-01 -4.05084080950E-01
4.04500000000E+09 +5.60875438391E-01 -4.34582672221E-01 +6.36430848229E-05 -9.17785447988E-04 +1.06345807722E-04 -9.60346352643E-04 +6.33423670120E-01 -4.14519065433E-01
4.05000000000E+09 +5.49406481631E-01 -4.42692063348E-01 -4.29131746455E-04 -7.74699721509E-04 -4.72512275076E-04 -8.41086778304E-04 +6.19728068093E-01 -4.23153778356E-01
4.05500000000E+09 +5.38275598182E-01 -4.48644571682E-01 -4.20615662986E-04 -4.85621149255E-04 -5.10744181766E-04 -5.71859492765E-04 +6.05554972072E-01 -4.31513611665E-01
4.06000000000E+09 +5.26856918884E-01 -4.53428851764E-01 -5.01722544913E-04 -2.89476982232E-04 -6.14567808058E-04 -3.51627840460E-04 +5.90993673642E-01 -4.39437614550E-01
4.06500000000E+09 +5.14525413673E-01 -4.57342505618E-01 -2.34512425879E-04 -2.30032724431E-04 -2.60561063674E-04 -2.30025101362E-04 +5.75374558900E-01 -4.47205669457E-01
4.07000000000E+09 +5.00827664955E-01 -4.61982796602E-01 -2.89302998366E-04 -2.99938320307E-04 -3.28511079813E-04 -2.87708370183E-04 +5.59588169269E-01 -4.54513642644E-01
4.07500000000E+09 +4.85340983501E-01 -4.66608293980E-01 -1.18736665737E-04 -2.72833651680E-04 -1.30529836477E-04 -2.77741781964E-04 +5.43231892710E-01 -4.62172205603E-01
4.08000000000E+09 +4.68766304334E-01 -4.71994761307E-01 -2.81411062061E-04 -5.78653409369E-04 -3.17589506771E-04 -5.59747570503E-04 +5.26967720629E-01 -4.68683619736E-01
4.08500000000E+09 +4.51223590216E-01 -4.77749633811E-01 -5.90471429396E-04 -5.09656592850E-04 -6.23951010849E-04 -4.81250703789E-04 +5.10748691701E-01 -4.76214958126E-01
4.09000000000E+09 +4.34141753410E-01 -4.84291117095E-01 -6.32012700759E-04 -3.38466848203E-04 -6.26768462846E-04 -2.88724256705E-04 +4.92860141735E-01 -4.82004699244E-01
4.09500000000E+09 +4.17031687427E-01 -4.91083556653E-01 -7.03718398478E-04 -1.10433495842E-04 -6.47798560403E-04 -9.55544193616E-05 +4.75901153154E-01 -4.86862010602E-01
4.10000000000E+09 +4.00058157373E-01 -4.97427150437E-01 -5.67987507381E-04 -2.88044960189E-05 -5.33546820220E-04 +1.53872160945E-05 +4.57573402705E-01 -4.92042014643E-01
4.10500000000E+09 +3.83725285992E-01 -5.02371622420E-01 -4.39390068649E-04 +1.47383431750E-04 -4.14262725452E-04 +1.24254148313E-04 +4.38451780656E-01 -4.95963471455E-01
4.11000000000E+09 +3.67229794950E-01 -5.05463823864E-01 -2.70327422061E-04 -5.18171079973E-05 -2.41827399504E-04 -6.72348399251E-05 +4.19455748094E-01 -4.99545531741E-01
4.11500000000E+09 +3.51693708580E-01 -5.07143742193E-01 -2.35264012117E-04 -3.26699853866E-04 -2.01081973799E-04 -3.48492412789E-04 +4.00295908032E-01 -5.03337557989E-01
4.12000000000E+09 +3.35595942168E-01 -5.08297286179E-01 -7.43796469469E-04 -6.16873213466E-04 -6.62729873810E-04 -6.97016155300E-04 +3.80648875557E-01 -5.06673921333E-01
4.12500000000E+09 +3.18069696989E-01 -5.08931068838E-01 -1.28283677023E-03 -2.93192754175E-04 -1.26667056763E-03 -3.67457696228E-04 +3.60123147680E-01 -5.08844956257E-01
4.13000000000E+09 +2.99482852909E-01 -5.09902421095E-01 -1.40782495502E-03 +4.16176836025E-04 -1.44902978717E-03 +3.20361880396E-04 +3.39688517394E-01 -5.10000188015E-01
4.13500000000E+09 +2.79893849409E-01 -5.11286164478E-01 -1.00272123304E-03 +8.82770654084E-04 -1.04566188797E-03 +8.08345419847E-04 +3.18949471688E-01 -5.10093367417E-01
4.14000000000E+09 +2.59434637270E-01 -5.13864808514E-01 -5.37234650959E-04 +8.19188825283E-04 -6.01272883367E-04 +7.62282699290E-04 +2.98255402152E-01 -5.09900612658E-01
4.14500000000E+09 +2.39053666477E-01 -5.17458634472E-01 -4.25492698780E-04 +8.10566702836E-04 -4.92733180308E-04 +8.11575538694E-04 +2.77153378566E-01 -5.09164419851E-01
4.15000000000E+09 +2.18488550389E-01 -5.21819209906E-01 -1.11744371547E-04 +7.12450236693E-04 -2.16061899333E-04 +6.90110830255E-04 +2.56609579356E-01 -5.08010210242E-01
4.15500000000E+09 +1.98479806105E-01 -5.25854766530E-01 -2.11036341346E-04 +2.83428394980E-04 -3.16463181490E-04 +3.35238373641E-04 +2.35314529859E-01 -5.05535022333E-01
4.16000000000E+09 +1.79728069487E-01 -5.28695853002E-01 -5.76218578407E-04 +4.09497721074E-04 -6.72272692033E-04 +4.34639722737E-04 +2.14612926257E-01 -5.01386949733E-01
4.16500000000E+09 +1.61820695767E-01 -5.29627573278E-01 -6.89316494925E-04 +8.20908534547E-04 -7.52969544298E-04 +8.85517604190E-04 +1.94022991253E-01 -4.96794474588E-01
4.17000000000E+09 +1.45607519160E-01 -5.27895383344E-01 -4.91279371889E-04 +9.26959811068E-04 -5.33585372093E-04 +9.88850777230E-04 +1.73303517439E-01 -4.91592004959E-01
4.17500000000E+09 +1.30529599603E-01 -5.24723552021E-01 -3.31868784278E-04 +1.30772689355E-03 -3.86661449640E-04 +1.45024951135E-03 +1.51963348730E-01 -4.85400443066E-01
4.18000000000E+09 +1.15260046003E-01 -5.20461894077E-01 +2.03870083232E-04 +1.37724122493E-03 +1.70689291215E-04 +1.48367143098E-03 +1.31424507506E-01 -4.77950457685E-01
4.18500000000E+09 +9.91097704586E-02 -5.16021897820E-01 +6.94874691010E-04 +1.23543207304E-03 +7.87145637450E-04 +1.33285867733E-03 +1.11901949978E-01 -4.70923587785E-01
4.19000000000E+09 +8.07769684197E-02 -5.10709618084E-01 +6.00378319435E-04 +6.46031563612E-04 +7.10732484201E-04 +6.30526588551E-04 +9.06606807785E-02 -4.63479974517E-01
4.19500000000E+09 +6.17658174952E-02 -5.04619872459E-01 +2.76993500396E-04 +4.39700405312E-04 +3.48388036441E-04 +4.57985959024E-04 +7.01032208815E-02 -4.53734856717E-01
4.20000000000E+09 +4.21407025305E-02 -4.99083961538E-01 +2.95543479538E-04 +7.56560116757E-04 +3.51894326153E-04 +7.36014686668E-04 +5.04822987862E-02 -4.43194537226E-01
4.20500000000E+09 +2.26167771950E-02 -4.93562418253E-01 +9.70993812390E-05 +6.10117830839E-04 +1.14610750885E-04 +5.89513934852E-04 +3.05178816858E-02 -4.32400153876E-01
4.21000000000E+09 +4.04205022858E-03 -4.88302308821E-01 -1.63905830442E-05 +1.28365522763E-03 +5.59552193941E-05 +1.29322052395E-03 +1.10203064521E-02 -4.20344837736E-01
4.21500000000E+09 -1.40372515890E-02 -4.82514387369E-01 +7.99496646354E-04 +1.62464679842E-03 +8.44377901596E-04 +1.53926933467E-03 -7.67862785682E-03 -4.08382085238E-01
4.22000000000E+09 -3.07563645820E-02 -4.75636587704E-01 +1.24299603406E-03 +1.25981115927E-03 +1.27755446070E-03 +1.17499992211E-03 -2.62399955857E-02 -3.95976224760E-01
4.22500000000E+09 -4.64588515632E-02 -4.67394523865E-01 +1.75807900988E-03 +8.31474484260E-04 +1.70620401835E-03 +7.59009540485E-04 -4.44852155370E-02 -3.81742417186E-01
4.23000000000E+09 -6.17753994119E-02 -4.57077471329E-01 +1.59767442524E-03 +1.22199220194E-04 +1.52800511784E-03 +1.10312537475E-06 -6.10377760869E-02 -3.66730586540E-01
4.23500000000E+09 -7.72620889978E-02 -4.45285413846E-01 +1.11801503155E-03 +3.02200341347E-04 +1.08766249805E-03 +2.03844726159E-04 -7.77835662846E-02 -3.51100672280E-01
4.24000000000E+09 -9.36486509463E-02 -4.31582538354E-01 +1.22036974265E-03 +3.99612671664E-04 +1.15377305028E-03 +3.81317834579E-04 -9.33515751254E-02 -3.34005567938E-01
4.24500000000E+09 -1.10470251977E-01 -4.17412630518E-01 +1.67697095762E-03 +5.73865780367E-04 +1.66237639603E-03 +5.31329478745E-04 -1.08679613582E-01 -3.16784538743E-01
4.25000000000E+09 -1.29034696353E-01 -4.03228545910E-01 +2.32534454467E-03 +1.70270569283E-04 +2.21877561354E-03 +1.62560584555E-04 -1.22832672223E-01 -2.98476742353E-01
4.25500000000E+09 -1.48025197998E-01 -3.89678530970E-01 +2.37745404386E-03 -8.07457033629E-04 +2.36308930539E-03 -8.03812613837E-04 -1.35407847936E-01 -2.80738413280E-01
4.26000000000E+09 -1.68057948447E-01 -3.77291584777E-01 +1.81016304024E-03 -1.30765143471E-03 +1.79713003456E-03 -1.27197952163E-03 -1.48177182944E-01 -2.63233792587E-01
4.26500000000E+09 -1.87971504896E-01 -3.64936019721E-01 +1.62695782037E-03 -1.29757219971E-03 +1.61333080567E-03 -1.27445928305E-03 -1.60289183051E-01 -2.43971004266E-01
4.27000000000E+09 -2.05677099488E-01 -3.52957185533E-01 +1.40001313700E-03 -1.55202377824E-03 +1.43688278383E-03 -1.49264216916E-03 -1.71901664305E-01 -2.24581359909E-01
4.27500000000E+09 -2.22211932249E-01 -3.41384170521E-01 +1.18056984240E-03 -1.96544970811E-03 +1.20948472809E-03 -1.91375771868E-03 -1.82989703526E-01 -2.04030321811E-01
4.28000000000E+09 -2.36311321446E-01 -3.27464504931E-01 +8.22519341087E-04 -2.00863326966E-03 +8.43721147982E-04 -1.93452816319E-03 -1.92882890979E-01 -1.83123211426E-01
4.28500000000E+09 -2.47488711164E-01 -3.12766454985E-01 +7.84614893111E-04 -2.08276309813E-03 +8.08925067015E-04 -1.99081799147E-03 -2.01172049147E-01 -1.62241205408E-01
4.29000000000E+09 -2.57131658110E-01 -2.97436187101E-01 +3.04366709527E-04 -2.45783253837E-03 +3.69014753382E-04 -2.45168164963E-03 -2.08741580093E-01 -1.42405939331E-01
4.29500000000E+09 -2.67145787249E-01 -2.80764661270E-01 -1.94828732654E-04 -2.49417317606E-03 -7.68510287136E-05 -2.46203012374E-03 -2.15826949500E-01 -1.22977304016E-01
4.30000000000E+09 -2.78423629137E-01 -2.62200759228E-01 -7.71914539391E-04 -2.28098758274E-03 -7.17753515847E-04 -2.36911095576E-03 -2.22169757822E-01 -1.02731456249E-01
4.30500000000E+09 -2.90112758242E-01 -2.42136317043E-01 -7.47295120968E-04 -1.95482554505E-03 -6.55616668031E-04 -2.04378890907E-03 -2.27505150266E-01 -8.12864908444E-02
4.31000000000E+09 -3.02533523514E-01 -2.21664520935E-01 -9.70317330731E-04 -2.33061645750E-03 -1.00718879533E-03 -2.35303416113E-03 -2.30678159672E-01 -6.00625819386E-02
4.31500000000E+09 -3.15481241929E-01 -2.01404899251E-01 -1.87387244779E-03 -2.18456125846E-03 -1.86763653743E-03 -2.26924592941E-03 -2.33356961758E-01 -3.87794386179E-02
4.32000000000E+09 -3.27335070157E-01 -1.82648047544E-01 -2.30590572169E-03 -1.17218084477E-03 -2.39886564047E-03 -1.25849569711E-03 -2.35352488812E-01 -1.77391204349E-02
4.32500000000E+09 -3.38643642116E-01 -1.65747783089E-01 -1.70822417236E-03 -8.26277707562E-04 -1.79017626866E-03 -8.31038473301E-04 -2.36869956114E-01 +2.95772871601E-03
4.33000000000E+09 -3.48490227280E-01 -1.49158312626E-01 -1.97593100307E-03 -9.59417862652E-04 -2.02311993009E-03 -1.02202900665E-03 -2.37678020987E-01 +2.36433908062E-02
4.33500000000E+09 -3.55258557933E-01 -1.33215613677E-01 -1.90485559672E-03 -6.15279319557E-04 -2.01599318052E-03 -5.63670614263E-04 -2.37587470427E-01 +4.46220554255E-02
4.34000000000E+09 -3.60215471455E-01 -1.17588986411E-01 -2.32112138759E-03 -6.19462179181E-04 -2.37967096492E-03 -6.29799502698E-04 -2.36581233887E-01 +6.52375323056E-02
4.34500000000E+09 -3.63683424714E-01 -1.00300130999E-01 -2.55117773429E-03 +2.09085812355E-04 -2.61092443467E-03 +2.17979771508E-04 -2.34218844069E-01 +8.55343719004E-02
4.35000000000E+09 -3.65069048150E-01 -8.12996353632E-02 -1.99420930999E-03 +6.69558742171E-04 -2.06937152455E-03 +7.08052699772E-04 -2.32015877591E-01 +1.04212812979E-01
4.35500000000E+09 -3.66981749184E-01 -6.05176871587E-02 -1.90161334537E-03 +4.28868375008E-04 -1.93403016841E-03 +4.70920959617E-04 -2.29189704952E-01 +1.23351640441E-01
4.36000000000E+09 -3.68357451957E-01 -3.74274559961E-02 -1.89261414048E-03 +9.43076612107E-04 -1.89800367109E-03 +1.08987877414E-03 -2.25867235396E-01 +1.40975295838E-01
4.36500000000E+09 -3.69827585647E-01 -1.44493925400E-02 -1.84714546455E-03 +7.30297125789E-04 -1.78537276653E-03 +8.08208327647E-04 -2.22459204408E-01 +1.58770112094E-01
4.37000000000E+09 -3.73750584965E-01 +8.04771284830E-03 -2.23573499200E-03 +1.31978797088E-03 -2.14979134899E-03 +1.43151458610E-03 -2.18168500862E-01 +1.76705096286E-01
4.37500000000E+09 -3.77720538316E-01 +2.95660101247E-02 -1.68114313198E-03 +1.85716384342E-03 -1.57924940870E-03 +1.98163345915E-03 -2.12922793377E-01 +1.94306130260E-01
4.38000000000E+09 -3.83100413339E-01 +4.94508585456E-02 -1.13595922086E-03 +1.89204064712E-03 -1.07775597728E-03 +1.93363475197E-03 -2.06602679905E-01 +2.11699857700E-01
4.38500000000E+09 -3.87443825568E-01 +6.80511182562E-02 -8.80963009423E-04 +2.05558297290E-03 -7.17866545709E-04 +2.05114420133E-03 -2.00524490479E-01 +2.28915935178E-01
4.39000000000E+09 -3.89588343161E-01 +8.50796600009E-02 -6.21753529461E-04 +1.88055528485E-03 -5.34927907906E-04 +1.85575274894E-03 -1.93652009750E-01 +2.45864846438E-01
4.39500000000E+09 -3.88867937186E-01 +1.00307051954E-01 -7.38068731039E-04 +2.00853985587E-03 -5.82394006842E-04 +1.93394845020E-03 -1.86934197015E-01 +2.61355549516E-01
4.40000000000E+09 -3.86410834707E-01 +1.14554510774E-01 -4.43627321684E-04 +2.35188161709E-03 -3.22082753553E-04 +2.27807925991E-03 -1.79960576286E-01 +2.77798232085E-01
4.40500000000E+09 -3.81963478027E-01 +1.29847069870E-01 +3.74047205201E-05 +2.57371847552E-03 +1.37937738466E-04 +2.48907974939E-03 -1.71181529387E-01 +2.93262115530E-01
4.41000000000E+09 -3.76131091027E-01 +1.46251910833E-01 +6.77370590757E-04 +2.44197763789E-03 +6.75371601802E-04 +2.27425101812E-03 -1.62033029866E-01 +3.07419028435E-01
4.41500000000E+09 -3.69961434549E-01 +1.65258991799E-01 +9.44274605457E-04 +2.09142707535E-03 +9.20555584398E-04 +1.94054473860E-03 -1.53054284973E-01 +3.21297585193E-01
4.42000000000E+09 -3.63514144474E-01 +1.86244853995E-01 +8.44153050020E-04 +1.87108373268E-03 +8.23007641780E-04 +1.74638855820E-03 -1.43695315104E-01 +3.35762224242E-01
4.42500000000E+09 -3.57788018890E-01 +2.07792579330E-01 +1.22320269258E-03 +2.13889373122E-03 +1.17438607028E-03 +2.04508388590E-03 -1.33420809411E-01 +3.48836307964E-01
4.43000000000E+09 -3.53531415512E-01 +2.29435904984E-01 +1.64184532234E-03 +1.89299931556E-03 +1.60749793780E-03 +1.75007119640E-03 -1.24599127190E-01 +3.61480226847E-01
4.43500000000E+09 -3.49883622060E-01 +2.49670146324E-01 +2.00464766745E-03 +1.68917054092E-03 +1.92304995697E-03 +1.57824781028E-03 -1.14556770447E-01 +3.74218207945E-01
4.44000000000E+09 -3.47222223807E-01 +2.67889375376E-01 +2.34273280298E-03 +1.19604562336E-03 +2.18882531060E-03 +1.15924166802E-03 -1.04997135467E-01 +3.85681366739E-01
4.44500000000E+09 -3.44665699841E-01 +2.83724509130E-01 +2.37849304804E-03 +4.53179396081E-04 +2.26588798773E-03 +4.19289358394E-04 -9.51460509540E-02 +3.97223362410E-01
4.45000000000E+09 -3.41755167118E-01 +2.97266844431E-01 +1.96979482321E-03 +6.30560933695E-04 +1.85673566422E-03 +5.89834235067E-04 -8.45430477331E-02 +4.08054224473E-01
4.45500000000E+09 -3.36738982967E-01 +3.10447565856E-01 +2.71438976716E-03 +5.60651306693E-04 +2.61792980737E-03 +5.59742707182E-04 -7.37159699510E-02 +4.18445475582E-01
4.46000000000E+09 -3.29198108198E-01 +3.22688449460E-01 +2.71751503106E-03 -8.00257827246E-04 +2.63694725626E-03 -8.04068808169E-04 -6.26758413931E-02 +4.28476828884E-01
4.46500000000E+09 -3.19096638522E-01 +3.35167749378E-01 +1.98571388822E-03 -9.89675388841E-04 +1.90695694846E-03 -9.18908264907E-04 -5.13699126226E-02 +4.37390043655E-01
4.47000000000E+09 -3.08472367642E-01 +3.48667892763E-01 +1.44861761337E-03 -1.11525176093E-03 +1.41565906067E-03 -1.05412782542E-03 -4.10256264215E-02 +4.46888191261E-01
4.47500000000E+09 -2.95952535401E-01 +3.65273533020E-01 +1.37949490026E-03 -6.06184582286E-04 +1.36864822817E-03 -5.38458839376E-04 -2.95274723656E-02 +4.56455660852E-01
4.48000000000E+09 -2.83350897085E-01 +3.82282166509E-01 +1.80585157403E-03 -6.82610275107E-04 +1.80708960767E-03 -5.93654624470E-04 -1.77455539587E-02 +4.64803553614E-01
4.48500000000E+09 -2.71428138064E-01 +3.99873401896E-01 +2.03978118789E-03 -1.30550488906E-03 +1.98455153468E-03 -1.22548573164E-03 -6.18722667899E-03 +4.73131752997E-01
4.49000000000E+09 -2.61891548782E-01 +4.16759765530E-01 +1.83892570339E-03 -1.90270401127E-03 +1.84978766633E-03 -1.84066433975E-03 +5.85456672731E-03 +4.80560268001E-01
4.49500000000E+09 -2.53887485268E-01 +4.32925727402E-01 +8.75044064181E-04 -2.46890036895E-03 +9.34084347847E-04 -2.44776653483E-03 +1.70651901178E-02 +4.87146591356E-01
4.50000000000E+09 -2.47691263485E-01 +4.46433021113E-01 +1.46905095444E-04 -2.07720542856E-03 +1.66721180968E-04 -2.06434787303E-03 +2.85048879677E-02 +4.93710138876E-01
4.50500000000E+09 -2.42655370948E-01 +4.58114743498E-01 +2.15106064816E-05 -1.58300963592E-03 +5.91731402809E-05 -1.56680622579E-03 +4.00574851162E-02 +4.99767251611E-01
4.51000000000E+09 -2.36979446835E-01 +4.68176522019E-01 +2.20355405269E-04 -1.54107274246E-03 +2.30315355865E-04 -1.55514466368E-03 +5.12798239513E-02 +5.05470729610E-01
4.51500000000E+09 -2.28500352331E-01 +4.75962299599E-01 +2.70052790341E-04 -1.65560193044E-03 +2.48077179376E-04 -1.67140690957E-03 +6.24058775504E-02 +5.11219075501E-01
4.52000000000E+09 -2.19300503697E-01 +4.81798475606E-01 -1.84806054102E-04 -2.00448729055E-03 -1.91912551242E-04 -2.04740295641E-03 +7.42779323928E-02 +5.16430842285E-01
4.52500000000E+09 -2.07625083813E-01 +4.88635027143E-01 -4.84597144115E-04 -1.69086819321E-03 -5.99385931836E-04 -1.67255378456E-03 +8.55709447764E-02 +5.20737847798E-01
4.53000000000E+09 -1.94372179760E-01 +4.95744336630E-01 -4.55508104991E-04 -1.55550160572E-03 -5.55559144185E-04 -1.56364389031E-03 +9.72626765662E-02 +5.24817960748E-01
4.53500000000E+09 -1.79326264161E-01 +5.05052375100E-01 -8.03311591255E-04 -1.61293847621E-03 -8.51966218517E-04 -1.54086497463E-03 +1.08460227085E-01 +5.28377663867E-01
4.54000000000E+09 -1.63844425078E-01 +5.14780183687E-01 -9.33148978451E-04 -1.57044198489E-03 -1.02865596598E-03 -1.47181035437E-03 +1.19837747416E-01 +5.31749844171E-01
4.54500000000E+09 -1.49219055348E-01 +5.25580723201E-01 -1.31998965970E-03 -1.17209100834E-03 -1.34108665080E-03 -1.11581815447E-03 +1.30403449020E-01 +5.35418937034E-01
4.55000000000E+09 -1.36122219040E-01 +5.35616530223E-01 -1.49623675187E-03 -8.84263520138E-04 -1.46924374811E-03 -8.33234915498E-04 +1.42042345713E-01 +5.39357395462E-01
4.55500000000E+09 -1.25600402051E-01 +5.45439453896E-01 -1.25236893462E-03 -3.97285000657E-04 -1.22534378919E-03 -3.39493375720E-04 +1.53211158302E-01 +5.42222181231E-01
4.56000000000E+09 -1.16594592526E-01 +5.54689125435E-01 -9.57572059858E-04 -6.12144631990E-04 -9.44713825498E-04 -5.21144691629E-04 +1.64093099328E-01 +5.45194058615E-01
4.56500000000E+09 -1.07676696507E-01 +5.62466999584E-01 -1.01583758612E-03 -8.82560763510E-04 -1.02599990642E-03 -7.49853146256E-04 +1.74577857431E-01 +5.47640766924E-01
4.57000000000E+09 -9.87114344132E-02 +5.67763673268E-01 -1.53489874231E-03 -8.62994652242E-04 -1.48164019373E-03 -8.07034864022E-04 +1.85512317455E-01 +5.50119684264E-01
