# Hz S RI R 50
! CMT, C1220, 16058040, 17.2.0/1
! Date: 15/08/2018 12:20:28
! Data: Format (Calibration Info)
! Freq                      S11: Re/Im (F2)                       S21: Re/Im (F2)                       S12: Re/Im (F2)                       S22: Re/Im (F2)            
4.00000000000E+09 +6.52462528184E-01 -3.49449543545E-01 +1.02540177561E-03 -1.48333722298E-05 +1.06456838981E-03 +1.73492110331E-05 +7.43237521373E-01 -3.25209355810E-01
4.00500000000E+09 +6.44536916743E-01 -3.55765437245E-01 +1.02450871719E-03 -1.76732316669E-04 +1.14100649569E-03 -1.65334333502E-04 +7.32724822064E-01 -3.35809179007E-01
4.01000000000E+09 +6.35925793396E-01 -3.62494829591E-01 +1.10645750933E-03 -4.72734880403E-04 +1.16764904121E-03 -5.17040713611E-04 +7.21750867822E-01 -3.46809658469E-01
4.01500000000E+09 +6.25449071074E-01 -3.69550488740E-01 +9.12720945648E-04 -7.61410811461E-04 +9.76740893410E-04 -7.67325033874E-04 +7.10553227992E-01 -3.57043903115E-01
4.02000000000E+09 +6.15064400797E-01 -3.77385542445E-01 +4.35560786355E-04 -7.55049903619E-04 +4.92268475178E-04 -8.71038971265E-04 +6.99012492068E-01 -3.67089007774E-01
4.02500000000E+09 +6.04210199975E-01 -3.86538980180E-01 +3.13958872881E-04 -2.24645508501E-04 +3.56592592396E-04 -2.65920383843E-04 +6.86791653175E-01 -3.77130707815E-01
4.03000000000E+09 +5.93278834239E-01 -3.96661686553E-01 +9.14842981551E-04 -1.53082388135E-04 +9.22169589022E-04 -2.12807502175E-04 +6.73863694521E-01 -3.86622882332E-01
4.03500000000E+09 +5.82442477076E-01 -4.07372729477E-01 +1.08578790554E-03 -6.37222257354E-04 +1.10949267148E-03 -6.30461968489E-04 +6.61066692301E-01 -3.96037546559E-01
4.04000000000E+09 +5.71432130446E-01 -4.17975657273E-01 +1.02002591849E-03 -1.04598034224E-03 +1.07748676783E-03 -1.07964023446E-03 +6.47616561710E-01 -4.06490815324E-01
4.04500000000E+09 +5.60437856498E-01 -4.27628525239E-01 +5.92825932923E-04 -1.42031339401E-03 +6.39883550772E-04 -1.45524923272E-03 +6.33311433718E-01 -4.16000595251E-01
4.05000000000E+09 +5.49255462403E-01 -4.35345251190E-01 +1.58026644106E-04 -1.29805403555E-03 +2.12893404218E-04 -1.36967523872E-03 +6.19416112327E-01 -4.24710754976E-01
4.05500000000E+09 +5.38131072957E-01 -4.40956720439E-01 +1.28122532600E-04 -1.09776593054E-03 +1.24153497400E-04 -1.07944415159E-03 +6.05014465943E-01 -4.33171954187E-01
4.06000000000E+09 +5.27116859121E-01 -4.45699323745E-01 +1.24390967580E-04 -1.02209479872E-03 +1.12715762335E-04 -9.99402897723E-04 +5.90375137335E-01 -4.41089941759E-01
4.06500000000E+09 +5.14856045236E-01 -4.50262245599E-01 +2.55905983744E-04 -1.06413362741E-03 +2.56611476468E-04 -1.10785493216E-03 +5.74397624461E-01 -4.48948312805E-01
4.07000000000E+09 +5.00905792340E-01 -4.54944665797E-01 +7.56365001371E-05 -1.34358503765E-03 +1.45044422970E-04 -1.40604219697E-03 +5.58164921459E-01 -4.56144808257E-01
4.07500000000E+09 +4.85754977628E-01 -4.59303647002E-01 -8.11293304113E-05 -1.38281571769E-03 -2.11251982400E-05 -1.43086223958E-03 +5.41369663506E-01 -4.63335523665E-01
4.08000000000E+09 +4.69693072414E-01 -4.64797567453E-01 -3.73720457234E-04 -1.54737904803E-03 -3.07206597636E-04 -1.57817037112E-03 +5.25199168992E-01 -4.69532738175E-01
4.08500000000E+09 +4.52797793609E-01 -4.70324887161E-01 -6.72104103342E-04 -1.55399467843E-03 -6.11072710955E-04 -1.59071907949E-03 +5.08938811325E-01 -4.77091122607E-01
4.09000000000E+09 +4.36560022061E-01 -4.76893629070E-01 -9.76171135225E-04 -1.39545307378E-03 -9.47923536083E-04 -1.42930029496E-03 +4.90751539785E-01 -4.82737739828E-01
4.09500000000E+09 +4.19810536569E-01 -4.83703454946E-01 -1.13856981663E-03 -1.04296108047E-03 -1.12638198825E-03 -1.07145967216E-03 +4.73594811975E-01 -4.87284929175E-01
4.10000000000E+09 +4.03134886973E-01 -4.89756976274E-01 -1.19485217086E-03 -8.87146391130E-04 -1.19285939225E-03 -9.70572628724E-04 +4.55177905360E-01 -4.92213888901E-01
4.10500000000E+09 +3.87297132060E-01 -4.94457157088E-01 -9.80746707615E-04 -5.51364524904E-04 -9.93009118318E-04 -5.69140689082E-04 +4.35965857301E-01 -4.95936901212E-01
4.11000000000E+09 +3.71318134105E-01 -4.97713907536E-01 -9.22999898136E-04 -7.82657768475E-04 -9.10074923884E-04 -8.53158878204E-04 +4.16843442096E-01 -4.99078468931E-01
4.11500000000E+09 +3.56008511507E-01 -4.99776174285E-01 -1.00612536146E-03 -9.27901856946E-04 -1.03335100035E-03 -1.00733960886E-03 +3.97861552831E-01 -5.02313111834E-01
4.12000000000E+09 +3.39894573168E-01 -5.01489633463E-01 -1.51837471122E-03 -1.16378748921E-03 -1.53084728511E-03 -1.23802031274E-03 +3.78457783100E-01 -5.05163088067E-01
4.12500000000E+09 +3.22235629687E-01 -5.02252159489E-01 -2.17485832313E-03 -7.77435164554E-04 -2.20815281694E-03 -8.67582959555E-04 +3.58442940607E-01 -5.07500859869E-01
4.13000000000E+09 +3.04198178627E-01 -5.03246615124E-01 -2.30620207288E-03 +1.27669553081E-04 -2.38349901892E-03 +5.27754955364E-05 +3.37969591412E-01 -5.08794686469E-01
4.13500000000E+09 +2.85052555703E-01 -5.05066598532E-01 -1.79180483014E-03 +6.05655726738E-04 -1.86936067280E-03 +6.37139412236E-04 +3.16990304138E-01 -5.08624991906E-01
4.14000000000E+09 +2.65252492527E-01 -5.07893259083E-01 -1.35486674185E-03 +6.26998963775E-04 -1.45785548580E-03 +6.14443131621E-04 +2.96513035637E-01 -5.08306828909E-01
4.14500000000E+09 +2.45722160404E-01 -5.12113763211E-01 -1.21482739114E-03 +4.88808396183E-04 -1.36671853131E-03 +4.71795085547E-04 +2.75278265725E-01 -5.07136372293E-01
4.15000000000E+09 +2.25116661682E-01 -5.16805818311E-01 -1.28033217553E-03 +5.37669232699E-04 -1.32783874571E-03 +5.08662243625E-04 +2.55051192279E-01 -5.05402510880E-01
4.15500000000E+09 +2.05555191084E-01 -5.20513684852E-01 -1.34798871122E-03 +2.93214383091E-04 -1.41365080059E-03 +3.26767150242E-04 +2.34484856010E-01 -5.02869280056E-01
4.16000000000E+09 +1.87206196852E-01 -5.23475729556E-01 -1.71359043179E-03 +4.89515668747E-04 -1.77571438908E-03 +4.99485297808E-04 +2.13850906579E-01 -4.99093247961E-01
4.16500000000E+09 +1.69695948059E-01 -5.24512055782E-01 -1.89953866832E-03 +1.00397692827E-03 -1.99849100590E-03 +1.02545210692E-03 +1.93527587208E-01 -4.94306737711E-01
4.17000000000E+09 +1.53787368715E-01 -5.23429045580E-01 -1.70637396579E-03 +1.41634438986E-03 -1.79338080013E-03 +1.44003740090E-03 +1.72521165332E-01 -4.89244105791E-01
4.17500000000E+09 +1.38414741023E-01 -5.21120625600E-01 -1.60766017163E-03 +1.88842378525E-03 -1.63490677208E-03 +1.99578143694E-03 +1.51280971564E-01 -4.82584575811E-01
4.18000000000E+09 +1.22624209751E-01 -5.17476643544E-01 -9.29373780990E-04 +2.30367639613E-03 -9.09272475785E-04 +2.34625440463E-03 +1.31144529256E-01 -4.74787936199E-01
4.18500000000E+09 +1.05791595518E-01 -5.13347248398E-01 -1.07904417206E-04 +2.15937066714E-03 -7.71652203665E-05 +2.20670493173E-03 +1.12011212342E-01 -4.67719097715E-01
4.19000000000E+09 +8.75468696941E-02 -5.08226128736E-01 -2.46181206783E-04 +1.39994607511E-03 -2.23111398410E-04 +1.39262129650E-03 +9.12817053789E-02 -4.60069969055E-01
4.19500000000E+09 +6.90705279620E-02 -5.02593958704E-01 -7.38577610825E-04 +1.48493470446E-03 -6.98505330681E-04 +1.51851711070E-03 +7.10287689351E-02 -4.50486081172E-01
4.20000000000E+09 +4.98849142694E-02 -4.97845237816E-01 -6.25595221674E-04 +2.09808679735E-03 -6.05376063697E-04 +2.11635756450E-03 +5.19965842268E-02 -4.39815314256E-01
4.20500000000E+09 +3.02456568423E-02 -4.93064856037E-01 -5.24594206661E-04 +2.24542777273E-03 -4.92565530836E-04 +2.29230055880E-03 +3.25357007840E-02 -4.29504777212E-01
4.21000000000E+09 +1.15503750041E-02 -4.87808274566E-01 -1.41513796011E-04 +2.96996312829E-03 -1.72891893764E-04 +3.00235566267E-03 +1.31446999525E-02 -4.17806441288E-01
4.21500000000E+09 -6.18682974078E-03 -4.82358399984E-01 +8.45754173730E-04 +3.09757875749E-03 +8.86292493175E-04 +3.16104416386E-03 -5.53867611496E-03 -4.05912978047E-01
4.22000000000E+09 -2.32369602055E-02 -4.75744349057E-01 +1.55190346072E-03 +2.72442048736E-03 +1.62286609425E-03 +2.70546383580E-03 -2.36416833125E-02 -3.93583412849E-01
4.22500000000E+09 -3.89856731117E-02 -4.67565955633E-01 +2.02370105352E-03 +2.14626405896E-03 +2.02902954942E-03 +2.15791988735E-03 -4.11074567533E-02 -3.79632663088E-01
4.23000000000E+09 -5.47105122543E-02 -4.58000966745E-01 +1.97829320246E-03 +1.47201541750E-03 +1.98749538688E-03 +1.46490234357E-03 -5.75590534324E-02 -3.65616765606E-01
4.23500000000E+09 -7.07546636917E-02 -4.46318958373E-01 +1.65270706282E-03 +1.66119728453E-03 +1.66150472797E-03 +1.63897843192E-03 -7.46677683887E-02 -3.50391344704E-01
4.24000000000E+09 -8.72910738568E-02 -4.33347200272E-01 +2.04846539305E-03 +1.89228707920E-03 +2.03046956234E-03 +1.90348086118E-03 -9.03480620877E-02 -3.33519789344E-01
4.24500000000E+09 -1.04426967856E-01 -4.19737075105E-01 +2.79967141157E-03 +1.70339930183E-03 +2.83995226916E-03 +1.75471423832E-03 -1.05662847215E-01 -3.16444460462E-01
4.25000000000E+09 -1.23016607562E-01 -4.06386206400E-01 +3.37254023266E-03 +1.07816274257E-03 +3.35881956114E-03 +1.06113106247E-03 -1.19792166020E-01 -2.98283744188E-01
4.25500000000E+09 -1.42131981758E-01 -3.93705930814E-01 +3.48924087453E-03 +2.26077111899E-04 +3.50933068617E-03 +2.30251539544E-04 -1.32544578277E-01 -2.80866310261E-01
4.26000000000E+09 -1.62282617591E-01 -3.81716131506E-01 +3.06626587295E-03 -4.26433059713E-04 +3.07899356784E-03 -3.93783563887E-04 -1.45249155665E-01 -2.63496772287E-01
4.26500000000E+09 -1.82122140958E-01 -3.70005416099E-01 +3.20174603379E-03 -6.82830845116E-04 +3.20019635819E-03 -6.97866999773E-04 -1.57107112026E-01 -2.44443072805E-01
4.27000000000E+09 -1.99890537664E-01 -3.57957319098E-01 +2.86230692449E-03 -1.19422820942E-03 +2.85683300437E-03 -1.16793551822E-03 -1.68679279602E-01 -2.25617707192E-01
4.27500000000E+09 -2.16278358624E-01 -3.46022632017E-01 +2.56893835197E-03 -1.63232190764E-03 +2.59020021113E-03 -1.67451327084E-03 -1.79953995450E-01 -2.05317919006E-01
4.28000000000E+09 -2.30273549054E-01 -3.32481578809E-01 +2.14579461070E-03 -1.64872459281E-03 +2.13544847242E-03 -1.62969863814E-03 -1.89879789935E-01 -1.84825661178E-01
4.28500000000E+09 -2.42188602511E-01 -3.17772834165E-01 +2.27813369837E-03 -1.55458712291E-03 +2.29033573565E-03 -1.56442012349E-03 -1.98588539763E-01 -1.64436194136E-01
4.29000000000E+09 -2.52828476946E-01 -3.02238172434E-01 +2.35646926835E-03 -2.26731588196E-03 +2.39373980479E-03 -2.29847191755E-03 -2.06525045833E-01 -1.44771428422E-01
4.29500000000E+09 -2.63696052368E-01 -2.85003755832E-01 +1.77021896095E-03 -3.06407401449E-03 +1.71204074918E-03 -2.99339458524E-03 -2.13790015419E-01 -1.25488084892E-01
4.30000000000E+09 -2.75453414961E-01 -2.66185489135E-01 +8.90778656705E-04 -2.82456256798E-03 +9.55708230639E-04 -2.85001498592E-03 -2.20302000850E-01 -1.05471678534E-01
4.30500000000E+09 -2.87667535968E-01 -2.46353674561E-01 +8.01729793187E-04 -2.78204989957E-03 +7.27912917461E-04 -2.78579173826E-03 -2.25754983867E-01 -8.45458384281E-02
4.31000000000E+09 -3.00641930368E-01 -2.26129207821E-01 +4.80839178351E-04 -3.05418322761E-03 +3.85709146628E-04 -3.07956308367E-03 -2.29749108733E-01 -6.39064746482E-02
4.31500000000E+09 -3.13951502219E-01 -2.06311997363E-01 -1.43268038151E-04 -2.92402086253E-03 -2.24598652288E-04 -2.96826888249E-03 -2.33310821163E-01 -4.24391960192E-02
4.32000000000E+09 -3.26000439455E-01 -1.88040692869E-01 -5.64738226068E-04 -2.61508672176E-03 -6.10407646943E-04 -2.67786130475E-03 -2.35724900037E-01 -2.11603064829E-02
4.32500000000E+09 -3.37543303108E-01 -1.71376443150E-01 -3.95041369137E-04 -2.43945388178E-03 -4.78436592106E-04 -2.47802536695E-03 -2.37688132141E-01 -1.56728716914E-04
4.33000000000E+09 -3.47254491226E-01 -1.55013125362E-01 -8.59687682722E-04 -2.82040721328E-03 -8.76478076146E-04 -2.77150544598E-03 -2.38649425442E-01 +2.09767485433E-02
4.33500000000E+09 -3.54409620387E-01 -1.39691791778E-01 -1.10389957918E-03 -2.79177934190E-03 -1.12300224258E-03 -2.75114852834E-03 -2.38649164631E-01 +4.18401974241E-02
4.34000000000E+09 -3.60269419792E-01 -1.23587718076E-01 -1.97962209947E-03 -2.79606120051E-03 -1.99488759404E-03 -2.74430548128E-03 -2.38052763645E-01 +6.23928147190E-02
4.34500000000E+09 -3.63664534474E-01 -1.05592143394E-01 -2.35743269124E-03 -2.00589735226E-03 -2.36829100105E-03 -1.96612166807E-03 -2.36410453516E-01 +8.30391602887E-02
4.35000000000E+09 -3.65296711419E-01 -8.66153241137E-02 -2.23436268573E-03 -1.55612013703E-03 -2.23816267111E-03 -1.48122721156E-03 -2.34485492807E-01 +1.02243146777E-01
4.35500000000E+09 -3.67365180991E-01 -6.52861736547E-02 -2.34346390711E-03 -1.69729490117E-03 -2.36540900782E-03 -1.62947864286E-03 -2.31782484706E-01 +1.21840519756E-01
4.36000000000E+09 -3.68949878820E-01 -4.23970011026E-02 -2.70047066419E-03 -1.12496744045E-03 -2.65183848474E-03 -1.07838103464E-03 -2.28564152880E-01 +1.40088115016E-01
4.36500000000E+09 -3.71174486784E-01 -1.97629433400E-02 -2.95036375392E-03 -1.21804297133E-03 -2.91208791672E-03 -1.18882833149E-03 -2.24849843001E-01 +1.58525835253E-01
4.37000000000E+09 -3.75653299428E-01 +2.93916923419E-03 -3.41490371280E-03 -2.63773380231E-04 -3.40471920095E-03 -2.74489792040E-04 -2.19982898922E-01 +1.76426741183E-01
4.37500000000E+09 -3.80234119512E-01 +2.48612507227E-02 -3.11984729280E-03 +3.27864171182E-04 -3.07033781317E-03 +2.90551337712E-04 -2.14899297086E-01 +1.93883061063E-01
4.38000000000E+09 -3.85451523742E-01 +4.52301250152E-02 -2.87259876263E-03 +6.45348032389E-04 -2.80957653923E-03 +7.11504101550E-04 -2.09011775363E-01 +2.11337250972E-01
4.38500000000E+09 -3.89199542097E-01 +6.33936444291E-02 -2.65426857839E-03 +1.08544620088E-03 -2.61472138455E-03 +1.16583933670E-03 -2.02936824899E-01 +2.28869586777E-01
4.39000000000E+09 -3.91722184475E-01 +8.01241938374E-02 -2.56323923133E-03 +1.19841390726E-03 -2.50315675642E-03 +1.22799956651E-03 -1.96063858493E-01 +2.46127883722E-01
4.39500000000E+09 -3.91656886198E-01 +9.53192053502E-02 -2.26877841716E-03 +1.69717960290E-03 -2.22342034514E-03 +1.72461709146E-03 -1.89456229499E-01 +2.61975226280E-01
4.40000000000E+09 -3.89355611817E-01 +1.10130149515E-01 -2.05003647096E-03 +1.82218381914E-03 -1.98118074364E-03 +1.83176004091E-03 -1.82039892566E-01 +2.78890641803E-01
4.40500000000E+09 -3.85127554341E-01 +1.25537559526E-01 -1.81161021302E-03 +2.15956339189E-03 -1.72699933850E-03 +2.16496729777E-03 -1.73231194714E-01 +2.94372420842E-01
4.41000000000E+09 -3.79664139159E-01 +1.42610784232E-01 -1.30565065132E-03 +2.44183888353E-03 -1.24391557151E-03 +2.43280536345E-03 -1.64079557970E-01 +3.08985264787E-01
4.41500000000E+09 -3.73379534501E-01 +1.61615508828E-01 -9.87268681073E-04 +2.32392869875E-03 -8.99351012251E-04 +2.29006471243E-03 -1.54751961792E-01 +3.23070085148E-01
4.42000000000E+09 -3.67124691049E-01 +1.82484132747E-01 -9.40134449708E-04 +2.55445214685E-03 -8.37865360200E-04 +2.56708032433E-03 -1.45346918577E-01 +3.37606491967E-01
4.42500000000E+09 -3.61818220228E-01 +2.03914179979E-01 -2.91909616563E-04 +2.77348689872E-03 -2.05398691108E-04 +2.73689393856E-03 -1.34791544799E-01 +3.50901246245E-01
4.43000000000E+09 -3.57753653478E-01 +2.25453176767E-01 +1.77305012459E-04 +2.59165479840E-03 +2.05914725374E-04 +2.49710567129E-03 -1.25766895019E-01 +3.63705913161E-01
4.43500000000E+09 -3.54688058196E-01 +2.46166055254E-01 +5.56967993060E-04 +2.55657627506E-03 +5.94468200902E-04 +2.45400362344E-03 -1.15517062447E-01 +3.76858417481E-01
4.44000000000E+09 -3.51756537177E-01 +2.64578482837E-01 +9.35577709567E-04 +2.15933055244E-03 +9.35387892148E-04 +2.08253664933E-03 -1.05207235611E-01 +3.88490329912E-01
4.44500000000E+09 -3.49323848159E-01 +2.80503810411E-01 +8.85635075169E-04 +1.84316043735E-03 +8.88023537976E-04 +1.72762599652E-03 -9.47357787786E-02 +3.99902001597E-01
4.45000000000E+09 -3.46431795185E-01 +2.94788311434E-01 +9.84924938949E-04 +2.02407396687E-03 +9.73728365585E-04 +1.94033803299E-03 -8.37077305667E-02 +4.10331851139E-01
4.45500000000E+09 -3.41539081720E-01 +3.08395726667E-01 +1.52295533131E-03 +1.95779120729E-03 +1.54984016372E-03 +1.86701477848E-03 -7.29345215377E-02 +4.20185875317E-01
4.46000000000E+09 -3.33714968804E-01 +3.21179757582E-01 +1.82395012139E-03 +1.21118526736E-03 +1.81134399133E-03 +1.17670126664E-03 -6.20102343692E-02 +4.29985529939E-01
4.46500000000E+09 -3.23844906530E-01 +3.33962309761E-01 +1.58587411860E-03 +9.80892945383E-04 +1.60948983381E-03 +9.11189435481E-04 -5.07013020311E-02 +4.39147620158E-01
4.47000000000E+09 -3.13074852020E-01 +3.47383105057E-01 +1.38134843895E-03 +8.57774805227E-04 +1.34469731594E-03 +8.46395256687E-04 -4.01610168747E-02 +4.48507183590E-01
4.47500000000E+09 -3.01492230797E-01 +3.63706139472E-01 +1.60519319006E-03 +1.16234677883E-03 +1.61967928233E-03 +1.08382012064E-03 -2.82590947566E-02 +4.58116454047E-01
4.48000000000E+09 -2.89297243618E-01 +3.80809545436E-01 +1.98620925284E-03 +9.76061104712E-04 +1.95768699469E-03 +9.06086648432E-04 -1.64026287423E-02 +4.66093719669E-01
4.48500000000E+09 -2.77742557633E-01 +3.98327028892E-01 +2.32415752172E-03 +2.90102752032E-04 +2.19518659031E-03 +2.28622914537E-04 -4.88594446266E-03 +4.74127777019E-01
4.49000000000E+09 -2.68304483309E-01 +4.15309740777E-01 +2.27627501846E-03 -9.37388478308E-05 +2.17265500318E-03 -1.33558957303E-04 +7.11500949620E-03 +4.81659784651E-01
4.49500000000E+09 -2.60115756435E-01 +4.31439061987E-01 +1.76364121818E-03 -5.72789024757E-04 +1.64595780836E-03 -5.36967373337E-04 +1.83256963812E-02 +4.88166608189E-01
4.50000000000E+09 -2.53444265573E-01 +4.44707087169E-01 +1.60457718347E-03 -3.91965186605E-04 +1.57062756370E-03 -3.72985505225E-04 +2.99380348352E-02 +4.94686403357E-01
4.50500000000E+09 -2.48452480196E-01 +4.56426149562E-01 +1.71903358233E-03 -4.62745395623E-04 +1.64159687081E-03 -4.25347294153E-04 +4.14944264241E-02 +5.00602925726E-01
4.51000000000E+09 -2.42545601620E-01 +4.66780079437E-01 +1.79944521245E-03 -9.25172816704E-04 +1.73151419442E-03 -8.32691203163E-04 +5.28788053490E-02 +5.06346656798E-01
4.51500000000E+09 -2.34242613246E-01 +4.75238910997E-01 +1.57893581367E-03 -1.10353199413E-03 +1.53090551995E-03 -1.08181519211E-03 +6.43237461118E-02 +5.12081390704E-01
4.52000000000E+09 -2.24567571242E-01 +4.81890692488E-01 +1.20209109789E-03 -1.38763569649E-03 +1.18983119371E-03 -1.31079710810E-03 +7.63594944167E-02 +5.16724111470E-01
4.52500000000E+09 -2.13122142588E-01 +4.89140552259E-01 +1.05067406667E-03 -1.23835442891E-03 +1.11106703294E-03 -1.20611062735E-03 +8.76753747565E-02 +5.20785488452E-01
4.53000000000E+09 -1.99814388641E-01 +4.96972333401E-01 +1.13914040685E-03 -1.50840527566E-03 +1.06201057406E-03 -1.45652425659E-03 +9.92544494300E-02 +5.24491616092E-01
4.53500000000E+09 -1.85240017916E-01 +5.06460405890E-01 +6.39902827472E-04 -1.77383836461E-03 +6.12849975762E-04 -1.69625031757E-03 +1.10306455146E-01 +5.27778901653E-01
4.54000000000E+09 -1.70024525349E-01 +5.16711219979E-01 +4.51029724341E-04 -1.83868709667E-03 +4.46926433589E-04 -1.81549708382E-03 +1.21445395155E-01 +5.31195869285E-01
4.54500000000E+09 -1.55433678862E-01 +5.27500590417E-01 -1.54802965810E-04 -1.72043718249E-03 -9.97646470738E-05 -1.65750552761E-03 +1.32046408693E-01 +5.34839895870E-01
4.55000000000E+09 -1.42377230293E-01 +5.37538954728E-01 -4.32330767737E-04 -1.40247526878E-03 -3.66699583181E-04 -1.33617505720E-03 +1.43744000021E-01 +5.38481471083E-01
4.55500000000E+09 -1.31716173886E-01 +5.47215710934E-01 -1.30493954377E-04 -1.09009876467E-03 -9.09438885272E-05 -1.09824962404E-03 +1.54749623370E-01 +5.41062484964E-01
4.56000000000E+09 -1.22379989632E-01 +5.56337290698E-01 -1.53610625493E-04 -1.46981922685E-03 -1.63319534119E-04 -1.43660002600E-03 +1.65419572136E-01 +5.43780990246E-01
4.56500000000E+09 -1.13129357290E-01 +5.64141332610E-01 -4.37827221257E-04 -1.53624616307E-03 -4.08313437382E-04 -1.52537739600E-03 +1.75618065659E-01 +5.46154901756E-01
4.57000000000E+09 -1.03532432452E-01 +5.69620522068E-01 -8.55475745599E-04 -1.36862265790E-03 -8.16243897479E-04 -1.34862548867E-03 +1.86096769567E-01 +5.48675117271E-01
