# Hz S RI R 50
! CMT, C1220, 16058040, 17.2.0/1
! Date: 15/08/2018 11:43:16
! Data: Format (Calibration Info)
! Freq                      S11: Re/Im (F2)                       S21: Re/Im (F2)                       S12: Re/Im (F2)                       S22: Re/Im (F2)            
4.00000000000E+09 +6.36199711265E-01 -3.37498941060E-01 -2.58114589928E-03 -3.28284601766E-03 -2.46181250074E-03 -3.53714748426E-03 +7.70554641285E-01 -3.51748528251E-01
4.00500000000E+09 +6.27004624468E-01 -3.43773995781E-01 -2.85410854319E-03 -3.17300488700E-03 -2.80108870660E-03 -3.34185110487E-03 +7.61991447070E-01 -3.63170061034E-01
4.01000000000E+09 +6.16841131703E-01 -3.49028762804E-01 -3.28810924840E-03 -3.11512002048E-03 -3.21594798364E-03 -3.32183903810E-03 +7.52251867786E-01 -3.74130146268E-01
4.01500000000E+09 +6.06023214000E-01 -3.54066474716E-01 -3.72530927985E-03 -2.58611063180E-03 -3.62018187039E-03 -2.81690070899E-03 +7.42647151871E-01 -3.84214995849E-01
4.02000000000E+09 +5.94643073059E-01 -3.60624835754E-01 -3.80083820978E-03 -2.43267720684E-03 -3.76321697216E-03 -2.65040159555E-03 +7.33150446808E-01 -3.94468645591E-01
4.02500000000E+09 +5.82171430230E-01 -3.67795641052E-01 -4.51203921817E-03 -2.14649160627E-03 -4.52927038627E-03 -2.41046741212E-03 +7.22895939585E-01 -4.05052984749E-01
4.03000000000E+09 +5.69685582570E-01 -3.75868550781E-01 -4.84136158426E-03 -1.41398325675E-03 -4.88311186252E-03 -1.66856011621E-03 +7.12190597316E-01 -4.15506298394E-01
4.03500000000E+09 +5.56792382535E-01 -3.85210533942E-01 -4.83591390854E-03 -9.24414261132E-04 -4.89678762184E-03 -1.10178312775E-03 +7.00858817013E-01 -4.26432628338E-01
4.04000000000E+09 +5.43889630428E-01 -3.94202594104E-01 -5.05600603922E-03 -3.41365902418E-04 -5.17087062461E-03 -6.69401726403E-04 +6.89091604967E-01 -4.37051740270E-01
4.04500000000E+09 +5.31434231601E-01 -4.03469849193E-01 -4.86748825519E-03 +2.40477021563E-04 -5.05605438451E-03 +8.19438874803E-06 +6.77649334917E-01 -4.47092822052E-01
4.05000000000E+09 +5.18593337110E-01 -4.11763665770E-01 -4.84564955354E-03 +4.59295291314E-04 -5.12006615303E-03 +2.96990171854E-04 +6.66241649114E-01 -4.57564184523E-01
4.05500000000E+09 +5.04967805015E-01 -4.18180286573E-01 -5.06605658017E-03 +1.03633468143E-03 -5.32688274292E-03 +9.14098476099E-04 +6.53688412109E-01 -4.67482689248E-01
4.06000000000E+09 +4.91503803052E-01 -4.22835684382E-01 -4.98746749283E-03 +1.68816636732E-03 -5.22740721053E-03 +1.64220170450E-03 +6.40999798729E-01 -4.76824978798E-01
4.06500000000E+09 +4.77492729658E-01 -4.26344837795E-01 -4.51861130506E-03 +2.34547738568E-03 -4.74125061497E-03 +2.32637848211E-03 +6.27499925814E-01 -4.85921908161E-01
4.07000000000E+09 +4.62991726153E-01 -4.29125909841E-01 -4.25919965275E-03 +2.54957119949E-03 -4.45940465677E-03 +2.52422540764E-03 +6.13625749958E-01 -4.95375529763E-01
4.07500000000E+09 +4.47786038016E-01 -4.32120493871E-01 -3.97717863849E-03 +2.87566805770E-03 -4.16146556128E-03 +2.82193464909E-03 +5.99831616477E-01 -5.05100183991E-01
4.08000000000E+09 +4.31400689566E-01 -4.35689033237E-01 -3.89032010797E-03 +3.04422808955E-03 -4.08576279856E-03 +3.02869466087E-03 +5.84985554687E-01 -5.14847554071E-01
4.08500000000E+09 +4.13921711188E-01 -4.40024830086E-01 -3.89038189844E-03 +3.38702561494E-03 -4.12165121193E-03 +3.35812579604E-03 +5.70249310074E-01 -5.23352465447E-01
4.09000000000E+09 +3.95857447179E-01 -4.43714192368E-01 -3.65886403977E-03 +3.94661938646E-03 -3.86303948603E-03 +4.01187211171E-03 +5.55425120326E-01 -5.31140492713E-01
4.09500000000E+09 +3.78537462877E-01 -4.47427042406E-01 -3.43746953168E-03 +4.45208335384E-03 -3.62624956433E-03 +4.59755077040E-03 +5.40580046908E-01 -5.38345950312E-01
4.10000000000E+09 +3.61814355098E-01 -4.51472639650E-01 -2.83261244453E-03 +4.93439210558E-03 -2.95306478733E-03 +4.99787947461E-03 +5.25102864057E-01 -5.45986208623E-01
4.10500000000E+09 +3.45125876998E-01 -4.54839884098E-01 -2.38328761319E-03 +5.24109191568E-03 -2.48618320297E-03 +5.30077641826E-03 +5.07900500029E-01 -5.53851190866E-01
4.11000000000E+09 +3.28289893783E-01 -4.56716221856E-01 -1.89977858164E-03 +5.51516735703E-03 -2.08941696830E-03 +5.54318909335E-03 +4.90359040684E-01 -5.60575276267E-01
4.11500000000E+09 +3.12091421908E-01 -4.57146625974E-01 -1.14157849764E-03 +5.71467329755E-03 -1.33923933569E-03 +5.82363682151E-03 +4.73380619591E-01 -5.67283259628E-01
4.12000000000E+09 +2.95272990453E-01 -4.56664396111E-01 -9.17604211650E-04 +5.64587220048E-03 -1.09430992115E-03 +5.81379279904E-03 +4.56044543856E-01 -5.74391382232E-01
4.12500000000E+09 +2.78173289026E-01 -4.54837949100E-01 -6.88099046505E-04 +5.96405232841E-03 -8.73097433221E-04 +6.12120253752E-03 +4.38116198175E-01 -5.80389111530E-01
4.13000000000E+09 +2.61010994547E-01 -4.52798175587E-01 +1.64984877737E-04 +6.48375120772E-03 -5.01282766305E-05 +6.62950095589E-03 +4.19818798967E-01 -5.85794686762E-01
4.13500000000E+09 +2.43305226161E-01 -4.51632249287E-01 +6.85245179767E-04 +6.36228279978E-03 +5.19880116470E-04 +6.54225080110E-03 +4.01091583889E-01 -5.90321635682E-01
4.14000000000E+09 +2.25007550578E-01 -4.51260513930E-01 +1.27344905249E-03 +6.88612139935E-03 +1.11464485562E-03 +7.09830257824E-03 +3.81560538843E-01 -5.94619410646E-01
4.14500000000E+09 +2.06499343676E-01 -4.51647025234E-01 +2.64185375714E-03 +7.04790976989E-03 +2.50845082764E-03 +7.36288690495E-03 +3.62298759936E-01 -5.98415854872E-01
4.15000000000E+09 +1.87802779011E-01 -4.53711105896E-01 +3.60999579281E-03 +6.23897985523E-03 +3.63192819617E-03 +6.56241420578E-03 +3.43581160221E-01 -6.03183295508E-01
4.15500000000E+09 +1.68201381272E-01 -4.54836810779E-01 +4.14990082903E-03 +5.62175504833E-03 +4.20505882743E-03 +5.91400358755E-03 +3.23496357982E-01 -6.07556892976E-01
4.16000000000E+09 +1.49394392118E-01 -4.54059807285E-01 +4.54732238037E-03 +5.16762822829E-03 +4.63202790441E-03 +5.35749815618E-03 +3.02786399096E-01 -6.09719725667E-01
4.16500000000E+09 +1.31897591345E-01 -4.51615899126E-01 +4.68637644156E-03 +4.72821018688E-03 +4.76779839746E-03 +4.92796333827E-03 +2.83217677464E-01 -6.10909128409E-01
4.17000000000E+09 +1.16399284969E-01 -4.46906966530E-01 +5.07416970960E-03 +4.93520141771E-03 +5.20901084604E-03 +5.08937555329E-03 +2.62189582296E-01 -6.11450928311E-01
4.17500000000E+09 +1.01678936159E-01 -4.41558024172E-01 +6.13976578767E-03 +4.81512955801E-03 +6.23456499353E-03 +5.05410338022E-03 +2.40977672535E-01 -6.11335525721E-01
4.18000000000E+09 +8.64693797905E-02 -4.34908201536E-01 +7.20548746476E-03 +3.63210902063E-03 +7.36414693995E-03 +3.89481814553E-03 +2.19352281880E-01 -6.11405924737E-01
4.18500000000E+09 +7.02475001379E-02 -4.27316555091E-01 +7.48602513294E-03 +2.77320521502E-03 +7.66574893038E-03 +2.95185428834E-03 +1.96664169610E-01 -6.10530646505E-01
4.19000000000E+09 +5.37754574337E-02 -4.18902594141E-01 +7.75801204885E-03 +2.00490164917E-03 +7.99537803847E-03 +2.23905015112E-03 +1.75581973693E-01 -6.08531121041E-01
4.19500000000E+09 +3.61763563130E-02 -4.10111618407E-01 +8.09317438769E-03 +1.15790332751E-03 +8.29184829495E-03 +1.30444142819E-03 +1.54210637392E-01 -6.06223472368E-01
4.20000000000E+09 +1.86090222255E-02 -4.01224346633E-01 +8.17188702956E-03 +1.15431077427E-04 +8.41512275613E-03 +2.90709558290E-04 +1.32214900719E-01 -6.04062576480E-01
4.20500000000E+09 +2.03476733892E-03 -3.93512201865E-01 +8.10342473184E-03 -8.25787513258E-04 +8.30012231947E-03 -7.21253810740E-04 +1.09042271972E-01 -6.00319835141E-01
4.21000000000E+09 -1.43104014232E-02 -3.86552801830E-01 +7.93070958362E-03 -1.83811485283E-03 +8.16932584165E-03 -1.75348522803E-03 +8.56373602637E-02 -5.94838635253E-01
4.21500000000E+09 -3.02824719955E-02 -3.79977000491E-01 +7.35339697234E-03 -2.09632106232E-03 +7.58752769338E-03 -2.04982989508E-03 +6.39591507433E-02 -5.89502502512E-01
4.22000000000E+09 -4.56010466807E-02 -3.71638644788E-01 +7.63537341554E-03 -2.36934336030E-03 +7.85103094807E-03 -2.34606464389E-03 +4.18183140240E-02 -5.83654020512E-01
4.22500000000E+09 -5.91077785030E-02 -3.61947302234E-01 +8.15573921088E-03 -3.58376819246E-03 +8.41606666824E-03 -3.56253147180E-03 +1.92211807192E-02 -5.77453180915E-01
4.23000000000E+09 -7.15414317335E-02 -3.50722022408E-01 +7.87493429148E-03 -5.17313746658E-03 +8.16518795318E-03 -5.19398605517E-03 -3.22231006363E-03 -5.69348358514E-01
4.23500000000E+09 -8.34270160294E-02 -3.38003498443E-01 +6.80437856266E-03 -6.35011886018E-03 +7.00418234146E-03 -6.43607965722E-03 -2.47058756148E-02 -5.59561932464E-01
4.24000000000E+09 -9.59558938425E-02 -3.24109641658E-01 +5.74222712815E-03 -6.79756186042E-03 +5.93742309385E-03 -6.95404697195E-03 -4.52671888759E-02 -5.49528562897E-01
4.24500000000E+09 -1.08865152950E-01 -3.09622654296E-01 +4.87620874400E-03 -6.76208075818E-03 +5.01879831171E-03 -6.87384698212E-03 -6.57037355154E-02 -5.39882985178E-01
4.25000000000E+09 -1.23063597998E-01 -2.94765737753E-01 +4.86132409906E-03 -7.39267873222E-03 +4.99890707229E-03 -7.54569834645E-03 -8.79891156380E-02 -5.29359935648E-01
4.25500000000E+09 -1.38416221364E-01 -2.80904051153E-01 +3.92797483772E-03 -8.32180287748E-03 +4.02082811714E-03 -8.63013877144E-03 -1.10059938945E-01 -5.16931256491E-01
4.26000000000E+09 -1.55060547975E-01 -2.67434827362E-01 +2.90408563359E-03 -8.62997789785E-03 +3.01887410000E-03 -8.89069784807E-03 -1.30787128551E-01 -5.02621173634E-01
4.26500000000E+09 -1.71939586670E-01 -2.54754958552E-01 +2.01364523581E-03 -8.63577554135E-03 +2.08634159859E-03 -8.84295233460E-03 -1.50310351833E-01 -4.88014370161E-01
4.27000000000E+09 -1.87859217232E-01 -2.41981238214E-01 +1.38492744546E-03 -9.03331772953E-03 +1.37560314116E-03 -9.23651896243E-03 -1.69571104821E-01 -4.73020565646E-01
4.27500000000E+09 -2.02463791397E-01 -2.29210145547E-01 +3.94935548064E-04 -9.28059748282E-03 +3.46842272783E-04 -9.48411715750E-03 -1.89907191525E-01 -4.57054801112E-01
4.28000000000E+09 -2.14285875971E-01 -2.15499800187E-01 -3.63709706864E-04 -9.45295225049E-03 -4.22210685973E-04 -9.58641182357E-03 -2.09185187068E-01 -4.40295805928E-01
4.28500000000E+09 -2.22998879896E-01 -2.01805491724E-01 -1.37280171561E-03 -1.00781150145E-02 -1.41889310653E-03 -1.01977637450E-02 -2.28619788357E-01 -4.23279316537E-01
4.29000000000E+09 -2.30282702178E-01 -1.87869857700E-01 -3.43509966010E-03 -1.02280173055E-02 -3.54359627883E-03 -1.04725610257E-02 -2.46182279208E-01 -4.04293533044E-01
4.29500000000E+09 -2.37558215278E-01 -1.73196732704E-01 -5.07470630200E-03 -8.59597341922E-03 -5.21782383982E-03 -8.76576455242E-03 -2.60782159629E-01 -3.87096123587E-01
4.30000000000E+09 -2.45681270220E-01 -1.56320311627E-01 -5.56373762049E-03 -7.50239369633E-03 -5.66306234279E-03 -7.68951527922E-03 -2.77390272328E-01 -3.69580199381E-01
4.30500000000E+09 -2.53765817986E-01 -1.37854780461E-01 -5.63675788724E-03 -6.64707705816E-03 -5.76245219237E-03 -6.74063426833E-03 -2.93568425815E-01 -3.48934906587E-01
4.31000000000E+09 -2.62137136854E-01 -1.17574328351E-01 -5.44225089283E-03 -6.51761443579E-03 -5.58524915506E-03 -6.58373048806E-03 -3.08538416844E-01 -3.27894119556E-01
4.31500000000E+09 -2.69265657041E-01 -9.78807793018E-02 -6.11291187369E-03 -6.70840861658E-03 -6.29530229146E-03 -6.86933247119E-03 -3.21860456028E-01 -3.06085930906E-01
4.32000000000E+09 -2.76242115420E-01 -7.91801307646E-02 -7.24944715420E-03 -6.53263235086E-03 -7.45927331164E-03 -6.60669035651E-03 -3.34740531045E-01 -2.85083547643E-01
4.32500000000E+09 -2.82257126404E-01 -6.35301297058E-02 -8.92234630612E-03 -5.65225078666E-03 -9.15607846224E-03 -5.67956650077E-03 -3.47189176004E-01 -2.63550278226E-01
4.33000000000E+09 -2.89515595751E-01 -4.88020622068E-02 -9.16210532651E-03 -4.53270962346E-03 -9.30860893976E-03 -4.49251707627E-03 -3.59486606845E-01 -2.40067559513E-01
4.33500000000E+09 -2.95206327295E-01 -3.30514314223E-02 -1.00797318082E-02 -3.30285922845E-03 -1.02413048568E-02 -3.25112735095E-03 -3.69190842726E-01 -2.15082879979E-01
4.34000000000E+09 -2.98422384530E-01 -1.68128652916E-02 -1.03869718968E-02 -1.75819047447E-03 -1.04707909612E-02 -1.62971752739E-03 -3.76944026019E-01 -1.91099107072E-01
4.34500000000E+09 -2.98876269133E-01 -2.49393686031E-04 -9.91262235208E-03 -3.18141428166E-04 -9.90731858484E-03 -2.80267792805E-04 -3.86185741213E-01 -1.69248931233E-01
4.35000000000E+09 -2.97993563968E-01 +1.68094131499E-02 -9.40374959205E-03 +2.59351327736E-04 -9.51175487296E-03 +2.76080802987E-04 -3.96835263130E-01 -1.44577307834E-01
4.35500000000E+09 -2.96103674387E-01 +3.47532972418E-02 -9.51339654765E-03 +7.82480020818E-04 -9.58974388866E-03 +8.21275385241E-04 -4.04603271863E-01 -1.18030711524E-01
4.36000000000E+09 -2.95268687776E-01 +5.34533957588E-02 -9.11082812539E-03 +1.25019450219E-03 -9.21534804815E-03 +1.30900683192E-03 -4.09409535681E-01 -9.29508218420E-02
4.36500000000E+09 -2.94531568078E-01 +7.35413723331E-02 -1.02531785461E-02 +1.47775389979E-03 -1.03743695422E-02 +1.58618492325E-03 -4.12990129330E-01 -6.94669131560E-02
4.37000000000E+09 -2.94999495059E-01 +9.36950080876E-02 -1.11055606405E-02 +3.52364367952E-03 -1.11775364668E-02 +3.69727169540E-03 -4.16401341483E-01 -4.58648377785E-02
4.37500000000E+09 -2.95631886678E-01 +1.13541555934E-01 -1.02409936832E-02 +6.04966872447E-03 -1.03340454035E-02 +6.26191107177E-03 -4.19148580320E-01 -2.15648810368E-02
4.38000000000E+09 -2.97227121417E-01 +1.31993139230E-01 -8.90067441631E-03 +6.92907696922E-03 -8.88711604376E-03 +7.17120007472E-03 -4.21022518100E-01 +5.07999411550E-03
4.38500000000E+09 -2.97848009828E-01 +1.49159728916E-01 -7.54460957467E-03 +7.65305744032E-03 -7.58050934503E-03 +7.91034227934E-03 -4.19975151065E-01 +3.08163678337E-02
4.39000000000E+09 -2.97601668108E-01 +1.64676929068E-01 -6.38912936209E-03 +8.05001890712E-03 -6.29072764188E-03 +8.24514425184E-03 -4.19375857411E-01 +5.44529859788E-02
4.39500000000E+09 -2.95804802593E-01 +1.78716088622E-01 -6.30881450782E-03 +8.02408116608E-03 -6.25267219793E-03 +8.23397347623E-03 -4.19202666152E-01 +7.78031466152E-02
4.40000000000E+09 -2.91849000412E-01 +1.92381649926E-01 -5.48758692160E-03 +9.37680585154E-03 -5.41138903624E-03 +9.54186244944E-03 -4.18254397786E-01 +1.01979320561E-01
4.40500000000E+09 -2.86734022182E-01 +2.05259679983E-01 -4.55231756801E-03 +1.01447116000E-02 -4.42081507364E-03 +1.02683611732E-02 -4.14966007004E-01 +1.26170635304E-01
4.41000000000E+09 -2.81011322997E-01 +2.19356582172E-01 -2.93422267417E-03 +1.01469313212E-02 -2.77819440121E-03 +1.02745718455E-02 -4.09774657855E-01 +1.50356747865E-01
4.41500000000E+09 -2.73920087670E-01 +2.35658846929E-01 -2.34769680145E-03 +1.08792874428E-02 -2.16357037378E-03 +1.10155994548E-02 -4.04437589489E-01 +1.72785033777E-01
4.42000000000E+09 -2.67210375261E-01 +2.52789532845E-01 -1.18890670702E-03 +1.09027381190E-02 -9.54179909158E-04 +1.09406432178E-02 -3.98208478226E-01 +1.96110496323E-01
4.42500000000E+09 -2.60025707675E-01 +2.71207494796E-01 -1.70494935492E-04 +1.18164518455E-02 +9.70918739971E-05 +1.17227854466E-02 -3.93119300594E-01 +2.18009125325E-01
4.43000000000E+09 -2.53705215921E-01 +2.88715051283E-01 +2.31990403731E-03 +1.19988782514E-02 +2.53554418411E-03 +1.18475798313E-02 -3.86135767055E-01 +2.41553001387E-01
4.43500000000E+09 -2.47808426195E-01 +3.05241441726E-01 +3.91479174638E-03 +1.06643257837E-02 +4.01784728868E-03 +1.05556764609E-02 -3.77131612261E-01 +2.63550409227E-01
4.44000000000E+09 -2.43320296134E-01 +3.18887989026E-01 +4.89470448071E-03 +9.25346533421E-03 +4.98895305939E-03 +9.12927491040E-03 -3.68320497916E-01 +2.83050031322E-01
4.44500000000E+09 -2.39939370768E-01 +3.31381739572E-01 +4.82289067684E-03 +8.82211651593E-03 +4.95921733433E-03 +8.79170018366E-03 -3.60565019165E-01 +3.02944958331E-01
4.45000000000E+09 -2.36122764854E-01 +3.42872078494E-01 +5.40972442807E-03 +8.45699801458E-03 +5.55321351314E-03 +8.38241461011E-03 -3.51062726197E-01 +3.23436289004E-01
4.45500000000E+09 -2.30012179223E-01 +3.53143708220E-01 +6.38580545189E-03 +8.81733682760E-03 +6.55920218185E-03 +8.61180700979E-03 -3.40414667920E-01 +3.43315916110E-01
4.46000000000E+09 -2.22440991110E-01 +3.62607322122E-01 +7.96906108789E-03 +7.75560687465E-03 +8.18816791790E-03 +7.54842310161E-03 -3.26907645788E-01 +3.62220769385E-01
4.46500000000E+09 -2.11962831870E-01 +3.72690842395E-01 +8.69712785134E-03 +6.49243603404E-03 +8.85261197940E-03 +6.23924510637E-03 -3.14778652248E-01 +3.78018924085E-01
4.47000000000E+09 -2.00007134425E-01 +3.82657732532E-01 +9.20609724412E-03 +5.34047091464E-03 +9.27815375176E-03 +5.09944124602E-03 -3.03600165460E-01 +3.94601793818E-01
4.47500000000E+09 -1.87129925949E-01 +3.93376657645E-01 +9.23072308198E-03 +4.41588252620E-03 +9.22010938066E-03 +4.10794596494E-03 -2.92296452072E-01 +4.12463669429E-01
4.48000000000E+09 -1.75005546342E-01 +4.04773230494E-01 +9.85064202239E-03 +3.57844491443E-03 +9.81916326899E-03 +3.30737707936E-03 -2.79054855262E-01 +4.29464271764E-01
4.48500000000E+09 -1.64260847079E-01 +4.17577434077E-01 +1.05278262673E-02 +2.78331173093E-03 +1.04323611444E-02 +2.50848528417E-03 -2.64909300719E-01 +4.44429459264E-01
4.49000000000E+09 -1.54698212656E-01 +4.30658969807E-01 +1.07962648211E-02 +4.76664622933E-04 +1.05653878166E-02 +2.91194898967E-04 -2.52245607376E-01 +4.58356953684E-01
4.49500000000E+09 -1.46566244186E-01 +4.43535167779E-01 +9.57534016668E-03 -4.29024349093E-04 +9.44182005814E-03 -5.41822408048E-04 -2.39740936732E-01 +4.73102666801E-01
4.50000000000E+09 -1.39457552630E-01 +4.54774896077E-01 +9.31510478209E-03 -6.08531002043E-04 +9.18359663727E-03 -6.41589607964E-04 -2.25068035092E-01 +4.87320892297E-01
4.50500000000E+09 -1.32748604802E-01 +4.64429134937E-01 +9.46526510589E-03 -1.03817170998E-03 +9.34520925161E-03 -1.14316942443E-03 -2.10967905649E-01 +5.00752503809E-01
4.51000000000E+09 -1.25308199039E-01 +4.70955537374E-01 +1.01743333069E-02 -2.03461813681E-03 +1.00085455963E-02 -2.09696948662E-03 -1.95092077696E-01 +5.12722915459E-01
4.51500000000E+09 -1.17853722397E-01 +4.75708990582E-01 +1.00711388146E-02 -3.48678022682E-03 +9.88685599238E-03 -3.55641724138E-03 -1.81417424148E-01 +5.23196788449E-01
4.52000000000E+09 -1.08960880921E-01 +4.79903590441E-01 +9.73993027033E-03 -5.39254747445E-03 +9.55688080829E-03 -5.47713902158E-03 -1.68149809161E-01 +5.34399041388E-01
4.52500000000E+09 -9.83213505301E-02 +4.84044128531E-01 +8.00044682594E-03 -6.34157438427E-03 +7.76082524394E-03 -6.35757980023E-03 -1.54212169602E-01 +5.45620766895E-01
4.53000000000E+09 -8.55654475443E-02 +4.88937193441E-01 +7.29349131479E-03 -6.51515679441E-03 +6.99282667488E-03 -6.54728392575E-03 -1.38885666887E-01 +5.55261003846E-01
4.53500000000E+09 -7.12462703889E-02 +4.95193031118E-01 +6.66182080886E-03 -7.21618775883E-03 +6.42155623633E-03 -7.25764593256E-03 -1.24126292141E-01 +5.64389980545E-01
4.54000000000E+09 -5.57166626593E-02 +5.01988439584E-01 +5.92594063148E-03 -7.79238725953E-03 +5.60080551753E-03 -7.79027990891E-03 -1.08141938458E-01 +5.73232549565E-01
4.54500000000E+09 -4.11188914202E-02 +5.09165909957E-01 +4.72237663003E-03 -8.15429539175E-03 +4.44371501618E-03 -8.07028516388E-03 -9.37144805306E-02 +5.82112404107E-01
4.55000000000E+09 -2.82309855694E-02 +5.16333097329E-01 +4.24738204398E-03 -8.51628861371E-03 +3.95886548391E-03 -8.40058893855E-03 -7.77491483253E-02 +5.91156363208E-01
4.55500000000E+09 -1.79043678888E-02 +5.23678429135E-01 +3.07703868303E-03 -8.59421622432E-03 +2.90802835643E-03 -8.44123321284E-03 -6.20308040536E-02 +5.99308661462E-01
4.56000000000E+09 -9.37846111917E-03 +5.31685587214E-01 +2.67194463354E-03 -8.80891220497E-03 +2.47415292739E-03 -8.66557774649E-03 -4.68037185976E-02 +6.05225127927E-01
4.56500000000E+09 -6.93579986724E-04 +5.38410636505E-01 +1.92167332914E-03 -9.36200854315E-03 +1.75333689989E-03 -9.20389334097E-03 -3.26531057400E-02 +6.11759312999E-01
4.57000000000E+09 +7.76265014275E-03 +5.43376407813E-01 +6.05647142791E-04 -9.85844327555E-03 +4.10267925419E-04 -9.63128691586E-03 -1.75955132002E-02 +6.17665380252E-01
