# Hz S RI R 50
! CMT, C1220, 16058040, 17.2.0/1
! Date: 15/08/2018 11:42:19
! Data: Format (Calibration Info)
! Freq                      S11: Re/Im (F2)                       S21: Re/Im (F2)                       S12: Re/Im (F2)                       S22: Re/Im (F2)            
4.00000000000E+09 +6.37026601140E-01 -3.38063914874E-01 -1.55774686443E-03 -2.86960994943E-03 -1.51934802035E-03 -2.97502087028E-03 +7.71496616955E-01 -3.52502581045E-01
4.00500000000E+09 +6.27919749068E-01 -3.44188966550E-01 -1.74217772332E-03 -2.82322643502E-03 -1.70383631480E-03 -2.92306176042E-03 +7.62773575890E-01 -3.64081953533E-01
4.01000000000E+09 +6.18057658579E-01 -3.49551610927E-01 -2.08974220124E-03 -2.82865149716E-03 -2.04670476998E-03 -2.93144591825E-03 +7.52981271393E-01 -3.75236166463E-01
4.01500000000E+09 +6.07356980847E-01 -3.54979031868E-01 -2.43223178362E-03 -2.51199576150E-03 -2.39489452804E-03 -2.63015593960E-03 +7.43196254647E-01 -3.85318081900E-01
4.02000000000E+09 +5.95813061234E-01 -3.61695190407E-01 -2.55030095637E-03 -2.65903224931E-03 -2.43061028214E-03 -2.78091672672E-03 +7.33651837017E-01 -3.95888916069E-01
4.02500000000E+09 +5.83147003819E-01 -3.68846633635E-01 -3.34512822117E-03 -2.55402502518E-03 -3.24920049993E-03 -2.75746987985E-03 +7.23149799457E-01 -4.06577315417E-01
4.03000000000E+09 +5.70725283469E-01 -3.77033898542E-01 -3.80736502448E-03 -1.89685794643E-03 -3.73298361752E-03 -2.10050506095E-03 +7.12193003100E-01 -4.17041533098E-01
4.03500000000E+09 +5.57886480079E-01 -3.86364625755E-01 -3.82885314417E-03 -1.40490879506E-03 -3.83626011593E-03 -1.61862659887E-03 +7.00801252345E-01 -4.27782468117E-01
4.04000000000E+09 +5.45222335816E-01 -3.95529616045E-01 -4.03166164742E-03 -9.47391960398E-04 -4.09332309952E-03 -1.17363333056E-03 +6.89015799924E-01 -4.38356473438E-01
4.04500000000E+09 +5.32712465114E-01 -4.05396188497E-01 -3.85508327221E-03 -4.26028994581E-04 -3.92821620866E-03 -6.99266643541E-04 +6.77421617864E-01 -4.48456669229E-01
4.05000000000E+09 +5.19644819086E-01 -4.13876712222E-01 -4.00440070675E-03 -3.91135241495E-04 -4.13765082143E-03 -6.47312855896E-04 +6.65854894272E-01 -4.58768782003E-01
4.05500000000E+09 +5.05708535468E-01 -4.20458463130E-01 -4.41323007554E-03 +2.37122444281E-05 -4.62886200885E-03 -1.59322963084E-04 +6.53231926794E-01 -4.68767852987E-01
4.06000000000E+09 +4.92075259875E-01 -4.24844522299E-01 -4.46302005909E-03 +7.05989945193E-04 -4.74063157030E-03 +6.45166516520E-04 +6.40501314993E-01 -4.77996289116E-01
4.06500000000E+09 +4.78249311680E-01 -4.28149202824E-01 -4.05550536951E-03 +1.49000659095E-03 -4.25617415070E-03 +1.42750883047E-03 +6.26828016622E-01 -4.87107323287E-01
4.07000000000E+09 +4.64090323140E-01 -4.31171017476E-01 -3.80252582953E-03 +1.58944967178E-03 -3.89835513034E-03 +1.56412681504E-03 +6.12956156482E-01 -4.96647551377E-01
4.07500000000E+09 +4.48530507215E-01 -4.34704222932E-01 -3.63442897819E-03 +1.81345323068E-03 -3.81994085293E-03 +1.72472073666E-03 +5.98883667831E-01 -5.06211559394E-01
4.08000000000E+09 +4.31748084690E-01 -4.38343461901E-01 -3.62267985812E-03 +2.04984946423E-03 -3.78822027031E-03 +1.96017682013E-03 +5.84041185794E-01 -5.16033383058E-01
4.08500000000E+09 +4.13952293224E-01 -4.42502367244E-01 -3.55269301408E-03 +2.41837882845E-03 -3.78068216188E-03 +2.45153052230E-03 +5.69212058975E-01 -5.24180380544E-01
4.09000000000E+09 +3.95918994661E-01 -4.46171779164E-01 -3.13095492138E-03 +2.83019089842E-03 -3.38665826377E-03 +2.91977199866E-03 +5.54641277465E-01 -5.32175095857E-01
4.09500000000E+09 +3.78462055397E-01 -4.49975789980E-01 -3.04178580593E-03 +3.06208292552E-03 -3.22278593818E-03 +3.17088678591E-03 +5.39376280150E-01 -5.39415782860E-01
4.10000000000E+09 +3.61368108031E-01 -4.54170181989E-01 -2.78132864132E-03 +3.24360823373E-03 -2.86084218239E-03 +3.32211252869E-03 +5.23727544882E-01 -5.46784665628E-01
4.10500000000E+09 +3.44432203560E-01 -4.57349228685E-01 -2.79225177071E-03 +3.50196387852E-03 -2.93777885777E-03 +3.65466649958E-03 +5.06627914757E-01 -5.54485925405E-01
4.11000000000E+09 +3.27382103644E-01 -4.59042477272E-01 -2.51951970047E-03 +4.20516653481E-03 -2.65670098883E-03 +4.35105288231E-03 +4.88824946470E-01 -5.61070773385E-01
4.11500000000E+09 +3.11448644415E-01 -4.59175872394E-01 -1.58174135527E-03 +4.55060267603E-03 -1.71605383470E-03 +4.74418964550E-03 +4.71747326062E-01 -5.67408092260E-01
4.12000000000E+09 +2.94796099552E-01 -4.58707995216E-01 -1.26062790306E-03 +4.28602016907E-03 -1.36569594173E-03 +4.45053888210E-03 +4.54548612852E-01 -5.74319696175E-01
4.12500000000E+09 +2.77639154778E-01 -4.57463580371E-01 -1.31828231326E-03 +4.25998293872E-03 -1.29953770667E-03 +4.40098309421E-03 +4.36909123654E-01 -5.80087477235E-01
4.13000000000E+09 +2.60019638216E-01 -4.55550830184E-01 -1.06660366067E-03 +4.72239842834E-03 -1.12837857071E-03 +4.72473237506E-03 +4.18574261464E-01 -5.85449602207E-01
4.13500000000E+09 +2.41656614739E-01 -4.54030668204E-01 -9.09557631964E-04 +4.94244626852E-03 -1.04062404981E-03 +4.99172688120E-03 +4.00083180424E-01 -5.90022099091E-01
4.14000000000E+09 +2.23273442919E-01 -4.53504566050E-01 -4.74312917991E-04 +5.79724969010E-03 -5.74323171656E-04 +5.86750380886E-03 +3.80375567723E-01 -5.94337863430E-01
4.14500000000E+09 +2.04476224478E-01 -4.53590435707E-01 +8.14946263758E-04 +6.26275281873E-03 +6.66677008746E-04 +6.38069159641E-03 +3.61103051848E-01 -5.98020532474E-01
4.15000000000E+09 +1.85832590486E-01 -4.55355906587E-01 +1.74296269184E-03 +5.71755141906E-03 +1.67176658712E-03 +5.85494757029E-03 +3.42543654531E-01 -6.02541074618E-01
4.15500000000E+09 +1.66124245879E-01 -4.56529506588E-01 +2.32120072068E-03 +5.27947909491E-03 +2.23912313202E-03 +5.33664786159E-03 +3.22342958332E-01 -6.06896128944E-01
4.16000000000E+09 +1.47099001461E-01 -4.55908107666E-01 +2.55591270991E-03 +4.93059302879E-03 +2.50954505303E-03 +5.05910887421E-03 +3.01604021036E-01 -6.08658262248E-01
4.16500000000E+09 +1.29356375688E-01 -4.53037838705E-01 +2.77280416347E-03 +4.91923440711E-03 +2.66564275451E-03 +5.00699425080E-03 +2.82595733430E-01 -6.09493683534E-01
4.17000000000E+09 +1.13719898107E-01 -4.48209016267E-01 +3.37136785816E-03 +5.17658412921E-03 +3.24615608603E-03 +5.28539073858E-03 +2.61956781625E-01 -6.10469394340E-01
4.17500000000E+09 +9.87988946299E-02 -4.42412030290E-01 +4.25156508777E-03 +5.09471872956E-03 +4.16765460060E-03 +5.31103459332E-03 +2.40629250443E-01 -6.10470597365E-01
4.18000000000E+09 +8.39347112841E-02 -4.35736557712E-01 +5.15649975766E-03 +4.25423744067E-03 +5.14065818688E-03 +4.55240706669E-03 +2.18877491112E-01 -6.10194918859E-01
4.18500000000E+09 +6.74827280653E-02 -4.28108356914E-01 +5.40381739891E-03 +3.73064697195E-03 +5.56514324806E-03 +3.93575913672E-03 +1.96514156505E-01 -6.09241402906E-01
4.19000000000E+09 +5.07156181019E-02 -4.19342416766E-01 +6.01364680086E-03 +3.43542803412E-03 +6.08519566521E-03 +3.67460191148E-03 +1.75676273184E-01 -6.07104226531E-01
4.19500000000E+09 +3.30145291018E-02 -4.10087371684E-01 +6.70716293128E-03 +2.77865912537E-03 +6.78651614935E-03 +3.03062903380E-03 +1.54644007213E-01 -6.04884878333E-01
4.20000000000E+09 +1.55625384604E-02 -4.01136312209E-01 +7.03689759065E-03 +1.59996582116E-03 +7.20564138623E-03 +1.92819963350E-03 +1.32755284955E-01 -6.02819534080E-01
4.20500000000E+09 -1.26062411731E-03 -3.93125710961E-01 +6.97666739993E-03 +6.58618666480E-04 +7.21034431443E-03 +8.91288232306E-04 +1.10134700336E-01 -5.99104057335E-01
4.21000000000E+09 -1.74641128391E-02 -3.85809835617E-01 +6.77708839927E-03 -2.85371742787E-04 +7.05516264973E-03 -1.26950827158E-04 +8.70818897986E-02 -5.93924068212E-01
4.21500000000E+09 -3.36677260944E-02 -3.79000555623E-01 +6.38307448060E-03 -2.57921034213E-04 +6.69973407018E-03 -1.13788495840E-04 +6.54254904144E-02 -5.89206028113E-01
4.22000000000E+09 -4.90569674789E-02 -3.70172518746E-01 +6.86694406035E-03 -3.11687033941E-04 +7.15559784191E-03 -2.26892209758E-04 +4.29604864733E-02 -5.83563280326E-01
4.22500000000E+09 -6.23822871763E-02 -3.59998079816E-01 +7.73193196144E-03 -1.56672667418E-03 +8.08026155533E-03 -1.57246013445E-03 +2.02827511017E-02 -5.77368327887E-01
4.23000000000E+09 -7.44384187722E-02 -3.48481585189E-01 +7.36402828233E-03 -3.23060116804E-03 +7.65641819053E-03 -3.27547318024E-03 -2.00268405933E-03 -5.69267327957E-01
4.23500000000E+09 -8.61813068883E-02 -3.35639258388E-01 +6.34503800506E-03 -4.01662958924E-03 +6.65252208250E-03 -4.10299100190E-03 -2.32562807499E-02 -5.59636726227E-01
4.24000000000E+09 -9.84804800877E-02 -3.21609258300E-01 +5.70959902531E-03 -4.30066046008E-03 +5.91280787313E-03 -4.47263728497E-03 -4.38513689446E-02 -5.49969641704E-01
4.24500000000E+09 -1.11339408225E-01 -3.06828620038E-01 +5.43882594809E-03 -4.14138940917E-03 +5.52111555646E-03 -4.40059448041E-03 -6.44352463642E-02 -5.40561233130E-01
4.25000000000E+09 -1.25589732181E-01 -2.91301820354E-01 +5.63812194942E-03 -4.95464446864E-03 +5.75231868188E-03 -5.17963091277E-03 -8.65694271105E-02 -5.29823081330E-01
4.25500000000E+09 -1.39983402118E-01 -2.77022428460E-01 +4.98106229547E-03 -6.16277424113E-03 +5.09181859204E-03 -6.40509053466E-03 -1.08434078387E-01 -5.17807979041E-01
4.26000000000E+09 -1.55915495013E-01 -2.63868058110E-01 +3.86220487286E-03 -6.45354085200E-03 +3.91351474953E-03 -6.71759592512E-03 -1.29298753943E-01 -5.04118227570E-01
4.26500000000E+09 -1.72990855034E-01 -2.51338664027E-01 +3.52173472365E-03 -6.14547960477E-03 +3.46443315955E-03 -6.36588552767E-03 -1.49347505010E-01 -4.89540384809E-01
4.27000000000E+09 -1.88638711642E-01 -2.38411459088E-01 +3.45734357296E-03 -6.89475014622E-03 +3.36153227961E-03 -7.07828455953E-03 -1.68541729330E-01 -4.74760580657E-01
4.27500000000E+09 -2.03217530170E-01 -2.25479989914E-01 +2.79452809605E-03 -7.59522337078E-03 +2.71193104569E-03 -7.80936442760E-03 -1.89044521527E-01 -4.58741459692E-01
4.28000000000E+09 -2.14335778499E-01 -2.11587849048E-01 +2.01765479976E-03 -8.03668551591E-03 +1.87562867271E-03 -8.18655470824E-03 -2.08477122222E-01 -4.42002793850E-01
4.28500000000E+09 -2.22669198083E-01 -1.97929159943E-01 +1.17654643318E-03 -8.83487056364E-03 +1.07350777712E-03 -8.90521464727E-03 -2.27730422963E-01 -4.25127548206E-01
4.29000000000E+09 -2.29459530129E-01 -1.84388572918E-01 -6.32391464718E-04 -9.22326093679E-03 -7.04431714870E-04 -9.31185483157E-03 -2.45140661249E-01 -4.06710797257E-01
4.29500000000E+09 -2.36984374432E-01 -1.70090863233E-01 -1.80956220431E-03 -8.01523922502E-03 -1.88036816538E-03 -8.02558816497E-03 -2.60616775680E-01 -3.90350445519E-01
4.30000000000E+09 -2.45044054062E-01 -1.53066937880E-01 -2.29975722505E-03 -7.69643185509E-03 -2.30402196411E-03 -7.74087279467E-03 -2.77986701431E-01 -3.72665126756E-01
4.30500000000E+09 -2.52890848162E-01 -1.34120765631E-01 -2.65140384515E-03 -7.31613837951E-03 -2.65133159191E-03 -7.37591636280E-03 -2.94535315069E-01 -3.51918804786E-01
4.31000000000E+09 -2.60680424358E-01 -1.14029779163E-01 -2.83750582651E-03 -7.39973259573E-03 -2.83550692339E-03 -7.48999083806E-03 -3.09744069178E-01 -3.30764134276E-01
4.31500000000E+09 -2.67661448770E-01 -9.44671224705E-02 -3.54379878207E-03 -7.73007336141E-03 -3.63406462781E-03 -7.87071434206E-03 -3.23680529342E-01 -3.08786448099E-01
4.32000000000E+09 -2.74586078049E-01 -7.59275135088E-02 -4.64119032862E-03 -7.79788994791E-03 -4.66874138811E-03 -7.90841507884E-03 -3.36805832501E-01 -2.87438534107E-01
4.32500000000E+09 -2.80773916199E-01 -6.02862383820E-02 -6.27634927263E-03 -7.31960110893E-03 -6.38205822531E-03 -7.38724028529E-03 -3.49561636281E-01 -2.65658946171E-01
4.33000000000E+09 -2.87795678262E-01 -4.47988698489E-02 -6.79403598871E-03 -6.65730866475E-03 -6.94066107842E-03 -6.68261806191E-03 -3.61917412093E-01 -2.41863558530E-01
4.33500000000E+09 -2.92945624977E-01 -2.88488620259E-02 -8.24567544936E-03 -5.93418760669E-03 -8.25548551385E-03 -5.93452047877E-03 -3.71749716514E-01 -2.16652696353E-01
4.34000000000E+09 -2.95432178093E-01 -1.27936005256E-02 -9.03547938502E-03 -4.29993045751E-03 -9.07172037850E-03 -4.34820507282E-03 -3.79810896335E-01 -1.92477308596E-01
4.34500000000E+09 -2.95509289629E-01 +3.25012848138E-03 -8.53670198002E-03 -2.93980179191E-03 -8.51986412725E-03 -2.91657697049E-03 -3.89444707741E-01 -1.70000310899E-01
4.35000000000E+09 -2.94758948583E-01 +1.99417101443E-02 -8.53255900179E-03 -2.75249087103E-03 -8.56599578813E-03 -2.89973854398E-03 -3.99734393950E-01 -1.44822330607E-01
4.35500000000E+09 -2.93055098446E-01 +3.77510491581E-02 -9.19644856293E-03 -2.19109410337E-03 -9.35391348689E-03 -2.31529522228E-03 -4.07176230125E-01 -1.18104186182E-01
4.36000000000E+09 -2.91877492049E-01 +5.68202046944E-02 -9.33828810753E-03 -1.56761790260E-03 -9.54238088970E-03 -1.62308307077E-03 -4.12108901021E-01 -9.32259477334E-02
4.36500000000E+09 -2.90468647165E-01 +7.67524448316E-02 -1.06321702260E-02 -1.12771410643E-03 -1.08898919319E-02 -1.09765318171E-03 -4.15878959087E-01 -6.92719863224E-02
4.37000000000E+09 -2.90748660481E-01 +9.63284576230E-02 -1.14387889226E-02 +1.06897258757E-03 -1.17444433520E-02 +1.20174016759E-03 -4.19182637031E-01 -4.51949121273E-02
4.37500000000E+09 -2.91460913345E-01 +1.15687502992E-01 -1.08566392030E-02 +3.30443744877E-03 -1.10679040543E-02 +3.47146478134E-03 -4.21483164723E-01 -2.05506264347E-02
4.38000000000E+09 -2.92812734865E-01 +1.33830095780E-01 -1.00272421226E-02 +4.33765171965E-03 -1.02720349127E-02 +4.53782307368E-03 -4.23078712640E-01 +5.64568347684E-03
4.38500000000E+09 -2.93661427944E-01 +1.50765655246E-01 -9.15629352043E-03 +5.38664308927E-03 -9.31398303371E-03 +5.71853666256E-03 -4.22528954584E-01 +3.12979567460E-02
4.39000000000E+09 -2.93202921568E-01 +1.66090390427E-01 -8.18753710073E-03 +6.08655565701E-03 -8.28519262138E-03 +6.46706745464E-03 -4.22146776945E-01 +5.55295003676E-02
4.39500000000E+09 -2.91362320576E-01 +1.79509527191E-01 -8.05985231643E-03 +6.50373967401E-03 -8.08347264461E-03 +6.77358854685E-03 -4.21756613038E-01 +7.94739093048E-02
4.40000000000E+09 -2.87804521977E-01 +1.92749798189E-01 -7.35071927151E-03 +7.88962229020E-03 -7.22312293358E-03 +8.19430036970E-03 -4.20538634988E-01 +1.03956780012E-01
4.40500000000E+09 -2.83008537407E-01 +2.05535947478E-01 -6.40683751605E-03 +8.69398551348E-03 -6.26949993168E-03 +8.92592166433E-03 -4.16824933780E-01 +1.28421618642E-01
4.41000000000E+09 -2.77264765174E-01 +2.19868075895E-01 -5.24430123791E-03 +8.94355208094E-03 -5.07739557412E-03 +9.13896324042E-03 -4.11582840322E-01 +1.52584677096E-01
4.41500000000E+09 -2.70343391798E-01 +2.36136563736E-01 -4.73963571452E-03 +1.01332840811E-02 -4.57581238787E-03 +1.02852163318E-02 -4.05903643963E-01 +1.75522198887E-01
4.42000000000E+09 -2.62819971683E-01 +2.53122504341E-01 -3.49729117451E-03 +1.04739003977E-02 -3.26434363220E-03 +1.05814177023E-02 -3.99252333484E-01 +1.98860313606E-01
4.42500000000E+09 -2.55953631630E-01 +2.70776878404E-01 -2.29785755483E-03 +1.14582676236E-02 -1.95330884219E-03 +1.14587740180E-02 -3.93543180027E-01 +2.20886897314E-01
4.43000000000E+09 -2.49804070940E-01 +2.88049005587E-01 +9.92680796511E-06 +1.17094487235E-02 +3.12152715510E-04 +1.15876428265E-02 -3.86228431680E-01 +2.44199611071E-01
4.43500000000E+09 -2.44344353645E-01 +3.04335055478E-01 +1.28409286540E-03 +1.06623892354E-02 +1.55211543206E-03 +1.05079834450E-02 -3.76965624788E-01 +2.65887617717E-01
4.44000000000E+09 -2.40122418953E-01 +3.18510389925E-01 +2.12235782027E-03 +9.85389713269E-03 +2.36523048334E-03 +9.75845794052E-03 -3.68132963849E-01 +2.85522037932E-01
4.44500000000E+09 -2.36188265270E-01 +3.30936787868E-01 +2.54796589011E-03 +9.84685978805E-03 +2.67563474810E-03 +9.72680475002E-03 -3.59703167068E-01 +3.05406331607E-01
4.45000000000E+09 -2.32442284206E-01 +3.42200854271E-01 +3.33100916060E-03 +9.62881066517E-03 +3.47113290646E-03 +9.47377879847E-03 -3.49766573950E-01 +3.25438874301E-01
4.45500000000E+09 -2.26155283138E-01 +3.52291934880E-01 +4.46629758771E-03 +1.00459846668E-02 +4.63476733836E-03 +9.78063213631E-03 -3.38787508476E-01 +3.44648883541E-01
4.46000000000E+09 -2.18631281195E-01 +3.61483819458E-01 +6.17099739567E-03 +9.30340968254E-03 +6.29563222142E-03 +9.08676614772E-03 -3.25758973360E-01 +3.63071582353E-01
4.46500000000E+09 -2.08338009509E-01 +3.71430672882E-01 +7.02134044044E-03 +8.09080649486E-03 +7.14286210901E-03 +7.87311931946E-03 -3.13856454984E-01 +3.78709963358E-01
4.47000000000E+09 -1.96575863431E-01 +3.81547000675E-01 +7.72285368731E-03 +7.42763338019E-03 +7.78933526020E-03 +7.15490009262E-03 -3.02800226208E-01 +3.95401290131E-01
4.47500000000E+09 -1.83171198512E-01 +3.92195001447E-01 +8.31256313792E-03 +6.53999387146E-03 +8.24558835638E-03 +6.30779082922E-03 -2.91249377285E-01 +4.13204654943E-01
4.48000000000E+09 -1.71129962860E-01 +4.03100552801E-01 +9.15795829156E-03 +5.66018956422E-03 +9.08229587273E-03 +5.40216350039E-03 -2.78067820819E-01 +4.29718130466E-01
4.48500000000E+09 -1.60856152086E-01 +4.15848645697E-01 +1.01016519467E-02 +4.72217528664E-03 +9.95302799177E-03 +4.53462634629E-03 -2.64480555947E-01 +4.44803293906E-01
4.49000000000E+09 -1.51217293542E-01 +4.29279611996E-01 +1.03866181583E-02 +2.66311427396E-03 +1.02484643709E-02 +2.52031936402E-03 -2.51459246708E-01 +4.59121583459E-01
4.49500000000E+09 -1.43029128533E-01 +4.42096719138E-01 +9.66507695462E-03 +1.76677695948E-03 +9.53638252048E-03 +1.66581531810E-03 -2.38481468070E-01 +4.73525587228E-01
4.50000000000E+09 -1.35645215423E-01 +4.52974190431E-01 +9.85651729541E-03 +1.43127145006E-03 +9.73281854620E-03 +1.38814458969E-03 -2.24154276857E-01 +4.87460430461E-01
4.50500000000E+09 -1.29322140805E-01 +4.62191852385E-01 +1.02110016831E-02 +3.99747598989E-04 +1.01365062739E-02 +3.44945348848E-04 -2.09931967284E-01 +5.00669513678E-01
4.51000000000E+09 -1.22331153206E-01 +4.68684884412E-01 +1.06741769283E-02 -6.46950017093E-04 +1.05912428145E-02 -7.33729534203E-04 -1.94458866357E-01 +5.12672299947E-01
4.51500000000E+09 -1.15219200631E-01 +4.73582771588E-01 +1.04831883378E-02 -2.10431956228E-03 +1.03880683033E-02 -2.19364859550E-03 -1.80567357001E-01 +5.23341762926E-01
4.52000000000E+09 -1.06363925466E-01 +4.78066356927E-01 +1.03003856180E-02 -3.64670448781E-03 +1.01683400708E-02 -3.78280049384E-03 -1.67168904514E-01 +5.34393789144E-01
4.52500000000E+09 -9.52853286283E-02 +4.82005522214E-01 +9.12321980431E-03 -4.67985863431E-03 +8.92253164437E-03 -4.73615636536E-03 -1.53225017701E-01 +5.45254560255E-01
4.53000000000E+09 -8.26590195116E-02 +4.86558259933E-01 +8.72703558740E-03 -5.31972173252E-03 +8.43382215193E-03 -5.39394100616E-03 -1.38035114563E-01 +5.54868987493E-01
4.53500000000E+09 -6.85494717184E-02 +4.92622715222E-01 +8.00112638010E-03 -6.42393961299E-03 +7.72248676056E-03 -6.47757704102E-03 -1.23392096368E-01 +5.63917820679E-01
4.54000000000E+09 -5.34973341958E-02 +4.99236484524E-01 +7.07662687410E-03 -7.05132900559E-03 +6.77948011120E-03 -7.05885260971E-03 -1.07282239346E-01 +5.72528371273E-01
4.54500000000E+09 -3.93824832713E-02 +5.06601868693E-01 +5.94139234246E-03 -7.54626001872E-03 +5.70814065798E-03 -7.56882125246E-03 -9.31307953918E-02 +5.81165673003E-01
4.55000000000E+09 -2.64449035401E-02 +5.14241913775E-01 +5.47176110305E-03 -8.00400836231E-03 +5.19919310803E-03 -7.90117746687E-03 -7.74310988779E-02 +5.90091308334E-01
4.55500000000E+09 -1.56458155410E-02 +5.21611934286E-01 +4.35667607962E-03 -8.21042590295E-03 +4.13520028016E-03 -8.15672509546E-03 -6.19916739193E-02 +5.98281010968E-01
4.56000000000E+09 -7.35294034042E-03 +5.29196063672E-01 +3.72384621786E-03 -8.59372299552E-03 +3.50500730417E-03 -8.55275525336E-03 -4.69857836213E-02 +6.04171286410E-01
4.56500000000E+09 +1.03018075012E-03 +5.35916673812E-01 +3.00097003128E-03 -9.12943378724E-03 +2.75713146053E-03 -8.98028083840E-03 -3.31505486481E-02 +6.10737459229E-01
4.57000000000E+09 +9.38321667948E-03 +5.40867180794E-01 +1.73018861821E-03 -9.46892813671E-03 +1.52304338567E-03 -9.33535219918E-03 -1.81317351831E-02 +6.16913380149E-01
