# Hz S RI R 50
! CMT, C1220, 16058040, 17.2.0/1
! Date: 15/08/2018 11:42:54
! Data: Format (Calibration Info)
! Freq                      S11: Re/Im (F2)                       S21: Re/Im (F2)                       S12: Re/Im (F2)                       S22: Re/Im (F2)            
4.00000000000E+09 +6.36707616472E-01 -3.36168457258E-01 -2.68027338877E-03 -2.89417389500E-03 -2.67555663264E-03 -3.05170307460E-03 +7.70532985389E-01 -3.52543654625E-01
4.00500000000E+09 +6.27738138483E-01 -3.42531953353E-01 -2.81513801709E-03 -2.74009929879E-03 -2.74970967677E-03 -2.86284115735E-03 +7.61819048946E-01 -3.63999056548E-01
4.01000000000E+09 +6.17679658426E-01 -3.47952340974E-01 -3.23309037526E-03 -2.71980619045E-03 -3.14230836547E-03 -2.90655453117E-03 +7.52150597495E-01 -3.75046854520E-01
4.01500000000E+09 +6.07068545391E-01 -3.53123927951E-01 -3.63388761354E-03 -2.17995532699E-03 -3.58012468309E-03 -2.37780160996E-03 +7.42468599221E-01 -3.85275339867E-01
4.02000000000E+09 +5.95578585949E-01 -3.59677110392E-01 -3.64238878323E-03 -2.08704095041E-03 -3.59919223744E-03 -2.29332643109E-03 +7.32758406817E-01 -3.95658215175E-01
4.02500000000E+09 +5.83144359134E-01 -3.66813056304E-01 -4.29821867439E-03 -1.87771722042E-03 -4.38410380931E-03 -2.09335847048E-03 +7.22300621576E-01 -4.06237890694E-01
4.03000000000E+09 +5.70791765374E-01 -3.74824940824E-01 -4.67638803641E-03 -1.19884167180E-03 -4.70780739677E-03 -1.40503288503E-03 +7.11481744611E-01 -4.16599304782E-01
4.03500000000E+09 +5.58106010965E-01 -3.84237820200E-01 -4.66823070773E-03 -6.09114294528E-04 -4.74126123739E-03 -8.23337876964E-04 +6.99979303702E-01 -4.27374158666E-01
4.04000000000E+09 +5.45354180424E-01 -3.93433710201E-01 -4.82176589528E-03 -5.57610529456E-05 -4.96267637052E-03 -2.95944519201E-04 +6.88261515806E-01 -4.37965919041E-01
4.04500000000E+09 +5.32960104139E-01 -4.02889281059E-01 -4.52054015842E-03 +5.46243322292E-04 -4.72775124987E-03 +2.79246883090E-04 +6.76606787909E-01 -4.47954430560E-01
4.05000000000E+09 +5.20084705978E-01 -4.11286778305E-01 -4.48825966190E-03 +6.23820319878E-04 -4.76840410758E-03 +4.72839305322E-04 +6.65193942401E-01 -4.58220247474E-01
4.05500000000E+09 +5.06542847168E-01 -4.17925877169E-01 -4.72757218623E-03 +1.24253191846E-03 -5.04508107899E-03 +1.15808914404E-03 +6.52690243326E-01 -4.68105910070E-01
4.06000000000E+09 +4.93025633206E-01 -4.22507535339E-01 -4.62727465444E-03 +1.81808163878E-03 -4.89429100578E-03 +1.77115590055E-03 +6.39813326774E-01 -4.77268893617E-01
4.06500000000E+09 +4.79090149515E-01 -4.25937063549E-01 -4.20498168607E-03 +2.45409016212E-03 -4.39300650301E-03 +2.48246412083E-03 +6.26216733247E-01 -4.86215663514E-01
4.07000000000E+09 +4.65000722142E-01 -4.28719783151E-01 -3.95761677872E-03 +2.63687761641E-03 -4.09992694079E-03 +2.62391709745E-03 +6.12519792397E-01 -4.95526445432E-01
4.07500000000E+09 +4.49865391880E-01 -4.32245604616E-01 -3.70081655071E-03 +2.92839245656E-03 -3.82097494431E-03 +2.94612744677E-03 +5.98705580077E-01 -5.05223289241E-01
4.08000000000E+09 +4.33264287162E-01 -4.36042550711E-01 -3.49336815269E-03 +3.21040928795E-03 -3.69755893191E-03 +3.17057031718E-03 +5.84079886505E-01 -5.14965134548E-01
4.08500000000E+09 +4.15499688826E-01 -4.40331748806E-01 -3.34612060110E-03 +3.52852448387E-03 -3.58562739884E-03 +3.51446752945E-03 +5.69339383910E-01 -5.23314634674E-01
4.09000000000E+09 +3.97516280377E-01 -4.43885144353E-01 -2.95653803395E-03 +3.91364861635E-03 -3.20240284676E-03 +4.00279171662E-03 +5.54556725903E-01 -5.31156290589E-01
4.09500000000E+09 +3.80512514005E-01 -4.47705179042E-01 -2.90512536138E-03 +4.23767627720E-03 -3.07782708294E-03 +4.38726110251E-03 +5.39539352611E-01 -5.38375129637E-01
4.10000000000E+09 +3.63805683632E-01 -4.52073743259E-01 -2.33933996938E-03 +4.61775252730E-03 -2.40368115030E-03 +4.74880393004E-03 +5.24235633657E-01 -5.45787362881E-01
4.10500000000E+09 +3.47267953000E-01 -4.55599573033E-01 -1.94753479441E-03 +4.83818327564E-03 -2.03207687446E-03 +4.90934908557E-03 +5.06949734610E-01 -5.53646868476E-01
4.11000000000E+09 +3.30276461322E-01 -4.57939654424E-01 -1.61954539179E-03 +5.27539225468E-03 -1.71672171690E-03 +5.33585398288E-03 +4.89289914653E-01 -5.60222216624E-01
4.11500000000E+09 +3.13799391359E-01 -4.58353838302E-01 -6.92857408952E-04 +5.41646164536E-03 -8.36153973326E-04 +5.53580770369E-03 +4.72533186684E-01 -5.66523556940E-01
4.12000000000E+09 +2.96848391160E-01 -4.57791569882E-01 -3.87308824519E-04 +5.17892389710E-03 -5.45189506724E-04 +5.32109083747E-03 +4.55642063429E-01 -5.73571057075E-01
4.12500000000E+09 +2.79906284006E-01 -4.56021872976E-01 -2.17158443309E-04 +5.37590486471E-03 -3.28864331563E-04 +5.42875909469E-03 +4.37982808624E-01 -5.79657238519E-01
4.13000000000E+09 +2.62830406750E-01 -4.54175344238E-01 +3.90892410397E-04 +5.58248612320E-03 +2.24980894601E-04 +5.81437485106E-03 +4.19692166907E-01 -5.85361536754E-01
4.13500000000E+09 +2.44963385193E-01 -4.53130860111E-01 +7.60268790563E-04 +5.64298020802E-03 +5.48232521491E-04 +5.80560192666E-03 +4.00867784515E-01 -5.89954196701E-01
4.14000000000E+09 +2.26657353376E-01 -4.53131968009E-01 +1.23699423962E-03 +6.16579411307E-03 +1.06114843035E-03 +6.32571236055E-03 +3.81386260679E-01 -5.93986007628E-01
4.14500000000E+09 +2.07791063493E-01 -4.53963827500E-01 +2.49438415498E-03 +6.39574126525E-03 +2.41295059893E-03 +6.67900735979E-03 +3.62254435684E-01 -5.97985589859E-01
4.15000000000E+09 +1.88616517351E-01 -4.56031955869E-01 +3.38721206434E-03 +5.62097024378E-03 +3.47300167818E-03 +5.87963380002E-03 +3.43555675147E-01 -6.02859299387E-01
4.15500000000E+09 +1.68733616610E-01 -4.56763514814E-01 +3.86171448465E-03 +5.03172028666E-03 +3.92319883743E-03 +5.20151330673E-03 +3.23292692781E-01 -6.07161354360E-01
4.16000000000E+09 +1.50095883083E-01 -4.56003269374E-01 +4.19059579023E-03 +4.55512991683E-03 +4.30090668233E-03 +4.70157436649E-03 +3.02639587678E-01 -6.09030082852E-01
4.16500000000E+09 +1.32575716128E-01 -4.53734632887E-01 +4.21651068183E-03 +4.10226021644E-03 +4.20210050592E-03 +4.24164420345E-03 +2.83485375570E-01 -6.10114598773E-01
4.17000000000E+09 +1.16768888538E-01 -4.49300142576E-01 +4.52714286868E-03 +4.42550326550E-03 +4.52500002395E-03 +4.58825178712E-03 +2.62722031085E-01 -6.11008834487E-01
4.17500000000E+09 +1.01828195338E-01 -4.43578008055E-01 +5.50573757687E-03 +4.37853144315E-03 +5.50487018605E-03 +4.55504197764E-03 +2.41347053253E-01 -6.11122154096E-01
4.18000000000E+09 +8.68254388191E-02 -4.37175502360E-01 +6.40018597239E-03 +3.39154630573E-03 +6.57030200569E-03 +3.65318199458E-03 +2.19740422350E-01 -6.10988665395E-01
4.18500000000E+09 +7.03148217473E-02 -4.29682367088E-01 +6.72122348235E-03 +2.68883104450E-03 +6.89475087725E-03 +2.86861886606E-03 +1.97217295199E-01 -6.10136066501E-01
4.19000000000E+09 +5.37700330951E-02 -4.21293933448E-01 +7.14391921544E-03 +2.08029956892E-03 +7.28970260617E-03 +2.24076386939E-03 +1.76383103933E-01 -6.08151185306E-01
4.19500000000E+09 +3.58569397762E-02 -4.12813197253E-01 +7.43586404846E-03 +1.25702939464E-03 +7.64704414396E-03 +1.39212801530E-03 +1.55307244749E-01 -6.06107920082E-01
4.20000000000E+09 +1.78578148060E-02 -4.03675254943E-01 +7.64148523273E-03 +3.80579333392E-04 +7.80086208617E-03 +5.49877925150E-04 +1.33377398246E-01 -6.04099464609E-01
4.20500000000E+09 +1.03790711939E-03 -3.95913094171E-01 +7.68894545902E-03 -6.35907443194E-04 +7.97244710369E-03 -5.05367554516E-04 +1.10361648029E-01 -6.00846914373E-01
4.21000000000E+09 -1.53902139505E-02 -3.88641241691E-01 +7.45386204148E-03 -1.80829543632E-03 +7.73842844183E-03 -1.71058645782E-03 +8.67853287106E-02 -5.95698138481E-01
4.21500000000E+09 -3.11936121138E-02 -3.81990204549E-01 +6.65515062136E-03 -1.93928177686E-03 +6.89770680211E-03 -1.94136465785E-03 +6.49447736776E-02 -5.90606453436E-01
4.22000000000E+09 -4.66659988449E-02 -3.74078900724E-01 +6.99323893442E-03 -1.82341628979E-03 +7.19876832535E-03 -1.80044188204E-03 +4.25506661071E-02 -5.84926686988E-01
4.22500000000E+09 -6.06952410301E-02 -3.64386212704E-01 +7.78039055867E-03 -3.01418597468E-03 +8.01922286526E-03 -3.00243580008E-03 +1.97228055607E-02 -5.78911170126E-01
4.23000000000E+09 -7.37047954675E-02 -3.52932016999E-01 +7.54327774626E-03 -4.64458985625E-03 +7.74254711230E-03 -4.66147492368E-03 -3.04227617360E-03 -5.70995914090E-01
4.23500000000E+09 -8.58303277193E-02 -3.39880460766E-01 +6.64626796363E-03 -5.71052591560E-03 +6.88327537953E-03 -5.74926859866E-03 -2.48266478078E-02 -5.61089464284E-01
4.24000000000E+09 -9.83871096224E-02 -3.25649943823E-01 +5.68703554881E-03 -6.48129688295E-03 +5.91476874256E-03 -6.63161795143E-03 -4.57129267361E-02 -5.51041807269E-01
4.24500000000E+09 -1.11103400170E-01 -3.10690635009E-01 +4.51483850843E-03 -6.40267268830E-03 +4.66324528302E-03 -6.60788569894E-03 -6.63162738560E-02 -5.41076237287E-01
4.25000000000E+09 -1.25277988948E-01 -2.95868227891E-01 +4.48623338672E-03 -6.76480944094E-03 +4.61785345420E-03 -6.90445444272E-03 -8.84936333601E-02 -5.30326245883E-01
4.25500000000E+09 -1.40754818990E-01 -2.82107587444E-01 +3.75804776748E-03 -7.63549996608E-03 +3.89520555087E-03 -7.82807131013E-03 -1.10617742700E-01 -5.17936282569E-01
4.26000000000E+09 -1.57724269559E-01 -2.68542673841E-01 +2.86831875388E-03 -7.89466486329E-03 +3.02438963643E-03 -8.07188897671E-03 -1.31531769969E-01 -5.03551862405E-01
4.26500000000E+09 -1.74972761115E-01 -2.55722590414E-01 +2.19698711469E-03 -7.90049516437E-03 +2.30878188018E-03 -8.08865879369E-03 -1.51064482320E-01 -4.88757673670E-01
4.27000000000E+09 -1.91230502987E-01 -2.42372153799E-01 +1.61410571142E-03 -8.36310685065E-03 +1.62775278697E-03 -8.62940814402E-03 -1.70253905363E-01 -4.73904102217E-01
4.27500000000E+09 -2.05847456245E-01 -2.29276080018E-01 +7.55308179169E-04 -8.60814626513E-03 +7.15904336604E-04 -8.85304451224E-03 -1.90549161562E-01 -4.57727794248E-01
4.28000000000E+09 -2.17656510030E-01 -2.15076344517E-01 +9.50682410308E-05 -8.89455324087E-03 +3.18675934773E-05 -9.12356593174E-03 -2.09814684445E-01 -4.40878235307E-01
4.28500000000E+09 -2.26037318595E-01 -2.00878088587E-01 -1.04359028265E-03 -9.61794331084E-03 -1.15687631698E-03 -9.80090215551E-03 -2.29051929087E-01 -4.23944154077E-01
4.29000000000E+09 -2.33178322987E-01 -1.87100863952E-01 -2.97889961722E-03 -9.58207151375E-03 -3.06492838797E-03 -9.71589100345E-03 -2.46345279150E-01 -4.05420805402E-01
4.29500000000E+09 -2.40605565068E-01 -1.72688005027E-01 -4.35144726260E-03 -8.01254002452E-03 -4.46001374554E-03 -8.18733457679E-03 -2.61643938096E-01 -3.88817028824E-01
4.30000000000E+09 -2.49340274411E-01 -1.55390904658E-01 -4.62135330009E-03 -7.12071397564E-03 -4.76723756342E-03 -7.26146556525E-03 -2.78835558248E-01 -3.71281126449E-01
4.30500000000E+09 -2.57298491919E-01 -1.36067294402E-01 -4.53481857876E-03 -6.43449520820E-03 -4.68355481271E-03 -6.57382629941E-03 -2.95634417704E-01 -3.50339217904E-01
4.31000000000E+09 -2.65381058243E-01 -1.15440297041E-01 -4.32454225132E-03 -6.77383351570E-03 -4.52412127412E-03 -6.77661184064E-03 -3.10753409101E-01 -3.28694083967E-01
4.31500000000E+09 -2.72318713076E-01 -9.53025515964E-02 -5.18170171149E-03 -7.30876565739E-03 -5.36405065281E-03 -7.31826435837E-03 -3.24265998571E-01 -3.06430885878E-01
4.32000000000E+09 -2.78685328178E-01 -7.63620885937E-02 -6.66977953812E-03 -7.16788005785E-03 -6.86357549561E-03 -7.21998262951E-03 -3.36803316830E-01 -2.85166270863E-01
4.32500000000E+09 -2.84658742428E-01 -6.10681399086E-02 -8.50776458918E-03 -6.03974485449E-03 -8.76517630687E-03 -6.06309953071E-03 -3.49468290739E-01 -2.63489795809E-01
4.33000000000E+09 -2.92153173517E-01 -4.58498421599E-02 -8.54005507234E-03 -4.90509802530E-03 -8.72580368978E-03 -4.80604733291E-03 -3.61865265469E-01 -2.39498633971E-01
4.33500000000E+09 -2.97721187549E-01 -2.96056219973E-02 -9.45356253523E-03 -4.08345885440E-03 -9.58909918466E-03 -3.97386833476E-03 -3.71479692954E-01 -2.14054328116E-01
4.34000000000E+09 -3.00402180218E-01 -1.29772626233E-02 -9.99119546552E-03 -2.67300718092E-03 -1.00222142045E-02 -2.62438256424E-03 -3.78929516524E-01 -1.89542291486E-01
4.34500000000E+09 -3.00259828697E-01 +3.68491446220E-03 -9.71655275151E-03 -1.35816980920E-03 -9.75442536966E-03 -1.34766654457E-03 -3.87557799034E-01 -1.67281571316E-01
4.35000000000E+09 -2.99074578201E-01 +2.05925406182E-02 -9.75033854666E-03 -7.44414074627E-04 -9.73257459873E-03 -7.34184361597E-04 -3.97521681368E-01 -1.42786936907E-01
4.35500000000E+09 -2.97062510661E-01 +3.85285987983E-02 -9.98594545894E-03 +1.55694827572E-04 -1.01071869247E-02 +2.04650039554E-04 -4.04931023475E-01 -1.16491149311E-01
4.36000000000E+09 -2.96005708342E-01 +5.74494632373E-02 -9.55681568570E-03 +6.88223811790E-04 -9.57175806983E-03 +7.54844639392E-04 -4.09941208842E-01 -9.16563153085E-02
4.36500000000E+09 -2.95042825817E-01 +7.77255358367E-02 -1.07568772135E-02 +1.04963008134E-03 -1.08460841164E-02 +1.06332099871E-03 -4.13092067641E-01 -6.80456883349E-02
4.37000000000E+09 -2.95235364433E-01 +9.80547408066E-02 -1.15555713643E-02 +3.12252665074E-03 -1.16917612933E-02 +3.25029265292E-03 -4.16214718025E-01 -4.48884720476E-02
4.37500000000E+09 -2.95186028808E-01 +1.17890309983E-01 -1.09155519881E-02 +5.76292081489E-03 -1.09934135485E-02 +5.96845978806E-03 -4.19071287548E-01 -2.10866625642E-02
4.38000000000E+09 -2.96589759293E-01 +1.36079018100E-01 -9.46244918621E-03 +6.91299342194E-03 -9.58407136716E-03 +7.07019036145E-03 -4.21485570341E-01 +5.40093554233E-03
4.38500000000E+09 -2.97193489217E-01 +1.53116321600E-01 -7.93555613911E-03 +7.84505403599E-03 -8.00645484540E-03 +8.09878138996E-03 -4.20917037342E-01 +3.14024097499E-02
4.39000000000E+09 -2.96666460082E-01 +1.68824882811E-01 -6.78137633861E-03 +8.08514651680E-03 -6.75917568151E-03 +8.30288774855E-03 -4.19973026723E-01 +5.56512466919E-02
4.39500000000E+09 -2.94545151587E-01 +1.82579237899E-01 -6.59399336118E-03 +8.15798398334E-03 -6.58145019593E-03 +8.35438616332E-03 -4.19758861436E-01 +7.88859497836E-02
4.40000000000E+09 -2.90502146730E-01 +1.96296336447E-01 -5.91935289218E-03 +9.43524900622E-03 -5.82605499630E-03 +9.68763798354E-03 -4.18979079243E-01 +1.03118971988E-01
4.40500000000E+09 -2.85227732305E-01 +2.09134429743E-01 -4.87857217195E-03 +1.03666606799E-02 -4.77164656478E-03 +1.05793496483E-02 -4.15707357501E-01 +1.27819500871E-01
4.41000000000E+09 -2.79128295778E-01 +2.23383938141E-01 -3.14319388788E-03 +1.04235744241E-02 -2.96829943222E-03 +1.05904987403E-02 -4.10236574194E-01 +1.52433835990E-01
4.41500000000E+09 -2.71937301334E-01 +2.39425309239E-01 -2.47645807139E-03 +1.10521445497E-02 -2.31917967862E-03 +1.12865290483E-02 -4.04181812085E-01 +1.75226231439E-01
4.42000000000E+09 -2.64838007345E-01 +2.56626529280E-01 -1.18596239830E-03 +1.11656847288E-02 -9.49547316555E-04 +1.12290186425E-02 -3.97308278825E-01 +1.98293736492E-01
4.42500000000E+09 -2.57583909686E-01 +2.74810475993E-01 -2.35846066692E-04 +1.18532547898E-02 +6.95761946683E-05 +1.18999872036E-02 -3.92014018933E-01 +2.19659669769E-01
4.43000000000E+09 -2.50922210315E-01 +2.92316900414E-01 +2.22970056647E-03 +1.20269081240E-02 +2.47171778780E-03 +1.19432711025E-02 -3.84859825228E-01 +2.43206150211E-01
4.43500000000E+09 -2.44799989099E-01 +3.08606877600E-01 +3.68752065228E-03 +1.08229804652E-02 +3.88646027189E-03 +1.06706272883E-02 -3.75618399448E-01 +2.65008318787E-01
4.44000000000E+09 -2.40263969979E-01 +3.22191328220E-01 +4.67597510421E-03 +9.48037420034E-03 +4.80755196275E-03 +9.36961599759E-03 -3.66218307974E-01 +2.84068637001E-01
4.44500000000E+09 -2.36404437685E-01 +3.34600682097E-01 +4.76539405642E-03 +9.04194871011E-03 +4.92637601024E-03 +8.93969295645E-03 -3.58549910440E-01 +3.03378277231E-01
4.45000000000E+09 -2.32543294049E-01 +3.45531430009E-01 +5.21028883651E-03 +8.63576905195E-03 +5.39912633984E-03 +8.50184386987E-03 -3.49090368010E-01 +3.23368489676E-01
4.45500000000E+09 -2.26384148072E-01 +3.55823492427E-01 +6.16969631352E-03 +9.18335659497E-03 +6.37102308575E-03 +8.97865899069E-03 -3.38776635868E-01 +3.42829800056E-01
4.46000000000E+09 -2.18547459539E-01 +3.65100950477E-01 +8.03962284343E-03 +8.31470766206E-03 +8.17932390419E-03 +8.04247318048E-03 -3.25632842532E-01 +3.61712914063E-01
4.46500000000E+09 -2.08073575739E-01 +3.74876728719E-01 +8.92015627272E-03 +6.70294317719E-03 +9.02191811173E-03 +6.45878943463E-03 -3.13556270826E-01 +3.77403934021E-01
4.47000000000E+09 -1.95763648964E-01 +3.84798221559E-01 +9.33658907359E-03 +5.58718450411E-03 +9.31512305958E-03 +5.31042206029E-03 -3.02758747918E-01 +3.93550955542E-01
4.47500000000E+09 -1.82679685551E-01 +3.95042079048E-01 +9.47667476035E-03 +4.58813083831E-03 +9.45725280913E-03 +4.36692523929E-03 -2.91990746076E-01 +4.11511542406E-01
4.48000000000E+09 -1.70591240088E-01 +4.06148811756E-01 +9.97297445853E-03 +3.70121382738E-03 +9.81729710662E-03 +3.44711915633E-03 -2.78963476394E-01 +4.28896643452E-01
4.48500000000E+09 -1.59844210833E-01 +4.18745372180E-01 +1.06404793009E-02 +3.06141553918E-03 +1.04905796386E-02 +2.83918308407E-03 -2.64850149485E-01 +4.44222386963E-01
4.49000000000E+09 -1.50202649930E-01 +4.31715290967E-01 +1.11401178337E-02 +7.83608207872E-04 +1.09128082575E-02 +6.38095723998E-04 -2.51684171953E-01 +4.58269448374E-01
4.49500000000E+09 -1.41893886330E-01 +4.44406306609E-01 +9.97167222340E-03 -3.41330444540E-04 +9.80469727073E-03 -4.06760360761E-04 -2.39126694648E-01 +4.72666546645E-01
4.50000000000E+09 -1.34757361689E-01 +4.55255296850E-01 +9.71121949141E-03 -5.20833447503E-04 +9.54117101486E-03 -5.57284435594E-04 -2.24857610307E-01 +4.86843663304E-01
4.50500000000E+09 -1.28163016653E-01 +4.64558524640E-01 +9.81054565828E-03 -1.16154563167E-03 +9.68745136952E-03 -1.19284994341E-03 -2.10664758387E-01 +5.00742696998E-01
4.51000000000E+09 -1.20783708263E-01 +4.70965552916E-01 +1.04958245838E-02 -2.09209570721E-03 +1.03917723241E-02 -2.16985136706E-03 -1.94506041497E-01 +5.12586916528E-01
4.51500000000E+09 -1.13401665156E-01 +4.75581331728E-01 +1.03921062515E-02 -3.68180104513E-03 +1.01939600212E-02 -3.76899168710E-03 -1.80638153972E-01 +5.22881069286E-01
4.52000000000E+09 -1.04311970860E-01 +4.79615307567E-01 +9.95292613836E-03 -5.58825379529E-03 +9.79618236191E-03 -5.67752953747E-03 -1.67509872982E-01 +5.33495913102E-01
4.52500000000E+09 -9.35749075523E-02 +4.83242548611E-01 +8.10656367446E-03 -6.41893583200E-03 +7.86601828382E-03 -6.46005685710E-03 -1.54007900126E-01 +5.44864658388E-01
4.53000000000E+09 -8.09957647175E-02 +4.87997323439E-01 +7.56789234113E-03 -6.61490221228E-03 +7.23143538603E-03 -6.66732465912E-03 -1.38718211436E-01 +5.54745297625E-01
4.53500000000E+09 -6.66765483028E-02 +4.93972246891E-01 +6.91827712017E-03 -7.35436081187E-03 +6.59049975692E-03 -7.33702205083E-03 -1.23742116190E-01 +5.63868682183E-01
4.54000000000E+09 -5.12100108072E-02 +5.00459627453E-01 +6.19060410179E-03 -7.97411824251E-03 +5.90494538141E-03 -7.91841283169E-03 -1.07733252759E-01 +5.72184102062E-01
4.54500000000E+09 -3.70117472650E-02 +5.07300788582E-01 +5.12698218388E-03 -8.48251555340E-03 +4.83113521989E-03 -8.39027333058E-03 -9.38928689561E-02 +5.80928317975E-01
4.55000000000E+09 -2.43046267585E-02 +5.14288599297E-01 +4.43170766234E-03 -8.95870480520E-03 +4.13614908633E-03 -8.87412619696E-03 -7.84479436886E-02 +5.90162628616E-01
4.55500000000E+09 -1.41237321842E-02 +5.21645999725E-01 +3.08130959692E-03 -8.93366669985E-03 +2.82756628341E-03 -8.79273828037E-03 -6.27012909124E-02 +5.98919175701E-01
4.56000000000E+09 -5.62103788447E-03 +5.29384364444E-01 +2.61652052943E-03 -9.18347186168E-03 +2.33581127275E-03 -8.98670163173E-03 -4.72687539986E-02 +6.04857085077E-01
4.56500000000E+09 +2.81731113506E-03 +5.35981051314E-01 +1.77384593156E-03 -9.58353429341E-03 +1.66803324722E-03 -9.37722290683E-03 -3.32278110003E-02 +6.11336503570E-01
4.57000000000E+09 +1.12196155829E-02 +5.40688294900E-01 +5.91482157856E-04 -1.01049988964E-02 +4.35249451587E-04 -9.85383287586E-03 -1.84057074115E-02 +6.17267057710E-01
