# Hz S RI R 50
! CMT, C1220, 16058040, 17.2.0/1
! Date: 15/08/2018 11:40:21
! Data: Format (Calibration Info)
! Freq                      S11: Re/Im (F2)                       S21: Re/Im (F2)                       S12: Re/Im (F2)                       S22: Re/Im (F2)            
4.00000000000E+09 +6.37254061222E-01 -3.34360714951E-01 -6.88189221324E-04 -2.46376182144E-03 -6.72325042040E-04 -2.55690037861E-03 +7.70487423534E-01 -3.53935219798E-01
4.00500000000E+09 +6.28083981182E-01 -3.40934053323E-01 -8.48584939511E-04 -2.54741918014E-03 -8.23534577703E-04 -2.52409440233E-03 +7.61860428282E-01 -3.65378388378E-01
4.01000000000E+09 +6.17971945149E-01 -3.46539208961E-01 -1.12828575086E-03 -2.71334899804E-03 -1.06383770141E-03 -2.69038466470E-03 +7.52265995254E-01 -3.76544313265E-01
4.01500000000E+09 +6.07232343654E-01 -3.51793770937E-01 -1.45193646004E-03 -2.45652699446E-03 -1.32256313765E-03 -2.54664748415E-03 +7.42496102169E-01 -3.86823831247E-01
4.02000000000E+09 +5.95810127033E-01 -3.58556785951E-01 -1.52673362349E-03 -2.59059621236E-03 -1.39664806330E-03 -2.67131521897E-03 +7.32833411836E-01 -3.97405124019E-01
4.02500000000E+09 +5.83199914193E-01 -3.65635674206E-01 -2.11902546202E-03 -2.68482090962E-03 -2.00263172551E-03 -2.80192347728E-03 +7.22470813648E-01 -4.08119402719E-01
4.03000000000E+09 +5.70730535182E-01 -3.73527531943E-01 -2.68804956773E-03 -2.29781831810E-03 -2.61463096088E-03 -2.46060089808E-03 +7.11583554047E-01 -4.18530570406E-01
4.03500000000E+09 +5.57762426344E-01 -3.82837799730E-01 -2.81895520887E-03 -1.88232663867E-03 -2.81407522078E-03 -1.99804811278E-03 +7.00085061965E-01 -4.29250117462E-01
4.04000000000E+09 +5.44778946349E-01 -3.91892705251E-01 -3.14998712850E-03 -1.56958795587E-03 -3.08121831701E-03 -1.78058379450E-03 +6.88379308362E-01 -4.39959088713E-01
4.04500000000E+09 +5.32234383779E-01 -4.01212709013E-01 -3.10763457516E-03 -1.15765946799E-03 -3.11467610985E-03 -1.37356861402E-03 +6.76729789153E-01 -4.49941027508E-01
4.05000000000E+09 +5.19252506153E-01 -4.09661255324E-01 -3.18060733330E-03 -9.94355016051E-04 -3.25956681475E-03 -1.30607065154E-03 +6.65295138330E-01 -4.60318424846E-01
4.05500000000E+09 +5.05429016921E-01 -4.16491117294E-01 -3.49885744551E-03 -6.65589853758E-04 -3.66064524182E-03 -9.07209626919E-04 +6.52839707640E-01 -4.70446182024E-01
4.06000000000E+09 +4.91672470959E-01 -4.21194255848E-01 -3.61261336210E-03 -2.65230927858E-04 -3.73087762359E-03 -4.20282518470E-04 +6.40048185599E-01 -4.79991316156E-01
4.06500000000E+09 +4.77637358729E-01 -4.24830295444E-01 -3.48064173330E-03 +1.78027559873E-04 -3.58425511918E-03 +1.22450172704E-04 +6.26340226216E-01 -4.89290149779E-01
4.07000000000E+09 +4.63041875956E-01 -4.27829434484E-01 -3.44931996721E-03 +3.44212030226E-04 -3.57005856595E-03 +3.54939584579E-04 +6.12112866246E-01 -4.98860369933E-01
4.07500000000E+09 +4.47638318393E-01 -4.31194907539E-01 -3.42435168478E-03 +7.29240436370E-04 -3.49670274342E-03 +5.95004322990E-04 +5.97975895629E-01 -5.08250428304E-01
4.08000000000E+09 +4.31195024068E-01 -4.34589356896E-01 -3.43584748781E-03 +9.44306716091E-04 -3.61697949416E-03 +8.23422528346E-04 +5.83191088025E-01 -5.17933211911E-01
4.08500000000E+09 +4.13640068683E-01 -4.38676751427E-01 -3.37683963745E-03 +1.26681821430E-03 -3.58858407245E-03 +1.25565822089E-03 +5.68372452286E-01 -5.26328331412E-01
4.09000000000E+09 +3.95874490090E-01 -4.42159129917E-01 -3.27034640722E-03 +1.59942418073E-03 -3.43254308053E-03 +1.63330774598E-03 +5.53466589306E-01 -5.34227242731E-01
4.09500000000E+09 +3.78744534067E-01 -4.46058382308E-01 -3.30669298966E-03 +1.84761889856E-03 -3.46912101728E-03 +1.87383145495E-03 +5.38094803159E-01 -5.41660693239E-01
4.10000000000E+09 +3.61600044678E-01 -4.50167069994E-01 -3.11662127247E-03 +2.15713661353E-03 -3.25370984409E-03 +2.20427130088E-03 +5.22288373641E-01 -5.48812888490E-01
4.10500000000E+09 +3.44778014485E-01 -4.53344719816E-01 -3.11641766439E-03 +2.54992954850E-03 -3.20066964361E-03 +2.53189538921E-03 +5.05079177973E-01 -5.56303261713E-01
4.11000000000E+09 +3.27641023035E-01 -4.55130221339E-01 -3.00154344963E-03 +2.93610284496E-03 -3.16503225952E-03 +2.93813762233E-03 +4.87361136470E-01 -5.63036518665E-01
4.11500000000E+09 +3.11399722228E-01 -4.55144275295E-01 -2.44977635340E-03 +3.44603077097E-03 -2.60708054394E-03 +3.52189006767E-03 +4.70097312826E-01 -5.69431652029E-01
4.12000000000E+09 +2.94840383746E-01 -4.54657731966E-01 -2.27410191951E-03 +3.49718466212E-03 -2.45012776023E-03 +3.55510636504E-03 +4.52731716755E-01 -5.76196454648E-01
4.12500000000E+09 +2.77762246757E-01 -4.53137233682E-01 -2.16693491527E-03 +3.80924939190E-03 -2.29002265011E-03 +3.89169601036E-03 +4.34915764968E-01 -5.81850320944E-01
4.13000000000E+09 +2.60464310506E-01 -4.51417032946E-01 -1.64294275215E-03 +4.17481191355E-03 -1.77805452523E-03 +4.23794478078E-03 +4.16797691305E-01 -5.87053550031E-01
4.13500000000E+09 +2.42510832481E-01 -4.49998283911E-01 -1.49540505174E-03 +4.17752387233E-03 -1.66745546244E-03 +4.24523390404E-03 +3.98298532077E-01 -5.91683416095E-01
4.14000000000E+09 +2.24181269386E-01 -4.49541063459E-01 -1.33276722402E-03 +4.86096761188E-03 -1.50459327193E-03 +4.96671642263E-03 +3.78591739774E-01 -5.96181077062E-01
4.14500000000E+09 +2.05560502263E-01 -4.49461247443E-01 -5.42644925748E-04 +5.47011325003E-03 -7.15930700548E-04 +5.66274068180E-03 +3.59014057456E-01 -5.99726670745E-01
4.15000000000E+09 +1.87236820573E-01 -4.50965928216E-01 +3.78904655259E-04 +5.47588482141E-03 +2.83566643125E-04 +5.61831917757E-03 +3.40383542225E-01 -6.04205277015E-01
4.15500000000E+09 +1.68088258009E-01 -4.51860453715E-01 +1.21855980463E-03 +5.04393191885E-03 +1.13807195386E-03 +5.25078427244E-03 +3.20240211936E-01 -6.08612821907E-01
4.16000000000E+09 +1.49735125378E-01 -4.51440768297E-01 +1.46217762137E-03 +4.84978855687E-03 +1.40487993082E-03 +4.96799544513E-03 +2.99226646873E-01 -6.10290928639E-01
4.16500000000E+09 +1.32081360293E-01 -4.49292719109E-01 +1.63074081457E-03 +4.78201796421E-03 +1.57516662199E-03 +4.93762933724E-03 +2.79756536495E-01 -6.10949071094E-01
4.17000000000E+09 +1.16073824398E-01 -4.44519177403E-01 +2.16958362766E-03 +5.07253093955E-03 +2.05286834796E-03 +5.22493749841E-03 +2.59156538497E-01 -6.11394545915E-01
4.17500000000E+09 +1.01196379002E-01 -4.38991678508E-01 +2.83045566204E-03 +5.07303950814E-03 +2.75647192776E-03 +5.25064482782E-03 +2.37953596870E-01 -6.11251183818E-01
4.18000000000E+09 +8.61065570871E-02 -4.32301067957E-01 +3.84592400146E-03 +4.72118201152E-03 +3.82319840344E-03 +4.97271428993E-03 +2.16466865315E-01 -6.10892808400E-01
4.18500000000E+09 +7.01096734855E-02 -4.24464125825E-01 +4.26851985544E-03 +4.14165801970E-03 +4.33785443390E-03 +4.40650562243E-03 +1.94067988521E-01 -6.10047850140E-01
4.19000000000E+09 +5.39053556202E-02 -4.16187858737E-01 +4.75278083802E-03 +3.94979873514E-03 +4.82691442885E-03 +4.15343642946E-03 +1.72796598344E-01 -6.07930977404E-01
4.19500000000E+09 +3.61910842552E-02 -4.07622334476E-01 +5.44330936808E-03 +3.50239408797E-03 +5.54635858785E-03 +3.68537280772E-03 +1.51493017155E-01 -6.05181626446E-01
4.20000000000E+09 +1.87855457605E-02 -3.98456190134E-01 +5.90416321149E-03 +2.59286486189E-03 +6.06935543417E-03 +2.78370932112E-03 +1.29955282830E-01 -6.02692306180E-01
4.20500000000E+09 +2.39757296235E-03 -3.90813733676E-01 +6.08824054170E-03 +1.83383948293E-03 +6.21967201557E-03 +1.99874245382E-03 +1.07417295784E-01 -5.98827926463E-01
4.21000000000E+09 -1.38887680161E-02 -3.83914502733E-01 +6.22650584287E-03 +8.22218816572E-04 +6.43520852688E-03 +9.46429536700E-04 +8.46581179047E-02 -5.93389683028E-01
4.21500000000E+09 -3.02709607362E-02 -3.77322694151E-01 +5.76989151235E-03 +6.63887512790E-04 +5.97493819393E-03 +7.68432633054E-04 +6.32768634882E-02 -5.88781520015E-01
4.22000000000E+09 -4.58365532071E-02 -3.68997885110E-01 +6.21235601557E-03 +7.15665125812E-04 +6.35976985384E-03 +8.23097721744E-04 +4.06643518319E-02 -5.83342483497E-01
4.22500000000E+09 -5.96565526652E-02 -3.59210003285E-01 +7.09089605460E-03 -2.27870632370E-04 +7.28613782493E-03 -1.47167749631E-04 +1.79528229107E-02 -5.76963254199E-01
4.23000000000E+09 -7.19157493285E-02 -3.47771019395E-01 +7.17833591564E-03 -1.71779264926E-03 +7.35978689800E-03 -1.63155993101E-03 -4.04066051019E-03 -5.68736363527E-01
4.23500000000E+09 -8.33729393358E-02 -3.35356944443E-01 +6.45313246728E-03 -2.70620840306E-03 +6.68738617916E-03 -2.69197639062E-03 -2.52338245641E-02 -5.59278419583E-01
4.24000000000E+09 -9.55242671573E-02 -3.22416219796E-01 +5.95810528018E-03 -3.28154966867E-03 +6.11644135705E-03 -3.33209362622E-03 -4.61781177076E-02 -5.49617926171E-01
4.24500000000E+09 -1.08748728372E-01 -3.08465946398E-01 +5.48859029456E-03 -3.38867126027E-03 +5.63938929601E-03 -3.49648118563E-03 -6.68659357770E-02 -5.39790501351E-01
4.25000000000E+09 -1.23026552795E-01 -2.93471589218E-01 +5.46869115136E-03 -4.02132762027E-03 +5.62349924307E-03 -4.14638819651E-03 -8.88051767133E-02 -5.28664828814E-01
4.25500000000E+09 -1.37917699444E-01 -2.79117876024E-01 +4.90067948051E-03 -4.92603671865E-03 +4.97021041318E-03 -5.09921632388E-03 -1.10329309709E-01 -5.16722970806E-01
4.26000000000E+09 -1.53515960362E-01 -2.65720959597E-01 +4.17234722450E-03 -5.24633376633E-03 +4.28198129633E-03 -5.37487883476E-03 -1.31090241955E-01 -5.03022419692E-01
4.26500000000E+09 -1.69640083907E-01 -2.53287215002E-01 +3.76146277415E-03 -5.18543446527E-03 +3.79434253622E-03 -5.35268777469E-03 -1.51427193401E-01 -4.88561531136E-01
4.27000000000E+09 -1.85375601951E-01 -2.40879393964E-01 +3.65291516995E-03 -5.81711015456E-03 +3.65012670933E-03 -5.99389035543E-03 -1.70700139968E-01 -4.73146001856E-01
4.27500000000E+09 -2.00118163825E-01 -2.28150465610E-01 +3.06892602822E-03 -6.37687332949E-03 +3.08804343128E-03 -6.53718477138E-03 -1.90866581241E-01 -4.56759742994E-01
4.28000000000E+09 -2.12173623997E-01 -2.14115215795E-01 +2.50888322939E-03 -6.87636230013E-03 +2.49330501264E-03 -7.00234903394E-03 -2.09414104950E-01 -4.40090748839E-01
4.28500000000E+09 -2.20892877600E-01 -2.00193729204E-01 +1.80652638657E-03 -7.57355179027E-03 +1.77704724417E-03 -7.66925200035E-03 -2.28847096878E-01 -4.23537538019E-01
4.29000000000E+09 -2.28583677611E-01 -1.86414946794E-01 +2.43790719406E-04 -8.00933469957E-03 +1.84422148708E-04 -8.07194103695E-03 -2.46098326368E-01 -4.04817843806E-01
4.29500000000E+09 -2.36292376758E-01 -1.71836158358E-01 -7.54341053204E-04 -7.21113503703E-03 -7.74792975217E-04 -7.30842367546E-03 -2.61283202755E-01 -3.88462274688E-01
4.30000000000E+09 -2.44354304579E-01 -1.55012968912E-01 -1.44360961069E-03 -6.87430337270E-03 -1.45994233880E-03 -6.97733718880E-03 -2.78217957660E-01 -3.70791534101E-01
4.30500000000E+09 -2.52395412177E-01 -1.36861078677E-01 -1.72900639900E-03 -6.25744611407E-03 -1.75203088912E-03 -6.45724545197E-03 -2.94541800867E-01 -3.50560365535E-01
4.31000000000E+09 -2.60628228234E-01 -1.16851649564E-01 -1.51553129265E-03 -6.50192470996E-03 -1.61247953619E-03 -6.59390124908E-03 -3.09894437639E-01 -3.29703952856E-01
4.31500000000E+09 -2.67811208283E-01 -9.78020003627E-02 -2.25479512933E-03 -7.03076044963E-03 -2.33507049673E-03 -7.16003070210E-03 -3.24016497564E-01 -3.07372210113E-01
4.32000000000E+09 -2.74895424965E-01 -7.94422257908E-02 -3.21373782544E-03 -7.04951639492E-03 -3.32462705920E-03 -7.20065678578E-03 -3.36683164998E-01 -2.86163492457E-01
4.32500000000E+09 -2.81387172862E-01 -6.36606039637E-02 -4.67538050463E-03 -6.86688380171E-03 -4.79443136729E-03 -7.00453162396E-03 -3.49622898444E-01 -2.64493412172E-01
4.33000000000E+09 -2.88608377346E-01 -4.80489326388E-02 -5.35175828942E-03 -6.34390601736E-03 -5.49357687305E-03 -6.44992468157E-03 -3.61738886223E-01 -2.40921908043E-01
4.33500000000E+09 -2.93722345986E-01 -3.15383502114E-02 -6.46245771389E-03 -5.61350679400E-03 -6.62380376217E-03 -5.60780211733E-03 -3.71885005471E-01 -2.16018626290E-01
4.34000000000E+09 -2.96232808983E-01 -1.52096392225E-02 -7.19433060335E-03 -4.39195888296E-03 -7.24981347505E-03 -4.39977377400E-03 -3.80087585794E-01 -1.91681129671E-01
4.34500000000E+09 -2.96394545365E-01 +6.92317838225E-04 -6.95320089514E-03 -3.14772312991E-03 -6.99867326350E-03 -3.17605409513E-03 -3.89551224287E-01 -1.68896754560E-01
4.35000000000E+09 -2.96248275530E-01 +1.76615960553E-02 -6.79278233344E-03 -3.07301705489E-03 -6.85356264192E-03 -3.12265258419E-03 -3.99659208158E-01 -1.43710482132E-01
4.35500000000E+09 -2.94813232065E-01 +3.57749609806E-02 -7.57685803774E-03 -2.86112822833E-03 -7.66550330040E-03 -2.80757837108E-03 -4.06768124598E-01 -1.17485006920E-01
4.36000000000E+09 -2.94102923884E-01 +5.45319005496E-02 -7.69510677025E-03 -2.12554365804E-03 -7.84549212058E-03 -2.16249668312E-03 -4.12119553086E-01 -9.30868473761E-02
4.36500000000E+09 -2.93220885976E-01 +7.48770146765E-02 -8.84162815373E-03 -2.01333620036E-03 -9.03164560371E-03 -1.96933227145E-03 -4.16441386116E-01 -6.87465028380E-02
4.37000000000E+09 -2.93145403252E-01 +9.47102010501E-02 -9.83355462697E-03 -5.51826850709E-05 -9.99329692279E-03 +6.36018198686E-05 -4.19324726707E-01 -4.41634326820E-02
4.37500000000E+09 -2.93504533036E-01 +1.13702605983E-01 -9.34189823623E-03 +1.82624845503E-03 -9.47693495478E-03 +2.02144518185E-03 -4.21302238430E-01 -1.96814755136E-02
4.38000000000E+09 -2.94986081319E-01 +1.31499129941E-01 -8.74662068043E-03 +2.68056577385E-03 -8.81748037164E-03 +2.91113794845E-03 -4.23060414539E-01 +6.21541280115E-03
4.38500000000E+09 -2.95843305502E-01 +1.48178183230E-01 -8.02607727371E-03 +3.51848541742E-03 -8.05246883822E-03 +3.78715300373E-03 -4.22541877230E-01 +3.19343641567E-02
4.39000000000E+09 -2.95545024747E-01 +1.63589867685E-01 -7.54284154573E-03 +4.17557781889E-03 -7.53543802970E-03 +4.36437730471E-03 -4.22159725634E-01 +5.61309471958E-02
4.39500000000E+09 -2.93718018614E-01 +1.77453697928E-01 -7.55451963415E-03 +4.57060069452E-03 -7.49301495401E-03 +4.81209478383E-03 -4.21681018837E-01 +8.02750883316E-02
4.40000000000E+09 -2.89691110701E-01 +1.90996157721E-01 -6.92952153421E-03 +6.04438277169E-03 -6.84743208200E-03 +6.20051340054E-03 -4.20313891072E-01 +1.04246466830E-01
4.40500000000E+09 -2.84788425089E-01 +2.03636008263E-01 -6.23096267023E-03 +6.89922677875E-03 -6.10307979651E-03 +7.04915320695E-03 -4.17080869610E-01 +1.28683200508E-01
4.41000000000E+09 -2.78863257184E-01 +2.17960353244E-01 -5.03980405303E-03 +7.01868211916E-03 -4.90888890232E-03 +7.11246067128E-03 -4.12132041975E-01 +1.52969156840E-01
4.41500000000E+09 -2.71796898173E-01 +2.33949149374E-01 -4.82353657305E-03 +8.01118768824E-03 -4.62960886368E-03 +8.11541268089E-03 -4.06357101875E-01 +1.76625265604E-01
4.42000000000E+09 -2.64641633243E-01 +2.50929046619E-01 -3.75298111032E-03 +8.32843153403E-03 -3.51366546654E-03 +8.40534774693E-03 -3.99207711352E-01 +1.99871798816E-01
4.42500000000E+09 -2.57550250371E-01 +2.68275568542E-01 -2.97938640360E-03 +9.39894444197E-03 -2.74926009692E-03 +9.35260189694E-03 -3.93371384058E-01 +2.21435283454E-01
4.43000000000E+09 -2.51564509517E-01 +2.85520607642E-01 -8.52983615380E-04 +9.77732278610E-03 -6.82325927397E-04 +9.65302451024E-03 -3.86459011914E-01 +2.44546091644E-01
4.43500000000E+09 -2.46074467041E-01 +3.01906305758E-01 +2.25822354867E-04 +8.99283637037E-03 +3.80549839597E-04 +8.80990975649E-03 -3.77536305117E-01 +2.66302195250E-01
4.44000000000E+09 -2.41817830171E-01 +3.16181802206E-01 +1.19060410074E-03 +8.33088013356E-03 +1.26858777834E-03 +8.27838014132E-03 -3.69015213014E-01 +2.86429792052E-01
4.44500000000E+09 -2.37877460582E-01 +3.28808519553E-01 +1.44264389390E-03 +8.10348259266E-03 +1.43487441962E-03 +8.07490030559E-03 -3.60137585546E-01 +3.06766554344E-01
4.45000000000E+09 -2.34014543412E-01 +3.40091924992E-01 +1.93945683663E-03 +7.94251174739E-03 +2.04286304223E-03 +7.83879658493E-03 -3.50186184656E-01 +3.26877902133E-01
4.45500000000E+09 -2.27731394385E-01 +3.50100175852E-01 +2.74633876393E-03 +8.53595447051E-03 +2.90690777729E-03 +8.42051803704E-03 -3.38852420230E-01 +3.46294124863E-01
4.46000000000E+09 -2.20607854358E-01 +3.59134587165E-01 +4.30089918831E-03 +7.97335720252E-03 +4.46632424644E-03 +7.93163922069E-03 -3.25954281606E-01 +3.64723536344E-01
4.46500000000E+09 -2.10916859917E-01 +3.68925414436E-01 +5.09427808066E-03 +6.85216526785E-03 +5.16606290536E-03 +6.81607208797E-03 -3.13748322672E-01 +3.80428520887E-01
4.47000000000E+09 -1.99670823231E-01 +3.78842452840E-01 +5.64010758120E-03 +6.38769473820E-03 +5.75100860408E-03 +6.24149106307E-03 -3.02550861664E-01 +3.97242321439E-01
4.47500000000E+09 -1.86821173871E-01 +3.89874149050E-01 +5.93229981978E-03 +5.72648617366E-03 +6.02528160198E-03 +5.61248059389E-03 -2.90694763204E-01 +4.15015844787E-01
4.48000000000E+09 -1.74550809182E-01 +4.00945865708E-01 +6.75225142716E-03 +5.19980326472E-03 +6.75747471367E-03 +5.02605835835E-03 -2.77432128440E-01 +4.31757411795E-01
4.48500000000E+09 -1.63497952839E-01 +4.13342823316E-01 +7.51155054723E-03 +4.70787160181E-03 +7.46804956812E-03 +4.53993223089E-03 -2.63290188939E-01 +4.46587119657E-01
4.49000000000E+09 -1.53350733459E-01 +4.26074477500E-01 +7.97415455575E-03 +2.90093393276E-03 +7.93641871845E-03 +2.79731950574E-03 -2.50535527943E-01 +4.60797033158E-01
4.49500000000E+09 -1.44932355384E-01 +4.38271789794E-01 +7.34175644982E-03 +2.16945525674E-03 +7.29936685820E-03 +2.09241437701E-03 -2.37259409726E-01 +4.75302109859E-01
4.50000000000E+09 -1.37523416228E-01 +4.49265632176E-01 +7.51793602060E-03 +2.04306309226E-03 +7.41473883749E-03 +1.95685327401E-03 -2.22396690827E-01 +4.89084544151E-01
4.50500000000E+09 -1.30908619057E-01 +4.58843614760E-01 +7.87250709317E-03 +1.52285621231E-03 +7.80866978738E-03 +1.33353203688E-03 -2.08522888128E-01 +5.01807124838E-01
4.51000000000E+09 -1.23472549056E-01 +4.65909262128E-01 +8.53869155124E-03 +5.83062464288E-04 +8.46589798408E-03 +5.14243471118E-04 -1.93102273563E-01 +5.14007552679E-01
4.51500000000E+09 -1.16194594911E-01 +4.71231611835E-01 +8.41660840041E-03 -7.20238657560E-04 +8.36925478117E-03 -8.39694745979E-04 -1.79201274863E-01 +5.24517064918E-01
4.52000000000E+09 -1.07063068902E-01 +4.75924282982E-01 +8.33582370823E-03 -1.95308738537E-03 +8.15931997485E-03 -2.07935059348E-03 -1.65888564665E-01 +5.35648241408E-01
4.52500000000E+09 -9.65662576320E-02 +4.79977360040E-01 +7.45538663694E-03 -2.60407809367E-03 +7.32015335668E-03 -2.77580930050E-03 -1.51608401445E-01 +5.46524302592E-01
4.53000000000E+09 -8.44239444037E-02 +4.84906392584E-01 +7.30631454563E-03 -3.16118132421E-03 +7.08064803313E-03 -3.31528464708E-03 -1.36538825397E-01 +5.55977908377E-01
4.53500000000E+09 -7.07294655609E-02 +4.90713979580E-01 +6.81108673356E-03 -4.04437031930E-03 +6.60016066675E-03 -4.11250328884E-03 -1.21836447993E-01 +5.65186744737E-01
4.54000000000E+09 -5.61601214533E-02 +4.97107139346E-01 +6.33296732841E-03 -4.50327693820E-03 +6.10078302027E-03 -4.60647572221E-03 -1.05663016394E-01 +5.73870873703E-01
4.54500000000E+09 -4.24678950291E-02 +5.03823131846E-01 +5.62042263862E-03 -5.19982866755E-03 +5.34509225785E-03 -5.25937198022E-03 -9.12972052923E-02 +5.82538310702E-01
4.55000000000E+09 -3.00044571440E-02 +5.11122492449E-01 +5.13494654003E-03 -5.76653150310E-03 +4.87581376852E-03 -5.73404527961E-03 -7.52163035655E-02 +5.91499961974E-01
4.55500000000E+09 -1.90465226425E-02 +5.18250094154E-01 +4.19597116176E-03 -5.67648519151E-03 +3.90475953140E-03 -5.69906501913E-03 -5.94763814400E-02 +5.99351554778E-01
4.56000000000E+09 -1.00496465575E-02 +5.25439227549E-01 +4.00207496813E-03 -6.21946004422E-03 +3.76228437756E-03 -6.11892307169E-03 -4.44883359563E-02 +6.05063131680E-01
4.56500000000E+09 -9.12016417868E-04 +5.31886657964E-01 +3.50695039355E-03 -6.62514943916E-03 +3.24886318654E-03 -6.47756615186E-03 -3.05256294857E-02 +6.11413540297E-01
4.57000000000E+09 +7.91233049450E-03 +5.36535022135E-01 +2.70988422905E-03 -7.19493676495E-03 +2.43014629888E-03 -6.96830873460E-03 -1.55422803041E-02 +6.17544864459E-01
