# Hz S RI R 50
! CMT, C1220, 16058040, 17.2.0/1
! Date: 15/08/2018 11:39:39
! Data: Format (Calibration Info)
! Freq                      S11: Re/Im (F2)                       S21: Re/Im (F2)                       S12: Re/Im (F2)                       S22: Re/Im (F2)            
4.00000000000E+09 +6.36693182775E-01 -3.35321520637E-01 -1.60460726890E-03 -2.96076677919E-03 -1.50798734428E-03 -3.13662073869E-03 +7.69631820132E-01 -3.54307261299E-01
4.00500000000E+09 +6.27703659412E-01 -3.41721127737E-01 -1.72013780861E-03 -2.91814327084E-03 -1.64743390602E-03 -3.05601951559E-03 +7.60825335846E-01 -3.65650396892E-01
4.01000000000E+09 +6.17851389488E-01 -3.47435094604E-01 -2.10951934118E-03 -2.98234470282E-03 -2.01590629416E-03 -3.09191084699E-03 +7.51089826895E-01 -3.76568353532E-01
4.01500000000E+09 +6.07084590350E-01 -3.52792289798E-01 -2.54858452491E-03 -2.65782134017E-03 -2.47601746970E-03 -2.81040597175E-03 +7.41348139418E-01 -3.86699458645E-01
4.02000000000E+09 +5.95605220840E-01 -3.59360613965E-01 -2.65152897134E-03 -2.59974102985E-03 -2.60634085819E-03 -2.76290539733E-03 +7.31672144347E-01 -3.96922549013E-01
4.02500000000E+09 +5.83266504751E-01 -3.66471344348E-01 -3.38644956151E-03 -2.50359576510E-03 -3.33211748523E-03 -2.71662757323E-03 +7.21404311443E-01 -4.07479124884E-01
4.03000000000E+09 +5.70932862546E-01 -3.74510333224E-01 -3.74845250927E-03 -1.75606440627E-03 -3.79423051693E-03 -1.97036089007E-03 +7.10799667702E-01 -4.17747239821E-01
4.03500000000E+09 +5.58081874367E-01 -3.83867569272E-01 -3.62875697160E-03 -1.29400310575E-03 -3.72235617835E-03 -1.46709471027E-03 +6.99534158548E-01 -4.28582046068E-01
4.04000000000E+09 +5.45245561529E-01 -3.93135324591E-01 -3.85565860030E-03 -8.79972688826E-04 -3.91165375818E-03 -1.08131174981E-03 +6.87752322582E-01 -4.39198317609E-01
4.04500000000E+09 +5.32529325158E-01 -4.02554464475E-01 -3.66655266415E-03 -5.10856819683E-04 -3.75179527237E-03 -7.22592981415E-04 +6.76212896930E-01 -4.49204364892E-01
4.05000000000E+09 +5.19549559829E-01 -4.10894977537E-01 -3.78406635638E-03 -4.41113327621E-04 -3.93798113028E-03 -6.32064357222E-04 +6.64708211674E-01 -4.59627904188E-01
4.05500000000E+09 +5.05795317325E-01 -4.17668964823E-01 -4.06696228133E-03 -6.25226802344E-05 -4.30460774810E-03 -1.96031549154E-04 +6.52122709540E-01 -4.69623482639E-01
4.06000000000E+09 +4.92295391134E-01 -4.22394699015E-01 -4.19015916341E-03 +4.62756580814E-04 -4.44981837000E-03 +4.18123280846E-04 +6.39470132100E-01 -4.78911686681E-01
4.06500000000E+09 +4.78371891608E-01 -4.26197231269E-01 -3.90591246979E-03 +1.17197111350E-03 -4.02348134696E-03 +1.15206470260E-03 +6.25988927499E-01 -4.88132606390E-01
4.07000000000E+09 +4.63865617839E-01 -4.29362037848E-01 -3.64927219872E-03 +1.24656557720E-03 -3.79738614856E-03 +1.24686950724E-03 +6.12057303693E-01 -4.97413611465E-01
4.07500000000E+09 +4.48548378179E-01 -4.32723822569E-01 -3.51339855429E-03 +1.56233829483E-03 -3.65540897894E-03 +1.48263739236E-03 +5.98297850508E-01 -5.06984796198E-01
4.08000000000E+09 +4.32190199490E-01 -4.36297228488E-01 -3.44777092429E-03 +1.66403924846E-03 -3.65067596399E-03 +1.58125874006E-03 +5.83510130687E-01 -5.16871779736E-01
4.08500000000E+09 +4.14813275062E-01 -4.40541073268E-01 -3.52566541842E-03 +1.86807373564E-03 -3.71506917175E-03 +1.83371865100E-03 +5.68680697369E-01 -5.25283149788E-01
4.09000000000E+09 +3.97014793173E-01 -4.44378848556E-01 -3.48762407299E-03 +2.24156844931E-03 -3.65163581013E-03 +2.27452455082E-03 +5.53702601551E-01 -5.33305297465E-01
4.09500000000E+09 +3.79588218319E-01 -4.48339851153E-01 -3.61595724827E-03 +2.63234941317E-03 -3.73270638823E-03 +2.72308363708E-03 +5.38414455137E-01 -5.40491725671E-01
4.10000000000E+09 +3.62504402687E-01 -4.52288556152E-01 -3.29368306263E-03 +3.13768401472E-03 -3.41941940711E-03 +3.18516042550E-03 +5.23099649656E-01 -5.47488560679E-01
4.10500000000E+09 +3.45929207004E-01 -4.55489459945E-01 -3.11628597007E-03 +3.62185913248E-03 -3.21462195893E-03 +3.59612875018E-03 +5.06099205355E-01 -5.55147738991E-01
4.11000000000E+09 +3.28996858030E-01 -4.57486569510E-01 -2.71646637870E-03 +4.08475896305E-03 -2.84831763897E-03 +4.15210057294E-03 +4.88647747875E-01 -5.61902508421E-01
4.11500000000E+09 +3.12795158941E-01 -4.57916518840E-01 -1.95754601313E-03 +4.21929790898E-03 -2.14921242707E-03 +4.33714977217E-03 +4.71914732211E-01 -5.68572729716E-01
4.12000000000E+09 +2.95997829143E-01 -4.57551258726E-01 -1.92821769920E-03 +4.21648017580E-03 -2.04312159657E-03 +4.28064883255E-03 +4.54445660506E-01 -5.75880543878E-01
4.12500000000E+09 +2.78768485311E-01 -4.56233618531E-01 -1.90747958822E-03 +4.55213966441E-03 -2.07158899614E-03 +4.60214764976E-03 +4.36619080773E-01 -5.81766986890E-01
4.13000000000E+09 +2.61356976004E-01 -4.54407732645E-01 -1.38478747288E-03 +5.19931545727E-03 -1.52780535103E-03 +5.29207234710E-03 +4.18260114621E-01 -5.87132841821E-01
4.13500000000E+09 +2.43480543771E-01 -4.53084832606E-01 -8.82161420880E-04 +5.38710738439E-03 -1.11288493031E-03 +5.44682390304E-03 +3.99725743354E-01 -5.91697886137E-01
4.14000000000E+09 +2.25209408638E-01 -4.52844229539E-01 -3.66525394076E-04 +5.92003062428E-03 -5.32004840242E-04 +6.09538601031E-03 +3.80298228502E-01 -5.96064750124E-01
4.14500000000E+09 +2.06617859283E-01 -4.53176797127E-01 +7.97845507009E-04 +6.32422921805E-03 +6.66758392900E-04 +6.59663237970E-03 +3.61060580388E-01 -6.00072772759E-01
4.15000000000E+09 +1.88049602258E-01 -4.55106500704E-01 +1.75580510973E-03 +5.77084676433E-03 +1.74639793231E-03 +6.06110934161E-03 +3.42204901773E-01 -6.04895312167E-01
4.15500000000E+09 +1.68334310132E-01 -4.56146152429E-01 +2.37791295432E-03 +5.30329772411E-03 +2.35369452285E-03 +5.44194148986E-03 +3.21889965074E-01 -6.09319419824E-01
4.16000000000E+09 +1.49508938372E-01 -4.55695389336E-01 +2.65580451064E-03 +4.89358338656E-03 +2.62218510963E-03 +5.09065675198E-03 +3.01110224292E-01 -6.11220828111E-01
4.16500000000E+09 +1.31766072839E-01 -4.53205757325E-01 +2.70265620684E-03 +4.66153768848E-03 +2.63744254432E-03 +4.84827119724E-03 +2.81521030233E-01 -6.12395760896E-01
4.17000000000E+09 +1.15904719397E-01 -4.48348295068E-01 +3.10880049941E-03 +4.98245228660E-03 +3.04744730874E-03 +5.16830673255E-03 +2.60532634632E-01 -6.13050653499E-01
4.17500000000E+09 +1.01364820481E-01 -4.42850822983E-01 +3.86397536618E-03 +5.12517779504E-03 +3.86089383242E-03 +5.37087649672E-03 +2.39118701757E-01 -6.12946323598E-01
4.18000000000E+09 +8.63270111209E-02 -4.36585773024E-01 +5.02333122765E-03 +4.41444321484E-03 +5.12776985197E-03 +4.64964384923E-03 +2.17544311416E-01 -6.12828045990E-01
4.18500000000E+09 +7.01009085524E-02 -4.29100545048E-01 +5.36796302823E-03 +3.75368728325E-03 +5.53377072952E-03 +3.93827493022E-03 +1.94872246335E-01 -6.11874588283E-01
4.19000000000E+09 +5.36652094206E-02 -4.20574844534E-01 +5.81381693900E-03 +3.24270098021E-03 +5.95913983271E-03 +3.49232209400E-03 +1.73774727052E-01 -6.09762535391E-01
4.19500000000E+09 +3.60958854418E-02 -4.11825081794E-01 +6.19946774292E-03 +2.54818052860E-03 +6.35073092712E-03 +2.74968193875E-03 +1.52504231696E-01 -6.07581360171E-01
4.20000000000E+09 +1.86033036937E-02 -4.02955682765E-01 +6.36023924254E-03 +1.82371408649E-03 +6.54752520762E-03 +1.98078590617E-03 +1.30536519089E-01 -6.05216114926E-01
4.20500000000E+09 +2.14238807293E-03 -3.95335524627E-01 +6.40199292519E-03 +1.12457584539E-03 +6.62298866793E-03 +1.27624685257E-03 +1.07700675359E-01 -6.01742003243E-01
4.21000000000E+09 -1.43148858032E-02 -3.88587076694E-01 +6.49730346294E-03 +4.32116004998E-04 +6.69991183943E-03 +5.01996035395E-04 +8.43911147274E-02 -5.96488869494E-01
4.21500000000E+09 -3.04232921114E-02 -3.81916849713E-01 +6.32043574331E-03 +2.84120525345E-04 +6.49764221793E-03 +3.26696221124E-04 +6.22442696246E-02 -5.91367240345E-01
4.22000000000E+09 -4.59873320046E-02 -3.73869934910E-01 +6.80155700247E-03 +1.73984146288E-04 +6.99835645436E-03 +2.40687161853E-04 +3.96457494757E-02 -5.85522501237E-01
4.22500000000E+09 -5.96689018628E-02 -3.64324022268E-01 +7.68341890364E-03 -9.76447171978E-04 +7.91294624330E-03 -8.60679995593E-04 +1.70720105718E-02 -5.79010965992E-01
4.23000000000E+09 -7.22103063804E-02 -3.53401769310E-01 +7.54166942902E-03 -2.45823460381E-03 +7.78070087510E-03 -2.44722595231E-03 -5.21624190059E-03 -5.70992811068E-01
4.23500000000E+09 -8.41383460438E-02 -3.41187498476E-01 +6.86953413250E-03 -3.45187655475E-03 +7.06249012074E-03 -3.52910777171E-03 -2.66822119391E-02 -5.61431706895E-01
4.24000000000E+09 -9.66661815726E-02 -3.28017369263E-01 +6.23692326918E-03 -4.02662866470E-03 +6.43034371803E-03 -4.07840288956E-03 -4.76724268373E-02 -5.51530854790E-01
4.24500000000E+09 -1.09717284332E-01 -3.13876421333E-01 +5.77818887069E-03 -4.19831411253E-03 +5.92226449512E-03 -4.23846188734E-03 -6.84787099833E-02 -5.41756413564E-01
4.25000000000E+09 -1.23863784912E-01 -2.99202619001E-01 +5.91739436151E-03 -4.78036120515E-03 +6.08106564259E-03 -4.91706543413E-03 -9.09409289097E-02 -5.30711425586E-01
4.25500000000E+09 -1.38721225941E-01 -2.85477259111E-01 +5.33769309024E-03 -5.99116332408E-03 +5.45328499686E-03 -6.09121888768E-03 -1.13103401986E-01 -5.18409473714E-01
4.26000000000E+09 -1.55240173505E-01 -2.72487678250E-01 +4.38967337579E-03 -6.37684712529E-03 +4.51959984895E-03 -6.52137189101E-03 -1.34044817818E-01 -5.03858074903E-01
4.26500000000E+09 -1.72102761774E-01 -2.59745333651E-01 +4.03527290916E-03 -6.40857718138E-03 +4.08164176031E-03 -6.59518927929E-03 -1.53745638280E-01 -4.89103246948E-01
4.27000000000E+09 -1.88048126665E-01 -2.46861443391E-01 +3.61117359813E-03 -7.31417995522E-03 +3.65351888319E-03 -7.39712674954E-03 -1.72924831467E-01 -4.73689109207E-01
4.27500000000E+09 -2.02830740184E-01 -2.34058392578E-01 +2.66182698859E-03 -7.85186026961E-03 +2.67602945258E-03 -8.01563906904E-03 -1.93177842768E-01 -4.57341380705E-01
4.28000000000E+09 -2.14957416548E-01 -2.20127230977E-01 +1.88448376531E-03 -8.14028312046E-03 +1.89363357542E-03 -8.25719070154E-03 -2.11883858450E-01 -4.40398213091E-01
4.28500000000E+09 -2.24066660725E-01 -2.06376465803E-01 +1.06449924619E-03 -8.79105480130E-03 +1.08113538101E-03 -8.87220492800E-03 -2.31340651318E-01 -4.23632495975E-01
4.29000000000E+09 -2.31811315905E-01 -1.92516842472E-01 -5.45140254257E-04 -9.02086451524E-03 -5.98826862149E-04 -9.20745368508E-03 -2.48946326911E-01 -4.04666626249E-01
4.29500000000E+09 -2.39686273994E-01 -1.77779186823E-01 -1.77027275338E-03 -8.15708176251E-03 -1.80863992616E-03 -8.34287628601E-03 -2.64039378888E-01 -3.87533235431E-01
4.30000000000E+09 -2.48011108009E-01 -1.61040672515E-01 -2.53454358703E-03 -7.74521650643E-03 -2.56143252329E-03 -7.90315254383E-03 -2.80673734800E-01 -3.69631322899E-01
4.30500000000E+09 -2.56074039388E-01 -1.42799294454E-01 -2.82154850942E-03 -7.05605847844E-03 -2.88839101021E-03 -7.14304995727E-03 -2.96607401286E-01 -3.48841470795E-01
4.31000000000E+09 -2.64669971208E-01 -1.22963332727E-01 -2.79461274180E-03 -7.02989911272E-03 -2.85899504341E-03 -7.16272743204E-03 -3.11577414916E-01 -3.28078080146E-01
4.31500000000E+09 -2.72041831503E-01 -1.03513148608E-01 -3.50859672135E-03 -7.35018968298E-03 -3.54665029598E-03 -7.52370320610E-03 -3.25298343865E-01 -3.05772556648E-01
4.32000000000E+09 -2.79186679418E-01 -8.49082233973E-02 -4.39334427116E-03 -7.30560387453E-03 -4.52576309630E-03 -7.48313038396E-03 -3.37889727619E-01 -2.84489646216E-01
4.32500000000E+09 -2.85404182099E-01 -6.89715741908E-02 -5.89497570972E-03 -7.10313558695E-03 -6.06575663401E-03 -7.20890147669E-03 -3.50576021710E-01 -2.62819724664E-01
4.33000000000E+09 -2.92288683844E-01 -5.36686393193E-02 -6.50362778390E-03 -6.41669185057E-03 -6.66030827635E-03 -6.43908634556E-03 -3.62609775714E-01 -2.39022498571E-01
4.33500000000E+09 -2.97829143124E-01 -3.78249949219E-02 -7.69084852687E-03 -5.69286262313E-03 -7.87929981118E-03 -5.70020166729E-03 -3.72325926041E-01 -2.13999198988E-01
4.34000000000E+09 -3.01064806662E-01 -2.14569568987E-02 -8.46940829863E-03 -4.22430731409E-03 -8.62038765939E-03 -4.16375250706E-03 -3.80195850903E-01 -1.89621583399E-01
4.34500000000E+09 -3.01553873365E-01 -5.06096626410E-03 -8.11351889288E-03 -2.92027848044E-03 -8.13714943716E-03 -2.88968697041E-03 -3.89097389248E-01 -1.67173812405E-01
4.35000000000E+09 -3.01327804915E-01 +1.21350785310E-02 -8.12921187806E-03 -2.83108533052E-03 -8.25081503825E-03 -2.80869910407E-03 -3.99079114710E-01 -1.42330743021E-01
4.35500000000E+09 -2.99726994314E-01 +3.02530963699E-02 -8.74504928606E-03 -2.18576667671E-03 -8.90155802563E-03 -2.15648084068E-03 -4.06244798544E-01 -1.16142431246E-01
4.36000000000E+09 -2.98827841817E-01 +4.88163456728E-02 -8.72087127094E-03 -1.52121433898E-03 -8.82030358988E-03 -1.45190415261E-03 -4.11261915588E-01 -9.16145919904E-02
4.36500000000E+09 -2.98323277922E-01 +6.85017074056E-02 -9.79349515246E-03 -1.40210246675E-03 -9.98564725158E-03 -1.26537404026E-03 -4.14998575842E-01 -6.76453234360E-02
4.37000000000E+09 -2.99144702881E-01 +8.81949656517E-02 -1.09087848682E-02 +5.09086131596E-04 -1.10073315059E-02 +6.74989987554E-04 -4.18196891968E-01 -4.37658420270E-02
4.37500000000E+09 -3.00055031695E-01 +1.07991044160E-01 -1.05218166716E-02 +2.80826040263E-03 -1.06057838061E-02 +2.94081692626E-03 -4.20425087561E-01 -1.95231643560E-02
4.38000000000E+09 -3.01535786662E-01 +1.26134699910E-01 -9.73271724257E-03 +3.80740571622E-03 -9.84640710658E-03 +4.04369827474E-03 -4.22453062095E-01 +6.80929769723E-03
4.38500000000E+09 -3.02203991912E-01 +1.43149723724E-01 -8.85086400598E-03 +4.92637642239E-03 -8.92273561274E-03 +5.13019900878E-03 -4.21485587900E-01 +3.25074350239E-02
4.39000000000E+09 -3.01807507703E-01 +1.58375303048E-01 -7.95923235108E-03 +5.65763636855E-03 -7.93293719486E-03 +5.80416102141E-03 -4.20872808637E-01 +5.63065005505E-02
4.39500000000E+09 -3.00248732722E-01 +1.72096988612E-01 -7.89314600943E-03 +5.76452844267E-03 -7.78614823515E-03 +6.00130732672E-03 -4.20341447488E-01 +8.00044921736E-02
4.40000000000E+09 -2.96909323677E-01 +1.85761326662E-01 -7.26107332279E-03 +7.32530621156E-03 -7.19236532831E-03 +7.44471290049E-03 -4.19307456899E-01 +1.03997829771E-01
4.40500000000E+09 -2.92277031284E-01 +1.98834118352E-01 -6.38852983938E-03 +8.19792926262E-03 -6.32682248188E-03 +8.37112125910E-03 -4.15664330238E-01 +1.28424136313E-01
4.41000000000E+09 -2.86384614017E-01 +2.13501703106E-01 -5.11975500971E-03 +8.39427343851E-03 -5.01750238896E-03 +8.55124554777E-03 -4.10536972349E-01 +1.52237327179E-01
4.41500000000E+09 -2.79226726673E-01 +2.29674041529E-01 -4.67506500694E-03 +9.36673524545E-03 -4.59236731465E-03 +9.52707214636E-03 -4.05149755585E-01 +1.75084673411E-01
4.42000000000E+09 -2.72235011436E-01 +2.46534232449E-01 -3.63593405827E-03 +9.64798419842E-03 -3.37757379590E-03 +9.77183893639E-03 -3.98406366474E-01 +1.98453423651E-01
4.42500000000E+09 -2.65589805039E-01 +2.64172071112E-01 -2.67723013314E-03 +1.07239734901E-02 -2.44184555159E-03 +1.07206393679E-02 -3.92970837206E-01 +2.19981044574E-01
4.43000000000E+09 -2.59727163197E-01 +2.81748380320E-01 -5.09087737232E-04 +1.10801893475E-02 -2.72690679174E-04 +1.10753366389E-02 -3.86051769964E-01 +2.43308344084E-01
4.43500000000E+09 -2.54197721181E-01 +2.98456563680E-01 +9.32896202356E-04 +1.03832957657E-02 +1.05621111050E-03 +1.02780724573E-02 -3.77091222890E-01 +2.64925770774E-01
4.44000000000E+09 -2.49715002231E-01 +3.12716009146E-01 +2.08814687322E-03 +9.49304518941E-03 +2.25783441174E-03 +9.37013247340E-03 -3.68595085486E-01 +2.84660691698E-01
4.44500000000E+09 -2.46024869708E-01 +3.25261057938E-01 +2.30105039150E-03 +9.19676553601E-03 +2.45718192971E-03 +9.09225780720E-03 -3.60248682280E-01 +3.04751359080E-01
4.45000000000E+09 -2.42396740401E-01 +3.36740820293E-01 +2.96355155414E-03 +8.88214946890E-03 +3.16808488114E-03 +8.80664122246E-03 -3.50416812526E-01 +3.24857384561E-01
4.45500000000E+09 -2.36357866171E-01 +3.47056658458E-01 +3.83564453759E-03 +9.34043253805E-03 +4.03731531358E-03 +9.21716303946E-03 -3.39795396470E-01 +3.44155314008E-01
4.46000000000E+09 -2.29239652136E-01 +3.56383311210E-01 +5.43952846868E-03 +8.70119785986E-03 +5.61327394317E-03 +8.50208827529E-03 -3.26923321940E-01 +3.63010500898E-01
4.46500000000E+09 -2.19489162710E-01 +3.66459535674E-01 +6.16718519133E-03 +7.76334410558E-03 +6.26945106771E-03 +7.51612446070E-03 -3.15004532150E-01 +3.78904148621E-01
4.47000000000E+09 -2.08062041213E-01 +3.76605426593E-01 +7.02363551809E-03 +7.04309128760E-03 +7.17298790594E-03 +6.81572344163E-03 -3.03789319372E-01 +3.95775560524E-01
4.47500000000E+09 -1.95417834025E-01 +3.87446557667E-01 +7.37908030621E-03 +6.16908868365E-03 +7.43389980620E-03 +5.90786187448E-03 -2.92184681485E-01 +4.13522344668E-01
4.48000000000E+09 -1.83301193514E-01 +3.98775624588E-01 +8.14683024874E-03 +5.36787768254E-03 +8.17678834956E-03 +5.12881674086E-03 -2.78989490383E-01 +4.30459771383E-01
4.48500000000E+09 -1.72529363939E-01 +4.11450161336E-01 +8.96450753971E-03 +4.74101753937E-03 +8.89367604858E-03 +4.38699579984E-03 -2.64934659383E-01 +4.45440224515E-01
4.49000000000E+09 -1.62502444845E-01 +4.24595846644E-01 +9.37714040206E-03 +2.73740445769E-03 +9.19672575744E-03 +2.54451241112E-03 -2.52215982387E-01 +4.59578963098E-01
4.49500000000E+09 -1.54020724771E-01 +4.37225509258E-01 +8.54829300691E-03 +1.94015088410E-03 +8.43186419018E-03 +1.81317443038E-03 -2.39219444692E-01 +4.74287299427E-01
4.50000000000E+09 -1.46325861104E-01 +4.48421347503E-01 +8.64882024728E-03 +1.79137754135E-03 +8.53290847566E-03 +1.68919586378E-03 -2.24723455623E-01 +4.88031782523E-01
4.50500000000E+09 -1.39824148932E-01 +4.58020738816E-01 +8.97686001181E-03 +1.11828651094E-03 +8.81142794376E-03 +1.05741879737E-03 -2.11093980562E-01 +5.01323261986E-01
4.51000000000E+09 -1.32363814548E-01 +4.65416487595E-01 +9.64972989680E-03 +3.05739262685E-04 +9.54558203248E-03 +1.87398154324E-04 -1.95343584599E-01 +5.13869482820E-01
4.51500000000E+09 -1.24871766628E-01 +4.70937266421E-01 +9.74189140260E-03 -9.64336709659E-04 +9.61209868299E-03 -1.14314297259E-03 -1.81287123866E-01 +5.24452082692E-01
4.52000000000E+09 -1.15883493390E-01 +4.75811103953E-01 +9.89917612873E-03 -2.62398134932E-03 +9.70442587558E-03 -2.72157205275E-03 -1.67937126767E-01 +5.35649130714E-01
4.52500000000E+09 -1.05346441878E-01 +4.79991068858E-01 +8.76020305276E-03 -3.71167940087E-03 +8.48517980610E-03 -3.79671812465E-03 -1.53636088353E-01 +5.46540319326E-01
4.53000000000E+09 -9.31968409246E-02 +4.85040357417E-01 +8.21898692740E-03 -4.37879612790E-03 +7.98537085950E-03 -4.44009594034E-03 -1.38738043057E-01 +5.55968881025E-01
4.53500000000E+09 -7.94978930097E-02 +4.91170249378E-01 +7.59166731918E-03 -5.16497112809E-03 +7.38033042080E-03 -5.23166369976E-03 -1.24224459814E-01 +5.65439572726E-01
4.54000000000E+09 -6.46600709816E-02 +4.97841699424E-01 +7.02572170873E-03 -5.61168062823E-03 +6.75365738547E-03 -5.69013576113E-03 -1.08215487966E-01 +5.74501600896E-01
4.54500000000E+09 -5.07683465149E-02 +5.04760943769E-01 +6.23264275507E-03 -6.32642164559E-03 +5.91168874415E-03 -6.30660212361E-03 -9.36972050388E-02 +5.83561296624E-01
4.55000000000E+09 -3.78059423857E-02 +5.12012958520E-01 +5.81995145688E-03 -6.90315862743E-03 +5.54149182216E-03 -6.84213929352E-03 -7.73563355871E-02 +5.92677970078E-01
4.55500000000E+09 -2.70432169429E-02 +5.18877719223E-01 +4.73584535489E-03 -7.24618547515E-03 +4.49792349269E-03 -7.14851683827E-03 -6.15917889547E-02 +6.00488454975E-01
4.56000000000E+09 -1.84521061255E-02 +5.26416981258E-01 +4.28504092833E-03 -7.63654964665E-03 +4.06141805100E-03 -7.55414430481E-03 -4.64071227789E-02 +6.06605165146E-01
4.56500000000E+09 -9.36281484090E-03 +5.33187622588E-01 +3.60034427697E-03 -8.17082177129E-03 +3.39136099611E-03 -8.02638371537E-03 -3.21849521124E-02 +6.13130775062E-01
4.57000000000E+09 -4.30382679452E-04 +5.38206502639E-01 +2.58335168123E-03 -8.72060997120E-03 +2.36394148933E-03 -8.57334344382E-03 -1.70910720907E-02 +6.19185374420E-01
