# Hz S RI R 50
! CMT, C1220, 16058040, 17.2.0/1
! Date: 15/08/2018 11:41:39
! Data: Format (Calibration Info)
! Freq                      S11: Re/Im (F2)                       S21: Re/Im (F2)                       S12: Re/Im (F2)                       S22: Re/Im (F2)            
4.00000000000E+09 +6.36080583072E-01 -3.38154762033E-01 -1.04063241742E-03 -2.72339212667E-03 -9.38514355581E-04 -2.81294743574E-03 +7.71010364655E-01 -3.53134879486E-01
4.00500000000E+09 +6.26949137407E-01 -3.44401067342E-01 -1.08878503793E-03 -2.68745294009E-03 -1.03309409502E-03 -2.84896741195E-03 +7.62359941270E-01 -3.64626217796E-01
4.01000000000E+09 +6.16674453781E-01 -3.49776947532E-01 -1.51766198486E-03 -2.92109728679E-03 -1.39026998413E-03 -3.00413148625E-03 +7.52494080933E-01 -3.75856404619E-01
4.01500000000E+09 +6.05800537981E-01 -3.54863956908E-01 -1.93213320343E-03 -2.63529566095E-03 -1.84221297482E-03 -2.71115600542E-03 +7.42609557097E-01 -3.85960311047E-01
4.02000000000E+09 +5.94543009528E-01 -3.61415829381E-01 -1.97792995909E-03 -2.64175602624E-03 -1.91772071064E-03 -2.72950717547E-03 +7.32961701230E-01 -3.96322755837E-01
4.02500000000E+09 +5.81811020900E-01 -3.68647787458E-01 -2.66473915460E-03 -2.63317548967E-03 -2.64682455005E-03 -2.80449301043E-03 +7.22527810446E-01 -4.06949067744E-01
4.03000000000E+09 +5.69486353752E-01 -3.76762326146E-01 -3.12384376799E-03 -2.04977760787E-03 -3.07987176728E-03 -2.24854610318E-03 +7.11722747958E-01 -4.17263637550E-01
4.03500000000E+09 +5.56355664965E-01 -3.86299323705E-01 -3.16316138054E-03 -1.68512766014E-03 -3.17992664839E-03 -1.79992411395E-03 +7.00206292341E-01 -4.28096784031E-01
4.04000000000E+09 +5.43417407258E-01 -3.95491261621E-01 -3.50361861724E-03 -1.29474987916E-03 -3.52004482324E-03 -1.48231533417E-03 +6.88416021740E-01 -4.38723873239E-01
4.04500000000E+09 +5.30954186521E-01 -4.04839255448E-01 -3.35715759783E-03 -8.22042607076E-04 -3.39341702501E-03 -1.00238749283E-03 +6.76772258531E-01 -4.48726015425E-01
4.05000000000E+09 +5.18044378811E-01 -4.13082588123E-01 -3.41702103209E-03 -7.18058116428E-04 -3.53143420823E-03 -9.33966003088E-04 +6.65168933783E-01 -4.58981272760E-01
4.05500000000E+09 +5.04399145533E-01 -4.19613427991E-01 -3.62901565250E-03 -3.73409779820E-04 -3.85578641547E-03 -5.17712829566E-04 +6.52713595935E-01 -4.68771228515E-01
4.06000000000E+09 +4.90831501914E-01 -4.24142721868E-01 -3.75467704221E-03 +4.18220021318E-05 -3.91351524309E-03 -8.88602712844E-05 +6.40151922041E-01 -4.78047596654E-01
4.06500000000E+09 +4.76834730072E-01 -4.27607227960E-01 -3.64285701120E-03 +5.83218327288E-04 -3.76078569525E-03 +5.28922817367E-04 +6.26521452952E-01 -4.87436530187E-01
4.07000000000E+09 +4.62245628822E-01 -4.30229517638E-01 -3.58321973659E-03 +7.81525944211E-04 -3.68272234554E-03 +7.25711600229E-04 +6.12474358257E-01 -4.96736981111E-01
4.07500000000E+09 +4.47058910748E-01 -4.33338496203E-01 -3.43070207143E-03 +1.09397958879E-03 -3.52185249376E-03 +1.00050260471E-03 +5.98504550234E-01 -5.06251416455E-01
4.08000000000E+09 +4.30487569292E-01 -4.36923278847E-01 -3.36388604363E-03 +1.28575831436E-03 -3.50284973260E-03 +1.18725873783E-03 +5.83772309779E-01 -5.16009203415E-01
4.08500000000E+09 +4.12900119652E-01 -4.41097141131E-01 -3.31353318757E-03 +1.44867145095E-03 -3.54970518018E-03 +1.47633068325E-03 +5.69017465897E-01 -5.24370649703E-01
4.09000000000E+09 +3.94709497535E-01 -4.44837022818E-01 -3.22053465703E-03 +1.85067202959E-03 -3.39913481656E-03 +1.84357709321E-03 +5.54084996756E-01 -5.32294768920E-01
4.09500000000E+09 +3.77284408635E-01 -4.48608090172E-01 -3.20815822492E-03 +2.07906072445E-03 -3.39279682474E-03 +2.17127772371E-03 +5.38968217002E-01 -5.39639338700E-01
4.10000000000E+09 +3.60301646612E-01 -4.52593833207E-01 -3.05284329896E-03 +2.34695743258E-03 -3.17363401468E-03 +2.29745270817E-03 +5.23321734131E-01 -5.46689078376E-01
4.10500000000E+09 +3.43538659572E-01 -4.55664357398E-01 -3.22958940381E-03 +2.67155470771E-03 -3.27468011967E-03 +2.72827635203E-03 +5.06225509674E-01 -5.54436598481E-01
4.11000000000E+09 +3.26702952166E-01 -4.57491249739E-01 -3.01817892200E-03 +3.37442545630E-03 -3.11611980879E-03 +3.38712254294E-03 +4.88583872560E-01 -5.61171513058E-01
4.11500000000E+09 +3.10474073088E-01 -4.57577158232E-01 -2.31429041977E-03 +3.73852707006E-03 -2.45477674221E-03 +3.77634490220E-03 +4.71302658985E-01 -5.67520538400E-01
4.12000000000E+09 +2.94023221968E-01 -4.56824246424E-01 -2.10445434644E-03 +3.80505619047E-03 -2.26300588432E-03 +3.86774764530E-03 +4.54186288494E-01 -5.74131517906E-01
4.12500000000E+09 +2.77138026565E-01 -4.55245778800E-01 -1.91429710184E-03 +4.00288141423E-03 -2.05758163485E-03 +4.04813017697E-03 +4.36574860532E-01 -5.79937924600E-01
4.13000000000E+09 +2.59772462338E-01 -4.53380602540E-01 -1.53736431201E-03 +4.26773491915E-03 -1.74096585532E-03 +4.37879769851E-03 +4.18531667066E-01 -5.85434349206E-01
4.13500000000E+09 +2.41851124422E-01 -4.52075582252E-01 -1.52841002843E-03 +4.49953125392E-03 -1.71110428181E-03 +4.56974591380E-03 +4.00013974787E-01 -5.90042558890E-01
4.14000000000E+09 +2.23163681429E-01 -4.51612157426E-01 -1.21471253340E-03 +5.27468710326E-03 -1.38315431051E-03 +5.37341825544E-03 +3.80238612412E-01 -5.94220373707E-01
4.14500000000E+09 +2.04475716854E-01 -4.51706410438E-01 -1.77493386941E-04 +5.95731753094E-03 -3.69172868692E-04 +6.12046382143E-03 +3.60971130914E-01 -5.97845011679E-01
4.15000000000E+09 +1.85988299014E-01 -4.53365489625E-01 +9.62585861402E-04 +5.78106201046E-03 +8.40882954755E-04 +5.99649208588E-03 +3.42675644694E-01 -6.02395429143E-01
4.15500000000E+09 +1.66496039033E-01 -4.54545219154E-01 +1.70161162790E-03 +5.22088990203E-03 +1.66690638384E-03 +5.41987094716E-03 +3.22658417323E-01 -6.06904816065E-01
4.16000000000E+09 +1.47760703439E-01 -4.53957936871E-01 +1.96153403338E-03 +4.90575272384E-03 +1.91434582960E-03 +5.06113510004E-03 +3.02038389610E-01 -6.08902604771E-01
4.16500000000E+09 +1.29952835232E-01 -4.51723614122E-01 +2.03919376095E-03 +4.77121685909E-03 +2.03978036188E-03 +4.90504856953E-03 +2.82843304168E-01 -6.09948052410E-01
4.17000000000E+09 +1.14089428127E-01 -4.46723739632E-01 +2.47643053774E-03 +5.14437903325E-03 +2.48223615339E-03 +5.32219116150E-03 +2.62077896048E-01 -6.10771331684E-01
4.17500000000E+09 +9.93866377795E-02 -4.40944572647E-01 +3.32442408018E-03 +5.21432271800E-03 +3.28156434630E-03 +5.42045615748E-03 +2.40861233998E-01 -6.11056999498E-01
4.18000000000E+09 +8.45785349192E-02 -4.34254723566E-01 +4.41332087950E-03 +4.60825378662E-03 +4.43530313448E-03 +4.79931224810E-03 +2.18939466579E-01 -6.10814291215E-01
4.18500000000E+09 +6.85321039484E-02 -4.26658455276E-01 +4.75138883999E-03 +3.96294199449E-03 +4.82336258254E-03 +4.19433732876E-03 +1.96471625990E-01 -6.09780957524E-01
4.19000000000E+09 +5.20261483765E-02 -4.18072594158E-01 +5.39496038549E-03 +3.69981353416E-03 +5.42620793059E-03 +3.88651272572E-03 +1.75549148310E-01 -6.07584909836E-01
4.19500000000E+09 +3.43824769469E-02 -4.09407337195E-01 +5.84552903615E-03 +2.98289862531E-03 +5.96082527184E-03 +3.12492383877E-03 +1.54426949526E-01 -6.05479096411E-01
4.20000000000E+09 +1.67222175255E-02 -4.00379449609E-01 +6.11030268684E-03 +2.09873033599E-03 +6.27841241529E-03 +2.29417660466E-03 +1.32621262711E-01 -6.03273671343E-01
4.20500000000E+09 +6.78877388460E-05 -3.92516283184E-01 +6.27503474104E-03 +1.35257136003E-03 +6.42899449722E-03 +1.51028410598E-03 +1.10010430110E-01 -5.99613584519E-01
4.21000000000E+09 -1.64569567555E-02 -3.85394911597E-01 +6.37571839600E-03 +3.79679692553E-04 +6.54203213918E-03 +5.32654006774E-04 +8.68892060764E-02 -5.94641337843E-01
4.21500000000E+09 -3.23716209516E-02 -3.78464602944E-01 +5.83220229000E-03 +3.12342600860E-04 +5.97734837000E-03 +3.68388418805E-04 +6.51159461546E-02 -5.89772188779E-01
4.22000000000E+09 -4.76141748060E-02 -3.70204616759E-01 +6.25680241800E-03 +4.39931360299E-04 +6.36098727473E-03 +5.48198762868E-04 +4.25865402206E-02 -5.84170040295E-01
4.22500000000E+09 -6.13511727112E-02 -3.60182490115E-01 +7.24828709644E-03 -5.35083818973E-04 +7.41554221590E-03 -5.21566458371E-04 +1.98856285496E-02 -5.77926566356E-01
4.23000000000E+09 -7.35195610629E-02 -3.48589009856E-01 +7.22894485131E-03 -2.24914271812E-03 +7.45051776852E-03 -2.20742351927E-03 -2.26695288555E-03 -5.69707168209E-01
4.23500000000E+09 -8.52127313668E-02 -3.35936160179E-01 +6.32228299134E-03 -3.21446537686E-03 +6.47845027595E-03 -3.26154431979E-03 -2.34885393904E-02 -5.60349438231E-01
4.24000000000E+09 -9.75715388027E-02 -3.22163114087E-01 +5.72028227948E-03 -3.56256224971E-03 +5.81514316838E-03 -3.57174137146E-03 -4.41624518518E-02 -5.50703540076E-01
4.24500000000E+09 -1.10640746418E-01 -3.07602721028E-01 +5.31674972188E-03 -3.62687800952E-03 +5.42812068628E-03 -3.70336918323E-03 -6.48783229329E-02 -5.41623639240E-01
4.25000000000E+09 -1.25016065608E-01 -2.92453444829E-01 +5.42072092343E-03 -4.17431290722E-03 +5.54164994722E-03 -4.21031758786E-03 -8.75959336725E-02 -5.30856252410E-01
4.25500000000E+09 -1.40412160970E-01 -2.78187321777E-01 +4.96210184529E-03 -5.16766555097E-03 +5.07667805340E-03 -5.23073043679E-03 -1.09674808078E-01 -5.18664353723E-01
4.26000000000E+09 -1.56766979601E-01 -2.64196747326E-01 +4.25581380930E-03 -5.65170045490E-03 +4.38116410072E-03 -5.77269897390E-03 -1.30544231682E-01 -5.04495118179E-01
4.26500000000E+09 -1.73322932733E-01 -2.51558436192E-01 +3.70718845874E-03 -5.60337245630E-03 +3.79771961948E-03 -5.70588377613E-03 -1.50364178591E-01 -4.89883460152E-01
4.27000000000E+09 -1.89009463657E-01 -2.38585456322E-01 +3.51869141022E-03 -6.23409401758E-03 +3.60574700760E-03 -6.36003394891E-03 -1.69687294635E-01 -4.74884179268E-01
4.27500000000E+09 -2.03468653644E-01 -2.26162442025E-01 +2.79549251926E-03 -6.73580057497E-03 +2.86088603551E-03 -6.97238136170E-03 -1.90151129737E-01 -4.58807530847E-01
4.28000000000E+09 -2.15388553689E-01 -2.12202359324E-01 +2.31040416582E-03 -7.23843175635E-03 +2.26281800873E-03 -7.46925054723E-03 -2.09222377786E-01 -4.42361626471E-01
4.28500000000E+09 -2.24019852083E-01 -1.98368835881E-01 +1.44240242419E-03 -8.09096706527E-03 +1.40137710114E-03 -8.20634340400E-03 -2.28947354714E-01 -4.25558500457E-01
4.29000000000E+09 -2.31471202807E-01 -1.84307511159E-01 -2.70230771838E-04 -8.28504175563E-03 -3.41396229112E-04 -8.43740364763E-03 -2.46619879149E-01 -4.06791334278E-01
4.29500000000E+09 -2.38599360333E-01 -1.69297306593E-01 -1.35175214043E-03 -7.29825742777E-03 -1.40235229397E-03 -7.41832227532E-03 -2.62177767017E-01 -3.89969790859E-01
4.30000000000E+09 -2.46252130185E-01 -1.52077040953E-01 -1.70452364006E-03 -6.86134731733E-03 -1.84565178858E-03 -7.02826004163E-03 -2.79199872998E-01 -3.71957629454E-01
4.30500000000E+09 -2.53828416741E-01 -1.33708749500E-01 -1.87942874318E-03 -6.49077332404E-03 -1.97435811226E-03 -6.63017167715E-03 -2.95440288122E-01 -3.51187318654E-01
4.31000000000E+09 -2.62026219758E-01 -1.13287658233E-01 -1.99020345355E-03 -6.90243084212E-03 -2.15754334466E-03 -6.97238866798E-03 -3.10324243216E-01 -3.30217177568E-01
4.31500000000E+09 -2.69143825623E-01 -9.37275466719E-02 -2.95032384894E-03 -7.16644872284E-03 -3.06601783568E-03 -7.24771229180E-03 -3.24340603236E-01 -3.08440339756E-01
4.32000000000E+09 -2.75940785535E-01 -7.49341269677E-02 -4.00085399980E-03 -7.10240209088E-03 -4.13352270971E-03 -7.23833992356E-03 -3.37841098396E-01 -2.87032689125E-01
4.32500000000E+09 -2.82131068712E-01 -5.89102793824E-02 -5.53143378190E-03 -6.50894822180E-03 -5.72281818952E-03 -6.55117179950E-03 -3.50645619669E-01 -2.64763838647E-01
4.33000000000E+09 -2.89081627038E-01 -4.35983121780E-02 -5.75606007023E-03 -5.69299475718E-03 -5.91565387263E-03 -5.69528311383E-03 -3.62401574164E-01 -2.40872787177E-01
4.33500000000E+09 -2.94283121076E-01 -2.74669025555E-02 -6.60927939641E-03 -5.20439075352E-03 -6.73105129550E-03 -5.08231587087E-03 -3.72266769276E-01 -2.15945144545E-01
4.34000000000E+09 -2.96615193608E-01 -1.09011812577E-02 -7.39008129694E-03 -4.10692754539E-03 -7.42401402922E-03 -4.04011646465E-03 -3.80271089458E-01 -1.91772696687E-01
4.34500000000E+09 -2.96231324329E-01 +4.93396079145E-03 -7.20043278726E-03 -2.83188952680E-03 -7.23223131415E-03 -2.79198554519E-03 -3.89727263774E-01 -1.69044585759E-01
4.35000000000E+09 -2.95549882887E-01 +2.17089071579E-02 -7.13416719094E-03 -2.68336548311E-03 -7.15683788734E-03 -2.68246736718E-03 -3.99836747127E-01 -1.43887812457E-01
4.35500000000E+09 -2.93670818530E-01 +3.96812351304E-02 -7.78926679666E-03 -2.15642021432E-03 -7.90226220600E-03 -2.16968395808E-03 -4.07161515200E-01 -1.17607952299E-01
4.36000000000E+09 -2.92844983194E-01 +5.84748218170E-02 -7.51257972824E-03 -1.56557239703E-03 -7.61140477784E-03 -1.46527697517E-03 -4.12326582859E-01 -9.27958960183E-02
4.36500000000E+09 -2.91558200744E-01 +7.89695725620E-02 -8.64477156541E-03 -1.58052878115E-03 -8.72319808182E-03 -1.49161769418E-03 -4.16330840945E-01 -6.86110623748E-02
4.37000000000E+09 -2.91359863227E-01 +9.90211314211E-02 -9.49264016587E-03 +2.82025301925E-04 -9.57613498580E-03 +3.58012660685E-04 -4.19407270021E-01 -4.43478614082E-02
4.37500000000E+09 -2.91502662636E-01 +1.18533379042E-01 -9.01833595445E-03 +2.09025395658E-03 -9.10932973524E-03 +2.24417574225E-03 -4.21394395270E-01 -1.97294331618E-02
4.38000000000E+09 -2.92778624724E-01 +1.36541367856E-01 -8.39468742608E-03 +2.73948183354E-03 -8.50232946455E-03 +2.84089113145E-03 -4.23164220089E-01 +6.33228256719E-03
4.38500000000E+09 -2.93373108653E-01 +1.53172996961E-01 -7.93432776973E-03 +3.53558287147E-03 -8.00437575896E-03 +3.66170524342E-03 -4.22476254663E-01 +3.18616339964E-02
4.39000000000E+09 -2.93089511360E-01 +1.68669473665E-01 -7.38439114384E-03 +4.21243543429E-03 -7.44754209587E-03 +4.37806784680E-03 -4.22405344325E-01 +5.60841369466E-02
4.39500000000E+09 -2.91139366123E-01 +1.82555982486E-01 -7.51201048597E-03 +4.69149700147E-03 -7.57706544814E-03 +4.93496254060E-03 -4.21905750420E-01 +8.04382847967E-02
4.40000000000E+09 -2.87101626594E-01 +1.96000703664E-01 -6.75944563117E-03 +6.10771830593E-03 -6.73424446403E-03 +6.23482831874E-03 -4.20199988563E-01 +1.05065920610E-01
4.40500000000E+09 -2.81956011290E-01 +2.08743284859E-01 -6.11206217299E-03 +6.86652591970E-03 -6.09919723419E-03 +7.04173651291E-03 -4.15996507427E-01 +1.29103635870E-01
4.41000000000E+09 -2.75939107389E-01 +2.23138755301E-01 -4.93280939157E-03 +6.99462078931E-03 -4.85924703441E-03 +7.16208286663E-03 -4.11089689125E-01 +1.52676831616E-01
4.41500000000E+09 -2.68443154229E-01 +2.39077051376E-01 -4.77581685845E-03 +7.91621451331E-03 -4.69001943801E-03 +8.10597793504E-03 -4.05662460938E-01 +1.75731628537E-01
4.42000000000E+09 -2.61129634995E-01 +2.56192555759E-01 -3.94284874030E-03 +8.25779263108E-03 -3.78317033618E-03 +8.38473710912E-03 -3.98831459796E-01 +1.99259701436E-01
4.42500000000E+09 -2.53600227030E-01 +2.73500571871E-01 -3.20775180082E-03 +9.61156340362E-03 -2.97135624073E-03 +9.64868041205E-03 -3.93143912439E-01 +2.20956990226E-01
4.43000000000E+09 -2.47551120283E-01 +2.90551672912E-01 -9.63942284166E-04 +1.00016958354E-02 -7.05952479222E-04 +9.95220225180E-03 -3.85922552184E-01 +2.44268779026E-01
4.43500000000E+09 -2.41856895596E-01 +3.06565551279E-01 +2.14977204987E-04 +9.23078440020E-03 +4.03291987158E-04 +9.14428518702E-03 -3.76819537838E-01 +2.65925050779E-01
4.44000000000E+09 -2.37812494932E-01 +3.20455522597E-01 +1.28095506012E-03 +8.53940061035E-03 +1.40593819470E-03 +8.41476521682E-03 -3.68052388337E-01 +2.85670211019E-01
4.44500000000E+09 -2.33703172012E-01 +3.33155636059E-01 +1.44927416558E-03 +8.44857445147E-03 +1.65109200313E-03 +8.40723253565E-03 -3.59513032322E-01 +3.05609704631E-01
4.45000000000E+09 -2.29378105316E-01 +3.43983352146E-01 +2.10654216619E-03 +8.16051565276E-03 +2.33853274195E-03 +8.07593908403E-03 -3.49617648179E-01 +3.25445911885E-01
4.45500000000E+09 -2.22785164333E-01 +3.53728093231E-01 +2.95479923960E-03 +8.64858021241E-03 +3.12469805741E-03 +8.52399314423E-03 -3.38809634769E-01 +3.44555957778E-01
4.46000000000E+09 -2.15259738541E-01 +3.62214173545E-01 +4.42204642370E-03 +8.03582277620E-03 +4.59165457098E-03 +7.83028456352E-03 -3.26060060107E-01 +3.63218937562E-01
4.46500000000E+09 -2.05405189034E-01 +3.71690308972E-01 +5.10179085860E-03 +7.15038064416E-03 +5.22494837860E-03 +6.96055858582E-03 -3.14214204492E-01 +3.79181929077E-01
4.47000000000E+09 -1.94081088300E-01 +3.81682071452E-01 +5.69070992795E-03 +6.65606770843E-03 +5.77485666522E-03 +6.42459659661E-03 -3.02790076015E-01 +3.96248288445E-01
4.47500000000E+09 -1.81116290392E-01 +3.93046824994E-01 +6.14025947134E-03 +6.20377530901E-03 +6.22712591970E-03 +5.99042040821E-03 -2.90669476431E-01 +4.13870589773E-01
4.48000000000E+09 -1.68577979408E-01 +4.04319102157E-01 +7.21827358383E-03 +5.41835557774E-03 +7.23259968840E-03 +5.14907308691E-03 -2.77623481963E-01 +4.29985602916E-01
4.48500000000E+09 -1.57412788854E-01 +4.16819842713E-01 +7.84934708145E-03 +4.64793420445E-03 +7.79557978726E-03 +4.43209775219E-03 -2.63993680028E-01 +4.45019891257E-01
4.49000000000E+09 -1.47772832800E-01 +4.29385443477E-01 +8.27065733500E-03 +2.77567988796E-03 +8.10111427535E-03 +2.61275942771E-03 -2.51190483042E-01 +4.59278023741E-01
4.49500000000E+09 -1.40046992890E-01 +4.41782967339E-01 +7.49943815655E-03 +2.19640211059E-03 +7.39744146038E-03 +2.04102235459E-03 -2.38121199742E-01 +4.73794377103E-01
4.50000000000E+09 -1.33089454814E-01 +4.52564887760E-01 +7.61870644489E-03 +2.05981907057E-03 +7.53465078289E-03 +1.93887686218E-03 -2.23574691396E-01 +4.87449446051E-01
4.50500000000E+09 -1.27219861241E-01 +4.61952806765E-01 +8.02738682347E-03 +1.56912771128E-03 +7.96749925509E-03 +1.49482425594E-03 -2.09749742207E-01 +5.00600137689E-01
4.51000000000E+09 -1.19999867498E-01 +4.68878953671E-01 +8.70507248227E-03 +7.26452986348E-04 +8.61811051683E-03 +5.67362844922E-04 -1.94190720285E-01 +5.12731998926E-01
4.51500000000E+09 -1.12445622169E-01 +4.73725285856E-01 +8.79992342735E-03 -5.13108856691E-04 +8.70073198867E-03 -6.32207323239E-04 -1.80360306465E-01 +5.23324026045E-01
4.52000000000E+09 -1.03240460540E-01 +4.77916064420E-01 +8.80719692714E-03 -2.06489680052E-03 +8.65169565033E-03 -2.16586125364E-03 -1.66833271547E-01 +5.34260598629E-01
4.52500000000E+09 -9.22575668101E-02 +4.81784987988E-01 +7.78510407963E-03 -2.81189528333E-03 +7.62821480759E-03 -2.95975945867E-03 -1.52917285488E-01 +5.44850880688E-01
4.53000000000E+09 -7.93874039005E-02 +4.86191767316E-01 +7.47966227930E-03 -3.34234488186E-03 +7.29735642095E-03 -3.38862792222E-03 -1.38284370554E-01 +5.54523683601E-01
4.53500000000E+09 -6.52675260345E-02 +4.91740876515E-01 +7.07421043213E-03 -4.18566500149E-03 +6.91180642245E-03 -4.20241407065E-03 -1.23658961993E-01 +5.63911823652E-01
4.54000000000E+09 -5.03260225557E-02 +4.98330984346E-01 +6.58711009481E-03 -4.78831928385E-03 +6.32719584822E-03 -4.79888986953E-03 -1.07606127053E-01 +5.72825507426E-01
4.54500000000E+09 -3.63990884282E-02 +5.05566139939E-01 +5.80685653147E-03 -5.28652316608E-03 +5.59713013940E-03 -5.25807412544E-03 -9.29907918685E-02 +5.81553052941E-01
4.55000000000E+09 -2.36599350718E-02 +5.13196131095E-01 +5.49917643869E-03 -5.83944443228E-03 +5.24813866846E-03 -5.83842292727E-03 -7.73193825748E-02 +5.90245931279E-01
4.55500000000E+09 -1.30905653524E-02 +5.20952107442E-01 +4.57826755499E-03 -5.94032487859E-03 +4.41906222371E-03 -5.91121613935E-03 -6.18819241612E-02 +5.98325677576E-01
4.56000000000E+09 -4.42823561610E-03 +5.28412535353E-01 +4.25776511109E-03 -6.57877013372E-03 +4.05362620627E-03 -6.50460247079E-03 -4.69103622461E-02 +6.04613917169E-01
4.56500000000E+09 +4.15581809659E-03 +5.34761018679E-01 +3.70685347162E-03 -7.07534068960E-03 +3.50982235684E-03 -6.95793444754E-03 -3.29722407314E-02 +6.11060698298E-01
4.57000000000E+09 +1.23005718015E-02 +5.39255269936E-01 +2.72620353661E-03 -7.69421520985E-03 +2.51734704744E-03 -7.56350724965E-03 -1.80051368485E-02 +6.17250228187E-01
