# Hz S RI R 50
! CMT, C1220, 16058040, 17.2.0/1
! Date: 15/08/2018 11:40:31
! Data: Format (Calibration Info)
! Freq                      S11: Re/Im (F2)                       S21: Re/Im (F2)                       S12: Re/Im (F2)                       S22: Re/Im (F2)            
4.00000000000E+09 +6.37294057774E-01 -3.33296228328E-01 -6.24917856245E-04 -2.31581294901E-03 -5.80381028543E-04 -2.44598210557E-03 +7.70153974837E-01 -3.53678252544E-01
4.00500000000E+09 +6.28152507901E-01 -3.39799207283E-01 -7.83912726497E-04 -2.33890454626E-03 -7.09759967079E-04 -2.46884315524E-03 +7.61665733472E-01 -3.65154111332E-01
4.01000000000E+09 +6.18161029004E-01 -3.45205903751E-01 -1.01532128513E-03 -2.48947676598E-03 -9.61773873971E-04 -2.56027108949E-03 +7.52060151854E-01 -3.76283216811E-01
4.01500000000E+09 +6.07703388305E-01 -3.50590816607E-01 -1.26975569536E-03 -2.21707845274E-03 -1.24934279218E-03 -2.27837337019E-03 +7.42327189089E-01 -3.86628778421E-01
4.02000000000E+09 +5.96372149264E-01 -3.57288826952E-01 -1.30311912230E-03 -2.33814690828E-03 -1.20370600122E-03 -2.43327742976E-03 +7.32738681229E-01 -3.97143709462E-01
4.02500000000E+09 +5.83670699049E-01 -3.64477709118E-01 -1.88327997773E-03 -2.51461665154E-03 -1.82778583748E-03 -2.64226101539E-03 +7.22328948187E-01 -4.07751963337E-01
4.03000000000E+09 +5.71352895199E-01 -3.72400417760E-01 -2.43387604164E-03 -2.13701242932E-03 -2.39700206721E-03 -2.27272707927E-03 +7.11548496470E-01 -4.18152161590E-01
4.03500000000E+09 +5.58436874660E-01 -3.81533698435E-01 -2.49076161979E-03 -1.73137924826E-03 -2.56091664520E-03 -1.88053964330E-03 +7.00175520164E-01 -4.29051320702E-01
4.04000000000E+09 +5.45714506989E-01 -3.90570218225E-01 -2.77464859254E-03 -1.40962148841E-03 -2.82875370100E-03 -1.53785664070E-03 +6.88364044787E-01 -4.39702288569E-01
4.04500000000E+09 +5.33429832982E-01 -3.99988292310E-01 -2.60967626258E-03 -1.07796823304E-03 -2.62870041538E-03 -1.19588100486E-03 +6.76709976729E-01 -4.49881680200E-01
4.05000000000E+09 +5.20451103860E-01 -4.08578188150E-01 -2.71800972282E-03 -1.15000938149E-03 -2.74515282470E-03 -1.29974200673E-03 +6.65204754227E-01 -4.60183781174E-01
4.05500000000E+09 +5.06654195721E-01 -4.15556389633E-01 -3.12164230620E-03 -8.88928336504E-04 -3.20930605454E-03 -1.03270376987E-03 +6.52842184903E-01 -4.70178652856E-01
4.06000000000E+09 +4.92962945853E-01 -4.20297965375E-01 -3.30106056850E-03 -4.62790817412E-04 -3.44271140311E-03 -5.57830419355E-04 +6.40044964295E-01 -4.79643174662E-01
4.06500000000E+09 +4.79077951863E-01 -4.23994372317E-01 -3.24870608667E-03 +3.81827008897E-06 -3.28768739546E-03 -3.94102460235E-05 +6.26368925874E-01 -4.89046275360E-01
4.07000000000E+09 +4.64614978721E-01 -4.27078599351E-01 -3.23415607379E-03 +1.69320512508E-04 -3.31552769097E-03 +1.00738948078E-04 +6.12209223879E-01 -4.98372402559E-01
4.07500000000E+09 +4.49301103717E-01 -4.30593640474E-01 -3.22333285686E-03 +4.61946697221E-04 -3.30944210485E-03 +3.16671446038E-04 +5.98230710101E-01 -5.07892717977E-01
4.08000000000E+09 +4.32807951833E-01 -4.34143165987E-01 -3.27588644932E-03 +6.45617766157E-04 -3.38805035518E-03 +5.56494378170E-04 +5.83478850571E-01 -5.17579463036E-01
4.08500000000E+09 +4.15394443834E-01 -4.38295354801E-01 -3.34218485875E-03 +9.87408156878E-04 -3.46985175705E-03 +9.14491026600E-04 +5.68644018629E-01 -5.25961860129E-01
4.09000000000E+09 +3.97679448526E-01 -4.41876259232E-01 -3.11879924428E-03 +1.40092643379E-03 -3.26684050784E-03 +1.36132430055E-03 +5.53794845240E-01 -5.34025184089E-01
4.09500000000E+09 +3.80626135565E-01 -4.46010499892E-01 -3.18516767166E-03 +1.65779459564E-03 -3.41831343267E-03 +1.60642365913E-03 +5.38621143592E-01 -5.41519518659E-01
4.10000000000E+09 +3.63547837823E-01 -4.50272916094E-01 -3.03636394232E-03 +1.85926329533E-03 -3.12629928288E-03 +1.90921751892E-03 +5.22875731131E-01 -5.48909950739E-01
4.10500000000E+09 +3.46637384328E-01 -4.53617795827E-01 -3.02548615856E-03 +2.17832332475E-03 -3.13673622617E-03 +2.17410393249E-03 +5.05524811224E-01 -5.56534083340E-01
4.11000000000E+09 +3.29451068752E-01 -4.55482813460E-01 -3.04839593696E-03 +2.68303005940E-03 -3.15013272817E-03 +2.67032216169E-03 +4.87862328339E-01 -5.63328676481E-01
4.11500000000E+09 +3.13267053975E-01 -4.55589296490E-01 -2.48780711288E-03 +3.19211432342E-03 -2.68545705108E-03 +3.20464572011E-03 +4.70465451937E-01 -5.69875192616E-01
4.12000000000E+09 +2.96689309877E-01 -4.55280190799E-01 -2.28386080550E-03 +3.25259619792E-03 -2.46181085497E-03 +3.28627426664E-03 +4.52932471723E-01 -5.76450360209E-01
4.12500000000E+09 +2.79753012986E-01 -4.53975266539E-01 -2.11210971003E-03 +3.47946045996E-03 -2.27872980030E-03 +3.52375639873E-03 +4.35306254749E-01 -5.82184525528E-01
4.13000000000E+09 +2.62400435253E-01 -4.52469590448E-01 -1.68524730891E-03 +3.73798690579E-03 -1.83607225175E-03 +3.79221184995E-03 +4.17042369519E-01 -5.87677220799E-01
4.13500000000E+09 +2.44143719970E-01 -4.51313756177E-01 -1.72594501828E-03 +3.82855778829E-03 -1.86412728919E-03 +3.88950567350E-03 +3.98403962079E-01 -5.92186355513E-01
4.14000000000E+09 +2.25601447802E-01 -4.50848408195E-01 -1.45244011749E-03 +4.58676296838E-03 -1.69199964882E-03 +4.69115506478E-03 +3.78621372425E-01 -5.96580311018E-01
4.14500000000E+09 +2.06855854841E-01 -4.50754768740E-01 -7.11516986358E-04 +5.13927115929E-03 -9.03855086300E-04 +5.36655604611E-03 +3.58849284597E-01 -6.00160413473E-01
4.15000000000E+09 +1.88622338000E-01 -4.52280420957E-01 +1.34405921993E-04 +5.11914053611E-03 +3.77764332241E-05 +5.29531336801E-03 +3.40384746441E-01 -6.04441056935E-01
4.15500000000E+09 +1.69381005801E-01 -4.53380661174E-01 +8.20134587453E-04 +4.82466178474E-03 +8.44860267873E-04 +4.96106912378E-03 +3.20259240927E-01 -6.08887783716E-01
4.16000000000E+09 +1.50980724698E-01 -4.53164319956E-01 +1.08105358731E-03 +4.61373173368E-03 +1.08406485460E-03 +4.77969361642E-03 +2.99187785117E-01 -6.10591078072E-01
4.16500000000E+09 +1.32972981687E-01 -4.51078826616E-01 +1.20566901661E-03 +4.68737004954E-03 +1.16805589867E-03 +4.78702882780E-03 +2.79782636782E-01 -6.11241262410E-01
4.17000000000E+09 +1.16891805806E-01 -4.46343416094E-01 +1.81316255013E-03 +5.00526733472E-03 +1.79755536703E-03 +5.16798770938E-03 +2.59215275717E-01 -6.11787614340E-01
4.17500000000E+09 +1.01759550469E-01 -4.40785531205E-01 +2.48181697868E-03 +4.88221414358E-03 +2.42443782764E-03 +5.09400090136E-03 +2.38060443179E-01 -6.11828450081E-01
4.18000000000E+09 +8.66629524498E-02 -4.34096169035E-01 +3.31707184663E-03 +4.61789169971E-03 +3.31821239096E-03 +4.77781488309E-03 +2.16291173708E-01 -6.11480998278E-01
4.18500000000E+09 +7.07790856067E-02 -4.26275436740E-01 +3.71636419826E-03 +4.23555985109E-03 +3.79358791361E-03 +4.39619129102E-03 +1.93842628610E-01 -6.10477669326E-01
4.19000000000E+09 +5.43001863134E-02 -4.18131244938E-01 +4.31852083714E-03 +4.16124314599E-03 +4.41180949434E-03 +4.32087762211E-03 +1.72635775820E-01 -6.08355636080E-01
4.19500000000E+09 +3.64604794022E-02 -4.09479244208E-01 +5.09934934745E-03 +3.69062806624E-03 +5.19440556888E-03 +3.87073202450E-03 +1.51359045937E-01 -6.06012376885E-01
4.20000000000E+09 +1.90472387479E-02 -4.00373966373E-01 +5.59008974482E-03 +2.70825466204E-03 +5.72526648728E-03 +2.91821570998E-03 +1.29397517923E-01 -6.03482830539E-01
4.20500000000E+09 +2.58718239945E-03 -3.92753507994E-01 +5.65701115175E-03 +1.98900317646E-03 +5.75424190884E-03 +2.12485781366E-03 +1.06701956858E-01 -5.99416075846E-01
4.21000000000E+09 -1.38025618269E-02 -3.85993139707E-01 +5.81843660901E-03 +1.13850383466E-03 +5.95686544836E-03 +1.17610311136E-03 +8.37715866460E-02 -5.94012543996E-01
4.21500000000E+09 -3.03932290075E-02 -3.79493655168E-01 +5.43781279589E-03 +1.05942364938E-03 +5.60082799016E-03 +1.13870948357E-03 +6.21934945136E-02 -5.88906698635E-01
4.22000000000E+09 -4.60776532012E-02 -3.71254684937E-01 +5.99644238891E-03 +1.05328279227E-03 +6.09592641112E-03 +1.16378834762E-03 +3.97107368129E-02 -5.83283596041E-01
4.22500000000E+09 -6.01031316971E-02 -3.61354835072E-01 +6.87937111160E-03 +1.04809121413E-04 +7.05001700947E-03 +1.37421845380E-04 +1.70075787394E-02 -5.76820061458E-01
4.23000000000E+09 -7.24797404105E-02 -3.49877039923E-01 +6.88933119162E-03 -1.35012683970E-03 +7.09788063532E-03 -1.36711261468E-03 -5.11117649389E-03 -5.68465958477E-01
4.23500000000E+09 -8.40921304547E-02 -3.37616274580E-01 +6.18278517458E-03 -2.24363847413E-03 +6.39389595265E-03 -2.25300840962E-03 -2.61839878674E-02 -5.58697944000E-01
4.24000000000E+09 -9.64427666148E-02 -3.24699469601E-01 +5.72597593789E-03 -2.69086912850E-03 +5.86963881235E-03 -2.73497242116E-03 -4.68138122089E-02 -5.48853163046E-01
4.24500000000E+09 -1.10149994545E-01 -3.10636065710E-01 +5.48177228992E-03 -2.81301896692E-03 +5.61322103805E-03 -2.81640720674E-03 -6.73810001073E-02 -5.38853490332E-01
4.25000000000E+09 -1.24631846048E-01 -2.95398026868E-01 +5.52122674566E-03 -3.48174479197E-03 +5.72451428235E-03 -3.56127329429E-03 -8.91714784216E-02 -5.27908260963E-01
4.25500000000E+09 -1.39529435575E-01 -2.80742196330E-01 +5.03479642941E-03 -4.42799293521E-03 +5.23853521551E-03 -4.52826977215E-03 -1.10489648407E-01 -5.15861858603E-01
4.26000000000E+09 -1.54958649751E-01 -2.67250426197E-01 +4.34832293412E-03 -4.83292610042E-03 +4.48369710353E-03 -4.95995019587E-03 -1.31061751673E-01 -5.02114332375E-01
4.26500000000E+09 -1.71336278825E-01 -2.54838954456E-01 +3.91600692805E-03 -4.70787948561E-03 +4.02824139655E-03 -4.77068239970E-03 -1.51084273149E-01 -4.87890156613E-01
4.27000000000E+09 -1.87247437441E-01 -2.42298840816E-01 +3.91235373912E-03 -5.33280186978E-03 +3.92780726308E-03 -5.53835688123E-03 -1.70343593755E-01 -4.72836517885E-01
4.27500000000E+09 -2.02242105537E-01 -2.29359428200E-01 +3.42669781668E-03 -5.98594497081E-03 +3.49936424995E-03 -6.16953866482E-03 -1.90710330673E-01 -4.56741773789E-01
4.28000000000E+09 -2.14221258028E-01 -2.14929989296E-01 +2.89326303429E-03 -6.60581993670E-03 +2.88495578841E-03 -6.71479196715E-03 -2.09646240316E-01 -4.40092164496E-01
4.28500000000E+09 -2.22767641984E-01 -2.00953852992E-01 +2.09246498871E-03 -7.31821136852E-03 +2.12087769385E-03 -7.45791941740E-03 -2.28903336647E-01 -4.23195478537E-01
4.29000000000E+09 -2.30431894201E-01 -1.87032110821E-01 +5.90322397024E-04 -7.69430800544E-03 +5.30113580491E-04 -7.85571738026E-03 -2.46161296871E-01 -4.04709328518E-01
4.29500000000E+09 -2.38164958904E-01 -1.72544883677E-01 -3.29497790690E-04 -6.84213117464E-03 -3.59880270210E-04 -6.98850492983E-03 -2.61649364384E-01 -3.88113900601E-01
4.30000000000E+09 -2.46393155043E-01 -1.55569549744E-01 -8.46610556090E-04 -6.65727746198E-03 -9.08177782716E-04 -6.78416208379E-03 -2.78564285639E-01 -3.70266741567E-01
4.30500000000E+09 -2.54466859623E-01 -1.37095872971E-01 -1.07693486591E-03 -6.27807310992E-03 -1.07571652634E-03 -6.41260802108E-03 -2.94823888960E-01 -3.49703765199E-01
4.31000000000E+09 -2.62501757331E-01 -1.17022024391E-01 -1.11080698672E-03 -6.66891270725E-03 -1.16312919073E-03 -6.78471966091E-03 -3.09755759605E-01 -3.28639510753E-01
4.31500000000E+09 -2.69755260390E-01 -9.80347252031E-02 -1.90298288255E-03 -7.05972685116E-03 -2.01858452723E-03 -7.13435887646E-03 -3.23572172341E-01 -3.06611216624E-01
4.32000000000E+09 -2.77073379304E-01 -7.95667298330E-02 -2.72790948940E-03 -6.99558752775E-03 -2.79391158709E-03 -7.13425910666E-03 -3.36308046417E-01 -2.85459218666E-01
4.32500000000E+09 -2.83567563298E-01 -6.35048771526E-02 -4.11320045630E-03 -7.00035552649E-03 -4.28452892378E-03 -7.11085878744E-03 -3.48968303226E-01 -2.63703117223E-01
4.33000000000E+09 -2.90764784111E-01 -4.76180457762E-02 -4.79641689028E-03 -6.51685546969E-03 -4.97352326862E-03 -6.59870317627E-03 -3.60988795515E-01 -2.40206943981E-01
4.33500000000E+09 -2.95717466824E-01 -3.08608516733E-02 -5.97236175644E-03 -5.94101275135E-03 -6.07786756850E-03 -5.92726934445E-03 -3.70832215710E-01 -2.15421950543E-01
4.34000000000E+09 -2.98010107247E-01 -1.45626708343E-02 -6.76068187510E-03 -4.83729119679E-03 -6.87407191056E-03 -4.75490429497E-03 -3.78987072297E-01 -1.91631264582E-01
4.34500000000E+09 -2.98081673246E-01 +1.32818679712E-03 -6.63882949381E-03 -3.57743037413E-03 -6.66538617922E-03 -3.60445225192E-03 -3.88676673778E-01 -1.68972108154E-01
4.35000000000E+09 -2.98076214867E-01 +1.82967908216E-02 -6.45085508557E-03 -3.54778179670E-03 -6.51825239477E-03 -3.54428871784E-03 -3.98642254020E-01 -1.43824433711E-01
4.35500000000E+09 -2.96680281331E-01 +3.66561346720E-02 -7.37649282715E-03 -3.40609317049E-03 -7.50143942679E-03 -3.38357467870E-03 -4.05810410596E-01 -1.17783186613E-01
4.36000000000E+09 -2.95874543043E-01 +5.57861226032E-02 -7.55495182608E-03 -2.66968135727E-03 -7.69232244888E-03 -2.66513881167E-03 -4.11282630621E-01 -9.35655632207E-02
4.36500000000E+09 -2.94527449159E-01 +7.62616911894E-02 -8.77519059905E-03 -2.56986668743E-03 -8.95036465355E-03 -2.52273622417E-03 -4.15887175900E-01 -6.95431252781E-02
4.37000000000E+09 -2.94093910695E-01 +9.58119000048E-02 -9.82878963694E-03 -5.88657966569E-04 -9.96673232371E-03 -4.58268667525E-04 -4.19198504712E-01 -4.49316274595E-02
4.37500000000E+09 -2.94661014640E-01 +1.14635374730E-01 -9.32633483589E-03 +1.39131386709E-03 -9.48522181913E-03 +1.57000353452E-03 -4.21297061776E-01 -2.01519351026E-02
4.38000000000E+09 -2.96145329438E-01 +1.32657343905E-01 -8.82517037499E-03 +2.24527428766E-03 -8.96624644391E-03 +2.41272759168E-03 -4.22826996478E-01 +5.85325874282E-03
4.38500000000E+09 -2.96860684130E-01 +1.49488093810E-01 -8.26495281093E-03 +3.06782252579E-03 -8.36924926855E-03 +3.30912285311E-03 -4.22337022345E-01 +3.13719957852E-02
4.39000000000E+09 -2.96286108338E-01 +1.64948655035E-01 -7.76657651843E-03 +3.87782762678E-03 -7.79669198754E-03 +4.07582094466E-03 -4.22498295864E-01 +5.55113088185E-02
4.39500000000E+09 -2.94353131451E-01 +1.78711570066E-01 -7.85607279332E-03 +4.38861140104E-03 -7.81809702283E-03 +4.60622691442E-03 -4.22137809079E-01 +8.00689919101E-02
4.40000000000E+09 -2.90393579698E-01 +1.92100905244E-01 -7.08170741899E-03 +5.84382057110E-03 -7.08342642089E-03 +6.04803395953E-03 -4.20505994660E-01 +1.04491862327E-01
4.40500000000E+09 -2.85406177472E-01 +2.04793136530E-01 -6.38549089353E-03 +6.69789386472E-03 -6.35601951071E-03 +6.82052038928E-03 -4.16750558786E-01 +1.28908114878E-01
4.41000000000E+09 -2.79451297602E-01 +2.19228968764E-01 -5.27406589175E-03 +6.79849609290E-03 -5.22761386897E-03 +6.94981418939E-03 -4.11739074615E-01 +1.52801462986E-01
4.41500000000E+09 -2.72217379437E-01 +2.35304751005E-01 -4.96117581249E-03 +7.87709420931E-03 -4.85373316077E-03 +8.05330915524E-03 -4.06073058573E-01 +1.76270439685E-01
4.42000000000E+09 -2.64917441886E-01 +2.52257950164E-01 -3.96985678677E-03 +8.12670639245E-03 -3.78488470092E-03 +8.23559379082E-03 -3.99207897461E-01 +1.99492631144E-01
4.42500000000E+09 -2.57710289865E-01 +2.69442196462E-01 -3.18561707323E-03 +9.25461970451E-03 -2.97065259979E-03 +9.23924931707E-03 -3.93186480830E-01 +2.21356728437E-01
4.43000000000E+09 -2.51791499852E-01 +2.86728152215E-01 -1.18051325242E-03 +9.48767206862E-03 -9.30968831180E-04 +9.46513139527E-03 -3.86065400970E-01 +2.44327070890E-01
4.43500000000E+09 -2.46218145190E-01 +3.03162168816E-01 -1.05846472194E-04 +8.82114437452E-03 +2.68010556078E-05 +8.77052129321E-03 -3.77284572582E-01 +2.65708378927E-01
4.44000000000E+09 -2.41881267916E-01 +3.17451444762E-01 +8.38878072266E-04 +8.26843721006E-03 +9.70902897636E-04 +8.21718245715E-03 -3.68994436931E-01 +2.85806733694E-01
4.44500000000E+09 -2.37721708298E-01 +3.30051456635E-01 +1.12939463592E-03 +8.11386487948E-03 +1.27494197382E-03 +8.02272004713E-03 -3.60338175711E-01 +3.06161501943E-01
4.45000000000E+09 -2.33694329751E-01 +3.41153193898E-01 +1.61603912942E-03 +7.84229886356E-03 +1.83083527447E-03 +7.79783779346E-03 -3.50434854668E-01 +3.26314330180E-01
4.45500000000E+09 -2.27534728789E-01 +3.51170876915E-01 +2.35961233041E-03 +8.47447018928E-03 +2.57074564564E-03 +8.34254371679E-03 -3.39222673464E-01 +3.45525362575E-01
4.46000000000E+09 -2.20326228621E-01 +3.60147449198E-01 +3.86881254463E-03 +8.01854190670E-03 +4.04301234210E-03 +7.84139815229E-03 -3.26698386217E-01 +3.64156346381E-01
4.46500000000E+09 -2.10547443212E-01 +3.69882629431E-01 +4.56906126543E-03 +7.12194625468E-03 +4.72717223054E-03 +6.89964418747E-03 -3.14702250206E-01 +3.80354630302E-01
4.47000000000E+09 -1.99229645805E-01 +3.79813203403E-01 +5.23481620557E-03 +6.69000953232E-03 +5.38811559614E-03 +6.47496016802E-03 -3.03103511244E-01 +3.97331327557E-01
4.47500000000E+09 -1.86283099688E-01 +3.90584049207E-01 +5.64652219750E-03 +6.11704157592E-03 +5.73970668838E-03 +5.87711035460E-03 -2.91135685381E-01 +4.14983323950E-01
4.48000000000E+09 -1.73991051716E-01 +4.01402539611E-01 +6.47846198310E-03 +5.46376092657E-03 +6.55824602963E-03 +5.21125918094E-03 -2.78065483726E-01 +4.31545273728E-01
4.48500000000E+09 -1.63138953829E-01 +4.13842652860E-01 +7.25180051947E-03 +5.05404346359E-03 +7.14172327957E-03 +4.77774194098E-03 -2.64315766258E-01 +4.46679614860E-01
4.49000000000E+09 -1.53137396157E-01 +4.26527708445E-01 +7.87175462195E-03 +3.31254685325E-03 +7.64740338047E-03 +3.16636955434E-03 -2.51354411064E-01 +4.61488507382E-01
4.49500000000E+09 -1.44622702202E-01 +4.38719759305E-01 +7.28257958283E-03 +2.63097033020E-03 +7.19835969052E-03 +2.51280576531E-03 -2.37623165772E-01 +4.76174400497E-01
4.50000000000E+09 -1.37204601181E-01 +4.49551361000E-01 +7.54260510922E-03 +2.43301059800E-03 +7.47746549323E-03 +2.40247815160E-03 -2.22473212077E-01 +4.89620516762E-01
4.50500000000E+09 -1.30656224340E-01 +4.59085457705E-01 +7.94765363862E-03 +1.75885107927E-03 +7.90022386189E-03 +1.70469941919E-03 -2.08585382898E-01 +5.02100957492E-01
4.51000000000E+09 -1.23282915055E-01 +4.66087673658E-01 +8.51100470252E-03 +8.21944183363E-04 +8.42489125848E-03 +7.27285432482E-04 -1.93347428302E-01 +5.14333824455E-01
4.51500000000E+09 -1.16038406602E-01 +4.71456106253E-01 +8.48676658178E-03 -2.97462984222E-04 +8.35558927461E-03 -3.86660202669E-04 -1.79323330007E-01 +5.25229616336E-01
4.52000000000E+09 -1.07030847962E-01 +4.76255754317E-01 +8.50145077363E-03 -1.62063496608E-03 +8.33957838808E-03 -1.70441825641E-03 -1.65564618131E-01 +5.36259187923E-01
4.52500000000E+09 -9.64352706514E-02 +4.80397996250E-01 +7.75918191482E-03 -2.37564065903E-03 +7.64783612894E-03 -2.42229386989E-03 -1.51163113365E-01 +5.46716197805E-01
4.53000000000E+09 -8.41898855886E-02 +4.85240693494E-01 +7.56315811352E-03 -3.08268819179E-03 +7.43005356090E-03 -3.19305135024E-03 -1.36394598626E-01 +5.56055120372E-01
4.53500000000E+09 -7.05280872327E-02 +4.90994725639E-01 +6.95705131262E-03 -4.05145772110E-03 +6.81539129887E-03 -4.18927987994E-03 -1.21875550641E-01 +5.65255220080E-01
4.54000000000E+09 -5.57917613137E-02 +4.97288105680E-01 +6.39817682705E-03 -4.55876806783E-03 +6.18868716157E-03 -4.57383683319E-03 -1.05727952616E-01 +5.74142158022E-01
4.54500000000E+09 -4.22767123137E-02 +5.04010239452E-01 +5.70167501291E-03 -5.04047998304E-03 +5.49181665113E-03 -5.11739894556E-03 -9.11710618948E-02 +5.82727051891E-01
4.55000000000E+09 -2.96704392756E-02 +5.11412561438E-01 +5.28295077398E-03 -5.56492295053E-03 +5.09542648976E-03 -5.56666085104E-03 -7.51526809517E-02 +5.91526869723E-01
4.55500000000E+09 -1.85370651509E-02 +5.18523665061E-01 +4.40351529470E-03 -5.67993003775E-03 +4.24262611534E-03 -5.68497584485E-03 -5.96752837145E-02 +5.99449555511E-01
4.56000000000E+09 -9.54677151371E-03 +5.25491806184E-01 +4.03716601830E-03 -6.24562417013E-03 +3.91026067002E-03 -6.22454292253E-03 -4.46867770666E-02 +6.05452666946E-01
4.56500000000E+09 -5.23361942051E-04 +5.31762270491E-01 +3.49409738795E-03 -6.59790246783E-03 +3.26850875000E-03 -6.54063834933E-03 -3.05710606140E-02 +6.12048645686E-01
4.57000000000E+09 +8.16470944581E-03 +5.36381920278E-01 +2.68390174036E-03 -6.95028191057E-03 +2.43517943736E-03 -6.89678176468E-03 -1.53710677090E-02 +6.18188299456E-01
