# Hz S RI R 50
! CMT, C1220, 16058040, 17.2.0/1
! Date: 15/08/2018 11:43:57
! Data: Format (Calibration Info)
! Freq                      S11: Re/Im (F2)                       S21: Re/Im (F2)                       S12: Re/Im (F2)                       S22: Re/Im (F2)            
4.00000000000E+09 +6.39331965980E-01 -3.35588642328E-01 -8.81486364487E-04 -2.39617923754E-03 -8.94782387274E-04 -2.53436003001E-03 +7.71161307440E-01 -3.51244360060E-01
4.00500000000E+09 +6.30378714064E-01 -3.41762623722E-01 -1.06773921148E-03 -2.46235426006E-03 -1.01223929900E-03 -2.59342281698E-03 +7.62635708501E-01 -3.62666651856E-01
4.01000000000E+09 +6.20968909565E-01 -3.47252903296E-01 -1.35678010864E-03 -2.65332424500E-03 -1.28660052438E-03 -2.70489433993E-03 +7.53073651588E-01 -3.73788883888E-01
4.01500000000E+09 +6.10161753265E-01 -3.52867394013E-01 -1.62809713488E-03 -2.30357750228E-03 -1.59305965584E-03 -2.43542388154E-03 +7.43317052094E-01 -3.84115614993E-01
4.02000000000E+09 +5.98622001802E-01 -3.59628044304E-01 -1.68428598899E-03 -2.48353608550E-03 -1.60153572452E-03 -2.61649830974E-03 +7.33678135971E-01 -3.94448997314E-01
4.02500000000E+09 +5.86207093552E-01 -3.66726582264E-01 -2.37463797696E-03 -2.52775110444E-03 -2.36676455818E-03 -2.65861914399E-03 +7.23235522449E-01 -4.05030726111E-01
4.03000000000E+09 +5.73977873151E-01 -3.74958926552E-01 -2.85155701957E-03 -2.00626401994E-03 -2.89484437762E-03 -2.11613026314E-03 +7.12554422851E-01 -4.15346533220E-01
4.03500000000E+09 +5.61444288129E-01 -3.84340261204E-01 -2.82415176249E-03 -1.57943826044E-03 -2.89357860659E-03 -1.74075659941E-03 +7.01130464385E-01 -4.26260463088E-01
4.04000000000E+09 +5.49019301197E-01 -3.93850753946E-01 -3.13637383590E-03 -1.28358991000E-03 -3.16497254983E-03 -1.40600765972E-03 +6.89379780532E-01 -4.37016576865E-01
4.04500000000E+09 +5.36545372519E-01 -4.03679133064E-01 -2.96089096070E-03 -9.68802748355E-04 -2.96292720692E-03 -1.10092703576E-03 +6.77699370626E-01 -4.47017969061E-01
4.05000000000E+09 +5.23476228873E-01 -4.12213840791E-01 -3.17805764607E-03 -1.04117833392E-03 -3.22833502862E-03 -1.22213216618E-03 +6.66229320405E-01 -4.57357578254E-01
4.05500000000E+09 +5.09915403822E-01 -4.18786798983E-01 -3.66820861226E-03 -5.93485364295E-04 -3.75958758838E-03 -7.32669622664E-04 +6.53756744579E-01 -4.67304543446E-01
4.06000000000E+09 +4.96693983908E-01 -4.23698699065E-01 -3.70511543132E-03 -3.79602424413E-05 -3.80747334378E-03 -1.15241848847E-04 +6.41110689405E-01 -4.76528400496E-01
4.06500000000E+09 +4.82860089207E-01 -4.27522865129E-01 -3.45359007579E-03 +5.00417225305E-04 -3.55863635277E-03 +4.05796012476E-04 +6.27593530333E-01 -4.85726327380E-01
4.07000000000E+09 +4.68463707004E-01 -4.30941587553E-01 -3.38197638219E-03 +6.47628065604E-04 -3.44043952102E-03 +5.45555681749E-04 +6.13517249304E-01 -4.95230763798E-01
4.07500000000E+09 +4.52892245631E-01 -4.34728662611E-01 -3.34152732650E-03 +8.82519333904E-04 -3.42633719342E-03 +7.62056092309E-04 +5.99566391093E-01 -5.04736430388E-01
4.08000000000E+09 +4.36050286858E-01 -4.38415249255E-01 -3.41872334783E-03 +1.03833159831E-03 -3.50627646028E-03 +9.33986960703E-04 +5.84880434175E-01 -5.14376426210E-01
4.08500000000E+09 +4.18628466130E-01 -4.42599717606E-01 -3.41841707527E-03 +1.42643543094E-03 -3.63127819435E-03 +1.31199807195E-03 +5.70170996577E-01 -5.22760303043E-01
4.09000000000E+09 +4.00960047309E-01 -4.46720775962E-01 -3.19602433957E-03 +1.80464534179E-03 -3.36483037401E-03 +1.78657029535E-03 +5.55676620767E-01 -5.30635240714E-01
4.09500000000E+09 +3.83493747169E-01 -4.51094168405E-01 -3.21832311436E-03 +2.08155828518E-03 -3.39929534655E-03 +2.10003804306E-03 +5.40479738440E-01 -5.38241565661E-01
4.10000000000E+09 +3.66359170952E-01 -4.55730436151E-01 -2.97684613604E-03 +2.25345425266E-03 -3.08274868113E-03 +2.28962340160E-03 +5.24723831274E-01 -5.45379085517E-01
4.10500000000E+09 +3.49183581744E-01 -4.59306919676E-01 -3.13975299579E-03 +2.62740096877E-03 -3.34113113351E-03 +2.62233901766E-03 +5.07671447612E-01 -5.53047399007E-01
4.11000000000E+09 +3.31813637997E-01 -4.61121123966E-01 -2.97001478418E-03 +3.34754439722E-03 -3.11518841366E-03 +3.40543486974E-03 +4.90128126364E-01 -5.59933294483E-01
4.11500000000E+09 +3.15742260244E-01 -4.61352050566E-01 -2.09296687291E-03 +3.67638002413E-03 -2.27453238978E-03 +3.74049025266E-03 +4.72848308476E-01 -5.66502420341E-01
4.12000000000E+09 +2.99165813252E-01 -4.61197450162E-01 -1.94122530422E-03 +3.50751125813E-03 -2.03808926854E-03 +3.58637913638E-03 +4.55685624228E-01 -5.73172576173E-01
4.12500000000E+09 +2.81986092503E-01 -4.60061253949E-01 -1.82888010115E-03 +3.71350392827E-03 -1.99742383407E-03 +3.80664303986E-03 +4.38236375123E-01 -5.78896276648E-01
4.13000000000E+09 +2.64257741555E-01 -4.58675083932E-01 -1.58374835695E-03 +3.96292044380E-03 -1.72497083095E-03 +4.02350822002E-03 +4.20124952307E-01 -5.84470858782E-01
4.13500000000E+09 +2.45743009360E-01 -4.57356605646E-01 -1.61748371356E-03 +4.33435372142E-03 -1.82664376500E-03 +4.41730378966E-03 +4.01525510971E-01 -5.89227711211E-01
4.14000000000E+09 +2.27178501074E-01 -4.57029214767E-01 -1.04258584168E-03 +5.05495914771E-03 -1.20612710263E-03 +5.26962515238E-03 +3.81975565841E-01 -5.93607746323E-01
4.14500000000E+09 +2.08421629961E-01 -4.57223896005E-01 -5.20496102852E-05 +5.48158874500E-03 -2.32735886046E-04 +5.70650119576E-03 +3.62524593728E-01 -5.97463987824E-01
4.15000000000E+09 +1.89706189402E-01 -4.59158509539E-01 +7.58656014847E-04 +5.14718766337E-03 +6.90457621134E-04 +5.43582930458E-03 +3.43935278711E-01 -6.01984253446E-01
4.15500000000E+09 +1.70096532560E-01 -4.60717381577E-01 +1.24935174808E-03 +4.77342561805E-03 +1.26712972958E-03 +4.98617005875E-03 +3.23926151353E-01 -6.06388467602E-01
4.16000000000E+09 +1.51023015176E-01 -4.60528470966E-01 +1.39775719254E-03 +4.66108274317E-03 +1.47267475398E-03 +4.87891598304E-03 +3.03150484321E-01 -6.08249537796E-01
4.16500000000E+09 +1.32991356677E-01 -4.58087390301E-01 +1.66217559379E-03 +4.67303546802E-03 +1.66742207334E-03 +4.74952119916E-03 +2.83976762447E-01 -6.09317540456E-01
4.17000000000E+09 +1.16931962143E-01 -4.53621644153E-01 +2.11234147271E-03 +4.83868905347E-03 +2.10876227673E-03 +4.94745737880E-03 +2.63251150037E-01 -6.10126966891E-01
4.17500000000E+09 +1.01408388251E-01 -4.48031696655E-01 +2.69157637252E-03 +4.96330538513E-03 +2.71325924570E-03 +5.12795605572E-03 +2.41901890112E-01 -6.10277499725E-01
4.18000000000E+09 +8.62674215415E-02 -4.41653254866E-01 +3.66695150372E-03 +4.63896768597E-03 +3.72943021344E-03 +4.76772143415E-03 +2.20232138356E-01 -6.10027993268E-01
4.18500000000E+09 +6.94977647408E-02 -4.34148992409E-01 +4.05800323705E-03 +4.20014586146E-03 +4.10930508895E-03 +4.34760623993E-03 +1.97889525811E-01 -6.09156963441E-01
4.19000000000E+09 +5.22486808181E-02 -4.25516367478E-01 +4.72892357982E-03 +4.12926455417E-03 +4.79060674968E-03 +4.23340348386E-03 +1.76801586056E-01 -6.07090042222E-01
4.19500000000E+09 +3.41984908310E-02 -4.16409301404E-01 +5.50605778447E-03 +3.42980528082E-03 +5.55209625440E-03 +3.58244520538E-03 +1.55770466591E-01 -6.04872851202E-01
4.20000000000E+09 +1.64997184449E-02 -4.07718318812E-01 +5.76278547327E-03 +2.48460122831E-03 +5.77494992988E-03 +2.60359512412E-03 +1.33711463917E-01 -6.02813609088E-01
4.20500000000E+09 -6.58831942203E-04 -4.00059363580E-01 +5.90501533541E-03 +1.98539731366E-03 +5.97118301725E-03 +2.12720529911E-03 +1.11194702187E-01 -5.98956892631E-01
4.21000000000E+09 -1.75594817502E-02 -3.93037233801E-01 +6.01464208700E-03 +1.15459673921E-03 +6.13719210128E-03 +1.29719500226E-03 +8.82308826857E-02 -5.94087395496E-01
4.21500000000E+09 -3.45124906592E-02 -3.85954475203E-01 +5.93257252405E-03 +1.16177969732E-03 +6.04732462331E-03 +1.23256967166E-03 +6.63286685637E-02 -5.89241369297E-01
4.22000000000E+09 -5.01423505464E-02 -3.77035653928E-01 +6.56995463085E-03 +8.79053081919E-04 +6.68415494521E-03 +1.07568112092E-03 +4.37992277468E-02 -5.83681284322E-01
4.22500000000E+09 -6.39004296980E-02 -3.66558580062E-01 +7.36827298223E-03 -2.85919468156E-04 +7.49387955941E-03 -1.67092398844E-04 +2.11065154513E-02 -5.77315262900E-01
4.23000000000E+09 -7.60998726811E-02 -3.55206966375E-01 +7.13905269410E-03 -1.75518173366E-03 +7.38313600055E-03 -1.68925116038E-03 -1.03844345322E-03 -5.69212478873E-01
4.23500000000E+09 -8.82933948997E-02 -3.42381956328E-01 +6.52919428994E-03 -2.53435753237E-03 +6.64627943278E-03 -2.51779752292E-03 -2.23185528185E-02 -5.59889745640E-01
4.24000000000E+09 -1.01096623394E-01 -3.28429964704E-01 +5.98690478228E-03 -2.97709873142E-03 +6.15794575289E-03 -2.94675155971E-03 -4.33584082332E-02 -5.50294829587E-01
4.24500000000E+09 -1.14806200232E-01 -3.13387339911E-01 +5.95329628953E-03 -3.10242729666E-03 +6.07941140177E-03 -3.17700236963E-03 -6.41908068307E-02 -5.40584330749E-01
4.25000000000E+09 -1.29274765202E-01 -2.97437900700E-01 +5.94884159598E-03 -4.01239918989E-03 +6.15033734075E-03 -4.06804774042E-03 -8.60973777887E-02 -5.29666618132E-01
4.25500000000E+09 -1.44012931315E-01 -2.82703225389E-01 +5.31306760787E-03 -5.08487976695E-03 +5.44644831084E-03 -5.18537381388E-03 -1.07866893180E-01 -5.17934202643E-01
4.26000000000E+09 -1.60015489809E-01 -2.69482520029E-01 +4.32634731195E-03 -5.28718175260E-03 +4.50250106866E-03 -5.37808615831E-03 -1.29010426963E-01 -5.04125128159E-01
4.26500000000E+09 -1.77268025600E-01 -2.56726890805E-01 +4.18855227812E-03 -5.09693859507E-03 +4.36354297457E-03 -5.24766321684E-03 -1.49188873282E-01 -4.89601894548E-01
4.27000000000E+09 -1.93367233436E-01 -2.43712989234E-01 +4.20733777760E-03 -5.93299572380E-03 +4.36525734595E-03 -6.09633985981E-03 -1.68717946552E-01 -4.74271515011E-01
4.27500000000E+09 -2.08028017194E-01 -2.30421551965E-01 +3.55735991348E-03 -6.78605560367E-03 +3.60350464478E-03 -6.96292570536E-03 -1.88969962241E-01 -4.57837167511E-01
4.28000000000E+09 -2.19585319202E-01 -2.16247685351E-01 +2.73663823706E-03 -7.27365203928E-03 +2.78971242251E-03 -7.46210865186E-03 -2.07605927658E-01 -4.41304792977E-01
4.28500000000E+09 -2.28072314182E-01 -2.02524215315E-01 +2.02374266952E-03 -7.92647468819E-03 +2.06829958118E-03 -8.10058713518E-03 -2.27323195746E-01 -4.24863530177E-01
4.29000000000E+09 -2.35720210251E-01 -1.88442660020E-01 +4.41137520142E-04 -8.30745013217E-03 +3.99188908370E-04 -8.50196502987E-03 -2.45084885884E-01 -4.06194318719E-01
4.29500000000E+09 -2.43533833331E-01 -1.73086139640E-01 -4.92879669859E-04 -7.45643707126E-03 -4.91377008931E-04 -7.64776120256E-03 -2.60325367375E-01 -3.89223444802E-01
4.30000000000E+09 -2.51165262797E-01 -1.55372358977E-01 -1.10535450485E-03 -7.32781554763E-03 -1.15268490735E-03 -7.47533312889E-03 -2.77156239659E-01 -3.71275437993E-01
4.30500000000E+09 -2.58624083382E-01 -1.36424046395E-01 -1.44421848343E-03 -6.88336054615E-03 -1.55829848547E-03 -7.07798284636E-03 -2.93343317846E-01 -3.50722626563E-01
4.31000000000E+09 -2.66422613008E-01 -1.16370227165E-01 -1.53134331022E-03 -7.02101319309E-03 -1.60259933116E-03 -7.19188753017E-03 -3.08490166881E-01 -3.30048550098E-01
4.31500000000E+09 -2.73996441800E-01 -9.69413575385E-02 -2.18390347786E-03 -7.56273519689E-03 -2.26861186387E-03 -7.67310637996E-03 -3.22635366352E-01 -3.07806947847E-01
4.32000000000E+09 -2.81524656478E-01 -7.77528179101E-02 -3.06804031812E-03 -7.68749590807E-03 -3.23885115583E-03 -7.82800027511E-03 -3.35482693475E-01 -2.86396780829E-01
4.32500000000E+09 -2.87833767894E-01 -6.12114254591E-02 -4.73803370254E-03 -7.73261212949E-03 -4.95054838212E-03 -7.74747217078E-03 -3.48034527493E-01 -2.64642144778E-01
4.33000000000E+09 -2.94278116485E-01 -4.51436454866E-02 -5.59405886317E-03 -6.93171653995E-03 -5.75370178723E-03 -6.95017660570E-03 -3.60145946374E-01 -2.41265943097E-01
4.33500000000E+09 -2.98972845807E-01 -2.92408832408E-02 -6.72439145376E-03 -6.28796092393E-03 -6.89199397697E-03 -6.22023580193E-03 -3.70266784981E-01 -2.16207509186E-01
4.34000000000E+09 -3.01547919921E-01 -1.32607988893E-02 -7.45367449890E-03 -5.03146468562E-03 -7.56208818570E-03 -4.90992794896E-03 -3.78220760032E-01 -1.91835786196E-01
4.34500000000E+09 -3.01606928418E-01 +2.88441145699E-03 -7.16137705214E-03 -3.91326392228E-03 -7.21562331027E-03 -3.89191093413E-03 -3.87191284172E-01 -1.69266900146E-01
4.35000000000E+09 -3.01228353819E-01 +2.00874107101E-02 -7.38280313459E-03 -3.98248868102E-03 -7.41743550329E-03 -3.97833432854E-03 -3.97523750305E-01 -1.44577522925E-01
4.35500000000E+09 -2.99309043345E-01 +3.86006568781E-02 -8.41693570586E-03 -3.50240703412E-03 -8.46775612483E-03 -3.47305437699E-03 -4.05134940891E-01 -1.18373669190E-01
4.36000000000E+09 -2.97712046560E-01 +5.77696858210E-02 -8.50875276435E-03 -2.48939861111E-03 -8.69718937104E-03 -2.48394918927E-03 -4.10531412575E-01 -9.36309177140E-02
4.36500000000E+09 -2.96048690549E-01 +7.82472774352E-02 -9.62714334729E-03 -2.41959087017E-03 -9.75929857673E-03 -2.27257262144E-03 -4.14657741051E-01 -6.92135941259E-02
4.37000000000E+09 -2.95760039867E-01 +9.79014206979E-02 -1.06502553495E-02 -3.96103792576E-04 -1.07319218856E-02 -2.95358476897E-04 -4.17357148672E-01 -4.48271768537E-02
4.37500000000E+09 -2.96463378208E-01 +1.17441667012E-01 -1.02773075440E-02 +1.46549955842E-03 -1.03474252907E-02 +1.63795159928E-03 -4.19185915404E-01 -2.06694277493E-02
4.38000000000E+09 -2.97507413482E-01 +1.35810421858E-01 -9.98044345978E-03 +2.53549691598E-03 -1.00839693748E-02 +2.71210038498E-03 -4.21132742047E-01 +5.23578901320E-03
4.38500000000E+09 -2.98080515920E-01 +1.52891490326E-01 -9.27893145700E-03 +3.85532665273E-03 -9.33375780379E-03 +4.07382014122E-03 -4.20734751471E-01 +3.08621926897E-02
4.39000000000E+09 -2.97269123439E-01 +1.68424722176E-01 -8.46321010397E-03 +4.71056313056E-03 -8.48514022287E-03 +4.93302263675E-03 -4.20402572919E-01 +5.52975573450E-02
4.39500000000E+09 -2.95178025447E-01 +1.81910233617E-01 -8.42673377776E-03 +4.97355882973E-03 -8.39306598119E-03 +5.16814737539E-03 -4.19421631927E-01 +7.95023189231E-02
4.40000000000E+09 -2.91531004361E-01 +1.95309803190E-01 -7.85551921408E-03 +6.56082929481E-03 -7.71477942003E-03 +6.66393718202E-03 -4.17852392944E-01 +1.03140173388E-01
4.40500000000E+09 -2.86334033981E-01 +2.08341892071E-01 -7.18290701082E-03 +7.41297105463E-03 -7.08559691933E-03 +7.49528919185E-03 -4.14361729731E-01 +1.27076021637E-01
4.41000000000E+09 -2.80050760339E-01 +2.22680603542E-01 -6.07812022832E-03 +7.89315977675E-03 -6.01371302516E-03 +8.02099956056E-03 -4.09567253807E-01 +1.51152973665E-01
4.41500000000E+09 -2.72502513488E-01 +2.38935880547E-01 -5.54919637066E-03 +9.24191309104E-03 -5.40657447357E-03 +9.35374112089E-03 -4.03758222088E-01 +1.74142275582E-01
4.42000000000E+09 -2.64867069409E-01 +2.55521571144E-01 -4.21309915481E-03 +9.58842705857E-03 -4.07009430409E-03 +9.70833713093E-03 -3.96900895594E-01 +1.96999919302E-01
4.42500000000E+09 -2.57995439004E-01 +2.72943209877E-01 -3.07054568070E-03 +1.04580508109E-02 -2.91349428753E-03 +1.04726998976E-02 -3.91490084177E-01 +2.18383843175E-01
4.43000000000E+09 -2.51947077925E-01 +2.90277947263E-01 -1.12985156306E-03 +1.07419206785E-02 -9.73372138539E-04 +1.07298868102E-02 -3.84895037068E-01 +2.41373048752E-01
4.43500000000E+09 -2.46370011011E-01 +3.06781268499E-01 +1.13328187933E-04 +1.01932913169E-02 +2.30504759467E-04 +1.01202103632E-02 -3.76402902990E-01 +2.63453105035E-01
4.44000000000E+09 -2.41887521483E-01 +3.21016470475E-01 +1.26107023367E-03 +9.56287770907E-03 +1.39528867041E-03 +9.55430059026E-03 -3.67575468419E-01 +2.83615604067E-01
4.44500000000E+09 -2.37714290178E-01 +3.33414284180E-01 +1.65887317914E-03 +9.34964114597E-03 +1.82193105736E-03 +9.33431169447E-03 -3.58894637236E-01 +3.03273193432E-01
4.45000000000E+09 -2.33687599192E-01 +3.44391893842E-01 +2.45024780520E-03 +9.04027856903E-03 +2.58552059459E-03 +9.04195837365E-03 -3.49366531397E-01 +3.23156816655E-01
4.45500000000E+09 -2.27592803277E-01 +3.54264470876E-01 +3.37439593354E-03 +9.34839626180E-03 +3.55147761192E-03 +9.27574439525E-03 -3.38806274635E-01 +3.42344295253E-01
4.46000000000E+09 -2.20007808424E-01 +3.63460636290E-01 +4.77472879411E-03 +8.86043779802E-03 +5.00538969838E-03 +8.76086496646E-03 -3.26187959858E-01 +3.61135911222E-01
4.46500000000E+09 -2.09789523703E-01 +3.72990179459E-01 +5.65232424072E-03 +7.83966897101E-03 +5.81121956922E-03 +7.70996607298E-03 -3.14081009145E-01 +3.77289833125E-01
4.47000000000E+09 -1.98186692318E-01 +3.83116084308E-01 +6.35497574225E-03 +7.31376704479E-03 +6.54372173964E-03 +7.07791740684E-03 -3.02743207830E-01 +3.93907101665E-01
4.47500000000E+09 -1.84890698209E-01 +3.93764486275E-01 +6.84096221780E-03 +6.51793333161E-03 +6.98950404123E-03 +6.31714904341E-03 -2.91136881458E-01 +4.11488373651E-01
4.48000000000E+09 -1.72961061393E-01 +4.04834672273E-01 +7.68229525024E-03 +5.86601781198E-03 +7.74067369269E-03 +5.58964372610E-03 -2.78289921234E-01 +4.28159274439E-01
4.48500000000E+09 -1.62141861339E-01 +4.17625650008E-01 +8.51611789574E-03 +5.16829382793E-03 +8.47957571437E-03 +4.90553895123E-03 -2.64541503588E-01 +4.43242963516E-01
4.49000000000E+09 -1.52180338623E-01 +4.30611886370E-01 +8.97851021230E-03 +3.39618475686E-03 +8.88965878705E-03 +3.20910493550E-03 -2.51719645613E-01 +4.57536858362E-01
4.49500000000E+09 -1.44022819236E-01 +4.42675527049E-01 +8.53356930755E-03 +2.54905269896E-03 +8.34814528879E-03 +2.39914853552E-03 -2.38556119916E-01 +4.71926731281E-01
4.50000000000E+09 -1.36959037811E-01 +4.53501942569E-01 +8.68616156217E-03 +2.19544874152E-03 +8.57854455389E-03 +2.10345425670E-03 -2.24377284994E-01 +4.85540747586E-01
4.50500000000E+09 -1.30566145604E-01 +4.62622058899E-01 +9.04819250036E-03 +1.48550509286E-03 +8.92235800107E-03 +1.37089660397E-03 -2.10725851255E-01 +4.98836763499E-01
4.51000000000E+09 -1.23692446888E-01 +4.69092534143E-01 +9.61222618560E-03 +5.25492218342E-04 +9.49169286465E-03 +4.49476413802E-04 -1.95348774405E-01 +5.11090253160E-01
4.51500000000E+09 -1.16658230266E-01 +4.73809283413E-01 +9.60990613197E-03 -6.38528931106E-04 +9.48683490890E-03 -8.10880514460E-04 -1.81504324175E-01 +5.21673180251E-01
4.52000000000E+09 -1.07724353336E-01 +4.78489843823E-01 +9.81970259526E-03 -2.12785068769E-03 +9.58230707352E-03 -2.28078201532E-03 -1.68403884529E-01 +5.32889156551E-01
4.52500000000E+09 -9.65295167638E-02 +4.82038326267E-01 +8.87080847538E-03 -3.21538927134E-03 +8.64837037721E-03 -3.35452825612E-03 -1.54612884785E-01 +5.43908976046E-01
4.53000000000E+09 -8.39772497564E-02 +4.86643550800E-01 +8.46636449767E-03 -4.03126576760E-03 +8.19623301893E-03 -4.12883731559E-03 -1.39586577545E-01 +5.53768984959E-01
4.53500000000E+09 -7.00441543533E-02 +4.92349105520E-01 +7.73317822031E-03 -5.07665571535E-03 +7.47809911228E-03 -5.14741695656E-03 -1.24907313031E-01 +5.63097756738E-01
4.54000000000E+09 -5.52240012032E-02 +4.98804377657E-01 +7.08830253672E-03 -5.48549139384E-03 +6.78405682203E-03 -5.48181865819E-03 -1.08880822798E-01 +5.71826596856E-01
4.54500000000E+09 -4.15036267477E-02 +5.06088748352E-01 +6.31330634894E-03 -6.07361614598E-03 +6.05777190255E-03 -6.08841042226E-03 -9.47045473010E-02 +5.80796390178E-01
4.55000000000E+09 -2.87331241829E-02 +5.14043039525E-01 +5.89630308146E-03 -6.68120939237E-03 +5.61646639280E-03 -6.59136577582E-03 -7.87860815823E-02 +5.89945054344E-01
4.55500000000E+09 -1.78208259214E-02 +5.21296442217E-01 +4.89533872596E-03 -7.09180344594E-03 +4.65136083835E-03 -6.97349862553E-03 -6.33466433890E-02 +5.98211590194E-01
4.56000000000E+09 -9.64866116919E-03 +5.28566403642E-01 +4.33577819344E-03 -7.54696560135E-03 +4.13740316875E-03 -7.48635937850E-03 -4.79696637451E-02 +6.04559212269E-01
4.56500000000E+09 -1.56780616213E-03 +5.35405497847E-01 +3.55214710161E-03 -7.98978792795E-03 +3.35564077143E-03 -7.87464855666E-03 -3.37079638314E-02 +6.11053604757E-01
4.57000000000E+09 +6.74263050454E-03 +5.40572094491E-01 +2.64211358904E-03 -8.42484702430E-03 +2.45119965815E-03 -8.26455123839E-03 -1.87991138946E-02 +6.16959418296E-01
