# Hz S RI R 50
! CMT, C1220, 16058040, 17.2.0/1
! Date: 15/08/2018 11:44:51
! Data: Format (Calibration Info)
! Freq                      S11: Re/Im (F2)                       S21: Re/Im (F2)                       S12: Re/Im (F2)                       S22: Re/Im (F2)            
4.00000000000E+09 +6.40271456450E-01 -3.37773476930E-01 -1.21023326993E-03 -2.89524114773E-03 -1.09558068995E-03 -3.01473060917E-03 +7.70921499343E-01 -3.50890882456E-01
4.00500000000E+09 +6.31106894099E-01 -3.44125708132E-01 -1.42707167600E-03 -2.97421699405E-03 -1.33734623203E-03 -3.04862337048E-03 +7.62247652314E-01 -3.62392453389E-01
4.01000000000E+09 +6.21178773298E-01 -3.49681270686E-01 -1.84179894775E-03 -2.96302239035E-03 -1.72094617839E-03 -3.07234624306E-03 +7.52564388434E-01 -3.73490448127E-01
4.01500000000E+09 +6.10426692124E-01 -3.55116985950E-01 -2.13233957518E-03 -2.58699264597E-03 -2.04667671765E-03 -2.73734800131E-03 +7.42759434063E-01 -3.83255089548E-01
4.02000000000E+09 +5.99058791980E-01 -3.61857063420E-01 -2.20468009021E-03 -2.66859245577E-03 -2.13559890761E-03 -2.78364636901E-03 +7.33411494404E-01 -3.93569171129E-01
4.02500000000E+09 +5.86464202205E-01 -3.69132625344E-01 -2.90105592075E-03 -2.68528046402E-03 -2.78926921295E-03 -2.86740211215E-03 +7.23102006227E-01 -4.04293747798E-01
4.03000000000E+09 +5.74012361057E-01 -3.77266017081E-01 -3.35432839183E-03 -2.16174559828E-03 -3.33218373691E-03 -2.36147597421E-03 +7.12261567143E-01 -4.14628675231E-01
4.03500000000E+09 +5.61293536430E-01 -3.86638898926E-01 -3.47131615296E-03 -1.73588605695E-03 -3.49962595303E-03 -1.87861099346E-03 +7.01002684366E-01 -4.25342369981E-01
4.04000000000E+09 +5.48658303475E-01 -3.96061880524E-01 -3.81499844580E-03 -1.21770690523E-03 -3.81586658984E-03 -1.41022747852E-03 +6.89353922268E-01 -4.35964866296E-01
4.04500000000E+09 +5.36164308199E-01 -4.05731369081E-01 -3.56641799029E-03 -7.35315763568E-04 -3.64486052535E-03 -8.72737253300E-04 +6.77754480166E-01 -4.45873211492E-01
4.05000000000E+09 +5.23069364482E-01 -4.14292842683E-01 -3.63598072768E-03 -6.71857581201E-04 -3.77550200181E-03 -8.59932780210E-04 +6.66651061991E-01 -4.56034365619E-01
4.05500000000E+09 +5.09331784393E-01 -4.21085315840E-01 -3.90074646673E-03 -3.34037258999E-04 -4.10115009283E-03 -5.08416764774E-04 +6.54446032205E-01 -4.66125404808E-01
4.06000000000E+09 +4.95803037828E-01 -4.25851906868E-01 -4.08207572857E-03 +1.33775109043E-04 -4.28725987440E-03 +3.69821681695E-05 +6.42047771761E-01 -4.75556067718E-01
4.06500000000E+09 +4.81765527182E-01 -4.29555646858E-01 -3.95568101408E-03 +7.33052422557E-04 -4.12138096890E-03 +7.02564821167E-04 +6.28535360432E-01 -4.85122441808E-01
4.07000000000E+09 +4.67225771925E-01 -4.32642035578E-01 -3.84032688073E-03 +1.05808180656E-03 -3.99147744303E-03 +1.00639390548E-03 +6.14397445382E-01 -4.94547306686E-01
4.07500000000E+09 +4.51891457118E-01 -4.36344395859E-01 -3.63141543682E-03 +1.30608179925E-03 -3.71957774553E-03 +1.24325766572E-03 +6.00544191793E-01 -5.04204740813E-01
4.08000000000E+09 +4.34966473180E-01 -4.40027582295E-01 -3.52350154127E-03 +1.46775625937E-03 -3.67828969157E-03 +1.37989849334E-03 +5.85875295887E-01 -5.13992468912E-01
4.08500000000E+09 +4.17368932193E-01 -4.44228059559E-01 -3.67013206952E-03 +1.74645512220E-03 -3.90529619210E-03 +1.74650603105E-03 +5.71154268895E-01 -5.22380525169E-01
4.09000000000E+09 +3.99426307909E-01 -4.48168965485E-01 -3.41420477057E-03 +2.20629953366E-03 -3.61499922680E-03 +2.29641035013E-03 +5.56595369212E-01 -5.30375930254E-01
4.09500000000E+09 +3.81947464065E-01 -4.52241405971E-01 -3.37920521263E-03 +2.50316952116E-03 -3.52717187484E-03 +2.58230193706E-03 +5.41573403025E-01 -5.37962094916E-01
4.10000000000E+09 +3.64865062725E-01 -4.56437661047E-01 -3.14330782996E-03 +2.71247642835E-03 -3.21167848230E-03 +2.74676387213E-03 +5.25888254439E-01 -5.45308201884E-01
4.10500000000E+09 +3.48100399470E-01 -4.59921502783E-01 -3.25984501275E-03 +3.12424329520E-03 -3.39176041188E-03 +3.08535410690E-03 +5.08779085135E-01 -5.53263193699E-01
4.11000000000E+09 +3.30841768940E-01 -4.62037486398E-01 -3.11770033756E-03 +3.85274127878E-03 -3.18256136670E-03 +3.84489412825E-03 +4.91180434020E-01 -5.60012693585E-01
4.11500000000E+09 +3.14477869710E-01 -4.62164175895E-01 -2.22011149947E-03 +4.31297388535E-03 -2.42667505244E-03 +4.37914600034E-03 +4.73952457943E-01 -5.66577848343E-01
4.12000000000E+09 +2.97964917341E-01 -4.61729824780E-01 -1.83748224132E-03 +4.23879854602E-03 -1.99220192476E-03 +4.34558653543E-03 +4.56927068379E-01 -5.73290373992E-01
4.12500000000E+09 +2.80608751536E-01 -4.60631623160E-01 -1.72052259712E-03 +4.32324774071E-03 -1.85341988086E-03 +4.36514694115E-03 +4.39501143801E-01 -5.79500936052E-01
4.13000000000E+09 +2.62936066782E-01 -4.58813415603E-01 -1.42914421183E-03 +4.64390846598E-03 -1.61646750023E-03 +4.65688214446E-03 +4.21247219555E-01 -5.85250812516E-01
4.13500000000E+09 +2.44645583675E-01 -4.57383201931E-01 -1.34431070492E-03 +4.94754092975E-03 -1.52871007594E-03 +5.01276801387E-03 +4.02555415980E-01 -5.89879597636E-01
4.14000000000E+09 +2.26423273994E-01 -4.56888941562E-01 -8.28008293964E-04 +5.72890705782E-03 -1.05086532475E-03 +5.90786468845E-03 +3.83031741611E-01 -5.94317623287E-01
4.14500000000E+09 +2.07912742030E-01 -4.57298287347E-01 +4.01866960007E-04 +6.25177792100E-03 +2.20015130475E-04 +6.49734244825E-03 +3.63536393336E-01 -5.98277422672E-01
4.15000000000E+09 +1.89143154479E-01 -4.59424851269E-01 +1.32904704140E-03 +5.75150242448E-03 +1.26594668333E-03 +5.97038324086E-03 +3.44990839647E-01 -6.03190963275E-01
4.15500000000E+09 +1.69386790335E-01 -4.60838122095E-01 +1.92925478184E-03 +5.31313079868E-03 +1.89741546034E-03 +5.57527592889E-03 +3.24594923766E-01 -6.07693718540E-01
4.16000000000E+09 +1.50339675375E-01 -4.60366081428E-01 +2.26055000550E-03 +5.09254437142E-03 +2.26765672109E-03 +5.25445264839E-03 +3.03711140452E-01 -6.09877554235E-01
4.16500000000E+09 +1.32408788937E-01 -4.57787262274E-01 +2.38309488261E-03 +5.03047437982E-03 +2.43427113456E-03 +5.15973881058E-03 +2.83967849686E-01 -6.10973093732E-01
4.17000000000E+09 +1.16518184732E-01 -4.53097534108E-01 +3.07650848693E-03 +5.32765599236E-03 +3.09046456620E-03 +5.46605450682E-03 +2.63212930544E-01 -6.11527376768E-01
4.17500000000E+09 +1.01427485007E-01 -4.47468416364E-01 +3.99615788754E-03 +5.17635813315E-03 +3.97635275093E-03 +5.40353924224E-03 +2.41724952761E-01 -6.11776963247E-01
4.18000000000E+09 +8.64169454187E-02 -4.41121315844E-01 +4.83414250720E-03 +4.30810834751E-03 +4.88966123326E-03 +4.48334467480E-03 +2.19678362458E-01 -6.11456383800E-01
4.18500000000E+09 +6.96018495287E-02 -4.33859937627E-01 +4.97342323531E-03 +3.83479384340E-03 +5.05074870083E-03 +4.01091578675E-03 +1.97112471555E-01 -6.10309193215E-01
4.19000000000E+09 +5.25033381776E-02 -4.25125689924E-01 +5.66521594162E-03 +3.61963859924E-03 +5.75509396957E-03 +3.78625388876E-03 +1.76129758769E-01 -6.08281064296E-01
4.19500000000E+09 +3.44836492010E-02 -4.15997648177E-01 +6.24512242428E-03 +2.94019677491E-03 +6.39888035359E-03 +3.12087757290E-03 +1.54757063486E-01 -6.06123239034E-01
4.20000000000E+09 +1.70045541579E-02 -4.07151014530E-01 +6.49297588069E-03 +1.93399443790E-03 +6.67729486632E-03 +2.08548839675E-03 +1.32764379584E-01 -6.03707332064E-01
4.20500000000E+09 +8.86815106289E-06 -3.99508470575E-01 +6.63337943728E-03 +1.10627737952E-03 +6.77757312913E-03 +1.33008296874E-03 +1.09944955856E-01 -5.99864881777E-01
4.21000000000E+09 -1.65975504650E-02 -3.92527339569E-01 +6.60334082242E-03 +1.17082488716E-04 +6.77614927752E-03 +2.25416115453E-04 +8.66072475711E-02 -5.94569824010E-01
4.21500000000E+09 -3.30525336973E-02 -3.85677175682E-01 +6.08380444880E-03 +1.66130606580E-04 +6.30040051068E-03 +2.64140427111E-04 +6.49395637274E-02 -5.89421980070E-01
4.22000000000E+09 -4.87449001701E-02 -3.77215844916E-01 +6.63356327567E-03 +1.62731081839E-04 +6.83518966803E-03 +2.41193182521E-04 +4.25549166369E-02 -5.83678860781E-01
4.22500000000E+09 -6.24239928954E-02 -3.66788457308E-01 +7.55629411546E-03 -1.04519718069E-03 +7.86791003229E-03 -9.92513959314E-04 +2.00079242436E-02 -5.77268668055E-01
4.23000000000E+09 -7.45886123953E-02 -3.55513000932E-01 +7.17277737658E-03 -2.63327083742E-03 +7.45097855944E-03 -2.65291815887E-03 -2.26344103847E-03 -5.69336937282E-01
4.23500000000E+09 -8.67834330383E-02 -3.42891388187E-01 +6.36509622590E-03 -3.32493645905E-03 +6.58616175296E-03 -3.41317074738E-03 -2.38238718490E-02 -5.59661033170E-01
4.24000000000E+09 -9.95497165428E-02 -3.28978579843E-01 +5.89447709944E-03 -3.75481688305E-03 +6.06620474637E-03 -3.86023734690E-03 -4.45983529988E-02 -5.49969096895E-01
4.24500000000E+09 -1.12869976050E-01 -3.13966083474E-01 +5.61562593676E-03 -3.87448279000E-03 +5.75663026989E-03 -3.95178250019E-03 -6.56940631329E-02 -5.40284700008E-01
4.25000000000E+09 -1.27313598032E-01 -2.98555637872E-01 +5.75111680184E-03 -4.58191851277E-03 +5.92829056115E-03 -4.75053478594E-03 -8.80658033328E-02 -5.28990947894E-01
4.25500000000E+09 -1.42221011127E-01 -2.84215545593E-01 +5.12588943202E-03 -5.72747911052E-03 +5.22323326183E-03 -5.88782672508E-03 -1.09805550154E-01 -5.16444105416E-01
4.26000000000E+09 -1.58539287370E-01 -2.70815780073E-01 +4.05367516352E-03 -6.13968733140E-03 +4.14323067652E-03 -6.32932727113E-03 -1.30339678411E-01 -5.01908023883E-01
4.26500000000E+09 -1.75697020194E-01 -2.58196668307E-01 +3.69210950752E-03 -5.88193237364E-03 +3.81038050734E-03 -6.03534249512E-03 -1.49543439940E-01 -4.87384077337E-01
4.27000000000E+09 -1.91551983371E-01 -2.45238020938E-01 +3.57859179896E-03 -6.57005138049E-03 +3.62442706873E-03 -6.72207240514E-03 -1.68844362232E-01 -4.72581388487E-01
4.27500000000E+09 -2.06212047655E-01 -2.32250583051E-01 +2.95985340117E-03 -7.32611919310E-03 +2.99290149403E-03 -7.45531999063E-03 -1.89316285534E-01 -4.56481874914E-01
4.28000000000E+09 -2.17865834520E-01 -2.18292024704E-01 +2.15760168861E-03 -7.94984491812E-03 +2.10527465179E-03 -8.08284270086E-03 -2.08402260668E-01 -4.39704837074E-01
4.28500000000E+09 -2.26473848401E-01 -2.04380578847E-01 +1.03446667376E-03 -8.63783254674E-03 +9.43910059940E-04 -8.78591119488E-03 -2.27652873307E-01 -4.22322700866E-01
4.29000000000E+09 -2.33817004786E-01 -1.90470031832E-01 -5.85516112504E-04 -8.68597771008E-03 -6.31034963250E-04 -8.77162816031E-03 -2.44519510407E-01 -4.03379042149E-01
4.29500000000E+09 -2.41672531420E-01 -1.75505175499E-01 -1.55385519880E-03 -7.64216419059E-03 -1.59752950782E-03 -7.76052356815E-03 -2.59110702694E-01 -3.86910132305E-01
4.30000000000E+09 -2.49428952935E-01 -1.58027484196E-01 -2.00949198973E-03 -7.44552826685E-03 -2.04641701492E-03 -7.65847918052E-03 -2.75847638351E-01 -3.69333944130E-01
4.30500000000E+09 -2.57105734677E-01 -1.39391646245E-01 -2.52437321347E-03 -7.12762891588E-03 -2.63689486510E-03 -7.27273019029E-03 -2.91671348581E-01 -3.48868206708E-01
4.31000000000E+09 -2.65197538659E-01 -1.19202211606E-01 -2.85590494986E-03 -7.00668914391E-03 -2.98372923982E-03 -7.15659263420E-03 -3.06691979853E-01 -3.28643904216E-01
4.31500000000E+09 -2.72764774924E-01 -9.96568780444E-02 -3.55564886959E-03 -7.20132874179E-03 -3.69494704126E-03 -7.25009991491E-03 -3.20949984435E-01 -3.06789540326E-01
4.32000000000E+09 -2.79770231476E-01 -8.06910060903E-02 -4.41086404573E-03 -7.00385330239E-03 -4.54883024289E-03 -7.12602812851E-03 -3.34079555230E-01 -2.85286231137E-01
4.32500000000E+09 -2.85976102985E-01 -6.48566508722E-02 -5.79360795666E-03 -6.54198763824E-03 -5.93771736804E-03 -6.62409862425E-03 -3.46559883162E-01 -2.63145878144E-01
4.33000000000E+09 -2.93092066568E-01 -4.93486700329E-02 -6.18739226076E-03 -5.98957067000E-03 -6.41380260098E-03 -5.97680774703E-03 -3.57988801725E-01 -2.39704569251E-01
4.33500000000E+09 -2.98463495042E-01 -3.34336384437E-02 -7.32349024118E-03 -5.33144684078E-03 -7.42777797111E-03 -5.29624877471E-03 -3.67525072367E-01 -2.15146161006E-01
4.34000000000E+09 -3.01118464352E-01 -1.71023090353E-02 -8.15570160455E-03 -3.99084778729E-03 -8.21227442625E-03 -3.93629960647E-03 -3.75484128328E-01 -1.91635199672E-01
4.34500000000E+09 -3.01059909902E-01 -9.95759302569E-04 -7.71718596413E-03 -2.54054294400E-03 -7.78090843650E-03 -2.50096997328E-03 -3.84969020080E-01 -1.69317187400E-01
4.35000000000E+09 -3.00480161241E-01 +1.56965882169E-02 -7.60208171370E-03 -2.34576698572E-03 -7.60232443429E-03 -2.39977534135E-03 -3.95140118045E-01 -1.44540742786E-01
4.35500000000E+09 -2.98790019412E-01 +3.38322881164E-02 -8.09171393571E-03 -1.89310196614E-03 -8.16485628722E-03 -1.88158311590E-03 -4.02622001806E-01 -1.18308070433E-01
4.36000000000E+09 -2.97818266729E-01 +5.26924044803E-02 -7.82891571024E-03 -1.41151467061E-03 -7.92911151121E-03 -1.43713240143E-03 -4.07764949548E-01 -9.38101985156E-02
4.36500000000E+09 -2.96917365448E-01 +7.27902148984E-02 -8.98047682459E-03 -1.40651452243E-03 -9.14956493844E-03 -1.35225770343E-03 -4.11306484436E-01 -7.00961856374E-02
4.37000000000E+09 -2.97170849078E-01 +9.28724508608E-02 -9.89391176748E-03 +2.60632906651E-04 -1.00203877807E-02 +3.89944902242E-04 -4.14536784156E-01 -4.63773171656E-02
4.37500000000E+09 -2.97848830713E-01 +1.12630785425E-01 -9.68404161963E-03 +2.20868237395E-03 -9.82820928427E-03 +2.34745246121E-03 -4.16748593695E-01 -2.25071994630E-02
4.38000000000E+09 -2.99160842167E-01 +1.30968212549E-01 -9.17906806626E-03 +3.05928917982E-03 -9.34927292552E-03 +3.22043473687E-03 -4.18729838731E-01 +3.25578342934E-03
4.38500000000E+09 -2.99911630890E-01 +1.47889176007E-01 -8.66766012258E-03 +4.28991731220E-03 -8.76117492098E-03 +4.47919030937E-03 -4.18425183887E-01 +2.83221653038E-02
4.39000000000E+09 -2.99556134562E-01 +1.63339001495E-01 -7.67885286541E-03 +5.19418173542E-03 -7.73291859149E-03 +5.46027480720E-03 -4.18809780426E-01 +5.22862508315E-02
4.39500000000E+09 -2.97883709948E-01 +1.76931668451E-01 -7.48184350950E-03 +5.38609780119E-03 -7.46112784027E-03 +5.57915963998E-03 -4.18614099406E-01 +7.61850794529E-02
4.40000000000E+09 -2.94465834173E-01 +1.90608289896E-01 -6.89848810301E-03 +6.57277448119E-03 -6.77901612151E-03 +6.73883713732E-03 -4.17645571506E-01 +1.00422646462E-01
4.40500000000E+09 -2.89660652289E-01 +2.03732310333E-01 -6.31059088102E-03 +7.39012804589E-03 -6.23279381095E-03 +7.52088722840E-03 -4.14170286150E-01 +1.24370606883E-01
4.41000000000E+09 -2.83542947204E-01 +2.18537964010E-01 -5.27565225597E-03 +7.70269959990E-03 -5.18859156479E-03 +7.85820646678E-03 -4.09532401579E-01 +1.48385292359E-01
4.41500000000E+09 -2.76208732559E-01 +2.34505876660E-01 -4.97327819389E-03 +8.93825035048E-03 -4.82745529729E-03 +9.07975185904E-03 -4.04365418449E-01 +1.71262161214E-01
4.42000000000E+09 -2.68843663212E-01 +2.51424697296E-01 -3.84277650259E-03 +9.48167420049E-03 -3.64681243665E-03 +9.57154274387E-03 -3.98004122843E-01 +1.94627563506E-01
4.42500000000E+09 -2.62123246894E-01 +2.68941081777E-01 -2.56558813549E-03 +1.05538231946E-02 -2.27685434689E-03 +1.05303652836E-02 -3.92853743604E-01 +2.16434610917E-01
4.43000000000E+09 -2.56243829823E-01 +2.86418726056E-01 -3.15014100420E-04 +1.06188044247E-02 -7.79065211270E-05 +1.05768642693E-02 -3.86142535640E-01 +2.39915915457E-01
4.43500000000E+09 -2.50887095154E-01 +3.03028456680E-01 +9.03041757473E-04 +9.76472901241E-03 +1.05328685021E-03 +9.63002849661E-03 -3.77246480970E-01 +2.61979633330E-01
4.44000000000E+09 -2.46541905370E-01 +3.17464197311E-01 +1.80838805629E-03 +8.96923709540E-03 +1.95302906368E-03 +8.86374051987E-03 -3.68604670479E-01 +2.81669584414E-01
4.44500000000E+09 -2.42511016029E-01 +3.29991561007E-01 +2.13987292764E-03 +8.77178669352E-03 +2.29090590558E-03 +8.71643608142E-03 -3.60623831334E-01 +3.01699927137E-01
4.45000000000E+09 -2.38727018162E-01 +3.40846653308E-01 +2.69658814843E-03 +8.42285168535E-03 +2.86282746610E-03 +8.29681144829E-03 -3.51009041353E-01 +3.21918857713E-01
4.45500000000E+09 -2.32773103183E-01 +3.50981202947E-01 +3.57964188779E-03 +8.94831137242E-03 +3.78414416169E-03 +8.78140850691E-03 -3.40614612221E-01 +3.41396858393E-01
4.46000000000E+09 -2.25672088261E-01 +3.60006364320E-01 +5.10600271160E-03 +8.29891463620E-03 +5.26224031987E-03 +8.11292560018E-03 -3.27798802120E-01 +3.60599182205E-01
4.46500000000E+09 -2.15975867144E-01 +3.69945390018E-01 +5.91026951939E-03 +7.31059727280E-03 +6.01119464503E-03 +7.11531862246E-03 -3.15877908275E-01 +3.76817997091E-01
4.47000000000E+09 -2.04793260566E-01 +3.80529386043E-01 +6.57348765824E-03 +6.68910477186E-03 +6.71574899691E-03 +6.40298314712E-03 -3.04500591638E-01 +3.93797647779E-01
4.47500000000E+09 -1.91709502057E-01 +3.91968662002E-01 +6.99617900886E-03 +5.78769542807E-03 +7.06840638059E-03 +5.53225786613E-03 -2.92743256606E-01 +4.11383545731E-01
4.48000000000E+09 -1.79306683735E-01 +4.03347072022E-01 +7.74501957061E-03 +4.89872123572E-03 +7.68495752193E-03 +4.67081948239E-03 -2.79990102667E-01 +4.27856336549E-01
4.48500000000E+09 -1.68868375853E-01 +4.15854834665E-01 +8.16258818357E-03 +4.22326208975E-03 +8.08232664679E-03 +4.01132673795E-03 -2.66551325253E-01 +4.43412726972E-01
4.49000000000E+09 -1.59363426247E-01 +4.29275315441E-01 +8.35598454769E-03 +2.68724982692E-03 +8.21898116469E-03 +2.55937531506E-03 -2.53507848454E-01 +4.58163884666E-01
4.49500000000E+09 -1.51383004706E-01 +4.42198519249E-01 +7.93641578671E-03 +2.18541732602E-03 +7.84482304568E-03 +2.10145155579E-03 -2.40202254510E-01 +4.72813858451E-01
4.50000000000E+09 -1.44281511380E-01 +4.53295501728E-01 +8.29965905092E-03 +1.91050267663E-03 +8.13889733877E-03 +1.81944520136E-03 -2.25817373293E-01 +4.86776376168E-01
4.50500000000E+09 -1.38211707377E-01 +4.62908313477E-01 +8.56942082574E-03 +1.17756598195E-03 +8.46516836543E-03 +1.14220314551E-03 -2.11826704834E-01 +5.00185810550E-01
4.51000000000E+09 -1.31190163908E-01 +4.70026511777E-01 +9.15592768273E-03 +3.07342341237E-04 +9.09866236206E-03 +1.88161112593E-04 -1.96017781744E-01 +5.12605290684E-01
4.51500000000E+09 -1.23894645894E-01 +4.75411063775E-01 +9.13373920748E-03 -1.01826226186E-03 +8.99250091964E-03 -1.08646239813E-03 -1.82007417198E-01 +5.23226145130E-01
4.52000000000E+09 -1.14746829524E-01 +4.80141790206E-01 +9.01965090362E-03 -2.42472777938E-03 +8.84453936447E-03 -2.54065823981E-03 -1.68452058391E-01 +5.34306937218E-01
4.52500000000E+09 -1.03599631912E-01 +4.84201907487E-01 +8.03101436598E-03 -3.19974115630E-03 +7.88344440113E-03 -3.31087485914E-03 -1.54557016324E-01 +5.45197423481E-01
4.53000000000E+09 -9.08498538035E-02 +4.88856442625E-01 +7.71164236487E-03 -3.77995022952E-03 +7.47411032446E-03 -3.88566720376E-03 -1.39535225946E-01 +5.55063241736E-01
4.53500000000E+09 -7.70809355056E-02 +4.94985649718E-01 +7.27169342958E-03 -4.65953838672E-03 +7.03269630337E-03 -4.68380490490E-03 -1.24753437397E-01 +5.64520111865E-01
4.54000000000E+09 -6.21293053411E-02 +5.02013802992E-01 +6.73426928542E-03 -5.14615173999E-03 +6.51080293611E-03 -5.15995773912E-03 -1.08273805241E-01 +5.73445781879E-01
4.54500000000E+09 -4.81489135256E-02 +5.09693438505E-01 +6.13800398017E-03 -5.85581488841E-03 +5.85932075140E-03 -5.87604830223E-03 -9.35495966288E-02 +5.81749926198E-01
4.55000000000E+09 -3.51748216726E-02 +5.17780292408E-01 +5.58564397486E-03 -6.52492266396E-03 +5.30496099652E-03 -6.51224747620E-03 -7.77389766102E-02 +5.90538037144E-01
4.55500000000E+09 -2.41446574119E-02 +5.25535922262E-01 +4.46202641997E-03 -6.82207500183E-03 +4.25287444332E-03 -6.75944162809E-03 -6.24046497901E-02 +5.98694701385E-01
4.56000000000E+09 -1.55319399469E-02 +5.33211244625E-01 +3.92154407830E-03 -7.20611850922E-03 +3.79320862721E-03 -7.09019876103E-03 -4.72617326908E-02 +6.04930560333E-01
4.56500000000E+09 -7.03603129953E-03 +5.40053227819E-01 +3.35042128829E-03 -7.62192671688E-03 +3.10842002319E-03 -7.51781566938E-03 -3.31348953286E-02 +6.11500926997E-01
4.57000000000E+09 +1.41232284529E-03 +5.45201638515E-01 +2.36568390564E-03 -7.91314046342E-03 +2.18306872765E-03 -7.78190054716E-03 -1.80348111476E-02 +6.17634579673E-01
