# Hz S RI R 50
! CMT, C1220, 16058040, 17.2.0/1
! Date: 15/08/2018 11:42:31
! Data: Format (Calibration Info)
! Freq                      S11: Re/Im (F2)                       S21: Re/Im (F2)                       S12: Re/Im (F2)                       S22: Re/Im (F2)            
4.00000000000E+09 +6.38096139869E-01 -3.37540136015E-01 -1.98766620550E-03 -2.77338965620E-03 -1.95944239323E-03 -2.93495764493E-03 +7.70947263482E-01 -3.52421078469E-01
4.00500000000E+09 +6.28992298299E-01 -3.43855160772E-01 -2.15539306453E-03 -2.72435024796E-03 -2.10230872918E-03 -2.83516138458E-03 +7.62270785494E-01 -3.63966878761E-01
4.01000000000E+09 +6.19119940207E-01 -3.49161595153E-01 -2.45329620208E-03 -2.65040639677E-03 -2.48721262178E-03 -2.80169754094E-03 +7.52568016033E-01 -3.74964599786E-01
4.01500000000E+09 +6.08578378179E-01 -3.54643897437E-01 -2.76348126556E-03 -2.21521664546E-03 -2.74660580178E-03 -2.37115281811E-03 +7.42781261969E-01 -3.85169456864E-01
4.02000000000E+09 +5.97101288761E-01 -3.61433508166E-01 -2.80088998644E-03 -2.32242918009E-03 -2.76633618250E-03 -2.46293738001E-03 +7.33311071803E-01 -3.95595011522E-01
4.02500000000E+09 +5.84448560142E-01 -3.68757207988E-01 -3.58284087533E-03 -2.22896722761E-03 -3.58728708100E-03 -2.41717837772E-03 +7.22744796659E-01 -4.06317502049E-01
4.03000000000E+09 +5.71985583779E-01 -3.76995008713E-01 -3.98444863396E-03 -1.53580907695E-03 -3.97101722356E-03 -1.70547402558E-03 +7.11932746397E-01 -4.16665764057E-01
4.03500000000E+09 +5.59111963090E-01 -3.86430910527E-01 -3.91847027935E-03 -9.95401662134E-04 -3.98218789860E-03 -1.16696162146E-03 +7.00526240801E-01 -4.27401113330E-01
4.04000000000E+09 +5.46506525945E-01 -3.95717673211E-01 -4.07912498966E-03 -5.82023497789E-04 -4.22875670822E-03 -7.27789155182E-04 +6.88799808970E-01 -4.38088930388E-01
4.04500000000E+09 +5.34166976437E-01 -4.05437171268E-01 -3.84307642829E-03 -8.49809286871E-05 -3.96162715435E-03 -2.62599502471E-04 +6.77194132645E-01 -4.48164816141E-01
4.05000000000E+09 +5.21114075245E-01 -4.14190120968E-01 -3.88030308434E-03 -1.33451116722E-04 -4.00505756028E-03 -3.27344936630E-04 +6.65755172618E-01 -4.58502967942E-01
4.05500000000E+09 +5.07052038548E-01 -4.20969826545E-01 -4.28215942115E-03 +2.32746685777E-04 -4.45247414539E-03 +1.10225329379E-04 +6.53031078947E-01 -4.68636375723E-01
4.06000000000E+09 +4.93332037611E-01 -4.25431859498E-01 -4.46485550619E-03 +8.46802825880E-04 -4.63705164907E-03 +8.12657438716E-04 +6.40248259265E-01 -4.77713261323E-01
4.06500000000E+09 +4.79380349396E-01 -4.28793275685E-01 -4.15393665219E-03 +1.68789657591E-03 -4.29357826432E-03 +1.58955646957E-03 +6.26690155351E-01 -4.86735151715E-01
4.07000000000E+09 +4.65207280252E-01 -4.31719451135E-01 -3.80473935180E-03 +1.90243591640E-03 -3.90753108630E-03 +1.78592744236E-03 +6.12797799661E-01 -4.96099557550E-01
4.07500000000E+09 +4.49820492556E-01 -4.35342530427E-01 -3.56605537723E-03 +2.02881630077E-03 -3.68211605836E-03 +1.99886545624E-03 +5.98830522695E-01 -5.05865167828E-01
4.08000000000E+09 +4.33112773283E-01 -4.39113187404E-01 -3.54323764952E-03 +2.23646374037E-03 -3.66580256030E-03 +2.20411514751E-03 +5.83954628232E-01 -5.15454429135E-01
4.08500000000E+09 +4.15215612060E-01 -4.43534708807E-01 -3.49939958327E-03 +2.56986882734E-03 -3.70439140576E-03 +2.51901890495E-03 +5.69321282608E-01 -5.23623301975E-01
4.09000000000E+09 +3.97042498778E-01 -4.47170845756E-01 -3.24267674626E-03 +3.02646161855E-03 -3.48075920678E-03 +3.07472493558E-03 +5.54678960297E-01 -5.31496256905E-01
4.09500000000E+09 +3.79529143927E-01 -4.51013186777E-01 -3.18366366428E-03 +3.46468528857E-03 -3.32697003858E-03 +3.49539381644E-03 +5.39593515733E-01 -5.38974565816E-01
4.10000000000E+09 +3.62620884775E-01 -4.55151671248E-01 -2.69766031980E-03 +3.69897850862E-03 -2.81428407571E-03 +3.76226409638E-03 +5.23875684982E-01 -5.46343727454E-01
4.10500000000E+09 +3.45818527994E-01 -4.58687012680E-01 -2.61051332726E-03 +3.91393453706E-03 -2.70326370070E-03 +3.98108231177E-03 +5.06646762639E-01 -5.54049254652E-01
4.11000000000E+09 +3.28527602415E-01 -4.60642295986E-01 -2.32184979821E-03 +4.60945979726E-03 -2.52156502509E-03 +4.60962219328E-03 +4.89104581241E-01 -5.60606260556E-01
4.11500000000E+09 +3.12163271593E-01 -4.60855796661E-01 -1.38172516362E-03 +4.96867618201E-03 -1.58274449376E-03 +5.03786745337E-03 +4.72180526848E-01 -5.66930175502E-01
4.12000000000E+09 +2.95418158825E-01 -4.60390911413E-01 -9.25316298665E-04 +4.71987856926E-03 -1.06091408605E-03 +4.81529520913E-03 +4.55052546087E-01 -5.74011071165E-01
4.12500000000E+09 +2.78186318584E-01 -4.59126733051E-01 -8.70788521749E-04 +4.69277762497E-03 -1.02490752049E-03 +4.76013157403E-03 +4.37282011720E-01 -5.80039109438E-01
4.13000000000E+09 +2.60665539902E-01 -4.57342411790E-01 -4.73093056270E-04 +4.97799960954E-03 -7.11997022364E-04 +5.14131135913E-03 +4.18905473572E-01 -5.85448778479E-01
4.13500000000E+09 +2.42082292892E-01 -4.56018970444E-01 -3.53909264562E-04 +5.10985843582E-03 -5.43487465325E-04 +5.23751139307E-03 +4.00369376272E-01 -5.89854134655E-01
4.14000000000E+09 +2.23555950940E-01 -4.55519115286E-01 +1.31266667750E-04 +5.96092484603E-03 -6.27730389896E-05 +6.14466170534E-03 +3.80896640799E-01 -5.94232341377E-01
4.14500000000E+09 +2.04440809367E-01 -4.55692054715E-01 +1.49549844687E-03 +6.27331006005E-03 +1.36123394295E-03 +6.55013862700E-03 +3.61536367690E-01 -5.97863585101E-01
4.15000000000E+09 +1.85576988702E-01 -4.57281057874E-01 +2.45591105224E-03 +5.56994171349E-03 +2.44283210399E-03 +5.83770045202E-03 +3.42879438042E-01 -6.02500327183E-01
4.15500000000E+09 +1.65934050135E-01 -4.58242356368E-01 +2.97769366429E-03 +4.92495823261E-03 +3.01674794369E-03 +5.15938492328E-03 +3.22796328440E-01 -6.06741024554E-01
4.16000000000E+09 +1.46941891057E-01 -4.57770959642E-01 +3.12101693998E-03 +4.50219249589E-03 +3.12833818847E-03 +4.69117343721E-03 +3.02279607565E-01 -6.08612205165E-01
4.16500000000E+09 +1.28848403270E-01 -4.55108402736E-01 +3.04920546139E-03 +4.38312621459E-03 +3.05897393940E-03 +4.54199666686E-03 +2.83110818924E-01 -6.09702002587E-01
4.17000000000E+09 +1.12943388614E-01 -4.50037798124E-01 +3.52227337480E-03 +4.85453155317E-03 +3.56457035933E-03 +5.02798329025E-03 +2.62460497043E-01 -6.10698952610E-01
4.17500000000E+09 +9.79470365390E-02 -4.44049863896E-01 +4.60201149642E-03 +4.75981667834E-03 +4.60576909665E-03 +5.01825027051E-03 +2.40958187692E-01 -6.10814866401E-01
4.18000000000E+09 +8.30723856919E-02 -4.37240169375E-01 +5.49993523742E-03 +3.82313507043E-03 +5.56614990054E-03 +4.04428384534E-03 +2.19216361368E-01 -6.10461910092E-01
4.18500000000E+09 +6.68215987574E-02 -4.29570361425E-01 +5.65681267246E-03 +3.15595350842E-03 +5.76468932271E-03 +3.40304856926E-03 +1.96875133020E-01 -6.09510962422E-01
4.19000000000E+09 +4.98317907333E-02 -4.21195904898E-01 +6.04169968651E-03 +2.81044000346E-03 +6.22798548585E-03 +3.00391896934E-03 +1.76067805680E-01 -6.07517472082E-01
4.19500000000E+09 +3.16830473062E-02 -4.11932999777E-01 +6.53393338939E-03 +2.29415608330E-03 +6.68567419113E-03 +2.43243539727E-03 +1.54811623404E-01 -6.05494676099E-01
4.20000000000E+09 +1.42094470531E-02 -4.02610529565E-01 +6.90278525385E-03 +1.31944918754E-03 +7.09960127168E-03 +1.54328826769E-03 +1.32821023824E-01 -6.03399075030E-01
4.20500000000E+09 -2.78933794402E-03 -3.94626268794E-01 +7.00307282684E-03 +3.92805374549E-04 +7.18283907777E-03 +5.30290257232E-04 +1.09984446909E-01 -5.99674942910E-01
4.21000000000E+09 -1.91064537528E-02 -3.87064503056E-01 +6.80896859250E-03 -6.81261900026E-04 +7.03608751697E-03 -6.18591026605E-04 +8.68931018270E-02 -5.94339382391E-01
4.21500000000E+09 -3.51959530277E-02 -3.80286459613E-01 +6.16935440388E-03 -6.04713340329E-04 +6.38681095799E-03 -5.57673812166E-04 +6.52754661119E-02 -5.89560820098E-01
4.22000000000E+09 -5.07424130214E-02 -3.71692956443E-01 +6.77739218794E-03 -4.71657806495E-04 +6.94908484082E-03 -4.50965926610E-04 +4.27113915189E-02 -5.83895479697E-01
4.22500000000E+09 -6.46669096476E-02 -3.61274829357E-01 +7.70130657342E-03 -1.70419536907E-03 +7.85964042083E-03 -1.69863581203E-03 +2.01684224791E-02 -5.77682830449E-01
4.23000000000E+09 -7.67431112700E-02 -3.49389336741E-01 +7.40537228591E-03 -3.43030196195E-03 +7.60464758204E-03 -3.47688624976E-03 -2.25319659341E-03 -5.69592758536E-01
4.23500000000E+09 -8.85914820352E-02 -3.36427748186E-01 +6.47229551222E-03 -4.30154882707E-03 +6.64277049269E-03 -4.36778464304E-03 -2.36060942167E-02 -5.59899834735E-01
4.24000000000E+09 -1.01028369876E-01 -3.22097617675E-01 +5.70166236117E-03 -4.72114183857E-03 +5.88781561158E-03 -4.80463473534E-03 -4.41333412307E-02 -5.50220184253E-01
4.24500000000E+09 -1.13816916025E-01 -3.07151077464E-01 +5.25366654131E-03 -4.51808461434E-03 +5.32078160827E-03 -4.59744743681E-03 -6.47636643136E-02 -5.40806372623E-01
4.25000000000E+09 -1.28193043499E-01 -2.91658315622E-01 +5.62916304603E-03 -5.30822767311E-03 +5.74281513758E-03 -5.29951858976E-03 -8.69820078719E-02 -5.30090638191E-01
4.25500000000E+09 -1.42835080670E-01 -2.76822852808E-01 +4.95242564025E-03 -6.63725027922E-03 +5.10946060876E-03 -6.81337210916E-03 -1.08941988290E-01 -5.18076164477E-01
4.26000000000E+09 -1.58681602049E-01 -2.63373664877E-01 +3.67862014304E-03 -7.07597116163E-03 +3.76682202181E-03 -7.22385100951E-03 -1.29796589437E-01 -5.04243169621E-01
4.26500000000E+09 -1.75660116784E-01 -2.50789901624E-01 +3.11047063602E-03 -6.70850664430E-03 +3.20465283452E-03 -6.79632107714E-03 -1.49742320924E-01 -4.89690213552E-01
4.27000000000E+09 -1.91410932050E-01 -2.37561919104E-01 +3.03081044080E-03 -7.20132944085E-03 +3.08854584985E-03 -7.38061970105E-03 -1.69226872583E-01 -4.74750084314E-01
4.27500000000E+09 -2.05917004282E-01 -2.24274182464E-01 +2.38701110224E-03 -7.99257662432E-03 +2.44724521745E-03 -8.13323620129E-03 -1.89721952036E-01 -4.58794444550E-01
4.28000000000E+09 -2.17011984059E-01 -2.09831418397E-01 +1.52844579320E-03 -8.53731679637E-03 +1.52424677841E-03 -8.67957267515E-03 -2.09230088630E-01 -4.41869881994E-01
4.28500000000E+09 -2.24827523819E-01 -1.95720954371E-01 +4.02054220604E-04 -9.20688124206E-03 +4.15594152268E-04 -9.40959369854E-03 -2.28551651157E-01 -4.24789008174E-01
4.29000000000E+09 -2.31313769643E-01 -1.82028438567E-01 -1.50651218689E-03 -9.33639963258E-03 -1.49420903753E-03 -9.50241061141E-03 -2.45836026219E-01 -4.06323560490E-01
4.29500000000E+09 -2.38445644983E-01 -1.67891705119E-01 -2.67861723691E-03 -7.84353419772E-03 -2.73554410169E-03 -8.02492798600E-03 -2.61209798302E-01 -3.89700757004E-01
4.30000000000E+09 -2.46545155176E-01 -1.50648837509E-01 -2.93848237309E-03 -7.36070962988E-03 -3.00460559195E-03 -7.50597141838E-03 -2.78431988904E-01 -3.71931209055E-01
4.30500000000E+09 -2.54198627810E-01 -1.31619760496E-01 -3.06516299662E-03 -6.97321242765E-03 -3.18080910092E-03 -7.17332637279E-03 -2.94919407272E-01 -3.51175930493E-01
4.31000000000E+09 -2.61778894408E-01 -1.11172120132E-01 -3.23506610100E-03 -7.17290155962E-03 -3.34288287957E-03 -7.34123605524E-03 -3.09986229459E-01 -3.29909218628E-01
4.31500000000E+09 -2.68214647122E-01 -9.13775209945E-02 -4.09465410850E-03 -7.46592192774E-03 -4.22793787507E-03 -7.61729270586E-03 -3.23691531357E-01 -3.07753248276E-01
4.32000000000E+09 -2.74550418604E-01 -7.30353823348E-02 -5.12205533340E-03 -7.28003157857E-03 -5.34649088996E-03 -7.49948874419E-03 -3.36437977427E-01 -2.86567345794E-01
4.32500000000E+09 -2.80553780802E-01 -5.77345516902E-02 -6.64715281110E-03 -6.75772460147E-03 -6.87783276481E-03 -6.79918037232E-03 -3.49137244137E-01 -2.65123334491E-01
4.33000000000E+09 -2.87726942746E-01 -4.24565083425E-02 -6.97123019638E-03 -6.14936326560E-03 -7.20030027014E-03 -6.07359493584E-03 -3.61706989542E-01 -2.41317425560E-01
4.33500000000E+09 -2.92798695393E-01 -2.63537627785E-02 -8.24367948425E-03 -5.57650143097E-03 -8.39963190560E-03 -5.56970049574E-03 -3.71485449814E-01 -2.16145393492E-01
4.34000000000E+09 -2.94913032418E-01 -1.00536985745E-02 -9.24267358544E-03 -4.05931469891E-03 -9.37545290984E-03 -3.95541814188E-03 -3.79407748948E-01 -1.91965385348E-01
4.34500000000E+09 -2.94620932615E-01 +5.74918284821E-03 -8.78106419920E-03 -2.45851156994E-03 -8.85395961402E-03 -2.41186302228E-03 -3.88910327056E-01 -1.69584054744E-01
4.35000000000E+09 -2.93622721722E-01 +2.21925108767E-02 -8.56941339734E-03 -2.22501121678E-03 -8.63977225091E-03 -2.20063028450E-03 -3.99330456853E-01 -1.44652459276E-01
4.35500000000E+09 -2.91786159884E-01 +3.97862719954E-02 -9.10280428737E-03 -1.84814692700E-03 -9.18739176556E-03 -1.84950114093E-03 -4.06972396203E-01 -1.18015192435E-01
4.36000000000E+09 -2.90849125574E-01 +5.89115349611E-02 -9.29494738949E-03 -1.45636924213E-03 -9.36525435356E-03 -1.38073767161E-03 -4.11990127393E-01 -9.29070778705E-02
4.36500000000E+09 -2.89104151266E-01 +7.90250486234E-02 -1.07834216107E-02 -9.88267955530E-04 -1.09173942506E-02 -8.41600247178E-04 -4.15755935183E-01 -6.89831592218E-02
4.37000000000E+09 -2.89006921735E-01 +9.82864798417E-02 -1.17450052324E-02 +1.37749288320E-03 -1.18400395234E-02 +1.53614611789E-03 -4.19028614987E-01 -4.47918286128E-02
4.37500000000E+09 -2.89590452544E-01 +1.17399387664E-01 -1.10240981662E-02 +3.87065388620E-03 -1.11368094783E-02 +4.06243723694E-03 -4.21415376719E-01 -2.03187860729E-02
4.38000000000E+09 -2.91047066862E-01 +1.35524538645E-01 -1.00169007150E-02 +4.86391289805E-03 -1.01282527496E-02 +4.97311353782E-03 -4.23201368598E-01 +6.22792282119E-03
4.38500000000E+09 -2.91658338954E-01 +1.52273005679E-01 -9.05772824086E-03 +5.90386669378E-03 -9.15504014204E-03 +6.13490141214E-03 -4.22200073023E-01 +3.21084192093E-02
4.39000000000E+09 -2.91153841103E-01 +1.67448633291E-01 -8.07198629440E-03 +6.56834509518E-03 -8.07530886411E-03 +6.84409855487E-03 -4.21491040629E-01 +5.63459623452E-02
4.39500000000E+09 -2.89127815104E-01 +1.80878226453E-01 -7.95239492348E-03 +7.06288638417E-03 -7.91618488195E-03 +7.22948957174E-03 -4.20985962213E-01 +8.01116685473E-02
4.40000000000E+09 -2.85206248365E-01 +1.93921146252E-01 -7.07425306058E-03 +8.46158065903E-03 -7.00810360433E-03 +8.67688125326E-03 -4.19568976167E-01 +1.04464399568E-01
4.40500000000E+09 -2.80258411134E-01 +2.06182760735E-01 -6.08162536198E-03 +9.29109431623E-03 -6.01585471079E-03 +9.43918643667E-03 -4.15868815287E-01 +1.28600368601E-01
4.41000000000E+09 -2.74655042247E-01 +2.20283157123E-01 -4.81900263192E-03 +9.38131918573E-03 -4.69767764957E-03 +9.61309923880E-03 -4.10458113668E-01 +1.52644966645E-01
4.41500000000E+09 -2.67551419956E-01 +2.36315954755E-01 -4.28717190803E-03 +1.05995741789E-02 -4.12235056098E-03 +1.07633250151E-02 -4.04852498874E-01 +1.75287543804E-01
4.42000000000E+09 -2.60244260555E-01 +2.53248864200E-01 -2.87738994134E-03 +1.08623578568E-02 -2.60969073214E-03 +1.10091131754E-02 -3.98336384611E-01 +1.98491606470E-01
4.42500000000E+09 -2.53172609997E-01 +2.70649863022E-01 -1.61983577330E-03 +1.17067646002E-02 -1.36977880367E-03 +1.16848815840E-02 -3.92852978504E-01 +2.20336645627E-01
4.43000000000E+09 -2.46978194431E-01 +2.87673330085E-01 +6.26299441497E-04 +1.17741932492E-02 +8.00039897323E-04 +1.16803260567E-02 -3.85574712937E-01 +2.43673246813E-01
4.43500000000E+09 -2.41488897963E-01 +3.03729473368E-01 +1.97661495367E-03 +1.08629950742E-02 +2.12423027152E-03 +1.06860002557E-02 -3.76488415160E-01 +2.65307508864E-01
4.44000000000E+09 -2.37303891450E-01 +3.17322842176E-01 +2.85974287154E-03 +9.77834146128E-03 +2.97285246406E-03 +9.69079912992E-03 -3.67680361106E-01 +2.84769451539E-01
4.44500000000E+09 -2.33757293810E-01 +3.29494908518E-01 +3.11585711414E-03 +9.68132933695E-03 +3.28875997712E-03 +9.60625248624E-03 -3.59681024854E-01 +3.04580791702E-01
4.45000000000E+09 -2.30284112461E-01 +3.40783122345E-01 +3.90016464075E-03 +9.36686328237E-03 +4.05917226894E-03 +9.31794024594E-03 -3.49944687040E-01 +3.24983188009E-01
4.45500000000E+09 -2.23938156307E-01 +3.50785010258E-01 +4.92556411391E-03 +9.84746701220E-03 +5.11275915248E-03 +9.69771151771E-03 -3.38952265782E-01 +3.44467061456E-01
4.46000000000E+09 -2.16694940148E-01 +3.59660741728E-01 +6.69963168916E-03 +9.08985291241E-03 +6.87608213678E-03 +8.83678326845E-03 -3.25695899159E-01 +3.63142562392E-01
4.46500000000E+09 -2.06692624815E-01 +3.69549188398E-01 +7.57819142738E-03 +7.74219590704E-03 +7.68018410140E-03 +7.46442553720E-03 -3.13589854146E-01 +3.78784137861E-01
4.47000000000E+09 -1.95018084224E-01 +3.79612932838E-01 +8.16969040057E-03 +6.87207972696E-03 +8.25159245058E-03 +6.64671744165E-03 -3.02395587525E-01 +3.95111423706E-01
4.47500000000E+09 -1.81849674614E-01 +3.90164446749E-01 +8.49617534971E-03 +6.02612744202E-03 +8.54372759655E-03 +5.79948672374E-03 -2.91088123473E-01 +4.12891747721E-01
4.48000000000E+09 -1.69948110749E-01 +4.01103575138E-01 +9.32141157943E-03 +5.24040895657E-03 +9.26367735097E-03 +4.90466315273E-03 -2.77950682006E-01 +4.29664959854E-01
4.48500000000E+09 -1.59800072746E-01 +4.13675775371E-01 +1.01990721408E-02 +4.47824344756E-03 +1.00268930440E-02 +4.26414206693E-03 -2.64103655095E-01 +4.44670975407E-01
4.49000000000E+09 -1.50599149129E-01 +4.27100122323E-01 +1.06959326493E-02 +2.18847768809E-03 +1.04399486972E-02 +2.08673952948E-03 -2.50927411333E-01 +4.58773913000E-01
4.49500000000E+09 -1.42415913921E-01 +4.39975839659E-01 +9.79922375166E-03 +1.28368675828E-03 +9.64892593318E-03 +1.19714578495E-03 -2.38227001418E-01 +4.72998475760E-01
4.50000000000E+09 -1.35169959684E-01 +4.50977658045E-01 +9.89005013795E-03 +1.03960728007E-03 +9.78947330334E-03 +9.77725798291E-04 -2.23843926458E-01 +4.86909776509E-01
4.50500000000E+09 -1.28803079204E-01 +4.60320696031E-01 +1.03140225703E-02 +7.94825095752E-05 +1.01654072392E-02 -3.75877569470E-05 -2.09856828780E-01 +4.99990689840E-01
4.51000000000E+09 -1.21788779299E-01 +4.66617145291E-01 +1.06462747937E-02 -1.05107629473E-03 +1.05074640525E-02 -1.16546293467E-03 -1.94488950480E-01 +5.11903685046E-01
4.51500000000E+09 -1.14724123075E-01 +4.71431991902E-01 +1.05142860397E-02 -2.36508203012E-03 +1.03334406108E-02 -2.46310838469E-03 -1.80876721637E-01 +5.22779199731E-01
4.52000000000E+09 -1.06146466061E-01 +4.75705293764E-01 +1.04096485175E-02 -4.19434269492E-03 +1.01732480170E-02 -4.30704586246E-03 -1.67405830908E-01 +5.33672633395E-01
4.52500000000E+09 -9.53072547941E-02 +4.79727832927E-01 +8.97313336603E-03 -5.15657631527E-03 +8.70898806730E-03 -5.24267218796E-03 -1.53706542888E-01 +5.44736853007E-01
4.53000000000E+09 -8.28054646264E-02 +4.84531471788E-01 +8.53056173450E-03 -5.64108757433E-03 +8.29705598782E-03 -5.68650037688E-03 -1.38603539218E-01 +5.54380131891E-01
4.53500000000E+09 -6.87203741019E-02 +4.90519649940E-01 +7.84899251377E-03 -6.69287025851E-03 +7.62273990922E-03 -6.76897497672E-03 -1.24017702759E-01 +5.63650549669E-01
4.54000000000E+09 -5.35533402363E-02 +4.97082495699E-01 +6.93731810188E-03 -7.37061064187E-03 +6.70015132332E-03 -7.36038242000E-03 -1.07956071418E-01 +5.72373483340E-01
4.54500000000E+09 -3.95581082357E-02 +5.04108634020E-01 +5.83291710190E-03 -7.91401959678E-03 +5.62757268199E-03 -7.86306803013E-03 -9.37403690995E-02 +5.81189386433E-01
4.55000000000E+09 -2.71715592544E-02 +5.11575797465E-01 +5.19832792394E-03 -8.40055595418E-03 +4.95285117881E-03 -8.36007155885E-03 -7.79750362878E-02 +5.90157140493E-01
4.55500000000E+09 -1.68831196933E-02 +5.19208750979E-01 +4.02257434066E-03 -8.48713535252E-03 +3.81886494060E-03 -8.38202167388E-03 -6.24198252290E-02 +5.98425659890E-01
4.56000000000E+09 -8.63295655501E-03 +5.27054339477E-01 +3.36104249391E-03 -8.76886163429E-03 +3.14115102553E-03 -8.66617575113E-03 -4.73551907356E-02 +6.04553637345E-01
4.56500000000E+09 -7.34046455508E-05 +5.33927864724E-01 +2.74631093433E-03 -9.24314238139E-03 +2.54673988263E-03 -9.10970686110E-03 -3.32831001365E-02 +6.11150071859E-01
4.57000000000E+09 +8.07500218672E-03 +5.38748918356E-01 +1.48437389139E-03 -9.81178919947E-03 +1.25673989707E-03 -9.61655670120E-03 -1.81685910299E-02 +6.17148412903E-01
