# Hz S RI R 50
! CMT, C1220, 16058040, 17.2.0/1
! Date: 15/08/2018 11:39:53
! Data: Format (Calibration Info)
! Freq                      S11: Re/Im (F2)                       S21: Re/Im (F2)                       S12: Re/Im (F2)                       S22: Re/Im (F2)            
4.00000000000E+09 +6.36603654798E-01 -3.35544455208E-01 -1.49382686777E-03 -2.80418041732E-03 -1.38612566431E-03 -2.97028622974E-03 +7.69941611041E-01 -3.53535648625E-01
4.00500000000E+09 +6.27554172933E-01 -3.42152651288E-01 -1.60350606879E-03 -2.78711965335E-03 -1.54695426417E-03 -2.90838878753E-03 +7.61258542924E-01 -3.64882529655E-01
4.01000000000E+09 +6.17465781670E-01 -3.47814439600E-01 -1.93602556711E-03 -2.86489901982E-03 -1.86179853564E-03 -3.00104379648E-03 +7.51574507837E-01 -3.75902059644E-01
4.01500000000E+09 +6.06660581919E-01 -3.53098742030E-01 -2.30963198049E-03 -2.58357515598E-03 -2.25733244199E-03 -2.68625253920E-03 +7.42063419150E-01 -3.86103335841E-01
4.02000000000E+09 +5.95202659524E-01 -3.59597930861E-01 -2.38757771195E-03 -2.53110506120E-03 -2.34352711971E-03 -2.71572769689E-03 +7.32393918736E-01 -3.96499250900E-01
4.02500000000E+09 +5.82661447904E-01 -3.66640207447E-01 -3.16013932484E-03 -2.47179560255E-03 -3.06251445861E-03 -2.65546047634E-03 +7.22003585577E-01 -4.07156281829E-01
4.03000000000E+09 +5.70330676866E-01 -3.74753997911E-01 -3.50144977391E-03 -1.86185283979E-03 -3.52406068773E-03 -1.99790591465E-03 +7.11367045775E-01 -4.17403992515E-01
4.03500000000E+09 +5.57445191329E-01 -3.84181812156E-01 -3.40862290627E-03 -1.43603868541E-03 -3.49078294646E-03 -1.57808633444E-03 +7.00042108102E-01 -4.28379334646E-01
4.04000000000E+09 +5.44307640287E-01 -3.93412251034E-01 -3.65546754467E-03 -1.15619094989E-03 -3.69506053407E-03 -1.29605996115E-03 +6.88224129897E-01 -4.38900162443E-01
4.04500000000E+09 +5.31608225231E-01 -4.02702836015E-01 -3.58700160850E-03 -8.21971329932E-04 -3.67909533071E-03 -9.86467781224E-04 +6.76668492971E-01 -4.49018141884E-01
4.05000000000E+09 +5.18517265229E-01 -4.11048030415E-01 -3.81273213368E-03 -6.96819897172E-04 -3.90908131543E-03 -8.55189752622E-04 +6.65162090132E-01 -4.59409223433E-01
4.05500000000E+09 +5.04760491410E-01 -4.17821347685E-01 -4.12082480866E-03 -2.02635957407E-04 -4.35580140896E-03 -2.75251425628E-04 +6.52653659762E-01 -4.69372479107E-01
4.06000000000E+09 +4.91170622606E-01 -4.22617139297E-01 -4.20032553761E-03 +3.71777072049E-04 -4.39405619169E-03 +3.12944883456E-04 +6.40115889417E-01 -4.78649881865E-01
4.06500000000E+09 +4.77049101699E-01 -4.26504675219E-01 -3.93638223823E-03 +9.62578537713E-04 -4.09652298189E-03 +9.43365095435E-04 +6.26603929710E-01 -4.87976836156E-01
4.07000000000E+09 +4.62533555026E-01 -4.29663954386E-01 -3.77876376278E-03 +1.23556098123E-03 -3.88732981436E-03 +1.17103504726E-03 +6.12676220160E-01 -4.97315301588E-01
4.07500000000E+09 +4.46976477943E-01 -4.32940364238E-01 -3.56088684913E-03 +1.49155661378E-03 -3.65436372590E-03 +1.41074311669E-03 +5.98971328508E-01 -5.06959941343E-01
4.08000000000E+09 +4.30450974377E-01 -4.36369939423E-01 -3.56013464844E-03 +1.62188726823E-03 -3.68959509226E-03 +1.48335190976E-03 +5.84239722050E-01 -5.16861789361E-01
4.08500000000E+09 +4.12995144346E-01 -4.40544245087E-01 -3.62491408878E-03 +1.88247496846E-03 -3.78824762827E-03 +1.82729149373E-03 +5.69265932527E-01 -5.25563492197E-01
4.09000000000E+09 +3.95065578899E-01 -4.44270215997E-01 -3.50984056958E-03 +2.34590317247E-03 -3.74104106923E-03 +2.32754484285E-03 +5.54264322990E-01 -5.33624105551E-01
4.09500000000E+09 +3.77583051190E-01 -4.48122483861E-01 -3.46835220191E-03 +2.81725916374E-03 -3.69228307730E-03 +2.82831703193E-03 +5.38926030233E-01 -5.40593090511E-01
4.10000000000E+09 +3.60446060410E-01 -4.52026706863E-01 -3.12496241214E-03 +3.20019585280E-03 -3.28476768973E-03 +3.23581767198E-03 +5.23544703125E-01 -5.47731742017E-01
4.10500000000E+09 +3.43584367435E-01 -4.55170571882E-01 -2.88757294825E-03 +3.60756054203E-03 -2.99614943115E-03 +3.59696225780E-03 +5.06649129397E-01 -5.55611208076E-01
4.11000000000E+09 +3.26420040565E-01 -4.56891108817E-01 -2.55946648194E-03 +3.99302105602E-03 -2.71020484132E-03 +3.99421824379E-03 +4.89116172124E-01 -5.62631668206E-01
4.11500000000E+09 +3.10310143447E-01 -4.57083925242E-01 -1.83963833169E-03 +4.21639644529E-03 -2.09693859992E-03 +4.26162166386E-03 +4.71928873315E-01 -5.69342129526E-01
4.12000000000E+09 +2.93488856804E-01 -4.56666246780E-01 -1.69434125383E-03 +4.12280144279E-03 -1.87805368437E-03 +4.16659556742E-03 +4.54407191433E-01 -5.76357509944E-01
4.12500000000E+09 +2.76396497548E-01 -4.55237164393E-01 -1.75545052330E-03 +4.34304488039E-03 -1.90575399719E-03 +4.36234655678E-03 +4.36549889481E-01 -5.82247642504E-01
4.13000000000E+09 +2.59013796327E-01 -4.53212156323E-01 -1.34228549769E-03 +4.94604079878E-03 -1.48423234417E-03 +5.04979525594E-03 +4.18115962675E-01 -5.87690457742E-01
4.13500000000E+09 +2.41081861270E-01 -4.51709371612E-01 -8.22913578916E-04 +5.11650343263E-03 -9.61240232008E-04 +5.26295149558E-03 +3.99460123879E-01 -5.92203298646E-01
4.14000000000E+09 +2.22872041355E-01 -4.51411438430E-01 -3.16932508872E-04 +5.61182865935E-03 -4.88993205248E-04 +5.75206246119E-03 +3.80068429543E-01 -5.96480274327E-01
4.14500000000E+09 +2.04250693707E-01 -4.51546768864E-01 +7.12837850261E-04 +6.01264713412E-03 +6.06375221902E-04 +6.25530399381E-03 +3.60680433117E-01 -6.00563715114E-01
4.15000000000E+09 +1.85655138628E-01 -4.53368658139E-01 +1.63438397964E-03 +5.48882622568E-03 +1.60303436626E-03 +5.72098539937E-03 +3.41749237572E-01 -6.05384321511E-01
4.15500000000E+09 +1.66004387664E-01 -4.54304615911E-01 +2.05812635904E-03 +5.02406643076E-03 +2.09956285016E-03 +5.17867582818E-03 +3.21257513966E-01 -6.09800928399E-01
4.16000000000E+09 +1.47252509880E-01 -4.53622968970E-01 +2.28705658091E-03 +4.83091276547E-03 +2.30302735859E-03 +4.93890514964E-03 +3.00202265792E-01 -6.11557432124E-01
4.16500000000E+09 +1.29667680164E-01 -4.51144395108E-01 +2.46674651752E-03 +4.65945720332E-03 +2.46915139982E-03 +4.74261429648E-03 +2.80742165889E-01 -6.12437172095E-01
4.17000000000E+09 +1.13754126767E-01 -4.46424624221E-01 +2.93251868637E-03 +4.94248889463E-03 +2.89802245027E-03 +5.05940010859E-03 +2.59814178019E-01 -6.12816998392E-01
4.17500000000E+09 +9.89528716123E-02 -4.40743727183E-01 +3.63351204751E-03 +5.06001106929E-03 +3.61181015152E-03 +5.26028813059E-03 +2.38444110545E-01 -6.12651158145E-01
4.18000000000E+09 +8.37813434316E-02 -4.34383045207E-01 +4.77847422940E-03 +4.45289764298E-03 +4.84562764387E-03 +4.71215248117E-03 +2.16901486741E-01 -6.12442646006E-01
4.18500000000E+09 +6.74470142542E-02 -4.26489159384E-01 +5.17198102808E-03 +3.79523440020E-03 +5.23758710123E-03 +3.98372925997E-03 +1.94322317101E-01 -6.11605637782E-01
4.19000000000E+09 +5.10235627744E-02 -4.17903476786E-01 +5.65865008500E-03 +3.29784423058E-03 +5.77062730680E-03 +3.51849293586E-03 +1.73095888093E-01 -6.09497206650E-01
4.19500000000E+09 +3.35360580892E-02 -4.09056968196E-01 +6.01521752773E-03 +2.65036939832E-03 +6.13115486492E-03 +2.83405639531E-03 +1.51681434221E-01 -6.06955886954E-01
4.20000000000E+09 +1.60627151625E-02 -4.00038401583E-01 +6.24188985959E-03 +1.87650474294E-03 +6.37177227149E-03 +2.09237768489E-03 +1.30042907317E-01 -6.04580676507E-01
4.20500000000E+09 -5.05773061039E-04 -3.92269294792E-01 +6.36186818193E-03 +1.30720249331E-03 +6.51083837211E-03 +1.45765842158E-03 +1.07136617494E-01 -6.01027338332E-01
4.21000000000E+09 -1.69594581965E-02 -3.85264169560E-01 +6.54878793880E-03 +5.26972231674E-04 +6.72188479331E-03 +6.72618762977E-04 +8.36120362602E-02 -5.95838276735E-01
4.21500000000E+09 -3.32210142709E-02 -3.78491405715E-01 +6.39750200119E-03 +2.42675634296E-04 +6.64797890319E-03 +3.74726377818E-04 +6.16700477194E-02 -5.90405682569E-01
4.22000000000E+09 -4.87627776611E-02 -3.70010861150E-01 +6.79708283719E-03 +1.55384179472E-05 +7.00130391819E-03 +1.19994326179E-04 +3.92799588294E-02 -5.84388470935E-01
4.22500000000E+09 -6.23074211442E-02 -3.60203967399E-01 +7.50554758337E-03 -1.13550343607E-03 +7.76292784490E-03 -1.06546410787E-03 +1.67898197349E-02 -5.78121270161E-01
4.23000000000E+09 -7.47306945567E-02 -3.49118636759E-01 +7.36786236355E-03 -2.52958059905E-03 +7.59612025908E-03 -2.48647805794E-03 -5.45339226668E-03 -5.70078003968E-01
4.23500000000E+09 -8.66701337496E-02 -3.36661596432E-01 +6.75318142365E-03 -3.46040226547E-03 +7.00628187460E-03 -3.53868701891E-03 -2.71614943946E-02 -5.60343202809E-01
4.24000000000E+09 -9.90635408671E-02 -3.23229870337E-01 +6.05128718103E-03 -4.12199067277E-03 +6.29383810846E-03 -4.18532525660E-03 -4.79889782345E-02 -5.50076039310E-01
4.24500000000E+09 -1.12075536778E-01 -3.08853247827E-01 +5.52354465421E-03 -4.19290709101E-03 +5.67658906685E-03 -4.39920395478E-03 -6.84869140341E-02 -5.39973177681E-01
4.25000000000E+09 -1.26032825399E-01 -2.93835278984E-01 +5.58827363830E-03 -4.78633513320E-03 +5.75182764498E-03 -4.93720662954E-03 -9.05420296672E-02 -5.29214017463E-01
4.25500000000E+09 -1.40643168554E-01 -2.79698088363E-01 +5.07097899371E-03 -6.00154599831E-03 +5.12708796398E-03 -6.11831176734E-03 -1.12590410385E-01 -5.16911528827E-01
4.26000000000E+09 -1.56634715783E-01 -2.66551065434E-01 +4.02089571625E-03 -6.37875643543E-03 +4.10336911420E-03 -6.48169290436E-03 -1.33252885751E-01 -5.02209029124E-01
4.26500000000E+09 -1.73292317953E-01 -2.53779146475E-01 +3.49502129894E-03 -6.33743378805E-03 +3.54415970585E-03 -6.45979527348E-03 -1.52494386695E-01 -4.87485717266E-01
4.27000000000E+09 -1.88940591894E-01 -2.40888454618E-01 +3.18476734499E-03 -6.87605341024E-03 +3.24375557866E-03 -7.05542104172E-03 -1.71596068963E-01 -4.72478029311E-01
4.27500000000E+09 -2.03541687433E-01 -2.27965337558E-01 +2.32617773429E-03 -7.40523531844E-03 +2.33002718857E-03 -7.53011014750E-03 -1.91895238548E-01 -4.56319137184E-01
4.28000000000E+09 -2.15228105191E-01 -2.13962476710E-01 +1.69254890276E-03 -7.63445060853E-03 +1.70037281294E-03 -7.77065124595E-03 -2.10527240368E-01 -4.39511708400E-01
4.28500000000E+09 -2.24098527693E-01 -2.00342004457E-01 +8.52007610678E-04 -8.25142790341E-03 +8.32926807083E-04 -8.35300009174E-03 -2.29867406751E-01 -4.22811963667E-01
4.29000000000E+09 -2.31968510858E-01 -1.86397670979E-01 -5.99107958823E-04 -8.44986294640E-03 -6.48313855154E-04 -8.53522750881E-03 -2.47253912025E-01 -4.03999230045E-01
4.29500000000E+09 -2.39663199141E-01 -1.71448458602E-01 -1.59692789605E-03 -7.68207716493E-03 -1.63829626608E-03 -7.81389324687E-03 -2.62243435454E-01 -3.87231072486E-01
4.30000000000E+09 -2.47522990393E-01 -1.54522654777E-01 -2.51102484258E-03 -7.35096177469E-03 -2.55168981934E-03 -7.44938513376E-03 -2.79023752948E-01 -3.69622607974E-01
4.30500000000E+09 -2.55265792752E-01 -1.36496092628E-01 -2.86518424559E-03 -6.51199480488E-03 -2.84524344251E-03 -6.60914828010E-03 -2.95115720333E-01 -3.49059846612E-01
4.31000000000E+09 -2.63764719173E-01 -1.16735262503E-01 -2.63325604510E-03 -6.39115036772E-03 -2.68053825335E-03 -6.53216998999E-03 -3.10179619684E-01 -3.28278401969E-01
4.31500000000E+09 -2.71193751476E-01 -9.71912110048E-02 -3.08692984142E-03 -6.76831041984E-03 -3.19634179149E-03 -6.96467524193E-03 -3.23936914997E-01 -3.06038120130E-01
4.32000000000E+09 -2.78043401453E-01 -7.83952766163E-02 -3.91836054408E-03 -6.91199208638E-03 -4.01777147535E-03 -7.03397040695E-03 -3.36682805334E-01 -2.84922812583E-01
4.32500000000E+09 -2.84238105374E-01 -6.23135202221E-02 -5.46707547367E-03 -6.71553823124E-03 -5.63396397276E-03 -6.81704454712E-03 -3.49409069842E-01 -2.63096602364E-01
4.33000000000E+09 -2.90903471406E-01 -4.67720121126E-02 -6.01244456157E-03 -6.03496470452E-03 -6.15828861999E-03 -6.07278905585E-03 -3.61501957089E-01 -2.39540425697E-01
4.33500000000E+09 -2.95993669744E-01 -3.07039097797E-02 -7.15652562216E-03 -5.39138158959E-03 -7.33656460197E-03 -5.37736563552E-03 -3.71268599150E-01 -2.14487611805E-01
4.34000000000E+09 -2.98681358319E-01 -1.44752589604E-02 -7.89975532897E-03 -4.07766307500E-03 -8.01225977994E-03 -4.05598569975E-03 -3.79005713568E-01 -1.90103954283E-01
4.34500000000E+09 -2.98954750283E-01 +1.63209146478E-03 -7.55637383227E-03 -2.90168435847E-03 -7.61782482574E-03 -2.88636452820E-03 -3.87695801309E-01 -1.67794954812E-01
4.35000000000E+09 -2.98697845748E-01 +1.88426511596E-02 -7.61903291636E-03 -2.79491548247E-03 -7.65466569841E-03 -2.74067406201E-03 -3.97875132855E-01 -1.43314992672E-01
4.35500000000E+09 -2.96993293080E-01 +3.70327850391E-02 -8.26703653119E-03 -2.10413423433E-03 -8.36571561466E-03 -2.09543056341E-03 -4.05112336122E-01 -1.17254590450E-01
4.36000000000E+09 -2.95751488627E-01 +5.56956613986E-02 -7.98983159235E-03 -1.55858889343E-03 -8.16573634060E-03 -1.49317504630E-03 -4.10465139331E-01 -9.30253856585E-02
4.36500000000E+09 -2.94865568872E-01 +7.54742050081E-02 -9.15568110567E-03 -1.56122702974E-03 -9.31826237735E-03 -1.57084997303E-03 -4.14354442155E-01 -6.90517140015E-02
4.37000000000E+09 -2.95171489240E-01 +9.50047745246E-02 -1.03433411752E-02 +1.19860194331E-04 -1.04726831345E-02 +3.36307323337E-04 -4.17553785476E-01 -4.51510911137E-02
4.37500000000E+09 -2.95657605535E-01 +1.14378061441E-01 -1.01517790636E-02 +2.41888153694E-03 -1.02499331103E-02 +2.63150899428E-03 -4.20146757656E-01 -2.12728485291E-02
4.38000000000E+09 -2.97175671365E-01 +1.32239237712E-01 -9.44594149336E-03 +3.56300509801E-03 -9.46958955496E-03 +3.80083835341E-03 -4.22527161190E-01 +5.06751603757E-03
4.38500000000E+09 -2.97834771256E-01 +1.49125218632E-01 -8.41665857209E-03 +4.53492830101E-03 -8.40874533732E-03 +4.83529473198E-03 -4.21899843450E-01 +3.08903582232E-02
4.39000000000E+09 -2.97201690632E-01 +1.64309418258E-01 -7.66869245667E-03 +5.18839241668E-03 -7.59411264773E-03 +5.36815021403E-03 -4.21419803855E-01 +5.49527630311E-02
4.39500000000E+09 -2.95709935653E-01 +1.77840563054E-01 -7.64298448402E-03 +5.41342281386E-03 -7.63792307999E-03 +5.62065723613E-03 -4.21082712906E-01 +7.85937452364E-02
4.40000000000E+09 -2.92016768937E-01 +1.91446249103E-01 -6.95914586627E-03 +6.85820547655E-03 -6.89708153621E-03 +7.08981271363E-03 -4.20354686513E-01 +1.02823458020E-01
4.40500000000E+09 -2.87146050891E-01 +2.04381298827E-01 -6.22256277058E-03 +7.75147663780E-03 -6.12971784546E-03 +7.90659686399E-03 -4.16835270419E-01 +1.27513765330E-01
4.41000000000E+09 -2.81086607657E-01 +2.18696994470E-01 -4.94702156612E-03 +8.05890749391E-03 -4.83306030346E-03 +8.12631911182E-03 -4.11794718458E-01 +1.51772920663E-01
4.41500000000E+09 -2.73790288434E-01 +2.34817227695E-01 -4.35612706692E-03 +8.96751125009E-03 -4.20741038970E-03 +9.02340606251E-03 -4.06165858903E-01 +1.74735886759E-01
4.42000000000E+09 -2.66629634419E-01 +2.51375032482E-01 -3.28497140009E-03 +9.07175131797E-03 -3.11781368863E-03 +9.10845999488E-03 -3.99561722073E-01 +1.98166044971E-01
4.42500000000E+09 -2.59914535075E-01 +2.68946498790E-01 -2.59291082405E-03 +1.00153737704E-02 -2.45183070878E-03 +1.00335996286E-02 -3.94102458096E-01 +2.19951954816E-01
4.43000000000E+09 -2.53820312609E-01 +2.86327420695E-01 -4.72271602348E-04 +1.05464719083E-02 -2.89965450891E-04 +1.04533867381E-02 -3.86975344392E-01 +2.43531920261E-01
4.43500000000E+09 -2.48226399102E-01 +3.02778813178E-01 +9.97189696395E-04 +9.69875578852E-03 +1.06824837001E-03 +9.59495313736E-03 -3.77791774187E-01 +2.65081383938E-01
4.44000000000E+09 -2.43617661925E-01 +3.16970610504E-01 +1.99437752396E-03 +8.75323658612E-03 +2.09632728771E-03 +8.66815391120E-03 -3.69322818780E-01 +2.84651082360E-01
4.44500000000E+09 -2.39771150529E-01 +3.29352726035E-01 +2.14840338409E-03 +8.35766256724E-03 +2.20489146947E-03 +8.33589160978E-03 -3.61200290882E-01 +3.04921667674E-01
4.45000000000E+09 -2.36091089116E-01 +3.40520319769E-01 +2.47355840796E-03 +8.03789412959E-03 +2.63222397029E-03 +7.99204393607E-03 -3.51331098157E-01 +3.25226647556E-01
4.45500000000E+09 -2.29830425548E-01 +3.50739580154E-01 +3.14525385275E-03 +8.66231716637E-03 +3.34183823754E-03 +8.58628420889E-03 -3.40634940862E-01 +3.44784426463E-01
4.46000000000E+09 -2.22600015628E-01 +3.59718637020E-01 +4.70490732605E-03 +8.33176364210E-03 +4.93011684037E-03 +8.19424646040E-03 -3.27732069284E-01 +3.63607820169E-01
4.46500000000E+09 -2.12889580610E-01 +3.69553917637E-01 +5.55910324670E-03 +7.32263102163E-03 +5.72222954072E-03 +7.18855827534E-03 -3.15581484784E-01 +3.79671879275E-01
4.47000000000E+09 -2.01441127945E-01 +3.79491093419E-01 +6.33961479860E-03 +6.73150069879E-03 +6.42953161434E-03 +6.51251820576E-03 -3.04307032493E-01 +3.96505258139E-01
4.47500000000E+09 -1.88689955100E-01 +3.90017162446E-01 +6.59966351531E-03 +5.93530328191E-03 +6.66414469012E-03 +5.66977671810E-03 -2.92688355758E-01 +4.14365573442E-01
4.48000000000E+09 -1.76742525745E-01 +4.01145124794E-01 +7.31016096190E-03 +5.32329142947E-03 +7.34284000378E-03 +5.09341436447E-03 -2.79395417735E-01 +4.31340491931E-01
4.48500000000E+09 -1.65881947493E-01 +4.13818654698E-01 +8.12645298050E-03 +4.94002568522E-03 +8.09415369113E-03 +4.63496605724E-03 -2.65235472640E-01 +4.46476373548E-01
4.49000000000E+09 -1.55806100566E-01 +4.26645581899E-01 +8.67121034252E-03 +3.04709787371E-03 +8.56975373214E-03 +2.84159635257E-03 -2.52351409558E-01 +4.60797152926E-01
4.49500000000E+09 -1.47338992532E-01 +4.38986217432E-01 +8.04549538937E-03 +2.18758934271E-03 +7.96018055280E-03 +2.05282263197E-03 -2.39063799515E-01 +4.75363550845E-01
4.50000000000E+09 -1.39888347266E-01 +4.49958174865E-01 +8.13274559765E-03 +2.13900087758E-03 +8.02290080802E-03 +1.97071395265E-03 -2.24541554294E-01 +4.89032472373E-01
4.50500000000E+09 -1.33432668050E-01 +4.59548379407E-01 +8.60229485255E-03 +1.44335989891E-03 +8.42918543236E-03 +1.27677546754E-03 -2.10810820236E-01 +5.02588620249E-01
4.51000000000E+09 -1.26115965375E-01 +4.66794439764E-01 +9.31000205684E-03 +6.15395079839E-04 +9.13414749913E-03 +4.58748334779E-04 -1.94636012029E-01 +5.15046829998E-01
4.51500000000E+09 -1.18683508674E-01 +4.72407381075E-01 +9.39025387814E-03 -6.16618591178E-04 +9.26175199875E-03 -7.64784886771E-04 -1.80418950792E-01 +5.25348004259E-01
4.52000000000E+09 -1.09520637352E-01 +4.77177205202E-01 +9.52490755376E-03 -2.27996890212E-03 +9.35701895422E-03 -2.38956447394E-03 -1.67127697936E-01 +5.36128464994E-01
4.52500000000E+09 -9.90042350681E-02 +4.81130632686E-01 +8.37262678926E-03 -3.36022313138E-03 +8.20644552651E-03 -3.42869321244E-03 -1.53129435893E-01 +5.47165923541E-01
4.53000000000E+09 -8.70040132369E-02 +4.86012728843E-01 +7.86356016101E-03 -3.92248770250E-03 +7.65349034413E-03 -4.00145182251E-03 -1.37901896977E-01 +5.56867440740E-01
4.53500000000E+09 -7.33500482536E-02 +4.92250082267E-01 +7.40594619336E-03 -4.66485740000E-03 +7.10946352271E-03 -4.73393348743E-03 -1.23033726939E-01 +5.65952023242E-01
4.54000000000E+09 -5.84847136899E-02 +4.98716537657E-01 +6.93725014016E-03 -5.21934487798E-03 +6.64365230437E-03 -5.25350497770E-03 -1.06944459907E-01 +5.74852622278E-01
4.54500000000E+09 -4.47340469909E-02 +5.05551188610E-01 +6.06845450938E-03 -6.00588323655E-03 +5.80578741155E-03 -5.97112148668E-03 -9.24343444313E-02 +5.83557543362E-01
4.55000000000E+09 -3.18375960044E-02 +5.12713709012E-01 +5.63709337884E-03 -6.50923037607E-03 +5.33122584397E-03 -6.48344029707E-03 -7.64358265503E-02 +5.92624175483E-01
4.55500000000E+09 -2.11635102681E-02 +5.19530630977E-01 +4.51385009680E-03 -6.66034713914E-03 +4.33687275205E-03 -6.57630919058E-03 -6.05474717551E-02 +6.00624078630E-01
4.56000000000E+09 -1.25387649589E-02 +5.26974874485E-01 +4.21618264969E-03 -7.07729297136E-03 +4.01244609526E-03 -6.95525452926E-03 -4.51268075249E-02 +6.06346732464E-01
4.56500000000E+09 -3.38302144734E-03 +5.33699066047E-01 +3.64372913945E-03 -7.68011507879E-03 +3.44520759437E-03 -7.53795166047E-03 -3.11978227913E-02 +6.12547514781E-01
4.57000000000E+09 +5.59351718040E-03 +5.38482533514E-01 +2.55568621714E-03 -8.27651440372E-03 +2.37939911903E-03 -8.09062023132E-03 -1.62901275021E-02 +6.18700098407E-01
