# Hz S RI R 50
! CMT, C1220, 16058040, 17.2.0/1
! Date: 15/08/2018 11:44:19
! Data: Format (Calibration Info)
! Freq                      S11: Re/Im (F2)                       S21: Re/Im (F2)                       S12: Re/Im (F2)                       S22: Re/Im (F2)            
4.00000000000E+09 +6.39897835119E-01 -3.37738985099E-01 -9.38693831713E-04 -2.32503619014E-03 -8.90243737401E-04 -2.43678774746E-03 +7.70975063637E-01 -3.51397165632E-01
4.00500000000E+09 +6.30899840926E-01 -3.44023166583E-01 -1.10002805143E-03 -2.31172372912E-03 -1.06476215453E-03 -2.35222764094E-03 +7.62313540428E-01 -3.62632076734E-01
4.01000000000E+09 +6.21117191125E-01 -3.49756756447E-01 -1.31893421230E-03 -2.43949266870E-03 -1.26790480645E-03 -2.48956763785E-03 +7.52644985540E-01 -3.73753407499E-01
4.01500000000E+09 +6.10206421622E-01 -3.55323792537E-01 -1.58632688112E-03 -2.21243865847E-03 -1.50486382389E-03 -2.32702151711E-03 +7.43031280561E-01 -3.83842566892E-01
4.02000000000E+09 +5.98603672664E-01 -3.62040737019E-01 -1.74113603970E-03 -2.34302961638E-03 -1.68513688486E-03 -2.46366255012E-03 +7.33279944915E-01 -3.94096030131E-01
4.02500000000E+09 +5.85997713628E-01 -3.69226483953E-01 -2.38729861320E-03 -2.29225207029E-03 -2.35516512176E-03 -2.44184044535E-03 +7.23095111032E-01 -4.04743717806E-01
4.03000000000E+09 +5.73543518095E-01 -3.77355228445E-01 -2.84901541194E-03 -1.71679792907E-03 -2.77349824049E-03 -1.91894939884E-03 +7.12295984206E-01 -4.15146150372E-01
4.03500000000E+09 +5.60881163338E-01 -3.86709201529E-01 -2.67196766918E-03 -1.30506173385E-03 -2.69405506183E-03 -1.44989406458E-03 +7.00858848466E-01 -4.25919436263E-01
4.04000000000E+09 +5.48283272427E-01 -3.96444730071E-01 -2.89549240556E-03 -1.08987665626E-03 -2.92991616830E-03 -1.22825171914E-03 +6.89212311804E-01 -4.36709169654E-01
4.04500000000E+09 +5.35412576287E-01 -4.06085681737E-01 -2.73726476033E-03 -8.43043474684E-04 -2.75579007898E-03 -9.76363169670E-04 +6.77448019733E-01 -4.46859193312E-01
4.05000000000E+09 +5.22240524810E-01 -4.14511801482E-01 -2.96955942603E-03 -8.99690440187E-04 -3.04080284877E-03 -1.05274684256E-03 +6.65943728441E-01 -4.56964661212E-01
4.05500000000E+09 +5.08533541877E-01 -4.21083598713E-01 -3.35025212610E-03 -5.07942274079E-04 -3.48460543503E-03 -6.03334549123E-04 +6.53545470413E-01 -4.66896482366E-01
4.06000000000E+09 +4.95043099128E-01 -4.25882596989E-01 -3.41335512010E-03 -2.05514339310E-05 -3.54341134752E-03 -1.03335633908E-04 +6.40830328384E-01 -4.75987040539E-01
4.06500000000E+09 +4.81087997197E-01 -4.29648434948E-01 -3.16808204662E-03 +5.11781175099E-04 -3.31143579000E-03 +4.34920310560E-04 +6.27222411169E-01 -4.85084577492E-01
4.07000000000E+09 +4.66361613208E-01 -4.32914041759E-01 -3.09255565282E-03 +6.45106195042E-04 -3.20527544358E-03 +5.37214046893E-04 +6.13314800636E-01 -4.94314058603E-01
4.07500000000E+09 +4.50640024734E-01 -4.36255462627E-01 -3.04960598371E-03 +8.48630893601E-04 -3.12970126704E-03 +7.43500219530E-04 +5.99550777229E-01 -5.03993274217E-01
4.08000000000E+09 +4.33911648862E-01 -4.39828153789E-01 -3.05114684786E-03 +9.58995076818E-04 -3.17521200981E-03 +8.68417386883E-04 +5.84852508457E-01 -5.13680573788E-01
4.08500000000E+09 +4.16439188022E-01 -4.43894848820E-01 -3.08795593329E-03 +1.26115512562E-03 -3.25146900790E-03 +1.23667942282E-03 +5.70286615111E-01 -5.22121437426E-01
4.09000000000E+09 +3.98585272768E-01 -4.47948343920E-01 -2.96817435892E-03 +1.61142766481E-03 -3.07053385034E-03 +1.60808183618E-03 +5.55538326517E-01 -5.30094589614E-01
4.09500000000E+09 +3.81098859452E-01 -4.52151075776E-01 -2.94509686089E-03 +1.87405217623E-03 -3.07708118026E-03 +1.83766130836E-03 +5.40366618062E-01 -5.37314022959E-01
4.10000000000E+09 +3.63673893954E-01 -4.56460498533E-01 -2.70042419549E-03 +1.95102502349E-03 -2.87448212604E-03 +1.95431172645E-03 +5.24881170994E-01 -5.44375770483E-01
4.10500000000E+09 +3.46615964550E-01 -4.59609441700E-01 -2.91957902133E-03 +2.32074374944E-03 -3.07080263090E-03 +2.36428997185E-03 +5.07961782693E-01 -5.51991314458E-01
4.11000000000E+09 +3.29637262297E-01 -4.61282815913E-01 -2.72508156385E-03 +3.04069572933E-03 -2.85645735845E-03 +3.04968370470E-03 +4.90641046125E-01 -5.58711655077E-01
4.11500000000E+09 +3.13568278871E-01 -4.61621580299E-01 -1.90853267452E-03 +3.32434134200E-03 -2.07169463399E-03 +3.36731712300E-03 +4.73838720358E-01 -5.65449452569E-01
4.12000000000E+09 +2.96853884519E-01 -4.61352129271E-01 -1.74222990573E-03 +3.12121497177E-03 -1.95471851461E-03 +3.22094685998E-03 +4.56566296693E-01 -5.72523413895E-01
4.12500000000E+09 +2.79497842455E-01 -4.60076320608E-01 -1.79394885856E-03 +3.22058193396E-03 -1.94152745928E-03 +3.33305616478E-03 +4.38960699703E-01 -5.78536926537E-01
4.13000000000E+09 +2.61657332579E-01 -4.58388808867E-01 -1.62386465145E-03 +3.62480581216E-03 -1.73010337954E-03 +3.72629396689E-03 +4.20832364362E-01 -5.84028363678E-01
4.13500000000E+09 +2.43471870422E-01 -4.56678355976E-01 -1.58397109160E-03 +3.89639286676E-03 -1.67505903940E-03 +3.97338271073E-03 +4.02293505374E-01 -5.88682106036E-01
4.14000000000E+09 +2.25109882698E-01 -4.56370851075E-01 -1.15281973580E-03 +4.58968414964E-03 -1.27700680624E-03 +4.68976358578E-03 +3.82741829021E-01 -5.93046593742E-01
4.14500000000E+09 +2.06353157107E-01 -4.56676573020E-01 -2.65037330715E-04 +5.02871239830E-03 -3.92258174645E-04 +5.22988450772E-03 +3.63437920203E-01 -5.96847270665E-01
4.15000000000E+09 +1.87567033456E-01 -4.58463580561E-01 +4.66939658394E-04 +4.78042256009E-03 +4.54952868317E-04 +4.97751552491E-03 +3.45112998078E-01 -6.01551692497E-01
4.15500000000E+09 +1.67989226923E-01 -4.59609050621E-01 +9.15468075355E-04 +4.44686720614E-03 +9.10099332791E-04 +4.59625195945E-03 +3.25005481860E-01 -6.06243196246E-01
4.16000000000E+09 +1.48988188611E-01 -4.59092567793E-01 +1.10006037991E-03 +4.33560196410E-03 +1.08968013053E-03 +4.44557548462E-03 +3.04136887390E-01 -6.08230864129E-01
4.16500000000E+09 +1.31271029875E-01 -4.56585138029E-01 +1.29150948606E-03 +4.33499173135E-03 +1.23875541043E-03 +4.45730001923E-03 +2.84955657193E-01 -6.09329252051E-01
4.17000000000E+09 +1.15126513633E-01 -4.51988252351E-01 +1.67347105335E-03 +4.72039188494E-03 +1.64104131757E-03 +4.81734676903E-03 +2.64209852746E-01 -6.10162165968E-01
4.17500000000E+09 +9.99161032010E-02 -4.46167826741E-01 +2.32405709288E-03 +4.95447332951E-03 +2.30007210264E-03 +5.03930448554E-03 +2.42753175031E-01 -6.10247397947E-01
4.18000000000E+09 +8.48146571471E-02 -4.39550676475E-01 +3.33944918237E-03 +4.53424568308E-03 +3.31964121153E-03 +4.75298473522E-03 +2.21196525776E-01 -6.09889971663E-01
4.18500000000E+09 +6.82985973182E-02 -4.31782436468E-01 +3.80442080866E-03 +4.16063510692E-03 +3.81505689182E-03 +4.31218074558E-03 +1.99076420026E-01 -6.09059874774E-01
4.19000000000E+09 +5.14832371004E-02 -4.23050992807E-01 +4.39594514398E-03 +4.00676253019E-03 +4.43369264053E-03 +4.08260595031E-03 +1.78152685384E-01 -6.07388126484E-01
4.19500000000E+09 +3.38419300482E-02 -4.14043018162E-01 +5.12987405286E-03 +3.30292019683E-03 +5.15914032774E-03 +3.45999154893E-03 +1.57035757830E-01 -6.05481872242E-01
4.20000000000E+09 +1.62485787213E-02 -4.05363617073E-01 +5.21347511110E-03 +2.50712260335E-03 +5.27771305556E-03 +2.67356163523E-03 +1.34973071753E-01 -6.03477327475E-01
4.20500000000E+09 -7.10654373865E-04 -3.97556639503E-01 +5.47966152258E-03 +2.08525331275E-03 +5.50830039545E-03 +2.25430448255E-03 +1.12313729807E-01 -6.00040627312E-01
4.21000000000E+09 -1.73303359987E-02 -3.90574297896E-01 +5.65505110348E-03 +1.31410147543E-03 +5.72407863081E-03 +1.48701078048E-03 +8.90907476797E-02 -5.95333589804E-01
4.21500000000E+09 -3.39753846369E-02 -3.83404017742E-01 +5.57978090603E-03 +1.18814740226E-03 +5.69412880300E-03 +1.33691196951E-03 +6.69625523610E-02 -5.90626147556E-01
4.22000000000E+09 -4.91931809491E-02 -3.74589834472E-01 +6.13001844430E-03 +1.05127472341E-03 +6.19835227773E-03 +1.22676012509E-03 +4.39908383915E-02 -5.85106979109E-01
4.22500000000E+09 -6.26263431073E-02 -3.64388036926E-01 +6.99917128050E-03 -3.11930219555E-05 +7.18818265348E-03 +1.34697535729E-04 +2.10393220338E-02 -5.78607370150E-01
4.23000000000E+09 -7.47741720722E-02 -3.53055720217E-01 +6.78482034732E-03 -1.46625780785E-03 +6.97872655242E-03 -1.42053387607E-03 -1.04546275608E-03 -5.70354401917E-01
4.23500000000E+09 -8.67981759308E-02 -3.40507879606E-01 +6.12139630517E-03 -2.28571022074E-03 +6.32966187604E-03 -2.21122948355E-03 -2.24939339017E-02 -5.61079850942E-01
4.24000000000E+09 -9.94925551718E-02 -3.26716497745E-01 +5.64534723153E-03 -2.55092069308E-03 +5.87992411452E-03 -2.54706010504E-03 -4.36110029882E-02 -5.51513752249E-01
4.24500000000E+09 -1.13020980802E-01 -3.11539368739E-01 +5.61066276329E-03 -2.75827506485E-03 +5.84020030684E-03 -2.82785933983E-03 -6.48665818161E-02 -5.41847564068E-01
4.25000000000E+09 -1.26994286593E-01 -2.95818180988E-01 +5.68353038623E-03 -3.55788040987E-03 +5.82125650620E-03 -3.64663397999E-03 -8.72550839364E-02 -5.30602036698E-01
4.25500000000E+09 -1.41646918276E-01 -2.81612883030E-01 +5.04733882447E-03 -4.45111764098E-03 +5.24362001611E-03 -4.60385414056E-03 -1.09023081053E-01 -5.18334139086E-01
4.26000000000E+09 -1.57975004987E-01 -2.68461216408E-01 +4.41145099409E-03 -4.70132161620E-03 +4.61767049668E-03 -4.88083366249E-03 -1.30017128092E-01 -5.04197842920E-01
4.26500000000E+09 -1.74992127502E-01 -2.55600121122E-01 +4.20633363313E-03 -4.70976999940E-03 +4.31314920993E-03 -4.92200840364E-03 -1.49832156699E-01 -4.89478123748E-01
4.27000000000E+09 -1.90659046411E-01 -2.42656688835E-01 +4.16884820028E-03 -5.44974704746E-03 +4.28747515588E-03 -5.71484227456E-03 -1.69097962051E-01 -4.74462379466E-01
4.27500000000E+09 -2.05185380656E-01 -2.29664498876E-01 +3.47907038292E-03 -6.31365123781E-03 +3.50545028505E-03 -6.55144771521E-03 -1.89721519184E-01 -4.58243504235E-01
4.28000000000E+09 -2.16557256101E-01 -2.15948933405E-01 +2.81875288939E-03 -6.71287262718E-03 +2.81257130772E-03 -6.82976946613E-03 -2.08561863266E-01 -4.41227418340E-01
4.28500000000E+09 -2.25169385973E-01 -2.02406864699E-01 +2.14560859323E-03 -7.29181513848E-03 +2.07946828963E-03 -7.54879106717E-03 -2.27933018216E-01 -4.24587064614E-01
4.29000000000E+09 -2.32633936385E-01 -1.88660186536E-01 +7.77415000101E-04 -7.56999473416E-03 +5.89798696949E-04 -7.81481648836E-03 -2.45755424769E-01 -4.06129600008E-01
4.29500000000E+09 -2.40413650618E-01 -1.73458556278E-01 +7.86171237751E-05 -6.96180822482E-03 -7.53792295939E-05 -7.05950640591E-03 -2.61125536665E-01 -3.89032983959E-01
4.30000000000E+09 -2.47972997445E-01 -1.55972863676E-01 -5.55987141093E-04 -7.03921523414E-03 -6.72031163150E-04 -7.09429438358E-03 -2.78034795664E-01 -3.71019359214E-01
4.30500000000E+09 -2.55240511137E-01 -1.37324063701E-01 -9.80697177631E-04 -6.74696206362E-03 -1.12084573492E-03 -6.79703628167E-03 -2.94294484367E-01 -3.50141082693E-01
4.31000000000E+09 -2.63250573137E-01 -1.17668300928E-01 -1.04905095910E-03 -6.82365644664E-03 -1.19416752895E-03 -6.84189433304E-03 -3.09145768536E-01 -3.29074619390E-01
4.31500000000E+09 -2.70856374230E-01 -9.84699464805E-02 -1.71676151255E-03 -7.32050832901E-03 -1.83983851431E-03 -7.41607903568E-03 -3.22941785310E-01 -3.06987065726E-01
4.32000000000E+09 -2.78274870395E-01 -7.96109932961E-02 -2.67139132165E-03 -7.61263206772E-03 -2.78007502222E-03 -7.66462345319E-03 -3.35749865697E-01 -2.85696604638E-01
4.32500000000E+09 -2.84729227040E-01 -6.34433373002E-02 -4.36850594447E-03 -7.53089453327E-03 -4.44363786747E-03 -7.52327586916E-03 -3.48492747180E-01 -2.63829388768E-01
4.33000000000E+09 -2.91378027788E-01 -4.78780901575E-02 -5.02144268988E-03 -6.81966713638E-03 -5.10045621935E-03 -6.79436689441E-03 -3.60429283311E-01 -2.40101830004E-01
4.33500000000E+09 -2.96639274613E-01 -3.21587399537E-02 -6.00539723466E-03 -6.25892536647E-03 -6.08241476491E-03 -6.19586890907E-03 -3.70370531451E-01 -2.15147748054E-01
4.34000000000E+09 -2.99345622356E-01 -1.58791808721E-02 -6.92311751359E-03 -5.29347143662E-03 -6.93568834968E-03 -5.17039230243E-03 -3.78282778919E-01 -1.90637352352E-01
4.34500000000E+09 -2.99166688332E-01 +1.44068436396E-04 -6.78439279111E-03 -4.31828969142E-03 -6.75979175925E-03 -4.26487952794E-03 -3.87318438733E-01 -1.67756751260E-01
4.35000000000E+09 -2.98750523252E-01 +1.69784250151E-02 -7.19447480183E-03 -4.29662342718E-03 -7.15083066534E-03 -4.31591892095E-03 -3.96807395716E-01 -1.42630423525E-01
4.35500000000E+09 -2.96940661117E-01 +3.52203178240E-02 -8.34332944511E-03 -3.65193154757E-03 -8.35631285917E-03 -3.74932012621E-03 -4.03631774706E-01 -1.16838552332E-01
4.36000000000E+09 -2.95627237021E-01 +5.39125058036E-02 -8.32433149125E-03 -2.47185252738E-03 -8.43979322696E-03 -2.50219345525E-03 -4.08810504136E-01 -9.26800702357E-02
4.36500000000E+09 -2.94516190764E-01 +7.40150917120E-02 -9.23272663911E-03 -2.33598425053E-03 -9.39125010149E-03 -2.34577431361E-03 -4.12942337307E-01 -6.89507848719E-02
4.37000000000E+09 -2.94658103491E-01 +9.38427318871E-02 -1.00726126736E-02 -6.52653896818E-04 -1.02592332861E-02 -5.83161114900E-04 -4.16067171209E-01 -4.47633202169E-02
4.37500000000E+09 -2.95365574513E-01 +1.13678611404E-01 -9.95623417331E-03 +1.04321670714E-03 -1.01069777126E-02 +1.13095722493E-03 -4.17871595424E-01 -2.04495373607E-02
4.38000000000E+09 -2.96459429443E-01 +1.31782981423E-01 -9.83353813321E-03 +2.11875234749E-03 -9.97830080444E-03 +2.18596762810E-03 -4.19682185074E-01 +5.40736732553E-03
4.38500000000E+09 -2.96922538101E-01 +1.48451146799E-01 -9.34726192750E-03 +3.55532641985E-03 -9.48471628497E-03 +3.73017743519E-03 -4.18932873537E-01 +3.07688015257E-02
4.39000000000E+09 -2.96485678874E-01 +1.63518590473E-01 -8.39816661624E-03 +4.67514124482E-03 -8.49383956810E-03 +4.87855157796E-03 -4.18760017944E-01 +5.44379936396E-02
4.39500000000E+09 -2.95110031630E-01 +1.76724022436E-01 -8.04637380412E-03 +5.07923671064E-03 -8.13983564076E-03 +5.28194434965E-03 -4.18482109879E-01 +7.84797982847E-02
4.40000000000E+09 -2.91812259108E-01 +1.90337719000E-01 -7.29830357566E-03 +6.43423465598E-03 -7.32486268791E-03 +6.66820347590E-03 -4.16840457311E-01 +1.02293962020E-01
4.40500000000E+09 -2.86987778466E-01 +2.03402292338E-01 -6.51596487843E-03 +7.07203904426E-03 -6.51803566366E-03 +7.33360264862E-03 -4.13522666935E-01 +1.26178318181E-01
4.41000000000E+09 -2.81025492142E-01 +2.17945349058E-01 -5.59949756233E-03 +7.26368349182E-03 -5.46487728069E-03 +7.51096058754E-03 -4.08809349463E-01 +1.49988427917E-01
4.41500000000E+09 -2.73540397751E-01 +2.33966069000E-01 -5.19496394502E-03 +8.40423352412E-03 -5.09129321207E-03 +8.64056350331E-03 -4.03576051688E-01 +1.73302734205E-01
4.42000000000E+09 -2.66488746960E-01 +2.50400420819E-01 -4.10878378729E-03 +8.72072616944E-03 -3.88906921849E-03 +8.95194565500E-03 -3.96468633838E-01 +1.96520360317E-01
4.42500000000E+09 -2.59986742351E-01 +2.67870449997E-01 -3.26728192846E-03 +9.67102954044E-03 -3.04964042071E-03 +9.77543677748E-03 -3.90857653583E-01 +2.17875667781E-01
4.43000000000E+09 -2.54457678147E-01 +2.85491219338E-01 -1.23851363628E-03 +1.01487494316E-02 -9.70992685209E-04 +1.01697658901E-02 -3.83948444418E-01 +2.40694284522E-01
4.43500000000E+09 -2.49086142563E-01 +3.02220286046E-01 -8.62119249333E-05 +9.53400639295E-03 +1.48162268405E-04 +9.48741667358E-03 -3.75370964254E-01 +2.62272842195E-01
4.44000000000E+09 -2.44856428659E-01 +3.16463631873E-01 +1.10369866246E-03 +8.91143682575E-03 +1.31826824373E-03 +8.83722467139E-03 -3.67002689621E-01 +2.81987585561E-01
4.44500000000E+09 -2.41125104511E-01 +3.29061511409E-01 +1.30575016945E-03 +8.53292386664E-03 +1.59177091434E-03 +8.45004281770E-03 -3.58626079143E-01 +3.01833871822E-01
4.45000000000E+09 -2.37427205971E-01 +3.40148415747E-01 +1.78058459991E-03 +8.26614587879E-03 +1.99129525107E-03 +8.20019600634E-03 -3.49011987300E-01 +3.21779971664E-01
4.45500000000E+09 -2.31424913730E-01 +3.50466870740E-01 +2.54758892949E-03 +8.85741568326E-03 +2.76483743838E-03 +8.69283581156E-03 -3.38579059479E-01 +3.40668528308E-01
4.46000000000E+09 -2.24029086260E-01 +3.59691834023E-01 +3.99145367306E-03 +8.63604109298E-03 +4.18566141414E-03 +8.40206874726E-03 -3.26356975166E-01 +3.59357921188E-01
4.46500000000E+09 -2.14140063223E-01 +3.69427423690E-01 +4.82355395729E-03 +7.89398614073E-03 +4.98690378022E-03 +7.69129412763E-03 -3.14652304815E-01 +3.75707909975E-01
4.47000000000E+09 -2.02813484068E-01 +3.79732381664E-01 +5.88064582178E-03 +7.41158077951E-03 +6.01661070787E-03 +7.10293773382E-03 -3.03372716768E-01 +3.92474681071E-01
4.47500000000E+09 -1.89956206065E-01 +3.90683897208E-01 +6.34098959947E-03 +6.45392986013E-03 +6.39367857078E-03 +6.20001390373E-03 -2.91755009213E-01 +4.10086970221E-01
4.48000000000E+09 -1.78125101968E-01 +4.02203533773E-01 +7.06860503744E-03 +5.86861421344E-03 +7.10227961492E-03 +5.58239534385E-03 -2.79101101896E-01 +4.26789257776E-01
4.48500000000E+09 -1.67415361987E-01 +4.15513354937E-01 +7.82036750109E-03 +5.29576543269E-03 +7.75119373665E-03 +4.93405765367E-03 -2.65769615598E-01 +4.41686782691E-01
4.49000000000E+09 -1.57284387235E-01 +4.28695913380E-01 +8.46885838675E-03 +3.57633741102E-03 +8.27456721287E-03 +3.42765854493E-03 -2.53208307284E-01 +4.56451517254E-01
4.49500000000E+09 -1.49338138089E-01 +4.41197444484E-01 +7.99735058953E-03 +2.85826854971E-03 +7.91316734820E-03 +2.80264646962E-03 -2.40223873033E-01 +4.71325663121E-01
4.50000000000E+09 -1.42161051025E-01 +4.52057046953E-01 +8.38646570951E-03 +2.45529727350E-03 +8.24706222168E-03 +2.40351792411E-03 -2.25640325582E-01 +4.84969624720E-01
4.50500000000E+09 -1.36183116223E-01 +4.61211290485E-01 +8.62262804083E-03 +1.70435355050E-03 +8.53996208170E-03 +1.57590196337E-03 -2.12286721395E-01 +4.98348160439E-01
4.51000000000E+09 -1.29657848741E-01 +4.68219549816E-01 +9.20553068527E-03 +8.63311016175E-04 +9.10678864252E-03 +7.79211278250E-04 -1.96957469021E-01 +5.11114923693E-01
4.51500000000E+09 -1.22626880353E-01 +4.73713122900E-01 +9.40800074980E-03 -3.02187581832E-04 +9.26122054837E-03 -3.55013880285E-04 -1.82886525941E-01 +5.22040414866E-01
4.52000000000E+09 -1.13407041988E-01 +4.78818596619E-01 +9.62710096929E-03 -1.93298994737E-03 +9.49887439581E-03 -2.02144926685E-03 -1.69281851419E-01 +5.33264265572E-01
4.52500000000E+09 -1.02035064733E-01 +4.82667995425E-01 +8.58235238583E-03 -3.13857749906E-03 +8.42493369041E-03 -3.15727273394E-03 -1.55374337899E-01 +5.43930528736E-01
4.53000000000E+09 -8.93075506080E-02 +4.87220836137E-01 +8.01317158852E-03 -3.83259081749E-03 +7.82521782635E-03 -3.92834028354E-03 -1.40718404692E-01 +5.53829440182E-01
4.53500000000E+09 -7.55380377338E-02 +4.93160494379E-01 +7.26035246431E-03 -4.60388364277E-03 +7.02573318403E-03 -4.66141421626E-03 -1.26076317289E-01 +5.63489114271E-01
4.54000000000E+09 -6.07287778856E-02 +5.00039213972E-01 +6.77779487846E-03 -4.86256666454E-03 +6.53994280730E-03 -4.93921482190E-03 -1.09945671031E-01 +5.72385279050E-01
4.54500000000E+09 -4.70122888675E-02 +5.07737584780E-01 +6.25533962026E-03 -5.52080077241E-03 +6.02650929167E-03 -5.51471739886E-03 -9.54140590910E-02 +5.81485873376E-01
4.55000000000E+09 -3.40044703078E-02 +5.15984466448E-01 +5.90270572550E-03 -6.32034115223E-03 +5.64086495243E-03 -6.33413147396E-03 -7.93881042015E-02 +5.90533399127E-01
4.55500000000E+09 -2.31653957891E-02 +5.23490249483E-01 +4.65605350764E-03 -6.68459568180E-03 +4.45488945780E-03 -6.64970392938E-03 -6.38334335946E-02 +5.98559616497E-01
4.56000000000E+09 -1.47508095147E-02 +5.31338069015E-01 +4.13040555623E-03 -7.02429294756E-03 +3.90919729561E-03 -6.97592541985E-03 -4.85371017683E-02 +6.04930395206E-01
4.56500000000E+09 -6.10947411046E-03 +5.38393839465E-01 +3.45897337739E-03 -7.38268342134E-03 +3.23389875278E-03 -7.34713860860E-03 -3.44921259272E-02 +6.11429515625E-01
4.57000000000E+09 +2.44543501417E-03 +5.43532904582E-01 +2.72587495095E-03 -7.69869823044E-03 +2.46432642158E-03 -7.61479479478E-03 -1.94473169005E-02 +6.17605024643E-01
