# Hz S RI R 50
! CMT, C1220, 16058040, 17.2.0/1
! Date: 15/08/2018 11:45:33
! Data: Format (Calibration Info)
! Freq                      S11: Re/Im (F2)                       S21: Re/Im (F2)                       S12: Re/Im (F2)                       S22: Re/Im (F2)            
4.00000000000E+09 +6.40319324654E-01 -3.37161813715E-01 -1.93840376385E-03 -2.96360350810E-03 -1.86532394600E-03 -3.16687221239E-03 +7.71507276743E-01 -3.51485128291E-01
4.00500000000E+09 +6.31558102003E-01 -3.43661782981E-01 -2.00316500538E-03 -2.81406241850E-03 -1.98924848309E-03 -3.03166159814E-03 +7.62814175920E-01 -3.62859788659E-01
4.01000000000E+09 +6.21645057573E-01 -3.49313110356E-01 -2.29436461747E-03 -2.95247973879E-03 -2.27675352977E-03 -3.10639247260E-03 +7.53249451534E-01 -3.73942670113E-01
4.01500000000E+09 +6.10986344626E-01 -3.54681365267E-01 -2.75006832423E-03 -2.59577676484E-03 -2.68679997044E-03 -2.73163121477E-03 +7.43471249058E-01 -3.84156767744E-01
4.02000000000E+09 +5.99645443790E-01 -3.61456509412E-01 -2.81601321204E-03 -2.59152891980E-03 -2.75172174270E-03 -2.76994124960E-03 +7.33889319670E-01 -3.94723860158E-01
4.02500000000E+09 +5.87137897839E-01 -3.68733142875E-01 -3.54234235493E-03 -2.45758676163E-03 -3.53240526229E-03 -2.67380239793E-03 +7.23406022955E-01 -4.05393674022E-01
4.03000000000E+09 +5.74848904046E-01 -3.76728443193E-01 -3.94870114682E-03 -1.86455619639E-03 -3.97157678285E-03 -2.05375586430E-03 +7.12498823496E-01 -4.15848166474E-01
4.03500000000E+09 +5.62287263430E-01 -3.86122572166E-01 -3.99572437962E-03 -1.35814146613E-03 -4.08910712348E-03 -1.57219804732E-03 +7.01138444821E-01 -4.26655133945E-01
4.04000000000E+09 +5.49625917412E-01 -3.95420916319E-01 -4.20472786993E-03 -9.01430491784E-04 -4.27031393919E-03 -1.13995148014E-03 +6.89166995689E-01 -4.37287632641E-01
4.04500000000E+09 +5.37358122996E-01 -4.04945745536E-01 -4.01391763076E-03 -4.72241426958E-04 -4.10620666065E-03 -6.60648172585E-04 +6.77664603026E-01 -4.47356434228E-01
4.05000000000E+09 +5.24572711045E-01 -4.13488437243E-01 -4.08104914802E-03 -3.86307573028E-04 -4.24593411960E-03 -5.61134442421E-04 +6.66116319209E-01 -4.57693406991E-01
4.05500000000E+09 +5.10970490653E-01 -4.20321038538E-01 -4.44116774091E-03 +8.12570794106E-05 -4.63404076990E-03 -5.18133537677E-05 +6.53581026921E-01 -4.67530343926E-01
4.06000000000E+09 +4.97485851472E-01 -4.24939412904E-01 -4.54915692814E-03 +6.02960765670E-04 -4.76728779939E-03 +6.09093912061E-04 +6.40688518887E-01 -4.76865907612E-01
4.06500000000E+09 +4.83727843711E-01 -4.28630673328E-01 -4.24709707501E-03 +1.30794357726E-03 -4.43615968389E-03 +1.29514874004E-03 +6.27104342869E-01 -4.85907109951E-01
4.07000000000E+09 +4.69387354113E-01 -4.31829601965E-01 -4.12799467816E-03 +1.50398498897E-03 -4.27723673355E-03 +1.45978876453E-03 +6.13206427549E-01 -4.95186774355E-01
4.07500000000E+09 +4.54222993173E-01 -4.35320088043E-01 -4.02429785005E-03 +1.99515179994E-03 -4.12931074847E-03 +1.92928782025E-03 +5.99305269171E-01 -5.04881497995E-01
4.08000000000E+09 +4.37965516455E-01 -4.39220935022E-01 -3.77570794521E-03 +2.24515287709E-03 -3.98482738201E-03 +2.15827929887E-03 +5.84406254840E-01 -5.14431575820E-01
4.08500000000E+09 +4.20448419874E-01 -4.44006468064E-01 -3.70021473638E-03 +2.53694015638E-03 -3.93296484265E-03 +2.45502094340E-03 +5.69826782512E-01 -5.22763904994E-01
4.09000000000E+09 +4.02253613173E-01 -4.48030573241E-01 -3.51130760775E-03 +2.93691853405E-03 -3.75643268361E-03 +2.95253687185E-03 +5.55101095344E-01 -5.30628106433E-01
4.09500000000E+09 +3.84856022282E-01 -4.51835260745E-01 -3.46575221832E-03 +3.18992577983E-03 -3.71605594031E-03 +3.24809352026E-03 +5.39984707940E-01 -5.37771547394E-01
4.10000000000E+09 +3.68049436277E-01 -4.56033378680E-01 -3.22441033109E-03 +3.64483170412E-03 -3.38682302640E-03 +3.68704196698E-03 +5.24483551587E-01 -5.45103399843E-01
4.10500000000E+09 +3.51604433109E-01 -4.59549676227E-01 -2.98048253738E-03 +4.06659954519E-03 -3.11017831244E-03 +4.09751449377E-03 +5.07282008874E-01 -5.52946178046E-01
4.11000000000E+09 +3.34865853276E-01 -4.61875558675E-01 -2.57749836290E-03 +4.71136158787E-03 -2.71786798362E-03 +4.81178999208E-03 +4.89651262833E-01 -5.59596800311E-01
4.11500000000E+09 +3.18616672549E-01 -4.62766739677E-01 -1.65759572656E-03 +4.93569342742E-03 -1.78237713142E-03 +5.00250313097E-03 +4.72723106083E-01 -5.66011833924E-01
4.12000000000E+09 +3.01814185532E-01 -4.62634247300E-01 -1.30667103679E-03 +4.72678304298E-03 -1.47620928114E-03 +4.91357689075E-03 +4.55514401838E-01 -5.72766567547E-01
4.12500000000E+09 +2.84575011263E-01 -4.61526354064E-01 -1.15950241362E-03 +4.83818418029E-03 -1.30570314569E-03 +4.95740205255E-03 +4.38014256626E-01 -5.78642604564E-01
4.13000000000E+09 +2.66907700196E-01 -4.59743306119E-01 -7.47990968800E-04 +5.14949393867E-03 -9.19698132982E-04 +5.26151126045E-03 +4.19746393543E-01 -5.84185787146E-01
4.13500000000E+09 +2.48895909226E-01 -4.58701766297E-01 -5.81297465803E-04 +5.30085800002E-03 -6.74660264915E-04 +5.41611587763E-03 +4.01082612242E-01 -5.88698066448E-01
4.14000000000E+09 +2.30519921479E-01 -4.58532831745E-01 -1.51717961688E-04 +5.89974232235E-03 -2.72200942389E-04 +6.06257180858E-03 +3.81544907954E-01 -5.92949497649E-01
4.14500000000E+09 +2.11844370371E-01 -4.59157098280E-01 +9.43485574013E-04 +6.48013901222E-03 +7.89731987845E-04 +6.64815633619E-03 +3.62248772836E-01 -5.96537954725E-01
4.15000000000E+09 +1.92978304977E-01 -4.61452334776E-01 +2.05742278302E-03 +6.02462173366E-03 +2.02142498190E-03 +6.27505629523E-03 +3.43875237064E-01 -6.01230527981E-01
4.15500000000E+09 +1.73180160463E-01 -4.62617087349E-01 +2.60327399584E-03 +5.43137377451E-03 +2.69310047852E-03 +5.58773449619E-03 +3.23705915769E-01 -6.05575974333E-01
4.16000000000E+09 +1.54257792274E-01 -4.62282911491E-01 +2.97571831094E-03 +5.08267645269E-03 +3.01597424796E-03 +5.27997464646E-03 +3.02948611812E-01 -6.07343157096E-01
4.16500000000E+09 +1.36503638619E-01 -4.59991324087E-01 +3.03542934901E-03 +4.69149459182E-03 +3.02868835308E-03 +4.82934208781E-03 +2.84070892679E-01 -6.08215001398E-01
4.17000000000E+09 +1.20586144560E-01 -4.55414326623E-01 +3.31070184464E-03 +5.08773755344E-03 +3.25215840627E-03 +5.24865310644E-03 +2.63696069546E-01 -6.09180206423E-01
4.17500000000E+09 +1.05510358502E-01 -4.50063593205E-01 +4.20272987202E-03 +5.29944931478E-03 +4.17906958848E-03 +5.55166883670E-03 +2.42347523530E-01 -6.09631652173E-01
4.18000000000E+09 +9.03040900881E-02 -4.43805806585E-01 +5.34176421410E-03 +4.57515830774E-03 +5.41125829923E-03 +4.86427015580E-03 +2.20447652716E-01 -6.09290818539E-01
4.18500000000E+09 +7.36832930778E-02 -4.36525990102E-01 +5.83429476988E-03 +3.99876344773E-03 +5.94863952563E-03 +4.25741815075E-03 +1.98061267222E-01 -6.08263456634E-01
4.19000000000E+09 +5.67702575635E-02 -4.28272393086E-01 +6.46986596981E-03 +3.37813889488E-03 +6.62668568129E-03 +3.62414270108E-03 +1.77318280337E-01 -6.06142325756E-01
4.19500000000E+09 +3.87227567420E-02 -4.19814769611E-01 +6.88972089325E-03 +2.54516900315E-03 +7.05289963472E-03 +2.72953493319E-03 +1.56382284867E-01 -6.04058219117E-01
4.20000000000E+09 +2.06988664043E-02 -4.11041010999E-01 +7.08240459556E-03 +1.76852384522E-03 +7.21829293785E-03 +1.95095713071E-03 +1.34663697618E-01 -6.01982218515E-01
4.20500000000E+09 +3.67077941949E-03 -4.03505751234E-01 +7.30085668575E-03 +9.49004128738E-04 +7.48352469716E-03 +1.11189524948E-03 +1.11923146682E-01 -5.98661523752E-01
4.21000000000E+09 -1.31596669269E-02 -3.96434603413E-01 +7.40390211349E-03 -1.45264437932E-04 +7.58608651157E-03 -1.81436394301E-05 +8.86698084301E-02 -5.93475063579E-01
4.21500000000E+09 -2.91274650798E-02 -3.89712279948E-01 +6.87857824012E-03 -4.10831922092E-04 +7.05711478320E-03 -2.64416659750E-04 +6.69844216711E-02 -5.88629143338E-01
4.22000000000E+09 -4.47384736326E-02 -3.81910526633E-01 +7.21150218570E-03 -4.07718420038E-04 +7.47908621681E-03 -3.30667655051E-04 +4.44572434274E-02 -5.83130227770E-01
4.22500000000E+09 -5.89023579926E-02 -3.72432286843E-01 +8.16526068832E-03 -1.62862246403E-03 +8.46685523124E-03 -1.53946405548E-03 +2.18518913034E-02 -5.76760749290E-01
4.23000000000E+09 -7.20228544355E-02 -3.61232164370E-01 +7.94116713213E-03 -3.40224684028E-03 +8.20555615913E-03 -3.40674074883E-03 -3.62799470212E-04 -5.68792142273E-01
4.23500000000E+09 -8.44919784050E-02 -3.48296842042E-01 +6.92066236672E-03 -4.35704225326E-03 +7.21400979390E-03 -4.49537944512E-03 -2.15614026915E-02 -5.59160095170E-01
4.24000000000E+09 -9.75877968987E-02 -3.34337848681E-01 +6.20848212007E-03 -4.80529218024E-03 +6.47648944566E-03 -4.94198040414E-03 -4.21576489431E-02 -5.49525226705E-01
4.24500000000E+09 -1.11022046044E-01 -3.19327165351E-01 +5.57388179683E-03 -4.96933329141E-03 +5.77185163636E-03 -5.14914405820E-03 -6.28032871991E-02 -5.40364396737E-01
4.25000000000E+09 -1.25262885829E-01 -3.03978888135E-01 +5.55010725326E-03 -5.54357178196E-03 +5.72516922159E-03 -5.73646780086E-03 -8.50194556563E-02 -5.29730769600E-01
4.25500000000E+09 -1.40466333623E-01 -2.90117733719E-01 +4.79007609828E-03 -6.46310447650E-03 +4.98159792353E-03 -6.62344932780E-03 -1.06903095087E-01 -5.17788078149E-01
4.26000000000E+09 -1.57401175600E-01 -2.76685381020E-01 +4.19976336395E-03 -6.69963975639E-03 +4.24440880130E-03 -6.86191966351E-03 -1.27950769045E-01 -5.03870597752E-01
4.26500000000E+09 -1.74553030656E-01 -2.63984395517E-01 +3.74443364017E-03 -6.79922031275E-03 +3.71815015705E-03 -7.02383197770E-03 -1.47676918296E-01 -4.89132531523E-01
4.27000000000E+09 -1.90785660709E-01 -2.51023175693E-01 +3.34060198150E-03 -7.53298512582E-03 +3.36265928954E-03 -7.70543096640E-03 -1.66974230829E-01 -4.74576852916E-01
4.27500000000E+09 -2.05790532819E-01 -2.38071418427E-01 +2.53207304102E-03 -8.13362618674E-03 +2.51125940204E-03 -8.28673014635E-03 -1.87368520674E-01 -4.58722948506E-01
4.28000000000E+09 -2.17809929477E-01 -2.23845192661E-01 +1.84184483818E-03 -8.48638141129E-03 +1.77518865745E-03 -8.68724385913E-03 -2.06716927175E-01 -4.42223615703E-01
4.28500000000E+09 -2.26620784508E-01 -2.09647624452E-01 +8.83078657996E-04 -9.26673575489E-03 +8.21370577941E-04 -9.42437836247E-03 -2.26393400876E-01 -4.25463640687E-01
4.29000000000E+09 -2.33744423462E-01 -1.95555819588E-01 -1.00667210293E-03 -9.47703877405E-03 -1.06087143272E-03 -9.67118885478E-03 -2.43770962496E-01 -4.07021439758E-01
4.29500000000E+09 -2.41174353969E-01 -1.80951801122E-01 -2.12597642653E-03 -8.34912600926E-03 -2.23067428638E-03 -8.46104301223E-03 -2.59578477969E-01 -3.90442449273E-01
4.30000000000E+09 -2.49792526720E-01 -1.64093831304E-01 -2.57672140930E-03 -7.88984307349E-03 -2.62559519439E-03 -8.02774247167E-03 -2.76859414358E-01 -3.72603816754E-01
4.30500000000E+09 -2.58176024944E-01 -1.45233847870E-01 -2.83466826962E-03 -7.50658121044E-03 -2.90882566552E-03 -7.55348522468E-03 -2.93282006999E-01 -3.51800440940E-01
4.31000000000E+09 -2.67009260562E-01 -1.24714544655E-01 -2.96387935145E-03 -7.81207969011E-03 -3.04665106055E-03 -7.87609518097E-03 -3.08624180208E-01 -3.30684660069E-01
4.31500000000E+09 -2.74577160969E-01 -1.04547869359E-01 -3.93490301393E-03 -8.10107261003E-03 -4.07140238073E-03 -8.19681831616E-03 -3.22340920284E-01 -3.08376868381E-01
4.32000000000E+09 -2.81689175588E-01 -8.53349336684E-02 -5.16242993926E-03 -8.14881637142E-03 -5.31510329117E-03 -8.29268753890E-03 -3.35136015744E-01 -2.87436875115E-01
4.32500000000E+09 -2.87743907683E-01 -6.94515258882E-02 -8.02055496097E-03 -6.40749854721E-03 -7.22091524067E-03 -7.48993849952E-03 -3.48298784970E-01 -2.65691528653E-01
4.33000000000E+09 -2.95150121972E-01 -5.45199514090E-02 -7.32651060025E-03 -6.38929389480E-03 -7.48585095722E-03 -6.44009758493E-03 -3.60702008761E-01 -2.41795209212E-01
4.33500000000E+09 -3.01361300454E-01 -3.84209609406E-02 -8.37518321530E-03 -5.80262766317E-03 -8.46951743875E-03 -5.80312748989E-03 -3.70500643869E-01 -2.16532909386E-01
4.34000000000E+09 -3.04672813906E-01 -2.15294000853E-02 -9.26863786093E-03 -4.43642072491E-03 -9.37942465258E-03 -4.47679726070E-03 -3.78351646989E-01 -1.92162807942E-01
4.34500000000E+09 -3.05125557134E-01 -4.69415828658E-03 -9.03480501938E-03 -3.06915617404E-03 -9.07708951703E-03 -3.09869295911E-03 -3.87533502011E-01 -1.69853574543E-01
4.35000000000E+09 -3.04325544849E-01 +1.27039945032E-02 -9.29057776563E-03 -2.81973544144E-03 -9.33787515303E-03 -2.85132687690E-03 -3.98062638857E-01 -1.44947180302E-01
4.35500000000E+09 -3.02453380833E-01 +3.09674886293E-02 -9.97056022223E-03 -1.96898607944E-03 -1.00970450015E-02 -1.94550148785E-03 -4.05468344679E-01 -1.18375036357E-01
4.36000000000E+09 -3.01726703361E-01 +4.97815530210E-02 -9.75492077813E-03 -1.01890701498E-03 -9.87302750564E-03 -1.02625875369E-03 -4.10700099478E-01 -9.36338750487E-02
4.36500000000E+09 -3.01029059403E-01 +7.01643685566E-02 -1.08285730985E-02 -7.14654404678E-04 -1.10347816542E-02 -6.45487844307E-04 -4.14500972146E-01 -6.93742000883E-02
4.37000000000E+09 -3.01710096726E-01 +9.05357683955E-02 -1.16377441696E-02 +1.23357148011E-03 -1.18194387845E-02 +1.41408829430E-03 -4.17486642653E-01 -4.54060167043E-02
4.37500000000E+09 -3.02273095224E-01 +1.10767088233E-01 -1.13393645791E-02 +3.49886877726E-03 -1.14753275479E-02 +3.70299828838E-03 -4.19985876748E-01 -2.10551873717E-02
4.38000000000E+09 -3.03880703703E-01 +1.29192504086E-01 -1.03983977954E-02 +4.60006878391E-03 -1.04817159090E-02 +4.81148190817E-03 -4.21915201571E-01 +5.43365526251E-03
4.38500000000E+09 -3.04607026248E-01 +1.46614120261E-01 -9.51379970375E-03 +5.84066448884E-03 -9.57389316286E-03 +6.10292151823E-03 -4.21113464693E-01 +3.11735007697E-02
4.39000000000E+09 -3.04407833244E-01 +1.62271215294E-01 -8.46584243762E-03 +6.65946421338E-03 -8.47032475319E-03 +6.92572604742E-03 -4.20785421510E-01 +5.54395950796E-02
4.39500000000E+09 -3.02557496379E-01 +1.76415535150E-01 -8.27576124025E-03 +7.06435251714E-03 -8.29423970552E-03 +7.32092719987E-03 -4.20202362982E-01 +7.95218919194E-02
4.40000000000E+09 -2.98982841132E-01 +1.90313983534E-01 -7.36768714711E-03 +8.50645805353E-03 -7.25595843442E-03 +8.68640224473E-03 -4.18780499335E-01 +1.04001766651E-01
4.40500000000E+09 -2.93961518837E-01 +2.03582859616E-01 -6.33474361263E-03 +9.31183556302E-03 -6.23120766771E-03 +9.47065224567E-03 -4.14714971113E-01 +1.28426807149E-01
4.41000000000E+09 -2.88112725890E-01 +2.18210801366E-01 -5.02159260170E-03 +9.40767074244E-03 -4.88997526316E-03 +9.52801029976E-03 -4.09212859395E-01 +1.52159890801E-01
4.41500000000E+09 -2.81006826435E-01 +2.34712824370E-01 -4.59028534323E-03 +1.04283649863E-02 -4.40364152243E-03 +1.05662311479E-02 -4.03702001275E-01 +1.74810818324E-01
4.42000000000E+09 -2.74107868231E-01 +2.52131737985E-01 -3.40855394829E-03 +1.07685520462E-02 -3.18782257141E-03 +1.08849477252E-02 -3.96870229822E-01 +1.98003733076E-01
4.42500000000E+09 -2.67216252375E-01 +2.70544956507E-01 -2.33605012710E-03 +1.18876513640E-02 -2.03254567286E-03 +1.18579840544E-02 -3.91457221523E-01 +2.19664089114E-01
4.43000000000E+09 -2.60792702453E-01 +2.88648894582E-01 +1.61400703074E-04 +1.23020302296E-02 +3.57773847147E-04 +1.21542667046E-02 -3.84187758313E-01 +2.43112796844E-01
4.43500000000E+09 -2.54934851051E-01 +3.05408271469E-01 +1.73883992175E-03 +1.13286431430E-02 +1.90311838868E-03 +1.11793109695E-02 -3.74866671587E-01 +2.64445633710E-01
4.44000000000E+09 -2.50412796538E-01 +3.19726885472E-01 +2.98945507905E-03 +1.01035330299E-02 +3.04279285930E-03 +9.98280694889E-03 -3.66324388841E-01 +2.83941328358E-01
4.44500000000E+09 -2.46797334740E-01 +3.32592522714E-01 +3.01186686106E-03 +9.67171700113E-03 +3.22828460368E-03 +9.60991941517E-03 -3.57901305835E-01 +3.03691222957E-01
4.45000000000E+09 -2.42782783925E-01 +3.44358608591E-01 +3.52204237461E-03 +9.52817059020E-03 +3.66295700185E-03 +9.37311040643E-03 -3.48186637931E-01 +3.23620619925E-01
4.45500000000E+09 -2.36516238589E-01 +3.55009236566E-01 +4.44863389456E-03 +1.00594976291E-02 +4.66466138660E-03 +9.90202179172E-03 -3.37566913794E-01 +3.42675273263E-01
4.46000000000E+09 -2.28726605593E-01 +3.64627567774E-01 +6.36463686545E-03 +9.55089349532E-03 +6.50693749393E-03 +9.33720353622E-03 -3.24544636802E-01 +3.61340024799E-01
4.46500000000E+09 -2.18444051154E-01 +3.74901846285E-01 +7.41539786022E-03 +8.35065629111E-03 +7.52324135637E-03 +8.06451650964E-03 -3.12930899646E-01 +3.76910875579E-01
4.47000000000E+09 -2.06536407629E-01 +3.85275287024E-01 +8.26145536662E-03 +7.30840666136E-03 +8.30117730015E-03 +7.10688136074E-03 -3.01647029665E-01 +3.93915018034E-01
4.47500000000E+09 -1.93351442469E-01 +3.96402500427E-01 +8.55649013482E-03 +6.43310668829E-03 +8.62175170129E-03 +6.13741996785E-03 -2.90059944152E-01 +4.11456892329E-01
4.48000000000E+09 -1.80995100009E-01 +4.08039544724E-01 +9.34500738997E-03 +5.50544952023E-03 +9.31311499140E-03 +5.19780333758E-03 -2.77122798301E-01 +4.28119809397E-01
4.48500000000E+09 -1.70055002063E-01 +4.21027972578E-01 +1.01505035840E-02 +4.86946741860E-03 +9.99764228146E-03 +4.58435074786E-03 -2.63114872084E-01 +4.42977408403E-01
4.49000000000E+09 -1.60207149611E-01 +4.34205805001E-01 +1.08089543435E-02 +2.73018231605E-03 +1.05689791621E-02 +2.51845912710E-03 -2.50410690356E-01 +4.56852746573E-01
4.49500000000E+09 -1.52062271582E-01 +4.47301583329E-01 +9.99266717292E-03 +1.56725029166E-03 +9.79585834357E-03 +1.46762616677E-03 -2.37876487346E-01 +4.71275608550E-01
4.50000000000E+09 -1.44593826093E-01 +4.58566123541E-01 +9.98500368413E-03 +1.30324074213E-03 +9.82379924495E-03 +1.22827942955E-03 -2.23443731852E-01 +4.85194651991E-01
4.50500000000E+09 -1.38091489826E-01 +4.68178942668E-01 +1.02213352328E-02 +5.48803968185E-04 +1.00962934548E-02 +4.64682241182E-04 -2.09753094384E-01 +4.98492104544E-01
4.51000000000E+09 -1.30573685105E-01 +4.75107303056E-01 +1.10372697305E-02 -4.19663143613E-04 +1.08923559489E-02 -5.45175828580E-04 -1.93948796508E-01 +5.10608817588E-01
4.51500000000E+09 -1.23055887518E-01 +4.80088250354E-01 +1.10561890159E-02 -2.01413151551E-03 +1.08369007805E-02 -2.17233823704E-03 -1.80328871347E-01 +5.20992955495E-01
4.52000000000E+09 -1.13903498234E-01 +4.84650874459E-01 +1.09072656080E-02 -3.97759349362E-03 +1.06875550991E-02 -4.03020479489E-03 -1.67081693687E-01 +5.32027713571E-01
4.52500000000E+09 -1.03035715562E-01 +4.88677209931E-01 +9.38008069173E-03 -5.15633380770E-03 +9.14981588525E-03 -5.17004867625E-03 -1.53395159247E-01 +5.42796408402E-01
4.53000000000E+09 -9.02397904198E-02 +4.93568787200E-01 +8.77014357244E-03 -5.65693117994E-03 +8.51625490908E-03 -5.73037031326E-03 -1.38595611457E-01 +5.52501801402E-01
4.53500000000E+09 -7.59290757908E-02 +4.99929068625E-01 +8.06998702432E-03 -6.58543001776E-03 +7.84403378138E-03 -6.63914579734E-03 -1.24112437756E-01 +5.61820426333E-01
4.54000000000E+09 -6.05762208780E-02 +5.06732827203E-01 +7.33341923808E-03 -7.21870897477E-03 +7.06883835273E-03 -7.22248514349E-03 -1.08193785645E-01 +5.70336134693E-01
4.54500000000E+09 -4.62277005833E-02 +5.14142795330E-01 +6.27606988060E-03 -7.82502236361E-03 +5.99011383871E-03 -7.75979114562E-03 -9.41037412807E-02 +5.79523441485E-01
4.55000000000E+09 -3.30550392040E-02 +5.21698080988E-01 +5.68040983733E-03 -8.45189685512E-03 +5.40407497957E-03 -8.36410912971E-03 -7.81386860358E-02 +5.88411546611E-01
4.55500000000E+09 -2.25422628003E-02 +5.29067620404E-01 +4.34011279723E-03 -8.60859908918E-03 +4.11396870003E-03 -8.53527498484E-03 -6.29357647740E-02 +5.96571154474E-01
4.56000000000E+09 -1.38892182897E-02 +5.37036468190E-01 +3.61458210180E-03 -8.89894344077E-03 +3.44384783899E-03 -8.79494981024E-03 -4.81437946932E-02 +6.02806890181E-01
4.56500000000E+09 -5.14946790904E-03 +5.43991526585E-01 +2.98777267759E-03 -9.24856911337E-03 +2.79476408659E-03 -9.16033246716E-03 -3.41440177405E-02 +6.09541754107E-01
4.57000000000E+09 +3.65371282195E-03 +5.49113205082E-01 +1.78864297517E-03 -9.81542207034E-03 +1.55070337990E-03 -9.69701586925E-03 -1.92562888727E-02 +6.15847701338E-01
