# Hz S RI R 50
! CMT, C1220, 16058040, 17.2.0/1
! Date: 15/08/2018 11:44:30
! Data: Format (Calibration Info)
! Freq                      S11: Re/Im (F2)                       S21: Re/Im (F2)                       S12: Re/Im (F2)                       S22: Re/Im (F2)            
4.00000000000E+09 +6.39758264710E-01 -3.38178623085E-01 -1.08705053287E-03 -2.56937802237E-03 -1.04682776365E-03 -2.68722877728E-03 +7.71815493690E-01 -3.50873419086E-01
4.00500000000E+09 +6.30737705449E-01 -3.44377804840E-01 -1.27054947983E-03 -2.51120284391E-03 -1.24546828329E-03 -2.60298897362E-03 +7.63203657572E-01 -3.62359831214E-01
4.01000000000E+09 +6.20917684623E-01 -3.50098485896E-01 -1.49083780853E-03 -2.55821808572E-03 -1.46875722108E-03 -2.64415464458E-03 +7.53619858237E-01 -3.73573297644E-01
4.01500000000E+09 +6.09970330452E-01 -3.55762924850E-01 -1.77459503746E-03 -2.34181093252E-03 -1.76707427606E-03 -2.44364774481E-03 +7.43830590864E-01 -3.83796297916E-01
4.02000000000E+09 +5.98352210402E-01 -3.62375794117E-01 -1.94729553429E-03 -2.34685272208E-03 -1.86857756220E-03 -2.51457214164E-03 +7.34211554267E-01 -3.94101012937E-01
4.02500000000E+09 +5.85761578871E-01 -3.69613233591E-01 -2.57495318707E-03 -2.33975201860E-03 -2.55912392481E-03 -2.52491485109E-03 +7.23995439835E-01 -4.04836577531E-01
4.03000000000E+09 +5.73314043918E-01 -3.77602957281E-01 -3.00302401532E-03 -1.82540684353E-03 -3.05245640851E-03 -2.01435995842E-03 +7.13190900278E-01 -4.15419324695E-01
4.03500000000E+09 +5.60536650738E-01 -3.86992243092E-01 -2.95029270615E-03 -1.40939616444E-03 -2.94826765648E-03 -1.58351154500E-03 +7.01696871466E-01 -4.26364543743E-01
4.04000000000E+09 +5.47918261510E-01 -3.96584504196E-01 -3.14955879454E-03 -1.08992467938E-03 -3.20125238687E-03 -1.23125593498E-03 +6.89929939323E-01 -4.37171646819E-01
4.04500000000E+09 +5.35221592767E-01 -4.06251749064E-01 -2.98654629417E-03 -7.91614845154E-04 -3.02634147834E-03 -9.41862933785E-04 +6.78228556990E-01 -4.47229789254E-01
4.05000000000E+09 +5.22076857813E-01 -4.14687879964E-01 -3.15729827291E-03 -7.98729584163E-04 -3.23175472989E-03 -1.00920167880E-03 +6.66648683932E-01 -4.57506937421E-01
4.05500000000E+09 +5.08239573986E-01 -4.21273591103E-01 -3.60275276312E-03 -4.36171135541E-04 -3.76877325949E-03 -5.66810302661E-04 +6.54252723193E-01 -4.67304201371E-01
4.06000000000E+09 +4.94691688906E-01 -4.25977033446E-01 -3.68530480461E-03 +1.56039336488E-04 -3.90285161281E-03 +8.79685521657E-06 +6.41538066439E-01 -4.76758737361E-01
4.06500000000E+09 +4.80725121777E-01 -4.29735420136E-01 -3.36954965107E-03 +6.68715126921E-04 -3.54540022085E-03 +5.95677551531E-04 +6.27759966517E-01 -4.85937988850E-01
4.07000000000E+09 +4.65984328080E-01 -4.32890230272E-01 -3.35953555226E-03 +8.36879837705E-04 -3.41856586708E-03 +7.71344951288E-04 +6.13863154730E-01 -4.95220644421E-01
4.07500000000E+09 +4.50376505694E-01 -4.36282789826E-01 -3.24254189680E-03 +1.11625591986E-03 -3.32920626935E-03 +9.90828986629E-04 +6.00023019880E-01 -5.04991371967E-01
4.08000000000E+09 +4.33536247852E-01 -4.39780425201E-01 -3.25535744070E-03 +1.20034291491E-03 -3.40145638789E-03 +1.12188793502E-03 +5.85175277284E-01 -5.14779742918E-01
4.08500000000E+09 +4.15973951051E-01 -4.43874056434E-01 -3.30438461836E-03 +1.57777231374E-03 -3.51224982866E-03 +1.52464267744E-03 +5.70421708305E-01 -5.23100140998E-01
4.09000000000E+09 +3.98185170947E-01 -4.47851058800E-01 -2.97714320527E-03 +2.01601986482E-03 -3.17258325152E-03 +1.99457876354E-03 +5.55681334119E-01 -5.31147836761E-01
4.09500000000E+09 +3.80652935789E-01 -4.51864626684E-01 -2.95490479231E-03 +2.18399851162E-03 -3.09899486374E-03 +2.20660485419E-03 +5.40384317698E-01 -5.38393826615E-01
4.10000000000E+09 +3.63536409312E-01 -4.56193586495E-01 -2.74900150754E-03 +2.29261812518E-03 -2.82923886108E-03 +2.34340894822E-03 +5.24742937587E-01 -5.45642842199E-01
4.10500000000E+09 +3.46452189633E-01 -4.59463012152E-01 -2.90647144000E-03 +2.74489545726E-03 -3.05409203128E-03 +2.71061694295E-03 +5.07563805383E-01 -5.53310229078E-01
4.11000000000E+09 +3.29316165620E-01 -4.61144728030E-01 -2.67047711222E-03 +3.39102307563E-03 -2.76394666454E-03 +3.39458940908E-03 +4.89968998206E-01 -5.60006562518E-01
4.11500000000E+09 +3.13260167091E-01 -4.61414262525E-01 -1.79049949617E-03 +3.67315879744E-03 -1.92917586455E-03 +3.68148325523E-03 +4.72898889917E-01 -5.66615130676E-01
4.12000000000E+09 +2.96543521185E-01 -4.61037338838E-01 -1.60241637697E-03 +3.45980211826E-03 -1.75045256979E-03 +3.56765458203E-03 +4.55557872566E-01 -5.73379643159E-01
4.12500000000E+09 +2.79189671865E-01 -4.59705525601E-01 -1.61773973170E-03 +3.57274279755E-03 -1.69387898922E-03 +3.64405465303E-03 +4.37912320086E-01 -5.79237747427E-01
4.13000000000E+09 +2.61527817255E-01 -4.57881273395E-01 -1.35071695469E-03 +3.90103608446E-03 -1.47692255334E-03 +3.91561362850E-03 +4.19578117255E-01 -5.84664238389E-01
4.13500000000E+09 +2.43335334445E-01 -4.56197751243E-01 -1.29219630120E-03 +4.12286880614E-03 -1.41266879307E-03 +4.20367645323E-03 +4.00869709168E-01 -5.89020925462E-01
4.14000000000E+09 +2.25023272096E-01 -4.55763243404E-01 -8.45001213258E-04 +4.77693682498E-03 -9.91265536838E-04 +4.91086936235E-03 +3.81484167800E-01 -5.93255896177E-01
4.14500000000E+09 +2.06441319477E-01 -4.55968660317E-01 +7.12282686688E-05 +5.20240377379E-03 -1.06056964469E-05 +5.39904656118E-03 +3.62055215625E-01 -5.96882006255E-01
4.15000000000E+09 +1.87747217788E-01 -4.57777667454E-01 +8.37045635805E-04 +4.91358243575E-03 +7.95040334577E-04 +5.06893043460E-03 +3.43704181041E-01 -6.01335648571E-01
4.15500000000E+09 +1.68184977742E-01 -4.58981341569E-01 +1.31082392550E-03 +4.55235331032E-03 +1.31980713910E-03 +4.69755743335E-03 +3.23640624623E-01 -6.05946130204E-01
4.16000000000E+09 +1.49212622404E-01 -4.58433328348E-01 +1.52068597324E-03 +4.32362155617E-03 +1.56916738618E-03 +4.38507040483E-03 +3.02987791342E-01 -6.07765155945E-01
4.16500000000E+09 +1.31606891988E-01 -4.55859445936E-01 +1.51995277483E-03 +4.32952669712E-03 +1.56421890671E-03 +4.40919196781E-03 +2.83746376575E-01 -6.08636598004E-01
4.17000000000E+09 +1.15725452344E-01 -4.51185699130E-01 +2.08630842188E-03 +4.69659269799E-03 +2.07163510224E-03 +4.81656669784E-03 +2.63225338193E-01 -6.09420463047E-01
4.17500000000E+09 +1.00754916640E-01 -4.45439263780E-01 +2.76668302744E-03 +4.80200764244E-03 +2.76720416097E-03 +4.95532851830E-03 +2.41749913918E-01 -6.09678733473E-01
4.18000000000E+09 +8.58241792392E-02 -4.39120081635E-01 +3.70590509248E-03 +4.32497826330E-03 +3.71780747972E-03 +4.47798651481E-03 +2.20041795343E-01 -6.09232256526E-01
4.18500000000E+09 +6.91340656536E-02 -4.31595863231E-01 +4.00225442640E-03 +3.90737301100E-03 +4.03945804210E-03 +4.10112099106E-03 +1.97805186827E-01 -6.08091525508E-01
4.19000000000E+09 +5.22701878000E-02 -4.22712635781E-01 +4.72270972605E-03 +3.82678863620E-03 +4.79489520813E-03 +3.94663142110E-03 +1.77056018318E-01 -6.06068638079E-01
4.19500000000E+09 +3.47307120436E-02 -4.13635710006E-01 +5.41894252409E-03 +3.07237184320E-03 +5.51089487439E-03 +3.29609239520E-03 +1.56008008148E-01 -6.03985845328E-01
4.20000000000E+09 +1.72363343007E-02 -4.05014243199E-01 +5.61111521191E-03 +2.17132985829E-03 +5.70547974196E-03 +2.36799167730E-03 +1.34238802312E-01 -6.01834984020E-01
4.20500000000E+09 +3.64632256734E-04 -3.97391745035E-01 +5.68848404422E-03 +1.58967030362E-03 +5.84975155680E-03 +1.73882357649E-03 +1.11571533501E-01 -5.98197363532E-01
4.21000000000E+09 -1.61933587365E-02 -3.90409979484E-01 +5.79870838238E-03 +7.36376410175E-04 +5.91399941763E-03 +8.43501287358E-04 +8.85259870028E-02 -5.93037992548E-01
4.21500000000E+09 -3.26262813555E-02 -3.83417045213E-01 +5.59531337318E-03 +7.23503757493E-04 +5.71039114411E-03 +8.24102745742E-04 +6.68773647924E-02 -5.88156979302E-01
4.22000000000E+09 -4.79269905800E-02 -3.74853313709E-01 +5.98547062632E-03 +6.05744418981E-04 +6.19373697182E-03 +7.53538027137E-04 +4.44937186275E-02 -5.82656447733E-01
4.22500000000E+09 -6.14178482365E-02 -3.64591767639E-01 +6.93794461146E-03 -3.68846033548E-04 +7.05957340632E-03 -3.36695071090E-04 +2.20323930473E-02 -5.76196288326E-01
4.23000000000E+09 -7.34982431257E-02 -3.53462441788E-01 +6.78309591473E-03 -1.89358477657E-03 +6.94180126989E-03 -1.84594328960E-03 +1.50959926936E-04 -5.68221482080E-01
4.23500000000E+09 -8.55702443994E-02 -3.40851351828E-01 +5.99409252722E-03 -2.70838136671E-03 +6.19643159462E-03 -2.76147506397E-03 -2.09791438662E-02 -5.59026087802E-01
4.24000000000E+09 -9.81834451854E-02 -3.27011656336E-01 +5.43820902210E-03 -3.12590257959E-03 +5.65586632478E-03 -3.16778182820E-03 -4.17755738608E-02 -5.49620732393E-01
4.24500000000E+09 -1.11488821898E-01 -3.12112002107E-01 +5.20291325819E-03 -3.19300645553E-03 +5.34179553343E-03 -3.37092507923E-03 -6.25455236960E-02 -5.40308277507E-01
4.25000000000E+09 -1.25518161585E-01 -2.96661746850E-01 +5.13629442312E-03 -3.86416709577E-03 +5.28833161579E-03 -3.91491565482E-03 -8.48740092082E-02 -5.29673007652E-01
4.25500000000E+09 -1.40258866065E-01 -2.82684226098E-01 +4.53253683289E-03 -4.56427656251E-03 +4.71918991725E-03 -4.72748422685E-03 -1.06671881425E-01 -5.17569110086E-01
4.26000000000E+09 -1.56714288680E-01 -2.69576699532E-01 +3.99428641909E-03 -4.75076940173E-03 +4.13084310658E-03 -4.92863069453E-03 -1.27481067106E-01 -5.03753213161E-01
4.26500000000E+09 -1.73720118877E-01 -2.56759161693E-01 +3.91290952180E-03 -4.71462544253E-03 +3.93551314504E-03 -4.85107162442E-03 -1.47345103595E-01 -4.89255165988E-01
4.27000000000E+09 -1.89447152692E-01 -2.43905321801E-01 +3.80967680122E-03 -5.53742290102E-03 +3.90531458215E-03 -5.72091798605E-03 -1.66536567118E-01 -4.74498298610E-01
4.27500000000E+09 -2.03920505379E-01 -2.31094916894E-01 +3.17340233151E-03 -6.32029653469E-03 +3.18814659493E-03 -6.45838124366E-03 -1.87199812194E-01 -4.58732411800E-01
4.28000000000E+09 -2.15497222237E-01 -2.17587280726E-01 +2.44410562649E-03 -6.72150924350E-03 +2.37245035186E-03 -6.85824238479E-03 -2.06465142189E-01 -4.42179461719E-01
4.28500000000E+09 -2.24094803101E-01 -2.04087391110E-01 +1.65293359157E-03 -7.22192974946E-03 +1.62025883637E-03 -7.32469135238E-03 -2.25882967176E-01 -4.25472304976E-01
4.29000000000E+09 -2.31678431780E-01 -1.90420728034E-01 +3.40743570338E-04 -7.41841583845E-03 +2.53744001820E-04 -7.52254798304E-03 -2.43373628525E-01 -4.06979005196E-01
4.29500000000E+09 -2.39605307547E-01 -1.75370006495E-01 -1.96506384567E-04 -6.74668153415E-03 -2.86103665373E-04 -6.84418863153E-03 -2.59069561498E-01 -3.90395874456E-01
4.30000000000E+09 -2.47277636996E-01 -1.57974827322E-01 -7.48965241240E-04 -6.87251872364E-03 -7.87265534871E-04 -6.90252093302E-03 -2.76115834548E-01 -3.72601266795E-01
4.30500000000E+09 -2.54851899499E-01 -1.39465498107E-01 -1.20622346356E-03 -6.57891074010E-03 -1.28552127842E-03 -6.69098684217E-03 -2.92657555432E-01 -3.52018666380E-01
4.31000000000E+09 -2.63031671268E-01 -1.19646013684E-01 -1.32910408839E-03 -6.72794815632E-03 -1.38081621958E-03 -6.79803566634E-03 -3.07719448121E-01 -3.30783865924E-01
4.31500000000E+09 -2.70522072171E-01 -1.00451402819E-01 -2.09904858744E-03 -7.18853224549E-03 -2.15968797044E-03 -7.32622763984E-03 -3.21466307215E-01 -3.09175391481E-01
4.32000000000E+09 -2.77964804666E-01 -8.17061520423E-02 -3.05894614817E-03 -7.38173467611E-03 -3.12525626571E-03 -7.48471250179E-03 -3.34653035659E-01 -2.88152618259E-01
4.32500000000E+09 -2.84580112600E-01 -6.56181593512E-02 -4.70955541937E-03 -7.01587723089E-03 -4.79439561811E-03 -7.16060293039E-03 -3.47654607627E-01 -2.66418210133E-01
4.33000000000E+09 -2.91442658637E-01 -5.01172963809E-02 -5.23448135132E-03 -6.37412206906E-03 -5.34228716309E-03 -6.39368668558E-03 -3.59946321709E-01 -2.42810258431E-01
4.33500000000E+09 -2.96979489304E-01 -3.42801787601E-02 -6.19754335300E-03 -5.72676685085E-03 -6.25485530886E-03 -5.76852920400E-03 -3.70049655652E-01 -2.17963516954E-01
4.34000000000E+09 -2.99624240550E-01 -1.80793787941E-02 -6.97416226109E-03 -4.72823884864E-03 -7.01444180468E-03 -4.73856028841E-03 -3.78539875014E-01 -1.93697253644E-01
4.34500000000E+09 -2.99700357977E-01 -2.10863934727E-03 -6.78771155118E-03 -3.69214529751E-03 -6.80001069674E-03 -3.72318412053E-03 -3.88119550226E-01 -1.70918007885E-01
4.35000000000E+09 -2.99333706622E-01 +1.47137062512E-02 -7.03311967276E-03 -3.67946681816E-03 -7.12371037127E-03 -3.72792151718E-03 -3.98371641360E-01 -1.45540909740E-01
4.35500000000E+09 -2.97637500288E-01 +3.29112431982E-02 -8.08661228314E-03 -3.08645107249E-03 -8.24664145487E-03 -3.16470624228E-03 -4.05481229370E-01 -1.19300051711E-01
4.36000000000E+09 -2.96570091994E-01 +5.16880019467E-02 -7.97841936266E-03 -1.92115649341E-03 -8.13760249808E-03 -1.98359294967E-03 -4.11000508465E-01 -9.48115260760E-02
4.36500000000E+09 -2.95630587467E-01 +7.16591009247E-02 -8.75394311527E-03 -1.85167425193E-03 -8.96472432398E-03 -1.78649034844E-03 -4.15278735027E-01 -7.06673073290E-02
4.37000000000E+09 -2.96033714456E-01 +9.15531280086E-02 -9.55667500921E-03 -1.81619356599E-04 -9.70932158184E-03 -2.89976349823E-05 -4.18632139100E-01 -4.61290142627E-02
4.37500000000E+09 -2.96942901239E-01 +1.11526652931E-01 -9.21588495581E-03 +1.31813622568E-03 -9.31361335823E-03 +1.58017159642E-03 -4.20689745711E-01 -2.12952467913E-02
4.38000000000E+09 -2.98149521804E-01 +1.29736484313E-01 -8.92595470890E-03 +2.09442936765E-03 -9.10119230143E-03 +2.32747508506E-03 -4.22408562018E-01 +4.92737496493E-03
4.38500000000E+09 -2.98750699488E-01 +1.46618681923E-01 -8.64965056614E-03 +3.29393815956E-03 -8.74153212760E-03 +3.53670005364E-03 -4.21784596472E-01 +3.06460896721E-02
4.39000000000E+09 -2.98452039213E-01 +1.61804159838E-01 -7.91744024918E-03 +4.35116488346E-03 -7.89802490480E-03 +4.57997476860E-03 -4.21453319510E-01 +5.50111011627E-02
4.39500000000E+09 -2.97030610791E-01 +1.75030885011E-01 -7.70995841812E-03 +4.67939404276E-03 -7.68991410777E-03 +4.96524491661E-03 -4.20673752718E-01 +7.92367960094E-02
4.40000000000E+09 -2.93921764678E-01 +1.88642573798E-01 -7.05204802085E-03 +6.03410817787E-03 -6.94598052608E-03 +6.22776278378E-03 -4.19061778308E-01 +1.03529044924E-01
4.40500000000E+09 -2.89356260519E-01 +2.01909311333E-01 -6.35358227665E-03 +6.77184618884E-03 -6.24733649015E-03 +6.97745223726E-03 -4.15143907444E-01 +1.27383229817E-01
4.41000000000E+09 -2.83401685006E-01 +2.16707854493E-01 -5.29721265535E-03 +6.94109369636E-03 -5.21052501379E-03 +7.09679437525E-03 -4.10295340886E-01 +1.51089527873E-01
4.41500000000E+09 -2.75880076901E-01 +2.32814879939E-01 -5.02868525192E-03 +7.99418375349E-03 -4.91344842921E-03 +8.06236205391E-03 -4.05062597739E-01 +1.74314783673E-01
4.42000000000E+09 -2.68801264371E-01 +2.49485104178E-01 -4.14982278890E-03 +8.28881792520E-03 -3.98233752213E-03 +8.35642047244E-03 -3.98305912204E-01 +1.97802999197E-01
4.42500000000E+09 -2.62240720208E-01 +2.66965566368E-01 -3.48879234278E-03 +9.40750679445E-03 -3.26622851914E-03 +9.37848308963E-03 -3.92362576585E-01 +2.19671269656E-01
4.43000000000E+09 -2.56878831714E-01 +2.84651882349E-01 -1.45121381667E-03 +1.00858347567E-02 -1.20732756802E-03 +1.00475300047E-02 -3.85172924378E-01 +2.42900469970E-01
4.43500000000E+09 -2.51536125914E-01 +3.01515531218E-01 -9.56617286741E-05 +9.46056353735E-03 +5.46420014069E-05 +9.32705446791E-03 -3.76066872836E-01 +2.64470820686E-01
4.44000000000E+09 -2.47334920096E-01 +3.16080473090E-01 +1.10243538710E-03 +8.79571081896E-03 +1.18294256231E-03 +8.71221740580E-03 -3.67383263374E-01 +2.84126876100E-01
4.44500000000E+09 -2.43586406361E-01 +3.28956121114E-01 +1.37271158523E-03 +8.39856736942E-03 +1.52594993047E-03 +8.33422991833E-03 -3.58857085811E-01 +3.04075235510E-01
4.45000000000E+09 -2.39606770538E-01 +3.40069318099E-01 +1.75579379574E-03 +8.24353845561E-03 +1.87394870635E-03 +8.19356035540E-03 -3.49069726681E-01 +3.24011123048E-01
4.45500000000E+09 -2.33593303154E-01 +3.50385806862E-01 +2.57387752382E-03 +8.74784458715E-03 +2.75433022298E-03 +8.68573057979E-03 -3.38306573729E-01 +3.43053557974E-01
4.46000000000E+09 -2.26231569036E-01 +3.59543802280E-01 +3.97803343742E-03 +8.44366751914E-03 +4.12787474177E-03 +8.28517110781E-03 -3.25648484357E-01 +3.61737889174E-01
4.46500000000E+09 -2.16428283760E-01 +3.69338209565E-01 +4.85597624882E-03 +7.70628454162E-03 +4.93340733820E-03 +7.50580145751E-03 -3.13688307272E-01 +3.77808031938E-01
4.47000000000E+09 -2.05314518257E-01 +3.79805918675E-01 +5.76721966660E-03 +7.15551571458E-03 +5.88456368228E-03 +7.02144678080E-03 -3.02043943762E-01 +3.94656257741E-01
4.47500000000E+09 -1.92426554410E-01 +3.91240889893E-01 +6.30338514557E-03 +6.34633698703E-03 +6.37504517511E-03 +6.20318806065E-03 -2.90011361983E-01 +4.12013524459E-01
4.48000000000E+09 -1.80215499286E-01 +4.02887595367E-01 +7.20154279614E-03 +5.56095081117E-03 +7.21026448375E-03 +5.40386272198E-03 -2.77150062422E-01 +4.28055802113E-01
4.48500000000E+09 -1.69448676350E-01 +4.15950935412E-01 +7.71999950549E-03 +4.89828145939E-03 +7.70306482510E-03 +4.66887511705E-03 -2.63686392062E-01 +4.42677101813E-01
4.49000000000E+09 -1.59493993434E-01 +4.29315101023E-01 +8.16785545741E-03 +3.29198974749E-03 +8.06439221974E-03 +3.17259308141E-03 -2.51159907570E-01 +4.57125703101E-01
4.49500000000E+09 -1.51410123126E-01 +4.41800643792E-01 +7.64179658178E-03 +2.62552502505E-03 +7.56926936895E-03 +2.55055333570E-03 -2.38222900973E-01 +4.71721073819E-01
4.50000000000E+09 -1.44360449585E-01 +4.52788531253E-01 +7.91026855917E-03 +2.43325921472E-03 +7.81611992720E-03 +2.34621122199E-03 -2.23596043851E-01 +4.85359371974E-01
4.50500000000E+09 -1.38397240919E-01 +4.62167789386E-01 +8.24242712292E-03 +1.69482555922E-03 +8.22339123687E-03 +1.62009168133E-03 -2.10103800436E-01 +4.98387327965E-01
4.51000000000E+09 -1.31724524319E-01 +4.69436006985E-01 +8.91288392503E-03 +9.34919739855E-04 +8.89604023145E-03 +8.00207959526E-04 -1.94781532736E-01 +5.10661774063E-01
4.51500000000E+09 -1.24506421314E-01 +4.74932706709E-01 +9.06605942961E-03 -2.53765036359E-04 +8.94965338025E-03 -4.26515594695E-04 -1.80921051432E-01 +5.21426384594E-01
4.52000000000E+09 -1.15297514805E-01 +4.80014851099E-01 +9.19705146748E-03 -1.80591530325E-03 +9.02527713566E-03 -1.92085249842E-03 -1.67478946803E-01 +5.32400755031E-01
4.52500000000E+09 -1.03892307207E-01 +4.84028671208E-01 +8.23813654059E-03 -2.82678304375E-03 +8.07338434279E-03 -2.97304524064E-03 -1.53664090176E-01 +5.42941794837E-01
4.53000000000E+09 -9.10915600693E-02 +4.88682028054E-01 +7.74877147200E-03 -3.47023661401E-03 +7.55273809819E-03 -3.55881901174E-03 -1.39153641424E-01 +5.52651459789E-01
4.53500000000E+09 -7.71744555233E-02 +4.94682611455E-01 +7.16573935661E-03 -4.23576227860E-03 +6.95728285515E-03 -4.30762702336E-03 -1.24712749812E-01 +5.62225040256E-01
4.54000000000E+09 -6.22763184544E-02 +5.01602091789E-01 +6.72595647792E-03 -4.58306943218E-03 +6.46179801938E-03 -4.61185416646E-03 -1.08635157870E-01 +5.71136078925E-01
4.54500000000E+09 -4.84543781977E-02 +5.09288952943E-01 +6.27269867858E-03 -5.21962118075E-03 +6.02618908522E-03 -5.19648611962E-03 -9.42412949606E-02 +5.80066943451E-01
4.55000000000E+09 -3.54291510960E-02 +5.17568546116E-01 +5.96495373684E-03 -5.99713354844E-03 +5.70038780578E-03 -6.01016386723E-03 -7.84208500782E-02 +5.88843683436E-01
4.55500000000E+09 -2.43639947449E-02 +5.25368512176E-01 +4.78400081330E-03 -6.42091651888E-03 +4.57800311470E-03 -6.39017311204E-03 -6.30126893833E-02 +5.97027272038E-01
4.56000000000E+09 -1.57497637742E-02 +5.33153649803E-01 +4.26979671780E-03 -6.82599325514E-03 +4.00647744549E-03 -6.72082434168E-03 -4.80637269223E-02 +6.03186153407E-01
4.56500000000E+09 -7.04135747216E-03 +5.40107760219E-01 +3.60350937553E-03 -7.24059704918E-03 +3.39140399376E-03 -7.10153218166E-03 -3.41066344692E-02 +6.09731559728E-01
4.57000000000E+09 +1.66518975619E-03 +5.45198390192E-01 +2.84323099339E-03 -7.59641804734E-03 +2.61337480858E-03 -7.41195334159E-03 -1.91881147190E-02 +6.15863753783E-01
