# Hz S RI R 50
! CMT, C1220, 16058040, 17.2.0/1
! Date: 15/08/2018 11:40:11
! Data: Format (Calibration Info)
! Freq                      S11: Re/Im (F2)                       S21: Re/Im (F2)                       S12: Re/Im (F2)                       S22: Re/Im (F2)            
4.00000000000E+09 +6.37203057361E-01 -3.34440160159E-01 -1.06495421218E-03 -2.63698685573E-03 -1.00699496474E-03 -2.72499510794E-03 +7.70382335173E-01 -3.53632595827E-01
4.00500000000E+09 +6.28154883789E-01 -3.41001609774E-01 -1.17217065694E-03 -2.61294829874E-03 -1.10111753365E-03 -2.68313943098E-03 +7.61835718411E-01 -3.65068886329E-01
4.01000000000E+09 +6.18030256612E-01 -3.46522094548E-01 -1.44233590240E-03 -2.73414815955E-03 -1.39912755609E-03 -2.78481206443E-03 +7.52117239010E-01 -3.76260524180E-01
4.01500000000E+09 +6.07276384054E-01 -3.51902912025E-01 -1.74860653946E-03 -2.45438460184E-03 -1.72115874347E-03 -2.54894266199E-03 +7.42630442463E-01 -3.86558258044E-01
4.02000000000E+09 +5.95905459250E-01 -3.58465938708E-01 -1.80759021733E-03 -2.51707512052E-03 -1.74781399311E-03 -2.66081420010E-03 +7.32997640144E-01 -3.97210387799E-01
4.02500000000E+09 +5.83313458217E-01 -3.65564832347E-01 -2.44017821423E-03 -2.58952853315E-03 -2.42289476335E-03 -2.74117051664E-03 +7.22329566935E-01 -4.07913347739E-01
4.03000000000E+09 +5.71109372695E-01 -3.73624171108E-01 -2.92099003586E-03 -2.18080713311E-03 -2.89819625674E-03 -2.32933268039E-03 +7.11541574803E-01 -4.18224153231E-01
4.03500000000E+09 +5.57985907344E-01 -3.83033866893E-01 -3.04841524495E-03 -1.72264247952E-03 -3.02730389643E-03 -1.93415953626E-03 +7.00103471402E-01 -4.29080174742E-01
4.04000000000E+09 +5.45101133554E-01 -3.91948949687E-01 -3.23797246518E-03 -1.44345667779E-03 -3.32193903343E-03 -1.62767100104E-03 +6.88387065376E-01 -4.39635673718E-01
4.04500000000E+09 +5.32555994970E-01 -4.01364106380E-01 -3.24927158640E-03 -1.04509405458E-03 -3.30981573320E-03 -1.28068499288E-03 +6.76729618705E-01 -4.49707873876E-01
4.05000000000E+09 +5.19592488408E-01 -4.09681981213E-01 -3.40203997492E-03 -9.60016183734E-04 -3.50749880882E-03 -1.20129048361E-03 +6.65190029084E-01 -4.60071251513E-01
4.05500000000E+09 +5.05904904335E-01 -4.16575343451E-01 -3.71622604219E-03 -6.25064618386E-04 -3.89670996187E-03 -7.91851010458E-04 +6.52710438481E-01 -4.70127852840E-01
4.06000000000E+09 +4.92141626952E-01 -4.21394771592E-01 -3.84030114335E-03 -1.66764320208E-04 -4.02437226505E-03 -2.31396245923E-04 +6.40019816740E-01 -4.79562039442E-01
4.06500000000E+09 +4.78167889793E-01 -4.25093126755E-01 -3.71590558321E-03 +3.92830134280E-04 -3.83154804187E-03 +3.73296299753E-04 +6.26466404400E-01 -4.88759285042E-01
4.07000000000E+09 +4.63617402502E-01 -4.28186206537E-01 -3.71469339692E-03 +5.82113914203E-04 -3.80014908125E-03 +5.59090843359E-04 +6.12384692070E-01 -4.98367909163E-01
4.07500000000E+09 +4.48223158015E-01 -4.31553581331E-01 -3.61826562282E-03 +8.95929366579E-04 -3.73120189665E-03 +7.72243095604E-04 +5.98245006663E-01 -5.07849760026E-01
4.08000000000E+09 +4.31694651945E-01 -4.35043631845E-01 -3.68043337919E-03 +1.17830762491E-03 -3.77404556184E-03 +1.04769736311E-03 +5.83481582553E-01 -5.17589339900E-01
4.08500000000E+09 +4.14213865325E-01 -4.39197647811E-01 -3.61613018318E-03 +1.54280835708E-03 -3.78771572962E-03 +1.49006984691E-03 +5.68620210490E-01 -5.26006719313E-01
4.09000000000E+09 +3.96381481402E-01 -4.42840260086E-01 -3.50534114906E-03 +1.99400555428E-03 -3.66123879776E-03 +2.00618782530E-03 +5.53729283671E-01 -5.33947313091E-01
4.09500000000E+09 +3.79169869356E-01 -4.46789751855E-01 -3.41671223476E-03 +2.33835541943E-03 -3.57253430604E-03 +2.38018084977E-03 +5.38481223460E-01 -5.41354066023E-01
4.10000000000E+09 +3.62008076256E-01 -4.50925971170E-01 -3.13867330395E-03 +2.60759041495E-03 -3.21989144648E-03 +2.65739192957E-03 +5.22671876787E-01 -5.48664556985E-01
4.10500000000E+09 +3.45142579368E-01 -4.54108270493E-01 -3.02286606604E-03 +2.97434913857E-03 -3.09323884541E-03 +2.98628441172E-03 +5.05571148701E-01 -5.56263799783E-01
4.11000000000E+09 +3.27993299800E-01 -4.55921208100E-01 -2.84780296338E-03 +3.39673060103E-03 -2.96784557688E-03 +3.35233814540E-03 +4.87925779428E-01 -5.63048827328E-01
4.11500000000E+09 +3.11677613035E-01 -4.56100556894E-01 -2.24057228328E-03 +3.76120107574E-03 -2.36776130114E-03 +3.77529422142E-03 +4.70639524462E-01 -5.69604100670E-01
4.12000000000E+09 +2.94913155025E-01 -4.55611244332E-01 -2.04135598956E-03 +3.79156073124E-03 -2.22698736016E-03 +3.79729465756E-03 +4.53086745406E-01 -5.76403581712E-01
4.12500000000E+09 +2.77854051918E-01 -4.53922667571E-01 -1.88817582891E-03 +4.07620176634E-03 -2.08006176237E-03 +4.14229248352E-03 +4.35280845171E-01 -5.82007538820E-01
4.13000000000E+09 +2.60470484555E-01 -4.52240348749E-01 -1.38452403955E-03 +4.38840376881E-03 -1.58235032115E-03 +4.50086888368E-03 +4.16972617430E-01 -5.87262729625E-01
4.13500000000E+09 +2.42497422613E-01 -4.50830648965E-01 -1.25715880636E-03 +4.44010556298E-03 -1.41574468057E-03 +4.52175160450E-03 +3.98544466776E-01 -5.91800165502E-01
4.14000000000E+09 +2.24178463447E-01 -4.50445577839E-01 -9.20885151237E-04 +5.04124856988E-03 -1.15780048795E-03 +5.14385396581E-03 +3.78831796050E-01 -5.96376155985E-01
4.14500000000E+09 +2.05513796510E-01 -4.50522382003E-01 -1.98799139108E-04 +5.58213041461E-03 -4.03938229567E-04 +5.79796031195E-03 +3.59161585235E-01 -5.99991086544E-01
4.15000000000E+09 +1.87030878649E-01 -4.52107296208E-01 +6.76307085858E-04 +5.48080361021E-03 +5.96105376542E-04 +5.70748509081E-03 +3.40395288907E-01 -6.04371737913E-01
4.15500000000E+09 +1.67603845473E-01 -4.52929099249E-01 +1.45592614177E-03 +5.17661887228E-03 +1.35660536812E-03 +5.37195531251E-03 +3.20130488087E-01 -6.08649942093E-01
4.16000000000E+09 +1.49129763773E-01 -4.52422853110E-01 +1.75093415086E-03 +4.88472614470E-03 +1.70842594977E-03 +5.08684010926E-03 +2.99250542299E-01 -6.10270865561E-01
4.16500000000E+09 +1.31398107547E-01 -4.50207879516E-01 +1.83534855413E-03 +4.81009021151E-03 +1.81798339056E-03 +4.94725615477E-03 +2.79950264352E-01 -6.10958256456E-01
4.17000000000E+09 +1.15484382535E-01 -4.45363510778E-01 +2.43936134283E-03 +5.11165608747E-03 +2.34187836407E-03 +5.32635758829E-03 +2.59157415657E-01 -6.11569827488E-01
4.17500000000E+09 +1.00581856225E-01 -4.39896283696E-01 +3.09898238885E-03 +5.10369446877E-03 +3.10498309595E-03 +5.34593603904E-03 +2.38006123726E-01 -6.11278547907E-01
4.18000000000E+09 +8.54729703454E-02 -4.33300966493E-01 +4.13479595337E-03 +4.71058312481E-03 +4.19037307860E-03 +4.98985158249E-03 +2.16644930827E-01 -6.10854111669E-01
4.18500000000E+09 +6.92186080256E-02 -4.25354845518E-01 +4.55194292927E-03 +4.18849941359E-03 +4.68303732996E-03 +4.37196523510E-03 +1.94288599175E-01 -6.10116464271E-01
4.19000000000E+09 +5.29454642113E-02 -4.16910029437E-01 +5.07058300538E-03 +3.91274289635E-03 +5.19543330255E-03 +4.10210835659E-03 +1.73120770580E-01 -6.08127946302E-01
4.19500000000E+09 +3.52839596836E-02 -4.08121028478E-01 +5.75666175282E-03 +3.40382786980E-03 +5.88754218905E-03 +3.58053496444E-03 +1.51728860114E-01 -6.05653022039E-01
4.20000000000E+09 +1.79350949851E-02 -3.98982495781E-01 +6.28385241998E-03 +2.56487496109E-03 +6.42159720492E-03 +2.70690193322E-03 +1.30004135595E-01 -6.03263933165E-01
4.20500000000E+09 +1.44862521732E-03 -3.91362825037E-01 +6.47801149030E-03 +1.72250297995E-03 +6.67529063015E-03 +1.85604483712E-03 +1.07314703068E-01 -5.99351697763E-01
4.21000000000E+09 -1.49866373496E-02 -3.84278644739E-01 +6.69580122653E-03 +6.92242094917E-04 +6.89699969424E-03 +8.24715301631E-04 +8.43528364177E-02 -5.94058068100E-01
4.21500000000E+09 -3.12916647862E-02 -3.77508900982E-01 +6.24670021681E-03 +4.11359668634E-04 +6.40121983626E-03 +4.39352156401E-04 +6.26696346352E-02 -5.89134985694E-01
4.22000000000E+09 -4.68627813040E-02 -3.69012908165E-01 +6.65875658270E-03 +3.26299339388E-04 +6.80171385667E-03 +4.01937797595E-04 +4.01907086206E-02 -5.83305850732E-01
4.22500000000E+09 -6.04086669625E-02 -3.59115342605E-01 +7.34196296452E-03 -7.91364355874E-04 +7.50671337753E-03 -7.38026962914E-04 +1.76131969456E-02 -5.76986761720E-01
4.23000000000E+09 -7.27445934285E-02 -3.47749782745E-01 +7.32316808383E-03 -2.11294313158E-03 +7.47825596430E-03 -2.10508751389E-03 -4.51118483564E-03 -5.68881313145E-01
4.23500000000E+09 -8.42894072052E-02 -3.35401919781E-01 +6.62415489007E-03 -3.12685591741E-03 +6.82864036009E-03 -3.17761321832E-03 -2.59062678670E-02 -5.59322811032E-01
4.24000000000E+09 -9.64348374635E-02 -3.22104653108E-01 +6.07107734459E-03 -3.84423013526E-03 +6.28972353572E-03 -3.86443716792E-03 -4.67981226583E-02 -5.49237760657E-01
4.24500000000E+09 -1.09546068597E-01 -3.08035046663E-01 +5.53487032914E-03 -4.04099082106E-03 +5.63709242596E-03 -4.08076558370E-03 -6.72414697889E-02 -5.39147971801E-01
4.25000000000E+09 -1.23589991914E-01 -2.93084352586E-01 +5.38428884411E-03 -4.62981368068E-03 +5.50741422243E-03 -4.70109454629E-03 -8.90080737457E-02 -5.28205420662E-01
4.25500000000E+09 -1.38402506565E-01 -2.78855188978E-01 +4.70198384736E-03 -5.56467146068E-03 +4.85453720079E-03 -5.68381538131E-03 -1.10471561425E-01 -5.16129869468E-01
4.26000000000E+09 -1.54130902331E-01 -2.65357056999E-01 +3.88381549538E-03 -5.75003473500E-03 +3.97900647557E-03 -5.90926576792E-03 -1.30989638078E-01 -5.02432017288E-01
4.26500000000E+09 -1.70362632833E-01 -2.52775023945E-01 +3.48165392595E-03 -5.65284806672E-03 +3.57239845050E-03 -5.78788760679E-03 -1.51056894336E-01 -4.88083273283E-01
4.27000000000E+09 -1.85868187202E-01 -2.40222939398E-01 +3.23788910344E-03 -6.20778384815E-03 +3.23362575516E-03 -6.31355212046E-03 -1.70321267142E-01 -4.72870797938E-01
4.27500000000E+09 -2.00518012172E-01 -2.27445068742E-01 +2.66624319412E-03 -6.69654706833E-03 +2.65858784495E-03 -6.89293476948E-03 -1.90491012572E-01 -4.56643673807E-01
4.28000000000E+09 -2.12304776527E-01 -2.13570500449E-01 +2.07772364972E-03 -7.13973802208E-03 +2.10666783519E-03 -7.23777211410E-03 -2.09183151510E-01 -4.40097756860E-01
4.28500000000E+09 -2.21058983429E-01 -1.99794481697E-01 +1.28064464937E-03 -7.80488875107E-03 +1.32575871198E-03 -7.91051418246E-03 -2.28506902282E-01 -4.23629177166E-01
4.29000000000E+09 -2.28887605305E-01 -1.86024245028E-01 -2.64169658528E-04 -8.07234663593E-03 -2.53602446845E-04 -8.24995779047E-03 -2.46079389038E-01 -4.04992320192E-01
4.29500000000E+09 -2.36407212164E-01 -1.71162303619E-01 -1.20569952952E-03 -7.16492516554E-03 -1.23687792380E-03 -7.32441628451E-03 -2.61441922181E-01 -3.88414464891E-01
4.30000000000E+09 -2.44389155196E-01 -1.54390221082E-01 -1.80483820303E-03 -6.91567601075E-03 -1.89428178834E-03 -7.01804171865E-03 -2.78299929064E-01 -3.70620343910E-01
4.30500000000E+09 -2.52280383667E-01 -1.36416212121E-01 -2.05898276248E-03 -6.31947833092E-03 -2.09141008094E-03 -6.45412501341E-03 -2.94486142218E-01 -3.50238448970E-01
4.31000000000E+09 -2.60558638478E-01 -1.16525891426E-01 -1.95305119140E-03 -6.51000012535E-03 -2.05978715973E-03 -6.58334078178E-03 -3.09585536155E-01 -3.29562784721E-01
4.31500000000E+09 -2.67804410023E-01 -9.73716965452E-02 -2.66532930512E-03 -6.81237332406E-03 -2.73249809256E-03 -7.01162519055E-03 -3.23870162249E-01 -3.07471088610E-01
4.32000000000E+09 -2.74777342511E-01 -7.89250998969E-02 -3.53079052339E-03 -6.99512888928E-03 -3.63940514494E-03 -7.13333613001E-03 -3.36666573930E-01 -2.86137909459E-01
4.32500000000E+09 -2.81184384369E-01 -6.30825874126E-02 -4.97254277695E-03 -6.76261605249E-03 -5.17060613692E-03 -6.86423746599E-03 -3.49466672022E-01 -2.64257288582E-01
4.33000000000E+09 -2.88190102696E-01 -4.76065226838E-02 -5.62453634927E-03 -6.21683869570E-03 -5.76144089507E-03 -6.19136475258E-03 -3.61542446492E-01 -2.40689799221E-01
4.33500000000E+09 -2.93455770684E-01 -3.11653211813E-02 -6.81503546774E-03 -5.51698959504E-03 -6.94649872615E-03 -5.46310348297E-03 -3.71624944755E-01 -2.15677872556E-01
4.34000000000E+09 -2.95952165500E-01 -1.49067091905E-02 -7.57431637848E-03 -4.14830309992E-03 -7.67438945921E-03 -4.10807562807E-03 -3.79672715422E-01 -1.91311780259E-01
4.34500000000E+09 -2.95994749073E-01 +1.08813730711E-03 -7.21293914956E-03 -2.89678483250E-03 -7.25517400329E-03 -2.86968181287E-03 -3.88889296458E-01 -1.68698271172E-01
4.35000000000E+09 -2.95774177474E-01 +1.79779501924E-02 -7.05540116445E-03 -2.78607879372E-03 -7.11824211389E-03 -2.76181513363E-03 -3.98807327591E-01 -1.43829772112E-01
4.35500000000E+09 -2.94278518415E-01 +3.60627280071E-02 -7.76852019849E-03 -2.49657030144E-03 -7.83093138703E-03 -2.50186624919E-03 -4.06202623741E-01 -1.17716849971E-01
4.36000000000E+09 -2.93429991572E-01 +5.46377493834E-02 -7.87367741739E-03 -1.88032778097E-03 -8.01774793788E-03 -1.86107186297E-03 -4.11415501874E-01 -9.32448944780E-02
4.36500000000E+09 -2.92568464535E-01 +7.48927180596E-02 -9.02579533329E-03 -1.65927377597E-03 -9.15444708138E-03 -1.55164957515E-03 -4.15805448421E-01 -6.91980382465E-02
4.37000000000E+09 -2.92641767742E-01 +9.47420445766E-02 -1.00070588477E-02 +2.83045203436E-04 -1.00856322115E-02 +3.78608018847E-04 -4.18785612262E-01 -4.48117893774E-02
4.37500000000E+09 -2.92920853552E-01 +1.13879059670E-01 -9.42395759082E-03 +2.30248229909E-03 -9.48753306288E-03 +2.46996220499E-03 -4.21005891462E-01 -2.04843303588E-02
4.38000000000E+09 -2.94263665747E-01 +1.31533227970E-01 -8.79298597873E-03 +3.13712610884E-03 -8.91955097361E-03 +3.35259095305E-03 -4.22869829279E-01 +5.57723205399E-03
4.38500000000E+09 -2.95001533475E-01 +1.48180959728E-01 -7.96651827335E-03 +4.09518892051E-03 -8.02166255959E-03 +4.27575259454E-03 -4.22464546212E-01 +3.11340342572E-02
4.39000000000E+09 -2.94675358781E-01 +1.63395426667E-01 -7.36136754600E-03 +4.65483190755E-03 -7.35710194907E-03 +4.91341074554E-03 -4.22482328285E-01 +5.52010818268E-02
4.39500000000E+09 -2.93042597201E-01 +1.77235558912E-01 -7.38351215376E-03 +5.04889192414E-03 -7.35650064971E-03 +5.25474282634E-03 -4.22182718654E-01 +7.96593891139E-02
4.40000000000E+09 -2.89096998774E-01 +1.90746605819E-01 -6.62368877350E-03 +6.43606792490E-03 -6.58807734838E-03 +6.69760346288E-03 -4.20857674815E-01 +1.03895659613E-01
4.40500000000E+09 -2.84113824758E-01 +2.03501131396E-01 -5.84465525939E-03 +7.18911691216E-03 -5.78645218634E-03 +7.33299007278E-03 -4.17352516196E-01 +1.28498036801E-01
4.41000000000E+09 -2.78100007762E-01 +2.17693813061E-01 -4.63786372643E-03 +7.27593343354E-03 -4.53630160131E-03 +7.45853742428E-03 -4.12414270359E-01 +1.52648351416E-01
4.41500000000E+09 -2.71013144407E-01 +2.33639505300E-01 -4.38852623847E-03 +8.19673812879E-03 -4.25355435726E-03 +8.34322365329E-03 -4.06711218619E-01 +1.76171331459E-01
4.42000000000E+09 -2.63920387410E-01 +2.50374657385E-01 -3.37723422202E-03 +8.44301328716E-03 -3.13493040457E-03 +8.54123884857E-03 -3.99875947532E-01 +1.99729560016E-01
4.42500000000E+09 -2.56988196925E-01 +2.67873903354E-01 -2.58172401729E-03 +9.49067506227E-03 -2.32986333902E-03 +9.50542623118E-03 -3.93785686809E-01 +2.21747832917E-01
4.43000000000E+09 -2.50972715624E-01 +2.85092867958E-01 -4.19643645854E-04 +9.80048550925E-03 -2.31935504119E-04 +9.74944826477E-03 -3.86514454362E-01 +2.44780927695E-01
4.43500000000E+09 -2.45394762328E-01 +3.01556334188E-01 +7.04996743630E-04 +8.84815487095E-03 +8.12048063883E-04 +8.73904255511E-03 -3.77490846578E-01 +2.66375697648E-01
4.44000000000E+09 -2.41035798149E-01 +3.15660880740E-01 +1.51068294778E-03 +8.12414534720E-03 +1.63532282651E-03 +8.10410268469E-03 -3.69026586967E-01 +2.86282706379E-01
4.44500000000E+09 -2.37094520316E-01 +3.28193183484E-01 +1.70849337154E-03 +7.89914184792E-03 +1.84857905248E-03 +7.87175476774E-03 -3.60379164869E-01 +3.06635873365E-01
4.45000000000E+09 -2.33329488250E-01 +3.39308616081E-01 +2.12368528367E-03 +7.69954580949E-03 +2.28939211124E-03 +7.63466891466E-03 -3.50271685360E-01 +3.26784616360E-01
4.45500000000E+09 -2.26942836088E-01 +3.49474815991E-01 +2.87026799972E-03 +8.31666256229E-03 +3.01192070653E-03 +8.24984529491E-03 -3.39106522569E-01 +3.46063802994E-01
4.46000000000E+09 -2.19853029087E-01 +3.58295020086E-01 +4.50224716679E-03 +7.79202203917E-03 +4.64321744049E-03 +7.65976493069E-03 -3.26213164104E-01 +3.64664647462E-01
4.46500000000E+09 -2.10070306396E-01 +3.68191366522E-01 +5.11165285399E-03 +6.74534359481E-03 +5.21171254426E-03 +6.59745742420E-03 -3.13956028561E-01 +3.80470240967E-01
4.47000000000E+09 -1.98674129637E-01 +3.78002950605E-01 +5.64636468857E-03 +6.31011551171E-03 +5.80355752365E-03 +6.17491131130E-03 -3.02688066282E-01 +3.97091440833E-01
4.47500000000E+09 -1.85908138456E-01 +3.88626316856E-01 +6.06524036031E-03 +5.57263625069E-03 +6.12920664056E-03 +5.43070784294E-03 -2.90887023281E-01 +4.14903203961E-01
4.48000000000E+09 -1.73829141583E-01 +3.99583984492E-01 +6.77461828063E-03 +5.00762086489E-03 +6.77696739579E-03 +4.82688023604E-03 -2.77831947988E-01 +4.31523295619E-01
4.48500000000E+09 -1.62914679023E-01 +4.12197762822E-01 +7.42378581709E-03 +4.62398996675E-03 +7.36460428339E-03 +4.41845076393E-03 -2.63847925161E-01 +4.46518903967E-01
4.49000000000E+09 -1.52782131319E-01 +4.24775278040E-01 +7.94478868565E-03 +2.89371575138E-03 +7.84275291943E-03 +2.73337093759E-03 -2.51002413408E-01 +4.61101728912E-01
4.49500000000E+09 -1.44347468195E-01 +4.36996733116E-01 +7.44757365802E-03 +2.29632770096E-03 +7.32940920699E-03 +2.18013696959E-03 -2.37473672041E-01 +4.75646315650E-01
4.50000000000E+09 -1.36904144131E-01 +4.47796335585E-01 +7.64881095274E-03 +2.07515522770E-03 +7.59226827841E-03 +1.97605154179E-03 -2.22739654191E-01 +4.89280673591E-01
4.50500000000E+09 -1.30530520193E-01 +4.57182405756E-01 +7.95463545783E-03 +1.36106996028E-03 +7.95550868288E-03 +1.21729289665E-03 -2.08714831325E-01 +5.02254235034E-01
4.51000000000E+09 -1.23306443750E-01 +4.64449128615E-01 +8.58261611611E-03 +5.24430855044E-04 +8.51943602155E-03 +3.65970227094E-04 -1.93117783382E-01 +5.14370256346E-01
4.51500000000E+09 -1.15881205271E-01 +4.69830816630E-01 +8.52821781422E-03 -6.43917954895E-04 +8.42452477569E-03 -7.95533342796E-04 -1.79124765621E-01 +5.24919889462E-01
4.52000000000E+09 -1.06795305652E-01 +4.74400563968E-01 +8.62488009397E-03 -1.98419191121E-03 +8.43082332311E-03 -2.14267470381E-03 -1.65582761287E-01 +5.35923761673E-01
4.52500000000E+09 -9.64534155026E-02 +4.78309832896E-01 +7.68978147638E-03 -2.87011875581E-03 +7.49568999675E-03 -2.94319184914E-03 -1.51290541917E-01 +5.46500750512E-01
4.53000000000E+09 -8.45244452344E-02 +4.83179183017E-01 +7.36114976757E-03 -3.45437906648E-03 +7.13759352869E-03 -3.60062166818E-03 -1.36326948822E-01 +5.55956993030E-01
4.53500000000E+09 -7.09290179843E-02 +4.89130058691E-01 +6.79391628529E-03 -4.35007675021E-03 +6.58228113259E-03 -4.38592710473E-03 -1.21609458299E-01 +5.65010716200E-01
4.54000000000E+09 -5.63335069349E-02 +4.95591643997E-01 +6.28127416972E-03 -4.76336460024E-03 +6.01827461986E-03 -4.78846050204E-03 -1.05538184883E-01 +5.73768463884E-01
4.54500000000E+09 -4.27647351586E-02 +5.02340346919E-01 +5.56219188406E-03 -5.41960737076E-03 +5.32701418204E-03 -5.37750528987E-03 -9.10747851426E-02 +5.82407433794E-01
4.55000000000E+09 -3.00401758440E-02 +5.09588621031E-01 +5.10843252715E-03 -5.90491535516E-03 +4.83153055005E-03 -5.85338293057E-03 -7.50487542077E-02 +5.91052812828E-01
4.55500000000E+09 -1.92820042386E-02 +5.16490251313E-01 +4.12021522063E-03 -5.99729487406E-03 +3.90872315500E-03 -5.88043899730E-03 -5.95615290282E-02 +5.98691611912E-01
4.56000000000E+09 -1.06022850068E-02 +5.23816670790E-01 +3.84063911604E-03 -6.40641566663E-03 +3.62165373715E-03 -6.32480954892E-03 -4.47961977951E-02 +6.04621038832E-01
4.56500000000E+09 -1.56580113716E-03 +5.30342845604E-01 +3.25235603037E-03 -6.82924200140E-03 +3.03695524473E-03 -6.69867782377E-03 -3.09191193872E-02 +6.11056223121E-01
4.57000000000E+09 +7.24011056023E-03 +5.35014329112E-01 +2.42465622942E-03 -7.26466805104E-03 +2.21774372204E-03 -7.09776909715E-03 -1.60085933972E-02 +6.17364069439E-01
