# Hz S RI R 50
! CMT, C1220, 16058040, 17.2.0/1
! Date: 15/08/2018 11:41:49
! Data: Format (Calibration Info)
! Freq                      S11: Re/Im (F2)                       S21: Re/Im (F2)                       S12: Re/Im (F2)                       S22: Re/Im (F2)            
4.00000000000E+09 +6.35842533378E-01 -3.37067421369E-01 -1.13930159771E-03 -2.77699236437E-03 -1.04089494758E-03 -2.87974639903E-03 +7.71232598312E-01 -3.52816101770E-01
4.00500000000E+09 +6.26780166286E-01 -3.43180985268E-01 -1.19033609209E-03 -2.76960666855E-03 -1.13031268440E-03 -2.80742618058E-03 +7.62443583351E-01 -3.64264938175E-01
4.01000000000E+09 +6.16713993975E-01 -3.48534653475E-01 -1.49483504571E-03 -2.86159135740E-03 -1.47140072665E-03 -2.99873425050E-03 +7.52642034102E-01 -3.75410061846E-01
4.01500000000E+09 +6.06060773117E-01 -3.53575308697E-01 -1.88122746767E-03 -2.63837872550E-03 -1.80934689500E-03 -2.69201262824E-03 +7.42932828027E-01 -3.85579882501E-01
4.02000000000E+09 +5.94662915064E-01 -3.60241126517E-01 -1.93199046177E-03 -2.76463431632E-03 -1.87233728990E-03 -2.88060872735E-03 +7.33376760050E-01 -3.96000881957E-01
4.02500000000E+09 +5.82050628019E-01 -3.67399885455E-01 -2.73379732560E-03 -2.71950115793E-03 -2.63322648753E-03 -2.92825907601E-03 +7.22951357949E-01 -4.06693023178E-01
4.03000000000E+09 +5.69752672131E-01 -3.75444398462E-01 -3.18923116342E-03 -2.19815356360E-03 -3.13958904431E-03 -2.39608423403E-03 +7.12062502943E-01 -4.17171132636E-01
4.03500000000E+09 +5.56969348629E-01 -3.84835206023E-01 -3.18288684507E-03 -1.76509261426E-03 -3.16803140125E-03 -1.97085358440E-03 +7.00568787667E-01 -4.27887981585E-01
4.04000000000E+09 +5.43980615765E-01 -3.94004622453E-01 -3.44837757528E-03 -1.47055248276E-03 -3.58335085858E-03 -1.72549364596E-03 +6.88844759895E-01 -4.38533965884E-01
4.04500000000E+09 +5.31743462536E-01 -4.03300648482E-01 -3.42296592567E-03 -1.07042893092E-03 -3.50295750374E-03 -1.26527359774E-03 +6.77181964251E-01 -4.48759317909E-01
4.05000000000E+09 +5.18889587370E-01 -4.11694365476E-01 -3.58188602192E-03 -9.40504099568E-04 -3.67900833655E-03 -1.11212519783E-03 +6.65575357678E-01 -4.58951048222E-01
4.05500000000E+09 +5.05410172064E-01 -4.18252581406E-01 -3.87185223013E-03 -5.46926649789E-04 -4.07476749315E-03 -6.56912535706E-04 +6.53095928593E-01 -4.68858793173E-01
4.06000000000E+09 +4.91977621775E-01 -4.22854355256E-01 -3.97977758790E-03 -9.55525380487E-05 -4.22946824943E-03 -1.92993432171E-04 +6.40436974250E-01 -4.78238250614E-01
4.06500000000E+09 +4.78164553543E-01 -4.26456174010E-01 -3.91605439710E-03 +4.69043414996E-04 -4.11278631768E-03 +3.83085681275E-04 +6.26693177580E-01 -4.87479989135E-01
4.07000000000E+09 +4.63617259004E-01 -4.29166433083E-01 -3.92893176906E-03 +7.84952240516E-04 -4.07398441501E-03 +7.22681851059E-04 +6.12675797792E-01 -4.96797591958E-01
4.07500000000E+09 +4.48628918515E-01 -4.32438686618E-01 -3.73657729361E-03 +1.19008812513E-03 -3.86716887855E-03 +1.13122264601E-03 +5.98698188201E-01 -5.06451615689E-01
4.08000000000E+09 +4.32005243932E-01 -4.36082147974E-01 -3.61405381188E-03 +1.37049279221E-03 -3.79242450840E-03 +1.31145822302E-03 +5.83904234580E-01 -5.15991845797E-01
4.08500000000E+09 +4.14549667476E-01 -4.40326737179E-01 -3.58637577076E-03 +1.64136124941E-03 -3.78468266368E-03 +1.55413745712E-03 +5.69237185422E-01 -5.24453953162E-01
4.09000000000E+09 +3.96505464792E-01 -4.44130184320E-01 -3.49592759757E-03 +1.96347038733E-03 -3.69845750944E-03 +1.98413165761E-03 +5.54256810624E-01 -5.32496196860E-01
4.09500000000E+09 +3.79167568062E-01 -4.47988227176E-01 -3.55715069077E-03 +2.32902166827E-03 -3.73682863126E-03 +2.42571448125E-03 +5.39046826518E-01 -5.39754012276E-01
4.10000000000E+09 +3.62372828021E-01 -4.51947066470E-01 -3.28938262739E-03 +2.68650964815E-03 -3.42496100234E-03 +2.76438472778E-03 +5.23148975974E-01 -5.46860698552E-01
4.10500000000E+09 +3.45783589992E-01 -4.55405160856E-01 -3.20920837571E-03 +3.02183920364E-03 -3.32530832335E-03 +3.10577550735E-03 +5.06032132552E-01 -5.54505873304E-01
4.11000000000E+09 +3.28784290174E-01 -4.57407602773E-01 -3.11341452362E-03 +3.64882593915E-03 -3.20314509291E-03 +3.72471977259E-03 +4.88601140372E-01 -5.61077878388E-01
4.11500000000E+09 +3.12616472646E-01 -4.57654639154E-01 -2.31139429306E-03 +4.04381076725E-03 -2.46751378852E-03 +4.11752064814E-03 +4.71453946048E-01 -5.67496996232E-01
4.12000000000E+09 +2.96142446191E-01 -4.57216212706E-01 -2.10888171820E-03 +4.06798024482E-03 -2.28439069245E-03 +4.11960257837E-03 +4.54171635641E-01 -5.74217429193E-01
4.12500000000E+09 +2.79147743046E-01 -4.55647159957E-01 -1.90015068959E-03 +4.25234815298E-03 -2.04740374755E-03 +4.28936207590E-03 +4.36742000705E-01 -5.80141129816E-01
4.13000000000E+09 +2.61878458682E-01 -4.53904065643E-01 -1.47582978902E-03 +4.54504230469E-03 -1.63266655027E-03 +4.62643686199E-03 +4.18504043667E-01 -5.85508113548E-01
4.13500000000E+09 +2.43855321795E-01 -4.52675393763E-01 -1.47804642150E-03 +4.66783548986E-03 -1.64863845279E-03 +4.72364653782E-03 +3.99900076270E-01 -5.89999104795E-01
4.14000000000E+09 +2.25428442204E-01 -4.52309009458E-01 -1.13476165334E-03 +5.56184632303E-03 -1.37385299024E-03 +5.61131118923E-03 +3.80418808367E-01 -5.94252779934E-01
4.14500000000E+09 +2.06805343413E-01 -4.52719560834E-01 -8.59025739021E-05 +6.18459459446E-03 -2.63635886670E-04 +6.36372875698E-03 +3.61142132925E-01 -5.98114161636E-01
4.15000000000E+09 +1.87850318193E-01 -4.54690725079E-01 +1.00247907708E-03 +5.92938295250E-03 +8.60651938360E-04 +6.16944193252E-03 +3.42578106583E-01 -6.02729840249E-01
4.15500000000E+09 +1.68256502057E-01 -4.55749550812E-01 +1.76466404304E-03 +5.50812693726E-03 +1.70218721304E-03 +5.68173367653E-03 +3.22385783222E-01 -6.07112608088E-01
4.16000000000E+09 +1.49656088420E-01 -4.55209083408E-01 +2.10771134239E-03 +5.16379931894E-03 +2.04447886522E-03 +5.33209889719E-03 +3.01720709062E-01 -6.08885590773E-01
4.16500000000E+09 +1.31867388114E-01 -4.53185865504E-01 +2.13690059141E-03 +4.96100389923E-03 +2.14675452099E-03 +5.11030068027E-03 +2.82480057446E-01 -6.09950461895E-01
4.17000000000E+09 +1.15979435109E-01 -4.48181212384E-01 +2.61872233971E-03 +5.30660899312E-03 +2.53773508291E-03 +5.51249647830E-03 +2.61818282168E-01 -6.10681412020E-01
4.17500000000E+09 +1.01204817515E-01 -4.42707472279E-01 +3.42651577653E-03 +5.44500033887E-03 +3.44537896214E-03 +5.73151957101E-03 +2.40532314956E-01 -6.10804009979E-01
4.18000000000E+09 +8.61066202758E-02 -4.36278438067E-01 +4.55978923764E-03 +4.87626649154E-03 +4.65141236803E-03 +5.13544459970E-03 +2.18787782359E-01 -6.10532650305E-01
4.18500000000E+09 +6.98768093931E-02 -4.28713064694E-01 +4.98129581262E-03 +4.35593608577E-03 +5.12152852712E-03 +4.58894961323E-03 +1.96352567221E-01 -6.09493602065E-01
4.19000000000E+09 +5.32572957983E-02 -4.20264843963E-01 +5.70218126041E-03 +4.01341280771E-03 +5.84033112391E-03 +4.18264380005E-03 +1.75452089074E-01 -6.07473170821E-01
4.19500000000E+09 +3.53599393161E-02 -4.11702096494E-01 +6.26817425844E-03 +3.16349391082E-03 +6.45185409365E-03 +3.37532752302E-03 +1.54198892570E-01 -6.05090655985E-01
4.20000000000E+09 +1.76356358000E-02 -4.02643254101E-01 +6.54942134914E-03 +2.27551981649E-03 +6.70277295185E-03 +2.45816352724E-03 +1.32565693490E-01 -6.02790856017E-01
4.20500000000E+09 +8.86186981604E-04 -3.94936587497E-01 +6.83681473300E-03 +1.52598490710E-03 +7.01732788533E-03 +1.60088137493E-03 +1.10226500240E-01 -5.99178826788E-01
4.21000000000E+09 -1.57666051837E-02 -3.87921024321E-01 +6.91624351769E-03 +3.75264359685E-04 +7.15515467428E-03 +4.42189319210E-04 +8.71740601000E-02 -5.94306533195E-01
4.21500000000E+09 -3.19233240760E-02 -3.80923209120E-01 +6.36944101878E-03 +1.79191545449E-04 +6.58527876467E-03 +2.08705228414E-04 +6.53145670118E-02 -5.89643504209E-01
4.22000000000E+09 -4.73275384573E-02 -3.72733457708E-01 +6.69183481674E-03 +1.09292782170E-04 +6.86040484113E-03 +1.95853586127E-04 +4.27298275040E-02 -5.83971426597E-01
4.22500000000E+09 -6.12255395887E-02 -3.62832159989E-01 +7.57514967588E-03 -7.38198086221E-04 +7.75150365271E-03 -6.79336481430E-04 +1.99754326896E-02 -5.77584829343E-01
4.23000000000E+09 -7.35273147739E-02 -3.51228741453E-01 +7.64819389277E-03 -2.37627858232E-03 +7.84788008365E-03 -2.39096144215E-03 -2.10098493744E-03 -5.69671650417E-01
4.23500000000E+09 -8.54816348349E-02 -3.38572797422E-01 +6.88436518612E-03 -3.60843267448E-03 +7.08597287632E-03 -3.58477818839E-03 -2.34724371674E-02 -5.60235033687E-01
4.24000000000E+09 -9.80222980951E-02 -3.24693353232E-01 +6.05406174248E-03 -4.19834261521E-03 +6.27037621848E-03 -4.27556466113E-03 -4.43776818641E-02 -5.50525121683E-01
4.24500000000E+09 -1.11215559670E-01 -3.10067087105E-01 +5.40032861916E-03 -4.15834675749E-03 +5.59002134639E-03 -4.31421939599E-03 -6.49439449927E-02 -5.41005472805E-01
4.25000000000E+09 -1.25724505207E-01 -2.94946899855E-01 +5.40187236177E-03 -4.55755846222E-03 +5.54388065757E-03 -4.72641322399E-03 -8.72248686171E-02 -5.30338366158E-01
4.25500000000E+09 -1.41345648400E-01 -2.80497389511E-01 +5.03597198081E-03 -5.46154941952E-03 +5.16211884555E-03 -5.56900918020E-03 -1.09116389508E-01 -5.18380754384E-01
4.26000000000E+09 -1.57615961005E-01 -2.66575801269E-01 +4.43621657506E-03 -6.06922054728E-03 +4.49341341938E-03 -6.22595256086E-03 -1.30291206241E-01 -5.04316571043E-01
4.26500000000E+09 -1.74462926058E-01 -2.54011711913E-01 +3.69390439522E-03 -6.22993363724E-03 +3.81082101218E-03 -6.30513376274E-03 -1.50190722832E-01 -4.89567164632E-01
4.27000000000E+09 -1.90431559457E-01 -2.40933150644E-01 +3.27322192172E-03 -6.62252345286E-03 +3.32748314962E-03 -6.78913259555E-03 -1.69290322757E-01 -4.74477572963E-01
4.27500000000E+09 -2.05013711080E-01 -2.28321622106E-01 +2.68311385711E-03 -7.00881344081E-03 +2.68386906263E-03 -7.12733120824E-03 -1.89578845619E-01 -4.58574712784E-01
4.28000000000E+09 -2.17119152678E-01 -2.14250847979E-01 +2.24261796136E-03 -7.58836720041E-03 +2.21560285691E-03 -7.69367098881E-03 -2.08741693419E-01 -4.42132398837E-01
4.28500000000E+09 -2.25771467600E-01 -2.00219531445E-01 +1.33721079516E-03 -8.40606842166E-03 +1.33451823696E-03 -8.54970217915E-03 -2.28336325790E-01 -4.25531687362E-01
4.29000000000E+09 -2.33274838132E-01 -1.86106803388E-01 -4.44052415318E-04 -8.63883373645E-03 -4.72987260549E-04 -8.69911737985E-03 -2.45977292819E-01 -4.06754166961E-01
4.29500000000E+09 -2.40494965684E-01 -1.71102976866E-01 -1.51714811937E-03 -7.49016574133E-03 -1.55130615432E-03 -7.60519809232E-03 -2.61507355977E-01 -3.90026524594E-01
4.30000000000E+09 -2.48395540545E-01 -1.53791593213E-01 -1.85753113596E-03 -7.03424340336E-03 -1.86068134698E-03 -7.16037132030E-03 -2.78564252081E-01 -3.72278324574E-01
4.30500000000E+09 -2.56127616044E-01 -1.35168714036E-01 -2.02308474419E-03 -6.75405967158E-03 -2.05374695793E-03 -6.92272917284E-03 -2.95008606124E-01 -3.51549773145E-01
4.31000000000E+09 -2.64426578031E-01 -1.14661924374E-01 -2.07580935975E-03 -7.15353112727E-03 -2.09584416080E-03 -7.33141870864E-03 -3.10137772455E-01 -3.30537607862E-01
4.31500000000E+09 -2.71716114144E-01 -9.48501152597E-02 -3.03543855693E-03 -7.51407110514E-03 -3.16449819611E-03 -7.76708970464E-03 -3.24206980659E-01 -3.08525305674E-01
4.32000000000E+09 -2.78663773413E-01 -7.57543846706E-02 -4.16371020985E-03 -7.51223368953E-03 -4.35271297616E-03 -7.70069847640E-03 -3.37326560254E-01 -2.87113967909E-01
4.32500000000E+09 -2.84831404668E-01 -5.96879974567E-02 -5.06333376604E-03 -6.41110961844E-03 -6.04594448329E-03 -6.97967953060E-03 -3.50113407697E-01 -2.65139213006E-01
4.33000000000E+09 -2.91762667472E-01 -4.40198618726E-02 -6.11622387022E-03 -6.20137860475E-03 -6.31724277625E-03 -6.13873394131E-03 -3.62126524329E-01 -2.41377509484E-01
4.33500000000E+09 -2.96947530596E-01 -2.77456150794E-02 -7.15651758404E-03 -5.57283908531E-03 -7.30125032426E-03 -5.52394162553E-03 -3.72164543268E-01 -2.16351594243E-01
4.34000000000E+09 -2.99417989366E-01 -1.10405723669E-02 -7.92943857597E-03 -4.41243274846E-03 -8.06776531581E-03 -4.38521273737E-03 -3.80198392946E-01 -1.91967687848E-01
4.34500000000E+09 -2.99196352388E-01 +5.12019153791E-03 -7.87860013910E-03 -3.13338413495E-03 -7.91947278364E-03 -3.09939267689E-03 -3.89420302011E-01 -1.69314954859E-01
4.35000000000E+09 -2.98278170412E-01 +2.22108879855E-02 -7.87882820507E-03 -2.86283918894E-03 -7.93564816961E-03 -2.85725703991E-03 -3.99471871394E-01 -1.44622160900E-01
4.35500000000E+09 -2.96264575042E-01 +4.02476782966E-02 -8.63521888847E-03 -2.23506621037E-03 -8.71237828701E-03 -2.22504710143E-03 -4.07230646423E-01 -1.18201772078E-01
4.36000000000E+09 -2.95426412950E-01 +5.92493442676E-02 -8.43287998345E-03 -1.46159234261E-03 -8.46583284083E-03 -1.48885484897E-03 -4.12463516324E-01 -9.31577419608E-02
4.36500000000E+09 -2.94176265726E-01 +8.00215922775E-02 -9.48037306277E-03 -1.28783156718E-03 -9.63472724932E-03 -1.19297203404E-03 -4.16226634748E-01 -6.88821082587E-02
4.37000000000E+09 -2.93847824791E-01 +1.00369800431E-01 -1.02892390605E-02 +6.91723612433E-04 -1.04252190485E-02 +7.83738861435E-04 -4.19035571329E-01 -4.48493464052E-02
4.37500000000E+09 -2.93680035740E-01 +1.20017872377E-01 -9.67838372248E-03 +2.59958313523E-03 -9.82772815505E-03 +2.78588496592E-03 -4.21350824911E-01 -2.06111639332E-02
4.38000000000E+09 -2.94700410050E-01 +1.38073785609E-01 -8.98586648668E-03 +3.39052567700E-03 -9.07060036824E-03 +3.60954072556E-03 -4.23573744888E-01 +5.54145261208E-03
4.38500000000E+09 -2.95356989504E-01 +1.54796318012E-01 -8.25564167225E-03 +4.28435826720E-03 -8.27000152000E-03 +4.51762999588E-03 -4.22984187918E-01 +3.15660284920E-02
4.39000000000E+09 -2.94944081173E-01 +1.70431308483E-01 -7.70445717282E-03 +4.84743997374E-03 -7.64118636285E-03 +5.04330828428E-03 -4.22479801485E-01 +5.58958719981E-02
4.39500000000E+09 -2.92848789906E-01 +1.84319709058E-01 -7.74951246623E-03 +5.42227059031E-03 -7.75276048521E-03 +5.63051107164E-03 -4.21873287727E-01 +7.98481580588E-02
4.40000000000E+09 -2.88591222936E-01 +1.97970613404E-01 -6.90401813408E-03 +6.96711084287E-03 -6.80432200397E-03 +7.07806748429E-03 -4.20880110419E-01 +1.04220835437E-01
4.40500000000E+09 -2.83222102681E-01 +2.10737952421E-01 -5.98829582891E-03 +7.66528119663E-03 -5.96112314830E-03 +7.84496641746E-03 -4.16987676144E-01 +1.29018668675E-01
4.41000000000E+09 -2.77066805829E-01 +2.25107881546E-01 -4.72430029314E-03 +7.75584588753E-03 -4.70878068938E-03 +7.88799599649E-03 -4.11520024548E-01 +1.53063708418E-01
4.41500000000E+09 -2.69391465769E-01 +2.41048487602E-01 -4.42421484963E-03 +8.54021370392E-03 -4.26014356721E-03 +8.69036608595E-03 -4.05677612262E-01 +1.75843851924E-01
4.42000000000E+09 -2.61995175038E-01 +2.58082337101E-01 -3.61735750044E-03 +8.76528036471E-03 -3.41749162786E-03 +8.84121849427E-03 -3.98968413846E-01 +1.99032955553E-01
4.42500000000E+09 -2.54506450681E-01 +2.75532432861E-01 -2.91872750835E-03 +1.00712916044E-02 -2.72078352377E-03 +1.00464367839E-02 -3.93537084052E-01 +2.20637207056E-01
4.43000000000E+09 -2.47977119409E-01 +2.92756646154E-01 -6.02098867889E-04 +1.05348749652E-02 -3.44450550923E-04 +1.03744956938E-02 -3.86522366366E-01 +2.44404293881E-01
4.43500000000E+09 -2.42219422810E-01 +3.08727451683E-01 +6.64535568642E-04 +9.64438006661E-03 +7.73910460232E-04 +9.55539687780E-03 -3.77026118286E-01 +2.66313750454E-01
4.44000000000E+09 -2.37992813859E-01 +3.22577551467E-01 +1.69790008450E-03 +8.84815395692E-03 +1.83614152725E-03 +8.74734794257E-03 -3.67935311534E-01 +2.85523413510E-01
4.44500000000E+09 -2.33775822700E-01 +3.35226224767E-01 +1.94465031334E-03 +8.60963078410E-03 +2.07563917197E-03 +8.53961782305E-03 -3.59741933203E-01 +3.05486389757E-01
4.45000000000E+09 -2.29416057961E-01 +3.46148888887E-01 +2.47829681972E-03 +8.23182995418E-03 +2.60677121528E-03 +8.23975907486E-03 -3.49872420086E-01 +3.25430733684E-01
4.45500000000E+09 -2.22810583770E-01 +3.55760442869E-01 +3.26160952088E-03 +8.79379369618E-03 +3.42540003551E-03 +8.74536767124E-03 -3.39161936324E-01 +3.44688500301E-01
4.46000000000E+09 -2.14979721200E-01 +3.64504743832E-01 +4.64295443658E-03 +8.30699749036E-03 +4.83454570497E-03 +8.14909481313E-03 -3.26151941293E-01 +3.63314013283E-01
4.46500000000E+09 -2.04941989278E-01 +3.73734667030E-01 +5.49478536265E-03 +7.37400213529E-03 +5.62275512535E-03 +7.19962810140E-03 -3.14364448960E-01 +3.79047161616E-01
4.47000000000E+09 -1.93461136430E-01 +3.83823877980E-01 +6.13154465238E-03 +6.83893928304E-03 +6.21397543283E-03 +6.63974880995E-03 -3.03072961460E-01 +3.96066467026E-01
4.47500000000E+09 -1.80214591197E-01 +3.94993208859E-01 +6.60001417808E-03 +6.36835458677E-03 +6.70061413235E-03 +6.14925212143E-03 -2.91165933542E-01 +4.13863827823E-01
4.48000000000E+09 -1.67425442865E-01 +4.06067212084E-01 +7.67136185771E-03 +5.62793723249E-03 +7.65494210468E-03 +5.37639419155E-03 -2.77965797447E-01 +4.30336675682E-01
4.48500000000E+09 -1.56294898824E-01 +4.18286836634E-01 +8.47196084156E-03 +4.83165187277E-03 +8.41338001741E-03 +4.60548864721E-03 -2.64163824462E-01 +4.45342023584E-01
4.49000000000E+09 -1.46698283821E-01 +4.30873269799E-01 +8.93235886937E-03 +2.87635729838E-03 +8.76890722400E-03 +2.71291970605E-03 -2.51238023018E-01 +4.59663782567E-01
4.49500000000E+09 -1.38662904463E-01 +4.43054322038E-01 +8.30000032025E-03 +2.06761761433E-03 +8.18160023616E-03 +1.92783263434E-03 -2.38108123132E-01 +4.73977052134E-01
4.50000000000E+09 -1.31792371004E-01 +4.53780546821E-01 +8.27418684700E-03 +1.79713657903E-03 +8.18566381872E-03 +1.70885892318E-03 -2.23536928892E-01 +4.87622521768E-01
4.50500000000E+09 -1.25636053296E-01 +4.63111906393E-01 +8.61534276623E-03 +1.32698091360E-03 +8.50254865630E-03 +1.24830062755E-03 -2.09794103304E-01 +5.00784568432E-01
4.51000000000E+09 -1.18333331247E-01 +4.69675306703E-01 +9.39788378922E-03 +4.22092709398E-04 +9.26440756494E-03 +2.71806015007E-04 -1.93959355934E-01 +5.13044725017E-01
4.51500000000E+09 -1.10852982596E-01 +4.74315046814E-01 +9.40386861227E-03 -9.49674391998E-04 +9.28536791123E-03 -1.14068304976E-03 -1.79999819399E-01 +5.23376834181E-01
4.52000000000E+09 -1.01838391258E-01 +4.78408337250E-01 +9.38919442860E-03 -2.61844377818E-03 +9.17148931630E-03 -2.76050498797E-03 -1.66706685495E-01 +5.34024770321E-01
4.52500000000E+09 -9.07656460907E-02 +4.82044807921E-01 +8.08541996301E-03 -3.53421989693E-03 +7.91156690029E-03 -3.62457724100E-03 -1.53089954289E-01 +5.44815119297E-01
4.53000000000E+09 -7.80743903866E-02 +4.86369648132E-01 +7.65848679145E-03 -3.93649001973E-03 +7.45488646970E-03 -4.01045551392E-03 -1.38219009922E-01 +5.54673968697E-01
4.53500000000E+09 -6.39825555039E-02 +4.91927251065E-01 +7.32397861896E-03 -4.75102130147E-03 +7.09638024292E-03 -4.85188573493E-03 -1.23468941071E-01 +5.63815979361E-01
4.54000000000E+09 -4.90900216430E-02 +4.98413974874E-01 +6.71564619514E-03 -5.45156211731E-03 +6.41515851602E-03 -5.53560273886E-03 -1.07415688441E-01 +5.72466014540E-01
4.54500000000E+09 -3.51639513135E-02 +5.05518850922E-01 +5.84090944616E-03 -5.99356895629E-03 +5.59582796586E-03 -5.98446715757E-03 -9.33615621573E-02 +5.81081658161E-01
4.55000000000E+09 -2.25214716797E-02 +5.13041884524E-01 +5.30435221074E-03 -6.58568246433E-03 +5.05791084607E-03 -6.53383428747E-03 -7.77772386340E-02 +5.90382755264E-01
4.55500000000E+09 -1.18609910283E-02 +5.20723392419E-01 +4.29767496910E-03 -6.60564815241E-03 +4.07547487901E-03 -6.50783637727E-03 -6.20111109149E-02 +5.98627036626E-01
4.56000000000E+09 -3.20059606641E-03 +5.27971598286E-01 +3.97386745645E-03 -7.06051264753E-03 +3.77635538394E-03 -6.91057186560E-03 -4.68125425669E-02 +6.04590815761E-01
4.56500000000E+09 +5.20292088280E-03 +5.34176086277E-01 +3.45255760961E-03 -7.53348595711E-03 +3.25394121507E-03 -7.40794784622E-03 -3.29258264968E-02 +6.10772205445E-01
4.57000000000E+09 +1.32477697078E-02 +5.38780509409E-01 +2.32557898519E-03 -8.18292906560E-03 +2.17742537870E-03 -8.04374994021E-03 -1.82424424815E-02 +6.17023717129E-01
