# Hz S RI R 50
! CMT, C1220, 16058040, 17.2.0/1
! Date: 15/08/2018 11:43:46
! Data: Format (Calibration Info)
! Freq                      S11: Re/Im (F2)                       S21: Re/Im (F2)                       S12: Re/Im (F2)                       S22: Re/Im (F2)            
4.00000000000E+09 +6.37651478739E-01 -3.35437034325E-01 -9.96428157700E-04 -2.72757725868E-03 -9.81703362884E-04 -2.83096586249E-03 +7.71410010902E-01 -3.51240664735E-01
4.00500000000E+09 +6.28583419593E-01 -3.41518827538E-01 -1.17732963706E-03 -2.80084395664E-03 -1.14589401857E-03 -2.92945816210E-03 +7.62935594626E-01 -3.62674037989E-01
4.01000000000E+09 +6.18931024774E-01 -3.46832676470E-01 -1.52852616163E-03 -2.96164343126E-03 -1.49271824005E-03 -3.05578509347E-03 +7.53436278987E-01 -3.73768723685E-01
4.01500000000E+09 +6.08408353749E-01 -3.52315599298E-01 -1.88444675045E-03 -2.56183083102E-03 -1.85598039686E-03 -2.65072098271E-03 +7.43737956283E-01 -3.84103754221E-01
4.02000000000E+09 +5.96913324039E-01 -3.59068318762E-01 -1.95135587941E-03 -2.74001498352E-03 -1.87649720693E-03 -2.83476482546E-03 +7.34154448759E-01 -3.94620811550E-01
4.02500000000E+09 +5.84325259835E-01 -3.66262768699E-01 -2.67465490549E-03 -2.79272648772E-03 -2.64421457451E-03 -2.94593279666E-03 +7.23781567057E-01 -4.05185259894E-01
4.03000000000E+09 +5.72182071875E-01 -3.74249444661E-01 -3.22201306263E-03 -2.27601535953E-03 -3.29002150117E-03 -2.37852130607E-03 +7.12951169145E-01 -4.15689766436E-01
4.03500000000E+09 +5.59408143802E-01 -3.83555259450E-01 -3.28342098824E-03 -1.75378110575E-03 -3.30301508324E-03 -1.91288511933E-03 +7.01594549330E-01 -4.26624981161E-01
4.04000000000E+09 +5.47015349750E-01 -3.92743896406E-01 -3.56110088651E-03 -1.40157650154E-03 -3.62683833934E-03 -1.59810775794E-03 +6.89812735504E-01 -4.37331035661E-01
4.04500000000E+09 +5.34735142171E-01 -4.02484943599E-01 -3.41690847881E-03 -9.36900367593E-04 -3.53396994812E-03 -1.12753816638E-03 +6.78192164242E-01 -4.47559845358E-01
4.05000000000E+09 +5.21718254919E-01 -4.10990743940E-01 -3.56455330925E-03 -9.93490765617E-04 -3.63964023603E-03 -1.19980269445E-03 +6.66726311625E-01 -4.58030921334E-01
4.05500000000E+09 +5.08160554193E-01 -4.17467974823E-01 -4.08320907922E-03 -5.52202134495E-04 -4.25045934241E-03 -6.81808881281E-04 +6.54107793437E-01 -4.67984051069E-01
4.06000000000E+09 +4.94802759486E-01 -4.22182635692E-01 -4.13259794716E-03 +8.75548048635E-05 -4.31104253885E-03 -3.01228152965E-06 +6.41364449135E-01 -4.77378756750E-01
4.06500000000E+09 +4.81024297751E-01 -4.25786929602E-01 -3.86162496035E-03 +6.79980022342E-04 -3.98589036256E-03 +6.28593860012E-04 +6.27674634541E-01 -4.86648130280E-01
4.07000000000E+09 +4.66768130987E-01 -4.28923277803E-01 -3.67878128838E-03 +7.27807164854E-04 -3.73448750925E-03 +6.93834402086E-04 +6.13588048978E-01 -4.95939176133E-01
4.07500000000E+09 +4.51233735748E-01 -4.32553810332E-01 -3.71176268685E-03 +9.59298098725E-04 -3.81346682573E-03 +8.43910554235E-04 +5.99573891442E-01 -5.05565285012E-01
4.08000000000E+09 +4.34572668670E-01 -4.36064987408E-01 -3.85231489858E-03 +1.20993887264E-03 -3.92529728472E-03 +1.12036829642E-03 +5.84773542000E-01 -5.15190739044E-01
4.08500000000E+09 +4.17248502121E-01 -4.40056890787E-01 -3.88738411705E-03 +1.64628740640E-03 -4.04079495907E-03 +1.58890590612E-03 +5.69909741978E-01 -5.23588927542E-01
4.09000000000E+09 +3.99739540001E-01 -4.44106669375E-01 -3.62309459061E-03 +2.16993614751E-03 -3.81101134851E-03 +2.11737326076E-03 +5.55263352132E-01 -5.31360325669E-01
4.09500000000E+09 +3.82415539373E-01 -4.48369288653E-01 -3.56266337581E-03 +2.51591955270E-03 -3.75476732793E-03 +2.53185871626E-03 +5.40178631663E-01 -5.38823312397E-01
4.10000000000E+09 +3.65509536532E-01 -4.52867294460E-01 -3.24445931722E-03 +2.75828810563E-03 -3.36242024922E-03 +2.77973426506E-03 +5.24525098058E-01 -5.45977650978E-01
4.10500000000E+09 +3.48551814505E-01 -4.56495754004E-01 -3.34020264616E-03 +3.03982164616E-03 -3.48186090807E-03 +2.99107123930E-03 +5.07420852891E-01 -5.53721084318E-01
4.11000000000E+09 +3.31288000421E-01 -4.58349723063E-01 -3.15691720887E-03 +3.72414484648E-03 -3.35570723601E-03 +3.72347804493E-03 +4.89779126337E-01 -5.60489713383E-01
4.11500000000E+09 +3.15315955088E-01 -4.58540818114E-01 -2.40979273208E-03 +4.19001850468E-03 -2.58811394844E-03 +4.20991754479E-03 +4.72481772044E-01 -5.67042608275E-01
4.12000000000E+09 +2.98845475745E-01 -4.58357498893E-01 -2.15367999357E-03 +4.19203011150E-03 -2.30684967251E-03 +4.24005101008E-03 +4.55230413192E-01 -5.73773488117E-01
4.12500000000E+09 +2.81794247007E-01 -4.57267247726E-01 -1.97206554770E-03 +4.43585639954E-03 -2.17843114500E-03 +4.48048897520E-03 +4.37616038453E-01 -5.79734091680E-01
4.13000000000E+09 +2.64180922034E-01 -4.55931541755E-01 -1.62575253403E-03 +4.76924832318E-03 -1.77848739542E-03 +4.81291930285E-03 +4.19453736375E-01 -5.85159862837E-01
4.13500000000E+09 +2.45899787255E-01 -4.54686301998E-01 -1.55600531465E-03 +5.13290312578E-03 -1.78797699061E-03 +5.17049923454E-03 +4.00588187934E-01 -5.89833787049E-01
4.14000000000E+09 +2.27465567652E-01 -4.54456628917E-01 -8.33397752470E-04 +5.95847819392E-03 -1.13120931453E-03 +6.10503744662E-03 +3.81062594524E-01 -5.93961831697E-01
4.14500000000E+09 +2.08728123241E-01 -4.54761380239E-01 +3.22538422251E-04 +6.32170389465E-03 +1.12607538812E-04 +6.54576618137E-03 +3.61560266975E-01 -5.97703195801E-01
4.15000000000E+09 +1.90066365348E-01 -4.56665489811E-01 +1.29513399855E-03 +5.84590661472E-03 +1.13419918195E-03 +6.14873374987E-03 +3.42913729241E-01 -6.02041538936E-01
4.15500000000E+09 +1.70624260464E-01 -4.57989023931E-01 +1.87189891036E-03 +5.37539048573E-03 +1.83576287040E-03 +5.64183779658E-03 +3.22815849890E-01 -6.06325664188E-01
4.16000000000E+09 +1.51908856468E-01 -4.57911417310E-01 +2.10829735333E-03 +5.16897072968E-03 +2.13795094099E-03 +5.37719146038E-03 +3.01971522816E-01 -6.08213790136E-01
4.16500000000E+09 +1.33843962601E-01 -4.55634038597E-01 +2.38649711812E-03 +5.19421410461E-03 +2.38433633250E-03 +5.38525614021E-03 +2.82819920777E-01 -6.08835138690E-01
4.17000000000E+09 +1.18018489032E-01 -4.50993202156E-01 +3.05162515633E-03 +5.29986551442E-03 +2.99459707492E-03 +5.55828757342E-03 +2.62480193638E-01 -6.09433090002E-01
4.17500000000E+09 +1.02768963102E-01 -4.45461631934E-01 +3.70942773607E-03 +5.26489312642E-03 +3.74325353905E-03 +5.52416988264E-03 +2.41387811218E-01 -6.09582808771E-01
4.18000000000E+09 +8.78626453780E-02 -4.39015886011E-01 +4.70164830307E-03 +4.67652266070E-03 +4.80225222188E-03 +4.91260523573E-03 +2.19825676978E-01 -6.09398918996E-01
4.18500000000E+09 +7.14269453026E-02 -4.31589142020E-01 +4.99217583824E-03 +4.07319560078E-03 +5.16519461245E-03 +4.34479295325E-03 +1.97392532442E-01 -6.08564593705E-01
4.19000000000E+09 +5.44520989685E-02 -4.23336674937E-01 +5.60294412886E-03 +3.88324402355E-03 +5.80062745246E-03 +4.10737797354E-03 +1.76432440573E-01 -6.06538069878E-01
4.19500000000E+09 +3.64638966648E-02 -4.14353395384E-01 +6.37894846880E-03 +3.20008844563E-03 +6.55895734333E-03 +3.40010568203E-03 +1.55415256029E-01 -6.04298220705E-01
4.20000000000E+09 +1.90441366038E-02 -4.05609405175E-01 +6.63893268985E-03 +2.08851768555E-03 +6.85513054580E-03 +2.17939615832E-03 +1.33609889984E-01 -6.02353515291E-01
4.20500000000E+09 +2.17442667924E-03 -3.98177202819E-01 +6.59191307818E-03 +1.40812368887E-03 +6.78278089810E-03 +1.45476206284E-03 +1.10708127575E-01 -5.98465830911E-01
4.21000000000E+09 -1.44219368431E-02 -3.91577082720E-01 +6.73993185770E-03 +5.17992814718E-04 +6.90920079129E-03 +5.80734606931E-04 +8.79263392222E-02 -5.93397757546E-01
4.21500000000E+09 -3.13140875104E-02 -3.85019949645E-01 +6.50445499496E-03 +4.46753392767E-04 +6.64972073183E-03 +4.91470905384E-04 +6.61755647230E-02 -5.88548033357E-01
4.22000000000E+09 -4.71210500019E-02 -3.76423986702E-01 +6.96073938197E-03 +2.10801083361E-04 +7.11322616687E-03 +1.88359460438E-04 +4.36899988040E-02 -5.82911054824E-01
4.22500000000E+09 -6.10304725658E-02 -3.66224041688E-01 +7.71824098838E-03 -7.91912617109E-04 +7.85582536596E-03 -8.43198519288E-04 +2.11678177497E-02 -5.76629478934E-01
4.23000000000E+09 -7.32234830299E-02 -3.54844424027E-01 +7.61988085563E-03 -2.47875804130E-03 +7.77445145034E-03 -2.48305557982E-03 -1.00830482559E-03 -5.68716250255E-01
4.23500000000E+09 -8.53727484563E-02 -3.42443456286E-01 +6.92205178251E-03 -3.36732773085E-03 +6.90623871227E-03 -3.41683364319E-03 -2.23528994466E-02 -5.59090726847E-01
4.24000000000E+09 -9.82627272779E-02 -3.28888937770E-01 +6.27964309414E-03 -3.93072333788E-03 +6.33930153210E-03 -3.93867755589E-03 -4.30293090811E-02 -5.49422691965E-01
4.24500000000E+09 -1.12252980577E-01 -3.14186336768E-01 +5.96359994398E-03 -4.03946559649E-03 +6.03729755717E-03 -4.06109322000E-03 -6.37087771955E-02 -5.39960084257E-01
4.25000000000E+09 -1.27048639366E-01 -2.98442903375E-01 +6.00501280097E-03 -4.84002259522E-03 +6.09874477212E-03 -4.90347792730E-03 -8.57835102913E-02 -5.29004508340E-01
4.25500000000E+09 -1.41998399209E-01 -2.83539446137E-01 +5.30825243685E-03 -5.93671915727E-03 +5.41474486423E-03 -5.98945804352E-03 -1.07319257876E-01 -5.16943519878E-01
4.26000000000E+09 -1.58023961366E-01 -2.70484127644E-01 +4.22192726515E-03 -6.36708657681E-03 +4.33372967077E-03 -6.34744581577E-03 -1.28014924582E-01 -5.03345832208E-01
4.26500000000E+09 -1.75301930757E-01 -2.58113097502E-01 +3.82002009669E-03 -6.07697936039E-03 +3.90441413738E-03 -6.16678711755E-03 -1.47920919192E-01 -4.88959855468E-01
4.27000000000E+09 -1.91674574134E-01 -2.45236659855E-01 +3.66276094490E-03 -6.83775028124E-03 +3.74108281652E-03 -6.88585764981E-03 -1.67241856844E-01 -4.74319488165E-01
4.27500000000E+09 -2.06730132762E-01 -2.32058750203E-01 +2.99302963471E-03 -7.51249274727E-03 +3.06603646174E-03 -7.64104568435E-03 -1.87704239358E-01 -4.58211062367E-01
4.28000000000E+09 -2.18280839136E-01 -2.17677594189E-01 +2.17627991341E-03 -8.06516249729E-03 +2.25333783531E-03 -8.10497785177E-03 -2.06839799793E-01 -4.41944028223E-01
4.28500000000E+09 -2.26709884652E-01 -2.04057490620E-01 +1.29836023206E-03 -8.70856974768E-03 +1.39542008780E-03 -8.85590478564E-03 -2.26520868759E-01 -4.25257767837E-01
4.29000000000E+09 -2.34336953170E-01 -1.90184717615E-01 -5.14581407146E-04 -9.08473063946E-03 -4.77927788198E-04 -9.29776141288E-03 -2.44160371515E-01 -4.06645431946E-01
4.29500000000E+09 -2.42178854550E-01 -1.75272998141E-01 -1.66046672545E-03 -7.93103274235E-03 -1.67240955839E-03 -8.12866369381E-03 -2.59423426297E-01 -3.90005612068E-01
4.30000000000E+09 -2.50184475101E-01 -1.57799162264E-01 -2.18399873869E-03 -7.44706616182E-03 -2.20090205806E-03 -7.70098315360E-03 -2.76557937301E-01 -3.72462904164E-01
4.30500000000E+09 -2.58033785432E-01 -1.38798142933E-01 -2.45912057104E-03 -6.97390519174E-03 -2.46813694794E-03 -7.16635071337E-03 -2.93100733449E-01 -3.51845077119E-01
4.31000000000E+09 -2.65983908891E-01 -1.18509555630E-01 -2.44742278914E-03 -7.13270440956E-03 -2.51990727147E-03 -7.39237077774E-03 -3.08437343865E-01 -3.30941351566E-01
4.31500000000E+09 -2.73470371196E-01 -9.91580778574E-02 -3.31415933237E-03 -7.42908422692E-03 -3.48267043255E-03 -7.65171827370E-03 -3.22513482243E-01 -3.08889208240E-01
4.32000000000E+09 -2.81103495038E-01 -8.03366795302E-02 -4.09313837873E-03 -7.37651414257E-03 -4.30665980287E-03 -7.52927986914E-03 -3.35701009848E-01 -2.87392777024E-01
4.32500000000E+09 -2.87845211133E-01 -6.39169793071E-02 -5.63896327620E-03 -7.32421933534E-03 -5.88607117900E-03 -7.35186693240E-03 -3.48409552533E-01 -2.65462092569E-01
4.33000000000E+09 -2.94825437881E-01 -4.77361442720E-02 -6.45400107871E-03 -6.57212198443E-03 -6.66857229994E-03 -6.54185550240E-03 -3.60517143279E-01 -2.41825762808E-01
4.33500000000E+09 -2.99681767444E-01 -3.14663928190E-02 -7.52667605697E-03 -5.72275554077E-03 -7.73781075782E-03 -5.68261751458E-03 -3.70292606870E-01 -2.16694193912E-01
4.34000000000E+09 -3.02295694692E-01 -1.54556941818E-02 -8.30745703466E-03 -4.41259513011E-03 -8.46088304184E-03 -4.38179475893E-03 -3.78288332161E-01 -1.92780759278E-01
4.34500000000E+09 -3.02684215221E-01 +6.27607209422E-04 -7.94694354006E-03 -3.05949627773E-03 -8.09782305211E-03 -2.95157422091E-03 -3.87808207918E-01 -1.70311190942E-01
4.35000000000E+09 -3.02521060963E-01 +1.79444176774E-02 -7.79271316771E-03 -2.92874290239E-03 -7.84833893579E-03 -2.91700834882E-03 -3.98381660210E-01 -1.45255457325E-01
4.35500000000E+09 -3.00943408384E-01 +3.65834387648E-02 -8.62025975045E-03 -2.66409241285E-03 -8.65617146215E-03 -2.62306566970E-03 -4.05890078074E-01 -1.18632404412E-01
4.36000000000E+09 -2.99735909945E-01 +5.61722686338E-02 -8.81502208507E-03 -1.90214919844E-03 -8.90098163557E-03 -1.82160453494E-03 -4.10814957643E-01 -9.39119637568E-02
4.36500000000E+09 -2.98117854762E-01 +7.70350868845E-02 -9.98072254536E-03 -1.64463991622E-03 -1.01635264423E-02 -1.55248499038E-03 -4.14824659840E-01 -7.00102389174E-02
4.37000000000E+09 -2.97742082128E-01 +9.67109362951E-02 -1.10650467658E-02 +4.62405742329E-04 -1.11424074996E-02 +6.48479516064E-04 -4.17891170750E-01 -4.59116982232E-02
4.37500000000E+09 -2.98671768830E-01 +1.16242551702E-01 -1.03486887466E-02 +2.62384891391E-03 -1.04341300943E-02 +2.83286173505E-03 -4.20281419159E-01 -2.15938024401E-02
4.38000000000E+09 -2.99965514040E-01 +1.35002480059E-01 -9.75654179359E-03 +3.50342853644E-03 -9.80949472071E-03 +3.71828873480E-03 -4.22326696010E-01 +4.66176168731E-03
4.38500000000E+09 -3.00629748115E-01 +1.52338537730E-01 -9.03585679176E-03 +4.58504961723E-03 -9.03747232081E-03 +4.82467563893E-03 -4.21930858215E-01 +3.04592183978E-02
4.39000000000E+09 -2.99917448468E-01 +1.68102226464E-01 -8.27222740325E-03 +5.54979604105E-03 -8.23957542796E-03 +5.72089521812E-03 -4.21697198128E-01 +5.50482585466E-02
4.39500000000E+09 -2.97771561375E-01 +1.81862103944E-01 -8.07422512235E-03 +5.97180443605E-03 -8.02542153007E-03 +6.08653225982E-03 -4.21014403894E-01 +7.90657615345E-02
4.40000000000E+09 -2.93887428429E-01 +1.95433658864E-01 -7.23104897200E-03 +7.42353700189E-03 -7.21222377684E-03 +7.51794251240E-03 -4.19677456993E-01 +1.03502402405E-01
4.40500000000E+09 -2.88736914342E-01 +2.08568951375E-01 -6.42725789291E-03 +8.17954366772E-03 -6.31470898209E-03 +8.36593506287E-03 -4.15823389752E-01 +1.27814693461E-01
4.41000000000E+09 -2.82389924488E-01 +2.22907502509E-01 -5.18486600665E-03 +8.37070683486E-03 -5.11428585554E-03 +8.51742128266E-03 -4.10759522426E-01 +1.51813329170E-01
4.41500000000E+09 -2.74881883890E-01 +2.39333282741E-01 -4.76859157674E-03 +9.39217481820E-03 -4.62290263895E-03 +9.55520984692E-03 -4.05118404779E-01 +1.75046448344E-01
4.42000000000E+09 -2.67113990892E-01 +2.56150135980E-01 -3.68434957964E-03 +9.84856769148E-03 -3.48356970051E-03 +9.92284680729E-03 -3.98201031301E-01 +1.98310329447E-01
4.42500000000E+09 -2.60249031029E-01 +2.73599834270E-01 -2.43251254413E-03 +1.08511285229E-02 -2.16808111844E-03 +1.07820935886E-02 -3.92309964084E-01 +2.20160364969E-01
4.43000000000E+09 -2.53969110320E-01 +2.91256539794E-01 -2.36948407066E-04 +1.09513698931E-02 -7.13077762127E-05 +1.08461018293E-02 -3.84924899293E-01 +2.43136782479E-01
4.43500000000E+09 -2.48250461129E-01 +3.07859433097E-01 +9.26044499473E-04 +1.01416410851E-02 +1.02506978358E-03 +1.00112783613E-02 -3.76005377925E-01 +2.64421052687E-01
4.44000000000E+09 -2.43589870131E-01 +3.22121799412E-01 +1.95222786611E-03 +9.31097597803E-03 +2.07744411514E-03 +9.26470133379E-03 -3.67531930700E-01 +2.84264606100E-01
4.44500000000E+09 -2.39430374340E-01 +3.34566200021E-01 +2.24475515168E-03 +9.17209001174E-03 +2.34579809840E-03 +9.09493610810E-03 -3.59134687791E-01 +3.04182791934E-01
4.45000000000E+09 -2.35225977758E-01 +3.45659895726E-01 +2.84130338973E-03 +8.86897192140E-03 +3.00402885954E-03 +8.79290801452E-03 -3.49378201594E-01 +3.24299952631E-01
4.45500000000E+09 -2.28957287275E-01 +3.55520494019E-01 +3.85727418923E-03 +9.34336948764E-03 +4.06687671453E-03 +9.24596980011E-03 -3.38350008123E-01 +3.43497973850E-01
4.46000000000E+09 -2.21589044486E-01 +3.64831511614E-01 +5.40841811454E-03 +8.61959046975E-03 +5.54929601135E-03 +8.45462757083E-03 -3.25534507139E-01 +3.61863873654E-01
4.46500000000E+09 -2.11207152164E-01 +3.74682070289E-01 +6.09636895310E-03 +7.56007477851E-03 +6.28665254207E-03 +7.39380581708E-03 -3.13897488903E-01 +3.77638363176E-01
4.47000000000E+09 -1.99447819278E-01 +3.84801957968E-01 +6.77613616575E-03 +6.95637843454E-03 +6.89327963088E-03 +6.78374580419E-03 -3.02433691878E-01 +3.94573033910E-01
4.47500000000E+09 -1.86032617223E-01 +3.95771398549E-01 +7.23009146118E-03 +6.31919593921E-03 +7.29341026092E-03 +6.07400968703E-03 -2.90843004822E-01 +4.12102060948E-01
4.48000000000E+09 -1.73800995806E-01 +4.06852110238E-01 +8.21375298637E-03 +5.48277638152E-03 +8.27545410398E-03 +5.24492765352E-03 -2.78042758223E-01 +4.28600531578E-01
4.48500000000E+09 -1.62916195552E-01 +4.19449747489E-01 +8.97638836379E-03 +4.67151660544E-03 +8.88972591767E-03 +4.37936710744E-03 -2.64249455804E-01 +4.43739635126E-01
4.49000000000E+09 -1.53081993047E-01 +4.32684780446E-01 +9.28891681962E-03 +2.80166836296E-03 +9.11066374610E-03 +2.62930064470E-03 -2.51494458493E-01 +4.58152386423E-01
4.49500000000E+09 -1.44774278719E-01 +4.44895182508E-01 +8.66080429213E-03 +2.03130849787E-03 +8.46706275905E-03 +1.95268401709E-03 -2.38460602914E-01 +4.72700063696E-01
4.50000000000E+09 -1.37717143212E-01 +4.55837303831E-01 +8.79433720923E-03 +1.79820352062E-03 +8.74380851470E-03 +1.76771338255E-03 -2.23747077620E-01 +4.86426497085E-01
4.50500000000E+09 -1.31232313496E-01 +4.65255283633E-01 +9.19206051025E-03 +1.01052075736E-03 +9.13437452250E-03 +9.08384127270E-04 -2.09828629154E-01 +4.99479978712E-01
4.51000000000E+09 -1.23959857268E-01 +4.71802992063E-01 +9.69310240896E-03 +4.30525295714E-06 +9.65872720499E-03 -1.36879982297E-04 -1.94475130077E-01 +5.11472923589E-01
4.51500000000E+09 -1.16579157740E-01 +4.76541586440E-01 +9.69531490644E-03 -1.24345165495E-03 +9.51087069940E-03 -1.39553019736E-03 -1.80786190179E-01 +5.22175612312E-01
4.52000000000E+09 -1.07555903500E-01 +4.80825485342E-01 +9.68041707170E-03 -2.85156035776E-03 +9.43716498613E-03 -2.90897292116E-03 -1.67364155720E-01 +5.33345421814E-01
4.52500000000E+09 -9.65204580938E-02 +4.84618865226E-01 +8.64784410689E-03 -3.80609354563E-03 +8.42092956192E-03 -3.82498464088E-03 -1.53344262931E-01 +5.44151910872E-01
4.53000000000E+09 -8.36683447934E-02 +4.89074258593E-01 +8.15953302339E-03 -4.45807689139E-03 +7.99152300918E-03 -4.50364877672E-03 -1.38339117883E-01 +5.53566741629E-01
4.53500000000E+09 -6.95674349202E-02 +4.94802808119E-01 +7.46427224739E-03 -5.48981601528E-03 +7.25385291141E-03 -5.58903298000E-03 -1.23950255960E-01 +5.62714417815E-01
4.54000000000E+09 -5.44371234832E-02 +5.01205295139E-01 +6.68841726506E-03 -5.84602197179E-03 +6.41303125621E-03 -5.94967866006E-03 -1.08021781324E-01 +5.71363185123E-01
4.54500000000E+09 -4.05900487262E-02 +5.08284850919E-01 +5.92934817731E-03 -6.31821770089E-03 +5.62149767823E-03 -6.22488881877E-03 -9.38235882550E-02 +5.80249346009E-01
4.55000000000E+09 -2.76935007095E-02 +5.16108932837E-01 +5.54790253644E-03 -6.88751515580E-03 +5.31880733250E-03 -6.80514547005E-03 -7.80569183025E-02 +5.89196202232E-01
4.55500000000E+09 -1.65730932147E-02 +5.23455081745E-01 +4.61599393559E-03 -7.20342093639E-03 +4.43520625035E-03 -7.11219990879E-03 -6.27760431692E-02 +5.97443228228E-01
4.56000000000E+09 -8.11491111446E-03 +5.30550587668E-01 +3.98584459116E-03 -7.78265077354E-03 +3.78577561901E-03 -7.66802956427E-03 -4.77836612145E-02 +6.03549392980E-01
4.56500000000E+09 +2.20228300010E-04 +5.37075802461E-01 +3.16111179630E-03 -8.17319872930E-03 +2.94686653702E-03 -8.03842067543E-03 -3.39134193315E-02 +6.10311474471E-01
4.57000000000E+09 +8.61568805275E-03 +5.42007115263E-01 +2.14795059424E-03 -8.45270276775E-03 +1.96715139158E-03 -8.28525205352E-03 -1.88842628177E-02 +6.16513244849E-01
