# Hz S RI R 50
! CMT, C1220, 16058040, 17.2.0/1
! Date: 15/08/2018 11:45:22
! Data: Format (Calibration Info)
! Freq                      S11: Re/Im (F2)                       S21: Re/Im (F2)                       S12: Re/Im (F2)                       S22: Re/Im (F2)            
4.00000000000E+09 +6.40808937816E-01 -3.36895642448E-01 -1.69417257332E-03 -3.14590895652E-03 -1.55767121076E-03 -3.26010781766E-03 +7.71357670337E-01 -3.51855279251E-01
4.00500000000E+09 +6.31909361966E-01 -3.43284197543E-01 -1.77756694094E-03 -3.04047161718E-03 -1.67941893730E-03 -3.18703597953E-03 +7.62633448292E-01 -3.63185237667E-01
4.01000000000E+09 +6.22045285725E-01 -3.48910253456E-01 -2.18781442023E-03 -3.13981161063E-03 -2.05329609666E-03 -3.31318251928E-03 +7.52885013983E-01 -3.74319288904E-01
4.01500000000E+09 +6.11388919386E-01 -3.54386267235E-01 -2.58254039404E-03 -2.75592760748E-03 -2.52743809228E-03 -3.00898877104E-03 +7.43181714694E-01 -3.84341158340E-01
4.02000000000E+09 +6.00045530709E-01 -3.61134953431E-01 -2.76019149601E-03 -2.85454845662E-03 -2.61619678288E-03 -3.08055255814E-03 +7.33807517879E-01 -3.94798015567E-01
4.02500000000E+09 +5.87651848810E-01 -3.68467387361E-01 -3.48922927681E-03 -2.69951538360E-03 -3.49675148023E-03 -2.97993637287E-03 +7.23404817690E-01 -4.05577609771E-01
4.03000000000E+09 +5.75347774024E-01 -3.76621608244E-01 -3.94630534697E-03 -2.04053733504E-03 -3.98491817822E-03 -2.30415700252E-03 +7.12437651299E-01 -4.16099291164E-01
4.03500000000E+09 +5.62766655431E-01 -3.86066018939E-01 -3.92825233579E-03 -1.52593229427E-03 -4.04831577564E-03 -1.74805434581E-03 +7.00936606290E-01 -4.26979478030E-01
4.04000000000E+09 +5.50075911240E-01 -3.95358963876E-01 -4.14871186670E-03 -1.06774882242E-03 -4.31082973396E-03 -1.31145171947E-03 +6.89168177648E-01 -4.37599104339E-01
4.04500000000E+09 +5.37947056014E-01 -4.04925503820E-01 -4.06365670681E-03 -6.78511693175E-04 -4.24181497118E-03 -8.66062535796E-04 +6.77473859761E-01 -4.47636105095E-01
4.05000000000E+09 +5.25021931375E-01 -4.13571861628E-01 -4.13320983211E-03 -5.46502511873E-04 -4.31465555204E-03 -6.84445974326E-04 +6.66056034126E-01 -4.57985757233E-01
4.05500000000E+09 +5.11446852650E-01 -4.20441703981E-01 -4.45453169559E-03 -1.49936898132E-04 -4.73061068485E-03 -2.16799729499E-04 +6.53457489809E-01 -4.67948556451E-01
4.06000000000E+09 +4.97831435179E-01 -4.25192290253E-01 -4.56248010724E-03 +4.25473212252E-04 -4.77671875371E-03 +3.78299086183E-04 +6.40771610968E-01 -4.77249365851E-01
4.06500000000E+09 +4.84053223155E-01 -4.28825748471E-01 -4.35739453713E-03 +1.08488792634E-03 -4.53094551737E-03 +1.10480701997E-03 +6.26841375547E-01 -4.86443702059E-01
4.07000000000E+09 +4.69758770474E-01 -4.31946812526E-01 -4.30925093405E-03 +1.32245427874E-03 -4.39138092675E-03 +1.30424131930E-03 +6.12854472211E-01 -4.95605106420E-01
4.07500000000E+09 +4.54703338136E-01 -4.35618027763E-01 -4.11328511439E-03 +1.79971176290E-03 -4.21125982239E-03 +1.74084844721E-03 +5.98853386946E-01 -5.05290548331E-01
4.08000000000E+09 +4.38170162370E-01 -4.39576395932E-01 -3.95841472701E-03 +2.02999329415E-03 -4.06380577843E-03 +1.96237386247E-03 +5.84028689929E-01 -5.14749234485E-01
4.08500000000E+09 +4.20592191476E-01 -4.44400909673E-01 -3.88371573133E-03 +2.26672409697E-03 -4.06094761473E-03 +2.16863992860E-03 +5.69354633076E-01 -5.22850119353E-01
4.09000000000E+09 +4.02456535892E-01 -4.48326842735E-01 -3.79481351168E-03 +2.76682461928E-03 -3.96837380855E-03 +2.76131812192E-03 +5.54731195691E-01 -5.30647891771E-01
4.09500000000E+09 +3.85053572611E-01 -4.52171690729E-01 -3.77268256439E-03 +3.14100869754E-03 -3.94001598465E-03 +3.16304764237E-03 +5.39610343539E-01 -5.38065783556E-01
4.10000000000E+09 +3.68230399149E-01 -4.56507596150E-01 -3.54733496808E-03 +3.56543049426E-03 -3.68012284298E-03 +3.57084886799E-03 +5.24102683170E-01 -5.45159492653E-01
4.10500000000E+09 +3.51744651137E-01 -4.60112063094E-01 -3.31406671756E-03 +4.13079010442E-03 -3.46802444365E-03 +4.06764694799E-03 +5.06924647861E-01 -5.52936935287E-01
4.11000000000E+09 +3.34897267809E-01 -4.62458900605E-01 -2.90200568756E-03 +4.75624463529E-03 -3.12097893493E-03 +4.74308620058E-03 +4.89267139531E-01 -5.59624558931E-01
4.11500000000E+09 +3.18508237306E-01 -4.63197726314E-01 -1.95096702579E-03 +5.06606755037E-03 -2.12406981511E-03 +5.13497152185E-03 +4.72347504487E-01 -5.66009999929E-01
4.12000000000E+09 +3.01708251342E-01 -4.63152486047E-01 -1.61145767722E-03 +4.93353213237E-03 -1.81773679062E-03 +4.99768449516E-03 +4.55241607128E-01 -5.72822967109E-01
4.12500000000E+09 +2.84328429462E-01 -4.61914846747E-01 -1.47543874712E-03 +4.99237282850E-03 -1.67350745134E-03 +5.10261771069E-03 +4.37794916658E-01 -5.78576337089E-01
4.13000000000E+09 +2.66825856590E-01 -4.60209083560E-01 -1.05165628507E-03 +5.36384112532E-03 -1.23466410154E-03 +5.47763938257E-03 +4.19555128622E-01 -5.84202178075E-01
4.13500000000E+09 +2.48686848452E-01 -4.59206544651E-01 -7.86101984667E-04 +5.57435554533E-03 -9.93807265827E-04 +5.74102073624E-03 +4.01050092812E-01 -5.88777921281E-01
4.14000000000E+09 +2.30269621478E-01 -4.58977863205E-01 -3.30270407726E-04 +6.28681575273E-03 -5.43348436852E-04 +6.53116457254E-03 +3.81458781738E-01 -5.93161780585E-01
4.14500000000E+09 +2.11625703445E-01 -4.59623231627E-01 +9.31890574618E-04 +6.80512697294E-03 +8.14809797318E-04 +7.13687892471E-03 +3.62043418534E-01 -5.96855625502E-01
4.15000000000E+09 +1.92737172606E-01 -4.61904175295E-01 +2.02961792759E-03 +6.27814107561E-03 +2.09919927494E-03 +6.59298408771E-03 +3.43400749410E-01 -6.01337832508E-01
4.15500000000E+09 +1.72910165446E-01 -4.63170441203E-01 +2.66838645918E-03 +5.60819061666E-03 +2.74001721942E-03 +5.82517088665E-03 +3.23393831185E-01 -6.05673496959E-01
4.16000000000E+09 +1.54105438952E-01 -4.62794431263E-01 +3.02450179391E-03 +5.31934713373E-03 +3.06347320085E-03 +5.48171913931E-03 +3.02645468464E-01 -6.07335864618E-01
4.16500000000E+09 +1.36076348380E-01 -4.60659527742E-01 +3.04642407489E-03 +4.90196944481E-03 +3.09928746871E-03 +5.01014324358E-03 +2.83889981222E-01 -6.08264533878E-01
4.17000000000E+09 +1.20170468854E-01 -4.56110227137E-01 +3.30568627508E-03 +5.31444494854E-03 +3.34603852715E-03 +5.53521911026E-03 +2.63245323065E-01 -6.09175847353E-01
4.17500000000E+09 +1.04987753569E-01 -4.50681966567E-01 +4.38393995696E-03 +5.60982602280E-03 +4.34367089338E-03 +5.82172311591E-03 +2.41916637251E-01 -6.09425495827E-01
4.18000000000E+09 +8.96694733032E-02 -4.44328524752E-01 +5.53283010824E-03 +4.82793743611E-03 +5.66690954827E-03 +5.02607115851E-03 +2.20196226079E-01 -6.09089108219E-01
4.18500000000E+09 +7.31497315690E-02 -4.37115922671E-01 +6.03394475180E-03 +4.18822231353E-03 +6.13700453125E-03 +4.37493317150E-03 +1.97890300602E-01 -6.07869704196E-01
4.19000000000E+09 +5.60768046242E-02 -4.28883239089E-01 +6.69276721783E-03 +3.60856341505E-03 +6.80706193183E-03 +3.78328021982E-03 +1.77377613119E-01 -6.05778000994E-01
4.19500000000E+09 +3.78254583104E-02 -4.20397164773E-01 +7.16561586596E-03 +2.71370012498E-03 +7.19587560342E-03 +2.84387070063E-03 +1.56531917735E-01 -6.03680255553E-01
4.20000000000E+09 +1.98107611718E-02 -4.11490067026E-01 +7.31508551467E-03 +1.80361396718E-03 +7.46235263995E-03 +2.04425595663E-03 +1.34970219539E-01 -6.01733248722E-01
4.20500000000E+09 +2.63382728998E-03 -4.03973275634E-01 +7.57653234067E-03 +9.99797550363E-04 +7.71926808766E-03 +1.19704911543E-03 +1.12411436206E-01 -5.98561102784E-01
4.21000000000E+09 -1.42759462394E-02 -3.96701802594E-01 +7.63549302766E-03 -1.16938691962E-04 +7.82280070770E-03 +1.36429245336E-05 +8.91090148953E-02 -5.93706951106E-01
4.21500000000E+09 -3.03692819469E-02 -3.89921244440E-01 +7.09136407160E-03 -4.25586418846E-04 +7.26872870503E-03 -3.03377162745E-04 +6.72677121903E-02 -5.89079096385E-01
4.22000000000E+09 -4.59530585918E-02 -3.82096277112E-01 +7.45789016120E-03 -3.49225351858E-04 +7.65104101823E-03 -2.20623785024E-04 +4.47342276569E-02 -5.83513442472E-01
4.22500000000E+09 -6.02784292659E-02 -3.72271024766E-01 +8.55153234173E-03 -1.60372029428E-03 +8.80717357701E-03 -1.49595515352E-03 +2.20207053220E-02 -5.77151961506E-01
4.23000000000E+09 -7.31662915881E-02 -3.61027764210E-01 +8.28296371780E-03 -3.58699566482E-03 +8.54983755789E-03 -3.55875311697E-03 -6.16375223684E-05 -5.69285600611E-01
4.23500000000E+09 -8.55968924646E-02 -3.48162835526E-01 +7.11232462605E-03 -4.63801316842E-03 +7.35984377041E-03 -4.68551928679E-03 -2.15016438023E-02 -5.59936580526E-01
4.24000000000E+09 -9.87613494042E-02 -3.34179249474E-01 +6.42100255254E-03 -5.05022077303E-03 +6.63376110755E-03 -5.16361793045E-03 -4.22868804502E-02 -5.50279254956E-01
4.24500000000E+09 -1.12208994979E-01 -3.19125507596E-01 +5.69890475885E-03 -5.14536140712E-03 +5.83977814281E-03 -5.25063799993E-03 -6.33447676074E-02 -5.41176099142E-01
4.25000000000E+09 -1.26614951680E-01 -3.03703717459E-01 +5.75691281065E-03 -5.68714452910E-03 +5.99479465493E-03 -5.77507606055E-03 -8.56541733139E-02 -5.30093801872E-01
4.25500000000E+09 -1.41804576504E-01 -2.89655880163E-01 +5.12571320843E-03 -6.73440521018E-03 +5.31502963378E-03 -6.91167855338E-03 -1.07600105549E-01 -5.18057186197E-01
4.26000000000E+09 -1.58642639663E-01 -2.76170817171E-01 +4.29681737144E-03 -7.24126108266E-03 +4.48402543901E-03 -7.46172047507E-03 -1.28521171709E-01 -5.03879673726E-01
4.26500000000E+09 -1.75864232386E-01 -2.63461190850E-01 +3.54525368871E-03 -7.30480049635E-03 +3.67031894314E-03 -7.55957177818E-03 -1.48034227267E-01 -4.89121392400E-01
4.27000000000E+09 -1.92114306921E-01 -2.50444720082E-01 +3.12195024382E-03 -7.81212514408E-03 +3.16505906875E-03 -8.08685255070E-03 -1.67160075927E-01 -4.74440383551E-01
4.27500000000E+09 -2.07161218626E-01 -2.37458664952E-01 +2.32143749485E-03 -8.27423036355E-03 +2.35627258787E-03 -8.50132776607E-03 -1.87420556795E-01 -4.58623120617E-01
4.28000000000E+09 -2.19277996287E-01 -2.23032524204E-01 +1.67369076939E-03 -8.77011834630E-03 +1.62317688339E-03 -8.92141067539E-03 -2.06717790568E-01 -4.42397282741E-01
4.28500000000E+09 -2.27958299154E-01 -2.08609144066E-01 +6.14904499892E-04 -9.48325286925E-03 +5.75359818746E-04 -9.71329150654E-03 -2.26447609275E-01 -4.25741971719E-01
4.29000000000E+09 -2.35048231131E-01 -1.94589742090E-01 -1.21915413270E-03 -9.61574391159E-03 -1.36945954320E-03 -9.80918189255E-03 -2.43956565849E-01 -4.07213000011E-01
4.29500000000E+09 -2.42618511355E-01 -1.79831757091E-01 -2.37260784550E-03 -8.43034818586E-03 -2.49788289297E-03 -8.55794116762E-03 -2.59602821948E-01 -3.90885606989E-01
4.30000000000E+09 -2.51129809909E-01 -1.62657042884E-01 -2.83328205249E-03 -8.00390463138E-03 -2.98664908819E-03 -8.09744922695E-03 -2.77027039311E-01 -3.73193712614E-01
4.30500000000E+09 -2.59381274035E-01 -1.43631430735E-01 -3.17609109979E-03 -7.57402151765E-03 -3.29232193332E-03 -7.66685054065E-03 -2.93732571336E-01 -3.52511959836E-01
4.31000000000E+09 -2.67774821203E-01 -1.23018694661E-01 -3.29530422861E-03 -7.71097845631E-03 -3.43381316254E-03 -7.82432998490E-03 -3.09378675235E-01 -3.31434286395E-01
4.31500000000E+09 -2.75281279416E-01 -1.02950828427E-01 -4.21961045865E-03 -8.05194076526E-03 -4.41249738931E-03 -8.13552010131E-03 -3.23504580284E-01 -3.08984983880E-01
4.32000000000E+09 -2.82321049416E-01 -8.37670652221E-02 -5.42883582305E-03 -7.95148973800E-03 -5.64155511486E-03 -8.01440065076E-03 -3.36524565029E-01 -2.87430904154E-01
4.32500000000E+09 -2.88298220523E-01 -6.79121263223E-02 -6.79318837597E-03 -3.71143082034E-03 -7.34838884455E-03 -7.15007330418E-03 -3.49339406228E-01 -2.65360889409E-01
4.33000000000E+09 -2.95865082936E-01 -5.27615848411E-02 -7.38538070592E-03 -6.22625976414E-03 -7.58514855049E-03 -6.20557543685E-03 -3.61590637971E-01 -2.41703331579E-01
4.33500000000E+09 -3.01846862405E-01 -3.64378980478E-02 -8.47274069857E-03 -5.64073788687E-03 -8.56440202664E-03 -5.56806434807E-03 -3.71611103738E-01 -2.16185814390E-01
4.34000000000E+09 -3.04735315996E-01 -1.95395591052E-02 -9.38094747722E-03 -4.32798205843E-03 -9.43160368292E-03 -4.24478332023E-03 -3.79420528997E-01 -1.91577720129E-01
4.34500000000E+09 -3.04992051841E-01 -2.71209316082E-03 -9.21128594224E-03 -2.92131474732E-03 -9.23518598902E-03 -2.86378359284E-03 -3.88468296240E-01 -1.68999536186E-01
4.35000000000E+09 -3.04010400816E-01 +1.44656479497E-02 -9.37382775897E-03 -2.45956137546E-03 -9.45050174924E-03 -2.40750628709E-03 -3.98787517946E-01 -1.43846811417E-01
4.35500000000E+09 -3.02132665870E-01 +3.25780505983E-02 -9.84553438102E-03 -1.59960451427E-03 -9.94128971770E-03 -1.52048987756E-03 -4.05855597199E-01 -1.17128148713E-01
4.36000000000E+09 -3.01387011683E-01 +5.15135933555E-02 -9.54421463982E-03 -7.66550674556E-04 -9.65406568668E-03 -6.71675439970E-04 -4.10679612165E-01 -9.24160552785E-02
4.36500000000E+09 -3.00550064297E-01 +7.20465933980E-02 -1.05882732193E-02 -6.58448630060E-04 -1.07073726914E-02 -4.80041874155E-04 -4.14262170777E-01 -6.84359612733E-02
4.37000000000E+09 -3.00983074220E-01 +9.24052557588E-02 -1.15015807574E-02 +1.30745591164E-03 -1.15817506015E-02 +1.52230213207E-03 -4.17104322919E-01 -4.47225730791E-02
4.37500000000E+09 -3.01306849811E-01 +1.12481602360E-01 -1.12508509064E-02 +3.59094015920E-03 -1.13097625726E-02 +3.77801488143E-03 -4.19582551714E-01 -2.07512581457E-02
4.38000000000E+09 -3.02767846396E-01 +1.30927497115E-01 -1.03374042072E-02 +4.66004425741E-03 -1.03487529907E-02 +4.85784078620E-03 -4.21895007820E-01 +5.65080702062E-03
4.38500000000E+09 -3.03482850931E-01 +1.48018778670E-01 -9.50048547382E-03 +5.86492574241E-03 -9.49602407312E-03 +6.12029885580E-03 -4.21073125488E-01 +3.16112306003E-02
4.39000000000E+09 -3.03158807634E-01 +1.63732232755E-01 -8.38778095736E-03 +6.77936809792E-03 -8.28558061113E-03 +7.07553863486E-03 -4.20466914675E-01 +5.59135885503E-02
4.39500000000E+09 -3.01346541575E-01 +1.77821267938E-01 -8.06057554905E-03 +7.20751681488E-03 -7.96500669190E-03 +7.38432812543E-03 -4.20005943470E-01 +7.97958085794E-02
4.40000000000E+09 -2.97624882468E-01 +1.91626746470E-01 -7.18176615372E-03 +8.56928341666E-03 -7.05690008490E-03 +8.71138605558E-03 -4.18628304292E-01 +1.04310605044E-01
4.40500000000E+09 -2.92503263511E-01 +2.04850445338E-01 -6.10160527300E-03 +9.40643364087E-03 -6.00366498376E-03 +9.47669585658E-03 -4.14753943375E-01 +1.28592029601E-01
4.41000000000E+09 -2.86600174176E-01 +2.19385882522E-01 -4.78010897694E-03 +9.40511761330E-03 -4.73660428613E-03 +9.45872499795E-03 -4.09413762598E-01 +1.52558058839E-01
4.41500000000E+09 -2.79382495568E-01 +2.35783701674E-01 -4.44089188272E-03 +1.04657727515E-02 -4.27893863666E-03 +1.05472863130E-02 -4.03599170922E-01 +1.75462331471E-01
4.42000000000E+09 -2.72290339649E-01 +2.53156172737E-01 -3.18848853182E-03 +1.09771364615E-02 -3.05924371823E-03 +1.10383516054E-02 -3.96617677740E-01 +1.98407180454E-01
4.42500000000E+09 -2.65277112046E-01 +2.71397599519E-01 -1.93715186929E-03 +1.19948952907E-02 -1.74032216304E-03 +1.20288605947E-02 -3.91396545123E-01 +2.20214136075E-01
4.43000000000E+09 -2.58795917687E-01 +2.89213045712E-01 +6.87012447304E-04 +1.21759224090E-02 +8.32133205610E-04 +1.21041969648E-02 -3.83936417435E-01 +2.43815050340E-01
4.43500000000E+09 -2.52947697489E-01 +3.05828749787E-01 +2.10905535032E-03 +1.10170083746E-02 +2.18697899850E-03 +1.09175587887E-02 -3.74268129123E-01 +2.65271871476E-01
4.44000000000E+09 -2.48445508317E-01 +3.19945810112E-01 +3.24125345804E-03 +9.87231973982E-03 +3.28755467247E-03 +9.83881522380E-03 -3.65336060929E-01 +2.84380577572E-01
4.44500000000E+09 -2.44704981102E-01 +3.32813568517E-01 +3.34230322074E-03 +9.41614209223E-03 +3.43770171085E-03 +9.46076171634E-03 -3.56869145132E-01 +3.03792799175E-01
4.45000000000E+09 -2.40682647619E-01 +3.44163971864E-01 +3.84724107299E-03 +9.03794430575E-03 +4.00143549672E-03 +9.07659868961E-03 -3.47542403864E-01 +3.23285284977E-01
4.45500000000E+09 -2.34526081818E-01 +3.54599336764E-01 +4.58583423678E-03 +9.57309790674E-03 +4.84789138343E-03 +9.53750043562E-03 -3.37089392979E-01 +3.42565456601E-01
4.46000000000E+09 -2.26897009923E-01 +3.64043436080E-01 +6.40085398084E-03 +9.05704704111E-03 +6.60508607971E-03 +8.93357532591E-03 -3.24206756536E-01 +3.61150380434E-01
4.46500000000E+09 -2.16666606186E-01 +3.74160566973E-01 +7.31882316778E-03 +7.82639851772E-03 +7.55754043991E-03 +7.67126113327E-03 -3.12418323547E-01 +3.76903332122E-01
4.47000000000E+09 -2.05001280200E-01 +3.84527505463E-01 +8.10925352102E-03 +6.99214111566E-03 +8.29598987177E-03 +6.69867164602E-03 -3.00960743004E-01 +3.93683529030E-01
4.47500000000E+09 -1.91759288036E-01 +3.95729186517E-01 +8.44847836140E-03 +5.96284551073E-03 +8.59483363190E-03 +5.71466539333E-03 -2.89475077505E-01 +4.10933526307E-01
4.48000000000E+09 -1.79419073700E-01 +4.07088582282E-01 +9.09373404996E-03 +5.02704473144E-03 +9.12064925729E-03 +4.70596679683E-03 -2.76835314130E-01 +4.27422125399E-01
4.48500000000E+09 -1.68576273213E-01 +4.19803926856E-01 +9.69417820800E-03 +4.36998149124E-03 +9.67127920229E-03 +4.06975867951E-03 -2.63066636855E-01 +4.42347145060E-01
4.49000000000E+09 -1.58902746418E-01 +4.33038457863E-01 +1.02004983515E-02 +2.46830182880E-03 +1.00491949317E-02 +2.16392099853E-03 -2.50534311402E-01 +4.56371667761E-01
4.49500000000E+09 -1.50915427939E-01 +4.46009439010E-01 +9.50516921825E-03 +1.56813878309E-03 +9.35101359961E-03 +1.34744343206E-03 -2.38072550945E-01 +4.70958681070E-01
4.50000000000E+09 -1.43627191201E-01 +4.57295676374E-01 +9.53185382486E-03 +1.27334324299E-03 +9.40841624259E-03 +1.14204709082E-03 -2.23668616094E-01 +4.84967256967E-01
4.50500000000E+09 -1.37157273144E-01 +4.66899114066E-01 +9.86823011708E-03 +6.25045715145E-04 +9.75865429151E-03 +4.37952550890E-04 -2.09849970419E-01 +4.98488368748E-01
4.51000000000E+09 -1.29666614624E-01 +4.73738095792E-01 +1.06179480048E-02 -4.65223296541E-04 +1.05170920997E-02 -6.31711510679E-04 -1.93925922399E-01 +5.10506476427E-01
4.51500000000E+09 -1.22300175681E-01 +4.78805677883E-01 +1.05186144774E-02 -1.95724430839E-03 +1.02891863632E-02 -2.19929243120E-03 -1.80432404003E-01 +5.20656935563E-01
4.52000000000E+09 -1.13051919788E-01 +4.83382600843E-01 +1.04388997564E-02 -3.68644844148E-03 +1.00871240234E-02 -3.87950890623E-03 -1.67501184026E-01 +5.31958668393E-01
4.52500000000E+09 -1.02142953661E-01 +4.87332109886E-01 +9.04888129642E-03 -4.81315132082E-03 +8.70712231753E-03 -4.82613247201E-03 -1.53685946858E-01 +5.42788828065E-01
4.53000000000E+09 -8.93739988499E-02 +4.92149389354E-01 +8.53713333564E-03 -5.26010532552E-03 +8.18652219475E-03 -5.31499259660E-03 -1.38725627983E-01 +5.52752688322E-01
4.53500000000E+09 -7.52110313318E-02 +4.98262247152E-01 +7.90274973449E-03 -6.18520665539E-03 +7.58880503225E-03 -6.18556920252E-03 -1.23996949782E-01 +5.62020864489E-01
4.54000000000E+09 -6.00433489444E-02 +5.05169190945E-01 +7.27301533420E-03 -6.84513085920E-03 +6.88331540768E-03 -6.78444466025E-03 -1.08136686648E-01 +5.70550403160E-01
4.54500000000E+09 -4.57550404237E-02 +5.12616910365E-01 +6.29596230208E-03 -7.53832336347E-03 +5.95809372338E-03 -7.41608194109E-03 -9.41042544851E-02 +5.79549338131E-01
4.55000000000E+09 -3.26543962906E-02 +5.20183281779E-01 +5.68049689573E-03 -8.24083908543E-03 +5.39049301426E-03 -8.05208081318E-03 -7.81612348616E-02 +5.88588059664E-01
4.55500000000E+09 -2.20452206139E-02 +5.27658501596E-01 +4.34125785342E-03 -8.39309958983E-03 +4.16485690655E-03 -8.21233244245E-03 -6.27458176988E-02 +5.96656202183E-01
4.56000000000E+09 -1.34556498832E-02 +5.35607260061E-01 +3.64990807157E-03 -8.68656940905E-03 +3.50264874087E-03 -8.49206031659E-03 -4.79347337163E-02 +6.02821195264E-01
4.56500000000E+09 -4.78934473134E-03 +5.42431275844E-01 +3.07497033529E-03 -9.11384617241E-03 +2.94297522587E-03 -8.92451408100E-03 -3.41982652394E-02 +6.09457900470E-01
4.57000000000E+09 +3.87942182726E-03 +5.47504475446E-01 +1.89338497448E-03 -9.69372190408E-03 +1.74312756665E-03 -9.51613384801E-03 -1.93115899012E-02 +6.15773008525E-01
