# Hz S RI R 50
! CMT, C1220, 16058040, 17.2.0/1
! Date: 14/08/2018 12:06:59
! Data: Format (Calibration Info)
! Freq                      S11: Re/Im (F2)                       S21: Re/Im (F2)                       S12: Re/Im (F2)                       S22: Re/Im (F2)            
1.00000000000E+09 -6.54404345206E-01 +7.09672877150E-01 +2.88626997207E-05 -1.36358055192E-05 -2.42202753294E-06 -5.04638440196E-05 -7.53355750238E-01 +6.25563620231E-01
1.00500000000E+09 -6.47600358771E-01 +7.14317041690E-01 +2.41145648609E-06 -5.99697225002E-05 -2.39245749312E-05 -8.81567205133E-06 -7.49935218948E-01 +6.29673657942E-01
1.01000000000E+09 -6.41863238109E-01 +7.18606655644E-01 -4.15809714700E-05 -5.25994235731E-06 +4.27237975994E-05 +6.06407949460E-07 -7.46230875635E-01 +6.33298779804E-01
1.01500000000E+09 -6.37763207952E-01 +7.22315617545E-01 +8.94067269640E-06 -1.47757188567E-05 -2.00968089645E-05 +3.15591894747E-05 -7.42841194153E-01 +6.37284568630E-01
1.02000000000E+09 -6.34820975740E-01 +7.25747080343E-01 -1.31270432980E-05 +3.80109636920E-05 -1.04117906911E-05 -4.31297596811E-05 -7.39579797967E-01 +6.40746793899E-01
1.02500000000E+09 -6.32898660083E-01 +7.28723052574E-01 -1.19279762000E-05 -2.47371777044E-05 +2.36667519293E-05 -3.50181420899E-05 -7.36571620889E-01 +6.44636156232E-01
1.03000000000E+09 -6.31529476305E-01 +7.31381968873E-01 -2.09200331164E-05 +6.53213315264E-05 -5.19835436794E-05 +2.89219723651E-05 -7.32952226614E-01 +6.48282065425E-01
1.03500000000E+09 -6.29153191865E-01 +7.34191592256E-01 -8.64384526144E-06 +2.79137760674E-05 -3.73550462287E-05 -2.55067274313E-05 -7.29224497660E-01 +6.52325936562E-01
1.04000000000E+09 -6.25769998238E-01 +7.37433950162E-01 -3.68680991665E-05 +1.19514268870E-05 -2.86800533873E-05 +3.93465884585E-05 -7.25387398417E-01 +6.55939787240E-01
1.04500000000E+09 -6.20988535758E-01 +7.40869322144E-01 -4.26243049541E-05 +2.46320312965E-05 -4.47985173824E-06 -3.46489602918E-06 -7.21960640048E-01 +6.59410874007E-01
1.05000000000E+09 -6.14403750519E-01 +7.44835024372E-01 -7.39897511165E-05 +6.46024237731E-05 -1.59248461520E-05 +4.17812360428E-05 -7.18532335040E-01 +6.62907910771E-01
1.05500000000E+09 -6.06642552233E-01 +7.49051611651E-01 -2.45990992548E-05 +1.73578062221E-05 -6.01683790829E-05 +5.64769789955E-05 -7.15287762292E-01 +6.66508690083E-01
1.06000000000E+09 -5.98395030163E-01 +7.53552880865E-01 -2.75735106758E-05 +4.00404340588E-05 -7.35805522219E-05 +3.75074825649E-05 -7.12009887471E-01 +6.70200349276E-01
1.06500000000E+09 -5.90396724134E-01 +7.58022067072E-01 -5.46288619704E-05 -2.87130480798E-06 -1.76607174994E-05 -2.34053777537E-06 -7.08176776446E-01 +6.74114664832E-01
1.07000000000E+09 -5.83651341096E-01 +7.61825873797E-01 +3.89075136920E-06 +2.25546764333E-05 +3.75823153227E-05 +4.17625544282E-05 -7.04208339793E-01 +6.77804613117E-01
1.07500000000E+09 -5.78163320075E-01 +7.65409431992E-01 -6.48605703412E-06 +1.14603689093E-05 +2.67049148837E-05 +6.66893250410E-05 -6.99949304893E-01 +6.81291924289E-01
1.08000000000E+09 -5.74354103994E-01 +7.68943579531E-01 +4.76365710741E-05 +2.82742732847E-05 +7.54854242442E-06 +8.60620553213E-05 -6.96051670214E-01 +6.85248365071E-01
1.08500000000E+09 -5.71717576630E-01 +7.71892241507E-01 +2.47189966112E-05 +5.86715222169E-06 -5.75681654099E-05 +2.50587258639E-05 -6.91990173933E-01 +6.89106743312E-01
1.09000000000E+09 -5.69473723074E-01 +7.74552958369E-01 +3.62219295123E-05 +2.89997756096E-05 +4.58735340278E-06 +2.33711792425E-05 -6.88135691155E-01 +6.92864324794E-01
1.09500000000E+09 -5.67354742313E-01 +7.77029927801E-01 +5.27428168329E-05 +9.03905683435E-06 +2.82489852615E-05 +5.43867112122E-05 -6.84333969124E-01 +6.96725152578E-01
1.10000000000E+09 -5.63877553391E-01 +7.79712750972E-01 +1.17147677899E-05 +5.98378796194E-05 -1.20851538560E-05 +7.26373478366E-05 -6.80320755555E-01 +7.00525662809E-01
1.10500000000E+09 -5.59471246603E-01 +7.82634390581E-01 +3.31263290952E-06 +5.46170236705E-05 +3.32315643704E-05 +7.83424554878E-05 -6.75966923338E-01 +7.04322814227E-01
1.11000000000E+09 -5.53547189261E-01 +7.85975779596E-01 +8.02650606830E-06 +3.99470813286E-05 -3.29367853537E-05 -1.71076117495E-05 -6.71823458318E-01 +7.07498742837E-01
1.11500000000E+09 -5.46393866111E-01 +7.89633368857E-01 +2.65176022618E-05 +2.13585064115E-05 +9.35849642775E-06 +6.15632978009E-05 -6.67730291709E-01 +7.10886158163E-01
1.12000000000E+09 -5.38916558464E-01 +7.93106888751E-01 +3.44877572858E-05 +2.82369291904E-05 -3.95432169731E-06 +4.50888766390E-05 -6.63582596348E-01 +7.14687328813E-01
1.12500000000E+09 -5.31271631862E-01 +7.96690463445E-01 +1.17101158809E-05 +1.69568250448E-05 -4.15175273127E-05 +6.67551717458E-05 -6.59462829203E-01 +7.18702572251E-01
1.13000000000E+09 -5.24615769288E-01 +8.00273841848E-01 +2.12490919073E-05 +2.83390703090E-05 +9.75457680322E-05 +3.98394615625E-05 -6.54997038987E-01 +7.22417396947E-01
1.13500000000E+09 -5.18861673004E-01 +8.03087747682E-01 +2.85007736958E-05 +1.03504119600E-04 +6.56824616588E-05 +4.09899432722E-05 -6.50531961630E-01 +7.26150840247E-01
1.14000000000E+09 -5.14200525411E-01 +8.06234053759E-01 +2.93793517227E-05 +7.65270440700E-05 +7.32659506120E-05 +5.82409872640E-05 -6.45835163699E-01 +7.29654613603E-01
1.14500000000E+09 -5.10618596187E-01 +8.08572652788E-01 +1.90214848450E-05 +8.19614267431E-05 +2.34811780291E-05 +5.07436944159E-05 -6.41194480950E-01 +7.32978392311E-01
1.15000000000E+09 -5.07117205567E-01 +8.10752070699E-01 +6.60015022369E-05 +6.62197601666E-05 +7.10883272129E-05 +2.73920443961E-05 -6.36395724873E-01 +7.36806379735E-01
1.15500000000E+09 -5.03596150979E-01 +8.13295562235E-01 +1.02965607962E-04 +7.21159701557E-05 +6.07778247964E-05 +5.36181793127E-05 -6.31540246206E-01 +7.40705282045E-01
1.16000000000E+09 -4.99055266479E-01 +8.15551330026E-01 +4.97851661227E-05 +4.25507433183E-05 +5.30819129415E-05 +5.27812524568E-05 -6.26795266817E-01 +7.44554539069E-01
1.16500000000E+09 -4.93361023057E-01 +8.18435188012E-01 +7.00806747463E-05 +4.78804034477E-05 +1.27415032426E-04 +8.64967034884E-05 -6.21654323712E-01 +7.48135701120E-01
1.17000000000E+09 -4.86501559567E-01 +8.21360596763E-01 +9.47340856452E-05 +7.32508423430E-05 +7.81486086384E-05 -1.15065143098E-06 -6.16199645378E-01 +7.51434061428E-01
1.17500000000E+09 -4.78698804265E-01 +8.24534042983E-01 +1.53115980698E-04 -8.25866060614E-06 +1.15877105402E-04 +1.70199647440E-05 -6.10483432330E-01 +7.54878629576E-01
1.18000000000E+09 -4.70759536093E-01 +8.27657559737E-01 +1.04366152999E-04 +7.96128067140E-06 +8.00621320533E-05 +2.34740438476E-05 -6.05005924353E-01 +7.57883390421E-01
1.18500000000E+09 -4.62812943872E-01 +8.30394603191E-01 +1.08240403018E-04 +2.78008779362E-05 +1.30191235317E-04 +4.31448935197E-05 -5.98966242335E-01 +7.60929892771E-01
1.19000000000E+09 -4.55852928313E-01 +8.33046166043E-01 +1.82975413686E-04 +4.10901841245E-05 +1.68848504601E-04 +5.46536827546E-05 -5.92648597696E-01 +7.63652677346E-01
1.19500000000E+09 -4.49912115997E-01 +8.35199412581E-01 +2.70680552591E-04 +3.04953144587E-06 +2.41149168934E-04 -9.10022072257E-06 -5.86870195016E-01 +7.64796454902E-01
1.20000000000E+09 -4.45230096493E-01 +8.36547314275E-01 +2.45514115392E-04 -9.81858559107E-05 +2.38917504891E-04 -1.22573844123E-04 -5.82246620868E-01 +7.64978981794E-01
1.20500000000E+09 -4.41221118607E-01 +8.38458200246E-01 +1.76576738631E-04 -1.67225855165E-04 +1.84789253296E-04 -1.37640164606E-04 -5.80147227199E-01 +7.65623637918E-01
1.21000000000E+09 -4.36994770794E-01 +8.40500089034E-01 +9.79578133979E-05 -1.96977648114E-04 +1.01490392208E-04 -1.14720187500E-04 -5.78227320200E-01 +7.68695798703E-01
1.21500000000E+09 -4.31758408072E-01 +8.42659405004E-01 +1.19394691637E-04 -1.36754427236E-04 +9.79075938000E-05 -1.46839953469E-04 -5.75507819442E-01 +7.73359803270E-01
1.22000000000E+09 -4.25085833213E-01 +8.45213009118E-01 +1.23497451125E-04 -1.41769261543E-04 +9.69591775412E-05 -1.08544533664E-04 -5.71236134346E-01 +7.78736201126E-01
1.22500000000E+09 -4.17065039283E-01 +8.47969333347E-01 +1.10575017736E-04 -1.23993894105E-04 +1.20318016447E-04 -9.02551382433E-05 -5.66154195845E-01 +7.84003093232E-01
1.23000000000E+09 -4.07800950843E-01 +8.51009206476E-01 +9.52736321091E-05 -1.20552129177E-04 +3.71000524728E-05 -1.37534050539E-04 -5.60442016679E-01 +7.88504804315E-01
1.23500000000E+09 -3.97817785260E-01 +8.54266610270E-01 +6.40637118744E-05 -1.26172968156E-04 +8.76168148169E-05 -9.78732229961E-05 -5.54438569861E-01 +7.92863463519E-01
1.24000000000E+09 -3.87689957929E-01 +8.57650228915E-01 +1.24505403467E-04 -1.67600892661E-04 +1.24615936507E-04 -1.49614434984E-04 -5.48520413797E-01 +7.96713350940E-01
1.24500000000E+09 -3.78185996479E-01 +8.61183360354E-01 +1.13472883058E-04 -2.48711513863E-04 +9.12591426775E-05 -1.92465632770E-04 -5.42203148147E-01 +8.00586077148E-01
1.25000000000E+09 -3.69720229477E-01 +8.64214897501E-01 +6.70877970711E-05 -2.48688343903E-04 +1.13874840169E-04 -2.66518785276E-04 -5.35509145943E-01 +8.04847056093E-01
1.25500000000E+09 -3.62543716288E-01 +8.66681469393E-01 +1.33827993129E-05 -2.85648983375E-04 +1.76388287239E-05 -3.17198492936E-04 -5.28746676718E-01 +8.08871769787E-01
1.26000000000E+09 -3.56499056317E-01 +8.69190383872E-01 -1.39717071371E-05 -2.65764144049E-04 -4.33866911762E-05 -3.38610971356E-04 -5.21966544470E-01 +8.13231833707E-01
1.26500000000E+09 -3.50830174492E-01 +8.71397689145E-01 -4.96549151038E-05 -3.05449119056E-04 -2.80934322058E-05 -2.96526390686E-04 -5.14922589280E-01 +8.17085302993E-01
1.27000000000E+09 -3.45201021494E-01 +8.73502513592E-01 -8.67272376876E-05 -3.02724576074E-04 -6.95961726760E-05 -2.93906787490E-04 -5.08188578732E-01 +8.20853171504E-01
1.27500000000E+09 -3.38708154651E-01 +8.75763343456E-01 -1.11728229396E-04 -3.19280220818E-04 -1.06181606528E-04 -3.32040369530E-04 -5.01044186604E-01 +8.24401039576E-01
1.28000000000E+09 -3.30618734683E-01 +8.78037979758E-01 -1.47470338353E-04 -3.26105104596E-04 -1.95490444044E-04 -3.05905042367E-04 -4.93999252139E-01 +8.27921532612E-01
1.28500000000E+09 -3.20984409263E-01 +8.80538025947E-01 -1.57623511154E-04 -2.93117296889E-04 -1.75050579444E-04 -2.81159261583E-04 -4.86721315547E-01 +8.31552561119E-01
1.29000000000E+09 -3.10251087040E-01 +8.82975941791E-01 -1.97370003955E-04 -2.90318435190E-04 -2.68716941559E-04 -2.77104471802E-04 -4.79084395883E-01 +8.35207754464E-01
1.29500000000E+09 -2.98703951393E-01 +8.85731717775E-01 -2.22651081355E-04 -2.46719599892E-04 -2.56115895240E-04 -2.82199744130E-04 -4.71328055633E-01 +8.38848272037E-01
1.30000000000E+09 -2.87198451799E-01 +8.88348360655E-01 -2.78701796614E-04 -2.89142824611E-04 -3.11172594014E-04 -2.80345391163E-04 -4.63347435206E-01 +8.42407064382E-01
1.30500000000E+09 -2.76689740360E-01 +8.90830890107E-01 -3.15343766939E-04 -2.26041592956E-04 -3.59629603369E-04 -2.21462065729E-04 -4.55286786098E-01 +8.45880665026E-01
1.31000000000E+09 -2.67274903517E-01 +8.92947663898E-01 -4.09584066297E-04 -1.86148252275E-04 -3.77601739932E-04 -1.58710728886E-04 -4.46859472424E-01 +8.49362611808E-01
1.31500000000E+09 -2.59253640715E-01 +8.95000255321E-01 -3.21455445987E-04 -1.05077589328E-04 -3.79074736842E-04 -1.40228738280E-04 -4.38112182019E-01 +8.52784192746E-01
1.32000000000E+09 -2.52410954715E-01 +8.96514771900E-01 -3.62156245542E-04 -6.59321206765E-05 -3.70317598788E-04 -9.28901691830E-05 -4.28912486716E-01 +8.56120693566E-01
1.32500000000E+09 -2.45846025040E-01 +8.97840614714E-01 -4.01763061083E-04 -8.26724701611E-05 -4.05721728624E-04 -7.52529395639E-05 -4.19294219607E-01 +8.59572471541E-01
1.33000000000E+09 -2.38595405041E-01 +8.98787089298E-01 -4.65139594550E-04 -1.03400244317E-04 -4.27483312059E-04 -3.75279218375E-05 -4.09524756376E-01 +8.62800412776E-01
1.33500000000E+09 -2.29812205410E-01 +8.99545184283E-01 -5.44955197864E-04 -5.71590973747E-05 -5.09031271558E-04 -1.80758960795E-05 -3.99704026471E-01 +8.65998992654E-01
1.34000000000E+09 -2.18904172868E-01 +9.00250331153E-01 -5.24237770766E-04 +3.57791437487E-05 -5.02689996142E-04 +2.97533131846E-05 -3.89516122240E-01 +8.69410507777E-01
1.34500000000E+09 -2.05788784978E-01 +9.00494640655E-01 -4.47595804035E-04 +1.15446457053E-04 -4.98261817861E-04 +1.14107777588E-04 -3.78465744415E-01 +8.72790278261E-01
1.35000000000E+09 -1.90866270523E-01 +9.00416421197E-01 -4.82228977316E-04 +1.67314823168E-04 -4.31732259689E-04 +1.07934512134E-04 -3.67205813125E-01 +8.75861843833E-01
1.35500000000E+09 -1.74840018653E-01 +9.00524505532E-01 -5.10114662514E-04 +1.30394789158E-04 -4.97764153533E-04 +1.44015363734E-04 -3.55560439502E-01 +8.78726605820E-01
1.36000000000E+09 -1.58755755975E-01 +9.00513263496E-01 -5.07365128312E-04 +1.69410349606E-04 -4.92564412761E-04 +1.75418536813E-04 -3.43730761910E-01 +8.81340644478E-01
1.36500000000E+09 -1.43090185413E-01 +9.00709150033E-01 -5.75653450661E-04 +1.88326313522E-04 -5.35627430541E-04 +1.95258352545E-04 -3.31554769958E-01 +8.83753382826E-01
1.37000000000E+09 -1.28464097116E-01 +9.00768070925E-01 -6.29569419644E-04 +2.50668413991E-04 -6.23877362659E-04 +2.72769935270E-04 -3.18600182116E-01 +8.86076173724E-01
1.37500000000E+09 -1.15201232190E-01 +9.00806578148E-01 -6.64806423488E-04 +4.24374068068E-04 -6.97122304176E-04 +3.25172278115E-04 -3.04968112819E-01 +8.88226413348E-01
1.38000000000E+09 -1.02949019285E-01 +9.00611912164E-01 -6.43547257812E-04 +6.37233208609E-04 -7.23862710529E-04 +5.49585872602E-04 -2.90492754967E-01 +8.90403971743E-01
1.38500000000E+09 -9.06767542117E-02 +9.00080881788E-01 -4.99752467752E-04 +6.63693691380E-04 -5.61418238167E-04 +7.18359817876E-04 -2.74943077893E-01 +8.92294245684E-01
1.39000000000E+09 -7.78843944307E-02 +8.99060783848E-01 -3.94632404844E-04 +6.40288579732E-04 -4.81973438616E-04 +7.44018981143E-04 -2.59040339537E-01 +8.93731307177E-01
1.39500000000E+09 -6.35270790015E-02 +8.97113332171E-01 -4.54731598104E-04 +7.09107895159E-04 -4.11218114503E-04 +7.85456981856E-04 -2.42190707131E-01 +8.94418346141E-01
1.40000000000E+09 -4.68997099201E-02 +8.94140322253E-01 -4.34828996525E-04 +7.84453573711E-04 -3.89270263223E-04 +8.07192533369E-04 -2.24607595419E-01 +8.94845152159E-01
1.40500000000E+09 -2.83095035152E-02 +8.89999882504E-01 -4.63152829685E-04 +8.43056128014E-04 -4.09462767494E-04 +8.73948258602E-04 -2.06062998303E-01 +8.94737245432E-01
1.41000000000E+09 -7.94684690828E-03 +8.84669607033E-01 -3.98890394072E-04 +1.06687618789E-03 -3.72944836799E-04 +1.08585171854E-03 -1.86083998756E-01 +8.94229460790E-01
1.41500000000E+09 +1.32486998313E-02 +8.78423841209E-01 -2.25226882499E-04 +1.10734326455E-03 -2.54029958272E-04 +1.17793644522E-03 -1.64527452236E-01 +8.92819313294E-01
1.42000000000E+09 +3.49689523100E-02 +8.71826905306E-01 -1.81168728807E-04 +1.14629583779E-03 -2.30903971831E-04 +1.25637988446E-03 -1.41622487711E-01 +8.90356952269E-01
1.42500000000E+09 +5.67990400496E-02 +8.64545367800E-01 -1.81572561549E-04 +1.32339053354E-03 -1.22169527631E-04 +1.50476167156E-03 -1.17883827437E-01 +8.86761651109E-01
1.43000000000E+09 +7.83178303342E-02 +8.56591102262E-01 -3.00520363179E-05 +1.54071907274E-03 +1.28180383487E-04 +1.65633503328E-03 -9.28063774820E-02 +8.82116447286E-01
1.43500000000E+09 +1.00096555487E-01 +8.47394305830E-01 +2.18602967723E-04 +1.68071736280E-03 +4.19585787712E-04 +1.71952425226E-03 -6.65094510235E-02 +8.75548012929E-01
1.44000000000E+09 +1.22315202554E-01 +8.36984242371E-01 +4.20854753951E-04 +1.65348890954E-03 +5.13554627575E-04 +1.65911958278E-03 -3.82470776165E-02 +8.67157273114E-01
1.44500000000E+09 +1.46142016896E-01 +8.23974490372E-01 +4.86845761903E-04 +1.76478171616E-03 +6.31235939426E-04 +1.77066587109E-03 -7.78878562386E-03 +8.55805141318E-01
1.45000000000E+09 +1.71607884491E-01 +8.07475257748E-01 +6.03298460511E-04 +2.08349867923E-03 +8.54103159477E-04 +2.14824395214E-03 +2.40969029357E-02 +8.41185860808E-01
1.45500000000E+09 +1.99063416148E-01 +7.87394140026E-01 +9.83146375293E-04 +2.38464521228E-03 +1.25594397640E-03 +2.31029679558E-03 +5.76224666127E-02 +8.23604950225E-01
1.46000000000E+09 +2.28992688778E-01 +7.62460899884E-01 +1.62267755498E-03 +2.76517140313E-03 +1.85787794825E-03 +2.47422724740E-03 +9.27430930199E-02 +8.02025026466E-01
1.46500000000E+09 +2.60556527996E-01 +7.32079073528E-01 +2.40094288630E-03 +2.84760606774E-03 +2.38875358376E-03 +2.49060484097E-03 +1.29324874136E-01 +7.75236751637E-01
1.47000000000E+09 +2.92469531515E-01 +6.96194338179E-01 +3.41886673839E-03 +2.77936448061E-03 +3.07700776242E-03 +2.47850075182E-03 +1.66794672824E-01 +7.41220699750E-01
1.47500000000E+09 +3.23941536594E-01 +6.54204573961E-01 +4.31219314123E-03 +2.29530842466E-03 +3.98903699542E-03 +2.34110089437E-03 +2.03856421676E-01 +6.99930353978E-01
1.48000000000E+09 +3.52731341793E-01 +6.05562196703E-01 +5.27142306622E-03 +1.88796065872E-03 +5.16997379134E-03 +2.04384649477E-03 +2.40581455397E-01 +6.50961977688E-01
1.48500000000E+09 +3.77600807258E-01 +5.51045787531E-01 +6.22362786732E-03 +1.07898428682E-03 +6.38024091205E-03 +1.01915696649E-03 +2.75643027017E-01 +5.91879310804E-01
1.49000000000E+09 +3.97434766313E-01 +4.89043648521E-01 +7.47998826522E-03 +1.44021111012E-05 +7.46883521122E-03 -3.42818919734E-04 +3.04056599198E-01 +5.21627285558E-01
1.49500000000E+09 +4.10193084818E-01 +4.18958485186E-01 +8.71565650964E-03 -2.01190434947E-03 +8.22973082812E-03 -2.25762044880E-03 +3.22487865638E-01 +4.41272107943E-01
1.50000000000E+09 +4.12271988982E-01 +3.39364064640E-01 +9.47839663541E-03 -4.66115258690E-03 +8.84703424685E-03 -4.32403202713E-03 +3.28739211335E-01 +3.52310248462E-01
1.50500000000E+09 +4.01047964062E-01 +2.52596182007E-01 +8.96841750594E-03 -8.55905665644E-03 +8.87894124132E-03 -7.88962829336E-03 +3.17499656327E-01 +2.53947614199E-01
1.51000000000E+09 +3.72390877859E-01 +1.59692140147E-01 +6.27755980800E-03 -1.22747817327E-02 +6.74152479433E-03 -1.19013829344E-02 +2.84538675026E-01 +1.52493311451E-01
1.51500000000E+09 +3.22874416582E-01 +6.79099175098E-02 +2.44313356546E-03 -1.44271979794E-02 +2.85192829583E-03 -1.44553125766E-02 +2.29338192966E-01 +5.54239692460E-02
1.52000000000E+09 +2.53706874424E-01 -1.56281245403E-02 -2.55620859587E-03 -1.51649043053E-02 -2.35407013761E-03 -1.53420648928E-02 +1.53348810375E-01 -3.12208411502E-02
1.52500000000E+09 +1.66863990943E-01 -8.66252557689E-02 -6.69164992404E-03 -1.32132393505E-02 -6.58520933492E-03 -1.34320916004E-02 +5.83411091153E-02 -1.00880852482E-01
1.53000000000E+09 +6.48826830578E-02 -1.37078092289E-01 -9.62964729337E-03 -1.18412935321E-02 -9.64728397125E-03 -1.20532620887E-02 -5.01316176037E-02 -1.47247051765E-01
1.53500000000E+09 -4.49945707007E-02 -1.64024075831E-01 -1.33270200362E-02 -8.79677434791E-03 -1.33738123519E-02 -8.90526296281E-03 -1.63091904472E-01 -1.68165463852E-01
1.54000000000E+09 -1.57074649352E-01 -1.65425215694E-01 -1.57465195266E-02 -4.36134463528E-03 -1.56575965327E-02 -4.44489983324E-03 -2.74254450563E-01 -1.64385758151E-01
1.54500000000E+09 -2.64128563347E-01 -1.42020080697E-01 -1.61713194985E-02 +1.28666909329E-03 -1.60446049593E-02 +9.45876125163E-04 -3.73967155276E-01 -1.39510229296E-01
1.55000000000E+09 -3.58329932238E-01 -9.81160550993E-02 -1.35695172130E-02 +5.90893617372E-03 -1.38492768350E-02 +5.38634573322E-03 -4.59722138501E-01 -1.00861969714E-01
1.55500000000E+09 -4.35558919963E-01 -4.22067648892E-02 -1.01228284412E-02 +8.65300861519E-03 -1.08233548218E-02 +8.44944463916E-03 -5.31241462688E-01 -5.26444252529E-02
1.56000000000E+09 -4.97166328765E-01 +1.77846520285E-02 -6.41106636522E-03 +1.00608342436E-02 -7.13791394038E-03 +1.02906560738E-02 -5.87990262371E-01 +2.13417871791E-03
1.56500000000E+09 -5.46877088894E-01 +7.90905446948E-02 -3.07901516006E-03 +9.41409458730E-03 -3.41706064457E-03 +9.99524042259E-03 -6.31989202163E-01 +5.78843074013E-02
1.57000000000E+09 -5.84827619189E-01 +1.39987997746E-01 -1.00929096263E-03 +8.16210109459E-03 -1.00270134249E-03 +8.81475650732E-03 -6.64849628092E-01 +1.13571660345E-01
