# Hz S RI R 50
! CMT, C1220, 16058040, 17.2.0/1
! Date: 14/08/2018 12:06:37
! Data: Format (Calibration Info)
! Freq                      S11: Re/Im (F2)                       S21: Re/Im (F2)                       S12: Re/Im (F2)                       S22: Re/Im (F2)            
1.00000000000E+09 -6.54412879922E-01 +7.09690044083E-01 -3.18789135225E-05 -1.47456377819E-05 -3.05288360284E-05 -4.49717445282E-06 -7.53505526997E-01 +6.25542142959E-01
1.00500000000E+09 -6.47436889904E-01 +7.14188624660E-01 -5.13980942382E-05 -2.48778918272E-05 -1.96101914532E-05 +3.16658957023E-05 -7.49876124816E-01 +6.29698991442E-01
1.01000000000E+09 -6.41682066572E-01 +7.18466952042E-01 -2.62507951617E-08 -4.66802567869E-05 +3.91421393101E-05 +2.57767789504E-05 -7.46228283983E-01 +6.33398447739E-01
1.01500000000E+09 -6.37680187973E-01 +7.22248075629E-01 -2.98140133095E-06 +8.88521651687E-06 -2.01820963359E-05 -1.55222736461E-06 -7.42918258265E-01 +6.37233762861E-01
1.02000000000E+09 -6.34754608631E-01 +7.25489970403E-01 -4.14052757812E-06 +4.24953693633E-05 +3.50855477275E-06 -1.08759125750E-05 -7.39490511446E-01 +6.40853743736E-01
1.02500000000E+09 -6.32879448086E-01 +7.28542150755E-01 -2.46098027626E-05 +1.73199972515E-05 +2.96196171842E-06 -2.95365313173E-05 -7.36650139904E-01 +6.44544863705E-01
1.03000000000E+09 -6.31382349693E-01 +7.31347833152E-01 -1.05543915865E-05 -1.81131385631E-05 -1.87732530700E-07 -1.08469771589E-05 -7.32989442165E-01 +6.48142306248E-01
1.03500000000E+09 -6.29144703816E-01 +7.34126927530E-01 -2.80279177243E-05 -4.07447341754E-05 -9.68004236026E-06 +1.01107216506E-05 -7.29307348626E-01 +6.52346453277E-01
1.04000000000E+09 -6.25856313580E-01 +7.37359629534E-01 -4.27509860851E-05 -3.18343679513E-05 -9.42578277329E-06 -1.52687070893E-07 -7.25504115197E-01 +6.55914390695E-01
1.04500000000E+09 -6.20915952067E-01 +7.40909916458E-01 -5.57322859242E-05 -4.00732206600E-05 -2.49951587244E-05 +7.93493221157E-06 -7.21930048022E-01 +6.59435342081E-01
1.05000000000E+09 -6.14368525194E-01 +7.44920398650E-01 -3.51636598205E-05 +5.08414570216E-05 -5.98772789854E-06 +2.40363063895E-05 -7.18406935648E-01 +6.62907825614E-01
1.05500000000E+09 -6.06548526741E-01 +7.48998215027E-01 +5.60870243576E-06 +6.74839573374E-05 -7.94263780373E-05 +4.86094399646E-05 -7.15183374844E-01 +6.66563679714E-01
1.06000000000E+09 -5.98332189025E-01 +7.53540435658E-01 -1.47991248672E-05 +1.91833596361E-05 -4.38650218071E-05 +6.77024946019E-06 -7.11864725249E-01 +6.70362875298E-01
1.06500000000E+09 -5.90530435029E-01 +7.57811314699E-01 -2.24904326225E-05 +2.80862833454E-05 +9.61075060299E-06 +3.88546467040E-05 -7.08310397769E-01 +6.74066503600E-01
1.07000000000E+09 -5.83533193958E-01 +7.61717912501E-01 +2.09931417420E-05 +3.33502851871E-05 +1.18771666878E-05 +6.01136533087E-05 -7.04152755761E-01 +6.77578176648E-01
1.07500000000E+09 -5.78102924253E-01 +7.65406746085E-01 +6.19342899261E-06 -8.71104835923E-06 -2.41419498627E-06 +9.81284852079E-05 -6.99716715321E-01 +6.81454376274E-01
1.08000000000E+09 -5.74309697198E-01 +7.68962413916E-01 -3.13077793131E-06 +6.81620333171E-05 -2.10493045084E-05 +8.63513629969E-05 -6.95897221242E-01 +6.85086671849E-01
1.08500000000E+09 -5.71660531587E-01 +7.71785152273E-01 -7.99024900860E-06 +5.26959769976E-05 +3.58421076153E-05 +3.60498083576E-05 -6.91970969953E-01 +6.89027663895E-01
1.09000000000E+09 -5.69322924986E-01 +7.74416839166E-01 +6.42510237409E-05 +4.18754741407E-05 -1.61576841322E-05 +3.40279780968E-05 -6.87987817698E-01 +6.92940815428E-01
1.09500000000E+09 -5.67301922094E-01 +7.77066430225E-01 +1.31355060561E-05 +1.39933139276E-05 +3.15638037160E-05 +7.24590889322E-05 -6.84361751283E-01 +6.96787329556E-01
1.10000000000E+09 -5.63902172555E-01 +7.79751348912E-01 +8.14884317120E-06 +4.74253938941E-05 +2.10205551218E-06 +4.41217673635E-05 -6.80253237076E-01 +7.00572904170E-01
1.10500000000E+09 -5.59467646291E-01 +7.82747219571E-01 +3.48554947044E-05 +6.05363327416E-05 +2.17054888509E-05 +4.93897282819E-05 -6.76012607609E-01 +7.04128732222E-01
1.11000000000E+09 -5.53521503972E-01 +7.85987210198E-01 +3.79711672189E-05 +5.20261860379E-05 +4.85783346986E-05 +9.02478845209E-06 -6.71800734749E-01 +7.07442422782E-01
1.11500000000E+09 -5.46431884352E-01 +7.89481005842E-01 +1.48477793116E-05 +6.11118114342E-05 -1.09326733354E-05 +6.94465149195E-05 -6.67597603657E-01 +7.10920401332E-01
1.12000000000E+09 -5.38756672142E-01 +7.93037907550E-01 +3.03250746169E-05 +3.67398502526E-05 +1.83576985829E-05 -2.03486364971E-05 -6.63629670397E-01 +7.14654080976E-01
1.12500000000E+09 -5.31317480031E-01 +7.96780486131E-01 +6.71341650848E-05 +4.14983290444E-05 +1.83706362646E-05 +1.25914769004E-05 -6.59422697804E-01 +7.18573644480E-01
1.13000000000E+09 -5.24527342434E-01 +8.00162481193E-01 +2.49475316848E-05 +2.40037607811E-06 +6.64508199248E-05 +2.45690039502E-05 -6.55121393432E-01 +7.22293023456E-01
1.13500000000E+09 -5.18858262941E-01 +8.03112423637E-01 +7.17484131875E-06 +6.02367361774E-05 +3.18241924490E-05 +3.96979755488E-05 -6.50608697712E-01 +7.26134848164E-01
1.14000000000E+09 -5.14184490947E-01 +8.06073516055E-01 +8.02938018586E-06 +4.24817673673E-05 +3.95757683785E-05 +6.50119823166E-05 -6.45737913689E-01 +7.29656373855E-01
1.14500000000E+09 -5.10576959688E-01 +8.08480273917E-01 +2.89501492241E-05 +5.72057009109E-05 +8.08376029489E-05 +3.07769052867E-05 -6.41166755766E-01 +7.33116491004E-01
1.15000000000E+09 -5.07132591592E-01 +8.10809060278E-01 +3.65657605251E-05 +2.89366152824E-05 +3.15972357974E-05 +1.44596896553E-05 -6.36572039803E-01 +7.36863513487E-01
1.15500000000E+09 -5.03469575155E-01 +8.13180149418E-01 +8.25233120986E-05 +2.74858416971E-05 +1.13481464652E-04 +3.88309070530E-05 -6.31702586262E-01 +7.40769657579E-01
1.16000000000E+09 -4.98959080815E-01 +8.15438071088E-01 +4.84011654807E-05 +2.75156355027E-05 +9.78895111598E-05 +2.58910180311E-05 -6.26786731001E-01 +7.44568771389E-01
1.16500000000E+09 -4.93265440647E-01 +8.18373890929E-01 +6.57128394709E-05 +4.37043342363E-05 +6.81470070873E-05 +6.15497923197E-05 -6.21738460210E-01 +7.48227692259E-01
1.17000000000E+09 -4.86398738633E-01 +8.21375643999E-01 +1.00324084802E-04 +5.44459149907E-05 +9.86336346866E-05 +3.72984848649E-05 -6.16262462726E-01 +7.51482304657E-01
1.17500000000E+09 -4.78694605906E-01 +8.24400863379E-01 +1.08467152322E-04 +8.16176236721E-06 +6.57050066315E-05 +4.42763086420E-05 -6.10545986625E-01 +7.54616043596E-01
1.18000000000E+09 -4.70659457831E-01 +8.27634359881E-01 +1.38995385268E-04 +7.34590664188E-05 +1.27873594976E-04 +5.87465535640E-05 -6.04855586882E-01 +7.57860936625E-01
1.18500000000E+09 -4.62768280337E-01 +8.30483643734E-01 +1.49045173881E-04 +2.03774677314E-05 +1.49919360987E-04 +2.17605331345E-05 -5.98993417827E-01 +7.60877262151E-01
1.19000000000E+09 -4.55695518728E-01 +8.33039806034E-01 +1.65294318671E-04 +5.79637800799E-05 +1.60789638206E-04 -1.95456430359E-05 -5.92808618475E-01 +7.63638443749E-01
1.19500000000E+09 -4.49855569601E-01 +8.35249630619E-01 +2.11143454382E-04 -5.09437613647E-05 +2.49142365485E-04 -3.92902538398E-05 -5.86721173132E-01 +7.64797395974E-01
1.20000000000E+09 -4.45195562822E-01 +8.36548771465E-01 +2.01730009871E-04 -1.02132823416E-04 +2.01233142892E-04 -1.16576840151E-04 -5.82261638006E-01 +7.64889155315E-01
1.20500000000E+09 -4.41041317630E-01 +8.38392866504E-01 +1.79958329184E-04 -1.50445555510E-04 +1.91602017319E-04 -1.16837360359E-04 -5.80031185386E-01 +7.65724412723E-01
1.21000000000E+09 -4.36955711137E-01 +8.40444973581E-01 +1.17294361062E-04 -1.52964325100E-04 +9.89329945183E-05 -1.66548966161E-04 -5.78323118568E-01 +7.68800581444E-01
1.21500000000E+09 -4.31602900801E-01 +8.42680275867E-01 +1.27690500954E-04 -1.46537725970E-04 +1.21820646942E-04 -1.43634367045E-04 -5.75352608504E-01 +7.73343048874E-01
1.22000000000E+09 -4.25139071068E-01 +8.45142050145E-01 +6.93176586015E-05 -1.08274946697E-04 +1.29793063321E-04 -1.41527207381E-04 -5.71274339638E-01 +7.78798564448E-01
1.22500000000E+09 -4.17080075276E-01 +8.47981319041E-01 +8.19827056300E-05 -1.59847777514E-04 +6.77143490469E-05 -1.51294974891E-04 -5.66109495391E-01 +7.83890312340E-01
1.23000000000E+09 -4.07718425827E-01 +8.51013412587E-01 +5.28621202209E-05 -1.60175931572E-04 +7.29599427458E-05 -1.40662451233E-04 -5.60489839112E-01 +7.88501877444E-01
1.23500000000E+09 -3.97666887985E-01 +8.54285271396E-01 +8.36851041421E-05 -1.15572354991E-04 +5.60611653409E-05 -1.09697931566E-04 -5.54561622050E-01 +7.92959870217E-01
1.24000000000E+09 -3.87531286325E-01 +8.57574711925E-01 +7.74171039307E-05 -1.02549855748E-04 +8.09871756771E-05 -1.33280374787E-04 -5.48502812676E-01 +7.96878514002E-01
1.24500000000E+09 -3.78145000983E-01 +8.61177765360E-01 +7.99673131403E-05 -2.33003136567E-04 +6.87345822856E-05 -2.14395062981E-04 -5.42279207011E-01 +8.00577637218E-01
1.25000000000E+09 -3.69634396509E-01 +8.64168764766E-01 +5.11156266048E-05 -2.06141736653E-04 +8.01188578551E-05 -1.87487185161E-04 -5.35452999028E-01 +8.04909855973E-01
1.25500000000E+09 -3.62426725057E-01 +8.66792600432E-01 +3.55644491039E-05 -2.84385055479E-04 +4.24301577404E-05 -2.82049879406E-04 -5.28668943084E-01 +8.08816058675E-01
1.26000000000E+09 -3.56340006688E-01 +8.69210649477E-01 -3.57587726219E-05 -2.53901463558E-04 -7.95516691811E-06 -3.01614291535E-04 -5.22067308242E-01 +8.13126037532E-01
1.26500000000E+09 -3.50773841726E-01 +8.71263326181E-01 -1.16461186345E-06 -2.40144691183E-04 -3.98642445408E-05 -2.85806559803E-04 -5.14922548973E-01 +8.17086336599E-01
1.27000000000E+09 -3.45047721981E-01 +8.73513586673E-01 -9.51479697577E-05 -2.83295096770E-04 -4.26816740886E-05 -2.66330623780E-04 -5.08077881390E-01 +8.20871809268E-01
1.27500000000E+09 -3.38459285023E-01 +8.75682985797E-01 -8.93611787610E-05 -2.76410031493E-04 -1.26517978048E-04 -2.64723526505E-04 -5.01015263572E-01 +8.24514870662E-01
1.28000000000E+09 -3.30553665066E-01 +8.78014267953E-01 -1.29614369634E-04 -2.89713478062E-04 -1.20491064760E-04 -2.52981736907E-04 -4.93971058443E-01 +8.27911887261E-01
1.28500000000E+09 -3.20784162586E-01 +8.80610651847E-01 -1.78425099995E-04 -2.84711285595E-04 -2.05883735081E-04 -3.13046767532E-04 -4.86633080949E-01 +8.31538796949E-01
1.29000000000E+09 -3.10075300189E-01 +8.82962250958E-01 -1.69713107820E-04 -2.72852429101E-04 -2.26174322960E-04 -2.67629235236E-04 -4.79102744252E-01 +8.35214347374E-01
1.29500000000E+09 -2.98476712543E-01 +8.85620891156E-01 -2.15289421547E-04 -2.86257700143E-04 -2.74267876089E-04 -2.82136232904E-04 -4.71233893009E-01 +8.38859309270E-01
1.30000000000E+09 -2.87003784887E-01 +8.88322740631E-01 -2.98022941644E-04 -2.76917213649E-04 -3.30334499672E-04 -2.20548513370E-04 -4.63337696659E-01 +8.42422291711E-01
1.30500000000E+09 -2.76413500397E-01 +8.90839410490E-01 -3.99758934063E-04 -2.48645504972E-04 -3.86432027829E-04 -1.77418573759E-04 -4.55257920287E-01 +8.45965059649E-01
1.31000000000E+09 -2.67001718540E-01 +8.92845717533E-01 -4.30124493299E-04 -1.41215863565E-04 -4.09088517118E-04 -1.37929409525E-04 -4.46821450346E-01 +8.49248225885E-01
1.31500000000E+09 -2.59062569848E-01 +8.94841299561E-01 -3.48813481616E-04 -1.05646722230E-04 -4.12886788379E-04 -1.14507241096E-04 -4.38078578678E-01 +8.52665022722E-01
1.32000000000E+09 -2.51989143761E-01 +8.96449746743E-01 -3.78204585300E-04 -6.76619594540E-05 -3.52894435337E-04 -7.39345112590E-05 -4.28826617588E-01 +8.56121426686E-01
1.32500000000E+09 -2.45540054772E-01 +8.97599705348E-01 -3.75325811617E-04 -6.99717628515E-05 -4.26837976481E-04 -8.14983499336E-05 -4.19288726564E-01 +8.59469793435E-01
1.33000000000E+09 -2.38224258890E-01 +8.98699387292E-01 -4.57825758540E-04 -4.72687681810E-05 -4.98329564602E-04 -2.49392667130E-05 -4.09496217399E-01 +8.62845989235E-01
1.33500000000E+09 -2.29508316632E-01 +8.99454037946E-01 -5.67205976768E-04 +5.64910285538E-06 -4.87126485213E-04 +2.80556694954E-05 -3.99582003510E-01 +8.66122375114E-01
1.34000000000E+09 -2.18540477807E-01 +9.00150838046E-01 -4.97607205500E-04 +1.17903187318E-04 -4.72233790830E-04 +1.02261144544E-04 -3.89422701704E-01 +8.69500151367E-01
1.34500000000E+09 -2.05374630889E-01 +9.00349052744E-01 -4.96958016430E-04 +1.78716992840E-04 -4.31509953985E-04 +1.89781219341E-04 -3.78425134687E-01 +8.72715301543E-01
1.35000000000E+09 -1.90494303426E-01 +9.00467776397E-01 -4.28526631289E-04 +1.82824550356E-04 -4.79002227103E-04 +1.81624558589E-04 -3.67307120114E-01 +8.75690416525E-01
1.35500000000E+09 -1.74456671296E-01 +9.00398627701E-01 -4.17119158156E-04 +2.23675983005E-04 -4.62947505047E-04 +2.52916221347E-04 -3.55588863218E-01 +8.78563515417E-01
1.36000000000E+09 -1.58355909117E-01 +9.00487407465E-01 -4.70476843025E-04 +2.65331412029E-04 -4.20114996905E-04 +2.60352717101E-04 -3.43810648383E-01 +8.81232813621E-01
1.36500000000E+09 -1.42565652435E-01 +9.00602920476E-01 -4.97702236227E-04 +2.61980415408E-04 -4.49411635674E-04 +3.10477912534E-04 -3.31631491924E-01 +8.83786720416E-01
1.37000000000E+09 -1.28008787145E-01 +9.00580979629E-01 -5.22515194077E-04 +3.25841038584E-04 -5.03072783217E-04 +2.80501051854E-04 -3.18629033300E-01 +8.86117662614E-01
1.37500000000E+09 -1.14721996555E-01 +9.00628025954E-01 -5.90020939020E-04 +4.39369325619E-04 -5.50969347232E-04 +3.89610201007E-04 -3.04990485601E-01 +8.88382879235E-01
1.38000000000E+09 -1.02472327831E-01 +9.00260929174E-01 -5.05817003739E-04 +6.46660307166E-04 -5.76488483196E-04 +5.67874800322E-04 -2.90374714780E-01 +8.90414016747E-01
1.38500000000E+09 -9.01359421227E-02 +8.99703842993E-01 -3.45471128618E-04 +6.67359651250E-04 -4.54610021797E-04 +6.97697402906E-04 -2.74971178368E-01 +8.92272444735E-01
1.39000000000E+09 -7.73608834582E-02 +8.98425999018E-01 -3.03234228123E-04 +6.11798752956E-04 -3.35104148007E-04 +6.93136863951E-04 -2.58956367101E-01 +8.93866322501E-01
1.39500000000E+09 -6.29886181342E-02 +8.96519986389E-01 -3.41030916145E-04 +6.35079290670E-04 -3.01632146350E-04 +7.52754617600E-04 -2.42201568941E-01 +8.94434850324E-01
1.40000000000E+09 -4.63810739511E-02 +8.93352857260E-01 -3.80259310931E-04 +7.14719744092E-04 -2.93276102425E-04 +7.37728330045E-04 -2.24601353577E-01 +8.94908215859E-01
1.40500000000E+09 -2.79317046952E-02 +8.89079779144E-01 -3.38193185500E-04 +8.14963310843E-04 -2.90432489762E-04 +7.89909074707E-04 -2.06059918053E-01 +8.94738439802E-01
1.41000000000E+09 -7.66155704593E-03 +8.83622048962E-01 -2.98058554138E-04 +9.89281376106E-04 -2.83760605684E-04 +1.03413358417E-03 -1.85971011088E-01 +8.94070294980E-01
1.41500000000E+09 +1.35435265384E-02 +8.77377912858E-01 -1.20088417664E-04 +1.02095307086E-03 -1.70719893694E-04 +1.04083289559E-03 -1.64517589268E-01 +8.92857571494E-01
1.42000000000E+09 +3.53194118220E-02 +8.70711181176E-01 -8.96610264693E-05 +1.02191410239E-03 -1.43187729269E-04 +1.14510472664E-03 -1.41546857487E-01 +8.90231286470E-01
1.42500000000E+09 +5.70144690325E-02 +8.63274118990E-01 -1.55132431157E-04 +1.22249497340E-03 -9.07737617976E-05 +1.36155623861E-03 -1.17757654362E-01 +8.86648090040E-01
1.43000000000E+09 +7.84817124295E-02 +8.55256232903E-01 +1.73875679382E-05 +1.47196948078E-03 +1.14616460759E-04 +1.62828045062E-03 -9.28949045333E-02 +8.81961620957E-01
1.43500000000E+09 +9.98765005258E-02 +8.46023625320E-01 +3.14876186591E-04 +1.59417705508E-03 +4.98824892702E-04 +1.58333858567E-03 -6.66018518673E-02 +8.75457375963E-01
1.44000000000E+09 +1.22167444006E-01 +8.35566388553E-01 +5.06775056970E-04 +1.55562366265E-03 +6.17189336324E-04 +1.53767326809E-03 -3.83620035496E-02 +8.67027718651E-01
1.44500000000E+09 +1.45919133161E-01 +8.22565852056E-01 +6.32610543036E-04 +1.65440714991E-03 +6.63201599878E-04 +1.64071192861E-03 -8.09629089887E-03 +8.55648310613E-01
1.45000000000E+09 +1.71245934599E-01 +8.05927321310E-01 +7.22505707548E-04 +1.93209920937E-03 +8.73343273914E-04 +1.96982755036E-03 +2.38718301167E-02 +8.41114911086E-01
1.45500000000E+09 +1.98456891352E-01 +7.85727569315E-01 +1.13796278276E-03 +2.28966991242E-03 +1.38360451446E-03 +2.17368192788E-03 +5.73150676933E-02 +8.23689734907E-01
1.46000000000E+09 +2.28410907710E-01 +7.60641477730E-01 +1.86008098590E-03 +2.49304158567E-03 +2.05277528314E-03 +2.20047844063E-03 +9.23907252486E-02 +8.02176214107E-01
1.46500000000E+09 +2.59661503822E-01 +7.30153501428E-01 +2.55085168271E-03 +2.28612477894E-03 +2.47771154889E-03 +2.02084613517E-03 +1.29066469069E-01 +7.75495589038E-01
1.47000000000E+09 +2.91292387525E-01 +6.94106755240E-01 +3.32131288105E-03 +2.14610557853E-03 +3.04356982696E-03 +1.96313983766E-03 +1.66597079533E-01 +7.41632734823E-01
1.47500000000E+09 +3.22241872472E-01 +6.52204390500E-01 +4.06558360999E-03 +1.78686583500E-03 +3.80689987792E-03 +1.86350692022E-03 +2.03777937158E-01 +7.00489317498E-01
1.48000000000E+09 +3.50608340681E-01 +6.03558265400E-01 +4.97819485433E-03 +1.35307471660E-03 +5.00290619018E-03 +1.51564315219E-03 +2.40659315156E-01 +6.51630354490E-01
1.48500000000E+09 +3.74903120709E-01 +5.49085420506E-01 +5.86479720979E-03 +3.39396890292E-04 +6.00307735913E-03 +2.75656628176E-04 +2.75834054947E-01 +5.92394618404E-01
1.49000000000E+09 +3.94277601865E-01 +4.87217975256E-01 +6.74284448371E-03 -7.79088630517E-04 +6.73111980164E-03 -1.07456644474E-03 +3.04635169707E-01 +5.22073711300E-01
1.49500000000E+09 +4.06141784914E-01 +4.17185881930E-01 +7.38811409043E-03 -2.62584516171E-03 +7.02400630302E-03 -2.80262481754E-03 +3.23282447010E-01 +4.41675523684E-01
1.50000000000E+09 +4.07074781090E-01 +3.38278851605E-01 +7.95261976852E-03 -4.64358824351E-03 +7.46116471880E-03 -4.40749337860E-03 +3.29394977062E-01 +3.52282489808E-01
1.50500000000E+09 +3.94986002936E-01 +2.52948501217E-01 +7.51398744745E-03 -8.11323870653E-03 +7.48752655465E-03 -7.52974524786E-03 +3.18115339544E-01 +2.53744551317E-01
1.51000000000E+09 +3.65878983087E-01 +1.61847416439E-01 +4.92004223425E-03 -1.13342424371E-02 +5.32433837677E-03 -1.10291896443E-02 +2.85058664742E-01 +1.52036237818E-01
1.51500000000E+09 +3.16643062568E-01 +7.16283862352E-02 +1.32443559410E-03 -1.31235747983E-02 +1.68423793060E-03 -1.31658838246E-02 +2.29539076178E-01 +5.48938637798E-02
1.52000000000E+09 +2.48336349239E-01 -1.00427949560E-02 -3.30158610383E-03 -1.33690444527E-02 -3.13776684804E-03 -1.36031913508E-02 +1.53333441206E-01 -3.16768715490E-02
1.52500000000E+09 +1.62567003271E-01 -7.97880837099E-02 -6.60391348291E-03 -1.11775748040E-02 -6.66710632846E-03 -1.13058581565E-02 +5.81962674195E-02 -1.01172911870E-01
1.53000000000E+09 +6.23494723456E-02 -1.28770851437E-01 -8.86043713215E-03 -1.00713276071E-02 -8.93870926001E-03 -1.02037660406E-02 -5.03360964900E-02 -1.47295779408E-01
1.53500000000E+09 -4.49989980178E-02 -1.55079712548E-01 -1.22046395118E-02 -7.70983712726E-03 -1.22756024288E-02 -7.66698471356E-03 -1.63158841699E-01 -1.67996452995E-01
1.54000000000E+09 -1.54734142605E-01 -1.57129257519E-01 -1.45831594693E-02 -3.43818446510E-03 -1.44481048953E-02 -3.45093797861E-03 -2.74005279988E-01 -1.64180797069E-01
1.54500000000E+09 -2.59906650055E-01 -1.34832875829E-01 -1.46751373453E-02 +1.80494451600E-03 -1.45289810757E-02 +1.53472571014E-03 -3.73746952997E-01 -1.39468122663E-01
1.55000000000E+09 -3.52722841400E-01 -9.23021270840E-02 -1.21089539558E-02 +5.90166828158E-03 -1.23258224812E-02 +5.42278307915E-03 -4.59432313257E-01 -1.00785448172E-01
1.55500000000E+09 -4.29163581994E-01 -3.83739608761E-02 -9.12767093692E-03 +8.25333728524E-03 -9.63084105733E-03 +8.10425165090E-03 -5.30671768609E-01 -5.28208695075E-02
1.56000000000E+09 -4.90977511087E-01 +1.99095338791E-02 -5.52200440365E-03 +9.53556622549E-03 -6.07511468084E-03 +9.78085684862E-03 -5.87381466804E-01 +1.54734181712E-03
1.56500000000E+09 -5.40719957022E-01 +8.02663602303E-02 -2.43886690360E-03 +8.78857894691E-03 -2.67704940621E-03 +9.30902624433E-03 -6.31626154940E-01 +5.71797547683E-02
1.57000000000E+09 -5.78897383303E-01 +1.39976923354E-01 -7.25215582438E-04 +7.63526218154E-03 -6.93792284573E-04 +8.10764720905E-03 -6.64910520937E-01 +1.12610362096E-01
