# Hz S RI R 50
! CMT, C1220, 16058040, 17.2.0/1
! Date: 14/08/2018 12:07:12
! Data: Format (Calibration Info)
! Freq                      S11: Re/Im (F2)                       S21: Re/Im (F2)                       S12: Re/Im (F2)                       S22: Re/Im (F2)            
1.00000000000E+09 -6.54162496604E-01 +7.09652423809E-01 -1.49894382456E-05 -1.17054160402E-05 -2.19270857996E-05 +3.22628856497E-05 -7.53566352643E-01 +6.25560368281E-01
1.00500000000E+09 -6.47308793786E-01 +7.14172839900E-01 -3.52853746464E-05 +1.51200324437E-05 +4.77065205858E-06 +2.25850848659E-06 -7.49861500909E-01 +6.29570416455E-01
1.01000000000E+09 -6.41786712725E-01 +7.18572141402E-01 +1.22912041236E-05 +2.31048800238E-05 -5.64624314693E-05 +2.47551852128E-05 -7.46158654019E-01 +6.33215424731E-01
1.01500000000E+09 -6.37466083857E-01 +7.22270967519E-01 -1.25504926246E-05 -2.84810231883E-05 -2.42459301253E-05 -2.92815523879E-06 -7.42957856714E-01 +6.37055448158E-01
1.02000000000E+09 -6.34685091227E-01 +7.25700291887E-01 -2.34739190170E-05 +2.74719112582E-05 -3.76637391211E-05 -9.56543909079E-06 -7.39535994851E-01 +6.40654568620E-01
1.02500000000E+09 -6.32581164069E-01 +7.28667155270E-01 -6.31935767178E-06 +2.75806580206E-05 -1.65206132327E-05 +1.48356067787E-05 -7.36489369021E-01 +6.44432569839E-01
1.03000000000E+09 -6.31248515591E-01 +7.31413523144E-01 -3.29748843637E-05 +3.29952773030E-06 -3.87973436713E-06 +1.81995564923E-06 -7.33119746909E-01 +6.48090202245E-01
1.03500000000E+09 -6.29018885453E-01 +7.34199616806E-01 -4.06850045047E-05 +2.62475269869E-05 -1.53808438800E-05 -7.78437539204E-05 -7.29202308957E-01 +6.52037421204E-01
1.04000000000E+09 -6.25788835917E-01 +7.37257367971E-01 -6.34131830808E-05 +1.22641270656E-05 -4.54118425827E-05 -1.18736941067E-05 -7.25427212219E-01 +6.55818454529E-01
1.04500000000E+09 -6.20921688909E-01 +7.40842919831E-01 -4.04207388604E-05 +8.22221864177E-06 -3.69802730164E-05 +2.62655882972E-05 -7.21919729678E-01 +6.59385220497E-01
1.05000000000E+09 -6.14281883419E-01 +7.44901131524E-01 -2.23789660218E-05 -2.46759519235E-05 +1.36878571697E-05 +1.36861417129E-05 -7.18630121677E-01 +6.62844284926E-01
1.05500000000E+09 -6.06531755194E-01 +7.49041948916E-01 +1.07223226657E-05 +2.38772542338E-05 -3.53525958353E-05 +2.13665364849E-05 -7.15184951217E-01 +6.66527560818E-01
1.06000000000E+09 -5.98317899768E-01 +7.53418852024E-01 -2.21754925471E-05 +2.22126276323E-05 -3.20299591812E-05 +1.42642680470E-05 -7.12153732675E-01 +6.70082885135E-01
1.06500000000E+09 -5.90328147693E-01 +7.57816876416E-01 -3.56686089039E-05 +5.83700914040E-05 +8.78735829109E-06 +1.00398219204E-04 -7.08357123187E-01 +6.73801287037E-01
1.07000000000E+09 -5.83558513988E-01 +7.61763438916E-01 -2.26185730825E-05 +2.45809403218E-05 -1.73102641520E-05 +6.93909160445E-05 -7.04334607178E-01 +6.77654392286E-01
1.07500000000E+09 -5.78132255375E-01 +7.65374095356E-01 +2.58992874957E-06 +6.02635331699E-05 +8.96586013138E-06 +6.49008671761E-05 -6.99986874544E-01 +6.81178111739E-01
1.08000000000E+09 -5.74236196736E-01 +7.68804478040E-01 -3.85170693463E-05 +1.87185469624E-05 -3.01877455702E-05 +8.32075304235E-05 -6.95897943883E-01 +6.85163493197E-01
1.08500000000E+09 -5.71521703228E-01 +7.71755913758E-01 +1.48831124672E-05 +7.32404407076E-05 -1.27979785258E-06 -1.08115419896E-05 -6.91930270559E-01 +6.88924181976E-01
1.09000000000E+09 -5.69307821214E-01 +7.74330441268E-01 +1.29797620344E-05 +1.35506758261E-05 +2.85859098422E-05 +6.53866126717E-05 -6.88166368506E-01 +6.92757801945E-01
1.09500000000E+09 -5.67110260194E-01 +7.76996635951E-01 +8.92708017768E-06 +5.03356728166E-05 -3.45362006949E-05 +4.97283761942E-05 -6.84328610645E-01 +6.96697019315E-01
1.10000000000E+09 -5.63799644905E-01 +7.79607710750E-01 +3.43197729399E-05 -4.25225156761E-06 +1.13759315978E-05 +6.41340304421E-05 -6.80432172907E-01 +7.00503497573E-01
1.10500000000E+09 -5.59373209326E-01 +7.82649596400E-01 +7.13826908719E-06 +5.23189229960E-05 +1.36404427620E-05 +5.12105581936E-05 -6.76174142773E-01 +7.04112751656E-01
1.11000000000E+09 -5.53381293914E-01 +7.85843600637E-01 +4.38686729567E-05 +3.51933156014E-05 +1.62389464948E-05 +4.04843102291E-05 -6.71864746513E-01 +7.07487594618E-01
1.11500000000E+09 -5.46280229215E-01 +7.89471572798E-01 +4.26263250204E-07 +4.60436769844E-05 -5.59514736430E-07 +3.83410620540E-05 -6.67809203912E-01 +7.10829422056E-01
1.12000000000E+09 -5.38746991951E-01 +7.92968574078E-01 +5.75420397962E-05 +5.56332574722E-05 +8.46642598794E-05 +9.21891244161E-06 -6.63720279343E-01 +7.14465131584E-01
1.12500000000E+09 -5.31082110742E-01 +7.96595741084E-01 +4.48802304547E-06 +3.20301339369E-05 +4.32524553620E-05 +8.84039213518E-05 -6.59398589952E-01 +7.18516426671E-01
1.13000000000E+09 -5.24433815989E-01 +8.00123527397E-01 +2.03769359468E-07 +5.20446418396E-05 +2.95943681697E-05 +4.07555593063E-05 -6.55157629955E-01 +7.22202288129E-01
1.13500000000E+09 -5.18763317612E-01 +8.03075804476E-01 +5.51598719668E-05 +1.00426312794E-05 +1.61376738386E-05 +3.52484582509E-05 -6.50626900465E-01 +7.26096624656E-01
1.14000000000E+09 -5.14125542003E-01 +8.05948831167E-01 +3.04909502910E-06 +3.55726808653E-05 +8.26322612445E-05 +5.37805586266E-05 -6.45826632039E-01 +7.29444302948E-01
1.14500000000E+09 -5.10508301663E-01 +8.08278124369E-01 +5.63233477497E-05 +2.80738765172E-05 +7.22870758758E-05 +1.04722939763E-05 -6.41266194408E-01 +7.32956388915E-01
1.15000000000E+09 -5.06788991046E-01 +8.10627017507E-01 +8.14465184575E-05 +5.68799003592E-05 +4.87765699400E-05 +5.55448039727E-05 -6.36490600992E-01 +7.36822009183E-01
1.15500000000E+09 -5.03296598329E-01 +8.12967149192E-01 +5.10973650109E-05 +2.74050934414E-05 +2.97767267392E-05 +3.76859994294E-05 -6.31701529201E-01 +7.40492932758E-01
1.16000000000E+09 -4.98830077213E-01 +8.15385212728E-01 +5.57387706295E-05 +4.64932191916E-05 +7.71931153286E-05 +2.73033047629E-05 -6.26928227036E-01 +7.44370043420E-01
1.16500000000E+09 -4.93214808859E-01 +8.18279322872E-01 +2.91191243346E-05 +4.79279967651E-05 +4.54512598713E-05 +3.77064555583E-05 -6.21725875356E-01 +7.48082303839E-01
1.17000000000E+09 -4.86271524358E-01 +8.21380290673E-01 +1.32740961184E-04 +2.77196718908E-05 +9.22663171959E-05 -4.33073572855E-06 -6.16431604536E-01 +7.51354222105E-01
1.17500000000E+09 -4.78552391235E-01 +8.24271140883E-01 +1.13292174440E-04 +4.19269777883E-05 +1.27602642888E-04 +2.94922750317E-05 -6.10628029828E-01 +7.54605955771E-01
1.18000000000E+09 -4.70713485722E-01 +8.27487497948E-01 +9.65042267320E-05 +2.56225864532E-05 +9.79562439916E-05 +1.82014657248E-05 -6.05022941666E-01 +7.57632485249E-01
1.18500000000E+09 -4.62682483300E-01 +8.30361065905E-01 +5.77839134227E-05 +3.59989000675E-05 +1.00823199250E-04 +1.28340642813E-05 -5.98996133658E-01 +7.60680899759E-01
1.19000000000E+09 -4.55776703401E-01 +8.32874575556E-01 +1.60294173999E-04 +3.00229552960E-05 +1.76673186701E-04 +5.61812690067E-05 -5.92708919762E-01 +7.63462886019E-01
1.19500000000E+09 -4.49774651318E-01 +8.34923752867E-01 +2.02567891743E-04 -5.60414574095E-06 +2.35154376070E-04 +2.55999170425E-05 -5.86841313003E-01 +7.64642571496E-01
1.20000000000E+09 -4.45076060385E-01 +8.36464696324E-01 +1.90098287795E-04 -1.15772297709E-04 +1.94940636654E-04 -5.79327228474E-05 -5.82295951246E-01 +7.64731036241E-01
1.20500000000E+09 -4.41020012565E-01 +8.38235968736E-01 +1.63720021316E-04 -1.49967808412E-04 +1.44434974786E-04 -1.40235615590E-04 -5.80204765158E-01 +7.65554806006E-01
1.21000000000E+09 -4.36967516416E-01 +8.40255143275E-01 +1.08958572500E-04 -1.37051149384E-04 +1.34515935411E-04 -1.16715431047E-04 -5.78288840089E-01 +7.68541522070E-01
1.21500000000E+09 -4.31592396471E-01 +8.42660110900E-01 +1.37511046741E-04 -1.16237270823E-04 +1.22104176249E-04 -9.39432560288E-05 -5.75444359643E-01 +7.73277525276E-01
1.22000000000E+09 -4.25022382133E-01 +8.45117212005E-01 +7.41093036361E-05 -1.30279593838E-04 +1.19419450142E-04 -8.89388597543E-05 -5.71393492305E-01 +7.78534603231E-01
1.22500000000E+09 -4.16983080638E-01 +8.47927627816E-01 +1.00182013318E-04 -1.55230303363E-04 +9.20959126066E-05 -1.57176635161E-04 -5.66305133617E-01 +7.83601032345E-01
1.23000000000E+09 -4.07666304188E-01 +8.50966968980E-01 +9.64615986435E-05 -1.19182652388E-04 +8.41493507502E-05 -1.41599909717E-04 -5.60547147165E-01 +7.88401219912E-01
1.23500000000E+09 -3.97681279035E-01 +8.54102099340E-01 +1.06045548901E-04 -1.33269726043E-04 +9.73064551038E-05 -1.66254578036E-04 -5.54676809275E-01 +7.92859828153E-01
1.24000000000E+09 -3.87540653840E-01 +8.57465949787E-01 +1.17497041207E-04 -2.00042101078E-04 +1.63568542854E-04 -1.58878318673E-04 -5.48572320195E-01 +7.96638951189E-01
1.24500000000E+09 -3.78110237399E-01 +8.60838330665E-01 +1.22815342741E-04 -2.05474525603E-04 +1.14555110903E-04 -1.97071674299E-04 -5.42229034254E-01 +8.00405066215E-01
1.25000000000E+09 -3.69611350453E-01 +8.63985105007E-01 +1.02755733739E-04 -2.70472374635E-04 +1.09169279216E-04 -2.70691068839E-04 -5.35676957623E-01 +8.04749408456E-01
1.25500000000E+09 -3.62478465687E-01 +8.66597823791E-01 +2.10408308355E-05 -2.79729299140E-04 +5.76544224168E-05 -3.29663091810E-04 -5.28746350751E-01 +8.08695672734E-01
1.26000000000E+09 -3.56317048835E-01 +8.69021220757E-01 -1.36233137139E-05 -2.66869824957E-04 +3.64302474644E-05 -2.83791787178E-04 -5.22015221657E-01 +8.12955202505E-01
1.26500000000E+09 -3.50787870546E-01 +8.71130854166E-01 -2.59969759470E-05 -2.68173118229E-04 -3.79295329194E-06 -3.01180743974E-04 -5.15126253555E-01 +8.16862556947E-01
1.27000000000E+09 -3.45125467537E-01 +8.73451723184E-01 -8.76666070645E-05 -2.95326248093E-04 -9.35713415932E-05 -3.13644095635E-04 -5.08296586280E-01 +8.20697358693E-01
1.27500000000E+09 -3.38591009145E-01 +8.75523642560E-01 -8.14534904517E-05 -3.10637910879E-04 -6.51283586419E-05 -3.34027890295E-04 -5.01132372166E-01 +8.24281249029E-01
1.28000000000E+09 -3.30672439936E-01 +8.77990791559E-01 -1.19194764846E-04 -3.14160064984E-04 -1.08141336025E-04 -3.37122454665E-04 -4.94251671786E-01 +8.27726553212E-01
1.28500000000E+09 -3.20932718343E-01 +8.80424364399E-01 -1.68526462519E-04 -2.66093780038E-04 -1.79600173998E-04 -2.87854740073E-04 -4.86779503324E-01 +8.31399546736E-01
1.29000000000E+09 -3.10215850430E-01 +8.82890614688E-01 -1.71452503081E-04 -2.72125817408E-04 -2.41513867164E-04 -3.30412641478E-04 -4.79160154247E-01 +8.35121027938E-01
1.29500000000E+09 -2.98731452237E-01 +8.85624451322E-01 -2.01462851046E-04 -2.71451374177E-04 -2.72293155040E-04 -2.89552422158E-04 -4.71250892326E-01 +8.38780938151E-01
1.30000000000E+09 -2.87220628420E-01 +8.88257446131E-01 -2.76367708914E-04 -3.14589237296E-04 -2.94729473070E-04 -2.46360775049E-04 -4.63502740206E-01 +8.42310376889E-01
1.30500000000E+09 -2.76676024652E-01 +8.90723954902E-01 -3.21451568067E-04 -2.25222195530E-04 -3.53306777218E-04 -2.32432151125E-04 -4.55290618015E-01 +8.45900394434E-01
1.31000000000E+09 -2.67205831625E-01 +8.92742797255E-01 -4.30599794872E-04 -2.05826965854E-04 -3.74079976634E-04 -1.69317267689E-04 -4.46926267606E-01 +8.49251524575E-01
1.31500000000E+09 -2.59238500524E-01 +8.94771507693E-01 -3.45177319323E-04 -1.14972594618E-04 -3.72496103685E-04 -1.39341451930E-04 -4.38150592702E-01 +8.52583869069E-01
1.32000000000E+09 -2.52457037962E-01 +8.96344251740E-01 -3.71583928979E-04 -1.25836796123E-04 -3.23529031615E-04 -1.48178071438E-04 -4.28991312914E-01 +8.55891604264E-01
1.32500000000E+09 -2.45861259713E-01 +8.97571257174E-01 -3.98822576443E-04 -1.44105194013E-04 -4.45606308876E-04 -1.22005691762E-04 -4.19368694101E-01 +8.59452598967E-01
1.33000000000E+09 -2.38591205168E-01 +8.98762069051E-01 -4.59183322930E-04 -9.14873550563E-05 -4.89237668506E-04 -1.31647809876E-05 -4.09601684412E-01 +8.62685657016E-01
1.33500000000E+09 -2.29845244709E-01 +8.99508019997E-01 -4.99066764556E-04 -4.94826043364E-05 -4.98793995122E-04 -1.10166740475E-05 -3.99810545411E-01 +8.65969419726E-01
1.34000000000E+09 -2.18949020840E-01 +9.00144697089E-01 -5.22052470226E-04 +3.25169707796E-05 -5.23737371975E-04 +7.72723592444E-05 -3.89494777908E-01 +8.69316728932E-01
1.34500000000E+09 -2.05814085484E-01 +9.00333889003E-01 -4.83760329391E-04 +1.43071353960E-04 -4.39027809148E-04 +1.01832124493E-04 -3.78512410832E-01 +8.72657545744E-01
1.35000000000E+09 -1.90953505777E-01 +9.00317823761E-01 -4.76616614871E-04 +1.29438467813E-04 -4.55235259359E-04 +8.92574036004E-05 -3.67376540644E-01 +8.75575375024E-01
1.35500000000E+09 -1.74893080302E-01 +9.00345662176E-01 -5.02752663362E-04 +1.16913226313E-04 -4.70154119843E-04 +1.51252010874E-04 -3.55625031609E-01 +8.78420476334E-01
1.36000000000E+09 -1.58909170931E-01 +9.00393833204E-01 -5.10136593807E-04 +1.72140035544E-04 -4.51574300775E-04 +1.73652176763E-04 -3.43961475047E-01 +8.81173776097E-01
1.36500000000E+09 -1.43209627971E-01 +9.00633328361E-01 -5.58637313924E-04 +1.99473966517E-04 -5.15566789931E-04 +2.32823541706E-04 -3.31675687745E-01 +8.83616470829E-01
1.37000000000E+09 -1.28652361025E-01 +9.00715141774E-01 -6.21314228187E-04 +2.28104036087E-04 -5.79836717267E-04 +1.94359882640E-04 -3.18872900027E-01 +8.86048141934E-01
1.37500000000E+09 -1.15280735743E-01 +9.00707365583E-01 -6.60285226365E-04 +3.74024122883E-04 -6.85246059217E-04 +2.81787699245E-04 -3.05121958211E-01 +8.88268592001E-01
1.38000000000E+09 -1.03100208197E-01 +9.00585515084E-01 -5.94699942164E-04 +5.83884240982E-04 -7.14520259156E-04 +5.05178407945E-04 -2.90590480793E-01 +8.90352323715E-01
1.38500000000E+09 -9.07839339820E-02 +9.00038379751E-01 -4.87263654667E-04 +6.39092903387E-04 -6.18178366666E-04 +6.65928934398E-04 -2.75192571285E-01 +8.92253300037E-01
1.39000000000E+09 -7.80004592479E-02 +8.98909226172E-01 -4.43921787182E-04 +6.46040208005E-04 -4.97410429493E-04 +7.45922558962E-04 -2.59171211092E-01 +8.93810881445E-01
1.39500000000E+09 -6.37090266507E-02 +8.97114152839E-01 -4.80539899576E-04 +6.70452046258E-04 -4.68011891701E-04 +6.82168899606E-04 -2.42380531788E-01 +8.94453993952E-01
1.40000000000E+09 -4.69700284134E-02 +8.94110949671E-01 -5.15636577417E-04 +7.43538183789E-04 -4.47966070565E-04 +8.01842271814E-04 -2.24687828986E-01 +8.95037712298E-01
1.40500000000E+09 -2.85407082064E-02 +8.90068433708E-01 -5.28140835879E-04 +8.45990840697E-04 -4.89694783102E-04 +8.61815917822E-04 -2.06097072563E-01 +8.94872890315E-01
1.41000000000E+09 -8.23673744405E-03 +8.84742066800E-01 -4.45974364238E-04 +1.05605372969E-03 -4.55458324219E-04 +1.06450061328E-03 -1.85964072560E-01 +8.94216962532E-01
1.41500000000E+09 +1.30408868662E-02 +8.78504697125E-01 -3.22405860602E-04 +1.14102943522E-03 -3.92380120512E-04 +1.20799878070E-03 -1.64235805072E-01 +8.92859815814E-01
1.42000000000E+09 +3.47489742323E-02 +8.71912855381E-01 -2.47145908361E-04 +1.19438426497E-03 -2.89754823000E-04 +1.32175167066E-03 -1.41430684046E-01 +8.90432093706E-01
1.42500000000E+09 +5.64331341295E-02 +8.64677415199E-01 -2.01534938003E-04 +1.35420295679E-03 -1.86011957990E-04 +1.50132359198E-03 -1.17559408227E-01 +8.86793135024E-01
1.43000000000E+09 +7.79701211575E-02 +8.56811286239E-01 -7.82345374916E-05 +1.54740848101E-03 +4.30298583822E-05 +1.71544427963E-03 -9.25925751602E-02 +8.82000394210E-01
1.43500000000E+09 +9.97521552583E-02 +8.47799772351E-01 +1.50129106197E-04 +1.70613348926E-03 +3.49259493128E-04 +1.77960669472E-03 -6.61979164943E-02 +8.75340972574E-01
1.44000000000E+09 +1.21995280697E-01 +8.37395677007E-01 +3.54562417635E-04 +1.75207467404E-03 +4.67991978366E-04 +1.73618866567E-03 -3.80776151740E-02 +8.66683404466E-01
1.44500000000E+09 +1.45901750407E-01 +8.24489415377E-01 +4.59746448058E-04 +1.88313846213E-03 +5.76067689198E-04 +1.88965738165E-03 -7.80601143388E-03 +8.55344487313E-01
1.45000000000E+09 +1.71476340092E-01 +8.08078664181E-01 +6.32212501288E-04 +2.19154370898E-03 +8.02352368402E-04 +2.21906590140E-03 +2.41287263482E-02 +8.40587136275E-01
1.45500000000E+09 +1.98906500551E-01 +7.87985758160E-01 +1.02052583613E-03 +2.54548532336E-03 +1.27722794195E-03 +2.42937933137E-03 +5.74766146632E-02 +8.23029693524E-01
1.46000000000E+09 +2.28951415695E-01 +7.63164981454E-01 +1.67295773231E-03 +2.84618486153E-03 +1.87908973094E-03 +2.54571521408E-03 +9.22625437225E-02 +8.01564522482E-01
1.46500000000E+09 +2.60600080650E-01 +7.32911972248E-01 +2.42853808557E-03 +2.97558135385E-03 +2.43188585110E-03 +2.53610249036E-03 +1.28838155424E-01 +7.74831499649E-01
1.47000000000E+09 +2.92685883929E-01 +6.97186927232E-01 +3.48485046469E-03 +2.86264311789E-03 +3.16308991182E-03 +2.60786777048E-03 +1.66236236284E-01 +7.41100530097E-01
1.47500000000E+09 +3.24388967350E-01 +6.55088330177E-01 +4.48259732018E-03 +2.40053317363E-03 +4.18880055211E-03 +2.40589076759E-03 +2.03341758977E-01 +7.00075908861E-01
1.48000000000E+09 +3.53261083932E-01 +6.06619121579E-01 +5.38943422852E-03 +1.88810434376E-03 +5.38640611095E-03 +2.02771528856E-03 +2.40173053095E-01 +6.51234571266E-01
1.48500000000E+09 +3.78372673184E-01 +5.52125731343E-01 +6.36223471686E-03 +9.39589016844E-04 +6.54012013221E-03 +8.32450352037E-04 +2.75110647348E-01 +5.92247094197E-01
1.49000000000E+09 +3.98374241389E-01 +4.90030293053E-01 +7.42897127907E-03 -1.43832513487E-04 +7.38929484436E-03 -5.43926247331E-04 +3.03843915785E-01 +5.22261228057E-01
1.49500000000E+09 +4.11308556865E-01 +4.19828236824E-01 +8.46671822726E-03 -2.07679190330E-03 +8.06209304497E-03 -2.26763499430E-03 +3.22721291701E-01 +4.42204836130E-01
1.50000000000E+09 +4.13791670418E-01 +3.40262716792E-01 +9.31393304385E-03 -4.53900125264E-03 +8.78484734743E-03 -4.26185848556E-03 +3.29511203445E-01 +3.52902055183E-01
1.50500000000E+09 +4.02878926138E-01 +2.53203700226E-01 +8.83167200237E-03 -8.36525244660E-03 +8.73346908641E-03 -7.76332471396E-03 +3.18559177077E-01 +2.54157734241E-01
1.51000000000E+09 +3.74592562877E-01 +1.60044025790E-01 +6.10971478179E-03 -1.19177125190E-02 +6.55472892627E-03 -1.15077192862E-02 +2.85754697500E-01 +1.52092397984E-01
1.51500000000E+09 +3.25368790506E-01 +6.75862109868E-02 +2.52421616899E-03 -1.37949948638E-02 +2.95836777924E-03 -1.37843356049E-02 +2.30666944892E-01 +5.42005437510E-02
1.52000000000E+09 +2.56116962690E-01 -1.65545507706E-02 -1.97211476581E-03 -1.45816520791E-02 -1.75276080746E-03 -1.48653499144E-02 +1.53831908146E-01 -3.35984044332E-02
1.52500000000E+09 +1.69053626624E-01 -8.80212438314E-02 -5.91636443373E-03 -1.30521657608E-02 -5.82667251131E-03 -1.33167682292E-02 +5.71733110985E-02 -1.03173341820E-01
1.53000000000E+09 +6.69231192506E-02 -1.39240177691E-01 -8.85680926748E-03 -1.19349904474E-02 -8.96482341264E-03 -1.21455111392E-02 -5.21128919300E-02 -1.48616872750E-01
1.53500000000E+09 -4.35568960325E-02 -1.66778775601E-01 -1.24579444233E-02 -9.22993406528E-03 -1.25763041861E-02 -9.33811782519E-03 -1.65270558949E-01 -1.68513348811E-01
1.54000000000E+09 -1.56492577947E-01 -1.68439974400E-01 -1.51587480252E-02 -5.30981993838E-03 -1.50973974484E-02 -5.33479324050E-03 -2.76429581372E-01 -1.64103903458E-01
1.54500000000E+09 -2.64373778297E-01 -1.44929642418E-01 -1.61133352496E-02 +2.92779800658E-04 -1.60207602535E-02 -9.41009552323E-06 -3.76151551278E-01 -1.38252955000E-01
1.55000000000E+09 -3.59222915988E-01 -1.00781643312E-01 -1.38016307406E-02 +5.01547291759E-03 -1.40189821399E-02 +4.57469884228E-03 -4.61218265047E-01 -9.85934197794E-02
1.55500000000E+09 -4.37070320028E-01 -4.42057496535E-02 -1.06384622607E-02 +7.97868865271E-03 -1.13136823078E-02 +7.78499867479E-03 -5.31271810778E-01 -5.00054544584E-02
1.56000000000E+09 -4.98763256914E-01 +1.63853032970E-02 -7.05475781058E-03 +9.53643629527E-03 -7.77509784092E-03 +9.79049975866E-03 -5.86911643254E-01 +4.14647312402E-03
1.56500000000E+09 -5.48505733142E-01 +7.80696554170E-02 -3.79106789432E-03 +9.25914324865E-03 -4.21726224222E-03 +9.81797034678E-03 -6.30335014374E-01 +5.92533056803E-02
1.57000000000E+09 -5.86454033387E-01 +1.39270253470E-01 -1.70332212400E-03 +8.23144061900E-03 -1.67149388540E-03 +8.86289719577E-03 -6.63206901036E-01 +1.13981718733E-01
