# Hz S RI R 50
! CMT, C1220, 16058040, 17.2.0/1
! Date: 14/08/2018 12:05:24
! Data: Format (Calibration Info)
! Freq                      S11: Re/Im (F2)                       S21: Re/Im (F2)                       S12: Re/Im (F2)                       S22: Re/Im (F2)            
1.00000000000E+09 -6.54190789184E-01 +7.09967146094E-01 -3.25110398222E-05 +1.24097689739E-05 +8.30946947205E-07 -2.13026717559E-05 -7.53530190026E-01 +6.25763792271E-01
1.00500000000E+09 -6.47324930401E-01 +7.14466116776E-01 -1.43039468388E-05 -3.06982427828E-05 -4.91199378561E-06 +8.48576806896E-06 -7.49961618547E-01 +6.29942579574E-01
1.01000000000E+09 -6.41582375640E-01 +7.18679631306E-01 +8.77837679640E-06 -1.66116570323E-05 +1.05296762160E-05 +1.81947429346E-05 -7.46339535550E-01 +6.33620952383E-01
1.01500000000E+09 -6.37437819298E-01 +7.22546918253E-01 -3.32535197823E-05 -5.76335558204E-05 +3.64191042342E-07 +5.48506565997E-05 -7.42848287660E-01 +6.37363198387E-01
1.02000000000E+09 -6.34619066880E-01 +7.25872103525E-01 -7.90058163516E-05 -4.18382427455E-06 +3.79728666614E-05 -7.51885373239E-06 -7.39559217358E-01 +6.40857349187E-01
1.02500000000E+09 -6.32685336407E-01 +7.28771796827E-01 -1.85510774802E-05 +6.10286477870E-05 -1.15390876972E-05 -3.26509918138E-06 -7.36623133095E-01 +6.44559074782E-01
1.03000000000E+09 -6.31142279579E-01 +7.31660723246E-01 +7.93282158719E-07 +1.33561066444E-06 +3.23248248491E-05 +2.70141673438E-05 -7.33107205073E-01 +6.48477180672E-01
1.03500000000E+09 -6.28932782419E-01 +7.34417417177E-01 -1.83826341500E-05 +2.09872499417E-06 +2.43929143940E-06 +2.22377013884E-05 -7.29359506023E-01 +6.52463022796E-01
1.04000000000E+09 -6.25616566510E-01 +7.37393252285E-01 -7.42634127959E-05 +2.75195106269E-06 +9.69449955210E-06 -2.67782075898E-06 -7.25386667430E-01 +6.56214457108E-01
1.04500000000E+09 -6.20648716599E-01 +7.41035259040E-01 -3.68296080608E-05 +5.12538964168E-05 -6.37401266602E-05 +4.83274181027E-05 -7.21932294049E-01 +6.59822162367E-01
1.05000000000E+09 -6.13923717255E-01 +7.45050880327E-01 -2.39664811699E-05 +1.10122425496E-05 +6.39229945325E-06 -2.69690697364E-05 -7.18391529027E-01 +6.63047113412E-01
1.05500000000E+09 -6.06387796366E-01 +7.49300121696E-01 -8.15144615725E-05 -2.89135593116E-05 -4.43356501692E-05 +4.54257459019E-05 -7.15222655684E-01 +6.66753681068E-01
1.06000000000E+09 -5.97919412915E-01 +7.53706509148E-01 -7.12196600550E-06 +2.97735963223E-05 +8.52149215450E-06 -8.24930381120E-06 -7.11951826516E-01 +6.70443581812E-01
1.06500000000E+09 -5.90017838350E-01 +7.58216495621E-01 -2.52656138461E-05 +6.85369087529E-05 +1.39071122695E-05 -2.80688259670E-06 -7.08233695790E-01 +6.74101244460E-01
1.07000000000E+09 -5.83068065408E-01 +7.61997906986E-01 -6.08040432922E-06 +5.62397132351E-05 +1.20920005411E-06 +5.88347537044E-05 -7.04223070649E-01 +6.77978995639E-01
1.07500000000E+09 -5.77766942305E-01 +7.65774215151E-01 -1.86775974898E-05 +8.43268183935E-05 +2.18372710527E-05 +2.10793066009E-05 -6.99880011582E-01 +6.81552370972E-01
1.08000000000E+09 -5.73820118716E-01 +7.69218530897E-01 +3.53993871141E-05 +3.31261393833E-05 +2.71091428884E-05 +1.20349203736E-05 -6.95995987410E-01 +6.85456302675E-01
1.08500000000E+09 -5.71108348965E-01 +7.72034418581E-01 +4.67355304754E-05 +3.76171880727E-05 +2.24931322122E-05 +2.47853548217E-05 -6.91950779918E-01 +6.89140509719E-01
1.09000000000E+09 -5.68852448185E-01 +7.74809426455E-01 +4.49564542098E-05 +8.00527430176E-05 +4.05547976248E-05 -3.54558590860E-07 -6.88033686830E-01 +6.93093283226E-01
1.09500000000E+09 -5.66739764780E-01 +7.77267573738E-01 -1.11816604252E-07 +3.73705613632E-05 +3.35737572502E-05 +1.43662258614E-05 -6.84290680765E-01 +6.96822164674E-01
1.10000000000E+09 -5.63389653138E-01 +7.79907654669E-01 +6.45963730998E-06 +6.40986819506E-05 +8.48580001930E-06 +5.31915718006E-05 -6.80306420800E-01 +7.00788909383E-01
1.10500000000E+09 -5.59090468434E-01 +7.82890064658E-01 +3.40227595655E-06 +4.23197683224E-05 +1.96207053165E-05 +3.47095040229E-05 -6.75944589065E-01 +7.04379708813E-01
1.11000000000E+09 -5.53046615517E-01 +7.86163129004E-01 -1.12830986785E-05 +6.24124460950E-05 -1.31681652113E-05 +2.54838992875E-05 -6.71836361548E-01 +7.07669007410E-01
1.11500000000E+09 -5.45913262232E-01 +7.89654813882E-01 +6.03425678169E-05 +8.20724691351E-05 -2.49237755524E-05 +4.70717712393E-05 -6.67468734698E-01 +7.11109009445E-01
1.12000000000E+09 -5.38569423686E-01 +7.93135389352E-01 +1.84547306763E-05 +6.61525398317E-05 +5.06572628171E-05 +5.16543265907E-05 -6.63457756632E-01 +7.14825918544E-01
1.12500000000E+09 -5.30936854624E-01 +7.96905786021E-01 +1.43691260161E-05 +5.81662188647E-05 +3.28694488174E-05 +1.86663982735E-05 -6.59222686459E-01 +7.18674462942E-01
1.13000000000E+09 -5.24271008757E-01 +8.00183055855E-01 +2.71511126538E-05 -2.99810868395E-05 +4.34784244244E-05 -8.65232243690E-06 -6.54986605101E-01 +7.22535792602E-01
1.13500000000E+09 -5.18480977163E-01 +8.03172304026E-01 +1.60999295347E-05 +3.50194911031E-06 +4.38230684447E-05 +3.11324096061E-05 -6.50489846959E-01 +7.26409211760E-01
1.14000000000E+09 -5.13886840592E-01 +8.06045397926E-01 +5.84409494187E-05 +5.39859390372E-05 +1.68870570479E-05 +7.52049595327E-05 -6.45819630795E-01 +7.29691024889E-01
1.14500000000E+09 -5.10175161734E-01 +8.08483270606E-01 +2.59511366121E-05 +4.51560617285E-05 +5.03176702881E-05 -1.18932345042E-05 -6.41025142414E-01 +7.33309619406E-01
1.15000000000E+09 -5.06583288795E-01 +8.10768228139E-01 +4.39234034707E-05 +3.29251901757E-05 +4.58775298139E-05 +7.95305754026E-05 -6.36444719239E-01 +7.37097787619E-01
1.15500000000E+09 -5.03070623201E-01 +8.13242401803E-01 +5.66452573442E-05 +1.43124858928E-05 +4.12938996186E-05 +4.14067634177E-05 -6.31750382226E-01 +7.40809813687E-01
1.16000000000E+09 -4.98604367285E-01 +8.15468514405E-01 +6.84190020044E-05 -2.97397146277E-05 +8.33840641385E-05 -2.08899285146E-05 -6.26718216841E-01 +7.44753022822E-01
1.16500000000E+09 -4.92840162234E-01 +8.18337928263E-01 +5.95623076602E-05 +4.33480404320E-05 +6.91466805879E-05 +5.38277054348E-06 -6.21754171296E-01 +7.48263536243E-01
1.17000000000E+09 -4.85928984697E-01 +8.21410384357E-01 +4.16429977554E-05 +3.99039026307E-05 +4.90978596374E-05 +3.07909857066E-05 -6.16186838529E-01 +7.51520512977E-01
1.17500000000E+09 -4.78230036116E-01 +8.24437965043E-01 +1.01101821740E-04 +4.89967909135E-05 +1.08804176375E-04 +3.05778609008E-06 -6.10351733224E-01 +7.54850635078E-01
1.18000000000E+09 -4.70265439505E-01 +8.27619389977E-01 +9.16730129317E-05 +1.12313464175E-05 +1.65941204655E-05 +4.22407658022E-05 -6.04882894478E-01 +7.58015354568E-01
1.18500000000E+09 -4.62328329905E-01 +8.30495335086E-01 +1.12360483797E-04 +4.59048283091E-05 +1.18984957862E-04 +6.40933023807E-05 -5.98935996232E-01 +7.60926232229E-01
1.19000000000E+09 -4.55212282064E-01 +8.33045920811E-01 +1.21247649792E-04 +2.27019660493E-05 +1.51334979457E-04 -1.89277585293E-05 -5.92802653851E-01 +7.63749602350E-01
1.19500000000E+09 -4.49468316584E-01 +8.35125855654E-01 +1.82343874095E-04 +1.23136346139E-06 +1.78330289383E-04 +7.70373706146E-06 -5.86754157883E-01 +7.64968030897E-01
1.20000000000E+09 -4.44588562089E-01 +8.36529340913E-01 +1.51423016231E-04 -7.50968334360E-05 +1.56474896971E-04 -9.42837766995E-05 -5.82255633952E-01 +7.65108657087E-01
1.20500000000E+09 -4.40485203108E-01 +8.38517536975E-01 +1.11724074516E-04 -1.18479315482E-04 +1.48854263560E-04 -1.52043741595E-04 -5.79995045569E-01 +7.65901750212E-01
1.21000000000E+09 -4.36257139039E-01 +8.40453004096E-01 +9.51151926855E-05 -1.21808229918E-04 +8.69563518697E-05 -1.33442196176E-04 -5.78074731654E-01 +7.68952504361E-01
1.21500000000E+09 -4.31070106871E-01 +8.42746426058E-01 +5.90311670285E-05 -1.45442661339E-04 +4.77005656925E-05 -8.98260644920E-05 -5.75394114152E-01 +7.73466173337E-01
1.22000000000E+09 -4.24529779801E-01 +8.45111233394E-01 +6.17601648360E-05 -1.06402901571E-04 +6.14625570452E-05 -7.93617415624E-05 -5.71128479939E-01 +7.78858866083E-01
1.22500000000E+09 -4.16537751353E-01 +8.47952092750E-01 +6.60770836585E-05 -1.05827313626E-04 +4.89349883419E-05 -7.74385984682E-05 -5.66004945604E-01 +7.83876730127E-01
1.23000000000E+09 -4.07140132487E-01 +8.50958886666E-01 +2.88537022634E-05 -1.24884966053E-04 +7.42624132284E-05 -8.56589194936E-05 -5.60430888125E-01 +7.88701516398E-01
1.23500000000E+09 -3.97199786904E-01 +8.54230504549E-01 +6.17915075692E-05 -1.07769642112E-04 +8.74533721339E-05 -1.36746008785E-04 -5.54415574971E-01 +7.92939795648E-01
1.24000000000E+09 -3.87052445082E-01 +8.57530389374E-01 +9.77845261776E-05 -1.72222522907E-04 +6.20508594732E-05 -1.33608041394E-04 -5.48513052564E-01 +7.96892451374E-01
1.24500000000E+09 -3.77531472317E-01 +8.61031065821E-01 +8.90319793877E-05 -1.36057935566E-04 +5.64406762727E-05 -1.66253905362E-04 -5.42163355268E-01 +8.00651537202E-01
1.25000000000E+09 -3.69020903763E-01 +8.64078579399E-01 +4.13043569682E-06 -2.79680983122E-04 +6.53950334236E-05 -2.33047096517E-04 -5.35542546178E-01 +8.04821159582E-01
1.25500000000E+09 -3.61816988775E-01 +8.66730442433E-01 +3.68107790103E-05 -2.69149516392E-04 +6.19464188498E-05 -2.05950941453E-04 -5.28580962431E-01 +8.08928213210E-01
1.26000000000E+09 -3.55723762283E-01 +8.69083832236E-01 -2.01001281666E-05 -2.19722791179E-04 -3.57040619233E-06 -2.22485322090E-04 -5.21893440842E-01 +8.13187644368E-01
1.26500000000E+09 -3.50215515903E-01 +8.71259965851E-01 -8.53521735466E-05 -2.46382281682E-04 -9.05263686709E-05 -2.33342184942E-04 -5.14891362211E-01 +8.17217553545E-01
1.27000000000E+09 -3.44573261997E-01 +8.73376208762E-01 -2.96424570585E-05 -2.42786231574E-04 -5.56142603662E-05 -2.67078649494E-04 -5.08040623244E-01 +8.20960931278E-01
1.27500000000E+09 -3.38042084007E-01 +8.75538166380E-01 -9.99209108970E-05 -2.08036227235E-04 -1.34870967074E-04 -2.48653583573E-04 -5.01165285867E-01 +8.24526195900E-01
1.28000000000E+09 -3.30124250398E-01 +8.77890377216E-01 -1.45776254782E-04 -2.44436360225E-04 -1.87625144320E-04 -2.48695603724E-04 -4.94128322672E-01 +8.27977200037E-01
1.28500000000E+09 -3.20306092852E-01 +8.80347387267E-01 -1.80994099072E-04 -1.81861134033E-04 -1.93040329097E-04 -2.20757426775E-04 -4.86779921514E-01 +8.31597856497E-01
1.29000000000E+09 -3.09538909965E-01 +8.82694482930E-01 -1.75516514655E-04 -1.78182499453E-04 -2.42456630190E-04 -2.87634601419E-04 -4.79158607216E-01 +8.35433792435E-01
1.29500000000E+09 -2.98179486952E-01 +8.85437757242E-01 -2.45039794497E-04 -1.83250664253E-04 -2.53760448855E-04 -2.00170253031E-04 -4.71231475113E-01 +8.38994615438E-01
1.30000000000E+09 -2.86663665350E-01 +8.88209662439E-01 -2.49688597365E-04 -2.00415577147E-04 -2.89322025819E-04 -1.60243605161E-04 -4.63232500960E-01 +8.42504826379E-01
1.30500000000E+09 -2.76037075577E-01 +8.90631596419E-01 -3.45034567200E-04 -1.89752922228E-04 -3.13708838921E-04 -1.38057086684E-04 -4.55240146514E-01 +8.45922544850E-01
1.31000000000E+09 -2.66605799129E-01 +8.92791453005E-01 -3.61560724343E-04 -1.10755482546E-04 -3.36040629196E-04 -8.24492305025E-05 -4.46860077390E-01 +8.49471623536E-01
1.31500000000E+09 -2.58564768500E-01 +8.94751241400E-01 -3.46081306497E-04 +1.97592480702E-05 -3.31888764556E-04 -4.65171402781E-05 -4.38069512329E-01 +8.52771900162E-01
1.32000000000E+09 -2.51631100207E-01 +8.96175153884E-01 -3.47208873276E-04 -9.51007058918E-07 -3.34539898614E-04 -3.56417230334E-05 -4.28930840201E-01 +8.56285981473E-01
1.32500000000E+09 -2.45152027320E-01 +8.97551265425E-01 -3.27705014613E-04 -1.84290364342E-05 -3.85907690267E-04 -5.34629549390E-06 -4.19207876277E-01 +8.59769799410E-01
1.33000000000E+09 -2.37848037118E-01 +8.98702722451E-01 -3.68700754972E-04 +3.79567245025E-05 -3.90312794080E-04 +4.66475150047E-05 -4.09540698223E-01 +8.62891189911E-01
1.33500000000E+09 -2.29066753268E-01 +8.99295382267E-01 -4.40952394181E-04 +7.21998948189E-05 -4.02083787185E-04 +8.08209654597E-05 -3.99580474487E-01 +8.66416063011E-01
1.34000000000E+09 -2.18170747615E-01 +9.00053380203E-01 -3.91178876815E-04 +1.30739665107E-04 -3.70275420169E-04 +1.70123745922E-04 -3.89384398357E-01 +8.69717114060E-01
1.34500000000E+09 -2.05056693243E-01 +9.00404308572E-01 -4.06365053984E-04 +2.14132677189E-04 -3.30809152935E-04 +1.55755652833E-04 -3.78464498469E-01 +8.73106264763E-01
1.35000000000E+09 -1.90205082742E-01 +9.00361498734E-01 -3.21547707013E-04 +2.27484812076E-04 -2.93238828812E-04 +1.86365625929E-04 -3.67413115901E-01 +8.76042238760E-01
1.35500000000E+09 -1.74103883283E-01 +9.00337109668E-01 -3.09500997146E-04 +2.40706580369E-04 -3.31744989520E-04 +2.33304871180E-04 -3.55511564094E-01 +8.78878712066E-01
1.36000000000E+09 -1.57922158469E-01 +9.00447613489E-01 -3.17496393154E-04 +2.49081408655E-04 -3.13263979245E-04 +2.02799048770E-04 -3.43611192558E-01 +8.81682727588E-01
1.36500000000E+09 -1.42352044211E-01 +9.00594125176E-01 -3.58789611411E-04 +2.86824184069E-04 -3.35582551786E-04 +3.17588637443E-04 -3.31333242641E-01 +8.84212568717E-01
1.37000000000E+09 -1.27768124010E-01 +9.00589796402E-01 -3.74109117628E-04 +3.12955428514E-04 -3.49473904042E-04 +2.88377979323E-04 -3.18648778625E-01 +8.86497637604E-01
1.37500000000E+09 -1.14688459333E-01 +9.00710231388E-01 -3.63760345921E-04 +3.84671400816E-04 -3.95029729145E-04 +3.82480053355E-04 -3.04841182729E-01 +8.88743395512E-01
1.38000000000E+09 -1.02260494066E-01 +9.00446017344E-01 -3.06459503622E-04 +5.41078240558E-04 -3.79138180299E-04 +4.90073983370E-04 -2.90256159032E-01 +8.90799564693E-01
1.38500000000E+09 -8.99597140096E-02 +8.99953780693E-01 -1.66225381322E-04 +5.57943542135E-04 -2.08095025850E-04 +5.70552841389E-04 -2.74785537165E-01 +8.92820142567E-01
1.39000000000E+09 -7.71712311706E-02 +8.98736867723E-01 -1.59664152758E-04 +5.36126378742E-04 -1.87224089784E-04 +5.83929594067E-04 -2.58637734966E-01 +8.94233972067E-01
1.39500000000E+09 -6.28377149250E-02 +8.96702608557E-01 -1.78936900211E-04 +5.01719492967E-04 -1.40924876604E-04 +6.29270043196E-04 -2.41863332485E-01 +8.94968575658E-01
1.40000000000E+09 -4.62861323055E-02 +8.93646489762E-01 -1.09297406510E-04 +5.93377202196E-04 -5.91050023243E-05 +6.17667481738E-04 -2.24219834362E-01 +8.95390234040E-01
1.40500000000E+09 -2.77996977588E-02 +8.89546074414E-01 -6.76817660069E-05 +6.13812807818E-04 -5.81911469169E-05 +6.35029643453E-04 -2.05626602714E-01 +8.95410099962E-01
1.41000000000E+09 -7.47285604431E-03 +8.84256685951E-01 -4.72330463178E-05 +6.64866086315E-04 -5.89165339549E-05 +6.97012163500E-04 -1.85453729688E-01 +8.94621121689E-01
1.41500000000E+09 +1.37880115623E-02 +8.78095805767E-01 +4.06478485974E-05 +6.77306280659E-04 +6.53516572678E-05 +7.08200123236E-04 -1.63727288623E-01 +8.93343612792E-01
1.42000000000E+09 +3.57566447982E-02 +8.71491750581E-01 +6.04844929297E-05 +6.84871199047E-04 -1.74220531097E-05 +7.44394704548E-04 -1.40762584805E-01 +8.90727380445E-01
1.42500000000E+09 +5.76139569970E-02 +8.63990387367E-01 +5.10298236186E-05 +8.31459881855E-04 +2.39239165432E-05 +9.68056314598E-04 -1.16914169053E-01 +8.87135723022E-01
1.43000000000E+09 +7.90659335345E-02 +8.56083240856E-01 +1.38131053391E-04 +1.00342561024E-03 +2.48608875421E-04 +1.04098129073E-03 -9.17420745071E-02 +8.82329244248E-01
1.43500000000E+09 +1.00921900700E-01 +8.47000338834E-01 +3.47465304321E-04 +1.04560637908E-03 +4.86395708101E-04 +1.06674765183E-03 -6.52247390772E-02 +8.75685576141E-01
1.44000000000E+09 +1.23160355370E-01 +8.36505675790E-01 +5.09363204491E-04 +9.81898054708E-04 +5.42205052401E-04 +9.29719670104E-04 -3.69619115208E-02 +8.67032351134E-01
1.44500000000E+09 +1.46977524923E-01 +8.23665287849E-01 +5.32475697998E-04 +9.19177110934E-04 +5.92046530800E-04 +8.61176971862E-04 -6.52761817309E-03 +8.55665393789E-01
1.45000000000E+09 +1.72664873953E-01 +8.07200163798E-01 +4.61650557824E-04 +1.12801343301E-03 +5.29589222426E-04 +1.11861673372E-03 +2.57547310261E-02 +8.40763973397E-01
1.45500000000E+09 +2.00281449957E-01 +7.86865774683E-01 +5.62467565012E-04 +1.40695662107E-03 +7.14212663678E-04 +1.34616949614E-03 +5.93193820268E-02 +8.22793873501E-01
1.46000000000E+09 +2.30207579984E-01 +7.61748057457E-01 +1.01862422591E-03 +1.70673151377E-03 +1.18638378431E-03 +1.50417548280E-03 +9.43483430405E-02 +8.00619037430E-01
1.46500000000E+09 +2.61582051734E-01 +7.31267468913E-01 +1.57896221085E-03 +1.75433095778E-03 +1.53268089472E-03 +1.53470016479E-03 +1.30791010742E-01 +7.73368117668E-01
1.47000000000E+09 +2.93551579563E-01 +6.95464211190E-01 +2.20489067286E-03 +1.75403395581E-03 +2.01314904509E-03 +1.57525847358E-03 +1.67942875374E-01 +7.38768132869E-01
1.47500000000E+09 +3.25170283843E-01 +6.53537219692E-01 +2.90964850272E-03 +1.62637816668E-03 +2.72547054815E-03 +1.61987475989E-03 +2.04308644060E-01 +6.97036039696E-01
1.48000000000E+09 +3.54495611891E-01 +6.04953400529E-01 +3.63870073987E-03 +1.10660885999E-03 +3.67076409881E-03 +1.23933273807E-03 +2.40313270573E-01 +6.47992313037E-01
1.48500000000E+09 +3.79655317891E-01 +5.49935445213E-01 +4.24552558139E-03 +4.98694799636E-04 +4.34191826210E-03 +4.43486618169E-04 +2.74757362870E-01 +5.88683252579E-01
1.49000000000E+09 +3.99404552787E-01 +4.87183006841E-01 +5.07845520650E-03 -2.59422512555E-04 +5.04688379292E-03 -4.98012164871E-04 +3.02555692959E-01 +5.18302472242E-01
1.49500000000E+09 +4.11622527945E-01 +4.16479117289E-01 +5.64129387298E-03 -1.64563711957E-03 +5.34257501792E-03 -1.80593836406E-03 +3.20035716136E-01 +4.37971386070E-01
1.50000000000E+09 +4.13091997754E-01 +3.36881127809E-01 +6.24240982243E-03 -2.91914578337E-03 +5.86261884843E-03 -2.75183137270E-03 +3.24477121244E-01 +3.49414482943E-01
1.50500000000E+09 +4.01649494154E-01 +2.50425274359E-01 +6.55181171429E-03 -5.89326158264E-03 +6.48191828119E-03 -5.37819237127E-03 +3.12278591422E-01 +2.52932834426E-01
1.51000000000E+09 +3.73233850153E-01 +1.57308772871E-01 +4.35798208899E-03 -9.13735292285E-03 +4.66664598681E-03 -8.85640007857E-03 +2.79318407570E-01 +1.53148576570E-01
1.51500000000E+09 +3.23492769964E-01 +6.43109565092E-02 +1.24062228881E-03 -1.03431887359E-02 +1.58157130677E-03 -1.04161800193E-02 +2.24768665477E-01 +5.74132728789E-02
1.52000000000E+09 +2.52532564356E-01 -1.99043315053E-02 -2.24828057170E-03 -1.07649770849E-02 -2.11835842317E-03 -1.08937173457E-02 +1.49412709062E-01 -2.83408128155E-02
1.52500000000E+09 +1.63950504888E-01 -8.99205828837E-02 -5.20765932349E-03 -9.10011839100E-03 -5.24473792584E-03 -9.21152119217E-03 +5.50677688900E-02 -9.72715018464E-02
1.53000000000E+09 +6.12941628709E-02 -1.39183875442E-01 -7.13103945592E-03 -8.16713001247E-03 -7.19334968085E-03 -8.27122529367E-03 -5.25000330926E-02 -1.42870839113E-01
1.53500000000E+09 -4.84333995521E-02 -1.64428163285E-01 -9.57204107820E-03 -6.04123694311E-03 -9.62713371584E-03 -6.06251026033E-03 -1.64293896917E-01 -1.63101734763E-01
1.54000000000E+09 -1.59641301796E-01 -1.65071703705E-01 -1.16890289851E-02 -3.25188968834E-03 -1.16499405811E-02 -3.29149403048E-03 -2.74066954138E-01 -1.59271079278E-01
1.54500000000E+09 -2.65911902891E-01 -1.41865104933E-01 -1.23907205704E-02 +1.56710346473E-03 -1.22959117641E-02 +1.30579819155E-03 -3.72484848156E-01 -1.34806171698E-01
1.55000000000E+09 -3.60172214793E-01 -9.84086794958E-02 -9.87523471930E-03 +5.18747629713E-03 -1.00410155268E-02 +4.79263960559E-03 -4.57318061367E-01 -9.69699122901E-02
1.55500000000E+09 -4.38337033406E-01 -4.17257471902E-02 -7.07914645098E-03 +6.98847087127E-03 -7.58703178794E-03 +6.83885966564E-03 -5.27967849863E-01 -4.95765263425E-02
1.56000000000E+09 -4.99428074916E-01 +1.93183870526E-02 -4.33735358571E-03 +7.83317576172E-03 -4.83109819053E-03 +8.07334177657E-03 -5.84573279854E-01 +4.04031100327E-03
1.56500000000E+09 -5.48371557025E-01 +8.11043590277E-02 -1.67915734431E-03 +7.42273684489E-03 -1.92206527952E-03 +7.83911754502E-03 -6.28615056906E-01 +5.90862265525E-02
1.57000000000E+09 -5.85260831453E-01 +1.41929488093E-01 +1.96372411135E-05 +6.32399460563E-03 +8.03674927598E-05 +6.76710866278E-03 -6.61576759446E-01 +1.14091498264E-01
