# Hz S RI R 50
! CMT, C1220, 16058040, 17.2.0/1
! Date: 14/08/2018 12:03:31
! Data: Format (Calibration Info)
! Freq                      S11: Re/Im (F2)                       S21: Re/Im (F2)                       S12: Re/Im (F2)                       S22: Re/Im (F2)            
1.00000000000E+09 -6.52557774682E-01 +7.09797362446E-01 -1.79047628776E-05 +2.68427383565E-05 +1.44801204403E-05 -4.85870394419E-06 -7.53491386466E-01 +6.25612985098E-01
1.00500000000E+09 -6.45571120529E-01 +7.14533497049E-01 -1.99085417595E-05 +2.75082691464E-05 -2.65189038523E-05 -1.45008282597E-05 -7.49860002197E-01 +6.29904234339E-01
1.01000000000E+09 -6.39872522498E-01 +7.18609402656E-01 +3.32712990486E-06 -2.44683621769E-05 -1.96665322384E-05 +1.96739572555E-06 -7.46164842200E-01 +6.33521847552E-01
1.01500000000E+09 -6.35673612257E-01 +7.22262426119E-01 -1.60972460329E-05 -2.33601852164E-05 +2.44288720045E-07 +6.14495675680E-06 -7.43059637382E-01 +6.37140463539E-01
1.02000000000E+09 -6.32903913683E-01 +7.25603002612E-01 -4.02460835486E-05 +4.71212144712E-05 -6.07794197747E-06 -1.63818229261E-05 -7.39571875341E-01 +6.40834226598E-01
1.02500000000E+09 -6.30984145924E-01 +7.28659989665E-01 +3.76754985773E-06 +1.02771688783E-05 +2.25624517489E-05 +3.33843296032E-05 -7.36478588259E-01 +6.44548392302E-01
1.03000000000E+09 -6.29509171862E-01 +7.31451752602E-01 -3.90743763138E-05 +2.00681186511E-05 +2.20361943452E-06 +9.71857104809E-06 -7.33045717196E-01 +6.48480767938E-01
1.03500000000E+09 -6.27271049115E-01 +7.34204634945E-01 -4.19274755626E-05 +3.55584817307E-05 -6.13353105325E-05 +3.09019213637E-05 -7.29361498091E-01 +6.52428448289E-01
1.04000000000E+09 -6.23819720979E-01 +7.37215017694E-01 -5.40623172413E-05 +3.12522704566E-05 +3.14493380732E-05 +3.04148381076E-05 -7.25688466579E-01 +6.55972199042E-01
1.04500000000E+09 -6.18971822743E-01 +7.40854457370E-01 -6.13317456429E-05 +9.66913692604E-06 -3.47484391457E-05 +2.15301645250E-05 -7.22048969512E-01 +6.59496139514E-01
1.05000000000E+09 -6.12269993153E-01 +7.44909698495E-01 -2.77046679916E-05 -4.95589713162E-06 -5.49700398650E-05 +2.58274457761E-05 -7.18530107457E-01 +6.62932672290E-01
1.05500000000E+09 -6.04344054956E-01 +7.49039732958E-01 -1.81917648371E-05 +5.86145834026E-05 -6.49456268240E-05 +4.70069274119E-05 -7.15165226432E-01 +6.66572154016E-01
1.06000000000E+09 -5.96023914342E-01 +7.53611523119E-01 -3.40319094732E-05 +5.48233965368E-05 -2.49425470911E-05 -6.80218898420E-06 -7.11941204298E-01 +6.70260461475E-01
1.06500000000E+09 -5.88087509212E-01 +7.57952318716E-01 +6.03079025987E-06 -3.55699985529E-06 +3.79939268671E-05 +2.64243897248E-05 -7.08260010757E-01 +6.74108535179E-01
1.07000000000E+09 -5.81144107675E-01 +7.61972950834E-01 -1.35241887288E-05 +1.07579810457E-04 -5.68951181343E-06 +7.11465551156E-05 -7.04311846525E-01 +6.77833559862E-01
1.07500000000E+09 -5.75676401530E-01 +7.65580320413E-01 -4.88084839829E-05 +3.97792354384E-05 -2.58094589127E-05 +1.97926824866E-05 -6.99984635995E-01 +6.81614579566E-01
1.08000000000E+09 -5.71832495503E-01 +7.68948330298E-01 -4.28400928231E-05 +2.67729560755E-05 -3.06445954686E-05 +9.11277021758E-05 -6.95990172232E-01 +6.85348000516E-01
1.08500000000E+09 -5.69164490253E-01 +7.71792876464E-01 -9.01746844135E-06 +4.07654697897E-05 +5.10746451575E-05 +6.21067662547E-05 -6.91979969170E-01 +6.89020519356E-01
1.09000000000E+09 -5.66903547039E-01 +7.74443235522E-01 -6.42289210047E-06 +7.48669581457E-06 +2.68407374639E-05 -1.29218513400E-05 -6.88005982348E-01 +6.92960510932E-01
1.09500000000E+09 -5.64983316403E-01 +7.77074360600E-01 -2.76060427413E-05 +4.54567487938E-05 +6.81251495350E-05 +3.54261673096E-05 -6.84272865722E-01 +6.96742135147E-01
1.10000000000E+09 -5.61399442044E-01 +7.79556115111E-01 -1.17910433553E-05 +6.01603033719E-05 +4.78884684555E-05 +3.30789597889E-05 -6.80273960504E-01 +7.00658605976E-01
1.10500000000E+09 -5.57111773373E-01 +7.82455274101E-01 +3.13599477085E-05 +5.16416061123E-05 +9.29424313371E-06 +5.03317807294E-05 -6.75913586885E-01 +7.04060228175E-01
1.11000000000E+09 -5.51242474232E-01 +7.85905400311E-01 +1.61984449424E-05 +2.55687409390E-05 +5.63396543324E-06 -2.47379360687E-06 -6.71652127438E-01 +7.07743507742E-01
1.11500000000E+09 -5.44008668419E-01 +7.89409677524E-01 +3.09543739184E-05 +4.88591561329E-05 +1.57124476414E-05 +7.12495680155E-05 -6.67605370146E-01 +7.11141112044E-01
1.12000000000E+09 -5.36432625560E-01 +7.92910969577E-01 +4.01427644465E-05 +3.56190047819E-06 +8.48531012760E-06 +1.37523768231E-05 -6.63450093746E-01 +7.14778684963E-01
1.12500000000E+09 -5.28832490082E-01 +7.96500387537E-01 -5.64084127985E-06 +5.64904060395E-05 -2.16798774649E-05 +8.51332214468E-05 -6.59330082239E-01 +7.18655465112E-01
1.13000000000E+09 -5.22148827502E-01 +7.99738023110E-01 +8.48282880941E-05 -1.42168454724E-05 -7.56791667471E-06 -1.68994194650E-06 -6.55043089449E-01 +7.22451134560E-01
1.13500000000E+09 -5.16354406156E-01 +8.02795113851E-01 +3.88061076479E-05 +7.25321184746E-05 +4.36011842582E-05 +5.92713667024E-05 -6.50486815967E-01 +7.26367215017E-01
1.14000000000E+09 -5.11719781175E-01 +8.05595318106E-01 +2.03085987128E-05 +5.15788457901E-05 +5.86828463711E-05 +5.73174932266E-05 -6.45740733689E-01 +7.29780956312E-01
1.14500000000E+09 -5.08182670127E-01 +8.08030525692E-01 +4.65624002760E-05 +4.67407678059E-05 +6.05995035438E-05 +3.61295630376E-05 -6.41164640544E-01 +7.33200604111E-01
1.15000000000E+09 -5.04581782811E-01 +8.10236123693E-01 +5.61427626728E-05 +4.21821974384E-05 +3.23974640190E-05 +1.64334784250E-06 -6.36400692014E-01 +7.37007288563E-01
1.15500000000E+09 -5.01053696773E-01 +8.12549056980E-01 +5.02801176016E-05 +3.54539441603E-05 +6.75958212521E-05 +3.74612085858E-05 -6.31578449700E-01 +7.40698911317E-01
1.16000000000E+09 -4.96399818426E-01 +8.14943089933E-01 +2.39280346910E-05 +3.71705482968E-05 +8.62079598813E-05 +8.23907971078E-05 -6.26719186375E-01 +7.44688792180E-01
1.16500000000E+09 -4.90718186164E-01 +8.17817898344E-01 +5.59796843639E-05 +5.22331615938E-05 +7.60558619124E-05 +8.18952296378E-05 -6.21707771410E-01 +7.48189938685E-01
1.17000000000E+09 -4.83776058796E-01 +8.20743799581E-01 +8.09141168837E-05 +6.25293200041E-05 +8.96064094815E-05 +2.74837768291E-05 -6.16257549639E-01 +7.51591187794E-01
1.17500000000E+09 -4.76114929541E-01 +8.23818800769E-01 +6.49884427831E-05 +8.58223246335E-05 +1.06370125199E-04 -1.39054086537E-05 -6.10618018218E-01 +7.54845586123E-01
1.18000000000E+09 -4.68048133839E-01 +8.26993371051E-01 +1.23329561131E-04 +3.45753114927E-05 +7.72589888698E-05 +7.05916217017E-05 -6.05068009481E-01 +7.57989834218E-01
1.18500000000E+09 -4.60079602513E-01 +8.29821006593E-01 +9.96959137628E-05 +5.67376859741E-05 +9.61165901252E-05 +8.51839345365E-05 -5.98908929600E-01 +7.60859076079E-01
1.19000000000E+09 -4.53010955186E-01 +8.32283596039E-01 +1.85462686704E-04 +5.42796576726E-05 +1.76333422687E-04 +5.21178402400E-05 -5.92667621507E-01 +7.63556245914E-01
1.19500000000E+09 -4.47070640586E-01 +8.34509326195E-01 +2.70400964483E-04 +1.68174735505E-05 +2.71893372691E-04 -1.33059833005E-05 -5.86765788976E-01 +7.64905829103E-01
1.20000000000E+09 -4.42407989292E-01 +8.35946919636E-01 +2.27687867624E-04 -8.68740971274E-05 +2.34450878161E-04 -8.07081716380E-05 -5.82273168598E-01 +7.65047114816E-01
1.20500000000E+09 -4.38274269319E-01 +8.37759271437E-01 +1.99824795140E-04 -1.31225338600E-04 +1.51864106025E-04 -1.58067904509E-04 -5.79996529413E-01 +7.65788704676E-01
1.21000000000E+09 -4.34202149518E-01 +8.39665220881E-01 +1.38548297647E-04 -1.62341447566E-04 +3.47334030970E-05 -1.60876425562E-04 -5.78225985852E-01 +7.68894630213E-01
1.21500000000E+09 -4.29017316971E-01 +8.41984133350E-01 +7.76081793076E-05 -1.49603977890E-04 +8.62356338029E-05 -1.63922454694E-04 -5.75618616719E-01 +7.73400079852E-01
1.22000000000E+09 -4.22312044589E-01 +8.44257747872E-01 +7.86008093099E-05 -1.24310461645E-04 +5.46105740696E-05 -1.51417482897E-04 -5.71308892058E-01 +7.78714769985E-01
1.22500000000E+09 -4.14234800816E-01 +8.47035703294E-01 +6.13368792414E-05 -1.12273079006E-04 +9.58269763429E-05 -1.39050616700E-04 -5.66035213295E-01 +7.83969117063E-01
1.23000000000E+09 -4.04950837561E-01 +8.50007348014E-01 +8.22725794212E-05 -8.48905841309E-05 +6.49888322267E-05 -1.53065773427E-04 -5.60367701139E-01 +7.88593483817E-01
1.23500000000E+09 -3.95020454379E-01 +8.53249797748E-01 +8.54077021192E-05 -1.03440460079E-04 +6.93373745601E-05 -1.74674239867E-04 -5.54503159193E-01 +7.92901411542E-01
1.24000000000E+09 -3.84764379903E-01 +8.56674321726E-01 +9.78808264416E-05 -1.58623830043E-04 +1.34289242609E-04 -1.24637652530E-04 -5.48482762553E-01 +7.96873563703E-01
1.24500000000E+09 -3.75337141581E-01 +8.60033636246E-01 +7.07819781089E-05 -2.42901476370E-04 +7.67490238044E-05 -1.85601734761E-04 -5.42100251534E-01 +8.00574982707E-01
1.25000000000E+09 -3.66832019333E-01 +8.63066159694E-01 +6.64289162287E-05 -2.15660967744E-04 +9.70467053901E-05 -2.48028188855E-04 -5.35537545206E-01 +8.04918087303E-01
1.25500000000E+09 -3.59540743652E-01 +8.65639704243E-01 +3.29032537977E-05 -2.66562390642E-04 +1.63388832867E-05 -2.86196344177E-04 -5.28559969336E-01 +8.08873742623E-01
1.26000000000E+09 -3.53455921056E-01 +8.67898058008E-01 -1.96099487159E-05 -2.69129418627E-04 -1.79113691995E-05 -2.77331578020E-04 -5.21877898528E-01 +8.13149268021E-01
1.26500000000E+09 -3.48031356333E-01 +8.70207610204E-01 -9.28298597283E-07 -2.56793335048E-04 +3.64714405251E-05 -2.52976059263E-04 -5.15035753012E-01 +8.17036980460E-01
1.27000000000E+09 -3.42303513709E-01 +8.72265886092E-01 -5.75110343697E-05 -2.80556280095E-04 -7.93453114646E-05 -2.62415229228E-04 -5.08104009734E-01 +8.20935446997E-01
1.27500000000E+09 -3.35929295603E-01 +8.74395017853E-01 -7.44318926793E-05 -2.66750382694E-04 -6.31583712478E-05 -2.31577360649E-04 -5.01083991241E-01 +8.24477369351E-01
1.28000000000E+09 -3.28003755967E-01 +8.76719442529E-01 -1.41313464815E-04 -2.49861509219E-04 -1.05106122310E-04 -3.07851415107E-04 -4.93947073068E-01 +8.28049244896E-01
1.28500000000E+09 -3.18259775151E-01 +8.78981463015E-01 -1.33460689705E-04 -2.51020159129E-04 -1.81225900633E-04 -2.72640539583E-04 -4.86555409084E-01 +8.31563702153E-01
1.29000000000E+09 -3.07448558881E-01 +8.81624145413E-01 -1.59098115354E-04 -2.39786657912E-04 -1.83152159895E-04 -2.80330584785E-04 -4.79054285319E-01 +8.35336585875E-01
1.29500000000E+09 -2.95981610973E-01 +8.84018441387E-01 -2.11868859804E-04 -2.49277723366E-04 -2.55948446278E-04 -2.33977511109E-04 -4.71186536368E-01 +8.38885901057E-01
1.30000000000E+09 -2.84327963845E-01 +8.86804171128E-01 -2.63323100978E-04 -2.60200005749E-04 -3.08539672129E-04 -1.95130216312E-04 -4.63366630910E-01 +8.42456169779E-01
1.30500000000E+09 -2.73698695695E-01 +8.89399395692E-01 -3.17841027305E-04 -2.44870459642E-04 -3.53641797432E-04 -1.91531962923E-04 -4.55273079419E-01 +8.45956928222E-01
1.31000000000E+09 -2.64139645173E-01 +8.91518464462E-01 -3.33243619881E-04 -1.43291317331E-04 -3.73318317801E-04 -1.61844204328E-04 -4.46893007151E-01 +8.49399351611E-01
1.31500000000E+09 -2.56111377863E-01 +8.93364756124E-01 -3.89709929331E-04 -1.06487104451E-04 -3.83329256512E-04 -1.03860564640E-04 -4.38024093382E-01 +8.52829618896E-01
1.32000000000E+09 -2.49186622412E-01 +8.95004447972E-01 -3.54876401319E-04 -1.15900020121E-04 -3.40738809357E-04 -1.10520590234E-04 -4.28964014286E-01 +8.56170452909E-01
1.32500000000E+09 -2.42733028231E-01 +8.96140438758E-01 -3.40534560555E-04 -8.65798925667E-05 -3.91789882290E-04 -9.92901888350E-05 -4.19174600355E-01 +8.59622523563E-01
1.33000000000E+09 -2.35585638234E-01 +8.97059695887E-01 -4.15950722016E-04 -4.78172189129E-05 -4.35355975470E-04 -1.33366286452E-05 -4.09591195959E-01 +8.62966990335E-01
1.33500000000E+09 -2.26807551358E-01 +8.97937576279E-01 -4.62583155888E-04 -5.28933946990E-05 -4.38988203729E-04 +4.62732447977E-06 -3.99654677433E-01 +8.66228049370E-01
1.34000000000E+09 -2.15990321562E-01 +8.98511636039E-01 -4.27931861715E-04 +4.72770992427E-05 -4.65385081115E-04 +9.04702231644E-05 -3.89335676391E-01 +8.69600348661E-01
1.34500000000E+09 -2.02895373188E-01 +8.98705697101E-01 -4.77744777260E-04 +1.16215379653E-04 -4.62629175787E-04 +8.84840595276E-05 -3.78493414302E-01 +8.73004951589E-01
1.35000000000E+09 -1.88176041781E-01 +8.98630344574E-01 -4.04120042201E-04 +1.42602056521E-04 -4.32837046840E-04 +1.27439546238E-04 -3.67123121219E-01 +8.75973193509E-01
1.35500000000E+09 -1.72065385484E-01 +8.98727514340E-01 -4.42765657211E-04 +1.90904459668E-04 -4.20240118745E-04 +1.76048556135E-04 -3.55430495936E-01 +8.78751000135E-01
1.36000000000E+09 -1.56056661423E-01 +8.98756655382E-01 -4.76880253412E-04 +1.56255171446E-04 -4.23034728459E-04 +1.48393695332E-04 -3.43704520918E-01 +8.81560757098E-01
1.36500000000E+09 -1.40501733048E-01 +8.98912327283E-01 -5.16565274168E-04 +1.62700686418E-04 -4.37268667236E-04 +1.77981433570E-04 -3.31405746478E-01 +8.84049467618E-01
1.37000000000E+09 -1.25916204832E-01 +8.98942523242E-01 -5.56045539234E-04 +2.50236463794E-04 -5.02853271488E-04 +2.24345551076E-04 -3.18539732446E-01 +8.86465475776E-01
1.37500000000E+09 -1.12835196610E-01 +8.99056238303E-01 -5.59733873946E-04 +3.88170478652E-04 -5.92398592947E-04 +2.93574040496E-04 -3.04875684440E-01 +8.88584381373E-01
1.38000000000E+09 -1.00678728621E-01 +8.98732999412E-01 -5.35837134255E-04 +4.86215578719E-04 -6.39610800684E-04 +4.56329615912E-04 -2.90304360796E-01 +8.90724391175E-01
1.38500000000E+09 -8.84132932749E-02 +8.98124586651E-01 -4.13120864001E-04 +5.67316148608E-04 -5.05700594250E-04 +5.60749482352E-04 -2.74788156641E-01 +8.92570156610E-01
1.39000000000E+09 -7.58173826494E-02 +8.96881009761E-01 -3.72182896515E-04 +5.36520559060E-04 -4.32474057829E-04 +6.53756454833E-04 -2.58918609425E-01 +8.93949889910E-01
1.39500000000E+09 -6.14634704426E-02 +8.94993077337E-01 -4.05547137504E-04 +5.62184490436E-04 -3.97440973619E-04 +6.78265962415E-04 -2.41957859722E-01 +8.94699989165E-01
1.40000000000E+09 -4.49135985051E-02 +8.91753996373E-01 -4.00333988936E-04 +6.44384614957E-04 -3.67141416145E-04 +7.57579111610E-04 -2.24391528769E-01 +8.95185989996E-01
1.40500000000E+09 -2.66330716072E-02 +8.87687029795E-01 -4.29980717592E-04 +7.61198025406E-04 -3.62326953095E-04 +7.44852031241E-04 -2.05840572141E-01 +8.94965176692E-01
1.41000000000E+09 -6.30873189858E-03 +8.82403732833E-01 -3.75126646661E-04 +8.98733576785E-04 -4.27852271786E-04 +9.04756981460E-04 -1.85752765717E-01 +8.94492012938E-01
1.41500000000E+09 +1.50452187804E-02 +8.76243105121E-01 -3.00758860559E-04 +9.35650151466E-04 -3.13028256116E-04 +9.42078470570E-04 -1.64067376480E-01 +8.93138769585E-01
1.42000000000E+09 +3.68186170066E-02 +8.69691936469E-01 -2.64963970821E-04 +1.01932284913E-03 -3.31808512578E-04 +1.10157069765E-03 -1.41141144510E-01 +8.90627033145E-01
1.42500000000E+09 +5.85647558361E-02 +8.62473615046E-01 -3.07277432618E-04 +1.19621095610E-03 -2.40942736363E-04 +1.35919109456E-03 -1.17238773686E-01 +8.86974582405E-01
1.43000000000E+09 +8.02600493479E-02 +8.54592021867E-01 -1.21272885796E-04 +1.41853515465E-03 -3.78279529354E-05 +1.59078039252E-03 -9.23078310112E-02 +8.82264796639E-01
1.43500000000E+09 +1.01819446182E-01 +8.45495177693E-01 +1.00848230098E-04 +1.57723574668E-03 +2.73014487271E-04 +1.60588855049E-03 -6.59188823634E-02 +8.75726208383E-01
1.44000000000E+09 +1.24042020917E-01 +8.35074394843E-01 +3.26643106036E-04 +1.57015932439E-03 +4.26316998098E-04 +1.54573649556E-03 -3.75579332446E-02 +8.67156275004E-01
1.44500000000E+09 +1.47788200671E-01 +8.22285723827E-01 +3.84854204021E-04 +1.63388250209E-03 +4.99395878053E-04 +1.57475169054E-03 -7.16569527707E-03 +8.55837206847E-01
1.45000000000E+09 +1.73297621719E-01 +8.05966684581E-01 +3.91114884366E-04 +1.84624428489E-03 +5.24653759439E-04 +1.91528987862E-03 +2.49299779808E-02 +8.40917038681E-01
1.45500000000E+09 +2.00769060975E-01 +7.85815683440E-01 +7.48284311056E-04 +2.28885796653E-03 +9.28800828575E-04 +2.19781875953E-03 +5.84698723634E-02 +8.23139473804E-01
1.46000000000E+09 +2.30676703421E-01 +7.61005325321E-01 +1.30979501284E-03 +2.63676930740E-03 +1.50645172766E-03 +2.39616566285E-03 +9.35233982160E-02 +8.01585336779E-01
1.46500000000E+09 +2.62240457303E-01 +7.30844170014E-01 +2.03327929624E-03 +2.86137530690E-03 +2.04290138388E-03 +2.52496878677E-03 +1.30318556311E-01 +7.74403984081E-01
1.47000000000E+09 +2.94486773985E-01 +6.95158679433E-01 +3.02003213565E-03 +2.80286330316E-03 +2.81354245700E-03 +2.55847851621E-03 +1.67599483583E-01 +7.40130561018E-01
1.47500000000E+09 +3.26352497327E-01 +6.53150354735E-01 +3.93882775092E-03 +2.34752381940E-03 +3.67560803337E-03 +2.46483259417E-03 +2.04280048551E-01 +6.98919654518E-01
1.48000000000E+09 +3.55493693364E-01 +6.04685444138E-01 +4.81109565597E-03 +1.92131127551E-03 +4.84315398020E-03 +2.06064670736E-03 +2.41046593920E-01 +6.49790293749E-01
1.48500000000E+09 +3.80757671679E-01 +5.49915390556E-01 +5.65873620893E-03 +1.19334030968E-03 +5.85349311849E-03 +1.12734511902E-03 +2.75924140829E-01 +5.90342831278E-01
1.49000000000E+09 +4.00645253469E-01 +4.87634505926E-01 +6.85602095430E-03 +2.64340955955E-04 +6.90106454991E-03 -4.44065376027E-05 +3.04022142130E-01 +5.19880057486E-01
1.49500000000E+09 +4.13259550344E-01 +4.17524981826E-01 +7.87482770182E-03 -1.48740883824E-03 +7.48988555397E-03 -1.67709081023E-03 +3.21892418546E-01 +4.39481147271E-01
1.50000000000E+09 +4.15650835447E-01 +3.38152434402E-01 +8.86656885034E-03 -3.52362705358E-03 +8.35704193655E-03 -3.34329958718E-03 +3.27445099762E-01 +3.50739024523E-01
1.50500000000E+09 +4.04829403285E-01 +2.51322144301E-01 +8.88831845654E-03 -7.28832906578E-03 +8.73311843651E-03 -6.68970135182E-03 +3.15921832287E-01 +2.52927011169E-01
1.51000000000E+09 +3.76773488071E-01 +1.57768850754E-01 +6.38960206594E-03 -1.10658849974E-02 +6.78152725253E-03 -1.07481455028E-02 +2.82939682133E-01 +1.51903912051E-01
1.51500000000E+09 +3.27400869749E-01 +6.45154611028E-02 +2.99598142674E-03 -1.30542610390E-02 +3.38797563073E-03 -1.31247485444E-02 +2.27934538552E-01 +5.50065436033E-02
1.52000000000E+09 +2.57005912632E-01 -2.04362508331E-02 -1.45668993258E-03 -1.40289155921E-02 -1.23735476220E-03 -1.42670455002E-02 +1.51662504974E-01 -3.17020308594E-02
1.52500000000E+09 +1.68901589722E-01 -9.12182235366E-02 -5.43328302121E-03 -1.25378686965E-02 -5.40966890477E-03 -1.26827183855E-02 +5.63475768781E-02 -1.01046088149E-01
1.53000000000E+09 +6.65628754980E-02 -1.41902489458E-01 -8.11711467288E-03 -1.13124982812E-02 -8.15413849760E-03 -1.14195617305E-02 -5.23265953382E-02 -1.46807911763E-01
1.53500000000E+09 -4.40517461624E-02 -1.69093171427E-01 -1.13884956255E-02 -8.95942253693E-03 -1.13987734076E-02 -8.88425331877E-03 -1.65275368883E-01 -1.66993898961E-01
1.54000000000E+09 -1.57017658484E-01 -1.70482074247E-01 -1.41252598722E-02 -5.45806231794E-03 -1.39927623593E-02 -5.50089948924E-03 -2.75978694402E-01 -1.62486219685E-01
1.54500000000E+09 -2.65053489798E-01 -1.46800032178E-01 -1.53827412246E-02 -1.18556869282E-04 -1.51716363904E-02 -4.57269487336E-04 -3.75041785986E-01 -1.37472663061E-01
1.55000000000E+09 -3.60330718297E-01 -1.02186460375E-01 -1.32367746856E-02 +4.62453735994E-03 -1.33957409361E-02 +4.10614923427E-03 -4.60393315488E-01 -9.85890040180E-02
1.55500000000E+09 -4.38402870966E-01 -4.45684180030E-02 -1.01323249339E-02 +7.46624902213E-03 -1.06747514507E-02 +7.20811473390E-03 -5.31044729572E-01 -5.04745242682E-02
1.56000000000E+09 -4.99392191402E-01 +1.69442395961E-02 -6.71268680860E-03 +8.94040599474E-03 -7.35276820177E-03 +9.07746867003E-03 -5.87452901394E-01 +3.84288485533E-03
1.56500000000E+09 -5.48733227452E-01 +7.87595818776E-02 -3.64836362526E-03 +8.64699225116E-03 -3.97487232449E-03 +9.09128391177E-03 -6.31277986496E-01 +5.96365913563E-02
1.57000000000E+09 -5.86268761588E-01 +1.40123787411E-01 -1.68487220713E-03 +7.82387324874E-03 -1.71117425563E-03 +8.33061121459E-03 -6.63747679717E-01 +1.14988459590E-01
