# Hz S RI R 50
! CMT, C1220, 16058040, 17.2.0/1
! Date: 14/08/2018 12:08:10
! Data: Format (Calibration Info)
! Freq                      S11: Re/Im (F2)                       S21: Re/Im (F2)                       S12: Re/Im (F2)                       S22: Re/Im (F2)            
1.00000000000E+09 -6.54539240205E-01 +7.09808554289E-01 -2.55104590677E-05 -1.34020295065E-05 -2.39982250533E-05 -1.22493061064E-05 -7.53610911366E-01 +6.25516503771E-01
1.00500000000E+09 -6.47763455066E-01 +7.14480907798E-01 +3.96354433582E-06 -2.05502926804E-05 -5.23575979975E-05 -2.94867188109E-05 -7.49911883908E-01 +6.29659070090E-01
1.01000000000E+09 -6.42146191701E-01 +7.18713857411E-01 -2.37256276783E-05 -9.68753083350E-05 -5.81531742659E-05 +4.16595929948E-05 -7.46306351875E-01 +6.33368499481E-01
1.01500000000E+09 -6.37932237684E-01 +7.22325413734E-01 +7.17658007222E-06 +7.02654684935E-05 +1.07528822619E-05 -1.18035874977E-05 -7.43035984947E-01 +6.37094783308E-01
1.02000000000E+09 -6.35170259064E-01 +7.25716912931E-01 -6.82131306091E-06 -2.19576910069E-05 -1.73634079163E-05 -2.47845181692E-06 -7.39584658795E-01 +6.40725188218E-01
1.02500000000E+09 -6.33139491479E-01 +7.28668398984E-01 -1.28407444254E-05 +3.04517923435E-05 -6.42736438374E-06 +2.36493038745E-05 -7.36721024051E-01 +6.44444313898E-01
1.03000000000E+09 -6.31801120537E-01 +7.31468914058E-01 -3.42319156484E-05 +2.55256156038E-05 -5.38576307942E-05 +6.67112690948E-05 -7.33136824288E-01 +6.48193436644E-01
1.03500000000E+09 -6.29525239254E-01 +7.34213509815E-01 -2.33961883077E-06 +1.75824359906E-05 +1.52788607691E-05 +7.04387026592E-05 -7.29290659797E-01 +6.52139870481E-01
1.04000000000E+09 -6.26240822564E-01 +7.37321195549E-01 -7.13041502991E-05 +3.46886021940E-05 +9.76884622789E-06 +3.64221946306E-06 -7.25544524788E-01 +6.55996168421E-01
1.04500000000E+09 -6.21399040888E-01 +7.40959833236E-01 -3.08138636677E-06 +4.47341272624E-05 +1.43863027619E-06 +4.58351564321E-05 -7.21964719183E-01 +6.59369637334E-01
1.05000000000E+09 -6.14702263409E-01 +7.44950782264E-01 -5.00151211815E-05 +3.64551255463E-05 -3.31258817664E-05 +5.16027785526E-05 -7.18537309627E-01 +6.62980544684E-01
1.05500000000E+09 -6.06943849634E-01 +7.49180890927E-01 +2.18758728523E-05 -2.59731204029E-06 -1.78718782968E-05 -1.00964556260E-06 -7.15316517186E-01 +6.66512795648E-01
1.06000000000E+09 -5.98880245071E-01 +7.53678699772E-01 -6.16388998593E-05 +4.38892224971E-05 -1.81367726908E-05 +3.33270241028E-05 -7.11944417639E-01 +6.70171653754E-01
1.06500000000E+09 -5.90920896876E-01 +7.58033602166E-01 +1.03913197608E-05 +3.65796875742E-05 -3.87254222664E-06 -2.79740532421E-07 -7.08362625991E-01 +6.74071397765E-01
1.07000000000E+09 -5.84147163655E-01 +7.61903803570E-01 -1.61000044069E-05 +3.71874275173E-05 +1.63432393815E-05 +3.18889315589E-05 -7.04394685039E-01 +6.77718884691E-01
1.07500000000E+09 -5.78729495463E-01 +7.65501323215E-01 -3.73887449078E-05 +7.54240300315E-05 -1.31817460980E-06 +5.17243537913E-05 -6.99887917021E-01 +6.81376687254E-01
1.08000000000E+09 -5.74758590132E-01 +7.68999321974E-01 -9.05969499332E-06 +1.88581436295E-05 -1.05705870751E-05 +1.99928121593E-05 -6.95888607040E-01 +6.85229769441E-01
1.08500000000E+09 -5.72149412817E-01 +7.71831638897E-01 +1.04235738228E-05 +1.02452362838E-05 -3.57853589603E-06 +3.39823843451E-05 -6.92012215940E-01 +6.88799398218E-01
1.09000000000E+09 -5.69732813272E-01 +7.74690621361E-01 -6.79526626824E-06 +8.17600036340E-06 -2.91425656094E-06 +6.61122329631E-05 -6.88203252479E-01 +6.92904653920E-01
1.09500000000E+09 -5.67682736445E-01 +7.77141269373E-01 +1.30639667863E-05 -2.12496719828E-05 +5.54487878829E-05 -1.06540598104E-06 -6.84346331107E-01 +6.96826696022E-01
1.10000000000E+09 -5.64272285064E-01 +7.79693018721E-01 +1.68037185496E-05 +1.89034642297E-05 -5.19899368118E-06 +6.63894836797E-05 -6.80407770328E-01 +7.00498922816E-01
1.10500000000E+09 -5.59852250366E-01 +7.82736281508E-01 +2.40786095712E-05 +1.17633431482E-05 +2.16707187439E-05 +3.52318230125E-05 -6.76030840931E-01 +7.04189941972E-01
1.11000000000E+09 -5.53921647716E-01 +7.85990299339E-01 -1.29823432330E-05 +5.21957163530E-05 +4.00143754284E-05 +1.19774621584E-05 -6.71804063032E-01 +7.07550505873E-01
1.11500000000E+09 -5.46746668933E-01 +7.89816275415E-01 +2.18461297832E-05 +6.15256652107E-05 +1.32851851541E-05 +1.12948875248E-04 -6.67759325154E-01 +7.10980600521E-01
1.12000000000E+09 -5.39240169408E-01 +7.93338214710E-01 +2.24879367373E-05 +1.96502971323E-05 +2.40641960304E-05 +2.44580708543E-05 -6.63674790509E-01 +7.14638041433E-01
1.12500000000E+09 -5.31673561584E-01 +7.96771045834E-01 +8.74199803346E-05 +4.74396105001E-05 +5.13264768466E-06 +3.81715131876E-06 -6.59362301163E-01 +7.18625092347E-01
1.13000000000E+09 -5.24949584260E-01 +8.00393969720E-01 +2.99406525376E-05 +2.99614816738E-05 +2.21774306898E-05 +3.22209352958E-06 -6.55081294437E-01 +7.22319541621E-01
1.13500000000E+09 -5.19168028420E-01 +8.03243321456E-01 +5.05102011601E-05 +8.36451015290E-05 +1.50473592966E-05 +6.56101639630E-05 -6.50519300556E-01 +7.26177515430E-01
1.14000000000E+09 -5.14670229402E-01 +8.06243683395E-01 +3.44064324642E-05 +2.69334891484E-05 +6.94947181058E-05 +4.01613812284E-05 -6.45711408703E-01 +7.29457623043E-01
1.14500000000E+09 -5.10953441756E-01 +8.08509062827E-01 +3.54006668396E-05 -2.21118919371E-06 +5.07532154248E-05 +6.14584483861E-05 -6.41206591438E-01 +7.32969294254E-01
1.15000000000E+09 -5.07450078230E-01 +8.10807212917E-01 +3.97634006596E-05 +4.19692443637E-05 +4.16989301924E-05 +3.54763229468E-05 -6.36543516155E-01 +7.36806308839E-01
1.15500000000E+09 -5.03860100258E-01 +8.13270141380E-01 +4.00994526053E-05 +3.83780542462E-05 +9.19009535069E-05 +2.41858935285E-05 -6.31816870956E-01 +7.40519350684E-01
1.16000000000E+09 -4.99385176292E-01 +8.15748884671E-01 +8.41368612578E-05 +7.64773096725E-06 +7.92629849506E-05 -9.91969550733E-06 -6.26946915860E-01 +7.44361397005E-01
1.16500000000E+09 -4.93789482942E-01 +8.18542106024E-01 +8.83748499527E-05 +7.28436602395E-05 +7.89258190747E-05 +3.40477530690E-06 -6.21740138354E-01 +7.47946338304E-01
1.17000000000E+09 -4.86856852415E-01 +8.21577479962E-01 +8.51253759750E-05 +1.70364703800E-06 +7.22926739810E-05 +1.72469409648E-05 -6.16342623710E-01 +7.51310930503E-01
1.17500000000E+09 -4.79094316222E-01 +8.24716151131E-01 +7.21824966319E-05 -2.31232547671E-05 +8.04127095511E-05 +4.13745126673E-05 -6.10518255296E-01 +7.54550063690E-01
1.18000000000E+09 -4.71176720424E-01 +8.27847110304E-01 +6.28525955316E-05 +3.45954856422E-06 +9.37265488032E-05 +8.23772466090E-06 -6.05121173727E-01 +7.57725713312E-01
1.18500000000E+09 -4.63402247544E-01 +8.30751197667E-01 +7.70075610680E-05 -8.21485627013E-06 +1.17300288584E-04 -8.09771110411E-07 -5.99079386970E-01 +7.60763877156E-01
1.19000000000E+09 -4.56372522139E-01 +8.33183863795E-01 +7.47214757906E-05 +1.65571768386E-05 +1.21932100841E-04 +1.97111963644E-05 -5.92893329406E-01 +7.63478380733E-01
1.19500000000E+09 -4.50410124469E-01 +8.35359199062E-01 +1.28372580756E-04 +2.54464882830E-05 +1.79706820768E-04 -1.06636381493E-05 -5.86928953179E-01 +7.64650548038E-01
1.20000000000E+09 -4.45704911583E-01 +8.36796910928E-01 +1.38035106753E-04 -5.47576389776E-05 +2.10010299976E-04 -8.83954284619E-05 -5.82426431295E-01 +7.64885323175E-01
1.20500000000E+09 -4.41550111508E-01 +8.38790128179E-01 +1.07092117171E-04 -1.11275649088E-04 +1.01498673977E-04 -1.26496044904E-04 -5.80125184112E-01 +7.65721929258E-01
1.21000000000E+09 -4.37376380353E-01 +8.40637928367E-01 +6.72429365106E-05 -1.08544612652E-04 +4.37040811899E-05 -1.29258480804E-04 -5.78357090294E-01 +7.68746630418E-01
1.21500000000E+09 -4.32136745146E-01 +8.42867615033E-01 +2.19282238864E-05 -1.36611008490E-04 +1.15568149987E-04 -1.15700252008E-04 -5.75632682450E-01 +7.73168917873E-01
1.22000000000E+09 -4.25607073385E-01 +8.45328477431E-01 +3.43909637300E-05 -1.06070983374E-04 +9.78180470380E-05 -1.28018509782E-04 -5.71393096040E-01 +7.78468913992E-01
1.22500000000E+09 -4.17591301949E-01 +8.48255925510E-01 +8.29756334214E-05 -1.24281928882E-04 +6.79895581265E-05 -9.59474049557E-05 -5.66209815680E-01 +7.83730966072E-01
1.23000000000E+09 -4.08143815741E-01 +8.51408305306E-01 +4.37041808818E-05 -1.23765182578E-04 +3.80526535845E-05 -1.45379089804E-04 -5.60501134944E-01 +7.88448390218E-01
1.23500000000E+09 -3.98230713557E-01 +8.54555706624E-01 +7.73895939374E-05 -1.26470544207E-04 +7.32748289178E-05 -9.92893122459E-05 -5.54771416888E-01 +7.92857843418E-01
1.24000000000E+09 -3.88069757692E-01 +8.57960750945E-01 +9.37873173106E-05 -1.68144942520E-04 +7.67669834289E-05 -2.13196249344E-04 -5.48591260786E-01 +7.96618134256E-01
1.24500000000E+09 -3.78489490576E-01 +8.61384154355E-01 +9.43582494162E-05 -1.53511568964E-04 +6.69991899992E-05 -1.83869166922E-04 -5.42263335097E-01 +8.00471723290E-01
1.25000000000E+09 -3.70112625142E-01 +8.64440648739E-01 +8.14032334326E-06 -2.32453660780E-04 +4.10919741912E-05 -2.33808196113E-04 -5.35660025300E-01 +8.04755557768E-01
1.25500000000E+09 -3.62965191909E-01 +8.67058400274E-01 +9.61864130944E-06 -2.14558709829E-04 +1.34187031424E-05 -2.99558399593E-04 -5.28871673773E-01 +8.08832846355E-01
1.26000000000E+09 -3.56724297139E-01 +8.69532094585E-01 -4.04761302475E-05 -2.51636850418E-04 -3.36648339526E-05 -2.46180902325E-04 -5.22191516343E-01 +8.13010066561E-01
1.26500000000E+09 -3.51292313504E-01 +8.71555524758E-01 -1.49119982623E-05 -2.57347594100E-04 -6.04248441546E-05 -2.78457822231E-04 -5.15303692107E-01 +8.16875789942E-01
1.27000000000E+09 -3.45516586206E-01 +8.73903916481E-01 -5.22275432395E-05 -2.57032000747E-04 -7.38918463773E-05 -2.42929088511E-04 -5.08430415510E-01 +8.20858004059E-01
1.27500000000E+09 -3.39072661563E-01 +8.76088907549E-01 -1.08853102023E-04 -2.59614219391E-04 -1.30938992299E-04 -2.69179626865E-04 -5.01276846730E-01 +8.24435514064E-01
1.28000000000E+09 -3.31027510824E-01 +8.78418127301E-01 -1.59878942287E-04 -2.52572508389E-04 -1.47971595514E-04 -3.33274920313E-04 -4.94194714936E-01 +8.27927752827E-01
1.28500000000E+09 -3.21258407800E-01 +8.80918938471E-01 -1.67170893537E-04 -2.50271168189E-04 -2.24429398779E-04 -2.65490325169E-04 -4.86886706817E-01 +8.31457208654E-01
1.29000000000E+09 -3.10600300702E-01 +8.83387357504E-01 -1.98203633166E-04 -2.26790940437E-04 -2.76621315247E-04 -2.09661647837E-04 -4.79348541909E-01 +8.35372425579E-01
1.29500000000E+09 -2.99085452383E-01 +8.86117474067E-01 -2.30403407165E-04 -2.22720633966E-04 -2.96979637769E-04 -2.14832858953E-04 -4.71380611840E-01 +8.38836886532E-01
1.30000000000E+09 -2.87608660714E-01 +8.88905748534E-01 -3.04750006555E-04 -1.97736622859E-04 -2.77257219993E-04 -1.11998136589E-04 -4.63550615923E-01 +8.42507598610E-01
1.30500000000E+09 -2.77055080135E-01 +8.91218704138E-01 -3.61265784579E-04 -1.91390758110E-04 -3.77755865535E-04 -1.28925497439E-04 -4.55408401567E-01 +8.45889803031E-01
1.31000000000E+09 -2.67644398347E-01 +8.93477542674E-01 -4.12200231555E-04 -1.30307931313E-04 -3.47775116609E-04 -8.58116188279E-05 -4.47205179997E-01 +8.49360639201E-01
1.31500000000E+09 -2.59620174715E-01 +8.95370359494E-01 -3.59792220915E-04 +8.21744604873E-06 -3.93213464593E-04 -5.68050564327E-05 -4.38324618817E-01 +8.52848690588E-01
1.32000000000E+09 -2.52706922091E-01 +8.97031760793E-01 -3.78408495854E-04 -4.39788721665E-05 -3.74436351414E-04 -7.39618209011E-05 -4.29163976270E-01 +8.56392229952E-01
1.32500000000E+09 -2.46321918062E-01 +8.98204989304E-01 -3.52100916727E-04 +2.62387460909E-06 -3.80094751192E-04 -2.21460642305E-05 -4.19413098382E-01 +8.59653418185E-01
1.33000000000E+09 -2.39067516177E-01 +8.99383878291E-01 -4.09473116390E-04 +2.77719973619E-05 -4.13463988000E-04 +6.50875858480E-05 -4.09710255475E-01 +8.62948412911E-01
1.33500000000E+09 -2.30255773754E-01 +9.00122045273E-01 -4.22347565273E-04 +6.67589958340E-05 -4.05008770105E-04 +9.40223690602E-05 -3.99731581104E-01 +8.66227095307E-01
1.34000000000E+09 -2.19256408451E-01 +9.00720749761E-01 -4.02280414409E-04 +1.50583085769E-04 -4.22745646005E-04 +1.14766674778E-04 -3.89486514104E-01 +8.69674915037E-01
1.34500000000E+09 -2.06045178653E-01 +9.01013791357E-01 -4.47459572806E-04 +1.81930311121E-04 -3.47505559166E-04 +2.18536268631E-04 -3.78612102630E-01 +8.72876365669E-01
1.35000000000E+09 -1.91079280742E-01 +9.01069722688E-01 -4.13469233859E-04 +2.00421982460E-04 -3.83649208428E-04 +2.43069237610E-04 -3.67355673888E-01 +8.75982623955E-01
1.35500000000E+09 -1.74969198674E-01 +9.01222872223E-01 -4.08704042021E-04 +2.18468861071E-04 -3.63214507004E-04 +2.34523477913E-04 -3.55648844056E-01 +8.78862682856E-01
1.36000000000E+09 -1.58848578960E-01 +9.01149334930E-01 -3.47414285812E-04 +2.60414387956E-04 -3.87153182566E-04 +2.10877749218E-04 -3.43831373412E-01 +8.81555889383E-01
1.36500000000E+09 -1.43179716024E-01 +9.01306607703E-01 -3.79606706276E-04 +2.80432980473E-04 -3.81155896885E-04 +2.71905831511E-04 -3.31452144731E-01 +8.83998559240E-01
1.37000000000E+09 -1.28461042164E-01 +9.01419554625E-01 -4.19642380747E-04 +3.25396236387E-04 -4.00497354506E-04 +3.00631608138E-04 -3.18709646167E-01 +8.86393652097E-01
1.37500000000E+09 -1.15096813447E-01 +9.01486846625E-01 -4.60459666931E-04 +4.68043066663E-04 -4.59300386403E-04 +3.74762481489E-04 -3.05059399320E-01 +8.88648082704E-01
1.38000000000E+09 -1.02713228761E-01 +9.01205229305E-01 -4.33384677954E-04 +5.71194363817E-04 -5.13773967405E-04 +5.21188582721E-04 -2.90286668876E-01 +8.90842665626E-01
1.38500000000E+09 -9.02909134791E-02 +9.00731555792E-01 -2.97751869993E-04 +6.05665024673E-04 -4.20542838172E-04 +6.82934540060E-04 -2.74775509065E-01 +8.92522445203E-01
1.39000000000E+09 -7.74612645231E-02 +8.99577524916E-01 -2.45234292959E-04 +6.16898152119E-04 -2.36295464534E-04 +7.09752629224E-04 -2.58793189508E-01 +8.94105762991E-01
1.39500000000E+09 -6.30200628879E-02 +8.97532741253E-01 -2.45768834851E-04 +6.33409977718E-04 -1.67698577128E-04 +7.16252196124E-04 -2.42069519656E-01 +8.94857770988E-01
1.40000000000E+09 -4.62465312084E-02 +8.94502476487E-01 -1.80730318080E-04 +7.41779444951E-04 -9.87849210132E-05 +7.54638784644E-04 -2.24263991732E-01 +8.95364217053E-01
1.40500000000E+09 -2.78311623497E-02 +8.90381961582E-01 -1.40832791843E-04 +7.58085876460E-04 -9.77330041258E-05 +6.95222418171E-04 -2.05519594690E-01 +8.95180825011E-01
1.41000000000E+09 -7.40048116376E-03 +8.84901217860E-01 -1.32149272131E-04 +8.74657513140E-04 -7.45196411202E-05 +8.31075431794E-04 -1.85295916110E-01 +8.94565622380E-01
1.41500000000E+09 +1.37296715527E-02 +8.78679868644E-01 +8.82403654291E-05 +9.03987070643E-04 -2.87919834838E-05 +9.41878403880E-04 -1.63684770372E-01 +8.93076631429E-01
1.42000000000E+09 +3.57092712297E-02 +8.72062319698E-01 +2.45487965977E-05 +9.32727629784E-04 +4.60772547121E-05 +9.97547995515E-04 -1.40581680467E-01 +8.90511593473E-01
1.42500000000E+09 +5.73640724430E-02 +8.64533960150E-01 +6.94874178264E-05 +1.02836106899E-03 +1.16945805176E-04 +1.18399613331E-03 -1.16723176788E-01 +8.86744142302E-01
1.43000000000E+09 +7.90218941116E-02 +8.56662054742E-01 +2.17211787645E-04 +1.23585377888E-03 +3.70613070418E-04 +1.34835613686E-03 -9.15352117867E-02 +8.81911242593E-01
1.43500000000E+09 +1.00799458528E-01 +8.47415721824E-01 +5.39176138136E-04 +1.28907239648E-03 +6.75344906626E-04 +1.30311806670E-03 -6.51556247469E-02 +8.75051108193E-01
1.44000000000E+09 +1.22970325600E-01 +8.36807270663E-01 +7.46699738587E-04 +1.18294278762E-03 +7.87579043989E-04 +1.08878120288E-03 -3.68275952758E-02 +8.66242249551E-01
1.44500000000E+09 +1.46911513819E-01 +8.23860551460E-01 +7.60619523203E-04 +1.05631623460E-03 +8.10329663855E-04 +1.02793966168E-03 -6.54108822427E-03 +8.54638899434E-01
1.45000000000E+09 +1.72734061565E-01 +8.07208964912E-01 +6.71723163491E-04 +1.25223599308E-03 +7.62242119874E-04 +1.27731314345E-03 +2.55663194597E-02 +8.39590827907E-01
1.45500000000E+09 +2.00232759196E-01 +7.86612605907E-01 +8.63026809489E-04 +1.61322795005E-03 +1.02369398385E-03 +1.49251798156E-03 +5.87871734221E-02 +8.21509671950E-01
1.46000000000E+09 +2.29959656179E-01 +7.61222090279E-01 +1.45296949269E-03 +1.92840531695E-03 +1.57875911331E-03 +1.72662820668E-03 +9.35627637312E-02 +7.99484548744E-01
1.46500000000E+09 +2.61194092363E-01 +7.30625166047E-01 +2.12420976718E-03 +1.86456030449E-03 +2.05313465785E-03 +1.58455943653E-03 +1.29692549046E-01 +7.72144554009E-01
1.47000000000E+09 +2.93067497612E-01 +6.94655657112E-01 +2.75748448746E-03 +1.61048133997E-03 +2.51280129479E-03 +1.44064490318E-03 +1.66175097442E-01 +7.37751471921E-01
1.47500000000E+09 +3.24567495129E-01 +6.52389790342E-01 +3.42224751267E-03 +1.37931231567E-03 +3.19542090674E-03 +1.44736205803E-03 +2.02384803779E-01 +6.96752803584E-01
1.48000000000E+09 +3.53353716805E-01 +6.03411190870E-01 +4.13780630019E-03 +8.99520403717E-04 +4.16361697338E-03 +1.00195035892E-03 +2.38443669417E-01 +6.47834504630E-01
1.48500000000E+09 +3.78028167613E-01 +5.48070876154E-01 +4.77770337367E-03 +2.58530036511E-04 +4.89766781578E-03 +2.22992693535E-04 +2.72533157158E-01 +5.89004238620E-01
1.49000000000E+09 +3.97084648076E-01 +4.85392797864E-01 +5.78467028667E-03 -6.78911423349E-04 +5.72387112904E-03 -9.76788098142E-04 +3.00340469570E-01 +5.19230545167E-01
1.49500000000E+09 +4.08628785977E-01 +4.14692307498E-01 +6.22256259035E-03 -2.45014896439E-03 +5.89247699269E-03 -2.58762388710E-03 +3.17815618943E-01 +4.39748375068E-01
1.50000000000E+09 +4.09491566546E-01 +3.35276968321E-01 +6.78936957661E-03 -3.85024114914E-03 +6.34056296197E-03 -3.67677495066E-03 +3.23126752532E-01 +3.51715777561E-01
1.50500000000E+09 +3.97111850715E-01 +2.49051165849E-01 +6.86170269672E-03 -7.29267028305E-03 +6.73333183721E-03 -6.78565376327E-03 +3.11666253046E-01 +2.55281811725E-01
1.51000000000E+09 +3.67637334786E-01 +1.56942777629E-01 +3.92669571376E-03 -1.06704912231E-02 +4.26927806843E-03 -1.03689550180E-02 +2.79493279290E-01 +1.55701236823E-01
1.51500000000E+09 +3.17474654003E-01 +6.56093864181E-02 +3.33509750724E-04 -1.16235225139E-02 +6.17317090305E-04 -1.16264251076E-02 +2.25614635002E-01 +5.93350451540E-02
1.52000000000E+09 +2.46660876808E-01 -1.67365607927E-02 -3.44587655454E-03 -1.16319745546E-02 -3.30554941650E-03 -1.18227264373E-02 +1.50156033028E-01 -2.70823912715E-02
1.52500000000E+09 +1.59302746224E-01 -8.53634118569E-02 -6.64948589755E-03 -9.56906214980E-03 -6.62872096802E-03 -9.68294631472E-03 +5.57838079980E-02 -9.57776594661E-02
1.53000000000E+09 +5.77306541350E-02 -1.33625274268E-01 -8.44365243273E-03 -8.25322324061E-03 -8.47921261511E-03 -8.33402196326E-03 -5.15209630017E-02 -1.41449305531E-01
1.53500000000E+09 -5.04562798799E-02 -1.58315525802E-01 -1.10014466232E-02 -6.00937240871E-03 -1.10175690696E-02 -6.06637863891E-03 -1.63198903068E-01 -1.61506513881E-01
1.54000000000E+09 -1.60400804256E-01 -1.58970641788E-01 -1.32746439354E-02 -2.44873790743E-03 -1.31846178650E-02 -2.48862963830E-03 -2.71887577029E-01 -1.57724828007E-01
1.54500000000E+09 -2.65273972762E-01 -1.35754153919E-01 -1.33180899518E-02 +2.77933671004E-03 -1.32030536326E-02 +2.45030475807E-03 -3.69966575425E-01 -1.34243583885E-01
1.55000000000E+09 -3.58232325969E-01 -9.31064449362E-02 -1.03822556856E-02 +6.56373354803E-03 -1.06381752146E-02 +6.15668138411E-03 -4.55018116164E-01 -9.67933400718E-02
1.55500000000E+09 -4.35562585689E-01 -3.75551447269E-02 -7.06861553814E-03 +8.24457812901E-03 -7.58074475104E-03 +8.10713092723E-03 -5.25417296823E-01 -5.00558638989E-02
1.56000000000E+09 -4.96525015420E-01 +2.24088759821E-02 -4.03244425509E-03 +8.72155190405E-03 -4.53391122353E-03 +9.02717209684E-03 -5.82203864477E-01 +2.86565399263E-03
1.56500000000E+09 -5.45223726316E-01 +8.35702377689E-02 -1.41565491255E-03 +8.12047258959E-03 -1.63357871394E-03 +8.62951995989E-03 -6.26472143459E-01 +5.76303677092E-02
1.57000000000E+09 -5.81919142726E-01 +1.43583471540E-01 +3.72757659774E-04 +6.87417243932E-03 +4.60848011414E-04 +7.40085853629E-03 -6.59674332655E-01 +1.12057105359E-01
