# Hz S RI R 50
! CMT, C1220, 16058040, 17.2.0/1
! Date: 14/08/2018 12:03:52
! Data: Format (Calibration Info)
! Freq                      S11: Re/Im (F2)                       S21: Re/Im (F2)                       S12: Re/Im (F2)                       S22: Re/Im (F2)            
1.00000000000E+09 -6.52814425489E-01 +7.09728096824E-01 -3.68811406305E-05 -1.87112551735E-05 -2.25566995553E-05 +1.70814312287E-05 -7.53474975730E-01 +6.25583091988E-01
1.00500000000E+09 -6.45881565857E-01 +7.14199821762E-01 -4.31347370774E-06 +2.28876929834E-07 -4.93751663031E-05 +2.45729739947E-05 -7.49822187753E-01 +6.29751566254E-01
1.01000000000E+09 -6.40202970989E-01 +7.18634605020E-01 -4.09028073401E-05 +9.88432104661E-06 -3.64121384831E-05 -5.38058090669E-05 -7.46308148969E-01 +6.33391240464E-01
1.01500000000E+09 -6.35903931387E-01 +7.22254980203E-01 +2.46139650383E-05 +7.85742273321E-06 +7.01052563260E-05 +3.85755522568E-05 -7.43055560637E-01 +6.37224907603E-01
1.02000000000E+09 -6.32971791482E-01 +7.25691328163E-01 -2.56174256918E-05 +9.64440985366E-06 -5.46953469290E-05 +1.68561449699E-05 -7.39521907624E-01 +6.40894164655E-01
1.02500000000E+09 -6.31267607323E-01 +7.28670168865E-01 -1.81525350285E-05 -1.03873132235E-05 +1.04338626224E-05 +5.15387487474E-06 -7.36582175332E-01 +6.44646703448E-01
1.03000000000E+09 -6.29626141375E-01 +7.31438295121E-01 -4.77386172806E-06 -1.84897929822E-05 +4.82482156708E-05 -4.30627049342E-06 -7.33180899625E-01 +6.48492191908E-01
1.03500000000E+09 -6.27470543011E-01 +7.34169948209E-01 -3.71863570833E-05 -6.70137560798E-06 -2.36550632971E-05 -7.33648704347E-07 -7.29199213022E-01 +6.52451477549E-01
1.04000000000E+09 -6.24008009643E-01 +7.37273255555E-01 -4.96304607879E-05 +8.81675439144E-06 +2.08824664782E-05 +3.00795471295E-05 -7.25480253871E-01 +6.56092397672E-01
1.04500000000E+09 -6.19093507454E-01 +7.40897728093E-01 -6.08267249247E-05 +2.03688906934E-05 -5.52761094380E-05 +6.00243018674E-05 -7.21985388585E-01 +6.59518324856E-01
1.05000000000E+09 -6.12455662673E-01 +7.44845522977E-01 -1.65782323530E-05 -5.49313627813E-06 -2.35375650587E-05 +1.33871905635E-05 -7.18489774592E-01 +6.63053483063E-01
1.05500000000E+09 -6.04647461710E-01 +7.49057611253E-01 +9.34202212369E-06 +3.91802050420E-05 -6.66440116279E-05 +1.46576458917E-05 -7.15259615862E-01 +6.66582762881E-01
1.06000000000E+09 -5.96274614544E-01 +7.53545935501E-01 -2.62672015853E-05 +9.33760200328E-05 -5.56365064457E-05 +1.77441387541E-05 -7.11888915837E-01 +6.70389309361E-01
1.06500000000E+09 -5.88234147903E-01 +7.57799804268E-01 -4.43407958546E-05 +8.82714631098E-05 -1.79802984900E-05 +6.49885008350E-05 -7.08341380064E-01 +6.74247006004E-01
1.07000000000E+09 -5.81446413015E-01 +7.61880290593E-01 -3.13489064063E-06 +6.24723841633E-05 -3.53262443898E-05 +3.63447119311E-06 -7.04319890646E-01 +6.77695969563E-01
1.07500000000E+09 -5.75895101064E-01 +7.65400468095E-01 +1.07259754686E-05 +4.01555985060E-05 -3.62198914861E-05 +1.39322634189E-05 -6.99912043337E-01 +6.81375755615E-01
1.08000000000E+09 -5.72158689310E-01 +7.68789575158E-01 -4.10862358294E-05 +3.70133253789E-05 +1.78537939293E-05 +1.14730475893E-05 -6.95889860224E-01 +6.85287182227E-01
1.08500000000E+09 -5.69517577506E-01 +7.71780089206E-01 +2.94478374845E-05 -8.99761701177E-06 +1.71481415974E-05 +6.42585428311E-05 -6.91912263047E-01 +6.89071303774E-01
1.09000000000E+09 -5.67209005164E-01 +7.74433686146E-01 +3.51996681881E-05 +3.56103070331E-05 +1.71446091018E-05 +1.45266257269E-05 -6.87925891958E-01 +6.93019556958E-01
1.09500000000E+09 -5.65063728968E-01 +7.76924699968E-01 +1.41863544869E-05 +1.98799200604E-05 +1.92141138676E-05 +5.38894941999E-05 -6.84287631220E-01 +6.96894423086E-01
1.10000000000E+09 -5.61661753151E-01 +7.79579265155E-01 +4.83658513692E-05 +5.25176062106E-05 +5.33028261555E-06 +2.77794070203E-05 -6.80196707874E-01 +7.00640734261E-01
1.10500000000E+09 -5.57299953117E-01 +7.82392028858E-01 +5.63307310581E-05 +3.36896390538E-05 +2.52766862291E-05 +8.10833498324E-05 -6.76047512523E-01 +7.04183777578E-01
1.11000000000E+09 -5.51367119792E-01 +7.85705762307E-01 +1.51017348820E-05 +5.82731156217E-05 +1.94149963906E-05 +1.65967342368E-05 -6.71762306030E-01 +7.07607416669E-01
1.11500000000E+09 -5.44300064379E-01 +7.89332776975E-01 +1.99444658428E-05 +1.84073904873E-05 -5.50552950729E-06 +2.93387367098E-05 -6.67591524416E-01 +7.10961253609E-01
1.12000000000E+09 -5.36801252857E-01 +7.92813364858E-01 +6.13982296184E-05 +4.73194128744E-05 +8.29932502214E-06 +3.47126826886E-05 -6.63586991680E-01 +7.14612058241E-01
1.12500000000E+09 -5.29189501805E-01 +7.96439621257E-01 +2.27545117627E-06 +2.66103617989E-05 +6.38959279694E-05 -1.56063832152E-06 -6.59399822191E-01 +7.18814987012E-01
1.13000000000E+09 -5.22498222277E-01 +7.99850651657E-01 -6.33177488036E-06 +6.42608399745E-05 +2.02937499416E-06 +6.97325828869E-06 -6.55051076480E-01 +7.22513444304E-01
1.13500000000E+09 -5.16720952178E-01 +8.02806870125E-01 +1.33092307093E-05 +5.90724441398E-05 +3.60506069316E-05 +3.48850482547E-05 -6.50424465921E-01 +7.26262871672E-01
1.14000000000E+09 -5.12210372094E-01 +8.05669448228E-01 +7.32283301745E-05 +5.56001816569E-05 +3.57813222471E-05 +5.32685192128E-05 -6.45754570333E-01 +7.29767606703E-01
1.14500000000E+09 -5.08355961154E-01 +8.08056760458E-01 +6.43335712978E-05 +1.28508828716E-05 +7.31088751912E-05 +3.84196508295E-05 -6.41180995080E-01 +7.33141935946E-01
1.15000000000E+09 -5.04962914261E-01 +8.10350520864E-01 +4.36288672558E-05 +6.14971087787E-05 +7.33581065293E-05 +9.72481940297E-05 -6.36408376751E-01 +7.37046830887E-01
1.15500000000E+09 -5.01373095673E-01 +8.12621103810E-01 +7.12386576781E-05 +7.03310449172E-05 +4.57999187654E-05 +3.50110925647E-05 -6.31481129817E-01 +7.40724216813E-01
1.16000000000E+09 -4.96715513906E-01 +8.14986891574E-01 +3.59706441194E-05 +4.47079407840E-06 +3.90972955754E-05 +1.85896414799E-05 -6.26704307416E-01 +7.44534252350E-01
1.16500000000E+09 -4.91040405077E-01 +8.17938753728E-01 +5.91424608851E-05 +8.57997216767E-05 +1.26642722372E-05 +5.34846773244E-05 -6.21625755127E-01 +7.48247703127E-01
1.17000000000E+09 -4.84202655690E-01 +8.20839849726E-01 +6.18633995779E-05 +3.10468394032E-05 +8.00541413181E-05 +2.63636326717E-05 -6.16008924970E-01 +7.51529210303E-01
1.17500000000E+09 -4.76239048782E-01 +8.23903982643E-01 +7.16807650851E-05 +4.05479346167E-05 +8.79178571912E-05 +5.71175640776E-05 -6.10463319203E-01 +7.54799861295E-01
1.18000000000E+09 -4.68245258751E-01 +8.27100733416E-01 +3.77915613149E-05 +3.83579234592E-05 +1.03319714150E-04 +2.80156872900E-05 -6.04834981903E-01 +7.57767270211E-01
1.18500000000E+09 -4.60448042041E-01 +8.29828023202E-01 +9.55306060435E-05 +3.56501669210E-05 +1.66438563182E-04 +1.47552871819E-05 -5.98933445883E-01 +7.61013303656E-01
1.19000000000E+09 -4.53345148402E-01 +8.32333108802E-01 +1.52102047945E-04 +4.90514481503E-05 +1.78216919485E-04 +3.76376307521E-05 -5.92760716974E-01 +7.63604100246E-01
1.19500000000E+09 -4.47559845377E-01 +8.34532219302E-01 +2.62394582947E-04 -2.18669000660E-05 +1.98791275956E-04 -1.89695557251E-05 -5.86800622184E-01 +7.64686020142E-01
1.20000000000E+09 -4.42753299304E-01 +8.35879288047E-01 +2.08905501233E-04 -9.25182537408E-05 +2.13139297238E-04 -1.16532888965E-04 -5.82268329325E-01 +7.65016178608E-01
1.20500000000E+09 -4.38729485187E-01 +8.37766074792E-01 +1.39821861695E-04 -1.13842695980E-04 +1.51326861678E-04 -1.28961334145E-04 -5.79999217456E-01 +7.65842917452E-01
1.21000000000E+09 -4.34423487713E-01 +8.39635798558E-01 +1.32627751124E-04 -1.45815690456E-04 +1.60353152836E-04 -1.09277169722E-04 -5.78226225348E-01 +7.68896856561E-01
1.21500000000E+09 -4.29394111175E-01 +8.41921380878E-01 +9.43708640093E-05 -1.14775161556E-04 +9.20146149866E-05 -1.41354206444E-04 -5.75496368411E-01 +7.73372423165E-01
1.22000000000E+09 -4.22862406149E-01 +8.44308215879E-01 +7.57957628269E-05 -1.69922526206E-04 +9.64998833260E-05 -1.38784387488E-04 -5.71125947654E-01 +7.78665351745E-01
1.22500000000E+09 -4.14689085260E-01 +8.47093690185E-01 +5.81982344465E-05 -1.09805423823E-04 +8.38332612227E-05 -1.24195069133E-04 -5.66099202110E-01 +7.83818971160E-01
1.23000000000E+09 -4.05345122350E-01 +8.50249609761E-01 +6.56649000710E-05 -1.31155212240E-04 +8.34875198601E-05 -1.55831685471E-04 -5.60404444935E-01 +7.88555574671E-01
1.23500000000E+09 -3.95427025795E-01 +8.53327076087E-01 +1.03814578782E-04 -1.35124751765E-04 +8.33398629756E-05 -1.72179043647E-04 -5.54494753891E-01 +7.92916363239E-01
1.24000000000E+09 -3.85159792673E-01 +8.56634901417E-01 +1.12205556358E-04 -1.63657830718E-04 +9.74527742836E-05 -1.60761319485E-04 -5.48464199608E-01 +7.96718958662E-01
1.24500000000E+09 -3.75797938985E-01 +8.60215286096E-01 +8.72419350857E-05 -2.27379825347E-04 +1.07471381413E-04 -1.65002864825E-04 -5.42144874526E-01 +8.00634855495E-01
1.25000000000E+09 -3.67308898756E-01 +8.63186708926E-01 +8.69557934286E-05 -2.67939179506E-04 +3.08713906189E-05 -2.63406307794E-04 -5.35632366285E-01 +8.04791437253E-01
1.25500000000E+09 -3.60048586727E-01 +8.65754890162E-01 +1.40157603360E-05 -2.44894351370E-04 +4.28326194088E-05 -2.16781501266E-04 -5.28685376980E-01 +8.08923565168E-01
1.26000000000E+09 -3.53844482681E-01 +8.68056635849E-01 -3.88706783166E-05 -2.74089649681E-04 -2.19311153345E-05 -2.39663023742E-04 -5.22041772607E-01 +8.13091395051E-01
1.26500000000E+09 -3.48488490557E-01 +8.70239682873E-01 -6.93895489684E-05 -2.28803869191E-04 -1.38865994358E-05 -2.78334844791E-04 -5.15112218257E-01 +8.17044318632E-01
1.27000000000E+09 -3.42705200782E-01 +8.72249080651E-01 -8.49549430899E-05 -2.53285524336E-04 -6.74334410017E-05 -2.64605848367E-04 -5.08145364895E-01 +8.20920719410E-01
1.27500000000E+09 -3.36302857446E-01 +8.74504906439E-01 -1.02043862533E-04 -2.72346072328E-04 -1.30214100634E-04 -2.85315719738E-04 -5.01076689952E-01 +8.24478775148E-01
1.28000000000E+09 -3.28390345014E-01 +8.76812003881E-01 -1.31005384861E-04 -2.62851701426E-04 -1.67596807149E-04 -2.52644251438E-04 -4.94077851028E-01 +8.27993462316E-01
1.28500000000E+09 -3.18696430697E-01 +8.79112153040E-01 -1.61557547387E-04 -2.34053965912E-04 -2.15214506255E-04 -2.29842775903E-04 -4.86719695824E-01 +8.31691109391E-01
1.29000000000E+09 -3.07862963072E-01 +8.81670396550E-01 -2.31511578072E-04 -2.22311195715E-04 -2.37032740401E-04 -2.35236439512E-04 -4.79142893225E-01 +8.35298362689E-01
1.29500000000E+09 -2.96430311522E-01 +8.84323009225E-01 -2.75933525576E-04 -2.39782796633E-04 -2.62943882698E-04 -2.51901268102E-04 -4.71388432021E-01 +8.38884302294E-01
1.30000000000E+09 -2.84887684012E-01 +8.87064495798E-01 -2.98622064293E-04 -2.52631568469E-04 -2.92753718764E-04 -2.53648102975E-04 -4.63372393154E-01 +8.42582791356E-01
1.30500000000E+09 -2.74148179823E-01 +8.89498230891E-01 -3.67069468970E-04 -1.55940516869E-04 -3.14521301891E-04 -1.66333712822E-04 -4.55294866491E-01 +8.45961265896E-01
1.31000000000E+09 -2.64764958288E-01 +8.91618482594E-01 -2.98472743459E-04 -1.52600052826E-04 -3.24164492066E-04 -1.44543557240E-04 -4.46914904565E-01 +8.49340785665E-01
1.31500000000E+09 -2.56689742651E-01 +8.93631559565E-01 -3.50467179319E-04 -9.72285507129E-05 -3.41263348938E-04 -7.64435699243E-05 -4.38059681708E-01 +8.52879175735E-01
1.32000000000E+09 -2.49823194395E-01 +8.95169366850E-01 -3.62878577554E-04 -6.97266908116E-05 -3.53706176014E-04 -9.52510789197E-05 -4.28932113655E-01 +8.56302946167E-01
1.32500000000E+09 -2.43331304464E-01 +8.96238036850E-01 -3.65752278133E-04 -7.45016579427E-05 -3.93202842678E-04 -9.30815643266E-05 -4.19250054365E-01 +8.59724297464E-01
1.33000000000E+09 -2.36012345682E-01 +8.97445633026E-01 -4.25087746237E-04 -3.18638012844E-05 -3.95392667159E-04 -2.03389119166E-05 -4.09658314815E-01 +8.62951664323E-01
1.33500000000E+09 -2.27475525510E-01 +8.98109557147E-01 -4.46698560940E-04 -4.54556084392E-06 -4.51309887796E-04 +3.61376141142E-05 -3.99700083201E-01 +8.66373425766E-01
1.34000000000E+09 -2.16487859672E-01 +8.98698414152E-01 -4.51868336539E-04 +8.80706637056E-05 -4.06399673343E-04 +7.26528217014E-05 -3.89527761850E-01 +8.69653335418E-01
1.34500000000E+09 -2.03448191726E-01 +8.99008384164E-01 -4.01859002423E-04 +1.87461159772E-04 -3.92760127791E-04 +1.36982422141E-04 -3.78525224672E-01 +8.73027570968E-01
1.35000000000E+09 -1.88566263930E-01 +8.99055545070E-01 -3.64306172431E-04 +1.64289266983E-04 -4.11875282291E-04 +1.77343300425E-04 -3.67179930309E-01 +8.76104691746E-01
1.35500000000E+09 -1.72675264244E-01 +8.98923551349E-01 -3.61988033396E-04 +1.76491053452E-04 -3.69396275890E-04 +1.81323938534E-04 -3.55606216095E-01 +8.78913383522E-01
1.36000000000E+09 -1.56623165004E-01 +8.99018073979E-01 -3.65299422961E-04 +1.94580832972E-04 -4.12457185009E-04 +2.00510894454E-04 -3.43751557041E-01 +8.81594822185E-01
1.36500000000E+09 -1.41046207494E-01 +8.99110919529E-01 -4.74916297381E-04 +2.61791722656E-04 -3.95940658731E-04 +1.98007670766E-04 -3.31535761629E-01 +8.84176070924E-01
1.37000000000E+09 -1.26516462972E-01 +8.99166103545E-01 -4.45066360056E-04 +2.97890971627E-04 -4.21737237179E-04 +2.31549571790E-04 -3.18638434623E-01 +8.86510739920E-01
1.37500000000E+09 -1.13311174492E-01 +8.99210116094E-01 -5.11870841537E-04 +3.72019314246E-04 -5.24684684248E-04 +3.22075866972E-04 -3.04866539877E-01 +8.88865283242E-01
1.38000000000E+09 -1.01281701805E-01 +8.98977035630E-01 -4.43078129090E-04 +4.85547318655E-04 -5.61720229489E-04 +4.69811663817E-04 -2.90201875024E-01 +8.90949716671E-01
1.38500000000E+09 -8.89218822658E-02 +8.98471169297E-01 -3.73015477856E-04 +5.67037486902E-04 -4.23236948319E-04 +5.97433859477E-04 -2.74815083106E-01 +8.92791696528E-01
1.39000000000E+09 -7.63580781668E-02 +8.97221887546E-01 -3.03559211999E-04 +5.61217863674E-04 -3.92578993281E-04 +6.36193786120E-04 -2.58700284241E-01 +8.94311315040E-01
1.39500000000E+09 -6.20574805086E-02 +8.95367507639E-01 -3.15366898164E-04 +5.69840046790E-04 -2.87435896425E-04 +6.79705915374E-04 -2.41818552546E-01 +8.94929369139E-01
1.40000000000E+09 -4.55840962317E-02 +8.92294785241E-01 -3.43750176215E-04 +6.27368495584E-04 -2.42747146130E-04 +6.62035376023E-04 -2.24114031486E-01 +8.95557601757E-01
1.40500000000E+09 -2.71944260060E-02 +8.88088090107E-01 -2.53101970493E-04 +7.30891030166E-04 -2.40446368011E-04 +7.34082771597E-04 -2.05533259647E-01 +8.95405076490E-01
1.41000000000E+09 -6.90976204045E-03 +8.82833928760E-01 -2.18804544536E-04 +8.49188499689E-04 -2.28925677236E-04 +7.91470747411E-04 -1.85221972890E-01 +8.94727440070E-01
1.41500000000E+09 +1.43672768110E-02 +8.76782152624E-01 -1.79294488972E-04 +8.47350801436E-04 -2.09450945475E-04 +8.50679338583E-04 -1.63654171506E-01 +8.93313537475E-01
1.42000000000E+09 +3.61648346548E-02 +8.70168354415E-01 -1.77326243669E-04 +9.21534690903E-04 -1.75113619478E-04 +1.01572678317E-03 -1.40564725617E-01 +8.90647131226E-01
1.42500000000E+09 +5.79736786064E-02 +8.62988742160E-01 -1.89580696028E-04 +1.07981795961E-03 -1.41014394012E-04 +1.25338767253E-03 -1.16673392202E-01 +8.86885840586E-01
1.43000000000E+09 +7.94947018557E-02 +8.55135308198E-01 +2.15963535603E-05 +1.26855872277E-03 +1.16002692076E-04 +1.39932642388E-03 -9.16879010095E-02 +8.82089795714E-01
1.43500000000E+09 +1.01258054632E-01 +8.46155592111E-01 +2.29421745256E-04 +1.39879373917E-03 +3.05164958373E-04 +1.41374621991E-03 -6.53175419822E-02 +8.75341923603E-01
1.44000000000E+09 +1.23567510193E-01 +8.35844076452E-01 +4.11035489661E-04 +1.34389354038E-03 +5.11721460373E-04 +1.36024800088E-03 -3.71194409546E-02 +8.66726134732E-01
1.44500000000E+09 +1.47242783377E-01 +8.22958646922E-01 +4.89208976223E-04 +1.35469099171E-03 +5.97373838597E-04 +1.34914703875E-03 -6.73484922882E-03 +8.55397545289E-01
1.45000000000E+09 +1.72611097052E-01 +8.06789689825E-01 +4.92682433713E-04 +1.60515791293E-03 +6.31216537424E-04 +1.65063278054E-03 +2.54245300834E-02 +8.40590695573E-01
1.45500000000E+09 +2.00243222619E-01 +7.86685686896E-01 +7.71822200269E-04 +1.92239562467E-03 +9.43140362512E-04 +1.85343218240E-03 +5.87643591312E-02 +8.22745756967E-01
1.46000000000E+09 +2.30217964895E-01 +7.62070331521E-01 +1.26679255069E-03 +2.22859945807E-03 +1.38042750612E-03 +2.02060520605E-03 +9.39637048415E-02 +8.01033246228E-01
1.46500000000E+09 +2.61870077133E-01 +7.31834023721E-01 +1.92717381754E-03 +2.39867749873E-03 +1.89549996139E-03 +2.11687074924E-03 +1.30658607564E-01 +7.73715251540E-01
1.47000000000E+09 +2.94136800889E-01 +6.96277134175E-01 +2.75743413432E-03 +2.30662220604E-03 +2.52464568995E-03 +2.13153575517E-03 +1.67907739852E-01 +7.39452958160E-01
1.47500000000E+09 +3.25917043741E-01 +6.54456714612E-01 +3.62899975022E-03 +1.88548781974E-03 +3.40531153986E-03 +1.95379897361E-03 +2.04623722961E-01 +6.98159166599E-01
1.48000000000E+09 +3.55236352773E-01 +6.06152211223E-01 +4.25700621240E-03 +1.40303535887E-03 +4.24228056059E-03 +1.46520492577E-03 +2.41271108290E-01 +6.48657903736E-01
1.48500000000E+09 +3.80828945533E-01 +5.51540355022E-01 +4.88280705710E-03 +8.67577416736E-04 +5.05393230462E-03 +8.05949254233E-04 +2.76018316600E-01 +5.89069489401E-01
1.49000000000E+09 +4.01009342405E-01 +4.89200426739E-01 +5.96051624219E-03 +8.85905329376E-05 +5.94891340892E-03 -2.06301762627E-04 +3.04048882711E-01 +5.18297499961E-01
1.49500000000E+09 +4.13754705544E-01 +4.18870360370E-01 +6.83672981663E-03 -1.50290770398E-03 +6.46423184463E-03 -1.73434486097E-03 +3.21406547663E-01 +4.37278885812E-01
1.50000000000E+09 +4.16244355635E-01 +3.39682689223E-01 +7.64682094151E-03 -3.10420140614E-03 +7.18945236460E-03 -2.99223060963E-03 +3.26077557889E-01 +3.48069055653E-01
1.50500000000E+09 +4.05819923079E-01 +2.52846164150E-01 +7.86130647235E-03 -6.49252013799E-03 +7.72859360156E-03 -6.01279649700E-03 +3.13206971755E-01 +2.50440484588E-01
1.51000000000E+09 +3.78394874834E-01 +1.59411099718E-01 +5.59078713614E-03 -9.99466357715E-03 +5.90868418030E-03 -9.57903796809E-03 +2.79043759805E-01 +1.50310886753E-01
1.51500000000E+09 +3.29803534602E-01 +6.55650244461E-02 +2.52800384346E-03 -1.16035050499E-02 +2.87387042985E-03 -1.15904959087E-02 +2.23204148068E-01 +5.47197814419E-02
1.52000000000E+09 +2.59693834431E-01 -2.03518809133E-02 -1.22056364054E-03 -1.26317662863E-02 -1.08864917181E-03 -1.27956496217E-02 +1.46641367660E-01 -3.02367234564E-02
1.52500000000E+09 +1.71294353551E-01 -9.18972333677E-02 -4.94236737222E-03 -1.13868151267E-02 -4.95622811388E-03 -1.14853144734E-02 +5.17285267208E-02 -9.75190514889E-02
1.53000000000E+09 +6.86362781719E-02 -1.43072386245E-01 -7.50011195959E-03 -1.02813768910E-02 -7.53982090054E-03 -1.03634182686E-02 -5.53395502407E-02 -1.41697381695E-01
1.53500000000E+09 -4.22685617018E-02 -1.70647537265E-01 -1.04281043257E-02 -8.00978603627E-03 -1.04896735146E-02 -7.99602347916E-03 -1.66547058025E-01 -1.61021057616E-01
1.54000000000E+09 -1.55591518108E-01 -1.72566731786E-01 -1.30656980677E-02 -4.92757786988E-03 -1.29006685951E-02 -4.95082324006E-03 -2.74640693986E-01 -1.56463135001E-01
1.54500000000E+09 -2.64222048168E-01 -1.49476446944E-01 -1.43132464487E-02 +8.47647521705E-05 -1.41160679561E-02 -1.87378112363E-04 -3.71978944386E-01 -1.32574550432E-01
1.55000000000E+09 -3.60529233813E-01 -1.05001440768E-01 -1.22511404993E-02 +4.61537280848E-03 -1.24281882019E-02 +4.15739140961E-03 -4.56236708651E-01 -9.50854638865E-02
1.55500000000E+09 -4.39466181157E-01 -4.70977424365E-02 -9.17302486790E-03 +7.44166865353E-03 -9.67554816757E-03 +7.17697326484E-03 -5.26103007698E-01 -4.86758948609E-02
1.56000000000E+09 -5.01181698554E-01 +1.50751036346E-02 -5.79915827580E-03 +8.52807450497E-03 -6.37112120962E-03 +8.74538206282E-03 -5.82842975906E-01 +3.84844932827E-03
1.56500000000E+09 -5.50468780268E-01 +7.77102547946E-02 -2.93206059935E-03 +8.07752706347E-03 -3.19508544418E-03 +8.55365746194E-03 -6.27517957150E-01 +5.84435999318E-02
1.57000000000E+09 -5.87741053926E-01 +1.39518342078E-01 -1.24920850231E-03 +7.14223359851E-03 -1.24533840466E-03 +7.64825659053E-03 -6.60860493181E-01 +1.13318331840E-01
