# Hz S RI R 50
! CMT, C1220, 16058040, 17.2.0/1
! Date: 14/08/2018 12:06:29
! Data: Format (Calibration Info)
! Freq                      S11: Re/Im (F2)                       S21: Re/Im (F2)                       S12: Re/Im (F2)                       S22: Re/Im (F2)            
1.00000000000E+09 -6.54225693102E-01 +7.09816386797E-01 -1.77147559946E-05 +9.66040569310E-06 -2.08720015951E-05 +6.65716161040E-06 -7.53395568519E-01 +6.25636550417E-01
1.00500000000E+09 -6.47263947706E-01 +7.14322101522E-01 -3.24960767090E-05 +6.61700372010E-06 +1.15434079401E-05 -1.12657627426E-07 -7.49873532553E-01 +6.29776947245E-01
1.01000000000E+09 -6.41616953686E-01 +7.18578631547E-01 -8.10986460014E-05 -5.73922380241E-06 -2.84379579513E-05 -1.20938151923E-05 -7.46267328164E-01 +6.33354248531E-01
1.01500000000E+09 -6.37424782893E-01 +7.21992478217E-01 -3.31218882133E-05 +1.08960242549E-05 -2.68285430212E-05 -1.84295254606E-05 -7.42919585818E-01 +6.37232369018E-01
1.02000000000E+09 -6.34463770178E-01 +7.25572530890E-01 -3.13005639882E-05 +3.16273678985E-05 -9.97822004165E-06 +3.45494222194E-06 -7.39622652100E-01 +6.40927582103E-01
1.02500000000E+09 -6.32635734836E-01 +7.28523547167E-01 -2.66726478207E-05 +1.42828636762E-05 +1.53491688870E-05 -1.29662531591E-05 -7.36561360002E-01 +6.44495878748E-01
1.03000000000E+09 -6.31247249229E-01 +7.31275653750E-01 -2.68220986444E-06 +2.13887832559E-05 -1.30638492703E-05 +1.49468229431E-05 -7.33188813290E-01 +6.48274111758E-01
1.03500000000E+09 -6.28977540605E-01 +7.34079877805E-01 -5.18269140267E-05 +2.81400207611E-05 -3.08920414859E-06 +6.90680861536E-05 -7.29217626604E-01 +6.52150340241E-01
1.04000000000E+09 -6.25496689381E-01 +7.37266211371E-01 +2.58163156785E-05 +2.32460087435E-05 +4.01612988191E-05 -4.34562263340E-06 -7.25480645888E-01 +6.55893213243E-01
1.04500000000E+09 -6.20693202054E-01 +7.40782881741E-01 -3.06175116011E-05 +7.24900973860E-06 -4.28541009155E-05 +1.79021246920E-05 -7.22020068688E-01 +6.59459001254E-01
1.05000000000E+09 -6.14041586126E-01 +7.44892464982E-01 -1.47088706027E-05 +2.95496069652E-05 -1.72736175717E-05 +2.10995640350E-05 -7.18486074605E-01 +6.62853365014E-01
1.05500000000E+09 -6.06383154116E-01 +7.48976701827E-01 +3.69344168675E-05 +2.69571564181E-05 -2.48511534222E-05 +1.04413050203E-05 -7.15396391257E-01 +6.66378245732E-01
1.06000000000E+09 -5.98226696389E-01 +7.53422238179E-01 +2.82419254092E-05 +1.08774788107E-05 -1.92332728549E-05 +3.87727541808E-05 -7.11994064847E-01 +6.70195986880E-01
1.06500000000E+09 -5.90273566752E-01 +7.57863917690E-01 -3.88522965935E-06 +2.55437573727E-05 +8.36195208261E-06 +2.99716568646E-05 -7.08212509490E-01 +6.74059306061E-01
1.07000000000E+09 -5.83457585307E-01 +7.61820842042E-01 -3.29378522626E-05 +5.38273767997E-05 -1.76713097804E-05 +1.28317369988E-05 -7.04313969089E-01 +6.77636270448E-01
1.07500000000E+09 -5.77996554903E-01 +7.65509429101E-01 -3.06093720079E-05 -2.79563392346E-06 +5.01208189995E-06 +3.08178984899E-05 -6.99985400297E-01 +6.81431712858E-01
1.08000000000E+09 -5.74141023006E-01 +7.68920462388E-01 +3.50343821902E-05 +2.41668262561E-05 -1.02452412970E-05 -4.80660451865E-06 -6.95929421008E-01 +6.85231153338E-01
1.08500000000E+09 -5.71469932396E-01 +7.71832042735E-01 +6.53816149642E-06 +8.15099930307E-05 -2.43073818955E-05 +5.18929298625E-07 -6.91931234041E-01 +6.89037325858E-01
1.09000000000E+09 -5.69229520386E-01 +7.74540582069E-01 +1.59900481148E-05 +4.60658651891E-05 +2.80502762807E-05 +9.15592511310E-06 -6.88087247066E-01 +6.92892440690E-01
1.09500000000E+09 -5.67070440540E-01 +7.77033402760E-01 +5.85198201207E-05 +6.89210775670E-05 +3.23352626364E-05 +1.71715709702E-05 -6.84307077474E-01 +6.96828024840E-01
1.10000000000E+09 -5.63586938881E-01 +7.79595166269E-01 +5.41258026411E-05 +4.95949912704E-05 +4.26848923736E-05 +4.40863525895E-05 -6.80235640388E-01 +7.00583032486E-01
1.10500000000E+09 -5.59269912617E-01 +7.82579845018E-01 +1.22121693689E-05 +2.71710240893E-05 +1.84009293256E-05 +2.68622520251E-05 -6.76121611602E-01 +7.04041515446E-01
1.11000000000E+09 -5.53288602136E-01 +7.85910198362E-01 +1.67083272261E-05 +6.89757702103E-05 +6.88627191295E-05 +1.15248541019E-05 -6.71926920924E-01 +7.07502178816E-01
1.11500000000E+09 -5.46140219922E-01 +7.89432147378E-01 +1.48680108466E-05 +6.09782561213E-05 +1.82595372269E-05 +2.33656860621E-05 -6.67785041983E-01 +7.10988219345E-01
1.12000000000E+09 -5.38720126314E-01 +7.93066866261E-01 +4.16058267679E-05 +1.95576238746E-05 +5.29522501163E-05 +3.48786015960E-05 -6.63534176156E-01 +7.14718014996E-01
1.12500000000E+09 -5.31051300193E-01 +7.96634131642E-01 +6.10950224262E-05 +3.10255826214E-05 -1.07832256771E-05 +2.15454912007E-06 -6.59228140235E-01 +7.18683952853E-01
1.13000000000E+09 -5.24493942502E-01 +8.00215645380E-01 +2.01303953182E-05 +2.07963010950E-05 +4.72752958941E-05 -4.54155202892E-06 -6.55074009980E-01 +7.22297047768E-01
1.13500000000E+09 -5.18651420838E-01 +8.03045662910E-01 +2.01534319828E-05 +3.02980030164E-05 +4.21472230971E-05 +6.77220903176E-05 -6.50552663152E-01 +7.26159277539E-01
1.14000000000E+09 -5.14045221300E-01 +8.05929269906E-01 +1.58329274939E-06 +6.80548727878E-05 +1.54963391360E-05 +3.29259822487E-05 -6.45913688169E-01 +7.29598509425E-01
1.14500000000E+09 -5.10438069586E-01 +8.08388111961E-01 +4.46085442009E-05 +4.75230710868E-05 +8.62180258502E-05 +1.81599712801E-05 -6.41179106274E-01 +7.33073153097E-01
1.15000000000E+09 -5.06907952893E-01 +8.10725143442E-01 +5.58784215205E-05 +6.41601989686E-05 +4.20921854472E-05 +4.03687046660E-05 -6.36490732304E-01 +7.36868563131E-01
1.15500000000E+09 -5.03401652163E-01 +8.13129197306E-01 +5.55096189481E-05 +1.59713881274E-05 +6.76134734979E-05 +6.37541829498E-05 -6.31656230504E-01 +7.40603490709E-01
1.16000000000E+09 -4.98830702133E-01 +8.15481458287E-01 +6.25939551938E-05 +2.08330844095E-05 +7.55725699164E-05 +6.55252213681E-05 -6.26852351363E-01 +7.44497947692E-01
1.16500000000E+09 -4.93226224177E-01 +8.18337664562E-01 +6.15052576008E-05 +3.97490175295E-05 +1.33153093921E-04 +5.02773163565E-05 -6.21697087056E-01 +7.48216003386E-01
1.17000000000E+09 -4.86316264779E-01 +8.21369915649E-01 +8.93885794523E-05 +6.79401005403E-05 +5.59631088987E-05 +1.34589711620E-05 -6.16188202548E-01 +7.51439352254E-01
1.17500000000E+09 -4.78461840421E-01 +8.24392160133E-01 +9.74435099608E-05 +2.41249835989E-05 +1.15658536540E-04 -2.34324187996E-06 -6.10557301733E-01 +7.54781922700E-01
1.18000000000E+09 -4.70490351584E-01 +8.27498670521E-01 +1.16473514882E-04 +2.07973333775E-05 +1.19788359027E-04 +5.57165664121E-05 -6.04917859912E-01 +7.57826114897E-01
1.18500000000E+09 -4.62541898105E-01 +8.30490538654E-01 +9.18808416752E-05 +4.07786575453E-06 +1.33146225800E-04 +4.61791790904E-05 -5.99107316339E-01 +7.60942111343E-01
1.19000000000E+09 -4.55690227357E-01 +8.33035426208E-01 +1.77816474100E-04 +2.27236833763E-05 +1.99833222209E-04 +9.79711215884E-06 -5.92714420532E-01 +7.63628733111E-01
1.19500000000E+09 -4.49655623721E-01 +8.35184532135E-01 +1.90275515345E-04 -3.78471000936E-05 +2.03641351063E-04 +6.15384922316E-06 -5.86782418546E-01 +7.64762990595E-01
1.20000000000E+09 -4.44801768866E-01 +8.36468872855E-01 +2.05579855446E-04 -4.90268071431E-05 +1.79406488510E-04 -7.49616717761E-05 -5.82362312068E-01 +7.64973933738E-01
1.20500000000E+09 -4.40861031804E-01 +8.38291314479E-01 +1.46721993086E-04 -1.72723628025E-04 +1.46429734174E-04 -1.17067435252E-04 -5.80080383613E-01 +7.65706813079E-01
1.21000000000E+09 -4.36714683806E-01 +8.40351049891E-01 +1.11026964753E-04 -1.25581713787E-04 +9.48761863477E-05 -1.77524705108E-04 -5.78301788138E-01 +7.68795811876E-01
1.21500000000E+09 -4.31476728819E-01 +8.42637412996E-01 +8.04572811736E-05 -1.18244605942E-04 +7.32394351525E-05 -9.41855948436E-05 -5.75540067195E-01 +7.73423479478E-01
1.22000000000E+09 -4.24972546752E-01 +8.45056413718E-01 +7.43065767265E-05 -1.25774530248E-04 +1.00698797023E-04 -8.66991693658E-05 -5.71259665582E-01 +7.78780324517E-01
1.22500000000E+09 -4.16874749910E-01 +8.47942977903E-01 +8.34685581727E-05 -1.25896840832E-04 +7.89963593027E-05 -1.13356033348E-04 -5.66218026856E-01 +7.83878626003E-01
1.23000000000E+09 -4.07526101761E-01 +8.50941182559E-01 +7.89379428882E-05 -1.27893315427E-04 +5.07360432698E-05 -1.60345029589E-04 -5.60417424189E-01 +7.88573482378E-01
1.23500000000E+09 -3.97486152832E-01 +8.54300051389E-01 +6.74335327070E-05 -1.23693541639E-04 +3.93258101600E-05 -1.53899680324E-04 -5.54546567718E-01 +7.92792868931E-01
1.24000000000E+09 -3.87416978293E-01 +8.57554193930E-01 +1.04150130405E-04 -1.53205503931E-04 +8.64355074617E-05 -1.46113758174E-04 -5.48591349167E-01 +7.96796543494E-01
1.24500000000E+09 -3.77861995840E-01 +8.61034137364E-01 +9.80408002528E-05 -1.62931891415E-04 +6.44868716997E-05 -1.83909288536E-04 -5.42072813975E-01 +8.00489840207E-01
1.25000000000E+09 -3.69440230261E-01 +8.64082208168E-01 +7.97779358682E-05 -2.45371275927E-04 +6.58311211157E-05 -2.04228325001E-04 -5.35500655133E-01 +8.04815941352E-01
1.25500000000E+09 -3.62175600590E-01 +8.66641159438E-01 +3.65844977756E-05 -2.25440717014E-04 +1.47970628256E-05 -2.82624333330E-04 -5.28785845594E-01 +8.08752784005E-01
1.26000000000E+09 -3.55994499954E-01 +8.69135580423E-01 -3.84832547179E-05 -2.72255439372E-04 +8.08556079504E-07 -2.71273555642E-04 -5.21975906843E-01 +8.13165543376E-01
1.26500000000E+09 -3.50535107310E-01 +8.71345893560E-01 -9.49217661396E-05 -2.70663751910E-04 -4.68599715070E-05 -2.97153284382E-04 -5.15009969227E-01 +8.16915983258E-01
1.27000000000E+09 -3.44829294572E-01 +8.73488326084E-01 -5.77465324644E-05 -2.69089803620E-04 -9.08919607605E-05 -2.66136863561E-04 -5.08066058223E-01 +8.20866578086E-01
1.27500000000E+09 -3.38229537388E-01 +8.75622992686E-01 -1.17835275495E-04 -2.94847502120E-04 -6.52517324795E-05 -2.84569323009E-04 -5.01091213863E-01 +8.24405454022E-01
1.28000000000E+09 -3.30360356307E-01 +8.77985594342E-01 -1.77697514453E-04 -2.31863631725E-04 -1.49860324188E-04 -2.67975472951E-04 -4.94026928652E-01 +8.27883565053E-01
1.28500000000E+09 -3.20633160091E-01 +8.80416444437E-01 -1.97069020243E-04 -2.61346663333E-04 -1.90821021415E-04 -2.93891684746E-04 -4.86649820388E-01 +8.31589985325E-01
1.29000000000E+09 -3.09850083607E-01 +8.82857625153E-01 -2.25379917778E-04 -2.31777794505E-04 -2.22639063492E-04 -2.93348215398E-04 -4.79223198657E-01 +8.35313586478E-01
1.29500000000E+09 -2.98315290099E-01 +8.85640472295E-01 -2.52177382896E-04 -2.51797429507E-04 -2.44711987937E-04 -2.63305908139E-04 -4.71294108105E-01 +8.38795314703E-01
1.30000000000E+09 -2.86738933908E-01 +8.88167404933E-01 -2.95703747483E-04 -2.70321981587E-04 -3.47918356027E-04 -1.83817020456E-04 -4.63421683667E-01 +8.42381444861E-01
1.30500000000E+09 -2.76238429125E-01 +8.90665403371E-01 -4.43060066737E-04 -2.33109500536E-04 -3.77077568633E-04 -1.85439921674E-04 -4.55206632809E-01 +8.45945533114E-01
1.31000000000E+09 -2.66833130179E-01 +8.92856085547E-01 -4.30255122936E-04 -1.74318819336E-04 -3.93593097295E-04 -1.21257720139E-04 -4.46876660336E-01 +8.49313388854E-01
1.31500000000E+09 -2.58789742198E-01 +8.94744865434E-01 -3.61439818918E-04 -7.47267344511E-05 -3.89414861413E-04 -8.01884537117E-05 -4.37969422786E-01 +8.52685263799E-01
1.32000000000E+09 -2.51808250349E-01 +8.96268335521E-01 -3.26726833910E-04 -3.44996903370E-05 -3.51934974618E-04 -5.02586414302E-05 -4.28820785217E-01 +8.56167809164E-01
1.32500000000E+09 -2.45368226053E-01 +8.97576194516E-01 -3.91034588742E-04 -4.67418158967E-05 -4.20405152399E-04 -5.40518369764E-05 -4.19188201739E-01 +8.59499192230E-01
1.33000000000E+09 -2.38128831285E-01 +8.98704432326E-01 -4.57766480327E-04 -3.23196369940E-05 -4.69059988885E-04 +7.80876502995E-05 -4.09480789995E-01 +8.62800155693E-01
1.33500000000E+09 -2.29287063081E-01 +8.99385721509E-01 -4.46692806940E-04 +3.71612247922E-05 -4.66999518622E-04 +6.32842674684E-05 -3.99673981767E-01 +8.66047669611E-01
1.34000000000E+09 -2.18297534144E-01 +9.00008776174E-01 -5.05872516292E-04 +9.12719677767E-05 -4.51132904695E-04 +1.18110429397E-04 -3.89406783174E-01 +8.69429357937E-01
1.34500000000E+09 -2.05072910855E-01 +9.00297945839E-01 -4.70494579777E-04 +1.82188459201E-04 -4.51152614144E-04 +1.88231720385E-04 -3.78483588234E-01 +8.72793798360E-01
1.35000000000E+09 -1.90222929374E-01 +9.00301696491E-01 -4.35522658843E-04 +2.10179437389E-04 -4.28623953235E-04 +1.93990011187E-04 -3.67276799491E-01 +8.75829279050E-01
1.35500000000E+09 -1.74187708762E-01 +9.00190276284E-01 -4.00386063445E-04 +2.28619149291E-04 -4.21084064709E-04 +2.40006306405E-04 -3.55554922033E-01 +8.78555184047E-01
1.36000000000E+09 -1.58064272150E-01 +9.00112085588E-01 -4.16891304218E-04 +2.06184778417E-04 -4.26445266424E-04 +2.70849752035E-04 -3.43735840632E-01 +8.81257078732E-01
1.36500000000E+09 -1.42444583718E-01 +9.00385521315E-01 -4.59354292720E-04 +2.86786524971E-04 -3.97132201012E-04 +2.27021272381E-04 -3.31742954531E-01 +8.83791154082E-01
1.37000000000E+09 -1.27654911089E-01 +9.00411241892E-01 -5.02915303150E-04 +3.14234688953E-04 -4.94098002951E-04 +2.73180090916E-04 -3.18751910681E-01 +8.86125193820E-01
1.37500000000E+09 -1.14504612789E-01 +9.00385016210E-01 -5.43030910103E-04 +4.43233501190E-04 -5.40316858795E-04 +3.83514961249E-04 -3.05048481914E-01 +8.88321122892E-01
1.38000000000E+09 -1.02171444140E-01 +9.00055278616E-01 -4.47619664666E-04 +5.72516314976E-04 -5.68251167610E-04 +5.55342993707E-04 -2.90441777719E-01 +8.90337609608E-01
1.38500000000E+09 -8.97718256394E-02 +8.99367195330E-01 -2.77355145110E-04 +6.13231541438E-04 -3.60133559177E-04 +6.27851387683E-04 -2.74954551775E-01 +8.92293501661E-01
1.39000000000E+09 -7.69947675743E-02 +8.98109397814E-01 -2.60862942271E-04 +5.96279335003E-04 -3.13438319022E-04 +6.41972858306E-04 -2.59069499117E-01 +8.93841946766E-01
1.39500000000E+09 -6.27022916448E-02 +8.96180847894E-01 -3.10229828765E-04 +6.15330416618E-04 -2.83583129362E-04 +7.24930211283E-04 -2.42143748238E-01 +8.94487667473E-01
1.40000000000E+09 -4.60391205282E-02 +8.92863833595E-01 -3.17925261266E-04 +6.86972958585E-04 -2.57707594952E-04 +7.60728711140E-04 -2.24664357496E-01 +8.94995692774E-01
1.40500000000E+09 -2.75164899059E-02 +8.88625435413E-01 -3.34807413819E-04 +7.83474682578E-04 -2.59834670117E-04 +8.30045942257E-04 -2.06110909350E-01 +8.94897688661E-01
1.41000000000E+09 -7.28414141830E-03 +8.83199189833E-01 -2.43174831010E-04 +9.60972994087E-04 -2.34727250443E-04 +9.58507723761E-04 -1.86078823303E-01 +8.94236164760E-01
1.41500000000E+09 +1.37209304320E-02 +8.76917011956E-01 -6.58344625896E-05 +9.49950182927E-04 -9.47042047696E-05 +9.78562502677E-04 -1.64534130912E-01 +8.92890651029E-01
1.42000000000E+09 +3.53765409179E-02 +8.70227268387E-01 -8.58525207775E-05 +9.87312838569E-04 -1.17351616099E-04 +1.09646388207E-03 -1.41630083642E-01 +8.90378434797E-01
1.42500000000E+09 +5.70083566326E-02 +8.62672333617E-01 -1.21317355544E-04 +1.16286438295E-03 -5.73391733291E-05 +1.34564114338E-03 -1.17766362016E-01 +8.86871817245E-01
1.43000000000E+09 +7.86096456690E-02 +8.54590900757E-01 +9.48766088478E-05 +1.42164043063E-03 +2.29603094821E-04 +1.55446210784E-03 -9.28772850190E-02 +8.82209025760E-01
1.43500000000E+09 +1.00091537264E-01 +8.45369249235E-01 +4.10785937943E-04 +1.47168319846E-03 +6.07881795181E-04 +1.54187065865E-03 -6.65043414292E-02 +8.75551360601E-01
1.44000000000E+09 +1.22150937470E-01 +8.34946306859E-01 +5.96327128553E-04 +1.40161804701E-03 +7.21157182808E-04 +1.37515322544E-03 -3.82827467179E-02 +8.67163869636E-01
1.44500000000E+09 +1.45839942268E-01 +8.21795169638E-01 +6.58799695574E-04 +1.43816238056E-03 +7.37810246651E-04 +1.44248478590E-03 -7.94802364162E-03 +8.55898788638E-01
1.45000000000E+09 +1.71177605459E-01 +8.05161330594E-01 +7.57668722923E-04 +1.75846723394E-03 +8.59198321851E-04 +1.74139390437E-03 +2.40079236507E-02 +8.41252979909E-01
1.45500000000E+09 +1.98358582348E-01 +7.84774068958E-01 +1.10824159881E-03 +2.06916685925E-03 +1.31377585628E-03 +1.96008493721E-03 +5.76188379763E-02 +8.23765629127E-01
1.46000000000E+09 +2.28016122780E-01 +7.59633959119E-01 +1.82187697169E-03 +2.20640608118E-03 +1.97838000461E-03 +1.90727835362E-03 +9.26041196663E-02 +8.02205095980E-01
1.46500000000E+09 +2.59283226938E-01 +7.29004022365E-01 +2.36795331269E-03 +1.99099073147E-03 +2.31121224725E-03 +1.68085755691E-03 +1.29302377155E-01 +7.75395772211E-01
1.47000000000E+09 +2.90558663752E-01 +6.92979243316E-01 +2.99667086738E-03 +1.88549591185E-03 +2.73713344228E-03 +1.71482798340E-03 +1.66989388997E-01 +7.41431720493E-01
1.47500000000E+09 +3.21287747141E-01 +6.50800897417E-01 +3.71854919980E-03 +1.65123522786E-03 +3.49161463425E-03 +1.73328590063E-03 +2.03992688164E-01 +7.00089377592E-01
1.48000000000E+09 +3.49387836979E-01 +6.02275802392E-01 +4.62709500371E-03 +1.23711482979E-03 +4.67508316459E-03 +1.39071867145E-03 +2.40610481376E-01 +6.51014341695E-01
1.48500000000E+09 +3.73306976339E-01 +5.47790568643E-01 +5.46365855247E-03 +2.50644959456E-04 +5.57825661535E-03 +1.61384125389E-04 +2.75696762547E-01 +5.91912373218E-01
1.49000000000E+09 +3.92091559105E-01 +4.86212188648E-01 +6.22529095384E-03 -7.97139696076E-04 +6.16339192215E-03 -1.09123262358E-03 +3.04137540928E-01 +5.21711147959E-01
1.49500000000E+09 +4.03358125198E-01 +4.16546322796E-01 +6.79745957058E-03 -2.35664534405E-03 +6.44705216807E-03 -2.56018621293E-03 +3.22621666351E-01 +4.41301437126E-01
1.50000000000E+09 +4.03888260282E-01 +3.38471614123E-01 +7.51766160630E-03 -4.12395491161E-03 +7.06290855161E-03 -3.93567073414E-03 +3.28481355547E-01 +3.52211055065E-01
1.50500000000E+09 +3.91528188049E-01 +2.53943519585E-01 +7.39702207432E-03 -7.60191436517E-03 +7.32412812005E-03 -7.07069991181E-03 +3.17257883870E-01 +2.54194261207E-01
1.51000000000E+09 +3.62529522952E-01 +1.63815536741E-01 +4.77577384178E-03 -1.09391699097E-02 +5.14535696175E-03 -1.06374023204E-02 +2.84525657708E-01 +1.52872295142E-01
1.51500000000E+09 +3.13573924020E-01 +7.47193309308E-02 +1.22066299149E-03 -1.25792682469E-02 +1.55626104244E-03 -1.26064373435E-02 +2.29538839777E-01 +5.58827263462E-02
1.52000000000E+09 +2.46161363864E-01 -5.85271732545E-03 -3.17730270723E-03 -1.28105757549E-02 -3.03956149338E-03 -1.30232290004E-02 +1.53796082218E-01 -3.08493743821E-02
1.52500000000E+09 +1.61661517438E-01 -7.48390226223E-02 -6.37442358069E-03 -1.07042732285E-02 -6.43742196378E-03 -1.08086612547E-02 +5.89080794419E-02 -1.00689526516E-01
1.53000000000E+09 +6.27656365248E-02 -1.23868107252E-01 -8.48505922576E-03 -9.76301060963E-03 -8.55502855191E-03 -9.87984553484E-03 -4.96188213946E-02 -1.47221891201E-01
1.53500000000E+09 -4.30576789877E-02 -1.50310450657E-01 -1.19648871176E-02 -7.46670513136E-03 -1.19525704803E-02 -7.46112222770E-03 -1.62436936111E-01 -1.68152943421E-01
1.54000000000E+09 -1.51622756322E-01 -1.53186461180E-01 -1.43028315349E-02 -3.18117832033E-03 -1.41687578446E-02 -3.16341601935E-03 -2.73435546791E-01 -1.64730083996E-01
1.54500000000E+09 -2.55907256339E-01 -1.32080694276E-01 -1.42346741497E-02 +2.15294479014E-03 -1.41186896259E-02 +1.79609722703E-03 -3.73587995251E-01 -1.40151695002E-01
1.55000000000E+09 -3.48381066597E-01 -9.09537608590E-02 -1.15879139426E-02 +5.95249650661E-03 -1.17932592796E-02 +5.55659327429E-03 -4.59461139425E-01 -1.01445818380E-01
1.55500000000E+09 -4.25302875086E-01 -3.81945304518E-02 -8.67353812933E-03 +8.20693867994E-03 -9.19630398101E-03 +7.94717590760E-03 -5.31002924264E-01 -5.32601829839E-02
1.56000000000E+09 -4.87644963559E-01 +1.95197499893E-02 -5.20148959055E-03 +9.40746833051E-03 -5.74145114487E-03 +9.66081321892E-03 -5.87941288036E-01 +1.24232009988E-03
1.56500000000E+09 -5.37830365334E-01 +7.93948114144E-02 -2.10135477547E-03 +8.75407093866E-03 -2.35505668261E-03 +9.23441711840E-03 -6.32213880564E-01 +5.70352323032E-02
1.57000000000E+09 -5.76317579401E-01 +1.38690076270E-01 -3.11922357191E-04 +7.51286862982E-03 -2.54570583513E-04 +7.96545423255E-03 -6.65484066968E-01 +1.12849903805E-01
