# Hz S RI R 50
! CMT, C1220, 16058040, 17.2.0/1
! Date: 14/08/2018 12:04:03
! Data: Format (Calibration Info)
! Freq                      S11: Re/Im (F2)                       S21: Re/Im (F2)                       S12: Re/Im (F2)                       S22: Re/Im (F2)            
1.00000000000E+09 -6.52910771702E-01 +7.09713728738E-01 -1.20021021909E-05 +2.20741521393E-05 +9.46224031289E-06 -4.34034162599E-05 -7.53486922061E-01 +6.25626669891E-01
1.00500000000E+09 -6.46022219076E-01 +7.14369377393E-01 -4.32067208705E-06 +8.19332051877E-06 +2.99431252891E-05 +3.74441807321E-06 -7.49785991714E-01 +6.29610086435E-01
1.01000000000E+09 -6.40353649800E-01 +7.18655226168E-01 +1.05128362035E-06 +9.79020073849E-06 -1.49457457456E-05 +3.79032005436E-06 -7.46273085760E-01 +6.33389744860E-01
1.01500000000E+09 -6.36154633447E-01 +7.22305353577E-01 -8.25477879430E-06 +1.23559967799E-05 -3.09138246441E-06 -2.46769575185E-05 -7.42900276901E-01 +6.37191136289E-01
1.02000000000E+09 -6.33272962034E-01 +7.25733716083E-01 +3.31952626372E-07 -2.43415748018E-05 +2.04597866468E-05 +1.19399891867E-05 -7.39479365066E-01 +6.40714510711E-01
1.02500000000E+09 -6.31189732343E-01 +7.28616815119E-01 -2.78558902777E-05 -3.03674990488E-05 -1.34188816028E-05 +3.88959853345E-05 -7.36627759614E-01 +6.44514129409E-01
1.03000000000E+09 -6.29857277391E-01 +7.31414101799E-01 -4.26950108292E-05 +6.73797008263E-05 +8.24403848859E-06 +2.62691378427E-05 -7.33003635081E-01 +6.48367464040E-01
1.03500000000E+09 -6.27536056759E-01 +7.34300592001E-01 -2.49701785411E-05 -4.98636586996E-06 -7.99599924073E-06 +4.95909221926E-06 -7.29241045654E-01 +6.52375819964E-01
1.04000000000E+09 -6.24141807273E-01 +7.37198274483E-01 -3.07755750633E-05 +4.04079986226E-05 -9.13773395206E-06 +3.06039247953E-06 -7.25462955033E-01 +6.55916314839E-01
1.04500000000E+09 -6.19389511157E-01 +7.40791690548E-01 +3.94651209482E-05 +1.46993642258E-05 +1.24174591687E-05 -4.14776332371E-06 -7.21957044155E-01 +6.59511575138E-01
1.05000000000E+09 -6.12708692198E-01 +7.44837139130E-01 -1.74897945372E-05 -2.32745111670E-06 -2.17875710330E-05 +1.49646654282E-05 -7.18699464273E-01 +6.63024118410E-01
1.05500000000E+09 -6.04761709187E-01 +7.49070138252E-01 -3.07341136538E-05 +3.22281179779E-05 -3.89610103995E-05 +4.36611849358E-05 -7.15200361164E-01 +6.66621580872E-01
1.06000000000E+09 -5.96499232440E-01 +7.53591910391E-01 -2.53457317479E-05 -1.15051076416E-05 -4.25461646721E-05 +3.21546176581E-05 -7.11953472232E-01 +6.70280860954E-01
1.06500000000E+09 -5.88595695760E-01 +7.57976458038E-01 -1.87621433757E-06 +6.30194430568E-05 +2.92184261643E-05 +2.07812587598E-05 -7.08247689033E-01 +6.74057707927E-01
1.07000000000E+09 -5.81528898334E-01 +7.61834612095E-01 +1.75659470423E-05 +1.41857833259E-05 +1.02122937204E-05 +1.45979423381E-05 -7.04179471258E-01 +6.77651565786E-01
1.07500000000E+09 -5.76173599216E-01 +7.65592765989E-01 -4.16803933828E-05 -7.91518170237E-06 -3.46427486236E-06 +4.79607931156E-05 -6.99828149144E-01 +6.81449723820E-01
1.08000000000E+09 -5.72431934399E-01 +7.68882960988E-01 +1.91976776790E-05 +5.87314339314E-05 +1.35078599002E-05 +3.69474510561E-05 -6.95959071226E-01 +6.85252711168E-01
1.08500000000E+09 -5.69629293905E-01 +7.71807243963E-01 -1.50505030781E-05 +6.54166264153E-06 +4.39893681834E-05 -3.66312624583E-06 -6.91952461307E-01 +6.88964442096E-01
1.09000000000E+09 -5.67331763139E-01 +7.74505673205E-01 +1.05646350194E-05 +2.95478505194E-05 +5.99180039396E-06 +1.46358246289E-05 -6.88124501467E-01 +6.92824696810E-01
1.09500000000E+09 -5.65441087413E-01 +7.77006810926E-01 +2.45818216261E-05 +5.09093119262E-05 +2.51710414299E-05 +4.75847004184E-05 -6.84155115393E-01 +6.96717669250E-01
1.10000000000E+09 -5.62045507601E-01 +7.79607829173E-01 -1.85518270158E-05 +2.96384185711E-05 +2.17306481518E-05 +1.76564531345E-05 -6.80279105636E-01 +7.00665636169E-01
1.10500000000E+09 -5.57638001138E-01 +7.82600277746E-01 +2.68034382416E-05 +5.29002757487E-05 +3.39867555235E-05 +5.61395869501E-05 -6.76025848600E-01 +7.04284325704E-01
1.11000000000E+09 -5.51679657682E-01 +7.85811678058E-01 +2.31152097705E-05 +5.30375352982E-05 +6.27097084468E-05 +4.54553088486E-05 -6.71700940669E-01 +7.07612105864E-01
1.11500000000E+09 -5.44529525089E-01 +7.89463222982E-01 +5.62855001316E-05 +4.59645800843E-05 +2.92310775750E-05 +4.72608720285E-05 -6.67624182546E-01 +7.10953971689E-01
1.12000000000E+09 -5.36989716783E-01 +7.92933022161E-01 +7.89173976575E-06 -1.38086028828E-05 +3.22276484401E-05 +3.84421940015E-05 -6.63478492944E-01 +7.14791329987E-01
1.12500000000E+09 -5.29334517236E-01 +7.96447651529E-01 +2.86895560507E-05 +2.73363716337E-05 +1.37413474067E-05 +2.18432090588E-05 -6.59252053911E-01 +7.18650210981E-01
1.13000000000E+09 -5.22791459107E-01 +7.99903617510E-01 -2.41457994327E-06 -1.11389761776E-05 +2.70615001747E-05 +5.54771796015E-05 -6.54951812434E-01 +7.22392899831E-01
1.13500000000E+09 -5.16934542146E-01 +8.02825414798E-01 +1.16059621945E-05 +3.71247562055E-05 +6.35618676941E-05 +2.59947213914E-05 -6.50492032400E-01 +7.26207953767E-01
1.14000000000E+09 -5.12219259090E-01 +8.05793869388E-01 +1.42001613759E-05 +4.49933730236E-05 +3.57299548591E-05 +1.90692932167E-05 -6.45776617029E-01 +7.29671090818E-01
1.14500000000E+09 -5.08723332053E-01 +8.07996722914E-01 +6.31044533947E-05 +4.60945833037E-05 +4.61367772691E-05 +2.97453521705E-05 -6.41155351978E-01 +7.33110506024E-01
1.15000000000E+09 -5.05138540805E-01 +8.10388844668E-01 +7.32490660989E-06 +7.14140321367E-05 +6.15597604759E-05 +7.82452295421E-05 -6.36440889244E-01 +7.36918555106E-01
1.15500000000E+09 -5.01509558053E-01 +8.12751060585E-01 +8.21682886946E-05 +4.33057290466E-05 +5.75687963536E-05 +2.83650812793E-05 -6.31649369838E-01 +7.40660815473E-01
1.16000000000E+09 -4.96956000746E-01 +8.15095313330E-01 +3.88865125797E-05 +2.19711052314E-05 +8.03010257781E-05 +1.84156164445E-05 -6.26738047652E-01 +7.44440995705E-01
1.16500000000E+09 -4.91277350331E-01 +8.17996756035E-01 +5.81381728625E-05 +3.80039940102E-05 +1.12461295808E-04 +5.38039795235E-05 -6.21648937292E-01 +7.48068491758E-01
1.17000000000E+09 -4.84489736651E-01 +8.20955317928E-01 +8.50002532371E-05 +2.41399475612E-05 +6.24797739223E-05 +5.50426170782E-05 -6.16287317025E-01 +7.51408321450E-01
1.17500000000E+09 -4.76538625342E-01 +8.23927453556E-01 +8.08430654912E-05 +1.09667608615E-05 +1.31270753445E-04 +5.39320214337E-05 -6.10463016819E-01 +7.54766496584E-01
1.18000000000E+09 -4.68541148412E-01 +8.27121729901E-01 +7.70248936808E-05 +2.57520385221E-05 +8.47151461428E-05 +4.62241089214E-05 -6.04985080565E-01 +7.57885189240E-01
1.18500000000E+09 -4.60669026381E-01 +8.30105607333E-01 +8.85322717681E-05 +2.77978734244E-05 +1.48197890091E-04 +1.80828954775E-05 -5.98989088523E-01 +7.60782260019E-01
1.19000000000E+09 -4.53598079722E-01 +8.32513440915E-01 +1.16511523290E-04 +4.32515744262E-05 +1.35099711614E-04 +9.34769489213E-06 -5.92795631441E-01 +7.63483812377E-01
1.19500000000E+09 -4.47672056813E-01 +8.34698564247E-01 +2.26244645903E-04 -3.67293213721E-05 +1.97203366998E-04 +4.12382559269E-05 -5.86807381550E-01 +7.64834300839E-01
1.20000000000E+09 -4.42996852556E-01 +8.36066644127E-01 +1.88136597488E-04 -6.66374364077E-05 +2.04115109651E-04 -6.85184453616E-05 -5.82277205173E-01 +7.65073585832E-01
1.20500000000E+09 -4.38804059374E-01 +8.37955000995E-01 +1.29303275964E-04 -1.11597752335E-04 +9.30627185889E-05 -1.69412984592E-04 -5.80159628339E-01 +7.65786901897E-01
1.21000000000E+09 -4.34801982316E-01 +8.39805937317E-01 +4.35353373820E-05 -1.11244125676E-04 +1.21937706554E-04 -1.76555115980E-04 -5.78260433955E-01 +7.68832108129E-01
1.21500000000E+09 -4.29664686137E-01 +8.42078965393E-01 +7.17964294264E-05 -1.36187772765E-04 +1.05357705744E-04 -1.48790960200E-04 -5.75404337465E-01 +7.73386448102E-01
1.22000000000E+09 -4.23110407905E-01 +8.44471986643E-01 +6.01765131952E-05 -1.24360271487E-04 +7.40414181001E-05 -1.23783730255E-04 -5.71244733632E-01 +7.78702989611E-01
1.22500000000E+09 -4.14888339223E-01 +8.47329892004E-01 +1.04592865955E-04 -1.11456729987E-04 +9.08746620969E-05 -8.96679665774E-05 -5.66058772620E-01 +7.83706083544E-01
1.23000000000E+09 -4.05522561642E-01 +8.50243637542E-01 +7.72322787420E-05 -1.00050369544E-04 +2.32056832120E-05 -1.33070914296E-04 -5.60438127555E-01 +7.88482384250E-01
1.23500000000E+09 -3.95655323758E-01 +8.53506907086E-01 +1.15258432738E-04 -1.26479648338E-04 +9.15179242166E-05 -1.42430960649E-04 -5.54494983869E-01 +7.92774582199E-01
1.24000000000E+09 -3.85388395486E-01 +8.56802117667E-01 +1.26880574508E-04 -1.74377872660E-04 +7.10446599689E-05 -1.35813216380E-04 -5.48565622973E-01 +7.96727744517E-01
1.24500000000E+09 -3.75887258525E-01 +8.60328873222E-01 +1.12018081604E-04 -1.84132888361E-04 +1.07550425393E-04 -1.55093542670E-04 -5.42198328463E-01 +8.00583866387E-01
1.25000000000E+09 -3.67362982700E-01 +8.63397549777E-01 +6.20701205345E-05 -2.13132812070E-04 +6.49491636993E-05 -2.39745875044E-04 -5.35566922330E-01 +8.04764566494E-01
1.25500000000E+09 -3.60240876875E-01 +8.65799307112E-01 +3.10694236669E-05 -2.37079854233E-04 +2.58163344717E-05 -2.79904072821E-04 -5.28716248147E-01 +8.08819902638E-01
1.26000000000E+09 -3.54205322583E-01 +8.68273627183E-01 -1.96797778585E-05 -2.53155074589E-04 -3.77091778741E-05 -1.96793373801E-04 -5.22063876880E-01 +8.13184192507E-01
1.26500000000E+09 -3.48669897989E-01 +8.70374955078E-01 -5.20496128181E-05 -2.38602664253E-04 -4.09258129070E-05 -2.40215836341E-04 -5.14966483905E-01 +8.17021474180E-01
1.27000000000E+09 -3.43055309440E-01 +8.72571766522E-01 -7.56301277185E-05 -2.25811467971E-04 -9.52330197771E-05 -2.32690497173E-04 -5.08091268370E-01 +8.20858849924E-01
1.27500000000E+09 -3.36534154425E-01 +8.74648841755E-01 -1.04957916630E-04 -2.70921975543E-04 -1.10899392413E-04 -3.01133793208E-04 -5.01200076374E-01 +8.24482341173E-01
1.28000000000E+09 -3.28678453839E-01 +8.76989575401E-01 -1.22505272337E-04 -2.69418660484E-04 -1.51942951348E-04 -2.83178392484E-04 -4.94206223380E-01 +8.27886402467E-01
1.28500000000E+09 -3.18967449212E-01 +8.79414488000E-01 -1.56249900801E-04 -2.40705952477E-04 -1.42214865676E-04 -2.69162144550E-04 -4.86775865885E-01 +8.31653038874E-01
1.29000000000E+09 -3.08121666214E-01 +8.81916518359E-01 -1.67981865846E-04 -1.88114541895E-04 -2.58336463334E-04 -2.56985468934E-04 -4.79228899291E-01 +8.35243240866E-01
1.29500000000E+09 -2.96644567329E-01 +8.84506951071E-01 -2.13248191250E-04 -2.23170601010E-04 -2.42860973468E-04 -2.30378506077E-04 -4.71437196687E-01 +8.38790522108E-01
1.30000000000E+09 -2.85072931260E-01 +8.87209229622E-01 -2.64172013095E-04 -2.59430821901E-04 -2.43586291869E-04 -1.84014449860E-04 -4.63469004756E-01 +8.42566774734E-01
1.30500000000E+09 -2.74433321477E-01 +8.89624213613E-01 -3.43041762351E-04 -1.69350191495E-04 -3.66071640296E-04 -1.55467806515E-04 -4.55300626395E-01 +8.45902713790E-01
1.31000000000E+09 -2.64964586591E-01 +8.91836097892E-01 -3.41078799504E-04 -1.20390592623E-04 -3.40264509995E-04 -1.37092411535E-04 -4.47078948047E-01 +8.49280801428E-01
1.31500000000E+09 -2.56907530638E-01 +8.93696368851E-01 -3.52079243259E-04 -4.03793480925E-05 -3.34811782787E-04 -5.04801828725E-05 -4.38141474897E-01 +8.52868376893E-01
1.32000000000E+09 -2.50075656921E-01 +8.95317351495E-01 -3.21029631354E-04 -5.61686613557E-05 -3.81252718811E-04 -6.00858816660E-05 -4.29019802222E-01 +8.56308274383E-01
1.32500000000E+09 -2.43622170257E-01 +8.96535797592E-01 -3.86609233336E-04 -2.81077399990E-05 -3.96619131920E-04 +6.47538821453E-06 -4.19188699278E-01 +8.59748945861E-01
1.33000000000E+09 -2.36244533097E-01 +8.97578880992E-01 -3.76112531436E-04 -6.98680012382E-07 -3.66425488212E-04 +4.27940363921E-05 -4.09674085947E-01 +8.62982160106E-01
1.33500000000E+09 -2.27576653425E-01 +8.98174486575E-01 -4.20858148678E-04 +5.47576794129E-05 -4.13729750950E-04 +9.58580966075E-05 -3.99733340784E-01 +8.66341729959E-01
1.34000000000E+09 -2.16676244457E-01 +8.98801533628E-01 -4.40324756683E-04 +1.02789609733E-04 -4.27411444109E-04 +1.70687025350E-04 -3.89545892955E-01 +8.69724155796E-01
1.34500000000E+09 -2.03626451926E-01 +8.99132303156E-01 -4.07293811616E-04 +1.97085671163E-04 -4.13643624933E-04 +2.09650666714E-04 -3.78508881867E-01 +8.72967923248E-01
1.35000000000E+09 -1.88716737429E-01 +8.99216881451E-01 -4.02026463725E-04 +2.15800844486E-04 -3.61224116708E-04 +1.87376264103E-04 -3.67471109710E-01 +8.76042343238E-01
1.35500000000E+09 -1.72854574797E-01 +8.99190424228E-01 -3.57865029012E-04 +1.92520518969E-04 -3.44270049676E-04 +2.08703084384E-04 -3.55827364615E-01 +8.78875843009E-01
1.36000000000E+09 -1.56809621354E-01 +8.99171417696E-01 -3.60843361038E-04 +2.48047261018E-04 -3.32033485592E-04 +1.89231987482E-04 -3.43908912295E-01 +8.81681475722E-01
1.36500000000E+09 -1.41242103954E-01 +8.99351378049E-01 -3.90351923881E-04 +2.72533589588E-04 -3.81760021123E-04 +2.17216203188E-04 -3.31621005408E-01 +8.84177108252E-01
1.37000000000E+09 -1.26702120055E-01 +8.99358154434E-01 -4.07756934696E-04 +2.52686954242E-04 -3.72608448708E-04 +2.76200696455E-04 -3.18581277440E-01 +8.86597230547E-01
1.37500000000E+09 -1.13538728333E-01 +8.99521271339E-01 -4.05478577125E-04 +3.56189269576E-04 -4.35619598026E-04 +3.18153302331E-04 -3.04881742059E-01 +8.88761822705E-01
1.38000000000E+09 -1.01306679054E-01 +8.99204316169E-01 -3.85322108363E-04 +4.73680056262E-04 -4.70014879785E-04 +4.67822675839E-04 -2.90277888392E-01 +8.90951390806E-01
1.38500000000E+09 -8.91476582966E-02 +8.98640638101E-01 -3.03618859796E-04 +5.39946080820E-04 -3.51402070216E-04 +5.84714708564E-04 -2.74811182885E-01 +8.92828456391E-01
1.39000000000E+09 -7.64654980124E-02 +8.97376915169E-01 -2.42292673202E-04 +5.30186597608E-04 -3.09840463857E-04 +5.74640293420E-04 -2.58823937945E-01 +8.94317370487E-01
1.39500000000E+09 -6.21729553765E-02 +8.95519823320E-01 -2.71081795146E-04 +4.99230953806E-04 -2.79793836368E-04 +6.26899686607E-04 -2.41840431643E-01 +8.95099587243E-01
1.40000000000E+09 -4.55352275463E-02 +8.92446546011E-01 -2.40757847827E-04 +6.34374304072E-04 -2.03887588906E-04 +6.69379059155E-04 -2.24181325373E-01 +8.95504065948E-01
1.40500000000E+09 -2.72509956601E-02 +8.88397393482E-01 -2.45606969659E-04 +6.72710804549E-04 -2.27445598056E-04 +6.69806052071E-04 -2.05468522412E-01 +8.95383936477E-01
1.41000000000E+09 -7.04989173959E-03 +8.83104539771E-01 -1.82711661932E-04 +7.32300928035E-04 -1.93088167521E-04 +7.31185145651E-04 -1.85303808607E-01 +8.94833476773E-01
1.41500000000E+09 +1.42246257459E-02 +8.77052314402E-01 -8.01906064679E-05 +8.07189697586E-04 -1.57328980737E-04 +8.00716957950E-04 -1.63426892775E-01 +8.93377408461E-01
1.42000000000E+09 +3.61741363079E-02 +8.70436096864E-01 -1.37665402364E-04 +8.23348050682E-04 -1.20647929776E-04 +9.36188975082E-04 -1.40545036911E-01 +8.90663604501E-01
1.42500000000E+09 +5.78239310630E-02 +8.63284246775E-01 -1.22726638618E-04 +1.01076452170E-03 -1.09244059198E-04 +1.11501647992E-03 -1.16478300838E-01 +8.87032249210E-01
1.43000000000E+09 +7.94636430899E-02 +8.55435472059E-01 +5.62032331938E-05 +1.22553485417E-03 +1.47365142237E-04 +1.27933628818E-03 -9.14898114614E-02 +8.82224054364E-01
1.43500000000E+09 +1.01024933223E-01 +8.46502556106E-01 +2.49336582175E-04 +1.31063128009E-03 +3.85540287381E-04 +1.30208948507E-03 -6.50820619525E-02 +8.75346116208E-01
1.44000000000E+09 +1.23424751957E-01 +8.36175993922E-01 +4.30612309153E-04 +1.26422755466E-03 +5.22843343443E-04 +1.27017790833E-03 -3.68006301848E-02 +8.66623255720E-01
1.44500000000E+09 +1.47226146177E-01 +8.23363710997E-01 +5.15999944064E-04 +1.19813950162E-03 +5.81181859341E-04 +1.22519330208E-03 -6.41580743194E-03 +8.55206405829E-01
1.45000000000E+09 +1.72784675234E-01 +8.07144179460E-01 +4.80533955818E-04 +1.43098755663E-03 +5.84238362549E-04 +1.45748978622E-03 +2.58249546471E-02 +8.40190195039E-01
1.45500000000E+09 +2.00198569478E-01 +7.87026666125E-01 +6.57966402917E-04 +1.75450657169E-03 +8.48966508119E-04 +1.70219929957E-03 +5.92063160920E-02 +8.22287604244E-01
1.46000000000E+09 +2.30287703686E-01 +7.62172636946E-01 +1.16708744219E-03 +2.10547118810E-03 +1.30879114097E-03 +1.90202114396E-03 +9.42033210230E-02 +8.00310974747E-01
1.46500000000E+09 +2.61824676149E-01 +7.32047802249E-01 +1.80463269951E-03 +2.29117645986E-03 +1.75090035928E-03 +1.95101479131E-03 +1.30864005967E-01 +7.73010985625E-01
1.47000000000E+09 +2.94176768614E-01 +6.96495156923E-01 +2.57107444681E-03 +2.15459855362E-03 +2.39000928551E-03 +1.99028919077E-03 +1.67898748943E-01 +7.38490420213E-01
1.47500000000E+09 +3.26101469936E-01 +6.54790534047E-01 +3.42062225907E-03 +1.86682473973E-03 +3.14331988425E-03 +1.90995843502E-03 +2.04380943100E-01 +6.96838222550E-01
1.48000000000E+09 +3.55490087490E-01 +6.06361850641E-01 +4.10231330801E-03 +1.36105377947E-03 +4.11984414299E-03 +1.48581263198E-03 +2.40547126418E-01 +6.47401865280E-01
1.48500000000E+09 +3.81097600445E-01 +5.51636713762E-01 +4.77664180180E-03 +7.63173686806E-04 +4.88622170350E-03 +7.06860508205E-04 +2.74823885206E-01 +5.88006113150E-01
1.49000000000E+09 +4.01321209356E-01 +4.89156890369E-01 +5.75235392768E-03 -7.20591060285E-05 +5.75809640386E-03 -3.45511012830E-04 +3.02512204834E-01 +5.17590014703E-01
1.49500000000E+09 +4.14074646082E-01 +4.18721910686E-01 +6.44829248514E-03 -1.65341704677E-03 +6.11429990633E-03 -1.81549031736E-03 +3.19629068007E-01 +4.37082823534E-01
1.50000000000E+09 +4.16529204269E-01 +3.39394559256E-01 +7.14740718931E-03 -3.10931412730E-03 +6.79783694486E-03 -2.91473547048E-03 +3.24136064120E-01 +3.48438407120E-01
1.50500000000E+09 +4.05957362009E-01 +2.52459792156E-01 +7.40833560626E-03 -6.30060200070E-03 +7.34627585046E-03 -5.81791181958E-03 +3.11437097493E-01 +2.51634820885E-01
1.51000000000E+09 +3.78497285960E-01 +1.58933834002E-01 +5.22317139821E-03 -9.72606563330E-03 +5.55137071246E-03 -9.42361753146E-03 +2.77851341209E-01 +1.52074986812E-01
1.51500000000E+09 +3.29826958661E-01 +6.49924545161E-02 +2.10077016467E-03 -1.12779815893E-02 +2.43660769046E-03 -1.12606080876E-02 +2.22873264918E-01 +5.66724399257E-02
1.52000000000E+09 +2.59369672896E-01 -2.09771578057E-02 -1.70142744118E-03 -1.20618363122E-02 -1.52964365382E-03 -1.22836098616E-02 +1.46914315168E-01 -2.85520414718E-02
1.52500000000E+09 +1.70750715853E-01 -9.23773521208E-02 -5.18488632681E-03 -1.05587022313E-02 -5.23045268821E-03 -1.07211336940E-02 +5.22233142607E-02 -9.61136282601E-02
1.53000000000E+09 +6.79513487624E-02 -1.43475758282E-01 -7.44099880195E-03 -9.40250211104E-03 -7.54855856822E-03 -9.48092192154E-03 -5.45868656150E-02 -1.40602420308E-01
1.53500000000E+09 -4.31386817372E-02 -1.70685561683E-01 -1.00561940555E-02 -7.30623243951E-03 -1.01158018538E-02 -7.28491484428E-03 -1.65696401605E-01 -1.60146965332E-01
1.54000000000E+09 -1.56380656317E-01 -1.72449021237E-01 -1.25143845120E-02 -4.39633465221E-03 -1.24314477921E-02 -4.37735906815E-03 -2.73777748777E-01 -1.55893749510E-01
1.54500000000E+09 -2.64820164449E-01 -1.49106266189E-01 -1.37611103343E-02 +5.65388854016E-04 -1.36198111488E-02 +2.44572637305E-04 -3.71138866720E-01 -1.32202247582E-01
1.55000000000E+09 -3.60953503531E-01 -1.04743584071E-01 -1.14827189890E-02 +4.89181111085E-03 -1.16985749468E-02 +4.51698156599E-03 -4.55447543950E-01 -9.47666543386E-02
1.55500000000E+09 -4.39937506782E-01 -4.69137670090E-02 -8.39762237886E-03 +7.47172722776E-03 -8.94679721501E-03 +7.24473022785E-03 -5.25364617589E-01 -4.84458564273E-02
1.56000000000E+09 -5.01649527368E-01 +1.52759579138E-02 -5.07971787735E-03 +8.31917155005E-03 -5.61272741826E-03 +8.55152163833E-03 -5.81955940178E-01 +4.04606334109E-03
1.56500000000E+09 -5.50862312218E-01 +7.80320751666E-02 -2.38731188124E-03 +7.73919510815E-03 -2.65973035811E-03 +8.19781026759E-03 -6.26490401986E-01 +5.84618950424E-02
1.57000000000E+09 -5.87981806689E-01 +1.39906809870E-01 -8.16380282019E-04 +6.76136757331E-03 -7.64451970577E-04 +7.23754122432E-03 -6.59918950613E-01 +1.12932528466E-01
