# Hz S RI R 50
! CMT, C1220, 16058040, 17.2.0/1
! Date: 14/08/2018 12:08:50
! Data: Format (Calibration Info)
! Freq                      S11: Re/Im (F2)                       S21: Re/Im (F2)                       S12: Re/Im (F2)                       S22: Re/Im (F2)            
1.00000000000E+09 -6.54695887272E-01 +7.09779061249E-01 -8.44602319447E-06 -6.00862047782E-06 -4.38687156420E-05 +4.74803150958E-05 -7.53442648920E-01 +6.25833967176E-01
1.00500000000E+09 -6.48072147709E-01 +7.14473338069E-01 -1.03950457441E-05 +1.58130666895E-06 -1.41936706849E-05 -3.02638321307E-05 -7.49817014708E-01 +6.29828851801E-01
1.01000000000E+09 -6.42425917086E-01 +7.18700098363E-01 +8.65277179784E-07 -2.35254349362E-05 +8.32313261099E-06 -1.14471450420E-05 -7.46067756761E-01 +6.33514221850E-01
1.01500000000E+09 -6.38160268593E-01 +7.22294341433E-01 -3.88836843162E-05 +3.88116999563E-06 -5.01871677725E-05 +4.13766865421E-05 -7.42812552788E-01 +6.37348750348E-01
1.02000000000E+09 -6.35295245891E-01 +7.25897417557E-01 -4.67843522935E-05 +5.24445965409E-06 +6.88779395683E-06 -2.78544945662E-05 -7.39500607602E-01 +6.40998737136E-01
1.02500000000E+09 -6.33319122959E-01 +7.28739971192E-01 -3.73469156998E-05 -8.56764085580E-06 -4.03038482722E-06 -1.07874441194E-05 -7.36567275562E-01 +6.44680370884E-01
1.03000000000E+09 -6.31931780403E-01 +7.31458913520E-01 -2.34674125023E-05 -1.30206284604E-05 +3.59496702967E-05 -1.77293780803E-07 -7.32891677200E-01 +6.48520545312E-01
1.03500000000E+09 -6.29759795588E-01 +7.34388722763E-01 -2.37776084118E-05 +8.86111324247E-06 -9.20076693525E-06 -1.98750603949E-05 -7.29167270279E-01 +6.52386787866E-01
1.04000000000E+09 -6.26275614537E-01 +7.37392702810E-01 -5.53081780362E-05 +1.67005469802E-05 +4.91916472713E-05 +1.81813485466E-05 -7.25356598950E-01 +6.56023460441E-01
1.04500000000E+09 -6.21504378153E-01 +7.41073606117E-01 +1.70862746543E-05 -1.05140193602E-05 -2.27206557640E-05 +5.98528590478E-05 -7.21752038411E-01 +6.59648135439E-01
1.05000000000E+09 -6.14966748943E-01 +7.45103386493E-01 -1.67951011344E-05 +1.85089647638E-05 +1.71070004736E-05 +1.65538442644E-05 -7.18580722851E-01 +6.63075267629E-01
1.05500000000E+09 -6.07214470238E-01 +7.49132358040E-01 -5.59865713374E-05 +5.91445026406E-05 -2.06450648613E-05 +3.22695900131E-05 -7.15179427187E-01 +6.66659827931E-01
1.06000000000E+09 -5.99013307822E-01 +7.53614305532E-01 -9.95399320967E-05 +2.45660045763E-05 +1.50285634189E-05 +2.22674380770E-05 -7.11814490146E-01 +6.70475046813E-01
1.06500000000E+09 -5.91097904065E-01 +7.58163245639E-01 -2.35605411100E-05 -1.64756640623E-05 -3.03204534520E-05 -1.42581317984E-05 -7.08100420768E-01 +6.74115069639E-01
1.07000000000E+09 -5.84236558575E-01 +7.61975680223E-01 +2.36981256740E-05 +7.50143066819E-06 -4.06307033419E-05 +4.26759211323E-05 -7.04196487848E-01 +6.77816851475E-01
1.07500000000E+09 -5.78930976341E-01 +7.65664849521E-01 -1.99485084316E-05 +3.54895366782E-05 +2.75160131538E-05 +2.10789944883E-05 -6.99757025764E-01 +6.81566506393E-01
1.08000000000E+09 -5.74936076491E-01 +7.69012974460E-01 -2.77004927960E-05 +1.41579613339E-05 -1.31233527671E-05 +8.21613523173E-05 -6.95806069077E-01 +6.85362643143E-01
1.08500000000E+09 -5.72349873288E-01 +7.72003518424E-01 +1.39836674042E-05 +4.95518258511E-05 -2.05662863898E-05 +2.24955573712E-05 -6.91756446205E-01 +6.89145868928E-01
1.09000000000E+09 -5.70141674215E-01 +7.74702404420E-01 +5.60741211874E-07 -1.80291228812E-06 -7.78056534855E-06 +2.67817323090E-05 -6.88042898006E-01 +6.93105533967E-01
1.09500000000E+09 -5.67908472775E-01 +7.77321358612E-01 +2.65337209200E-05 +6.22962299156E-05 +1.17519828777E-05 +5.10276802639E-05 -6.84172487384E-01 +6.96840387820E-01
1.10000000000E+09 -5.64521953658E-01 +7.79939384692E-01 +1.42747499043E-06 +4.46472050412E-05 +3.22989657944E-05 +3.02486407285E-05 -6.80124462263E-01 +7.00712008017E-01
1.10500000000E+09 -5.60107404054E-01 +7.82933148246E-01 +6.69137998758E-05 +1.56956323991E-05 +1.22315234963E-05 +3.91662072157E-05 -6.75832021617E-01 +7.04290016823E-01
1.11000000000E+09 -5.54073343851E-01 +7.86150123574E-01 -6.29012047809E-06 -1.14908033507E-05 +5.18505703797E-05 +6.29009491877E-05 -6.71566406037E-01 +7.07725136817E-01
1.11500000000E+09 -5.47050643252E-01 +7.89886429077E-01 +3.88943068893E-05 +5.23073489618E-05 +4.13275165363E-05 -3.50966455512E-06 -6.67594671710E-01 +7.11166742791E-01
1.12000000000E+09 -5.39483240535E-01 +7.93284061355E-01 +1.45236357964E-05 +6.73872767181E-06 +5.26400120437E-05 +4.90926332922E-05 -6.63509578204E-01 +7.14739168149E-01
1.12500000000E+09 -5.31883044857E-01 +7.96986445045E-01 +4.10245475978E-05 -2.11817932164E-06 +8.59849038977E-06 +1.09413103566E-05 -6.59193315990E-01 +7.18715069033E-01
1.13000000000E+09 -5.25282484638E-01 +8.00416551362E-01 +1.59640482061E-05 +5.78836202881E-06 +4.89370313278E-05 +5.11556174913E-06 -6.54936392129E-01 +7.22579037248E-01
1.13500000000E+09 -5.19338282392E-01 +8.03228586124E-01 +1.11058109995E-05 +3.79666185469E-05 +1.79209726255E-05 +2.83288682668E-05 -6.50296652444E-01 +7.26301278268E-01
1.14000000000E+09 -5.14730864649E-01 +8.06355290346E-01 +1.19504971443E-04 +6.34162586537E-05 +6.02292861324E-05 +6.23977718726E-05 -6.45631406865E-01 +7.29800028373E-01
1.14500000000E+09 -5.11105841907E-01 +8.08704809961E-01 +3.63131641101E-05 +2.19595136546E-05 +2.33401603377E-05 -1.01034664420E-05 -6.40988587979E-01 +7.33157972981E-01
1.15000000000E+09 -5.07712382439E-01 +8.10966140385E-01 +3.00761211031E-05 +4.01141123856E-05 +1.92949910399E-05 +3.15462740783E-05 -6.36413313894E-01 +7.36957048563E-01
1.15500000000E+09 -5.04023900691E-01 +8.13479606109E-01 +3.71399057958E-05 +3.00265603668E-05 +4.09864837016E-05 +5.21673431744E-05 -6.31664067546E-01 +7.40817511689E-01
1.16000000000E+09 -4.99509850379E-01 +8.15858393924E-01 +6.82791951707E-05 +1.21038074390E-05 +6.33796508887E-05 -1.44410435537E-06 -6.26652998857E-01 +7.44631338456E-01
1.16500000000E+09 -4.93933285829E-01 +8.18694191673E-01 +9.13173519915E-05 +4.83397327389E-05 +5.27500116799E-05 +6.51165328855E-05 -6.21636015574E-01 +7.48386113536E-01
1.17000000000E+09 -4.87167370259E-01 +8.21807148854E-01 +9.43369494881E-05 +4.11670471251E-05 +9.78837639632E-05 +4.25072891646E-05 -6.16083973087E-01 +7.51590029773E-01
1.17500000000E+09 -4.79380329502E-01 +8.24784858889E-01 +3.42458016560E-05 -1.45680406533E-05 +9.77517425585E-05 -1.27483823924E-06 -6.10337518199E-01 +7.54809664702E-01
1.18000000000E+09 -4.71341247790E-01 +8.28038172861E-01 +1.14489960596E-04 +3.46152566702E-05 +1.25829992106E-04 +3.43203497959E-05 -6.04849255294E-01 +7.57887825114E-01
1.18500000000E+09 -4.63625656196E-01 +8.30878833747E-01 +3.08158465959E-05 +1.44966365887E-05 +9.84214177428E-05 +2.50866061956E-05 -5.98891907044E-01 +7.60923816219E-01
1.19000000000E+09 -4.56489353171E-01 +8.33409677046E-01 +9.18081798916E-05 +3.17446080863E-05 +1.17805789513E-04 +5.21314087076E-05 -5.92493777839E-01 +7.63644769472E-01
1.19500000000E+09 -4.50481692880E-01 +8.35682125667E-01 +9.92764460131E-05 +2.18433127008E-06 +2.00549586469E-04 +5.45648032356E-06 -5.86718836137E-01 +7.64926333746E-01
1.20000000000E+09 -4.45841286068E-01 +8.36916847385E-01 +1.66325098722E-04 -5.75555902848E-05 +2.22048601131E-04 -1.02663617091E-04 -5.82155119145E-01 +7.65164981596E-01
1.20500000000E+09 -4.41723365715E-01 +8.38918050594E-01 +1.37594457317E-04 -9.01047340099E-05 +1.47048435019E-04 -1.10989163716E-04 -5.79824903373E-01 +7.65787408164E-01
1.21000000000E+09 -4.37527057121E-01 +8.40930551035E-01 +1.06620685688E-04 -1.29400990633E-04 +1.35011876993E-04 -1.32087347421E-04 -5.78099804950E-01 +7.68825577651E-01
1.21500000000E+09 -4.32377786647E-01 +8.43021268929E-01 +9.12557914084E-05 -1.37443823501E-04 +1.05824634817E-04 -7.86855628881E-05 -5.75307740466E-01 +7.73468047275E-01
1.22000000000E+09 -4.25885533624E-01 +8.45550322669E-01 +1.08867497163E-04 -1.20612810294E-04 +5.98438649547E-05 -1.29646155003E-04 -5.71106655563E-01 +7.78830343435E-01
1.22500000000E+09 -4.17728641269E-01 +8.48525707845E-01 +7.54573429491E-05 -1.19003515315E-04 +1.19298881295E-04 -1.10590200906E-04 -5.66075852216E-01 +7.83972082197E-01
1.23000000000E+09 -4.08342663147E-01 +8.51555641911E-01 +1.03987238090E-04 -1.62976877928E-04 +7.57022283462E-05 -1.49947003501E-04 -5.60250131375E-01 +7.88624934226E-01
1.23500000000E+09 -3.98286110386E-01 +8.54722453973E-01 +6.00517359462E-05 -1.19050377834E-04 +6.93881178737E-05 -1.37105634084E-04 -5.54467793820E-01 +7.92934338394E-01
1.24000000000E+09 -3.88137777498E-01 +8.58156068360E-01 +8.96213480429E-05 -1.20790151851E-04 +9.44742253445E-05 -1.38616757131E-04 -5.48405881404E-01 +7.96787197202E-01
1.24500000000E+09 -3.78736328262E-01 +8.61654833407E-01 +7.47565044898E-05 -2.34819406597E-04 +1.14605188831E-04 -2.03334978631E-04 -5.42058337819E-01 +8.00672020132E-01
1.25000000000E+09 -3.70250726380E-01 +8.64679781377E-01 +8.05573670356E-05 -1.91709984159E-04 +7.35309885936E-05 -2.59010998116E-04 -5.35487950975E-01 +8.04842301696E-01
1.25500000000E+09 -3.63065183461E-01 +8.67249959395E-01 +1.63121661120E-05 -2.51958103531E-04 -1.27724791427E-05 -2.59604880584E-04 -5.28719959607E-01 +8.08807809147E-01
1.26000000000E+09 -3.56878261897E-01 +8.69702168956E-01 -1.21530481037E-05 -2.47261483426E-04 -6.11572846900E-05 -2.75522946695E-04 -5.21897771880E-01 +8.13227007156E-01
1.26500000000E+09 -3.51369674563E-01 +8.71912344205E-01 -1.92221172512E-05 -2.61303182098E-04 -8.65022416500E-05 -2.17212128480E-04 -5.14918487278E-01 +8.17091282634E-01
1.27000000000E+09 -3.45660572757E-01 +8.73987510584E-01 -7.83934482038E-05 -2.68189928546E-04 -1.11588529768E-04 -2.29942127029E-04 -5.08161262454E-01 +8.20849170021E-01
1.27500000000E+09 -3.39057340577E-01 +8.76318034885E-01 -1.09862276626E-04 -2.36822892774E-04 -8.25276333519E-05 -3.19889797370E-04 -5.01082133731E-01 +8.24578737582E-01
1.28000000000E+09 -3.31140418924E-01 +8.78637373036E-01 -1.72416071833E-04 -3.03128412505E-04 -1.46616583635E-04 -2.62721764419E-04 -4.93908688860E-01 +8.28028546818E-01
1.28500000000E+09 -3.21476130656E-01 +8.81159357371E-01 -1.46700641088E-04 -2.71354982281E-04 -1.84618868528E-04 -2.72241501533E-04 -4.86552159477E-01 +8.31763193610E-01
1.29000000000E+09 -3.10626824843E-01 +8.83660153266E-01 -2.14220675706E-04 -2.13275103248E-04 -2.54506678855E-04 -2.51056759385E-04 -4.79053786832E-01 +8.35493882725E-01
1.29500000000E+09 -2.99012332419E-01 +8.86335800075E-01 -2.45759776130E-04 -1.80470205293E-04 -2.58088184344E-04 -2.29343861111E-04 -4.71085250607E-01 +8.39005266143E-01
1.30000000000E+09 -2.87591875752E-01 +8.89007717197E-01 -3.08293407271E-04 -2.36260174319E-04 -3.43046507487E-04 -1.87726837255E-04 -4.63356093901E-01 +8.42521567923E-01
1.30500000000E+09 -2.76873476981E-01 +8.91323218518E-01 -3.20112548503E-04 -1.82985049421E-04 -3.83964904607E-04 -1.38028204388E-04 -4.55202079946E-01 +8.46093558027E-01
1.31000000000E+09 -2.67611807656E-01 +8.93585567505E-01 -3.54671415005E-04 -1.46635627948E-04 -3.97335652864E-04 -1.09056506514E-04 -4.46719907501E-01 +8.49489845832E-01
1.31500000000E+09 -2.59670279402E-01 +8.95484334444E-01 -3.81996065792E-04 -7.12339372407E-05 -3.87754573418E-04 -4.34021132605E-05 -4.37974842923E-01 +8.52870295158E-01
1.32000000000E+09 -2.52808073738E-01 +8.97119314361E-01 -4.02262862750E-04 -2.45009365485E-05 -3.54994848519E-04 -6.35511591876E-05 -4.28815582535E-01 +8.56347614662E-01
1.32500000000E+09 -2.46173067743E-01 +8.98387399599E-01 -3.39226070582E-04 -3.45161469715E-05 -3.86340154648E-04 +2.08035307697E-05 -4.19162603889E-01 +8.59687751126E-01
1.33000000000E+09 -2.38906505950E-01 +8.99525192359E-01 -3.98857290701E-04 +5.25589227625E-06 -3.84840380990E-04 +1.72587481926E-05 -4.09502477487E-01 +8.62983103942E-01
1.33500000000E+09 -2.30071915001E-01 +9.00261700880E-01 -3.79626042224E-04 +4.92175306775E-05 -4.21946671962E-04 +5.91206343140E-05 -3.99514306539E-01 +8.66299379484E-01
1.34000000000E+09 -2.19120424381E-01 +9.00837090590E-01 -4.35670095698E-04 +1.63437518879E-04 -4.06553606540E-04 +1.36459020785E-04 -3.89264654890E-01 +8.69660195197E-01
1.34500000000E+09 -2.05854407241E-01 +9.01145549387E-01 -4.15587780054E-04 +1.49013790414E-04 -3.56366825983E-04 +2.00297721626E-04 -3.78427193215E-01 +8.72925168206E-01
1.35000000000E+09 -1.91006327727E-01 +9.01144055172E-01 -4.23137725585E-04 +2.08636266024E-04 -4.14731082869E-04 +2.03887203866E-04 -3.67170091487E-01 +8.76107340407E-01
1.35500000000E+09 -1.74973204507E-01 +9.01203609666E-01 -3.71997743385E-04 +2.20617684660E-04 -2.99464113482E-04 +2.06415454392E-04 -3.55675723214E-01 +8.78871537693E-01
1.36000000000E+09 -1.58777628763E-01 +9.01240714148E-01 -3.09758948838E-04 +2.38559971799E-04 -3.36789074791E-04 +2.59848745563E-04 -3.43745253854E-01 +8.81605318845E-01
1.36500000000E+09 -1.42910172563E-01 +9.01280835501E-01 -4.03285143628E-04 +3.04878747467E-04 -3.43273401114E-04 +2.43204704502E-04 -3.31496208228E-01 +8.84155618530E-01
1.37000000000E+09 -1.28267663531E-01 +9.01323821396E-01 -4.24664418403E-04 +3.16827943263E-04 -3.97163399894E-04 +3.03132162231E-04 -3.18555477597E-01 +8.86535562988E-01
1.37500000000E+09 -1.14918154976E-01 +9.01220188791E-01 -4.57383075370E-04 +3.91417951321E-04 -4.82133791400E-04 +3.01002493962E-04 -3.04843861537E-01 +8.88673953255E-01
1.38000000000E+09 -1.02669384041E-01 +9.00973020374E-01 -4.51846063336E-04 +5.86592446532E-04 -4.76595503874E-04 +5.14672591110E-04 -2.90204759547E-01 +8.90912349198E-01
1.38500000000E+09 -9.01561333029E-02 +9.00376605200E-01 -2.88667499687E-04 +6.11299123174E-04 -4.48204132294E-04 +6.65075758937E-04 -2.74661770586E-01 +8.92799732052E-01
1.39000000000E+09 -7.74034438416E-02 +8.99065370478E-01 -2.43871695501E-04 +5.69190223939E-04 -2.84139040160E-04 +6.39318648315E-04 -2.58501573106E-01 +8.94315359092E-01
1.39500000000E+09 -6.30236653108E-02 +8.97016376943E-01 -2.29031759523E-04 +5.93061797160E-04 -2.50415768358E-04 +6.67511844169E-04 -2.41781086405E-01 +8.94963139562E-01
1.40000000000E+09 -4.63722838168E-02 +8.93956605039E-01 -2.46613313941E-04 +6.73740008754E-04 -1.52418356439E-04 +6.95198881439E-04 -2.24099151188E-01 +8.95521112311E-01
1.40500000000E+09 -2.78412036778E-02 +8.89716162503E-01 -2.41320701935E-04 +7.01013173381E-04 -1.65637805013E-04 +7.48796941981E-04 -2.05372103236E-01 +8.95346934581E-01
1.41000000000E+09 -7.58121853279E-03 +8.84194357244E-01 -2.01126494168E-04 +8.55903917217E-04 -1.53082587685E-04 +8.52498369406E-04 -1.85188844617E-01 +8.94791127428E-01
1.41500000000E+09 +1.35229448206E-02 +8.77907280335E-01 -7.54231343653E-05 +8.66057261069E-04 -9.42456798220E-05 +9.15922770141E-04 -1.63352484839E-01 +8.93184306999E-01
1.42000000000E+09 +3.54329923630E-02 +8.71158755443E-01 -2.34146125396E-05 +8.97575708939E-04 -4.67767021142E-05 +9.19527454445E-04 -1.40393045638E-01 +8.90421820333E-01
1.42500000000E+09 +5.70277087082E-02 +8.63735018200E-01 -1.17272569016E-05 +1.02328064670E-03 +3.32263523625E-05 +1.13248944352E-03 -1.16467905096E-01 +8.86758734617E-01
1.43000000000E+09 +7.85406224244E-02 +8.55740343863E-01 +1.40210776501E-04 +1.24530262684E-03 +2.37039217342E-04 +1.35288191963E-03 -9.16315435292E-02 +8.81796116143E-01
1.43500000000E+09 +1.00112546840E-01 +8.46364360594E-01 +4.43417204296E-04 +1.30704871471E-03 +5.84004313850E-04 +1.31134794561E-03 -6.53044369372E-02 +8.75046133304E-01
1.44000000000E+09 +1.22266872474E-01 +8.35706905623E-01 +6.15556192046E-04 +1.17633826432E-03 +7.03086936114E-04 +1.16960907944E-03 -3.72044463497E-02 +8.66364341471E-01
1.44500000000E+09 +1.45958780802E-01 +8.22668174901E-01 +5.91280871126E-04 +1.16388086920E-03 +6.22549427002E-04 +1.12992160981E-03 -6.93413115702E-03 +8.54995964811E-01
1.45000000000E+09 +1.71429940479E-01 +8.05918581238E-01 +5.90921495096E-04 +1.40415817796E-03 +6.75470434814E-04 +1.43951315883E-03 +2.50697461208E-02 +8.40132728308E-01
1.45500000000E+09 +1.98600823159E-01 +7.85402311116E-01 +8.24744001360E-04 +1.75726227323E-03 +9.96929147504E-04 +1.70208476059E-03 +5.84832238524E-02 +8.22381095174E-01
1.46000000000E+09 +2.28120374516E-01 +7.60216494529E-01 +1.39084997388E-03 +2.07148117585E-03 +1.55415590989E-03 +1.80596004451E-03 +9.32169834238E-02 +8.00540766615E-01
1.46500000000E+09 +2.59218927579E-01 +7.29596510636E-01 +2.05801513173E-03 +1.97292802355E-03 +1.99982485513E-03 +1.66507918264E-03 +1.29601298011E-01 +7.73575809506E-01
1.47000000000E+09 +2.90580796510E-01 +6.93592767819E-01 +2.61269462702E-03 +1.83303109516E-03 +2.41960951862E-03 +1.71062679551E-03 +1.66769577601E-01 +7.39682098469E-01
1.47500000000E+09 +3.21574218576E-01 +6.51566407046E-01 +3.34920142340E-03 +1.66472018959E-03 +3.15213952098E-03 +1.71042138917E-03 +2.03477614770E-01 +6.98292527030E-01
1.48000000000E+09 +3.49736090269E-01 +6.02966364006E-01 +4.16515576791E-03 +1.26282198107E-03 +4.17316693822E-03 +1.35059385593E-03 +2.39869264053E-01 +6.49362100841E-01
1.48500000000E+09 +3.73736140630E-01 +5.48167697540E-01 +4.93015291010E-03 +4.94100426438E-04 +5.04822809959E-03 +3.85963675029E-04 +2.74447735199E-01 +5.90301984280E-01
1.49000000000E+09 +3.92367614933E-01 +4.86383648829E-01 +5.75111068052E-03 -4.99725477756E-04 +5.70113700762E-03 -7.87686543827E-04 +3.02939723347E-01 +5.20576056004E-01
1.49500000000E+09 +4.03773216168E-01 +4.16753062756E-01 +6.38910505559E-03 -1.90316359362E-03 +6.02813021450E-03 -2.08810978774E-03 +3.21354211510E-01 +4.40030527845E-01
1.50000000000E+09 +4.04513761667E-01 +3.38377392130E-01 +7.21852821363E-03 -3.49461190565E-03 +6.77818101424E-03 -3.30659721582E-03 +3.26585981953E-01 +3.50734418186E-01
1.50500000000E+09 +3.92318044048E-01 +2.53547662456E-01 +7.15137168672E-03 -7.02395570788E-03 +7.03445916085E-03 -6.58178775085E-03 +3.14931283499E-01 +2.53130960124E-01
1.51000000000E+09 +3.63149873646E-01 +1.63115174610E-01 +4.42554512685E-03 -1.01600640218E-02 +4.76871800886E-03 -9.81092295771E-03 +2.81655786624E-01 +1.52118580676E-01
1.51500000000E+09 +3.14096464413E-01 +7.35407882390E-02 +1.24932883217E-03 -1.11796209542E-02 +1.61898508432E-03 -1.12165652339E-02 +2.26182010081E-01 +5.56042042366E-02
1.52000000000E+09 +2.46030867060E-01 -7.15778262313E-03 -2.27643261745E-03 -1.16285898956E-02 -2.16699669788E-03 -1.18335539982E-02 +1.49621997509E-01 -3.06488497748E-02
1.52500000000E+09 +1.61460078455E-01 -7.60571571923E-02 -5.11463650711E-03 -1.01229620150E-02 -5.13700408102E-03 -1.02542922939E-02 +5.39393033896E-02 -9.88008244431E-02
1.53000000000E+09 +6.23418750589E-02 -1.25328093300E-01 -7.35861330713E-03 -9.70533254398E-03 -7.41298602284E-03 -9.81708277437E-03 -5.40785366170E-02 -1.43329224649E-01
1.53500000000E+09 -4.41280324248E-02 -1.51738043083E-01 -1.08840184384E-02 -7.76675279351E-03 -1.08955062719E-02 -7.71275665987E-03 -1.65641353924E-01 -1.62377768002E-01
1.54000000000E+09 -1.52883281811E-01 -1.54333891282E-01 -1.36903564630E-02 -3.85530931295E-03 -1.36153369398E-02 -3.88121268706E-03 -2.74854468541E-01 -1.58043333933E-01
1.54500000000E+09 -2.57552590555E-01 -1.33289950575E-01 -1.38008390870E-02 +1.72068037287E-03 -1.37026214288E-02 +1.41736290356E-03 -3.72628954630E-01 -1.32942610466E-01
1.55000000000E+09 -3.50683507851E-01 -9.18931913823E-02 -1.12110714539E-02 +5.26823741503E-03 -1.14182685724E-02 +4.83326622189E-03 -4.56299853914E-01 -9.51649691100E-02
1.55500000000E+09 -4.27909247333E-01 -3.82356073961E-02 -8.73481754453E-03 +7.61961940011E-03 -9.19792834465E-03 +7.42279360840E-03 -5.26114178545E-01 -4.83484891845E-02
1.56000000000E+09 -4.89917148826E-01 +2.00043659878E-02 -5.40773524412E-03 +9.12977871778E-03 -5.96150952250E-03 +9.30496086929E-03 -5.82190800879E-01 +4.32566402702E-03
1.56500000000E+09 -5.39897121325E-01 +8.02964780182E-02 -2.14181727030E-03 +8.58985079717E-03 -2.38725118426E-03 +9.07862077228E-03 -6.26162263658E-01 +5.82807614835E-02
1.57000000000E+09 -5.78112271302E-01 +1.39675824698E-01 -3.25808992862E-04 +7.21993709067E-03 -2.74356539356E-04 +7.71023626089E-03 -6.59904517589E-01 +1.12446589810E-01
