# Hz S RI R 50
! CMT, C1220, 16058040, 17.2.0/1
! Date: 14/08/2018 12:07:50
! Data: Format (Calibration Info)
! Freq                      S11: Re/Im (F2)                       S21: Re/Im (F2)                       S12: Re/Im (F2)                       S22: Re/Im (F2)            
1.00000000000E+09 -6.54373193672E-01 +7.09764240369E-01 -1.99981991136E-05 -4.11417021140E-06 -6.67396884898E-05 -8.31657566459E-07 -7.53487411804E-01 +6.25667450866E-01
1.00500000000E+09 -6.47680256039E-01 +7.14390522101E-01 +1.42631949729E-05 +1.91086104015E-05 -1.80245166389E-05 +2.42562173224E-05 -7.49806220028E-01 +6.29683591438E-01
1.01000000000E+09 -6.41875898087E-01 +7.18560972939E-01 -4.44131489705E-05 +9.39107899359E-06 -2.91891963013E-05 +6.13188461167E-06 -7.46310620675E-01 +6.33389966193E-01
1.01500000000E+09 -6.37795820223E-01 +7.22439798575E-01 -3.08861475401E-05 -1.21194581219E-05 +1.90277440086E-05 +3.05718797217E-05 -7.42936318877E-01 +6.37222452223E-01
1.02000000000E+09 -6.34880300662E-01 +7.25775505814E-01 -3.22591935223E-05 +3.09460765930E-05 -3.48309298683E-05 +8.48126942390E-06 -7.39449209281E-01 +6.40699098673E-01
1.02500000000E+09 -6.32985592416E-01 +7.28672905942E-01 -1.42973795713E-05 -1.84360779007E-05 +5.36605934791E-06 +2.94436728647E-05 -7.36482021367E-01 +6.44362125633E-01
1.03000000000E+09 -6.31611427709E-01 +7.31571914991E-01 +3.79588224234E-06 +1.42484829957E-05 -2.62619705791E-05 -9.26969642707E-06 -7.33124577621E-01 +6.48394847283E-01
1.03500000000E+09 -6.29400866559E-01 +7.34271794957E-01 +2.40914692527E-05 +2.41048447170E-05 +3.76945689869E-05 +2.74304603981E-05 -7.29319331318E-01 +6.52196312166E-01
1.04000000000E+09 -6.25929224143E-01 +7.37392772458E-01 -5.66727697768E-05 -6.21118311522E-06 +3.02082465786E-06 +3.74257102070E-05 -7.25426686200E-01 +6.55891271438E-01
1.04500000000E+09 -6.21154938944E-01 +7.40939640550E-01 +2.61680971301E-05 +9.37058306807E-06 -1.96133522128E-05 +2.28545674418E-05 -7.21905591587E-01 +6.59250581889E-01
1.05000000000E+09 -6.14672613457E-01 +7.44935765096E-01 -3.69133577092E-05 +8.46249522001E-05 -8.63262180053E-06 +1.50507644992E-07 -7.18368951299E-01 +6.63041879838E-01
1.05500000000E+09 -6.06941337429E-01 +7.49130967516E-01 -7.50182557741E-06 +2.49021574949E-05 -6.17810141929E-05 +1.83634566774E-05 -7.15298611005E-01 +6.66396345044E-01
1.06000000000E+09 -5.98571876166E-01 +7.53601987636E-01 +8.34800742451E-06 +2.06201664243E-05 +2.56125967335E-06 +1.16964205824E-04 -7.11995535523E-01 +6.70151461682E-01
1.06500000000E+09 -5.90741205962E-01 +7.57965148446E-01 -5.23441719646E-05 +6.41434725678E-05 +1.23465140692E-05 +3.30235894302E-05 -7.08289393620E-01 +6.74008991845E-01
1.07000000000E+09 -5.83859620444E-01 +7.61876797332E-01 -3.93225403592E-05 +5.27360720200E-05 +7.23436231186E-07 +4.46981816546E-05 -7.04153995951E-01 +6.77603268983E-01
1.07500000000E+09 -5.78538506054E-01 +7.65540540382E-01 -1.56847984244E-05 +5.02793642891E-05 +3.94911635613E-05 +9.00691273033E-05 -7.00052604844E-01 +6.81431961678E-01
1.08000000000E+09 -5.74554997910E-01 +7.68921772133E-01 +2.90429957665E-06 +7.54307720198E-05 -2.58050322260E-05 +5.63840851501E-05 -6.95850997159E-01 +6.85321327349E-01
1.08500000000E+09 -5.71858255093E-01 +7.71856141867E-01 +6.69384018999E-06 +3.14636001508E-05 +5.10165007667E-05 +5.09357849218E-05 -6.91910490711E-01 +6.88814673805E-01
1.09000000000E+09 -5.69723587736E-01 +7.74742448428E-01 +1.43581369877E-05 +6.64692284080E-05 +4.07146544595E-05 +9.72405829586E-05 -6.88087930034E-01 +6.92945273245E-01
1.09500000000E+09 -5.67607635559E-01 +7.77204571491E-01 +2.76865483958E-05 +4.34983137436E-05 +2.24516352788E-05 +1.00773144732E-04 -6.84338084904E-01 +6.96779398312E-01
1.10000000000E+09 -5.64083145112E-01 +7.79810613756E-01 +1.05166435139E-05 +4.36187107738E-05 +1.22615171458E-05 +4.20145659366E-05 -6.80284799203E-01 +7.00504159592E-01
1.10500000000E+09 -5.59667669029E-01 +7.82730235793E-01 -1.76562853108E-05 +4.06991584110E-05 +2.21219873887E-05 +4.11592087996E-05 -6.75980618982E-01 +7.04179292191E-01
1.11000000000E+09 -5.53816272002E-01 +7.86179805713E-01 -1.61719887809E-06 +3.32820736110E-05 +2.85849318412E-07 +4.73774642576E-05 -6.71681653824E-01 +7.07572417751E-01
1.11500000000E+09 -5.46524841900E-01 +7.89762707259E-01 +5.83771840070E-05 +7.40490011732E-05 +5.20654083747E-05 -9.29512040216E-06 -6.67671832597E-01 +7.10854012818E-01
1.12000000000E+09 -5.39021765804E-01 +7.93222443370E-01 +4.17968380790E-05 +4.10609287982E-05 +1.21398322184E-05 -6.70533212218E-06 -6.63686411539E-01 +7.14571013410E-01
1.12500000000E+09 -5.31507465108E-01 +7.96855986448E-01 +3.62067588562E-05 -5.97554574180E-06 +7.53535142895E-05 +5.21447439289E-05 -6.59390538834E-01 +7.18603672365E-01
1.13000000000E+09 -5.24850264585E-01 +8.00212699461E-01 +2.25022694917E-05 +1.87238057395E-05 -1.44290875956E-06 +3.85203870014E-05 -6.55040139260E-01 +7.22336233599E-01
1.13500000000E+09 -5.19030970749E-01 +8.03130198662E-01 +2.54088359557E-05 +5.20946206877E-05 +2.44110904367E-05 +6.51026589388E-05 -6.50440647651E-01 +7.26077547549E-01
1.14000000000E+09 -5.14467492743E-01 +8.06201541303E-01 +4.12893624907E-05 +4.69858885932E-05 +1.34157865433E-05 +3.66981930684E-05 -6.45929140090E-01 +7.29468148902E-01
1.14500000000E+09 -5.10730995542E-01 +8.08519856229E-01 +1.14890976877E-05 -2.67213796555E-05 +3.47591738666E-05 +3.59218593629E-05 -6.41239717959E-01 +7.33005769039E-01
1.15000000000E+09 -5.07255928718E-01 +8.10770333692E-01 +4.11745774012E-05 +6.01918733793E-05 +6.08195525756E-05 +4.61969951104E-05 -6.36442451116E-01 +7.36733162898E-01
1.15500000000E+09 -5.03694232786E-01 +8.13353367577E-01 +6.96521349782E-05 +6.12775361503E-05 +6.26126290324E-05 +1.67072019376E-05 -6.31653597570E-01 +7.40606527604E-01
1.16000000000E+09 -4.99139356579E-01 +8.15572778349E-01 +2.75348486718E-05 -2.36512490206E-05 +3.71195599228E-05 +5.87349469145E-05 -6.26886680804E-01 +7.44483770980E-01
1.16500000000E+09 -4.93579578175E-01 +8.18428400086E-01 +6.17958226749E-05 +2.71875905764E-05 +5.75942521430E-05 +6.34745635685E-06 -6.21764001372E-01 +7.48167317944E-01
1.17000000000E+09 -4.86691275416E-01 +8.21465470970E-01 +6.98410166295E-05 +3.96647439589E-05 +1.01653857073E-04 +5.22952005183E-05 -6.16378726935E-01 +7.51352291673E-01
1.17500000000E+09 -4.79014594755E-01 +8.24598369893E-01 +7.88455927481E-05 +1.72277267005E-05 +7.57467460974E-05 +2.25523026454E-05 -6.10582005444E-01 +7.54655161898E-01
1.18000000000E+09 -4.71021697361E-01 +8.27711427593E-01 +1.02191838314E-04 +2.21798151595E-05 +9.32941803537E-05 +5.15416040144E-05 -6.05068023515E-01 +7.57794381732E-01
1.18500000000E+09 -4.63190993465E-01 +8.30587619627E-01 +1.10663787114E-04 +5.54370951485E-05 +1.02339855670E-04 -6.92282871668E-06 -5.99025526867E-01 +7.60890210113E-01
1.19000000000E+09 -4.56049287066E-01 +8.33095282098E-01 +1.35985471570E-04 +6.86576243196E-05 +1.45900589201E-04 +2.29712782931E-05 -5.92869904779E-01 +7.63378348257E-01
1.19500000000E+09 -4.50213538641E-01 +8.35359995401E-01 +2.18464271800E-04 -1.37449093863E-05 +2.09966883648E-04 -4.56365238779E-06 -5.86781937049E-01 +7.64732119139E-01
1.20000000000E+09 -4.45400163255E-01 +8.36677850137E-01 +2.14837756560E-04 -1.03548781841E-04 +1.99149283831E-04 -9.43686243549E-05 -5.82323023223E-01 +7.64849734738E-01
1.20500000000E+09 -4.41262394625E-01 +8.38542616978E-01 +1.77010718911E-04 -1.52913351029E-04 +1.45594086063E-04 -1.40317853655E-04 -5.80108499572E-01 +7.65710620145E-01
1.21000000000E+09 -4.37171666723E-01 +8.40495447654E-01 +1.33320038007E-04 -1.54359501373E-04 +1.46131044237E-04 -1.21197284183E-04 -5.78248454762E-01 +7.68840646477E-01
1.21500000000E+09 -4.32059024192E-01 +8.42651326902E-01 +7.73465732080E-05 -1.35474817202E-04 +3.53188284971E-05 -1.26406425041E-04 -5.75537472362E-01 +7.73364124189E-01
1.22000000000E+09 -4.25555403290E-01 +8.45253329300E-01 +2.76999099938E-05 -1.65282726153E-04 +7.28202465307E-05 -1.94513557101E-04 -5.71404409190E-01 +7.78584448069E-01
1.22500000000E+09 -4.17320342137E-01 +8.48078176966E-01 +4.68524984792E-05 -1.20442422236E-04 +9.75766411452E-05 -8.65187488214E-05 -5.66210853247E-01 +7.83758224841E-01
1.23000000000E+09 -4.08072344249E-01 +8.51106999452E-01 +3.24465481121E-05 -1.09480510934E-04 +5.06573298828E-05 -1.53165972174E-04 -5.60513988457E-01 +7.88469962821E-01
1.23500000000E+09 -3.98034008659E-01 +8.54296880432E-01 +1.04684013304E-04 -1.00393148799E-04 +7.88060195863E-05 -1.53932655977E-04 -5.54557187743E-01 +7.92820196235E-01
1.24000000000E+09 -3.87983367058E-01 +8.57720793280E-01 +1.29982507955E-04 -1.76688635433E-04 +8.83401800020E-05 -1.36017405566E-04 -5.48618634106E-01 +7.96665720379E-01
1.24500000000E+09 -3.78591505759E-01 +8.61167535810E-01 +1.21868180690E-04 -2.01068048373E-04 +4.05345258639E-05 -1.88032205696E-04 -5.42365903986E-01 +8.00505940182E-01
1.25000000000E+09 -3.69955441250E-01 +8.64217551590E-01 +6.97124559829E-05 -2.36169546665E-04 +8.22011555205E-05 -1.75996607810E-04 -5.35632114147E-01 +8.04769929976E-01
1.25500000000E+09 -3.62813339641E-01 +8.66849674873E-01 +4.82178267267E-05 -2.45419494348E-04 -2.30899398023E-06 -2.90914621449E-04 -5.28727392297E-01 +8.08765009630E-01
1.26000000000E+09 -3.56621733868E-01 +8.69350692840E-01 -6.84189957318E-05 -2.41940288102E-04 -6.51676234496E-05 -2.41631726324E-04 -5.22088751813E-01 +8.13159737095E-01
1.26500000000E+09 -3.51135944540E-01 +8.71436414829E-01 -1.97285961314E-05 -2.31815114680E-04 -8.53733679057E-05 -2.64697733189E-04 -5.15000260108E-01 +8.17057480060E-01
1.27000000000E+09 -3.45413870745E-01 +8.73609184171E-01 -9.96205637931E-05 -2.73198025214E-04 -9.98523621236E-05 -2.54586827228E-04 -5.08283029570E-01 +8.20810282576E-01
1.27500000000E+09 -3.38880718871E-01 +8.75935585043E-01 -1.30164769060E-04 -2.81134516752E-04 -1.03076612996E-04 -2.78540431075E-04 -5.01223006333E-01 +8.24449845359E-01
1.28000000000E+09 -3.31042169674E-01 +8.78239373501E-01 -9.77591759406E-05 -2.39551125018E-04 -1.49807757852E-04 -2.62968140946E-04 -4.94146516818E-01 +8.27774879226E-01
1.28500000000E+09 -3.21182641298E-01 +8.80704043108E-01 -1.53764800458E-04 -2.22255842652E-04 -2.11913729807E-04 -2.96440375584E-04 -4.86908534590E-01 +8.31534954600E-01
1.29000000000E+09 -3.10359097031E-01 +8.83368224869E-01 -2.10697718900E-04 -2.01333680584E-04 -2.60956401124E-04 -2.97035543072E-04 -4.79236009285E-01 +8.35251104628E-01
1.29500000000E+09 -2.98933554185E-01 +8.85892787841E-01 -2.12428324713E-04 -1.92128975281E-04 -3.16935043819E-04 -2.23355136003E-04 -4.71287002972E-01 +8.38709188483E-01
1.30000000000E+09 -2.87493762013E-01 +8.88597556209E-01 -2.68563646023E-04 -2.04790053464E-04 -2.93599931434E-04 -1.82174111331E-04 -4.63520816843E-01 +8.42316838856E-01
1.30500000000E+09 -2.76881811615E-01 +8.90977461833E-01 -3.62035671687E-04 -2.14600092609E-04 -3.35834018122E-04 -1.43119077052E-04 -4.55278068366E-01 +8.45955610350E-01
1.31000000000E+09 -2.67499727499E-01 +8.93182461201E-01 -3.60464518113E-04 -8.91234047179E-05 -3.51759645185E-04 -9.40567141926E-05 -4.47029589891E-01 +8.49284448716E-01
1.31500000000E+09 -2.59640608001E-01 +8.95048206523E-01 -3.55534734742E-04 -6.25958477962E-05 -3.63206017058E-04 -6.69570354621E-05 -4.38220200432E-01 +8.52805322578E-01
1.32000000000E+09 -2.52774739608E-01 +8.96589311505E-01 -3.66586565959E-04 -4.16889840402E-05 -3.65787476749E-04 -3.33784367259E-05 -4.29031171112E-01 +8.56270512165E-01
1.32500000000E+09 -2.46250450539E-01 +8.97939551055E-01 -3.51468751850E-04 -3.23495318195E-05 -3.96072071827E-04 -3.31202409158E-06 -4.19402908481E-01 +8.59596861860E-01
1.33000000000E+09 -2.39035568064E-01 +8.99036445676E-01 -4.22473816086E-04 -2.18831716733E-05 -4.25143102007E-04 -4.90294568282E-06 -4.09672496457E-01 +8.62839945352E-01
1.33500000000E+09 -2.30300960272E-01 +8.99766777898E-01 -4.53828324134E-04 -5.26861406731E-06 -4.55064616102E-04 +5.79821215685E-05 -3.99666820357E-01 +8.66157002261E-01
1.34000000000E+09 -2.19309907742E-01 +9.00533255151E-01 -4.55154062596E-04 +8.95118786009E-05 -4.25543289381E-04 +1.11742414668E-04 -3.89598038586E-01 +8.69460149124E-01
1.34500000000E+09 -2.06162482635E-01 +9.00648996928E-01 -3.98134241461E-04 +1.68705774699E-04 -4.06535793806E-04 +1.69444358740E-04 -3.78628170654E-01 +8.72893283724E-01
1.35000000000E+09 -1.91222810971E-01 +9.00969279926E-01 -4.61978515638E-04 +2.11201169951E-04 -3.83470455857E-04 +1.62433620214E-04 -3.67354864255E-01 +8.75833620962E-01
1.35500000000E+09 -1.75262646153E-01 +9.00803274308E-01 -4.02938973590E-04 +1.84088066893E-04 -3.89739445537E-04 +2.12722999156E-04 -3.55805011344E-01 +8.78727147953E-01
1.36000000000E+09 -1.59188340471E-01 +9.00891014549E-01 -3.84896044591E-04 +2.35467867510E-04 -3.73185012806E-04 +2.06548669918E-04 -3.43857536125E-01 +8.81470713483E-01
1.36500000000E+09 -1.43480445996E-01 +9.01083326484E-01 -3.82646069746E-04 +2.41143483683E-04 -3.90721433536E-04 +2.14462964004E-04 -3.31648894769E-01 +8.83892688502E-01
1.37000000000E+09 -1.28869392730E-01 +9.01288924618E-01 -4.76466651526E-04 +2.88808852813E-04 -4.48296454474E-04 +2.28515383119E-04 -3.18797633784E-01 +8.86385894849E-01
1.37500000000E+09 -1.15656077623E-01 +9.01262427518E-01 -5.30163517203E-04 +4.21094583903E-04 -5.37121699845E-04 +3.25252632265E-04 -3.05107582132E-01 +8.88693638415E-01
1.38000000000E+09 -1.03242108235E-01 +9.01143801375E-01 -4.93109428635E-04 +5.38010232093E-04 -6.17159950501E-04 +5.49138512335E-04 -2.90345194128E-01 +8.90775590841E-01
1.38500000000E+09 -9.08600752194E-02 +9.00705068701E-01 -3.34777673983E-04 +6.28188452755E-04 -4.36658730605E-04 +6.48652457331E-04 -2.74833172616E-01 +8.92608662701E-01
1.39000000000E+09 -7.80205437485E-02 +8.99555116364E-01 -2.86673079722E-04 +5.65131657134E-04 -3.18442845526E-04 +7.55372286421E-04 -2.58880389467E-01 +8.94198496187E-01
1.39500000000E+09 -6.36015003961E-02 +8.97653890446E-01 -3.21350136394E-04 +6.07161798163E-04 -3.11533651119E-04 +7.55858599457E-04 -2.41971348015E-01 +8.94865152812E-01
1.40000000000E+09 -4.69245181756E-02 +8.94686419997E-01 -3.32591448953E-04 +7.24957720785E-04 -2.67333470677E-04 +7.75843682212E-04 -2.24381577176E-01 +8.95329635013E-01
1.40500000000E+09 -2.84456282220E-02 +8.90499978479E-01 -2.84804480389E-04 +7.83853553147E-04 -2.51581274100E-04 +7.90229124658E-04 -2.05668815650E-01 +8.95161548951E-01
1.41000000000E+09 -8.13302773641E-03 +8.85335772738E-01 -2.26492441702E-04 +9.38925181651E-04 -2.13268951816E-04 +9.37458985613E-04 -1.85504721166E-01 +8.94396560914E-01
1.41500000000E+09 +1.31709554432E-02 +8.79100932757E-01 -8.92680283487E-05 +9.06505014175E-04 -8.70433162193E-05 +9.67636194957E-04 -1.63839020299E-01 +8.93148633886E-01
1.42000000000E+09 +3.49595712272E-02 +8.72467682163E-01 -8.06425657506E-05 +9.78669744023E-04 -1.03744835396E-04 +1.09316179304E-03 -1.40762705090E-01 +8.90376355170E-01
1.42500000000E+09 +5.66006258696E-02 +8.65254182164E-01 -9.62262402212E-05 +1.17120818761E-03 -1.95425016095E-05 +1.29799354194E-03 -1.16930467385E-01 +8.86702878468E-01
1.43000000000E+09 +7.82677987312E-02 +8.57416537786E-01 +8.07443412779E-05 +1.31932087163E-03 +2.15696230612E-04 +1.46856002407E-03 -9.20785959821E-02 +8.81848016248E-01
1.43500000000E+09 +1.00090038556E-01 +8.48388884157E-01 +3.14696515690E-04 +1.44759180275E-03 +5.12822463690E-04 +1.44727826351E-03 -6.56481133410E-02 +8.75111262931E-01
1.44000000000E+09 +1.22533296209E-01 +8.37908038351E-01 +5.55291130084E-04 +1.43518724368E-03 +6.55005182381E-04 +1.39753413378E-03 -3.75936336581E-02 +8.66498053725E-01
1.44500000000E+09 +1.46329487956E-01 +8.25007568760E-01 +6.91960899045E-04 +1.35545685026E-03 +7.67901476547E-04 +1.38261328303E-03 -7.21096278654E-03 +8.55185086563E-01
1.45000000000E+09 +1.71940728475E-01 +8.08607662773E-01 +7.11943407219E-04 +1.58464801711E-03 +8.69469460925E-04 +1.60036526904E-03 +2.47098160726E-02 +8.40461489482E-01
1.45500000000E+09 +1.99555678566E-01 +7.88439842220E-01 +9.70837195961E-04 +1.89629037096E-03 +1.17667406133E-03 +1.77577243357E-03 +5.81719193325E-02 +8.22658101581E-01
1.46000000000E+09 +2.29672197738E-01 +7.63478890091E-01 +1.49522602970E-03 +2.18388434020E-03 +1.66258596454E-03 +1.96207636421E-03 +9.31653375389E-02 +8.01023516379E-01
1.46500000000E+09 +2.61308686622E-01 +7.33011264815E-01 +2.17253082543E-03 +2.17327403755E-03 +2.14114731868E-03 +1.87962797684E-03 +1.29822538760E-01 +7.73839455417E-01
1.47000000000E+09 +2.93421234091E-01 +6.97411043563E-01 +2.97257079950E-03 +2.01415386563E-03 +2.75528932427E-03 +1.82649905619E-03 +1.66980454882E-01 +7.39709414042E-01
1.47500000000E+09 +3.25247078226E-01 +6.55363728922E-01 +3.67001716690E-03 +1.65915335007E-03 +3.48360063479E-03 +1.72691529568E-03 +2.03750588233E-01 +6.98473358978E-01
1.48000000000E+09 +3.54437368982E-01 +6.06795261336E-01 +4.40068550814E-03 +1.13385224871E-03 +4.45754088694E-03 +1.25207310061E-03 +2.40466933836E-01 +6.49336564690E-01
1.48500000000E+09 +3.79936071211E-01 +5.51805589378E-01 +5.09018967882E-03 +4.78517756544E-04 +5.24089392193E-03 +3.89736228419E-04 +2.75216738295E-01 +5.89916914949E-01
1.49000000000E+09 +3.99909538789E-01 +4.88956693945E-01 +6.00973422244E-03 -4.40178762046E-04 +6.01754217047E-03 -7.63713381802E-04 +3.03464265844E-01 +5.19458280221E-01
1.49500000000E+09 +4.12492566625E-01 +4.18217150438E-01 +6.68922896804E-03 -2.08837154005E-03 +6.35034410218E-03 -2.27997141779E-03 +3.21202710907E-01 +4.38785645082E-01
1.50000000000E+09 +4.14204644407E-01 +3.38570450408E-01 +7.37729130195E-03 -3.64592768190E-03 +6.87528332643E-03 -3.49006028222E-03 +3.26196848817E-01 +3.49508580229E-01
1.50500000000E+09 +4.03195991794E-01 +2.51667092641E-01 +7.47430947760E-03 -7.03269580267E-03 +7.37421036246E-03 -6.54464414827E-03 +3.13750494630E-01 +2.51947975540E-01
1.51000000000E+09 +3.75016787335E-01 +1.58411636407E-01 +5.05871902420E-03 -1.05041378103E-02 +5.37491201685E-03 -1.01491179348E-02 +2.80146903288E-01 +1.51766606190E-01
1.51500000000E+09 +3.25792246168E-01 +6.50998814801E-02 +1.67018591578E-03 -1.19851703977E-02 +1.97165524903E-03 -1.19815121594E-02 +2.24769143930E-01 +5.58654905782E-02
1.52000000000E+09 +2.55222115511E-01 -1.97065903615E-02 -2.24189849574E-03 -1.25676391122E-02 -2.09635851462E-03 -1.27230762285E-02 +1.48451008606E-01 -2.95767145203E-02
1.52500000000E+09 +1.66889736515E-01 -9.06379794841E-02 -5.82600953846E-03 -1.09924501108E-02 -5.79043018229E-03 -1.11491428662E-02 +5.36776383326E-02 -9.74552542548E-02
1.53000000000E+09 +6.40443923129E-02 -1.41006692271E-01 -8.16069901271E-03 -9.77868987411E-03 -8.13359021626E-03 -9.81054927873E-03 -5.36973260425E-02 -1.42282089613E-01
1.53500000000E+09 -4.64733194197E-02 -1.67128301768E-01 -1.10481863351E-02 -7.56853124571E-03 -1.10130802830E-02 -7.55985782991E-03 -1.65079863008E-01 -1.61653985343E-01
1.54000000000E+09 -1.58833085789E-01 -1.68338568478E-01 -1.36432317304E-02 -4.23550138872E-03 -1.34361819302E-02 -4.25943211740E-03 -2.73329514836E-01 -1.57549370275E-01
1.54500000000E+09 -2.66274873024E-01 -1.44891458764E-01 -1.45708320283E-02 +1.15942576450E-03 -1.43735568669E-02 +8.15398675803E-04 -3.71028021175E-01 -1.33873091119E-01
1.55000000000E+09 -3.61251133293E-01 -1.00753205795E-01 -1.20321946841E-02 +5.63642631446E-03 -1.22593845918E-02 +5.16680281599E-03 -4.55482701622E-01 -9.64701418335E-02
1.55500000000E+09 -4.39663758654E-01 -4.37116577539E-02 -8.68153393074E-03 +8.07773024675E-03 -9.24168771949E-03 +7.83546746557E-03 -5.25778298228E-01 -5.02789757099E-02
1.56000000000E+09 -5.01200282540E-01 +1.78233617247E-02 -5.38436909354E-03 +8.88939874746E-03 -5.97433916300E-03 +9.03799917665E-03 -5.83038442964E-01 +2.36312174848E-03
1.56500000000E+09 -5.50159756850E-01 +8.01028329654E-02 -2.61686434089E-03 +8.51158820038E-03 -2.90820299308E-03 +8.94231708125E-03 -6.27747263442E-01 +5.72092338367E-02
1.57000000000E+09 -5.86939459357E-01 +1.41167302011E-01 -6.81140473482E-04 +7.51231947339E-03 -6.22974093280E-04 +8.04273867702E-03 -6.61252668658E-01 +1.12004179019E-01
