# Hz S RI R 50
! CMT, C1220, 16058040, 17.2.0/1
! Date: 14/08/2018 12:09:45
! Data: Format (Calibration Info)
! Freq                      S11: Re/Im (F2)                       S21: Re/Im (F2)                       S12: Re/Im (F2)                       S22: Re/Im (F2)            
1.00000000000E+09 -6.54975696941E-01 +7.09690442722E-01 -1.17270550816E-05 -6.18734604240E-05 -1.60419904274E-05 -1.79755885553E-05 -7.53542251787E-01 +6.25642925155E-01
1.00500000000E+09 -6.48025076056E-01 +7.14507957220E-01 -3.86785442775E-05 +3.67314668363E-05 -4.74989715982E-05 +1.05352773116E-05 -7.50066299105E-01 +6.29758246101E-01
1.01000000000E+09 -6.42409420051E-01 +7.18765613293E-01 +1.10574786320E-05 -1.87236029995E-06 -6.28570986888E-05 +2.89388102887E-05 -7.46298444424E-01 +6.33495153718E-01
1.01500000000E+09 -6.38175408442E-01 +7.22338962141E-01 -9.93216448250E-06 -2.14979770252E-05 -3.42293300969E-05 -9.90952653751E-06 -7.43060664703E-01 +6.37084969253E-01
1.02000000000E+09 -6.35323324056E-01 +7.25754461821E-01 -3.50324775050E-05 -4.58093084379E-06 +1.87889389555E-05 -3.30360314888E-05 -7.39600380255E-01 +6.40860458963E-01
1.02500000000E+09 -6.33438666700E-01 +7.28822959286E-01 -4.48003531693E-05 -5.81714874610E-05 -1.49657556533E-05 +2.06955516475E-05 -7.36627135679E-01 +6.44436979754E-01
1.03000000000E+09 -6.31984147582E-01 +7.31559517004E-01 -4.38367049615E-05 +2.24239907122E-05 +1.26394637221E-05 +9.93243778767E-06 -7.33250019916E-01 +6.48269432189E-01
1.03500000000E+09 -6.29806726410E-01 +7.34326129412E-01 +2.47275241207E-05 +3.96961483983E-06 -1.81755700101E-05 +9.72786891411E-06 -7.29419017964E-01 +6.52310095305E-01
1.04000000000E+09 -6.26569012701E-01 +7.37570090642E-01 +1.20803320002E-05 +2.43827155770E-05 -4.83541418747E-05 -1.12324981683E-05 -7.25688698553E-01 +6.55999892610E-01
1.04500000000E+09 -6.21639873481E-01 +7.41045501580E-01 -5.53352397548E-05 +2.55793512915E-05 -3.89060816720E-05 +2.64431271034E-05 -7.22162135741E-01 +6.59544866652E-01
1.05000000000E+09 -6.14963203963E-01 +7.44959011715E-01 -2.27399406224E-05 +7.52588896307E-05 -5.29486892879E-05 +9.73400184512E-06 -7.18653507292E-01 +6.62817173092E-01
1.05500000000E+09 -6.07354469549E-01 +7.49173645169E-01 -1.77732374753E-05 +3.78049810464E-05 -6.27173588578E-05 +1.67094663513E-05 -7.15359921969E-01 +6.66443864433E-01
1.06000000000E+09 -5.99044237641E-01 +7.53645316532E-01 -3.66466111036E-05 +1.28759033237E-05 -7.09250287114E-05 +2.20913896592E-05 -7.12143878111E-01 +6.70264741943E-01
1.06500000000E+09 -5.91341429882E-01 +7.58046468020E-01 -1.18213028778E-05 +5.07215252580E-05 +1.34199264709E-06 +9.52034184315E-05 -7.08468890645E-01 +6.74006394282E-01
1.07000000000E+09 -5.84273537262E-01 +7.61988871180E-01 -6.33828778677E-05 +1.10229980294E-04 +6.55861331364E-07 +3.01239689671E-06 -7.04428944491E-01 +6.77720610994E-01
1.07500000000E+09 -5.79020046431E-01 +7.65566444964E-01 +6.01374921413E-05 +3.44886876323E-05 +6.30243626147E-06 +4.84546520132E-05 -6.99965519947E-01 +6.81265961584E-01
1.08000000000E+09 -5.75127070014E-01 +7.68973720555E-01 +3.82221812413E-05 +4.06085408102E-05 +1.42184535136E-05 +8.02926930636E-05 -6.96061060754E-01 +6.85354200353E-01
1.08500000000E+09 -5.72424228566E-01 +7.71887194847E-01 -2.67819492525E-05 +8.52759732311E-05 +3.57261706137E-06 +2.11943920389E-05 -6.92045626103E-01 +6.89003145260E-01
1.09000000000E+09 -5.70214265624E-01 +7.74621228223E-01 -2.77935785752E-05 +2.23187787633E-05 +1.29448531113E-05 +4.39597349753E-05 -6.88181901021E-01 +6.92930088841E-01
1.09500000000E+09 -5.67975180989E-01 +7.77174719431E-01 +5.04682181226E-05 +4.54074593956E-05 +3.52306180886E-05 +4.32010663506E-05 -6.84386575071E-01 +6.96764785943E-01
1.10000000000E+09 -5.64625128219E-01 +7.79801290606E-01 +9.85273302389E-06 +5.84146198749E-06 +2.57024355938E-05 +5.01442106297E-05 -6.80471317682E-01 +7.00569827047E-01
1.10500000000E+09 -5.60117139045E-01 +7.82797685287E-01 -1.73192601635E-05 +4.87960326939E-05 +1.06608108033E-05 +6.51004408632E-05 -6.75969498187E-01 +7.04141377448E-01
1.11000000000E+09 -5.54195277431E-01 +7.86111016465E-01 +1.41037548208E-05 +7.82570814871E-05 -2.50512265726E-05 +8.27607292848E-05 -6.71887493777E-01 +7.07588369589E-01
1.11500000000E+09 -5.47194038912E-01 +7.89625135676E-01 +7.21203933053E-06 -5.24600057744E-06 +4.97301997517E-05 +5.62057840139E-05 -6.67816803510E-01 +7.10951938008E-01
1.12000000000E+09 -5.39576223707E-01 +7.93293390624E-01 +2.65380430195E-06 +2.69981677829E-05 +7.82483418882E-06 +3.33695771058E-05 -6.63719749362E-01 +7.14722540591E-01
1.12500000000E+09 -5.31946552710E-01 +7.96967481629E-01 +5.07114772489E-05 +6.10196971855E-05 +2.50743016289E-05 +3.84402859739E-05 -6.59511915319E-01 +7.18530114034E-01
1.13000000000E+09 -5.25257318203E-01 +8.00449350537E-01 +4.07154002521E-05 +8.40537659475E-05 +9.28879365668E-05 +7.78752500387E-06 -6.55209130485E-01 +7.22466014821E-01
1.13500000000E+09 -5.19582456442E-01 +8.03336891337E-01 +4.94267374224E-06 +3.99628068663E-05 +1.67176032396E-05 +4.20680889286E-05 -6.50556357710E-01 +7.26061851637E-01
1.14000000000E+09 -5.15103226952E-01 +8.06277204004E-01 +3.90845018260E-05 +8.66513784399E-05 +8.50719530649E-05 +3.63247606454E-05 -6.45903431103E-01 +7.29722454528E-01
1.14500000000E+09 -5.11239996412E-01 +8.08718310499E-01 +4.97415465780E-05 +7.67518081960E-05 +8.34597880305E-06 +2.99460846312E-05 -6.41200786794E-01 +7.32960660461E-01
1.15000000000E+09 -5.07780520217E-01 +8.10940100273E-01 +2.35556369325E-05 +7.21415643792E-05 +5.71259960640E-05 +2.85089559042E-05 -6.36613492880E-01 +7.36803443560E-01
1.15500000000E+09 -5.04264910490E-01 +8.13417280933E-01 +5.66103012581E-05 +5.67198900212E-05 +5.67217860724E-05 +7.23793010694E-05 -6.31839112691E-01 +7.40630753623E-01
1.16000000000E+09 -4.99745979525E-01 +8.15827489923E-01 +7.18741021662E-05 +3.24763377576E-05 +6.18742837694E-05 +5.45634467518E-05 -6.26962934932E-01 +7.44487718704E-01
1.16500000000E+09 -4.94092788364E-01 +8.18642234678E-01 +5.69632341170E-05 +4.33567665273E-05 +8.34536757894E-05 +5.78975307300E-05 -6.21803001665E-01 +7.48112670505E-01
1.17000000000E+09 -4.87311783676E-01 +8.21690447769E-01 +6.42614323290E-05 +3.84740503925E-05 +5.12251504721E-05 +8.40190822796E-05 -6.16469017128E-01 +7.51534646197E-01
1.17500000000E+09 -4.79483341276E-01 +8.24819084942E-01 +1.04472677252E-04 +9.60386608138E-05 +8.10237668704E-05 +1.67953137780E-06 -6.10633794331E-01 +7.54674457298E-01
1.18000000000E+09 -4.71486552556E-01 +8.27999133026E-01 +1.04300515029E-04 +1.62203606253E-05 +1.20515397141E-04 +4.57700216917E-05 -6.05109863566E-01 +7.57806984784E-01
1.18500000000E+09 -4.63757210167E-01 +8.30811051965E-01 +1.11332008626E-04 +4.14512411486E-05 +1.12520527377E-04 -1.86644404881E-08 -5.99161847323E-01 +7.60874326292E-01
1.19000000000E+09 -4.56639642144E-01 +8.33343200498E-01 +1.42987118032E-04 +6.26771337029E-05 +1.57017746994E-04 +1.08088787999E-04 -5.92942114071E-01 +7.63482287800E-01
1.19500000000E+09 -4.50825363416E-01 +8.35563286361E-01 +2.24097423738E-04 +1.51523532351E-05 +2.60138067056E-04 +1.33116098045E-05 -5.86919830473E-01 +7.64727795174E-01
1.20000000000E+09 -4.45942197235E-01 +8.36901631257E-01 +2.07186518610E-04 -8.41997994891E-05 +2.38524543047E-04 -1.11134230775E-04 -5.82521725388E-01 +7.64973715326E-01
1.20500000000E+09 -4.41961161367E-01 +8.38862076351E-01 +1.68312388548E-04 -1.13861474898E-04 +1.58993534324E-04 -1.36048475736E-04 -5.80157797605E-01 +7.65638924322E-01
1.21000000000E+09 -4.37877191942E-01 +8.40695992943E-01 +1.60152050003E-04 -1.86208587178E-04 +1.35234840769E-04 -1.60111652680E-04 -5.78389458869E-01 +7.68679814870E-01
1.21500000000E+09 -4.32575178273E-01 +8.43109021473E-01 +1.59690395651E-04 -1.23199166014E-04 +4.89505332155E-05 -1.47582797048E-04 -5.75626370147E-01 +7.73262411596E-01
1.22000000000E+09 -4.26023571174E-01 +8.45461163381E-01 +1.21718427886E-04 -1.92497158474E-04 +9.15156531111E-05 -1.58413167776E-04 -5.71534916754E-01 +7.78749536658E-01
1.22500000000E+09 -4.17967585422E-01 +8.48456114240E-01 +7.14497009753E-05 -1.08676798024E-04 +1.02568833289E-04 -1.73957951064E-04 -5.66388246572E-01 +7.83835677746E-01
1.23000000000E+09 -4.08542683466E-01 +8.51445827811E-01 +4.37943398323E-05 -1.20047007082E-04 +5.03267482167E-05 -1.34063491262E-04 -5.60487665987E-01 +7.88583446469E-01
1.23500000000E+09 -3.98685603590E-01 +8.54715119641E-01 +8.49299488830E-05 -1.37335547134E-04 +7.12256209547E-05 -1.31575300666E-04 -5.54799946593E-01 +7.92979415690E-01
1.24000000000E+09 -3.88505038318E-01 +8.58059032056E-01 +7.32031634383E-05 -1.55384777230E-04 +9.36509314462E-05 -1.63021955909E-04 -5.48614129340E-01 +7.96795523727E-01
1.24500000000E+09 -3.78997376952E-01 +8.61444540277E-01 +8.59849814594E-05 -2.48892229927E-04 +9.45155826024E-05 -2.07485845912E-04 -5.42285127995E-01 +8.00621521024E-01
1.25000000000E+09 -3.70516024852E-01 +8.64537325763E-01 +7.88602612406E-05 -2.49407016486E-04 +9.63870504943E-05 -2.04135134057E-04 -5.35764220290E-01 +8.05030895227E-01
1.25500000000E+09 -3.63365236927E-01 +8.67161700990E-01 +5.09187615576E-05 -2.66583559182E-04 +2.92470126483E-05 -3.02692812573E-04 -5.28795116564E-01 +8.08844996830E-01
1.26000000000E+09 -3.57247658078E-01 +8.69669669409E-01 +6.55646228189E-06 -2.72516530555E-04 +1.53790682587E-05 -2.69393644866E-04 -5.22078448834E-01 +8.13040668994E-01
1.26500000000E+09 -3.51653904043E-01 +8.71885611138E-01 -4.38855945658E-05 -2.72403023960E-04 -1.74699123760E-05 -2.81288433405E-04 -5.15226650894E-01 +8.16917796925E-01
1.27000000000E+09 -3.45867148706E-01 +8.74105891195E-01 -4.94210510579E-05 -2.83509019606E-04 -5.79272631045E-05 -2.82332738560E-04 -5.08295717987E-01 +8.20916170312E-01
1.27500000000E+09 -3.39413491571E-01 +8.76292062843E-01 -8.32890129433E-05 -3.03516121355E-04 -8.28140660482E-05 -3.21740297569E-04 -5.01251862498E-01 +8.24441195103E-01
1.28000000000E+09 -3.31540845060E-01 +8.78623813203E-01 -1.38768775529E-04 -2.76566150118E-04 -2.02449792911E-04 -3.25625775353E-04 -4.94190198818E-01 +8.27881978255E-01
1.28500000000E+09 -3.21716752933E-01 +8.81245920648E-01 -1.64220716760E-04 -2.62235413507E-04 -1.20922244925E-04 -2.79520633529E-04 -4.86740109075E-01 +8.31528571910E-01
1.29000000000E+09 -3.11034632438E-01 +8.83647137424E-01 -1.97149536936E-04 -2.55853599509E-04 -1.88825831206E-04 -2.73649550480E-04 -4.79282047902E-01 +8.35251380997E-01
1.29500000000E+09 -2.99386345803E-01 +8.86277096569E-01 -2.08052459845E-04 -2.47163331180E-04 -2.11971922965E-04 -2.67042591404E-04 -4.71463955130E-01 +8.38846002702E-01
1.30000000000E+09 -2.87836586159E-01 +8.89059508732E-01 -2.57649334943E-04 -3.02997317216E-04 -3.02736784542E-04 -2.63549480985E-04 -4.63521161149E-01 +8.42411733906E-01
1.30500000000E+09 -2.77516743539E-01 +8.91425002469E-01 -3.51518904437E-04 -2.36665796389E-04 -3.13384805493E-04 -1.99094240307E-04 -4.55380188232E-01 +8.45818327816E-01
1.31000000000E+09 -2.68162451111E-01 +8.93628735727E-01 -3.91788845948E-04 -1.57432935257E-04 -3.54634070550E-04 -1.87417636663E-04 -4.47016758564E-01 +8.49306187451E-01
1.31500000000E+09 -2.60165296286E-01 +8.95532116721E-01 -3.68502701545E-04 -1.14190730185E-04 -3.30812543229E-04 -1.04157039579E-04 -4.38179772176E-01 +8.52862135285E-01
1.32000000000E+09 -2.53289986378E-01 +8.97144295543E-01 -3.06845703192E-04 -1.01235823035E-04 -3.23271967987E-04 -1.26476251404E-04 -4.28960911498E-01 +8.56075817959E-01
1.32500000000E+09 -2.46841124653E-01 +8.98329811865E-01 -3.16938360244E-04 -1.47633630135E-04 -4.29166304219E-04 -7.03329327547E-05 -4.19414346465E-01 +8.59598681326E-01
1.33000000000E+09 -2.39561483558E-01 +8.99442420680E-01 -3.93892752157E-04 -1.01377438493E-04 -4.12837664094E-04 -7.05623073378E-05 -4.09792602115E-01 +8.62713098131E-01
1.33500000000E+09 -2.30719353997E-01 +9.00229123771E-01 -4.78004493865E-04 -5.46250559637E-05 -4.53313014721E-04 +1.46928726027E-05 -3.99839989955E-01 +8.66067009146E-01
1.34000000000E+09 -2.19773048951E-01 +9.01007656532E-01 -5.01819369731E-04 +3.35883255843E-05 -4.58400678912E-04 +4.63423580185E-05 -3.89626233138E-01 +8.69491185613E-01
1.34500000000E+09 -2.06603966527E-01 +9.01174804310E-01 -4.61184201895E-04 +9.07107872659E-05 -4.54288989286E-04 +8.19601971637E-05 -3.78604491952E-01 +8.72778942278E-01
1.35000000000E+09 -1.91687593139E-01 +9.01227288386E-01 -4.65313107192E-04 +8.63996791297E-05 -4.55858942993E-04 +1.24516773894E-04 -3.67485594148E-01 +8.75720603352E-01
1.35500000000E+09 -1.75763029735E-01 +9.01297035187E-01 -4.44461497854E-04 +1.10496349827E-04 -4.71118903585E-04 +1.39390478770E-04 -3.55787000526E-01 +8.78683425985E-01
1.36000000000E+09 -1.59612012345E-01 +9.01213129464E-01 -4.85242312927E-04 +1.50164220741E-04 -4.28050358815E-04 +1.08567870950E-04 -3.43868325370E-01 +8.81366348961E-01
1.36500000000E+09 -1.43892029590E-01 +9.01535805118E-01 -5.15126167895E-04 +1.45059421185E-04 -4.66663353350E-04 +1.39864933290E-04 -3.31817656792E-01 +8.83806913467E-01
1.37000000000E+09 -1.29213741075E-01 +9.01587709289E-01 -5.80453816086E-04 +2.24655203093E-04 -5.25204938889E-04 +1.64132372723E-04 -3.18889665009E-01 +8.86115671880E-01
1.37500000000E+09 -1.15953068310E-01 +9.01768583602E-01 -6.63849737884E-04 +3.31528817033E-04 -6.32019287940E-04 +2.44081862652E-04 -3.05184422479E-01 +8.88415421493E-01
1.38000000000E+09 -1.03536711597E-01 +9.01643334714E-01 -5.83050721055E-04 +5.00280769872E-04 -7.16479930970E-04 +4.26847753943E-04 -2.90635340074E-01 +8.90467092215E-01
1.38500000000E+09 -9.11657735007E-02 +9.01065874996E-01 -4.87653379587E-04 +5.93957564882E-04 -5.81902725128E-04 +6.35878103829E-04 -2.75126332326E-01 +8.92349154440E-01
1.39000000000E+09 -7.83878533826E-02 +8.99857596372E-01 -4.09538591489E-04 +5.73262932317E-04 -4.64240469156E-04 +6.37950196216E-04 -2.59264133566E-01 +8.93765832733E-01
1.39500000000E+09 -6.39335371021E-02 +8.98010904765E-01 -4.64807421212E-04 +5.81657276295E-04 -4.16519869747E-04 +6.82553030604E-04 -2.42329040787E-01 +8.94582049387E-01
1.40000000000E+09 -4.72493032643E-02 +8.95086060264E-01 -4.87279126545E-04 +6.38271490732E-04 -4.06786404215E-04 +7.39969789175E-04 -2.24850211773E-01 +8.94975799474E-01
1.40500000000E+09 -2.87557580523E-02 +8.90897496835E-01 -5.15983364416E-04 +7.41350000684E-04 -4.45318061930E-04 +7.95236548606E-04 -2.06232112538E-01 +8.94766058935E-01
1.41000000000E+09 -8.44016587086E-03 +8.85634071364E-01 -4.28899005651E-04 +9.50873605148E-04 -4.16504643245E-04 +9.59478547241E-04 -1.86293540900E-01 +8.94074131252E-01
1.41500000000E+09 +1.28296616959E-02 +8.79314710268E-01 -3.32931136904E-04 +1.03954270557E-03 -3.38354247982E-04 +1.01903310573E-03 -1.64601168060E-01 +8.92838735036E-01
1.42000000000E+09 +3.45004833821E-02 +8.72775399503E-01 -2.58078232731E-04 +1.05811928961E-03 -3.97189504271E-04 +1.20857711933E-03 -1.41757259319E-01 +8.90404739658E-01
1.42500000000E+09 +5.62188141943E-02 +8.65636594312E-01 -2.55189162821E-04 +1.25101621367E-03 -2.48174079791E-04 +1.38278934461E-03 -1.18002706076E-01 +8.86840882353E-01
1.43000000000E+09 +7.78543825939E-02 +8.57746300429E-01 -1.74373900588E-04 +1.43674667233E-03 -3.63472666953E-06 +1.62994016094E-03 -9.31738224588E-02 +8.82115373912E-01
1.43500000000E+09 +9.96203420113E-02 +8.48666215834E-01 +1.00139894769E-04 +1.61590772673E-03 +2.53196327322E-04 +1.68410017054E-03 -6.67416344779E-02 +8.75693857178E-01
1.44000000000E+09 +1.21914394223E-01 +8.38200959496E-01 +2.78414363655E-04 +1.68584054670E-03 +4.02178918982E-04 +1.66584504298E-03 -3.84256571022E-02 +8.67261784067E-01
1.44500000000E+09 +1.45796135710E-01 +8.25207918324E-01 +4.11270623308E-04 +1.73870054700E-03 +5.17207278325E-04 +1.73700725642E-03 -8.15582747181E-03 +8.56039618244E-01
1.45000000000E+09 +1.71428776646E-01 +8.08803545462E-01 +4.20883085138E-04 +2.08407594935E-03 +6.45898245244E-04 +2.01490974036E-03 +2.39169846300E-02 +8.41353385380E-01
1.45500000000E+09 +1.99004491069E-01 +7.88715655857E-01 +7.51532365125E-04 +2.32895964548E-03 +1.02455630878E-03 +2.32465080740E-03 +5.73109526645E-02 +8.23802900770E-01
1.46000000000E+09 +2.28942474276E-01 +7.64021813438E-01 +1.34126499077E-03 +2.78154453133E-03 +1.56138660181E-03 +2.51432876350E-03 +9.25523058260E-02 +8.02351972722E-01
1.46500000000E+09 +2.60648475359E-01 +7.33637257103E-01 +2.12014858501E-03 +2.97392088819E-03 +2.11908666803E-03 +2.58267116238E-03 +1.29241564925E-01 +7.75472629316E-01
1.47000000000E+09 +2.92741644079E-01 +6.97833480677E-01 +3.10568571275E-03 +2.94254184578E-03 +2.89432933363E-03 +2.65664440465E-03 +1.66786506115E-01 +7.41321066251E-01
1.47500000000E+09 +3.24442113438E-01 +6.55817624056E-01 +4.11736369662E-03 +2.51015546871E-03 +3.80552211019E-03 +2.51667141405E-03 +2.03646103087E-01 +7.00083593347E-01
1.48000000000E+09 +3.53627895330E-01 +6.07147755374E-01 +5.00579734164E-03 +2.03956578603E-03 +4.98992268979E-03 +2.19948537738E-03 +2.40388592715E-01 +6.51366276377E-01
1.48500000000E+09 +3.78715029025E-01 +5.52304488809E-01 +5.96619583320E-03 +1.28656585931E-03 +6.10521826867E-03 +1.23356130009E-03 +2.75646938487E-01 +5.92154135412E-01
1.49000000000E+09 +3.98691065446E-01 +4.90075916715E-01 +7.22979741640E-03 +3.53341554244E-04 +7.22755980147E-03 -9.08682268659E-08 +3.04116198474E-01 +5.21828408324E-01
1.49500000000E+09 +4.11590558401E-01 +4.19705529178E-01 +8.39043514048E-03 -1.44084707509E-03 +7.90728801386E-03 -1.67483743644E-03 +3.22435922013E-01 +4.41424785950E-01
1.50000000000E+09 +4.13993514377E-01 +3.39887002096E-01 +9.38061870645E-03 -3.77250347140E-03 +8.79594152806E-03 -3.51287136153E-03 +3.28403533098E-01 +3.52414099599E-01
1.50500000000E+09 +4.02997694642E-01 +2.52747325033E-01 +9.30290434102E-03 -7.72714945719E-03 +9.16573784634E-03 -7.04931011728E-03 +3.17105615617E-01 +2.54305866497E-01
1.51000000000E+09 +3.74714776970E-01 +1.59235355213E-01 +6.80385638179E-03 -1.16431125503E-02 +7.19591347655E-03 -1.12091281949E-02 +2.84338642656E-01 +1.53026482410E-01
1.51500000000E+09 +3.25081216561E-01 +6.62548458625E-02 +3.17173502317E-03 -1.37607940854E-02 +3.53400375290E-03 -1.37646877765E-02 +2.29239495632E-01 +5.61478031582E-02
1.52000000000E+09 +2.54869056722E-01 -1.80111423324E-02 -1.55715885530E-03 -1.48153290827E-02 -1.36344971365E-03 -1.50358056755E-02 +1.53504249930E-01 -3.03967605628E-02
1.52500000000E+09 +1.67265298626E-01 -8.86106009680E-02 -5.76660761361E-03 -1.31064848015E-02 -5.68523498555E-03 -1.33686870809E-02 +5.88290317462E-02 -9.99388561061E-02
1.53000000000E+09 +6.50688505000E-02 -1.39109115928E-01 -8.64342948427E-03 -1.19628166602E-02 -8.64554974003E-03 -1.21093703366E-02 -4.92750614338E-02 -1.46451748087E-01
1.53500000000E+09 -4.51770374582E-02 -1.66165983582E-01 -1.22451451998E-02 -9.27917418191E-03 -1.22918079598E-02 -9.37988056836E-03 -1.61933987108E-01 -1.67637421834E-01
1.54000000000E+09 -1.57754152889E-01 -1.67741293869E-01 -1.50553093006E-02 -5.35072782039E-03 -1.49188554615E-02 -5.38265518251E-03 -2.73084300156E-01 -1.64248812315E-01
1.54500000000E+09 -2.65574834120E-01 -1.44293156712E-01 -1.59262447568E-02 +3.15207376981E-04 -1.58009092210E-02 +2.85430554792E-05 -3.72833042994E-01 -1.39616618920E-01
1.55000000000E+09 -3.60542774836E-01 -9.98520171028E-02 -1.35505200844E-02 +5.11062592227E-03 -1.38028484012E-02 +4.52429127359E-03 -4.58554289827E-01 -1.01342196872E-01
1.55500000000E+09 -4.37968310057E-01 -4.28634381791E-02 -1.03190953174E-02 +7.89234114549E-03 -1.09702885266E-02 +7.57484950408E-03 -5.30317708207E-01 -5.35826984226E-02
1.56000000000E+09 -4.99175624213E-01 +1.76425422943E-02 -6.79796161823E-03 +9.40191548121E-03 -7.46927516382E-03 +9.53958107970E-03 -5.87612187338E-01 +1.02875601019E-03
1.56500000000E+09 -5.48593784627E-01 +7.89863563147E-02 -3.47862836786E-03 +8.99677694704E-03 -3.95329112842E-03 +9.52519618413E-03 -6.31962294439E-01 +5.69595684797E-02
1.57000000000E+09 -5.86420099697E-01 +1.40006466056E-01 -1.47382367360E-03 +7.94439688466E-03 -1.53521102553E-03 +8.52461649952E-03 -6.64928364166E-01 +1.12917039084E-01
