# Hz S RI R 50
! CMT, C1220, 16058040, 17.2.0/1
! Date: 14/08/2018 12:08:39
! Data: Format (Calibration Info)
! Freq                      S11: Re/Im (F2)                       S21: Re/Im (F2)                       S12: Re/Im (F2)                       S22: Re/Im (F2)            
1.00000000000E+09 -6.54701543903E-01 +7.09724915373E-01 -2.39796254083E-06 -2.60527927206E-06 +4.83340458921E-05 +1.20274827534E-05 -7.53448652030E-01 +6.25778151036E-01
1.00500000000E+09 -6.47944465104E-01 +7.14383541206E-01 +1.07250946028E-05 +5.46974227378E-05 +5.18339117592E-06 +1.87957903411E-06 -7.49825268775E-01 +6.29815830365E-01
1.01000000000E+09 -6.42238708350E-01 +7.18620727192E-01 +5.21240177666E-06 -1.27542930281E-06 -2.85213872683E-05 -1.46742755807E-05 -7.46120847121E-01 +6.33682311813E-01
1.01500000000E+09 -6.38043344783E-01 +7.22401612142E-01 -4.04808653813E-05 -4.61965819017E-05 -2.29606582684E-05 +1.23158487937E-05 -7.42882259105E-01 +6.37209823399E-01
1.02000000000E+09 -6.35311531019E-01 +7.25854581783E-01 -1.65306093050E-06 +6.68352702197E-06 -2.25708088336E-05 +1.09696425370E-05 -7.39426571079E-01 +6.40913536110E-01
1.02500000000E+09 -6.33376178928E-01 +7.28669570337E-01 -3.10016603686E-05 +1.06230926914E-05 -1.33405168060E-05 +3.27204662438E-05 -7.36445387678E-01 +6.44684715237E-01
1.03000000000E+09 -6.31853731189E-01 +7.31540552714E-01 -5.25949363538E-07 -1.12700669758E-05 -3.31606043488E-05 +3.61508494171E-05 -7.32971991835E-01 +6.48369816459E-01
1.03500000000E+09 -6.29628454027E-01 +7.34242752951E-01 -1.69350793185E-05 -2.51755315097E-05 -8.49475271369E-05 +1.30164929568E-06 -7.29254397354E-01 +6.52489912885E-01
1.04000000000E+09 -6.26314770286E-01 +7.37486698344E-01 -1.46146381855E-05 +3.59196239016E-05 -3.87786154437E-05 +7.03270173435E-06 -7.25430828091E-01 +6.56097380443E-01
1.04500000000E+09 -6.21457633417E-01 +7.40979577778E-01 -2.94224634738E-05 +2.25381156473E-05 -3.86493012538E-05 +3.99460772589E-05 -7.21745144040E-01 +6.59527966678E-01
1.05000000000E+09 -6.14801039522E-01 +7.45081982085E-01 -3.87497136642E-06 +3.90628074517E-05 -4.93287901618E-05 +4.11311065305E-05 -7.18488474176E-01 +6.63095565315E-01
1.05500000000E+09 -6.07122666905E-01 +7.49164111300E-01 -8.76885941457E-07 -2.19132105283E-06 -2.42776249648E-05 +2.96039418753E-05 -7.15167421759E-01 +6.66681145174E-01
1.06000000000E+09 -5.98910526457E-01 +7.53528108603E-01 -9.52405045749E-06 +6.90437983466E-05 -3.49475497451E-05 +3.49690581832E-05 -7.11914200775E-01 +6.70350634200E-01
1.06500000000E+09 -5.90978776253E-01 +7.58030944051E-01 +2.59389918757E-05 +2.74360373134E-05 +2.41604292366E-05 +7.52771029365E-05 -7.08054895988E-01 +6.74092378466E-01
1.07000000000E+09 -5.84256528081E-01 +7.61975093761E-01 -2.05748459153E-05 +3.00436800844E-05 -2.12499999857E-05 +3.00689375149E-05 -7.04162799664E-01 +6.77936395668E-01
1.07500000000E+09 -5.78737009993E-01 +7.65546271583E-01 -2.67944028668E-05 +4.67582742319E-05 -2.91771791540E-05 +8.74667613776E-06 -6.99753112661E-01 +6.81609816879E-01
1.08000000000E+09 -5.74988564927E-01 +7.68925392311E-01 +8.65060110631E-05 +1.22522987481E-05 -1.87051169923E-06 +5.93363744594E-05 -6.95836444165E-01 +6.85412346733E-01
1.08500000000E+09 -5.72314146740E-01 +7.71951951369E-01 +3.83594519289E-05 +2.32383903713E-05 +1.17638014027E-05 +3.60329055680E-05 -6.91759162222E-01 +6.89087939802E-01
1.09000000000E+09 -5.70050433671E-01 +7.74694678906E-01 +3.51922037402E-06 +4.93687407360E-05 +1.68104655564E-05 +1.75714842163E-05 -6.87910598855E-01 +6.93008847450E-01
1.09500000000E+09 -5.67772694546E-01 +7.77378074744E-01 +1.72115264579E-05 +2.80962192046E-05 +3.72156304308E-05 +5.24473001571E-05 -6.84130784525E-01 +6.96943532631E-01
1.10000000000E+09 -5.64365628674E-01 +7.79969155260E-01 +3.32326360489E-05 +1.99116873794E-05 -3.95364483059E-06 +4.88338270385E-05 -6.80244205939E-01 +7.00849998221E-01
1.10500000000E+09 -5.60074552353E-01 +7.82796924706E-01 +4.09073851664E-05 +5.41567815939E-05 +3.83406984066E-05 +6.80848959049E-05 -6.75839706998E-01 +7.04330385616E-01
1.11000000000E+09 -5.54045913815E-01 +7.86061822280E-01 +1.89624678293E-05 +3.58721265628E-05 +6.02255799848E-05 +9.88841205745E-05 -6.71485588155E-01 +7.07654842997E-01
1.11500000000E+09 -5.46810189046E-01 +7.89636122320E-01 +3.44026352440E-05 +5.23070899232E-05 +1.24016617686E-05 +2.25828841461E-07 -6.67526468655E-01 +7.11153052200E-01
1.12000000000E+09 -5.39322629400E-01 +7.93320808954E-01 +2.87364626646E-05 +5.41846963554E-05 +5.49841334606E-06 +7.01013570408E-05 -6.63373595382E-01 +7.14857988815E-01
1.12500000000E+09 -5.31847001166E-01 +7.96874354322E-01 +2.88315548179E-05 -2.01655614246E-05 +3.59664856890E-06 +2.55745386893E-05 -6.59202231743E-01 +7.18766162016E-01
1.13000000000E+09 -5.25287135190E-01 +8.00383650802E-01 +7.69708272252E-06 +5.99935580098E-05 +5.77084630674E-05 +1.40104831467E-05 -6.54887194676E-01 +7.22377712947E-01
1.13500000000E+09 -5.19344418846E-01 +8.03300095985E-01 +2.84287829088E-05 +3.57582627520E-05 +1.10437757731E-05 +2.03459756313E-05 -6.50410102962E-01 +7.26325099188E-01
1.14000000000E+09 -5.14915635152E-01 +8.06350020101E-01 +4.28856040401E-05 +3.48759294761E-05 +2.13729089616E-05 +1.08014991090E-04 -6.45746649309E-01 +7.29732438120E-01
1.14500000000E+09 -5.11126359157E-01 +8.08744423128E-01 +6.16940905042E-05 +4.11868402918E-05 +4.63824073539E-05 +4.48882825131E-05 -6.40940515042E-01 +7.33186220459E-01
1.15000000000E+09 -5.07539180098E-01 +8.11018953184E-01 +9.36348843550E-05 +5.91821722598E-06 +3.53972738435E-05 +4.66853682649E-06 -6.36339194404E-01 +7.36832258567E-01
1.15500000000E+09 -5.04107302308E-01 +8.13306215158E-01 +6.74321402865E-05 +3.09590102372E-05 +1.72657278957E-05 +3.33301706162E-05 -6.31542969220E-01 +7.40713323588E-01
1.16000000000E+09 -4.99417627105E-01 +8.15701007190E-01 +3.69827650543E-05 -5.07496531256E-06 +4.55870317334E-05 +1.77448061617E-05 -6.26686723205E-01 +7.44662499631E-01
1.16500000000E+09 -4.93727337779E-01 +8.18679056831E-01 +4.88924572973E-05 +1.56906638985E-05 +3.44275928808E-05 +4.03339409866E-05 -6.21600651510E-01 +7.48346781398E-01
1.17000000000E+09 -4.86978820600E-01 +8.21836399259E-01 +9.01311695477E-05 -8.96516915032E-06 +8.34589882726E-05 +9.48168480828E-06 -6.16166302244E-01 +7.51610397100E-01
1.17500000000E+09 -4.79211625467E-01 +8.24738121884E-01 +4.47812776568E-05 +6.31633387332E-05 +6.92857143520E-05 +4.75052314186E-05 -6.10325468614E-01 +7.54811387571E-01
1.18000000000E+09 -4.71236143554E-01 +8.27998636786E-01 +2.62266716431E-05 +9.33173385086E-06 +4.20102113827E-05 +4.63111617843E-05 -6.04810289304E-01 +7.57908549738E-01
1.18500000000E+09 -4.63367799251E-01 +8.30937664907E-01 +9.35708855439E-05 +2.32490622376E-05 +1.01144711502E-04 -2.64921330952E-05 -5.98953314937E-01 +7.60870051468E-01
1.19000000000E+09 -4.56416632015E-01 +8.33395805878E-01 +8.19639922076E-05 -1.28429721259E-05 +1.35323938124E-04 +6.58274154564E-05 -5.92651901282E-01 +7.63655530133E-01
1.19500000000E+09 -4.50441570845E-01 +8.35515916248E-01 +1.33545994266E-04 +2.21536675948E-05 +1.71494581215E-04 +1.89910688297E-05 -5.86708686738E-01 +7.64759216208E-01
1.20000000000E+09 -4.45751330595E-01 +8.36946172598E-01 +1.49900985371E-04 -5.97287391880E-06 +1.68156261037E-04 -7.43647086053E-05 -5.82119979279E-01 +7.65054744780E-01
1.20500000000E+09 -4.41666784956E-01 +8.38766307879E-01 +1.33411282896E-04 -9.30589096057E-05 +1.70492130560E-04 -1.06814333395E-04 -5.80002669391E-01 +7.65904666662E-01
1.21000000000E+09 -4.37518006840E-01 +8.40698056695E-01 +9.55315526517E-05 -1.27739713824E-04 +9.06220143477E-05 -9.51548648148E-05 -5.78105910502E-01 +7.68853920338E-01
1.21500000000E+09 -4.32339996402E-01 +8.42940590995E-01 +7.28466339107E-05 -1.08294440055E-04 +1.01111224559E-04 -5.88848027873E-05 -5.75298586154E-01 +7.73428580797E-01
1.22000000000E+09 -4.25684423404E-01 +8.45480707210E-01 +8.56485973851E-05 -1.33506254310E-04 +9.55993961166E-05 -9.57158440959E-05 -5.71193044323E-01 +7.78750715308E-01
1.22500000000E+09 -4.17649884204E-01 +8.48412685617E-01 +8.99199329184E-05 -8.20471879445E-05 +1.13501687274E-04 -1.54461181117E-04 -5.66049663834E-01 +7.83885357843E-01
1.23000000000E+09 -4.08250071808E-01 +8.51421456822E-01 +8.51354573209E-05 -1.00622607076E-04 +1.18096985868E-04 -1.60735063578E-04 -5.60292590306E-01 +7.88634761277E-01
1.23500000000E+09 -3.98304200050E-01 +8.54798097238E-01 +9.03486718562E-05 -1.10447602421E-04 +1.25577865934E-04 -1.40408733317E-04 -5.54374843681E-01 +7.92852422031E-01
1.24000000000E+09 -3.88082387487E-01 +8.58151577756E-01 +1.14835412674E-04 -1.47702341233E-04 +9.52797867031E-05 -1.32858525445E-04 -5.48504696880E-01 +7.96795587881E-01
1.24500000000E+09 -3.78695346833E-01 +8.61512500937E-01 +3.81156917748E-05 -2.25421819328E-04 +1.28526015196E-04 -1.88668588374E-04 -5.42137206397E-01 +8.00623836627E-01
1.25000000000E+09 -3.70224860366E-01 +8.64586892043E-01 +8.56795787253E-05 -2.34607708110E-04 +5.84535744093E-05 -2.48277015522E-04 -5.35405648460E-01 +8.05001240370E-01
1.25500000000E+09 -3.63079205442E-01 +8.67117779760E-01 -6.00867481151E-06 -2.45929399130E-04 +3.46552695568E-05 -2.49451891942E-04 -5.28620098896E-01 +8.08762622216E-01
1.26000000000E+09 -3.56844521824E-01 +8.69605609000E-01 -5.27767686856E-05 -2.53137164921E-04 -4.55410529731E-05 -3.11074294284E-04 -5.21909991281E-01 +8.13205764411E-01
1.26500000000E+09 -3.51297348945E-01 +8.71828340062E-01 -2.26316825103E-05 -2.50695380531E-04 -4.65736123562E-05 -2.62405697868E-04 -5.14954704970E-01 +8.17004949433E-01
1.27000000000E+09 -3.45630632462E-01 +8.73984413555E-01 -9.58751047837E-05 -2.76803225696E-04 -9.96313611597E-05 -2.76480406756E-04 -5.08235641862E-01 +8.21064544084E-01
1.27500000000E+09 -3.39026537477E-01 +8.76315882093E-01 -1.53893005969E-04 -2.34614711911E-04 -1.62041895517E-04 -2.83171992794E-04 -5.00986414045E-01 +8.24542366869E-01
1.28000000000E+09 -3.31130593287E-01 +8.78631665488E-01 -1.58811300461E-04 -2.45919023040E-04 -1.52735168750E-04 -2.24427713977E-04 -4.94148164366E-01 +8.28060836249E-01
1.28500000000E+09 -3.21321297302E-01 +8.81199628353E-01 -2.39047702929E-04 -2.20359007417E-04 -2.17178629403E-04 -2.80043080265E-04 -4.86741557694E-01 +8.31827851880E-01
1.29000000000E+09 -3.10549403791E-01 +8.83754790635E-01 -2.41357135588E-04 -1.60517349067E-04 -2.78444709344E-04 -2.51349114955E-04 -4.79137505398E-01 +8.35531979052E-01
1.29500000000E+09 -2.99055235360E-01 +8.86171484924E-01 -2.51328208466E-04 -2.18703158341E-04 -3.01263016614E-04 -1.69611582440E-04 -4.71180456553E-01 +8.39011410273E-01
1.30000000000E+09 -2.87587754831E-01 +8.89013674980E-01 -3.28817940073E-04 -2.50278815721E-04 -3.43604505614E-04 -1.69349906941E-04 -4.63389929499E-01 +8.42639047137E-01
1.30500000000E+09 -2.76991198225E-01 +8.91362535053E-01 -3.42293611626E-04 -1.87547974847E-04 -2.89669791178E-04 -1.51708902864E-04 -4.55177441565E-01 +8.46068562850E-01
1.31000000000E+09 -2.67519448153E-01 +8.93590919794E-01 -4.07837081382E-04 -1.14622228460E-04 -3.53289584721E-04 -9.12540298024E-05 -4.46934132335E-01 +8.49385317513E-01
1.31500000000E+09 -2.59612538093E-01 +8.95527388807E-01 -3.58465748289E-04 -5.84811261225E-05 -4.14121092101E-04 -1.27601000553E-05 -4.37952887854E-01 +8.52953556453E-01
1.32000000000E+09 -2.52606582451E-01 +8.97108713648E-01 -4.09061840154E-04 +6.56539179893E-06 -3.57178258459E-04 -5.91587045856E-05 -4.28771693562E-01 +8.56406219392E-01
1.32500000000E+09 -2.46131238530E-01 +8.98290936819E-01 -3.42127955306E-04 +5.41129673428E-06 -3.94671598359E-04 +8.67973187721E-06 -4.19183118208E-01 +8.59812200260E-01
1.33000000000E+09 -2.38787197387E-01 +8.99457567420E-01 -3.80280011761E-04 +2.36249752793E-06 -4.16985523735E-04 +7.54438727037E-05 -4.09558515937E-01 +8.63059395885E-01
1.33500000000E+09 -2.30026196075E-01 +9.00141887570E-01 -4.47427721921E-04 +4.55177228476E-05 -4.11596150435E-04 +7.96488888995E-05 -3.99540188106E-01 +8.66408943773E-01
1.34000000000E+09 -2.19090631282E-01 +9.00852306701E-01 -4.22382892776E-04 +1.42187764553E-04 -3.76488729631E-04 +1.38367959551E-04 -3.89269837511E-01 +8.69660884175E-01
1.34500000000E+09 -2.05781354689E-01 +9.01041352812E-01 -4.29402963513E-04 +2.24402831800E-04 -3.41514687349E-04 +2.00527793261E-04 -3.78334965135E-01 +8.73037980094E-01
1.35000000000E+09 -1.90870960773E-01 +9.01135386538E-01 -3.63891328662E-04 +1.93607568777E-04 -3.46637189918E-04 +1.83281648727E-04 -3.67079692523E-01 +8.76036827177E-01
1.35500000000E+09 -1.74761767216E-01 +9.01008956503E-01 -3.73199271671E-04 +2.28404835697E-04 -3.77090194245E-04 +2.53298506729E-04 -3.55608962825E-01 +8.79019435222E-01
1.36000000000E+09 -1.58530113883E-01 +9.00968526804E-01 -3.34536073876E-04 +2.90274489925E-04 -3.64021513144E-04 +2.52330663094E-04 -3.43601206987E-01 +8.81694182652E-01
1.36500000000E+09 -1.42911368844E-01 +9.01124934969E-01 -3.71613313000E-04 +2.74781704357E-04 -3.31434804940E-04 +2.70418839047E-04 -3.31594155322E-01 +8.84201233671E-01
1.37000000000E+09 -1.28219797138E-01 +9.01121272269E-01 -4.14704307515E-04 +3.36024792954E-04 -3.92027858453E-04 +2.63586338247E-04 -3.18362409532E-01 +8.86747784593E-01
1.37500000000E+09 -1.14838491808E-01 +9.01206848790E-01 -4.35948171182E-04 +3.82344966939E-04 -4.65308064063E-04 +3.13422053826E-04 -3.04712200082E-01 +8.88901935918E-01
1.38000000000E+09 -1.02592996021E-01 +9.00870443581E-01 -4.06089764416E-04 +5.59068783912E-04 -4.89860737295E-04 +5.23844487625E-04 -2.89992457431E-01 +8.91045436591E-01
1.38500000000E+09 -9.02475300940E-02 +9.00318467312E-01 -2.81210098211E-04 +6.15982839670E-04 -4.03704982592E-04 +6.09557041121E-04 -2.74594153288E-01 +8.92795828922E-01
1.39000000000E+09 -7.72592605159E-02 +8.99106773918E-01 -2.29138114438E-04 +5.93465358245E-04 -3.12384768796E-04 +7.07377406533E-04 -2.58467727186E-01 +8.94355652585E-01
1.39500000000E+09 -6.28239986935E-02 +8.96985646554E-01 -2.61858605449E-04 +6.21011161841E-04 -2.13638811697E-04 +7.40393981872E-04 -2.41617227270E-01 +8.95100726691E-01
1.40000000000E+09 -4.61975060316E-02 +8.93859153170E-01 -1.96609222270E-04 +6.75256625387E-04 -1.68237625326E-04 +7.44364698150E-04 -2.23903108251E-01 +8.95540922500E-01
1.40500000000E+09 -2.77493697530E-02 +8.89603450586E-01 -1.76414712968E-04 +7.35446250067E-04 -1.71115697979E-04 +7.48714265053E-04 -2.05198359828E-01 +8.95339792958E-01
1.41000000000E+09 -7.54221111663E-03 +8.84098425051E-01 -1.49920557147E-04 +8.38023364508E-04 -7.65371862635E-05 +8.45028892055E-04 -1.84927081828E-01 +8.94652438273E-01
1.41500000000E+09 +1.36920046244E-02 +8.77872961120E-01 -4.88675966344E-06 +8.58375860452E-04 -6.50359489074E-06 +8.78998265167E-04 -1.63128639135E-01 +8.93207555457E-01
1.42000000000E+09 +3.54800338374E-02 +8.71119832678E-01 +2.97645365988E-05 +9.14772822584E-04 -4.97165789601E-07 +9.48673706725E-04 -1.40125662447E-01 +8.90511330936E-01
1.42500000000E+09 +5.71219337390E-02 +8.63635453300E-01 +1.04323535756E-06 +1.01465646873E-03 +9.16296634902E-05 +1.16988760073E-03 -1.16251354553E-01 +8.86755722893E-01
1.43000000000E+09 +7.86713853954E-02 +8.55457876540E-01 +1.76486220422E-04 +1.22778463270E-03 +3.24401828080E-04 +1.29360484914E-03 -9.12548072753E-02 +8.81710032880E-01
1.43500000000E+09 +1.00295798024E-01 +8.46112737633E-01 +4.87969576012E-04 +1.30200065288E-03 +6.41347844204E-04 +1.29667056265E-03 -6.48930334480E-02 +8.74898968743E-01
1.44000000000E+09 +1.22279875026E-01 +8.35528117269E-01 +6.80114467566E-04 +1.16851045512E-03 +7.93434529447E-04 +1.11588243527E-03 -3.67202538699E-02 +8.66228449652E-01
1.44500000000E+09 +1.46131333291E-01 +8.22486782786E-01 +5.70595865326E-04 +1.05846849479E-03 +7.22848985208E-04 +1.10317048331E-03 -6.52391716683E-03 +8.54627493922E-01
1.45000000000E+09 +1.71576834243E-01 +8.05697500504E-01 +6.01306892220E-04 +1.35156468846E-03 +7.18353343929E-04 +1.32470857348E-03 +2.55417780129E-02 +8.39696663758E-01
1.45500000000E+09 +1.98768177004E-01 +7.85117262464E-01 +8.69365349901E-04 +1.67572045234E-03 +1.00565124009E-03 +1.62340296179E-03 +5.88733546991E-02 +8.21677117980E-01
1.46000000000E+09 +2.28379055712E-01 +7.59888862504E-01 +1.51140853333E-03 +1.90150776889E-03 +1.65150304916E-03 +1.66592451326E-03 +9.35453217149E-02 +7.99850406192E-01
1.46500000000E+09 +2.59267718056E-01 +7.29303161510E-01 +2.03685278031E-03 +1.81438668305E-03 +1.93450434865E-03 +1.54432292723E-03 +1.29753048973E-01 +7.72801996598E-01
1.47000000000E+09 +2.90601943193E-01 +6.93267698753E-01 +2.56489843492E-03 +1.76376113177E-03 +2.39700931450E-03 +1.59587400463E-03 +1.66664679208E-01 +7.38602879869E-01
1.47500000000E+09 +3.21522917054E-01 +6.51204005401E-01 +3.36906233571E-03 +1.53498822334E-03 +3.17253484981E-03 +1.59990332752E-03 +2.03107006324E-01 +6.97228103509E-01
1.48000000000E+09 +3.49834637696E-01 +6.02406730691E-01 +4.15663441111E-03 +9.87971962217E-04 +4.14991576774E-03 +1.12729975455E-03 +2.39155204836E-01 +6.48263844817E-01
1.48500000000E+09 +3.73622097539E-01 +5.47469596966E-01 +4.78988549573E-03 +1.98502985520E-04 +4.92146874261E-03 +1.42608974798E-04 +2.73494645115E-01 +5.89497980303E-01
1.49000000000E+09 +3.92124902655E-01 +4.85706826486E-01 +5.45362421471E-03 -7.31832551146E-04 +5.45224116258E-03 -9.78605645996E-04 +3.01680471648E-01 +5.19603162935E-01
1.49500000000E+09 +4.03498153044E-01 +4.16178862130E-01 +6.03279785024E-03 -1.98564448490E-03 +5.77263914321E-03 -2.13063703160E-03 +3.19649151057E-01 +4.39396703583E-01
1.50000000000E+09 +4.03977457282E-01 +3.37738888586E-01 +6.93211935262E-03 -3.46795734279E-03 +6.54345323786E-03 -3.42441983466E-03 +3.24610535658E-01 +3.50704122164E-01
1.50500000000E+09 +3.91500223421E-01 +2.52945491277E-01 +6.92425570094E-03 -7.10622596420E-03 +6.81560171613E-03 -6.65128512165E-03 +3.12716228693E-01 +2.53693981686E-01
1.51000000000E+09 +3.62193119733E-01 +1.62611193348E-01 +3.98102311666E-03 -1.01830419771E-02 +4.28362972661E-03 -9.97162200457E-03 +2.79638945573E-01 +1.53388286995E-01
1.51500000000E+09 +3.13057326253E-01 +7.33130526375E-02 +7.88345675941E-04 -1.09712664234E-02 +1.08264190295E-03 -1.10209494099E-02 +2.24842947617E-01 +5.74373745293E-02
1.52000000000E+09 +2.44832237670E-01 -7.08879546380E-03 -2.53941804306E-03 -1.13486730136E-02 -2.42868104464E-03 -1.15336518835E-02 +1.48710084462E-01 -2.87243965635E-02
1.52500000000E+09 +1.60266483384E-01 -7.56971982552E-02 -5.40769223992E-03 -9.90086300157E-03 -5.46724009855E-03 -1.00797479310E-02 +5.32995869618E-02 -9.64802164277E-02
1.53000000000E+09 +6.11318793678E-02 -1.24579283202E-01 -7.66399158476E-03 -9.32846468875E-03 -7.78553937424E-03 -9.35899944514E-03 -5.39277715577E-02 -1.40686947491E-01
1.53500000000E+09 -4.49173662978E-02 -1.50633593822E-01 -1.10676033878E-02 -7.24454810226E-03 -1.11201136824E-02 -7.11299206158E-03 -1.64658710107E-01 -1.59944450618E-01
1.54000000000E+09 -1.53456768667E-01 -1.53140702610E-01 -1.38080923182E-02 -3.19837880283E-03 -1.36447825828E-02 -3.22270583082E-03 -2.73218707171E-01 -1.56111401835E-01
1.54500000000E+09 -2.57621953780E-01 -1.31882028268E-01 -1.36969834642E-02 +2.48277289483E-03 -1.35711179669E-02 +2.20027365258E-03 -3.70465446228E-01 -1.31760545427E-01
1.55000000000E+09 -3.50326243111E-01 -9.08390178806E-02 -1.08091165301E-02 +5.83510636473E-03 -1.09958734080E-02 +5.54046536761E-03 -4.54169369931E-01 -9.45600479895E-02
1.55500000000E+09 -4.27516922527E-01 -3.73603590948E-02 -8.10790871677E-03 +8.00965835212E-03 -8.55730788451E-03 +7.92194209786E-03 -5.24016052858E-01 -4.84213386508E-02
1.56000000000E+09 -4.89482332752E-01 +2.09019696698E-02 -4.76087500625E-03 +9.31110961641E-03 -5.16197983474E-03 +9.46684579410E-03 -5.80494898449E-01 +3.81114461405E-03
1.56500000000E+09 -5.39231020215E-01 +8.11468721658E-02 -1.49719876755E-03 +8.52315626718E-03 -1.67620319514E-03 +8.92446275262E-03 -6.24818634900E-01 +5.75408301700E-02
1.57000000000E+09 -5.77281312279E-01 +1.40277803317E-01 +1.76010913930E-04 +7.02231716576E-03 +2.55681701110E-04 +7.40197400807E-03 -6.58683937343E-01 +1.11616876992E-01
