# Hz S RI R 50
! CMT, C1220, 16058040, 17.2.0/1
! Date: 14/08/2018 12:06:20
! Data: Format (Calibration Info)
! Freq                      S11: Re/Im (F2)                       S21: Re/Im (F2)                       S12: Re/Im (F2)                       S22: Re/Im (F2)            
1.00000000000E+09 -6.54218506449E-01 +7.09709486949E-01 +2.27484809646E-05 -2.97427185046E-05 -7.24271434095E-05 +3.96750566104E-05 -7.53478272070E-01 +6.25725896794E-01
1.00500000000E+09 -6.47330675110E-01 +7.14474460720E-01 -1.04313365063E-05 -5.30779787747E-06 +2.09585154243E-05 -1.01953854576E-05 -7.49855048473E-01 +6.29536733209E-01
1.01000000000E+09 -6.41704864482E-01 +7.18558584198E-01 -3.07570738974E-05 -3.58630746867E-05 -1.55022836388E-05 -1.46030159682E-05 -7.46378234053E-01 +6.33528734534E-01
1.01500000000E+09 -6.37522822170E-01 +7.22473362239E-01 -7.61678173032E-06 -2.00565079188E-05 -3.95397631890E-05 +1.91977517726E-05 -7.43011009703E-01 +6.37178826287E-01
1.02000000000E+09 -6.34727470606E-01 +7.25722707921E-01 +1.82508339226E-06 +8.63981853572E-06 +1.09776487318E-05 -3.40372161950E-05 -7.39459450975E-01 +6.40760831248E-01
1.02500000000E+09 -6.32776489546E-01 +7.28818753021E-01 -6.63071788579E-05 -4.25040609501E-06 -3.64732680709E-05 +2.90986920884E-05 -7.36502028646E-01 +6.44433497022E-01
1.03000000000E+09 -6.31262012712E-01 +7.31486185074E-01 -4.09192513517E-05 +1.50422624752E-05 +1.79459881685E-05 +1.87516766943E-05 -7.33014807438E-01 +6.48242373655E-01
1.03500000000E+09 -6.29092283065E-01 +7.34359855872E-01 -5.48761209715E-05 +9.28161624898E-07 +4.91445849167E-05 -3.92099005694E-05 -7.29144384049E-01 +6.52386894243E-01
1.04000000000E+09 -6.25798590481E-01 +7.37363630089E-01 -9.92524826046E-06 +4.89745161020E-05 +3.86520794608E-07 +9.46476084647E-05 -7.25555242150E-01 +6.56008355384E-01
1.04500000000E+09 -6.20849793664E-01 +7.40892114896E-01 -2.68750995818E-05 +5.45138214602E-06 +5.71881887343E-07 -3.71764959829E-05 -7.21926178501E-01 +6.59516940753E-01
1.05000000000E+09 -6.14199225316E-01 +7.45039579294E-01 -1.90308009532E-05 +1.71886069131E-05 -7.60017015118E-05 +2.78409806980E-05 -7.18608489701E-01 +6.62895577096E-01
1.05500000000E+09 -6.06358337460E-01 +7.49083592700E-01 -2.01014776627E-06 +2.22130527433E-05 +3.15165962358E-05 +2.87205279812E-05 -7.15324775983E-01 +6.66450690050E-01
1.06000000000E+09 -5.98123287771E-01 +7.53561208705E-01 -5.18003370810E-05 +1.01117225395E-05 -3.73542897200E-05 +1.51502842537E-05 -7.12156972572E-01 +6.70293601540E-01
1.06500000000E+09 -5.90343515810E-01 +7.57984302413E-01 -6.08866362679E-06 +5.11171061649E-05 +5.75941708993E-06 +5.21292171039E-05 -7.08280650183E-01 +6.74016650096E-01
1.07000000000E+09 -5.83391557545E-01 +7.61998069166E-01 -3.34291568362E-05 +4.53662633015E-05 -5.24397018720E-05 +1.77197869232E-05 -7.04286946313E-01 +6.77799576419E-01
1.07500000000E+09 -5.78043508091E-01 +7.65687861531E-01 -1.31223423416E-05 +2.29695099338E-05 -3.82780006857E-05 -1.01888199932E-05 -6.99855818646E-01 +6.81496108369E-01
1.08000000000E+09 -5.74176457971E-01 +7.68956019203E-01 +1.59844395599E-05 +4.40756992719E-05 +2.31294882593E-05 +1.75156528647E-05 -6.95812775366E-01 +6.85191008366E-01
1.08500000000E+09 -5.71481706746E-01 +7.71870610324E-01 -2.26966990570E-05 +5.23843373041E-05 +5.28378953397E-05 +5.98721595563E-05 -6.91927330528E-01 +6.89018536884E-01
1.09000000000E+09 -5.69269805217E-01 +7.74609508840E-01 +1.92902327939E-05 -1.43235057850E-05 +4.85842225788E-06 +5.63524410960E-05 -6.88038467879E-01 +6.92894627930E-01
1.09500000000E+09 -5.67149224452E-01 +7.77065480992E-01 -1.10863766868E-05 +1.91312053761E-06 -8.29260111503E-06 +5.18341743428E-05 -6.84269470593E-01 +6.96884905405E-01
1.10000000000E+09 -5.63660887511E-01 +7.79937544711E-01 +1.19850870831E-05 +6.10636861109E-05 +1.46008090672E-05 +6.21101344457E-05 -6.80353938869E-01 +7.00683593112E-01
1.10500000000E+09 -5.59273505091E-01 +7.82758564293E-01 +3.01731649390E-05 +6.50551741402E-05 +4.27951381594E-05 +7.82503260147E-06 -6.75973486330E-01 +7.04128149834E-01
1.11000000000E+09 -5.53365102378E-01 +7.85929419702E-01 +1.45536693679E-05 +9.99388630996E-06 -1.82585061889E-05 +5.70192232484E-05 -6.71912614492E-01 +7.07623200059E-01
1.11500000000E+09 -5.46295360653E-01 +7.89533240020E-01 +4.27586135799E-05 +2.61225009493E-05 +2.42222053840E-05 +5.04030963708E-05 -6.67752730052E-01 +7.10947989375E-01
1.12000000000E+09 -5.38660796645E-01 +7.93036282564E-01 +3.21512022830E-05 +4.66063113553E-05 +3.64579071032E-05 +5.55444550617E-05 -6.63553364188E-01 +7.14640875494E-01
1.12500000000E+09 -5.31078001736E-01 +7.96864483397E-01 +1.94869373603E-05 +4.40243857585E-05 -4.86427165947E-06 +3.30715617519E-05 -6.59364676069E-01 +7.18653675505E-01
1.13000000000E+09 -5.24418226493E-01 +8.00294579763E-01 +5.39773341216E-06 -6.17478615436E-06 +1.25010245638E-04 +7.25561801514E-06 -6.55059635355E-01 +7.22371325817E-01
1.13500000000E+09 -5.18763848445E-01 +8.03095686877E-01 +3.77368508470E-05 +8.93374965416E-05 -4.44668612050E-06 +5.67696450862E-05 -6.50567423254E-01 +7.26177664061E-01
1.14000000000E+09 -5.14081483334E-01 +8.06052183851E-01 +5.39349319563E-05 +3.45050013559E-05 +4.69428984176E-05 +6.50464328939E-05 -6.45826751514E-01 +7.29634547542E-01
1.14500000000E+09 -5.10328204090E-01 +8.08569226352E-01 +3.63016167847E-05 +1.40837504867E-05 +7.89772988470E-05 +3.31658134742E-05 -6.41116057425E-01 +7.32980988216E-01
1.15000000000E+09 -5.06944750125E-01 +8.10670163989E-01 +1.92476358695E-05 +7.08590785654E-05 +6.64787180447E-05 -4.91147267044E-06 -6.36619656154E-01 +7.36913619073E-01
1.15500000000E+09 -5.03366341215E-01 +8.13089478067E-01 +5.61722097817E-05 +5.96069568582E-05 +2.93680559761E-05 +5.04495312154E-05 -6.31664873134E-01 +7.40663865914E-01
1.16000000000E+09 -4.98798774430E-01 +8.15523784687E-01 +5.05185434984E-05 +2.77332056721E-05 +7.81060000414E-05 +4.07978547859E-05 -6.26798092821E-01 +7.44488334592E-01
1.16500000000E+09 -4.93193158711E-01 +8.18415559741E-01 +9.26633831043E-05 -9.36493097019E-06 +1.02307932354E-04 +3.36500269692E-05 -6.21664419482E-01 +7.48197787641E-01
1.17000000000E+09 -4.86214057770E-01 +8.21408444254E-01 +5.63923146195E-05 +3.34384734621E-05 +1.01117702940E-04 +3.27612261213E-05 -6.16393704476E-01 +7.51400120148E-01
1.17500000000E+09 -4.78409382999E-01 +8.24507104937E-01 +1.09842531080E-04 +4.07216173278E-05 +1.19358899934E-04 -2.86986891331E-06 -6.10576335201E-01 +7.54695049893E-01
1.18000000000E+09 -4.70522265710E-01 +8.27717552630E-01 +9.53072050347E-05 +9.75028672972E-06 +9.33301709723E-05 +8.19411251748E-06 -6.04990576714E-01 +7.57864590715E-01
1.18500000000E+09 -4.62664800252E-01 +8.30624581453E-01 +1.08131629479E-04 +3.42526455432E-05 +7.11898043259E-05 -3.75866008816E-06 -5.98974627150E-01 +7.60946919995E-01
1.19000000000E+09 -4.55540032584E-01 +8.33119766848E-01 +1.21160588081E-04 +2.24232677929E-05 +1.40712277431E-04 -1.43210466079E-05 -5.92735409968E-01 +7.63658060329E-01
1.19500000000E+09 -4.49725278396E-01 +8.35201414181E-01 +1.72451681044E-04 -4.42150261667E-06 +1.77760486629E-04 -2.03772915797E-05 -5.86884100082E-01 +7.64760567232E-01
1.20000000000E+09 -4.44925778130E-01 +8.36701049019E-01 +2.04609989496E-04 -1.03711209585E-04 +1.57640742737E-04 -7.60969145683E-05 -5.82171919170E-01 +7.64918345319E-01
1.20500000000E+09 -4.40961079492E-01 +8.38505723090E-01 +1.37052160749E-04 -1.08857186919E-04 +1.69360702949E-04 -1.13370846033E-04 -5.80008778601E-01 +7.65802477092E-01
1.21000000000E+09 -4.36721893884E-01 +8.40418533456E-01 +9.07853247904E-05 -1.60218891711E-04 +4.22167212266E-05 -1.30641759347E-04 -5.78205720769E-01 +7.68858443614E-01
1.21500000000E+09 -4.31464206874E-01 +8.42812144078E-01 +4.28088106381E-05 -1.44959087966E-04 +5.33947374679E-05 -1.61389279026E-04 -5.75524137449E-01 +7.73281469328E-01
1.22000000000E+09 -4.25060387611E-01 +8.45194078911E-01 +3.19421701877E-05 -1.51836555120E-04 +8.31188234289E-05 -1.12979516166E-04 -5.71398806076E-01 +7.78731802043E-01
1.22500000000E+09 -4.16866295288E-01 +8.48115682282E-01 +8.00773423314E-05 -1.31861693613E-04 +9.08719710341E-05 -1.82665040431E-04 -5.66111958217E-01 +7.83880956758E-01
1.23000000000E+09 -4.07459600240E-01 +8.51163610546E-01 +4.76420863805E-05 -1.14851953119E-04 +6.81941136509E-05 -1.19688596317E-04 -5.60462621981E-01 +7.88578270777E-01
1.23500000000E+09 -3.97576725490E-01 +8.54332354508E-01 +6.41633940794E-05 -1.45483326985E-04 +6.14202066391E-05 -1.34861038718E-04 -5.54540654409E-01 +7.92873567453E-01
1.24000000000E+09 -3.87286744790E-01 +8.57724812101E-01 +8.34787257112E-05 -1.36010257098E-04 +9.86966689504E-05 -1.05948064609E-04 -5.48431628636E-01 +7.96779541241E-01
1.24500000000E+09 -3.77988213680E-01 +8.61217258763E-01 +5.83069925419E-05 -2.14314451313E-04 +6.98767271547E-05 -1.70285738664E-04 -5.42136158962E-01 +8.00573468390E-01
1.25000000000E+09 -3.69428757935E-01 +8.64203205697E-01 +4.34486144608E-05 -2.54283478099E-04 +7.29037395484E-05 -2.44678998224E-04 -5.35486267411E-01 +8.04836856844E-01
1.25500000000E+09 -3.62151423438E-01 +8.66803103291E-01 -4.93435498072E-06 -2.57412160376E-04 +3.24354810098E-06 -2.61386868204E-04 -5.28684675289E-01 +8.08910124710E-01
1.26000000000E+09 -3.56000962215E-01 +8.69196656920E-01 -2.84441941486E-05 -2.32048843487E-04 -5.37031994351E-05 -2.55554151831E-04 -5.21970742228E-01 +8.13113730619E-01
1.26500000000E+09 -3.50371638496E-01 +8.71459470912E-01 -3.66100506647E-05 -2.71031178583E-04 -6.94222562705E-05 -2.80534935158E-04 -5.14979342419E-01 +8.17036402650E-01
1.27000000000E+09 -3.44713482725E-01 +8.73587313798E-01 -1.00277578306E-04 -2.83032477455E-04 -5.99823121441E-05 -2.18418935031E-04 -5.08102103982E-01 +8.20905616173E-01
1.27500000000E+09 -3.38376134211E-01 +8.75763013523E-01 -8.29115425667E-05 -2.59342414159E-04 -8.80893617995E-05 -2.70084006325E-04 -5.01145965216E-01 +8.24490970407E-01
1.28000000000E+09 -3.30290168822E-01 +8.78111401031E-01 -1.92381498244E-04 -2.41035900476E-04 -1.96103310629E-04 -2.97489627257E-04 -4.94008293365E-01 +8.27916508165E-01
1.28500000000E+09 -3.20577263785E-01 +8.80558602188E-01 -2.29785471925E-04 -2.62088193061E-04 -1.89726549542E-04 -2.52287912481E-04 -4.86670354130E-01 +8.31557226861E-01
1.29000000000E+09 -3.09751547007E-01 +8.83157803842E-01 -1.73231263490E-04 -2.49729289741E-04 -2.40624214605E-04 -2.14142062953E-04 -4.79225614472E-01 +8.35305543231E-01
1.29500000000E+09 -2.98322832828E-01 +8.85761366998E-01 -2.42787712886E-04 -2.13486054436E-04 -2.68816141380E-04 -2.41788687936E-04 -4.71183184521E-01 +8.38852210013E-01
1.30000000000E+09 -2.86728152011E-01 +8.88374802175E-01 -2.80742262142E-04 -2.42048322799E-04 -3.04461162398E-04 -1.82192677439E-04 -4.63329078612E-01 +8.42286974872E-01
1.30500000000E+09 -2.76079884747E-01 +8.90834818951E-01 -3.80109908416E-04 -1.87561346487E-04 -3.15461008376E-04 -1.87895686031E-04 -4.55206282755E-01 +8.45861602382E-01
1.31000000000E+09 -2.66704591302E-01 +8.92973363705E-01 -4.19380211515E-04 -1.06719968146E-04 -3.49915573305E-04 -1.22224160538E-04 -4.46816774368E-01 +8.49316484108E-01
1.31500000000E+09 -2.58656227370E-01 +8.94867017747E-01 -3.79901682656E-04 -4.34988285451E-05 -3.52805344226E-04 -8.73255968786E-05 -4.38066092032E-01 +8.52725229636E-01
1.32000000000E+09 -2.51759870636E-01 +8.96507031486E-01 -3.34203338011E-04 -3.56585487039E-05 -3.78950483222E-04 -1.32341308247E-05 -4.28825435304E-01 +8.56103377419E-01
1.32500000000E+09 -2.45359082788E-01 +8.97714566621E-01 -3.40879757139E-04 -4.44865400699E-05 -4.19511114070E-04 -2.97615347606E-05 -4.19115625549E-01 +8.59527927422E-01
1.33000000000E+09 -2.37889490585E-01 +8.98791343000E-01 -4.15783357603E-04 +7.14404521872E-06 -4.29663037057E-04 +6.97249177429E-05 -4.09617917580E-01 +8.62760126876E-01
1.33500000000E+09 -2.29088894414E-01 +8.99372857403E-01 -4.45736323115E-04 +7.56691112292E-05 -4.36180598247E-04 +8.34779559703E-05 -3.99622146387E-01 +8.66064501867E-01
1.34000000000E+09 -2.18189724116E-01 +9.00109212878E-01 -4.95811449340E-04 +1.30329892487E-04 -3.92993761815E-04 +1.18354135232E-04 -3.89446678208E-01 +8.69426954999E-01
1.34500000000E+09 -2.04990608150E-01 +9.00207551376E-01 -4.14360164826E-04 +1.88732657626E-04 -3.67599534695E-04 +2.03008039940E-04 -3.78487621979E-01 +8.72777485798E-01
1.35000000000E+09 -1.90060258276E-01 +9.00346529722E-01 -4.03795149138E-04 +2.04514172014E-04 -4.10053106707E-04 +2.10910690015E-04 -3.67200153018E-01 +8.75788889236E-01
1.35500000000E+09 -1.73993325152E-01 +9.00308350457E-01 -3.33534355860E-04 +2.02680899114E-04 -3.56703297647E-04 +2.19137533430E-04 -3.55685453047E-01 +8.78525692563E-01
1.36000000000E+09 -1.58056923078E-01 +9.00264193832E-01 -3.83239862160E-04 +2.41328636061E-04 -3.34167582070E-04 +2.58695419366E-04 -3.43773158288E-01 +8.81217359459E-01
1.36500000000E+09 -1.42261498813E-01 +9.00407872364E-01 -4.15171748270E-04 +2.57089295383E-04 -3.56290133534E-04 +2.60170267938E-04 -3.31581581851E-01 +8.83854189008E-01
1.37000000000E+09 -1.27539447101E-01 +9.00387075379E-01 -4.50044973581E-04 +3.13896715963E-04 -4.19655397410E-04 +2.54340280399E-04 -3.18760869279E-01 +8.86126081859E-01
1.37500000000E+09 -1.14300853101E-01 +9.00331669921E-01 -5.05048914307E-04 +4.07025149868E-04 -5.38912065259E-04 +3.04868620743E-04 -3.05054840567E-01 +8.88383404668E-01
1.38000000000E+09 -1.01966070619E-01 +9.00077353430E-01 -4.23311163164E-04 +5.53442857613E-04 -4.77594598343E-04 +5.36368824037E-04 -2.90497469248E-01 +8.90419207553E-01
1.38500000000E+09 -8.96982336817E-02 +8.99461186800E-01 -2.89657962222E-04 +5.65407942377E-04 -3.42360373300E-04 +5.89376234293E-04 -2.75088407220E-01 +8.92370682959E-01
1.39000000000E+09 -7.69141396691E-02 +8.98038766430E-01 -2.44002668046E-04 +5.66696936778E-04 -2.57384923366E-04 +6.22273525577E-04 -2.59113511653E-01 +8.93830169958E-01
1.39500000000E+09 -6.25091535144E-02 +8.96046186757E-01 -2.88066844458E-04 +5.78333985315E-04 -3.19355396761E-04 +6.75237658776E-04 -2.42320482848E-01 +8.94645604342E-01
1.40000000000E+09 -4.59493706861E-02 +8.92998286155E-01 -2.92248703778E-04 +6.53639415945E-04 -2.56573649159E-04 +6.82308122661E-04 -2.24623332164E-01 +8.94994672152E-01
1.40500000000E+09 -2.75192914908E-02 +8.88517013271E-01 -3.02446420143E-04 +7.85983677845E-04 -2.51778563997E-04 +7.79038415964E-04 -2.06139396917E-01 +8.94840093247E-01
1.41000000000E+09 -7.27567922628E-03 +8.83096988234E-01 -2.26810932957E-04 +9.58658209458E-04 -1.97500265157E-04 +9.16869327391E-04 -1.86053887452E-01 +8.94390443951E-01
1.41500000000E+09 +1.38508856446E-02 +8.76829637382E-01 -7.28184446223E-05 +9.56522920547E-04 -1.13053380149E-04 +9.60203864235E-04 -1.64408320409E-01 +8.93092239470E-01
1.42000000000E+09 +3.56275891754E-02 +8.70005130321E-01 -5.21087331354E-05 +9.40477204574E-04 -6.51580555502E-05 +1.00359226676E-03 -1.41479659840E-01 +8.90487314370E-01
1.42500000000E+09 +5.72238627823E-02 +8.62636768584E-01 -8.25259057966E-05 +1.13623597451E-03 -2.10112339845E-05 +1.25858186639E-03 -1.17664698588E-01 +8.86968863341E-01
1.43000000000E+09 +7.86981159376E-02 +8.54438841833E-01 +1.43404371782E-04 +1.37060774722E-03 +2.57947870655E-04 +1.47669491993E-03 -9.27007473061E-02 +8.82197401851E-01
1.43500000000E+09 +1.00200208226E-01 +8.45122257273E-01 +4.66838548014E-04 +1.44972501538E-03 +6.13962240595E-04 +1.44309909979E-03 -6.63466700472E-02 +8.75597191856E-01
1.44000000000E+09 +1.22339346270E-01 +8.34590561955E-01 +6.74054124010E-04 +1.30969631718E-03 +7.40210663799E-04 +1.28498379742E-03 -3.81441506495E-02 +8.67112779181E-01
1.44500000000E+09 +1.46062550591E-01 +8.21579878685E-01 +6.74711135885E-04 +1.24115307211E-03 +7.70851572464E-04 +1.25906361815E-03 -7.78510314615E-03 +8.55733674405E-01
1.45000000000E+09 +1.71365810149E-01 +8.04732477464E-01 +7.16014021773E-04 +1.53378122503E-03 +8.47248123432E-04 +1.58109446617E-03 +2.42994405849E-02 +8.41056847043E-01
1.45500000000E+09 +1.98528148308E-01 +7.84136011497E-01 +1.03664641920E-03 +1.87445312097E-03 +1.23891593301E-03 +1.77818945482E-03 +5.77768405126E-02 +8.23611188208E-01
1.46000000000E+09 +2.27928182413E-01 +7.58972670166E-01 +1.75333001137E-03 +2.01941408557E-03 +1.87180552666E-03 +1.74645550882E-03 +9.27891718656E-02 +8.01822798947E-01
1.46500000000E+09 +2.58934565766E-01 +7.28240884649E-01 +2.16250229256E-03 +1.73933653767E-03 +2.12335742434E-03 +1.53330257727E-03 +1.29284578671E-01 +7.75014482179E-01
1.47000000000E+09 +2.90192436682E-01 +6.92186633978E-01 +2.69853538775E-03 +1.69927323761E-03 +2.46178263381E-03 +1.55362094717E-03 +1.66773278504E-01 +7.41066391272E-01
1.47500000000E+09 +3.20866916419E-01 +6.50124592597E-01 +3.42502854322E-03 +1.65320604335E-03 +3.24132447543E-03 +1.63928343115E-03 +2.03651178542E-01 +6.99692043163E-01
1.48000000000E+09 +3.48778952422E-01 +6.01410101525E-01 +4.34292601008E-03 +1.14274427340E-03 +4.36492256300E-03 +1.25912131977E-03 +2.40135880815E-01 +6.50974462205E-01
1.48500000000E+09 +3.72234408360E-01 +5.47074887506E-01 +5.03235830787E-03 +2.83873946430E-04 +5.18346320609E-03 +1.42476641913E-04 +2.75129489159E-01 +5.92115244009E-01
1.49000000000E+09 +3.90752223011E-01 +4.85662770352E-01 +5.78526719249E-03 -7.13747535209E-04 +5.67397448193E-03 -1.01383130889E-03 +3.03738248776E-01 +5.22152694009E-01
1.49500000000E+09 +4.01790415911E-01 +4.16298691450E-01 +6.27432647830E-03 -2.11497971495E-03 +5.92525376625E-03 -2.26079396117E-03 +3.22539003024E-01 +4.41974639914E-01
1.50000000000E+09 +4.02095804596E-01 +3.38528997921E-01 +7.19738327975E-03 -3.54870068560E-03 +6.77767244507E-03 -3.34494378197E-03 +3.28667040083E-01 +3.52895227074E-01
1.50500000000E+09 +3.89814602774E-01 +2.54550065937E-01 +7.34662770096E-03 -7.17632603502E-03 +7.22550969542E-03 -6.62768343782E-03 +3.17800762170E-01 +2.54922781096E-01
1.51000000000E+09 +3.60793481285E-01 +1.64941498097E-01 +4.64788980895E-03 -1.06150362707E-02 +4.94818535331E-03 -1.02849238179E-02 +2.85603500150E-01 +1.53150842956E-01
1.51500000000E+09 +3.12096867918E-01 +7.63696301549E-02 +1.11331601069E-03 -1.19133018127E-02 +1.41782293496E-03 -1.19714247156E-02 +2.30616251219E-01 +5.55137640286E-02
1.52000000000E+09 +2.45013784872E-01 -3.58084188323E-03 -2.98767898259E-03 -1.21732958021E-02 -2.83956648258E-03 -1.23395296462E-02 +1.54585336995E-01 -3.17444638864E-02
1.52500000000E+09 +1.61338045568E-01 -7.21467979214E-02 -5.97696748380E-03 -1.01776119997E-02 -5.92272662728E-03 -1.02563424268E-02 +5.92007563272E-02 -1.01931396819E-01
1.53000000000E+09 +6.33092480691E-02 -1.21139751723E-01 -8.08725696902E-03 -9.48680592383E-03 -8.05546364428E-03 -9.56946581858E-03 -4.99220098880E-02 -1.48295956590E-01
1.53500000000E+09 -4.16353410618E-02 -1.48028783705E-01 -1.16540264563E-02 -7.17572495549E-03 -1.16133054531E-02 -7.16373411283E-03 -1.63119720467E-01 -1.68999343969E-01
1.54000000000E+09 -1.49613446678E-01 -1.51609079847E-01 -1.38571211215E-02 -2.80599729697E-03 -1.36505671268E-02 -2.90033829696E-03 -2.74481804349E-01 -1.65373503026E-01
1.54500000000E+09 -2.53757796381E-01 -1.31339407098E-01 -1.35774358734E-02 +2.26135380214E-03 -1.34536044281E-02 +1.96189982417E-03 -3.74825547524E-01 -1.40142333337E-01
1.55000000000E+09 -3.46315944077E-01 -9.11240165602E-02 -1.10031938864E-02 +5.82089562961E-03 -1.12173437678E-02 +5.37230979870E-03 -4.60438104647E-01 -1.01067942388E-01
1.55500000000E+09 -4.23970208650E-01 -3.85798961424E-02 -8.23290338814E-03 +7.91025270671E-03 -8.74396356463E-03 +7.65649200995E-03 -5.31790205099E-01 -5.26441351435E-02
1.56000000000E+09 -4.86603237087E-01 +1.90934049795E-02 -4.94923169474E-03 +9.10677421806E-03 -5.50573477492E-03 +9.28102385122E-03 -5.88360840196E-01 +2.06788654130E-03
1.56500000000E+09 -5.36866296912E-01 +7.89332114139E-02 -1.88587560096E-03 +8.52854115372E-03 -2.19131762687E-03 +8.96750289216E-03 -6.32179672167E-01 +5.80339780178E-02
1.57000000000E+09 -5.75689264293E-01 +1.38128768669E-01 -1.70348439990E-05 +7.17651209535E-03 +1.05406563656E-05 +7.55699046134E-03 -6.65134299241E-01 +1.13564330218E-01
