# Hz S RI R 50
! CMT, C1220, 16058040, 17.2.0/1
! Date: 14/08/2018 12:08:59
! Data: Format (Calibration Info)
! Freq                      S11: Re/Im (F2)                       S21: Re/Im (F2)                       S12: Re/Im (F2)                       S22: Re/Im (F2)            
1.00000000000E+09 -6.54935956430E-01 +7.09819142271E-01 -6.61654295900E-05 +2.06458865974E-05 +1.43871265139E-05 -5.22953038165E-05 -7.53365297224E-01 +6.25747060284E-01
1.00500000000E+09 -6.48095336232E-01 +7.14421939827E-01 -2.50334145906E-05 -9.46302117347E-06 -4.50444278853E-06 -2.23207328778E-05 -7.49843170917E-01 +6.29895368063E-01
1.01000000000E+09 -6.42299905805E-01 +7.18659413889E-01 -4.02608354181E-05 -2.28481579099E-05 -3.34910487790E-06 +8.55905732561E-06 -7.46323551781E-01 +6.33574417971E-01
1.01500000000E+09 -6.38187146542E-01 +7.22380667907E-01 -3.26814215652E-05 +2.03052729091E-05 -8.81096499631E-06 -7.99647119074E-06 -7.42746676788E-01 +6.37219938759E-01
1.02000000000E+09 -6.35415456526E-01 +7.25686601484E-01 +2.05954591249E-05 -2.33843955237E-06 +1.89953387971E-05 +2.49489227475E-05 -7.39471829361E-01 +6.40816441539E-01
1.02500000000E+09 -6.33463746143E-01 +7.28744811824E-01 +3.19678541443E-05 -2.13703307725E-05 -4.43023955552E-06 -1.76510729288E-05 -7.36506955326E-01 +6.44585012153E-01
1.03000000000E+09 -6.32011104818E-01 +7.31676027065E-01 +1.52890767164E-05 +3.49153865453E-05 -2.33315890402E-05 +1.34632910330E-05 -7.32992577507E-01 +6.48408411530E-01
1.03500000000E+09 -6.29914628381E-01 +7.34263461015E-01 +9.46380436349E-07 -1.61192091509E-05 -1.57631739910E-05 +4.70173695355E-05 -7.29304518654E-01 +6.52388775869E-01
1.04000000000E+09 -6.26523855058E-01 +7.37398056899E-01 +1.82836508923E-05 +3.19299159103E-05 -2.13111931239E-05 +3.46668750635E-05 -7.25305498327E-01 +6.56090468893E-01
1.04500000000E+09 -6.21628948257E-01 +7.41113982677E-01 +9.55489890506E-06 -1.39396444544E-05 +7.98567364186E-06 +5.14021685592E-06 -7.21847692149E-01 +6.59693946321E-01
1.05000000000E+09 -6.15131777938E-01 +7.45201590687E-01 -4.44573821559E-05 +4.64250874323E-05 -3.20091156888E-05 +8.87098147232E-05 -7.18497346515E-01 +6.62882049011E-01
1.05500000000E+09 -6.07358201517E-01 +7.49292901791E-01 -2.22170683306E-05 +3.50794310709E-05 -6.55451890148E-05 +3.43699677169E-07 -7.15206732399E-01 +6.66636662616E-01
1.06000000000E+09 -5.99077712551E-01 +7.53815377773E-01 +1.82366079156E-06 +4.51410114393E-06 +8.40303280672E-06 +1.30347701081E-06 -7.12018061180E-01 +6.70238123468E-01
1.06500000000E+09 -5.91166977613E-01 +7.58213763756E-01 -1.68045916455E-05 +3.47761430039E-05 +2.11804539095E-05 +5.29679953927E-05 -7.08175359349E-01 +6.74206725941E-01
1.07000000000E+09 -5.84472498351E-01 +7.62027513616E-01 -4.78840654317E-05 +4.56396862611E-05 -4.44631932060E-05 +7.35169299305E-06 -7.04130349590E-01 +6.78056378812E-01
1.07500000000E+09 -5.78994237937E-01 +7.65743928467E-01 -3.22798030398E-06 +5.83554217616E-05 -4.98384939483E-05 +5.92827769975E-06 -6.99962436785E-01 +6.81663096552E-01
1.08000000000E+09 -5.75121438541E-01 +7.69168975226E-01 +5.53244811964E-05 +5.22329635110E-05 -6.07264631251E-06 +3.34286729898E-05 -6.95819743224E-01 +6.85244266762E-01
1.08500000000E+09 -5.72370984670E-01 +7.72060527465E-01 +2.32806215046E-05 +2.51520512209E-05 +4.70288699038E-05 +7.84515120324E-05 -6.91913245639E-01 +6.89070727864E-01
1.09000000000E+09 -5.70198897366E-01 +7.74798506216E-01 -1.72166761817E-05 +6.27514572428E-05 -1.44660676726E-05 +2.51435050670E-05 -6.87957490077E-01 +6.92967578322E-01
1.09500000000E+09 -5.67919197610E-01 +7.77411409212E-01 -5.10947805793E-05 +5.55115686263E-05 +4.46555945043E-05 +5.93728284194E-05 -6.84241261809E-01 +6.96872044749E-01
1.10000000000E+09 -5.64688293294E-01 +7.79986927250E-01 -2.15428916692E-05 +3.21178424743E-05 +7.32902266323E-05 +4.86888709028E-05 -6.80183110178E-01 +7.00731727585E-01
1.10500000000E+09 -5.60194722396E-01 +7.82853707751E-01 -1.49528075617E-06 +5.32447846603E-05 +1.00289659130E-05 +5.21619458760E-05 -6.75960067411E-01 +7.04377322451E-01
1.11000000000E+09 -5.54085742923E-01 +7.86181828437E-01 +2.30389199670E-05 +4.79299405410E-05 +4.39969327400E-05 +3.93363549844E-05 -6.71735599571E-01 +7.07520897552E-01
1.11500000000E+09 -5.47192252899E-01 +7.89804467114E-01 -5.69250053448E-05 +4.89507200355E-05 +6.61261662126E-05 +8.22149006502E-05 -6.67532511801E-01 +7.11053537866E-01
1.12000000000E+09 -5.39478405429E-01 +7.93362189015E-01 +2.68662171680E-05 -1.86637150802E-05 +3.89504683139E-05 +7.63330935874E-05 -6.63548125765E-01 +7.14790007992E-01
1.12500000000E+09 -5.31922571147E-01 +7.96994519544E-01 +3.78376584244E-05 +4.29936320574E-05 -2.63114963673E-05 +3.52322981493E-05 -6.59264131087E-01 +7.18828773226E-01
1.13000000000E+09 -5.25241888017E-01 +8.00553396016E-01 -3.47172682194E-06 +1.27544565381E-05 +1.84734415486E-05 +2.22742806392E-05 -6.55119292819E-01 +7.22571823222E-01
1.13500000000E+09 -5.19484037529E-01 +8.03443746221E-01 +6.92054023784E-06 +3.22280807413E-05 +4.08372115486E-05 +3.76169163334E-05 -6.50415253090E-01 +7.26294259079E-01
1.14000000000E+09 -5.14991663751E-01 +8.06271616174E-01 +5.61881687940E-05 +1.70905866785E-05 -2.20131465313E-06 +6.83294216861E-05 -6.45771092747E-01 +7.29704845929E-01
1.14500000000E+09 -5.11294355787E-01 +8.08670402753E-01 +6.21551199030E-05 +2.76458586082E-05 +1.01126640769E-04 +4.80885462209E-05 -6.41106410671E-01 +7.33084670693E-01
1.15000000000E+09 -5.07747769244E-01 +8.11080390350E-01 +6.06961751413E-05 +5.50968694544E-05 +9.31756576436E-05 +3.49475187588E-05 -6.36365138323E-01 +7.36985313652E-01
1.15500000000E+09 -5.04216034312E-01 +8.13486442397E-01 +8.11535836268E-05 +5.37048361917E-05 +4.85583333013E-05 +2.35379056497E-05 -6.31698590525E-01 +7.40751211056E-01
1.16000000000E+09 -4.99614938530E-01 +8.15839821353E-01 +8.76384081618E-05 +5.51232296002E-05 +5.00923499639E-05 +4.30367034518E-05 -6.26784611422E-01 +7.44750725567E-01
1.16500000000E+09 -4.93925342746E-01 +8.18828496455E-01 +1.03175288300E-04 +3.88370615657E-05 +5.97055522936E-05 +2.06861535622E-05 -6.21545061971E-01 +7.48243246264E-01
1.17000000000E+09 -4.86996035500E-01 +8.21841619068E-01 +5.75771408362E-05 +5.98854120003E-06 +8.18162753348E-05 +2.91174662787E-05 -6.16075756817E-01 +7.51543729816E-01
1.17500000000E+09 -4.79386289581E-01 +8.24863137098E-01 +6.83612485432E-05 +4.13066740705E-05 +1.17223324566E-04 +5.81599588763E-05 -6.10543761391E-01 +7.54691648240E-01
1.18000000000E+09 -4.71441464182E-01 +8.27974677222E-01 +7.90422891808E-05 +3.71907003410E-05 +9.07238914476E-05 +5.71941129388E-05 -6.04811732038E-01 +7.57841531779E-01
1.18500000000E+09 -4.63606770880E-01 +8.31005124367E-01 +8.52546688443E-05 +2.12388428091E-05 +7.58263968974E-05 -7.17914706320E-07 -5.98943647824E-01 +7.61012786215E-01
1.19000000000E+09 -4.56551410957E-01 +8.33396791156E-01 +1.25702267462E-04 -4.46492568491E-06 +1.31046582812E-04 +7.35996993852E-05 -5.92733453237E-01 +7.63614162062E-01
1.19500000000E+09 -4.50713392029E-01 +8.35669549985E-01 +1.58959462727E-04 +1.78807328899E-06 +1.81913139260E-04 -1.42742409792E-05 -5.86639918305E-01 +7.64964280408E-01
1.20000000000E+09 -4.45910493283E-01 +8.36930157560E-01 +1.60403021522E-04 -8.25360755539E-05 +1.63010977190E-04 -6.92302307084E-05 -5.82147542333E-01 +7.65005678566E-01
1.20500000000E+09 -4.41870909963E-01 +8.38938592413E-01 +1.60873463017E-04 -1.34588047897E-04 +1.50811656506E-04 -1.15389433455E-04 -5.79841834269E-01 +7.65945701199E-01
1.21000000000E+09 -4.37689867266E-01 +8.40898213757E-01 +1.44327027424E-04 -1.24153896972E-04 +1.20709133654E-04 -1.06600983187E-04 -5.78166236723E-01 +7.68900439626E-01
1.21500000000E+09 -4.32414674806E-01 +8.43166225017E-01 +1.25623376015E-04 -9.50603079420E-05 +1.29907952668E-04 -1.11523279056E-04 -5.75401453125E-01 +7.73409067744E-01
1.22000000000E+09 -4.25888745511E-01 +8.45629637702E-01 +8.90229529163E-05 -1.33551654303E-04 +6.84440085527E-05 -9.87868240638E-05 -5.71146285954E-01 +7.78808729595E-01
1.22500000000E+09 -4.17779434359E-01 +8.48483621487E-01 +8.86811266264E-05 -7.67673740686E-05 +2.26083273093E-05 -1.56540926288E-04 -5.66069672886E-01 +7.83804486883E-01
1.23000000000E+09 -4.08408637056E-01 +8.51649119753E-01 +9.95238309941E-05 -9.90091468714E-05 +1.19848735074E-04 -1.52801348235E-04 -5.60255511971E-01 +7.88645559340E-01
1.23500000000E+09 -3.98309245772E-01 +8.54721471228E-01 +9.77855929878E-05 -1.06064492135E-04 +8.62045146442E-05 -1.16940505461E-04 -5.54455574818E-01 +7.92927801109E-01
1.24000000000E+09 -3.88245768239E-01 +8.58125201635E-01 +1.21096220909E-04 -1.21454711644E-04 +9.73161092558E-05 -1.67436357618E-04 -5.48324003155E-01 +7.96804178561E-01
1.24500000000E+09 -3.78847192741E-01 +8.61542846333E-01 +1.17375357102E-04 -2.00372219149E-04 +1.44648970551E-04 -2.02155037147E-04 -5.42092993963E-01 +8.00586471016E-01
1.25000000000E+09 -3.70312698418E-01 +8.64737087235E-01 +6.52879788738E-05 -2.40392101213E-04 +9.19692543162E-05 -2.23693887310E-04 -5.35603220915E-01 +8.04866497456E-01
1.25500000000E+09 -3.63142668980E-01 +8.67303834428E-01 +1.27309688108E-05 -2.59677458055E-04 +1.49107242902E-05 -2.80600220471E-04 -5.28654138963E-01 +8.08857186219E-01
1.26000000000E+09 -3.56977541682E-01 +8.69697767356E-01 -9.74303724910E-06 -2.32727759333E-04 -1.44634743278E-06 -2.57268017005E-04 -5.21945856239E-01 +8.13400168386E-01
1.26500000000E+09 -3.51412389289E-01 +8.71918477599E-01 -4.65909080639E-05 -2.78859301625E-04 -3.04837045605E-05 -2.44399580307E-04 -5.14846390303E-01 +8.16971994607E-01
1.27000000000E+09 -3.45679486502E-01 +8.74127026870E-01 -8.29379276949E-05 -2.20574400462E-04 -8.50193487658E-05 -2.64199316828E-04 -5.08170999514E-01 +8.20897461528E-01
1.27500000000E+09 -3.39222589844E-01 +8.76224055479E-01 -8.44934790946E-05 -2.43164562463E-04 -9.18407653364E-05 -2.85789188086E-04 -5.01065187924E-01 +8.24555651475E-01
1.28000000000E+09 -3.31154130082E-01 +8.78668523496E-01 -1.63194004490E-04 -2.49042707467E-04 -1.67093197831E-04 -3.04959245910E-04 -4.94058034928E-01 +8.28017050129E-01
1.28500000000E+09 -3.21533434832E-01 +8.81154688057E-01 -1.59215430634E-04 -2.32146659429E-04 -1.76691139901E-04 -2.83565521725E-04 -4.86668183385E-01 +8.31768522429E-01
1.29000000000E+09 -3.10556140818E-01 +8.83651591444E-01 -1.45452523803E-04 -2.35288548553E-04 -2.10559103053E-04 -2.16817866796E-04 -4.79108908449E-01 +8.35342266030E-01
1.29500000000E+09 -2.99227459401E-01 +8.86343247412E-01 -2.00821641485E-04 -2.57493077008E-04 -2.79109930510E-04 -2.47398818043E-04 -4.71220827607E-01 +8.39060020399E-01
1.30000000000E+09 -2.87619012314E-01 +8.89008543866E-01 -3.17070373026E-04 -2.59766609820E-04 -3.21135136649E-04 -1.71221796539E-04 -4.63351772653E-01 +8.42561127316E-01
1.30500000000E+09 -2.77140816239E-01 +8.91347836319E-01 -3.61890206784E-04 -1.69149208530E-04 -3.05302895723E-04 -2.15315927127E-04 -4.55169879161E-01 +8.46078371431E-01
1.31000000000E+09 -2.67731833961E-01 +8.93504393624E-01 -3.93110498994E-04 -1.22566992202E-04 -3.90342228263E-04 -1.11700723305E-04 -4.46898641246E-01 +8.49463809003E-01
1.31500000000E+09 -2.59770036119E-01 +8.95479899600E-01 -3.55838727539E-04 -1.97642570020E-05 -3.26042584786E-04 -8.41495903533E-05 -4.38018493299E-01 +8.52827267384E-01
1.32000000000E+09 -2.52921090664E-01 +8.97152960336E-01 -3.19416638374E-04 -5.90853307996E-05 -3.65359663934E-04 -1.28163817911E-04 -4.28871070224E-01 +8.56334787990E-01
1.32500000000E+09 -2.46428293229E-01 +8.98344171501E-01 -3.47757933002E-04 -3.79945392014E-05 -3.99167349802E-04 -7.00059098967E-05 -4.19305480157E-01 +8.59606300186E-01
1.33000000000E+09 -2.39048747209E-01 +8.99368090474E-01 -4.44700095759E-04 -3.41043192773E-05 -4.26234677322E-04 +6.92784066910E-06 -4.09502385422E-01 +8.62964169574E-01
1.33500000000E+09 -2.30229297628E-01 +9.00246341438E-01 -4.53652198636E-04 +3.73296172078E-05 -4.55015081894E-04 +5.84365584865E-05 -3.99680795796E-01 +8.66369348054E-01
1.34000000000E+09 -2.19276874178E-01 +9.00919922352E-01 -4.35368063988E-04 +7.84024863159E-05 -4.35698179157E-04 +1.41909811096E-04 -3.89440074098E-01 +8.69719454034E-01
1.34500000000E+09 -2.06165051135E-01 +9.01007874862E-01 -4.02143592174E-04 +1.69538423866E-04 -3.87387835653E-04 +1.18882616934E-04 -3.78439313415E-01 +8.73044963521E-01
1.35000000000E+09 -1.91140778335E-01 +9.01161342554E-01 -3.59843088693E-04 +1.80259698366E-04 -3.75123312085E-04 +1.99315403611E-04 -3.67284493045E-01 +8.75944575666E-01
1.35500000000E+09 -1.75091743580E-01 +9.01149692131E-01 -3.72287569306E-04 +1.92594019811E-04 -3.64050441152E-04 +1.96068149576E-04 -3.55510930597E-01 +8.78843688897E-01
1.36000000000E+09 -1.59005959589E-01 +9.01083533878E-01 -3.82013006022E-04 +2.05790161425E-04 -3.69550408696E-04 +2.22174577099E-04 -3.43705602270E-01 +8.81586772818E-01
1.36500000000E+09 -1.43133084561E-01 +9.01218637216E-01 -4.11740429142E-04 +2.70283022762E-04 -4.03343408749E-04 +2.39747252225E-04 -3.31535674751E-01 +8.84014969094E-01
1.37000000000E+09 -1.28575001819E-01 +9.01386636412E-01 -4.47740086421E-04 +2.86718329263E-04 -4.10457313652E-04 +2.53459705058E-04 -3.18536291985E-01 +8.86259011311E-01
1.37500000000E+09 -1.15195110929E-01 +9.01442065725E-01 -4.86215075537E-04 +3.97809052811E-04 -5.24487353970E-04 +3.31748743979E-04 -3.04922463347E-01 +8.88585922084E-01
1.38000000000E+09 -1.02857623179E-01 +9.01143861581E-01 -4.45189857885E-04 +5.09963084216E-04 -5.26760507463E-04 +4.43651700502E-04 -2.90175391361E-01 +8.90752677687E-01
1.38500000000E+09 -9.04645203317E-02 +9.00469602571E-01 -2.99048278153E-04 +5.82873756585E-04 -4.47318269515E-04 +6.79811927659E-04 -2.74908528889E-01 +8.92562155191E-01
1.39000000000E+09 -7.75720698960E-02 +8.99236865100E-01 -2.47049085310E-04 +5.34734661663E-04 -3.31283323731E-04 +6.14648080058E-04 -2.58898856867E-01 +8.94123332832E-01
1.39500000000E+09 -6.31309869735E-02 +8.97277415392E-01 -2.96728914088E-04 +5.76133012393E-04 -2.71564095432E-04 +6.66785991414E-04 -2.41993057886E-01 +8.94724543719E-01
1.40000000000E+09 -4.65654884556E-02 +8.94151369357E-01 -2.82184390935E-04 +6.04391938592E-04 -2.38458576835E-04 +6.87806176195E-04 -2.24326019503E-01 +8.95367841757E-01
1.40500000000E+09 -2.80642104212E-02 +8.89974734848E-01 -3.00922639007E-04 +6.47141653153E-04 -2.82128826789E-04 +6.95557053380E-04 -2.05756968626E-01 +8.95132295322E-01
1.41000000000E+09 -7.77358787505E-03 +8.84529377665E-01 -2.76949648271E-04 +8.73987627707E-04 -2.81400984588E-04 +8.58892717403E-04 -1.85671328121E-01 +8.94585551619E-01
1.41500000000E+09 +1.34563625271E-02 +8.78291454765E-01 -1.18975980994E-04 +8.90673798859E-04 -1.77664571988E-04 +9.63268161513E-04 -1.63901739217E-01 +8.93335259628E-01
1.42000000000E+09 +3.51899478923E-02 +8.71550717220E-01 -1.27730020860E-04 +9.56067982020E-04 -1.28180662220E-04 +1.00990526568E-03 -1.40924995221E-01 +8.90663794538E-01
1.42500000000E+09 +5.67601469777E-02 +8.64225543604E-01 -1.00661196534E-04 +1.09818447871E-03 -8.18237222639E-05 +1.21904544990E-03 -1.17094670075E-01 +8.87096709825E-01
1.43000000000E+09 +7.84020523041E-02 +8.56138809435E-01 +3.47581007887E-05 +1.32907842652E-03 +1.64124184529E-04 +1.46663118797E-03 -9.20807387623E-02 +8.82199391648E-01
1.43500000000E+09 +1.00037116033E-01 +8.46797677570E-01 +3.91775342685E-04 +1.39099157405E-03 +5.17673282862E-04 +1.41271249763E-03 -6.57212104641E-02 +8.75526177693E-01
1.44000000000E+09 +1.22181100383E-01 +8.36269870707E-01 +5.38350011583E-04 +1.27471284483E-03 +6.33520420471E-04 +1.26722471249E-03 -3.72828489366E-02 +8.67063830280E-01
1.44500000000E+09 +1.46025331509E-01 +8.23258723637E-01 +5.20521390784E-04 +1.25081580229E-03 +6.26858274396E-04 +1.23803920874E-03 -6.99380359462E-03 +8.55656494922E-01
1.45000000000E+09 +1.71519400181E-01 +8.06526245795E-01 +4.98963693150E-04 +1.56472226863E-03 +6.51325914410E-04 +1.59095932403E-03 +2.50835532806E-02 +8.40730014020E-01
1.45500000000E+09 +1.98856930130E-01 +7.86077389158E-01 +7.70752812331E-04 +1.86191835763E-03 +9.37600219917E-04 +1.85193304157E-03 +5.85323402171E-02 +8.22875386940E-01
1.46000000000E+09 +2.28510806720E-01 +7.60825803150E-01 +1.39738573834E-03 +2.24026333809E-03 +1.57163047871E-03 +1.97141645650E-03 +9.34945181197E-02 +8.00977857616E-01
1.46500000000E+09 +2.59722058094E-01 +7.30175572798E-01 +2.01017544758E-03 +2.14845258991E-03 +2.00612984261E-03 +1.85363497175E-03 +1.29972091012E-01 +7.73945642736E-01
1.47000000000E+09 +2.91175294992E-01 +6.94185752800E-01 +2.66834767203E-03 +2.02379745009E-03 +2.41941660677E-03 +1.84553077408E-03 +1.67010608702E-01 +7.39720489156E-01
1.47500000000E+09 +3.22076145719E-01 +6.51978942918E-01 +3.36816506699E-03 +1.85231119222E-03 +3.17543622190E-03 +1.95169807239E-03 +2.03471435839E-01 +6.98331086050E-01
1.48000000000E+09 +3.50318458239E-01 +6.03126475752E-01 +4.27409477348E-03 +1.50572392759E-03 +4.25566493409E-03 +1.62952145522E-03 +2.39652359731E-01 +6.49553331109E-01
1.48500000000E+09 +3.74296502768E-01 +5.48629646396E-01 +5.05809655405E-03 +7.88717104821E-04 +5.20381232055E-03 +7.63175917674E-04 +2.74438238715E-01 +5.90707687154E-01
1.49000000000E+09 +3.93403584302E-01 +4.86860286711E-01 +6.06830457483E-03 -1.47344109035E-04 +5.98860855233E-03 -4.79088402849E-04 +3.02671489458E-01 +5.20975567758E-01
1.49500000000E+09 +4.05012636328E-01 +4.16975829704E-01 +6.81975676235E-03 -1.60612149239E-03 +6.44199393689E-03 -1.78549772770E-03 +3.21047137827E-01 +4.40624196808E-01
1.50000000000E+09 +4.05944997751E-01 +3.38227048845E-01 +7.80894830714E-03 -3.27872618729E-03 +7.31048215415E-03 -3.09938179211E-03 +3.26376360574E-01 +3.52234936436E-01
1.50500000000E+09 +3.93711033055E-01 +2.53029774793E-01 +7.95486158160E-03 -7.04548651390E-03 +7.81013359504E-03 -6.47146231856E-03 +3.15461421342E-01 +2.55042634403E-01
1.51000000000E+09 +3.64583293714E-01 +1.62124465061E-01 +5.27626517913E-03 -1.04792971337E-02 +5.60467266347E-03 -1.01415067053E-02 +2.83357693054E-01 +1.53838053960E-01
1.51500000000E+09 +3.15289518116E-01 +7.22337957488E-02 +1.97290076533E-03 -1.20438080357E-02 +2.25199646616E-03 -1.20611655567E-02 +2.28640108172E-01 +5.68352402359E-02
1.52000000000E+09 +2.46927738680E-01 -8.85770564954E-03 -2.21257268198E-03 -1.26241079406E-02 -2.06833222083E-03 -1.27603849513E-02 +1.52888250053E-01 -3.01327145747E-02
1.52500000000E+09 +1.62040670604E-01 -7.80137669375E-02 -5.31596492209E-03 -1.07508965092E-02 -5.31785830964E-03 -1.08575469249E-02 +5.76899507061E-02 -9.99554918745E-02
1.53000000000E+09 +6.22382748423E-02 -1.27346761856E-01 -7.60895674938E-03 -1.03185085250E-02 -7.61649186314E-03 -1.03940656989E-02 -5.10564290639E-02 -1.45893848383E-01
1.53500000000E+09 -4.46265854497E-02 -1.53590909106E-01 -1.11915586701E-02 -8.17097681886E-03 -1.12083931435E-02 -8.22773693015E-03 -1.63683539601E-01 -1.66021644613E-01
1.54000000000E+09 -1.53711778809E-01 -1.56178243533E-01 -1.40473850217E-02 -4.17513937410E-03 -1.39130595342E-02 -4.20990915787E-03 -2.74345383245E-01 -1.62281844444E-01
1.54500000000E+09 -2.58956633329E-01 -1.34851162584E-01 -1.43364883994E-02 +1.33129022797E-03 -1.41356946196E-02 +1.01667850534E-03 -3.73609667693E-01 -1.37149269842E-01
1.55000000000E+09 -3.52228013106E-01 -9.29665393460E-02 -1.17672630883E-02 +5.31594262109E-03 -1.19955769371E-02 +4.90874259549E-03 -4.58592565798E-01 -9.86312203250E-02
1.55500000000E+09 -4.29485083361E-01 -3.89104199314E-02 -8.91815417770E-03 +7.69674819199E-03 -9.47470403063E-03 +7.47585920001E-03 -5.29507978176E-01 -5.08482879160E-02
1.56000000000E+09 -4.91399863013E-01 +1.95182225650E-02 -5.53344544190E-03 +9.10804396932E-03 -6.14661751101E-03 +9.33202817374E-03 -5.85935549582E-01 +3.45168277485E-03
1.56500000000E+09 -5.41574712161E-01 +7.99865071294E-02 -2.33789268602E-03 +8.51404183084E-03 -2.57113317216E-03 +8.99272521290E-03 -6.29615218923E-01 +5.87641242479E-02
1.57000000000E+09 -5.79772558842E-01 +1.39883871165E-01 -5.73696738801E-04 +7.18694422435E-03 -5.31974714223E-04 +7.65341527355E-03 -6.62688389637E-01 +1.13762971244E-01
