# Hz S RI R 50
! CMT, C1220, 16058040, 17.2.0/1
! Date: 14/08/2018 12:03:41
! Data: Format (Calibration Info)
! Freq                      S11: Re/Im (F2)                       S21: Re/Im (F2)                       S12: Re/Im (F2)                       S22: Re/Im (F2)            
1.00000000000E+09 -6.52682781675E-01 +7.09798534200E-01 -3.52938797344E-05 -1.92288454426E-05 +5.26219692725E-05 -1.02952167514E-05 -7.53520311912E-01 +6.25721458692E-01
1.00500000000E+09 -6.45853316084E-01 +7.14334484509E-01 +1.10793766799E-05 -1.06805183073E-05 +3.13130458969E-05 +2.44046322938E-05 -7.49788372503E-01 +6.29980257974E-01
1.01000000000E+09 -6.40177938704E-01 +7.18562794902E-01 +4.12977399025E-05 +2.59778423965E-05 -2.87652454820E-05 +9.99048077886E-08 -7.46408628946E-01 +6.33515631033E-01
1.01500000000E+09 -6.35917907221E-01 +7.22328695863E-01 -8.03194801194E-05 +1.00408597028E-05 -5.51380381276E-05 -6.22556182031E-07 -7.42855582086E-01 +6.37226230752E-01
1.02000000000E+09 -6.33036026575E-01 +7.25708586361E-01 -1.42240705331E-05 -1.41093273116E-05 -2.16319290909E-05 -2.31391733665E-06 -7.39516483864E-01 +6.40867187946E-01
1.02500000000E+09 -6.31076870432E-01 +7.28739350833E-01 -1.19857786326E-05 -2.40401686148E-05 -1.52452965863E-05 +2.78487846673E-05 -7.36637454243E-01 +6.44614898598E-01
1.03000000000E+09 -6.29601172491E-01 +7.31516346759E-01 -2.26920012537E-05 -3.73875558394E-05 -4.08086970173E-05 -3.29351474773E-06 -7.33068381552E-01 +6.48421624250E-01
1.03500000000E+09 -6.27348990055E-01 +7.34247388297E-01 +1.76875444871E-05 +2.32255980607E-05 +5.54220088800E-06 +7.98360346359E-06 -7.29357614305E-01 +6.52282052935E-01
1.04000000000E+09 -6.23965810909E-01 +7.37438733421E-01 -2.97928364876E-05 +1.31922025212E-05 -1.05814752194E-05 +5.27815286615E-05 -7.25527618508E-01 +6.56087185613E-01
1.04500000000E+09 -6.18968611675E-01 +7.40906683926E-01 -1.77324203578E-05 -3.39115398099E-05 +6.12969563595E-06 -5.01984055802E-06 -7.22180836946E-01 +6.59652631154E-01
1.05000000000E+09 -6.12540540017E-01 +7.44821255270E-01 -5.49003528568E-05 +5.30167967315E-05 +4.63356407908E-06 +1.02978460210E-04 -7.18512324559E-01 +6.63019585791E-01
1.05500000000E+09 -6.04597224162E-01 +7.48997839615E-01 +1.63214661441E-06 +2.43439016778E-05 -3.41941744593E-05 +3.66039720540E-05 -7.15299746557E-01 +6.66730731765E-01
1.06000000000E+09 -5.96312446381E-01 +7.53675817794E-01 -4.59368810789E-05 +6.13026089839E-05 -3.53777630554E-05 +2.15873215418E-05 -7.11971800424E-01 +6.70390347600E-01
1.06500000000E+09 -5.88225158195E-01 +7.57966130466E-01 -2.12075653235E-05 +2.24772488736E-05 -3.32499603685E-05 +2.48125343495E-05 -7.08182528245E-01 +6.74108168798E-01
1.07000000000E+09 -5.81392377604E-01 +7.61828992578E-01 +2.21012434753E-05 +4.65202378740E-05 -1.76427196970E-05 +5.16293499520E-05 -7.04376400903E-01 +6.77787200241E-01
1.07500000000E+09 -5.75904303683E-01 +7.65542356652E-01 -1.09981362102E-05 +3.70581671752E-05 -3.16962445328E-05 +8.63885144618E-05 -6.99966636155E-01 +6.81476959826E-01
1.08000000000E+09 -5.72091659143E-01 +7.68927025092E-01 -4.91973262672E-07 +2.22191527157E-05 -3.70310684910E-05 +5.36242129529E-05 -6.96034953840E-01 +6.85265284671E-01
1.08500000000E+09 -5.69475935011E-01 +7.71766818238E-01 +7.70596553516E-06 +6.10854401148E-05 +4.04458855763E-05 +4.45518955892E-05 -6.91986435520E-01 +6.89010862680E-01
1.09000000000E+09 -5.67149364599E-01 +7.74503635676E-01 +2.19453968105E-05 +1.53911262952E-05 -1.15891745367E-05 +2.95476918211E-05 -6.88153122967E-01 +6.93012836384E-01
1.09500000000E+09 -5.65065785802E-01 +7.77046959892E-01 +3.73639740715E-05 +9.22619773972E-06 -2.15197366594E-05 +5.91274089522E-06 -6.84229455618E-01 +6.96826507529E-01
1.10000000000E+09 -5.61669443844E-01 +7.79633394327E-01 +1.39793954321E-05 +3.55791066321E-05 -1.23170975222E-05 +3.29723479239E-05 -6.80297931818E-01 +7.00691239132E-01
1.10500000000E+09 -5.57247857584E-01 +7.82555270172E-01 +2.50153357676E-05 +6.30382345867E-05 +3.62522603129E-05 +1.68034693740E-05 -6.76040058793E-01 +7.04404258459E-01
1.11000000000E+09 -5.51393222466E-01 +7.85622018177E-01 -1.07400826813E-05 +6.36821145570E-06 -1.00011268215E-05 +7.11842621010E-05 -6.71778341241E-01 +7.07605074921E-01
1.11500000000E+09 -5.44219771983E-01 +7.89250238860E-01 +1.29626096833E-05 +4.09232956545E-05 -1.10957239359E-05 +2.29208720280E-05 -6.67529820371E-01 +7.11133458684E-01
1.12000000000E+09 -5.36611389388E-01 +7.92846074320E-01 +5.69005796113E-05 +2.42496513010E-05 -1.22076928548E-05 +2.15080035244E-05 -6.63573212593E-01 +7.14681593363E-01
1.12500000000E+09 -5.29141595272E-01 +7.96453039001E-01 +4.80474220245E-05 +3.75306819476E-05 +4.83554319388E-05 +2.38012992159E-05 -6.59352120196E-01 +7.18836412431E-01
1.13000000000E+09 -5.22430904780E-01 +7.99880054905E-01 +2.61776952525E-05 -2.07587630032E-05 +3.79005472249E-05 +6.91288399676E-05 -6.55163774689E-01 +7.22413408261E-01
1.13500000000E+09 -5.16609304962E-01 +8.02845069842E-01 +3.19781558127E-05 +7.85298229448E-05 +2.45087408571E-05 +1.09126283096E-05 -6.50560308278E-01 +7.26327167955E-01
1.14000000000E+09 -5.12097091520E-01 +8.05554563186E-01 +5.51327959810E-05 +4.72456954863E-05 +3.87551519626E-05 +7.73850366871E-05 -6.45749756715E-01 +7.29722599924E-01
1.14500000000E+09 -5.08325555990E-01 +8.08081118880E-01 +5.86378880364E-05 +1.71244807670E-05 +5.82979232466E-06 +3.40813210456E-05 -6.41130938803E-01 +7.33186085640E-01
1.15000000000E+09 -5.04753961723E-01 +8.10333125726E-01 +4.50060186855E-05 +9.32523431528E-05 +2.78293901196E-05 +4.60772772412E-05 -6.36360314752E-01 +7.36910383693E-01
1.15500000000E+09 -5.01230491894E-01 +8.12652937027E-01 +3.97284853151E-05 +4.13076680828E-05 +6.29380337201E-05 +2.04226062521E-05 -6.31675629615E-01 +7.40833870084E-01
1.16000000000E+09 -4.96757954317E-01 +8.14969813680E-01 +5.80730203700E-05 +3.37229022714E-05 +3.66268486121E-05 +4.43685194297E-05 -6.26844788809E-01 +7.44565481405E-01
1.16500000000E+09 -4.91013364053E-01 +8.17867021384E-01 +4.27159570865E-05 +2.11882327505E-05 +5.32926403615E-05 +5.67778031552E-05 -6.21730694297E-01 +7.48131422994E-01
1.17000000000E+09 -4.84120003933E-01 +8.20891557207E-01 +7.99199510365E-05 +4.22974051211E-05 +8.82094391045E-05 +5.28725702632E-05 -6.16257508377E-01 +7.51592957598E-01
1.17500000000E+09 -4.76322212396E-01 +8.23858666868E-01 +9.01263371573E-05 +4.03709380452E-05 +1.05095349649E-04 +4.90747120766E-05 -6.10522649040E-01 +7.54833171109E-01
1.18000000000E+09 -4.68344412152E-01 +8.27016104820E-01 +8.26588198048E-05 +8.08565109645E-05 +8.18596388113E-05 -1.53468957750E-05 -6.04951261903E-01 +7.57880904955E-01
1.18500000000E+09 -4.60406623583E-01 +8.30054544298E-01 +1.02704310687E-04 +4.66597044979E-05 +1.11275824338E-04 +3.81942188641E-05 -5.98942146124E-01 +7.60936461617E-01
1.19000000000E+09 -4.53207007330E-01 +8.32452104214E-01 +1.44534236881E-04 +5.78211938317E-05 +1.11253416993E-04 +1.06853103004E-04 -5.92745975687E-01 +7.63607158234E-01
1.19500000000E+09 -4.47316552587E-01 +8.34455332514E-01 +1.98405822044E-04 +2.93399977993E-05 +2.25612001720E-04 -8.68063550568E-05 -5.86805439332E-01 +7.64805568710E-01
1.20000000000E+09 -4.42618648382E-01 +8.35877692011E-01 +2.21274739462E-04 -1.03627213903E-04 +2.27413498682E-04 -7.59754351594E-05 -5.82314987983E-01 +7.64984075755E-01
1.20500000000E+09 -4.38538710343E-01 +8.37748674286E-01 +1.77350516004E-04 -1.20247276871E-04 +1.83266933874E-04 -1.39656552224E-04 -5.80134796371E-01 +7.65896417708E-01
1.21000000000E+09 -4.34456522618E-01 +8.39750106263E-01 +5.30617656033E-05 -1.20203321038E-04 +1.18016805286E-04 -1.63247971301E-04 -5.78331988954E-01 +7.68886530906E-01
1.21500000000E+09 -4.29151627125E-01 +8.41959666386E-01 +1.02006921749E-04 -1.33648068670E-04 +6.38195562861E-05 -1.29401054032E-04 -5.75463082582E-01 +7.73470818585E-01
1.22000000000E+09 -4.22742952229E-01 +8.44279940851E-01 +1.75946622625E-05 -2.12249510248E-04 +4.95777168391E-05 -1.24754448058E-04 -5.71387829984E-01 +7.78763701758E-01
1.22500000000E+09 -4.14647595759E-01 +8.47100820052E-01 +5.73313548120E-05 -9.40399748882E-05 +9.80310252526E-05 -1.73880370326E-04 -5.66190125938E-01 +7.83896633404E-01
1.23000000000E+09 -4.05090535651E-01 +8.50116418428E-01 +8.07446998858E-05 -1.36149978983E-04 +7.59159937271E-05 -1.23433166932E-04 -5.60374221317E-01 +7.88568727776E-01
1.23500000000E+09 -3.95301546870E-01 +8.53375633301E-01 +8.95512222890E-05 -1.12371303346E-04 +8.62102235203E-05 -1.55510117867E-04 -5.54474542922E-01 +7.92932984327E-01
1.24000000000E+09 -3.85041431707E-01 +8.56605098715E-01 +1.24871822972E-04 -1.23233403863E-04 +9.82795687986E-05 -1.13683637256E-04 -5.48608173896E-01 +7.96933425077E-01
1.24500000000E+09 -3.75604206467E-01 +8.60039351965E-01 +1.21571583314E-04 -2.08495139092E-04 +1.28286434154E-04 -1.85978934817E-04 -5.42250371361E-01 +8.00574481419E-01
1.25000000000E+09 -3.67010131827E-01 +8.63069374916E-01 +2.04566013603E-05 -2.51391115868E-04 +1.16416324441E-04 -2.08582096621E-04 -5.35568845359E-01 +8.04869430165E-01
1.25500000000E+09 -3.59970514206E-01 +8.65706396730E-01 +1.51805350016E-05 -2.54608084691E-04 -2.78284501528E-05 -2.72219582237E-04 -5.28722398647E-01 +8.08922565208E-01
1.26000000000E+09 -3.53766658188E-01 +8.68017454578E-01 -1.94128736452E-05 -2.32343177749E-04 -2.79142202862E-05 -3.08016885644E-04 -5.21919831417E-01 +8.13070825471E-01
1.26500000000E+09 -3.48308710126E-01 +8.70147901010E-01 -7.04835068210E-06 -2.59214219053E-04 +7.88650273943E-06 -2.33680985155E-04 -5.14966273068E-01 +8.16951855152E-01
1.27000000000E+09 -3.42748815928E-01 +8.72289187198E-01 -1.90022690132E-05 -2.38118642059E-04 -3.07664434308E-05 -2.82710965185E-04 -5.08112571670E-01 +8.20886605704E-01
1.27500000000E+09 -3.36267222758E-01 +8.74411569124E-01 -7.81689173063E-05 -2.66746924318E-04 -1.18806835247E-04 -2.70782583513E-04 -5.01153124156E-01 +8.24502982172E-01
1.28000000000E+09 -3.28226190446E-01 +8.76774347273E-01 -1.45796882152E-04 -2.94671690904E-04 -1.53944137428E-04 -3.06097910941E-04 -4.94114642288E-01 +8.27992461331E-01
1.28500000000E+09 -3.18553793328E-01 +8.79131283372E-01 -1.69669917376E-04 -2.48155595914E-04 -1.78069438858E-04 -2.81895462968E-04 -4.86759917074E-01 +8.31781679129E-01
1.29000000000E+09 -3.07824516139E-01 +8.81645123438E-01 -1.84048450104E-04 -2.24969546590E-04 -2.27564206921E-04 -2.31618546115E-04 -4.79301486089E-01 +8.35337716198E-01
1.29500000000E+09 -2.96297365639E-01 +8.84228748741E-01 -2.10914858538E-04 -2.52014460494E-04 -2.68404991855E-04 -2.29163653352E-04 -4.71343792719E-01 +8.38846397371E-01
1.30000000000E+09 -2.84585133393E-01 +8.86991262646E-01 -2.95420464280E-04 -2.63100472876E-04 -3.37526957195E-04 -2.09684099711E-04 -4.63423709427E-01 +8.42510047436E-01
1.30500000000E+09 -2.74139618964E-01 +8.89477757946E-01 -3.55375119753E-04 -1.96860423518E-04 -3.10039045213E-04 -2.01664308251E-04 -4.55263893093E-01 +8.45961843806E-01
1.31000000000E+09 -2.64433842842E-01 +8.91697943394E-01 -3.44969308957E-04 -1.51657664231E-04 -3.63805029791E-04 -1.46363574053E-04 -4.46831342221E-01 +8.49467803824E-01
1.31500000000E+09 -2.56561967772E-01 +8.93470375578E-01 -3.20154775679E-04 -7.70730481656E-05 -3.45679683968E-04 -1.10037105998E-04 -4.38073336232E-01 +8.52805696412E-01
1.32000000000E+09 -2.49693244948E-01 +8.94937105160E-01 -3.05099004605E-04 -1.28329455927E-04 -3.55112664713E-04 -6.59394248403E-05 -4.28906987919E-01 +8.56273897849E-01
1.32500000000E+09 -2.43127091490E-01 +8.96214950614E-01 -3.86507171245E-04 -5.19782379595E-05 -4.47497046551E-04 -6.72612516361E-05 -4.19319913607E-01 +8.59665048389E-01
1.33000000000E+09 -2.35817667934E-01 +8.97269998462E-01 -3.83294759893E-04 -3.54039269536E-05 -3.99590468629E-04 -1.94153083481E-05 -4.09624887645E-01 +8.63008466167E-01
1.33500000000E+09 -2.27124324537E-01 +8.97949206001E-01 -4.92315263812E-04 -3.40339010360E-06 -4.22966183778E-04 +4.98405007285E-05 -3.99699814882E-01 +8.66205209070E-01
1.34000000000E+09 -2.16194333560E-01 +8.98595217075E-01 -4.64302633498E-04 +4.99552994253E-05 -4.58882286076E-04 +8.24468840583E-05 -3.89479888293E-01 +8.69664772503E-01
1.34500000000E+09 -2.03249423226E-01 +8.98792076871E-01 -3.94256151256E-04 +1.57228633332E-04 -4.36081666674E-04 +8.11479363610E-05 -3.78408808610E-01 +8.72955799586E-01
1.35000000000E+09 -1.88263885470E-01 +8.98875500239E-01 -4.29646596279E-04 +1.65745386764E-04 -4.46371233284E-04 +1.50039733528E-04 -3.67342680742E-01 +8.75925072003E-01
1.35500000000E+09 -1.72413964179E-01 +8.98945040091E-01 -4.25098065380E-04 +1.74730870800E-04 -3.99748014385E-04 +1.49915510129E-04 -3.55655938918E-01 +8.78802008200E-01
1.36000000000E+09 -1.56447625760E-01 +8.98855525303E-01 -4.15677459912E-04 +2.03213184822E-04 -4.03089394954E-04 +1.70343781372E-04 -3.43876683468E-01 +8.81607254550E-01
1.36500000000E+09 -1.40827319618E-01 +8.99078078552E-01 -4.82896773057E-04 +1.78528299801E-04 -4.43847535961E-04 +2.00765765072E-04 -3.31610213995E-01 +8.84032003585E-01
1.37000000000E+09 -1.26199929271E-01 +8.98994373537E-01 -5.01520322226E-04 +2.79388802780E-04 -4.84470671045E-04 +1.82728515675E-04 -3.18689023684E-01 +8.86501346614E-01
1.37500000000E+09 -1.13079612484E-01 +8.99081579525E-01 -5.41712137071E-04 +3.80841476084E-04 -5.44237228304E-04 +2.82500526461E-04 -3.04911050207E-01 +8.88855462845E-01
1.38000000000E+09 -1.01047442423E-01 +8.98932793286E-01 -5.03375010736E-04 +5.06343805459E-04 -6.08098073033E-04 +4.21490275984E-04 -2.90401914887E-01 +8.90759182262E-01
1.38500000000E+09 -8.88070511696E-02 +8.98284280078E-01 -3.82335177318E-04 +5.70895723079E-04 -4.84287204765E-04 +5.76994847319E-04 -2.74884926694E-01 +8.92684962154E-01
1.39000000000E+09 -7.62007258058E-02 +8.97052421881E-01 -3.68083456108E-04 +5.50330074126E-04 -4.03673934056E-04 +6.30605807957E-04 -2.58853921800E-01 +8.94199407854E-01
1.39500000000E+09 -6.19830093598E-02 +8.95110412570E-01 -3.94844824175E-04 +5.98486354282E-04 -3.54176747121E-04 +7.30130672446E-04 -2.41967298883E-01 +8.94972960271E-01
1.40000000000E+09 -4.54620574884E-02 +8.92048260516E-01 -3.81386917428E-04 +6.58747259354E-04 -3.46385681145E-04 +7.01576210312E-04 -2.24294483920E-01 +8.95424526609E-01
1.40500000000E+09 -2.69649177119E-02 +8.87855853636E-01 -3.92122079659E-04 +7.51386753767E-04 -3.37786614490E-04 +7.34243448848E-04 -2.05643409434E-01 +8.95182362001E-01
1.41000000000E+09 -6.62856481880E-03 +8.82666433328E-01 -3.40028977824E-04 +8.84511025642E-04 -3.34395189531E-04 +8.57087366840E-04 -1.85423392004E-01 +8.94609616222E-01
1.41500000000E+09 +1.46038604429E-02 +8.76631823829E-01 -2.12381880243E-04 +8.96882512153E-04 -2.73720644434E-04 +9.29093605005E-04 -1.63719058061E-01 +8.93173690434E-01
1.42000000000E+09 +3.64239659097E-02 +8.69961209177E-01 -2.36803858380E-04 +1.01282786345E-03 -2.91858250457E-04 +1.03514107833E-03 -1.40762429110E-01 +8.90543962705E-01
1.42500000000E+09 +5.82410122410E-02 +8.62664780129E-01 -2.09260891769E-04 +1.14667732471E-03 -2.02485953621E-04 +1.29325306594E-03 -1.17067798829E-01 +8.87022303609E-01
1.43000000000E+09 +7.97406343453E-02 +8.54922899546E-01 -5.68885777158E-05 +1.37547101991E-03 +4.79863718281E-05 +1.51407223620E-03 -9.20871816139E-02 +8.82136603360E-01
1.43500000000E+09 +1.01449046488E-01 +8.45893324980E-01 +1.56810821505E-04 +1.49434262204E-03 +3.35106199069E-04 +1.53522454540E-03 -6.56439099271E-02 +8.75388096962E-01
1.44000000000E+09 +1.23760405074E-01 +8.35506862985E-01 +3.88535243286E-04 +1.44793139697E-03 +4.52142610100E-04 +1.50211321272E-03 -3.74674503621E-02 +8.66791503773E-01
1.44500000000E+09 +1.47478538043E-01 +8.22661707629E-01 +4.85456533194E-04 +1.53479369601E-03 +5.83020834739E-04 +1.49552832841E-03 -7.06463014733E-03 +8.55575673584E-01
1.45000000000E+09 +1.72848232418E-01 +8.06265828049E-01 +4.81019187142E-04 +1.74857768542E-03 +6.70606286887E-04 +1.79420083767E-03 +2.50231057493E-02 +8.40733865392E-01
1.45500000000E+09 +2.00337326744E-01 +7.86218570164E-01 +7.59006590237E-04 +2.05360266066E-03 +1.02045833033E-03 +2.03144581145E-03 +5.83509700585E-02 +8.23036105968E-01
1.46000000000E+09 +2.30343547449E-01 +7.61515483976E-01 +1.23868008471E-03 +2.39314014617E-03 +1.47898482801E-03 +2.16506448711E-03 +9.34765732084E-02 +8.01558705285E-01
1.46500000000E+09 +2.61883501187E-01 +7.31353335455E-01 +1.97268448978E-03 +2.64519502154E-03 +2.01281057282E-03 +2.24484032396E-03 +1.30288464429E-01 +7.74460109170E-01
1.47000000000E+09 +2.94128418479E-01 +6.95696278852E-01 +2.88314985163E-03 +2.54194547957E-03 +2.63985461232E-03 +2.30613896173E-03 +1.67577980965E-01 +7.40256877098E-01
1.47500000000E+09 +3.26036675790E-01 +6.53866506988E-01 +3.80925318248E-03 +2.10550990540E-03 +3.54046215558E-03 +2.12578534316E-03 +2.04632787988E-01 +6.98945862780E-01
1.48000000000E+09 +3.55153903481E-01 +6.05400974780E-01 +4.49241857922E-03 +1.60207680329E-03 +4.48289667259E-03 +1.67952511636E-03 +2.41479948801E-01 +6.49693270185E-01
1.48500000000E+09 +3.80516224055E-01 +5.50758874853E-01 +5.19984300512E-03 +9.71399373172E-04 +5.34966261822E-03 +9.14861103391E-04 +2.76432944903E-01 +5.90110714437E-01
1.49000000000E+09 +4.00583463849E-01 +4.88616796802E-01 +6.30241801077E-03 +1.88544514523E-04 +6.28795151017E-03 -1.34875524342E-04 +3.04738301112E-01 +5.19320261368E-01
1.49500000000E+09 +4.13374755031E-01 +4.18536449036E-01 +7.26802417394E-03 -1.37792294619E-03 +6.84272210051E-03 -1.61081846815E-03 +3.22592460927E-01 +4.38284608520E-01
1.50000000000E+09 +4.15820868656E-01 +3.39192256103E-01 +8.22798981187E-03 -3.17593820969E-03 +7.66872162161E-03 -3.03051148149E-03 +3.27664270486E-01 +3.48782585924E-01
1.50500000000E+09 +4.05237821205E-01 +2.52444130957E-01 +8.43663041112E-03 -6.77700577839E-03 +8.18847787458E-03 -6.21819259334E-03 +3.15156907768E-01 +2.50639316436E-01
1.51000000000E+09 +3.77641112774E-01 +1.59086900185E-01 +6.09812888476E-03 -1.03685031332E-02 +6.36974007475E-03 -9.93891125216E-03 +2.81080070675E-01 +1.49836366220E-01
1.51500000000E+09 +3.28930143522E-01 +6.55295626318E-02 +2.89354785478E-03 -1.21996712205E-02 +3.28247277417E-03 -1.21508463481E-02 +2.25135187223E-01 +5.35850978719E-02
1.52000000000E+09 +2.58806579568E-01 -2.00234421836E-02 -1.03326385453E-03 -1.32554601809E-02 -8.14681110196E-04 -1.34462593875E-02 +1.48111874065E-01 -3.18836773906E-02
1.52500000000E+09 +1.70621585940E-01 -9.14635295757E-02 -4.95656388127E-03 -1.20814586935E-02 -4.86503085740E-03 -1.22315516288E-02 +5.26471822874E-02 -9.95061136524E-02
1.53000000000E+09 +6.81740957701E-02 -1.42469240802E-01 -7.61397244539E-03 -1.10745357695E-02 -7.64280976719E-03 -1.11283698492E-02 -5.50370994562E-02 -1.43893885860E-01
1.53500000000E+09 -4.26012750111E-02 -1.70047508250E-01 -1.08798805466E-02 -8.79689808476E-03 -1.08575159001E-02 -8.82030928373E-03 -1.66822014433E-01 -1.63247602956E-01
1.54000000000E+09 -1.55861675741E-01 -1.71837310936E-01 -1.36871019886E-02 -5.51104046948E-03 -1.35040031968E-02 -5.54152124651E-03 -2.75738216720E-01 -1.58502249751E-01
1.54500000000E+09 -2.64309013693E-01 -1.48645032407E-01 -1.49985368211E-02 -1.54984615533E-04 -1.48418020515E-02 -5.25041654237E-04 -3.73416068845E-01 -1.34017867530E-01
1.55000000000E+09 -3.60330631634E-01 -1.04158069665E-01 -1.29554633193E-02 +4.46631911118E-03 -1.31185129073E-02 +3.89664119873E-03 -4.57746103676E-01 -9.60788626867E-02
1.55500000000E+09 -4.38948714231E-01 -4.63049977020E-02 -9.89211435583E-03 +7.40685335903E-03 -1.04790593729E-02 +7.15468683682E-03 -5.27891656362E-01 -4.92667382633E-02
1.56000000000E+09 -5.00459452474E-01 +1.56057816530E-02 -6.47310364090E-03 +8.78416756240E-03 -7.11832126708E-03 +8.89608466054E-03 -5.84510999274E-01 +3.74293429244E-03
1.56500000000E+09 -5.49729009198E-01 +7.79272198289E-02 -3.40902230015E-03 +8.46381240283E-03 -3.81426044743E-03 +8.95111335277E-03 -6.28839689047E-01 +5.86733067972E-02
1.57000000000E+09 -5.87254156958E-01 +1.39577705882E-01 -1.55227230754E-03 +7.57181194293E-03 -1.61051543773E-03 +8.11124047137E-03 -6.62155416577E-01 +1.13755532051E-01
