# Hz S RI R 50
! CMT, C1220, 16058040, 17.2.0/1
! Date: 14/08/2018 12:04:52
! Data: Format (Calibration Info)
! Freq                      S11: Re/Im (F2)                       S21: Re/Im (F2)                       S12: Re/Im (F2)                       S22: Re/Im (F2)            
1.00000000000E+09 -6.53715198268E-01 +7.09821841039E-01 -2.98040096840E-05 -9.65388456700E-06 +4.00443648112E-05 -1.66099895196E-06 -7.53343721065E-01 +6.25662346247E-01
1.00500000000E+09 -6.46814421185E-01 +7.14396117931E-01 -5.47132759630E-06 -1.26826849535E-05 +8.01066185302E-06 -4.66682802371E-05 -7.49759818292E-01 +6.29660114647E-01
1.01000000000E+09 -6.41201218868E-01 +7.18722271494E-01 +1.31993881462E-05 +1.84121681319E-05 -4.59890834799E-06 -1.09402141547E-05 -7.46407151381E-01 +6.33343359136E-01
1.01500000000E+09 -6.37054335424E-01 +7.22223538086E-01 -7.75691962820E-05 +2.07548885345E-05 +1.72777238613E-05 +1.57245382374E-06 -7.42939895156E-01 +6.37268458772E-01
1.02000000000E+09 -6.34014986545E-01 +7.25729800078E-01 +2.50785274420E-05 +2.90696026092E-05 -2.83828727034E-05 +2.39362607010E-06 -7.39417918962E-01 +6.40849440551E-01
1.02500000000E+09 -6.32214656604E-01 +7.28726260723E-01 +2.25850544113E-05 +1.89275195034E-05 +1.25286425919E-05 +1.35664309106E-05 -7.36572544528E-01 +6.44463599061E-01
1.03000000000E+09 -6.30749430156E-01 +7.31511744486E-01 -5.69628218674E-06 +3.44052349428E-05 +4.02782358889E-06 -3.06392358684E-05 -7.33057804417E-01 +6.48441987279E-01
1.03500000000E+09 -6.28557780709E-01 +7.34268916165E-01 -7.24263836289E-05 -1.44815717714E-05 -4.56974568007E-05 +5.41185501913E-05 -7.29258824556E-01 +6.52431801507E-01
1.04000000000E+09 -6.25211785589E-01 +7.37306164173E-01 -9.71557844507E-06 -4.69892689442E-05 -4.02537215086E-05 -7.12843521015E-06 -7.25512651997E-01 +6.56000012019E-01
1.04500000000E+09 -6.20159739701E-01 +7.40961375307E-01 -3.75501416469E-05 +3.16286043726E-05 +2.71072869459E-05 -1.66537846057E-06 -7.21971313483E-01 +6.59574379471E-01
1.05000000000E+09 -6.13657779566E-01 +7.44898446275E-01 -4.56563756568E-05 +5.81734497030E-05 -1.02571765369E-05 -2.94404480174E-05 -7.18519286012E-01 +6.63020571564E-01
1.05500000000E+09 -6.05768303845E-01 +7.49243421889E-01 -5.35700590558E-05 +1.05646936332E-05 +5.18937635446E-06 +1.87348636558E-05 -7.15269423704E-01 +6.66698811716E-01
1.06000000000E+09 -5.97457382755E-01 +7.53583843637E-01 -3.10952493245E-05 +2.94954995506E-05 +7.44854491815E-06 +4.97658171560E-05 -7.11872432164E-01 +6.70441112703E-01
1.06500000000E+09 -5.89590505197E-01 +7.58145803368E-01 +3.25781233101E-05 +6.26619182109E-05 -2.73784667823E-05 +5.53173991849E-05 -7.08166341993E-01 +6.74100927233E-01
1.07000000000E+09 -5.82630668784E-01 +7.61946418340E-01 -3.46793251543E-05 +5.68865731818E-05 -4.42821816270E-05 +5.95096625422E-05 -7.04252253889E-01 +6.77861704743E-01
1.07500000000E+09 -5.77251966459E-01 +7.65574480690E-01 -2.67269103474E-05 +8.90214327938E-06 -2.63443036821E-05 +5.94511730764E-06 -6.99931269078E-01 +6.81491331376E-01
1.08000000000E+09 -5.73379526348E-01 +7.68995538185E-01 -5.72999749713E-06 +4.81078300929E-05 -1.28695732078E-05 +5.60826009513E-05 -6.95778496426E-01 +6.85440034627E-01
1.08500000000E+09 -5.70718369426E-01 +7.71890622238E-01 -8.73784295491E-06 +4.52782969836E-05 +2.11917713465E-05 +2.51657088695E-05 -6.91857586149E-01 +6.89094684525E-01
1.09000000000E+09 -5.68332287952E-01 +7.74589978324E-01 +5.00066328012E-05 +2.05522804652E-05 +2.87255600935E-05 +4.59104327736E-05 -6.87958820810E-01 +6.93036102257E-01
1.09500000000E+09 -5.66420257063E-01 +7.76972837486E-01 -9.40637989135E-06 +1.03649593056E-05 +5.40978798944E-05 -1.58551933617E-05 -6.84176050526E-01 +6.96882294003E-01
1.10000000000E+09 -5.62894366296E-01 +7.79652145473E-01 +2.94541257242E-06 +1.84153272065E-05 +1.85930088526E-05 +6.07741050444E-05 -6.80210775494E-01 +7.00575272561E-01
1.10500000000E+09 -5.58592402372E-01 +7.82743210925E-01 +4.61308945910E-05 +2.93946462663E-05 +2.76771608990E-05 +2.15787748878E-05 -6.75953815267E-01 +7.04187324664E-01
1.11000000000E+09 -5.52637949243E-01 +7.85923829538E-01 +1.78643475735E-05 +4.59531852754E-05 +2.18961579987E-05 +1.85768502714E-05 -6.71783428668E-01 +7.07593232612E-01
1.11500000000E+09 -5.45389114660E-01 +7.89398344392E-01 +4.53939478164E-05 +3.40903378347E-05 +3.16302024303E-05 -2.95174423279E-06 -6.67611036985E-01 +7.11036210224E-01
1.12000000000E+09 -5.37952222198E-01 +7.93031279807E-01 +2.23554390893E-05 +3.70453744706E-07 -4.56600569909E-05 +4.83534372040E-05 -6.63617715299E-01 +7.14789515824E-01
1.12500000000E+09 -5.30348798236E-01 +7.96714810223E-01 -1.68517552497E-05 +3.26736239678E-06 +3.06304577614E-05 +3.82071273421E-05 -6.59321109420E-01 +7.18760309652E-01
1.13000000000E+09 -5.23710743876E-01 +7.99943890127E-01 +2.33764447299E-05 +2.87287511744E-05 +2.83461165659E-05 +2.89075913547E-05 -6.54989025306E-01 +7.22482801850E-01
1.13500000000E+09 -5.17986975483E-01 +8.02869601052E-01 +6.71651129718E-05 +1.53439526789E-05 +1.41656885250E-05 +2.06241274512E-05 -6.50412755530E-01 +7.26382460549E-01
1.14000000000E+09 -5.13356820633E-01 +8.06044235371E-01 +1.32773574118E-05 +4.15341221921E-05 +2.47776170169E-05 +1.63150753458E-05 -6.45568189949E-01 +7.29735400367E-01
1.14500000000E+09 -5.09668393009E-01 +8.08275601132E-01 +5.28943638343E-05 +3.63591389834E-05 +2.25455489850E-05 +2.87546890076E-05 -6.41104007284E-01 +7.33069633929E-01
1.15000000000E+09 -5.06019264314E-01 +8.10599869820E-01 +3.25976883865E-05 +5.24946214168E-05 +2.84709405702E-05 +6.00273351032E-05 -6.36423232968E-01 +7.36890157837E-01
1.15500000000E+09 -5.02725368102E-01 +8.12975213107E-01 +6.75345320175E-05 +1.37026411299E-05 +3.05351592491E-05 +2.31785450870E-05 -6.31635924839E-01 +7.40684917038E-01
1.16000000000E+09 -4.97968306451E-01 +8.15334791508E-01 +5.42600943752E-05 -3.70608962713E-05 +7.10861301667E-05 +2.03281658032E-05 -6.26673220882E-01 +7.44657478036E-01
1.16500000000E+09 -4.92233109736E-01 +8.18232770941E-01 +4.05597337382E-05 +4.08457215964E-06 +5.59512640688E-05 +1.67819228478E-05 -6.21626355049E-01 +7.48406704304E-01
1.17000000000E+09 -4.85409648066E-01 +8.21069331171E-01 +2.99505947920E-05 +3.30844854825E-05 +5.96031689893E-05 +2.44413181745E-05 -6.16117513562E-01 +7.51508984749E-01
1.17500000000E+09 -4.77497515984E-01 +8.24180334357E-01 +8.58773412003E-05 +1.29620417440E-05 +4.14287063331E-05 +2.82271464146E-05 -6.10451637265E-01 +7.54849697217E-01
1.18000000000E+09 -4.69611826941E-01 +8.27441255552E-01 +9.13825804772E-05 +9.10731720542E-06 +5.47009776917E-05 +2.58697439871E-05 -6.04792207633E-01 +7.57889610913E-01
1.18500000000E+09 -4.61763399264E-01 +8.30282459483E-01 +7.60330750649E-05 +4.16664785272E-05 +1.10071712243E-04 -5.99825826395E-06 -5.98955722582E-01 +7.60883174732E-01
1.19000000000E+09 -4.54689623244E-01 +8.32650208007E-01 +1.14295679912E-04 +5.57635373103E-05 +1.62469672783E-04 +4.07417279937E-05 -5.92595564504E-01 +7.63522448246E-01
1.19500000000E+09 -4.48806909689E-01 +8.35048334624E-01 +1.49834956422E-04 +1.71676024139E-05 +1.65003911153E-04 -1.26229889135E-05 -5.86739433510E-01 +7.64782947941E-01
1.20000000000E+09 -4.44039152356E-01 +8.36254624367E-01 +1.91856148211E-04 -6.49338325544E-05 +2.34774768540E-04 -5.55207385864E-05 -5.82200627301E-01 +7.64943466721E-01
1.20500000000E+09 -4.39866045683E-01 +8.38183531651E-01 +8.82040609918E-05 -8.93225301062E-05 +1.33291821467E-04 -1.32213072433E-04 -5.80030359236E-01 +7.65811099802E-01
1.21000000000E+09 -4.35741155829E-01 +8.40186119972E-01 +1.14595602322E-04 -9.23869718928E-05 +1.04433118558E-04 -1.06919571308E-04 -5.78133452069E-01 +7.68897220873E-01
1.21500000000E+09 -4.30628453373E-01 +8.42399116548E-01 +5.65881419503E-05 -8.92330435579E-05 +8.57810650881E-05 -1.37209547019E-04 -5.75403165629E-01 +7.73441135589E-01
1.22000000000E+09 -4.23912540455E-01 +8.44809728578E-01 +6.93126345795E-05 -1.24589178009E-04 +9.37928747481E-05 -1.37468813349E-04 -5.71300856298E-01 +7.78772909451E-01
1.22500000000E+09 -4.15966993857E-01 +8.47692975021E-01 +5.49322523082E-05 -1.03220643919E-04 +4.77041765645E-05 -1.22035473286E-04 -5.66138661028E-01 +7.84027253296E-01
1.23000000000E+09 -4.06564607005E-01 +8.50645986865E-01 +6.19230239563E-05 -1.25688313694E-04 +6.86227082426E-05 -1.39920040972E-04 -5.60317944640E-01 +7.88654027307E-01
1.23500000000E+09 -3.96567022062E-01 +8.53883081275E-01 +1.00732048670E-04 -1.51931709155E-04 +7.66655245489E-05 -9.25269264937E-05 -5.54515463502E-01 +7.92795083424E-01
1.24000000000E+09 -3.86501347626E-01 +8.57194793183E-01 +1.05954307362E-04 -1.48800940006E-04 +1.37969806547E-04 -1.46765036087E-04 -5.48517380000E-01 +7.96740050452E-01
1.24500000000E+09 -3.77014040673E-01 +8.60615807075E-01 +1.02178571359E-04 -1.85119337767E-04 +1.52249473190E-04 -1.85628020722E-04 -5.42250615904E-01 +8.00574342865E-01
1.25000000000E+09 -3.68475429338E-01 +8.63643584502E-01 +4.22282256092E-05 -2.42408730035E-04 +7.79785672746E-05 -2.11713241414E-04 -5.35508234816E-01 +8.04818785049E-01
1.25500000000E+09 -3.61307970304E-01 +8.66160576130E-01 -5.79076901836E-06 -2.45734998951E-04 +2.85962267375E-05 -2.85440845133E-04 -5.28633283334E-01 +8.08790809995E-01
1.26000000000E+09 -3.55175484531E-01 +8.68721830472E-01 -3.26138586489E-05 -2.40027039439E-04 +5.00212338699E-06 -2.49372820210E-04 -5.22078725950E-01 +8.13169888653E-01
1.26500000000E+09 -3.49765123506E-01 +8.70783002088E-01 -5.80521377119E-05 -2.51518942085E-04 -6.74917645400E-05 -2.27892045370E-04 -5.15009754865E-01 +8.17001767157E-01
1.27000000000E+09 -3.44093272609E-01 +8.73066582989E-01 -8.02124622403E-05 -2.72484481860E-04 -1.08541790346E-04 -2.43189277297E-04 -5.08221716297E-01 +8.20907475942E-01
1.27500000000E+09 -3.37574493187E-01 +8.75109364192E-01 -1.15056686951E-04 -2.53722780765E-04 -9.94522008664E-05 -2.05597717894E-04 -5.01145231936E-01 +8.24460093651E-01
1.28000000000E+09 -3.29663974307E-01 +8.77468250183E-01 -1.57239649941E-04 -2.61243748835E-04 -1.51936868134E-04 -2.61046501679E-04 -4.94168054894E-01 +8.28035046168E-01
1.28500000000E+09 -3.19938055077E-01 +8.79801386072E-01 -1.68098476742E-04 -2.32874512121E-04 -2.06508837186E-04 -2.64011621333E-04 -4.86732315203E-01 +8.31628090832E-01
1.29000000000E+09 -3.09056752413E-01 +8.82384862649E-01 -1.82493853431E-04 -2.15158076783E-04 -2.40840992432E-04 -2.63756088240E-04 -4.79243413271E-01 +8.35393440101E-01
1.29500000000E+09 -2.97660857057E-01 +8.84992725414E-01 -2.30386729812E-04 -2.01020425593E-04 -2.68819285835E-04 -1.71789648613E-04 -4.71268234783E-01 +8.39085736520E-01
1.30000000000E+09 -2.86170935846E-01 +8.87761786185E-01 -2.59906931378E-04 -2.19526772588E-04 -2.94899319754E-04 -1.87101719279E-04 -4.63385098728E-01 +8.42656918407E-01
1.30500000000E+09 -2.75479019309E-01 +8.90312611240E-01 -3.22660118661E-04 -1.48869711935E-04 -3.88798322421E-04 -1.53595691780E-04 -4.55310779126E-01 +8.46026106730E-01
1.31000000000E+09 -2.66063809011E-01 +8.92423050379E-01 -3.97906984568E-04 -7.99846023407E-05 -3.42464792814E-04 -9.57970647828E-05 -4.46964269232E-01 +8.49516055601E-01
1.31500000000E+09 -2.58047699698E-01 +8.94278915719E-01 -3.42454205465E-04 -7.83683082061E-06 -3.65761941463E-04 -1.90005456555E-05 -4.38231813676E-01 +8.52922134316E-01
1.32000000000E+09 -2.51099666067E-01 +8.95853672920E-01 -3.24446511638E-04 -4.28588091329E-05 -3.55622913878E-04 -4.34735883893E-05 -4.28904665781E-01 +8.56389237159E-01
1.32500000000E+09 -2.44636249594E-01 +8.96985380013E-01 -3.49891056238E-04 -7.12864687940E-05 -3.78790074445E-04 -3.24437698183E-06 -4.19325195309E-01 +8.59742171517E-01
1.33000000000E+09 -2.37329368636E-01 +8.98151383010E-01 -3.85976589664E-04 -7.08482274717E-07 -4.11664816438E-04 +2.31051260463E-05 -4.09545011125E-01 +8.62939434208E-01
1.33500000000E+09 -2.28666226621E-01 +8.98772754062E-01 -4.18821901702E-04 +4.68231410932E-05 -4.38135133576E-04 +7.57283957637E-05 -3.99623131138E-01 +8.66328073139E-01
1.34000000000E+09 -2.17747507905E-01 +8.99491222182E-01 -4.10144602652E-04 +1.29524019167E-04 -3.88172783971E-04 +1.14570904196E-04 -3.89485319717E-01 +8.69742488075E-01
1.34500000000E+09 -2.04655669953E-01 +8.99685891532E-01 -4.03102151783E-04 +1.70815576188E-04 -3.64325450689E-04 +1.53596592571E-04 -3.78456666138E-01 +8.73097769231E-01
1.35000000000E+09 -1.89822560541E-01 +8.99775255432E-01 -3.55950710013E-04 +1.91370401548E-04 -3.82436301806E-04 +1.49139184821E-04 -3.67212910415E-01 +8.76203157981E-01
1.35500000000E+09 -1.73833670245E-01 +8.99793671823E-01 -3.45686095642E-04 +2.61913871778E-04 -3.04743124718E-04 +2.07292013076E-04 -3.55666201968E-01 +8.78917148613E-01
1.36000000000E+09 -1.57788313739E-01 +8.99792095015E-01 -3.77225259066E-04 +2.63911399359E-04 -3.56293205241E-04 +2.77557961190E-04 -3.43719443855E-01 +8.81635018035E-01
1.36500000000E+09 -1.42310114075E-01 +9.00024218848E-01 -3.28629328514E-04 +2.66205140201E-04 -3.49538523340E-04 +2.27563164603E-04 -3.31553206370E-01 +8.84243296342E-01
1.37000000000E+09 -1.27558474156E-01 +8.99987733199E-01 -3.77026361680E-04 +2.72085402361E-04 -2.98242925284E-04 +2.61430934860E-04 -3.18632830300E-01 +8.86644102031E-01
1.37500000000E+09 -1.14447029647E-01 +9.00193776996E-01 -4.40467990251E-04 +3.85053329493E-04 -4.50281221442E-04 +3.35805506596E-04 -3.04892506193E-01 +8.88967659492E-01
1.38000000000E+09 -1.02214795068E-01 +8.99962921602E-01 -4.02716464264E-04 +5.23913854069E-04 -4.59464780072E-04 +4.94587856756E-04 -2.90201997454E-01 +8.90970841480E-01
1.38500000000E+09 -8.99164063814E-02 +8.99468450823E-01 -2.58595132269E-04 +5.92447131165E-04 -3.49308838802E-04 +5.77289651386E-04 -2.74639407382E-01 +8.92939650372E-01
1.39000000000E+09 -7.71752116089E-02 +8.98203477645E-01 -2.04118492392E-04 +5.56886005475E-04 -1.85642715793E-04 +6.58585641313E-04 -2.58571765486E-01 +8.94445765761E-01
1.39500000000E+09 -6.28836284439E-02 +8.96311491072E-01 -2.26935438872E-04 +5.23752281478E-04 -2.07210938320E-04 +5.79382688733E-04 -2.41626555688E-01 +8.95023323184E-01
1.40000000000E+09 -4.62402723866E-02 +8.93376771144E-01 -2.15968237569E-04 +6.31642924688E-04 -1.77162625185E-04 +6.66226541272E-04 -2.24019376948E-01 +8.95735378401E-01
1.40500000000E+09 -2.78439221417E-02 +8.89218926821E-01 -1.55900520358E-04 +6.39876969500E-04 -6.29758188526E-05 +6.69629297046E-04 -2.05361789853E-01 +8.95514442646E-01
1.41000000000E+09 -7.55369463816E-03 +8.83998194092E-01 -1.05424287095E-04 +7.50018625000E-04 -9.53117837803E-05 +7.37951650603E-04 -1.85026386138E-01 +8.94816844963E-01
1.41500000000E+09 +1.37964330197E-02 +8.77940997896E-01 -3.21904548313E-05 +7.34174022493E-04 -3.76452577533E-05 +7.81081851052E-04 -1.63301478780E-01 +8.93248271752E-01
1.42000000000E+09 +3.55860281274E-02 +8.71279305713E-01 -3.16969019994E-05 +7.85357465655E-04 -6.46580639271E-05 +8.48104650501E-04 -1.40182290760E-01 +8.90680678211E-01
1.42500000000E+09 +5.72750765243E-02 +8.64088135531E-01 -6.09986764447E-05 +9.12032589210E-04 +2.81306845659E-05 +1.06913197522E-03 -1.16422728555E-01 +8.86925253915E-01
1.43000000000E+09 +7.89530200414E-02 +8.56098254605E-01 +7.62079528870E-05 +1.06371069920E-03 +1.82754478669E-04 +1.18974739619E-03 -9.13810083014E-02 +8.82033627924E-01
1.43500000000E+09 +1.00721595506E-01 +8.47189149007E-01 +2.99485350376E-04 +1.15149825266E-03 +4.47418422593E-04 +1.15090575871E-03 -6.49094562171E-02 +8.75177082693E-01
1.44000000000E+09 +1.22967782565E-01 +8.36767577145E-01 +4.46307236631E-04 +1.13440075611E-03 +5.15006398581E-04 +1.07848499993E-03 -3.68671520277E-02 +8.66516481475E-01
1.44500000000E+09 +1.46777483639E-01 +8.23819733371E-01 +4.91087034485E-04 +1.06492690898E-03 +5.54857352190E-04 +1.03539621829E-03 -6.50236444256E-03 +8.55124119172E-01
1.45000000000E+09 +1.72234497030E-01 +8.07653948568E-01 +4.36352533676E-04 +1.31486842148E-03 +5.59662034281E-04 +1.25370937608E-03 +2.55954140249E-02 +8.40077214077E-01
1.45500000000E+09 +1.99963310653E-01 +7.87517994003E-01 +6.03431161499E-04 +1.59893725044E-03 +7.68625603125E-04 +1.57337121848E-03 +5.90726003952E-02 +8.22167371000E-01
1.46000000000E+09 +2.29910400648E-01 +7.62786681750E-01 +1.09649782479E-03 +1.92098020011E-03 +1.19648763580E-03 +1.74257939008E-03 +9.40667597973E-02 +8.00181302194E-01
1.46500000000E+09 +2.61539129979E-01 +7.32469080236E-01 +1.73263030939E-03 +2.07748339917E-03 +1.69015882674E-03 +1.81027066898E-03 +1.30519392822E-01 +7.72950742589E-01
1.47000000000E+09 +2.93695835217E-01 +6.96910051242E-01 +2.45748025952E-03 +1.93583407873E-03 +2.26139989885E-03 +1.77961125747E-03 +1.67525437247E-01 +7.38578252374E-01
1.47500000000E+09 +3.25532937777E-01 +6.55080635754E-01 +3.21414890299E-03 +1.61176145609E-03 +2.99164179857E-03 +1.69846839377E-03 +2.04039020194E-01 +6.97147934734E-01
1.48000000000E+09 +3.54950543411E-01 +6.06831757448E-01 +3.86033134865E-03 +1.12445605846E-03 +3.86250029501E-03 +1.28532980630E-03 +2.40418049521E-01 +6.47846338961E-01
1.48500000000E+09 +3.80720337365E-01 +5.52085871102E-01 +4.40807264617E-03 +6.07488505282E-04 +4.52282639469E-03 +5.86305316565E-04 +2.74715954002E-01 +5.88519744991E-01
1.49000000000E+09 +4.01073163985E-01 +4.89419539474E-01 +5.35262454924E-03 -1.76286336291E-04 +5.34375949642E-03 -4.56076342221E-04 +3.02567550599E-01 +5.18021523068E-01
1.49500000000E+09 +4.13804206812E-01 +4.18780018794E-01 +6.02107451003E-03 -1.66092387333E-03 +5.70718051146E-03 -1.87334996037E-03 +3.19985570810E-01 +4.37515444532E-01
1.50000000000E+09 +4.16108243431E-01 +3.39237919777E-01 +6.60424908953E-03 -3.04118174072E-03 +6.26461607632E-03 -2.88073614962E-03 +3.24545235923E-01 +3.48333835275E-01
1.50500000000E+09 +4.05405145517E-01 +2.52286176987E-01 +6.78067930828E-03 -6.11210539609E-03 +6.68584494361E-03 -5.67887677586E-03 +3.11636526987E-01 +2.51250366804E-01
1.51000000000E+09 +3.77939001770E-01 +1.58793800680E-01 +4.59559519979E-03 -9.14754270713E-03 +4.92737272445E-03 -8.87997263058E-03 +2.77562466627E-01 +1.51601080834E-01
1.51500000000E+09 +3.29117782850E-01 +6.47135412596E-02 +1.79199162199E-03 -1.04963865295E-02 +2.05244230008E-03 -1.05636412478E-02 +2.22174801096E-01 +5.66237964485E-02
1.52000000000E+09 +2.58436062458E-01 -2.11328983763E-02 -1.76610651716E-03 -1.12737775984E-02 -1.65237942156E-03 -1.14158066145E-02 +1.46176512965E-01 -2.81700310794E-02
1.52500000000E+09 +1.69722464014E-01 -9.24702070694E-02 -5.06480426208E-03 -9.79297513161E-03 -5.05086408002E-03 -9.94308343233E-03 +5.16575650683E-02 -9.54576854355E-02
1.53000000000E+09 +6.67329731836E-02 -1.43302473662E-01 -7.08180049502E-03 -8.67921061646E-03 -7.14701668750E-03 -8.77429709846E-03 -5.50517335029E-02 -1.39600642461E-01
1.53500000000E+09 -4.42816134940E-02 -1.70233873264E-01 -9.44669960164E-03 -6.73448560970E-03 -9.50560963375E-03 -6.62675168365E-03 -1.65804228459E-01 -1.58583159295E-01
1.54000000000E+09 -1.57333190817E-01 -1.71692615911E-01 -1.18372598564E-02 -4.16563998618E-03 -1.17336153256E-02 -4.15743849686E-03 -2.73170976763E-01 -1.54299930702E-01
1.54500000000E+09 -2.65547206820E-01 -1.48460417028E-01 -1.31700850445E-02 +6.78646292555E-04 -1.29774509725E-02 +4.04043203796E-04 -3.69899544978E-01 -1.30829595532E-01
1.55000000000E+09 -3.61517292061E-01 -1.04209844611E-01 -1.08796625626E-02 +4.98277806253E-03 -1.10917531307E-02 +4.53561335308E-03 -4.53636842205E-01 -9.41510894534E-02
1.55500000000E+09 -4.40473021424E-01 -4.64493563211E-02 -7.71125931696E-03 +7.26579019428E-03 -8.25358233515E-03 +7.11793217494E-03 -5.23617598638E-01 -4.83303667019E-02
1.56000000000E+09 -5.02263424687E-01 +1.56053100602E-02 -4.67616049708E-03 +7.98417527148E-03 -5.09479748996E-03 +8.22527543828E-03 -5.80375037652E-01 +3.66282742871E-03
1.56500000000E+09 -5.51476374074E-01 +7.84718951864E-02 -2.03881688030E-03 +7.36530845961E-03 -2.28671814133E-03 +7.80583240171E-03 -6.25013067020E-01 +5.74752776160E-02
1.57000000000E+09 -5.88326483557E-01 +1.40225594227E-01 -6.18047309582E-04 +6.44877727216E-03 -5.59906896937E-04 +6.85728321375E-03 -6.58992112519E-01 +1.11758509076E-01
