# Hz S RI R 50
! CMT, C1220, 16058040, 17.2.0/1
! Date: 14/08/2018 12:06:11
! Data: Format (Calibration Info)
! Freq                      S11: Re/Im (F2)                       S21: Re/Im (F2)                       S12: Re/Im (F2)                       S22: Re/Im (F2)            
1.00000000000E+09 -6.54513614068E-01 +7.09915095543E-01 +3.77548302294E-05 -3.41037980245E-06 +1.05136737394E-05 +1.90866308950E-05 -7.53386698142E-01 +6.25656318536E-01
1.00500000000E+09 -6.47533190222E-01 +7.14471812641E-01 +4.45877189989E-05 -2.66931364549E-06 -5.15939490717E-06 -1.05111244489E-05 -7.49828618603E-01 +6.29769541362E-01
1.01000000000E+09 -6.41815452791E-01 +7.18769852352E-01 +2.42642539799E-06 +2.72460656660E-05 -1.08609942777E-05 +2.02708565778E-05 -7.46231377942E-01 +6.33380432596E-01
1.01500000000E+09 -6.37560546470E-01 +7.22389794217E-01 +3.05559144850E-05 +8.67781953078E-06 -3.91759360348E-05 -2.75285953453E-05 -7.42863419615E-01 +6.37332683114E-01
1.02000000000E+09 -6.34769347624E-01 +7.25843448647E-01 +3.66864986200E-06 -3.74352188995E-06 -1.76992428432E-05 +1.24916906074E-06 -7.39429910609E-01 +6.40713259376E-01
1.02500000000E+09 -6.32797277906E-01 +7.28733978793E-01 -1.45625458915E-05 +7.16507895931E-05 -5.33026633875E-05 -2.15713130891E-05 -7.36458702729E-01 +6.44533836577E-01
1.03000000000E+09 -6.31475255720E-01 +7.31526642816E-01 -1.12611742731E-06 +3.11131652294E-05 +1.60017807886E-05 +2.27851562589E-05 -7.33082992777E-01 +6.48326283772E-01
1.03500000000E+09 -6.29232880759E-01 +7.34316125796E-01 -4.19896537158E-05 -9.48290863894E-06 -3.27377854886E-05 -1.67457147550E-05 -7.29311118258E-01 +6.52295452640E-01
1.04000000000E+09 -6.25877104748E-01 +7.37529993945E-01 -3.59865337220E-05 +3.43370351413E-05 +8.30440635691E-06 -1.66010969003E-06 -7.25623626202E-01 +6.56125611221E-01
1.04500000000E+09 -6.20938376838E-01 +7.41102827899E-01 -5.29272842876E-05 +1.32468349509E-05 -1.48234000399E-05 +3.44085916799E-05 -7.22113866141E-01 +6.59538261122E-01
1.05000000000E+09 -6.14384474461E-01 +7.45046770253E-01 -2.47009486929E-07 +4.46779418926E-05 -8.39253231593E-06 +4.55471016844E-05 -7.18467418489E-01 +6.63016820424E-01
1.05500000000E+09 -6.06468783320E-01 +7.49171341571E-01 -6.52058768615E-05 +3.46570749703E-05 -6.03383124332E-06 +1.38120598442E-05 -7.15247791230E-01 +6.66645905693E-01
1.06000000000E+09 -5.98251565105E-01 +7.53607403980E-01 -3.08902261123E-05 +4.06535648998E-05 -4.52040650688E-05 +5.14719771486E-05 -7.11987692822E-01 +6.70275516714E-01
1.06500000000E+09 -5.90447820486E-01 +7.58232107090E-01 -3.63167958102E-06 +1.58358244080E-05 +3.63542065923E-05 +2.62787051940E-06 -7.08234035496E-01 +6.74155676118E-01
1.07000000000E+09 -5.83557691015E-01 +7.61947496406E-01 -3.33874026314E-05 +4.94288047880E-05 -6.90912181984E-06 +6.62995463232E-05 -7.04271923402E-01 +6.77778399335E-01
1.07500000000E+09 -5.78086778339E-01 +7.65751157293E-01 -1.30126507152E-05 +3.23861996111E-05 -3.76707114789E-05 +4.49855580571E-05 -7.00007628885E-01 +6.81625513415E-01
1.08000000000E+09 -5.74223064521E-01 +7.69032473390E-01 +8.87987405843E-06 +5.77448763371E-05 +1.36498485589E-05 +5.84042105707E-05 -6.95975287156E-01 +6.85338794028E-01
1.08500000000E+09 -5.71547943171E-01 +7.72058456283E-01 +3.45768848858E-05 +2.64485978874E-05 +1.11850058237E-05 +4.88592806411E-05 -6.91881841636E-01 +6.89022806010E-01
1.09000000000E+09 -5.69384398202E-01 +7.74755860498E-01 -2.94284468964E-05 +5.08604587761E-05 -8.44331688156E-06 +3.30324446358E-05 -6.88069935231E-01 +6.92812485263E-01
1.09500000000E+09 -5.67204802900E-01 +7.77208213535E-01 -2.82498276581E-06 +1.22509974690E-05 +5.91884632910E-06 +2.63361808691E-05 -6.84305045654E-01 +6.96764810607E-01
1.10000000000E+09 -5.63819278391E-01 +7.79991267454E-01 +1.00062382985E-06 +4.78663115139E-05 +2.92065788992E-08 -1.44406659752E-05 -6.80373034408E-01 +7.00643273961E-01
1.10500000000E+09 -5.59258487120E-01 +7.82817587231E-01 +3.01120656937E-05 +3.48900697818E-05 -1.97708295849E-05 +5.83621551444E-05 -6.76036423160E-01 +7.04119550604E-01
1.11000000000E+09 -5.53494143558E-01 +7.86122573745E-01 -5.06485068282E-05 +3.82693213399E-05 -1.10350337908E-05 +1.47099213989E-05 -6.71723521758E-01 +7.07632470620E-01
1.11500000000E+09 -5.46320331528E-01 +7.89710291850E-01 +4.75098261797E-05 +4.15116685575E-05 -5.73494696099E-06 +1.35331957409E-05 -6.67612351323E-01 +7.11064752961E-01
1.12000000000E+09 -5.38729688569E-01 +7.93312585935E-01 +1.88616765393E-05 +2.59026392212E-05 +3.31477686732E-05 +3.54162203451E-05 -6.63536187112E-01 +7.14735758633E-01
1.12500000000E+09 -5.31185208073E-01 +7.96881529746E-01 +2.74893679768E-05 +3.75037153905E-05 +2.48804188014E-05 +2.08689482905E-05 -6.59304809726E-01 +7.18826664998E-01
1.13000000000E+09 -5.24525472436E-01 +8.00265182629E-01 +4.28909528140E-05 -1.16858336020E-05 +3.40021118282E-05 +4.78962102038E-05 -6.55096724495E-01 +7.22489248177E-01
1.13500000000E+09 -5.18662522491E-01 +8.03232114103E-01 +1.72985665690E-05 +6.39316020646E-05 +9.01558985313E-05 +3.84834256521E-05 -6.50526769638E-01 +7.26302600562E-01
1.14000000000E+09 -5.14015523387E-01 +8.06104356089E-01 +1.82809581938E-05 +4.92335102534E-05 +6.73723541699E-05 +3.12644662919E-05 -6.45775468660E-01 +7.29653061698E-01
1.14500000000E+09 -5.10393366275E-01 +8.08507411923E-01 +5.89567831734E-05 +9.42544580788E-06 +4.03882652347E-05 +1.25787443241E-05 -6.41098630689E-01 +7.33135141520E-01
1.15000000000E+09 -5.06987181725E-01 +8.10708463041E-01 +5.78599392764E-05 +5.71868377896E-05 +4.00442315886E-05 +3.40042538377E-05 -6.36523606528E-01 +7.36866379377E-01
1.15500000000E+09 -5.03380726480E-01 +8.13263568012E-01 +6.76788097063E-05 +3.82174482168E-05 +7.07817451933E-05 -2.88645221702E-05 -6.31727706736E-01 +7.40737167657E-01
1.16000000000E+09 -4.98882178420E-01 +8.15619290626E-01 +6.91011674469E-05 -9.98978746593E-06 +7.45957166762E-05 +3.77754353193E-05 -6.26766828076E-01 +7.44510585502E-01
1.16500000000E+09 -4.93283545389E-01 +8.18534438726E-01 +9.50069412400E-05 +2.29052358018E-05 +4.16117616003E-05 +6.17272373039E-05 -6.21677350598E-01 +7.48066776707E-01
1.17000000000E+09 -4.86236097544E-01 +8.21555515128E-01 +6.97353468592E-05 +3.59514790138E-06 +1.14767276474E-04 +4.12806479266E-05 -6.16302848263E-01 +7.51423476903E-01
1.17500000000E+09 -4.78528325104E-01 +8.24640805304E-01 +8.70707921415E-05 +1.70346657323E-05 +7.43345829781E-05 +4.24920126159E-05 -6.10514172731E-01 +7.54718011864E-01
1.18000000000E+09 -4.70616708938E-01 +8.27799555876E-01 +1.03574626053E-04 -1.71107877109E-05 +7.40661975668E-05 +2.19744210750E-05 -6.04938517080E-01 +7.57944977867E-01
1.18500000000E+09 -4.62527232001E-01 +8.30590623131E-01 +1.17835700373E-04 +1.07509142508E-05 +1.08721719499E-04 -3.98191778999E-07 -5.99012121322E-01 +7.60963952120E-01
1.19000000000E+09 -4.55496822075E-01 +8.33133727456E-01 +1.21954637469E-04 +4.87415406120E-06 +1.34043409780E-04 +1.25214611368E-05 -5.92742519826E-01 +7.63640737931E-01
1.19500000000E+09 -4.49700220230E-01 +8.35241349721E-01 +1.70706590047E-04 +4.82609090393E-06 +2.04611899583E-04 -2.65208725891E-05 -5.86698305644E-01 +7.64825604707E-01
1.20000000000E+09 -4.45005188900E-01 +8.36622814455E-01 +1.68946180957E-04 -9.49763540454E-05 +1.58445377583E-04 -1.21442196034E-04 -5.82228866425E-01 +7.65060218808E-01
1.20500000000E+09 -4.40760326325E-01 +8.38627824650E-01 +1.56687594459E-04 -1.70212714886E-04 +1.30137216171E-04 -1.26126407783E-04 -5.79986477983E-01 +7.65752408819E-01
1.21000000000E+09 -4.36634402095E-01 +8.40606647219E-01 +1.04749666088E-04 -1.56200249462E-04 +4.97328075560E-05 -1.51618265874E-04 -5.78234943792E-01 +7.68797866439E-01
1.21500000000E+09 -4.31458772375E-01 +8.42930223603E-01 +3.18316922093E-05 -1.52182292927E-04 +6.22348694636E-05 -8.09425609755E-05 -5.75412118911E-01 +7.73248486269E-01
1.22000000000E+09 -4.24911117972E-01 +8.45236750879E-01 +5.94275281248E-05 -1.37013143211E-04 +6.65522160955E-05 -1.27345273044E-04 -5.71228600215E-01 +7.78889958795E-01
1.22500000000E+09 -4.16788270351E-01 +8.48216068430E-01 +1.30973695552E-05 -1.10191284063E-04 +5.19850161348E-05 -1.67965796417E-04 -5.66123790537E-01 +7.83864619160E-01
1.23000000000E+09 -4.07523791191E-01 +8.51233138514E-01 +7.32598307574E-05 -1.34516516780E-04 +4.82117948891E-05 -1.28936446450E-04 -5.60497689842E-01 +7.88587693450E-01
1.23500000000E+09 -3.97490099277E-01 +8.54400348612E-01 +8.25236549134E-05 -1.16538208522E-04 +3.56616677552E-05 -1.19005254008E-04 -5.54535070602E-01 +7.92970844241E-01
1.24000000000E+09 -3.87340119613E-01 +8.57824607134E-01 +4.80838825268E-05 -1.30048884469E-04 +8.72484070306E-05 -1.51230662035E-04 -5.48514395776E-01 +7.96779927671E-01
1.24500000000E+09 -3.77907025099E-01 +8.61275464894E-01 +2.73813545320E-05 -1.84978611082E-04 +6.78686255157E-05 -1.81559977577E-04 -5.42227075409E-01 +8.00619335856E-01
1.25000000000E+09 -3.69452693482E-01 +8.64285253549E-01 +3.61730393205E-05 -2.52448909725E-04 +7.74052353504E-05 -2.46521558390E-04 -5.35465417464E-01 +8.04991199320E-01
1.25500000000E+09 -3.62187325579E-01 +8.66914859311E-01 -5.81663399934E-05 -2.60784174254E-04 +3.97278857015E-05 -3.03690491343E-04 -5.28774058839E-01 +8.08885243902E-01
1.26000000000E+09 -3.55995006676E-01 +8.69309318465E-01 -5.77099257248E-05 -2.57095941170E-04 -1.54290108155E-06 -2.76078081913E-04 -5.21885970796E-01 +8.13266482072E-01
1.26500000000E+09 -3.50391604819E-01 +8.71524895270E-01 -5.06152453201E-05 -2.83064644494E-04 -5.12977077785E-05 -2.38343472361E-04 -5.15005577657E-01 +8.17131933349E-01
1.27000000000E+09 -3.44821255417E-01 +8.73711663895E-01 -5.84537746103E-05 -2.35610075582E-04 -8.79509190270E-05 -2.22180295305E-04 -5.08145443656E-01 +8.21002302458E-01
1.27500000000E+09 -3.38311082193E-01 +8.75944512581E-01 -1.14757847727E-04 -2.62334966307E-04 -1.15118533938E-04 -2.84144498834E-04 -5.01103363241E-01 +8.24418150064E-01
1.28000000000E+09 -3.30311137886E-01 +8.78114392087E-01 -1.37083193414E-04 -2.52263741062E-04 -1.90761530467E-04 -2.98566150233E-04 -4.93985055498E-01 +8.28029823502E-01
1.28500000000E+09 -3.20608193700E-01 +8.80649976791E-01 -1.51293748168E-04 -2.02987196672E-04 -1.82363327472E-04 -2.46368965339E-04 -4.86616779911E-01 +8.31675155210E-01
1.29000000000E+09 -3.09821112907E-01 +8.83041476081E-01 -2.33319121224E-04 -2.57831533526E-04 -2.53851853740E-04 -2.44779642125E-04 -4.79169460283E-01 +8.35281138167E-01
1.29500000000E+09 -2.98178735934E-01 +8.85698797031E-01 -2.10190647580E-04 -2.22869471779E-04 -2.93191450465E-04 -2.12917369352E-04 -4.71220602477E-01 +8.38847784371E-01
1.30000000000E+09 -2.86886147596E-01 +8.88464873972E-01 -2.56737993323E-04 -2.22735186128E-04 -3.51659860457E-04 -1.92985332711E-04 -4.63298972219E-01 +8.42467793455E-01
1.30500000000E+09 -2.76060894940E-01 +8.90866841087E-01 -3.75950985384E-04 -1.56986200433E-04 -3.15018454187E-04 -1.22632216075E-04 -4.55164570684E-01 +8.45935511418E-01
1.31000000000E+09 -2.66703648541E-01 +8.92966636425E-01 -3.90610548175E-04 -5.73712491495E-05 -3.77271335689E-04 -1.07377462560E-04 -4.46873444752E-01 +8.49298256152E-01
1.31500000000E+09 -2.58648765567E-01 +8.94877416295E-01 -3.59829423916E-04 -1.90555239522E-05 -3.54967673190E-04 -4.31929675536E-07 -4.37990136721E-01 +8.52731702762E-01
1.32000000000E+09 -2.51750626242E-01 +8.96483004884E-01 -3.16474159703E-04 +2.36635750739E-05 -3.50484657171E-04 -2.15610009177E-05 -4.28864095920E-01 +8.56165322218E-01
1.32500000000E+09 -2.45189298979E-01 +8.97671744762E-01 -3.46060572641E-04 +8.82700847192E-06 -4.29100594866E-04 -7.40164833160E-06 -4.19189623708E-01 +8.59584970899E-01
1.33000000000E+09 -2.37808982338E-01 +8.98731788586E-01 -3.68058180029E-04 +4.20739674761E-06 -3.94443935393E-04 +5.42408116987E-05 -4.09471976198E-01 +8.62816803238E-01
1.33500000000E+09 -2.29028736298E-01 +8.99442548435E-01 -4.50035984462E-04 +7.86449865650E-05 -4.32496658341E-04 +1.24342189465E-04 -3.99592689374E-01 +8.66165660092E-01
1.34000000000E+09 -2.18104973188E-01 +9.00226756774E-01 -4.48923903644E-04 +1.06696837183E-04 -3.49961758622E-04 +1.40215771411E-04 -3.89369960936E-01 +8.69395130771E-01
1.34500000000E+09 -2.04890707589E-01 +9.00416013694E-01 -4.18282364216E-04 +2.12250074826E-04 -3.80559945730E-04 +2.22170697840E-04 -3.78437567606E-01 +8.72923625292E-01
1.35000000000E+09 -1.89948241124E-01 +9.00368539849E-01 -3.67972634203E-04 +2.33048984318E-04 -3.60282694165E-04 +2.04795082068E-04 -3.67261665731E-01 +8.75861139891E-01
1.35500000000E+09 -1.73912405470E-01 +9.00346460237E-01 -2.95212784837E-04 +2.46537273412E-04 -3.12677646054E-04 +2.28196886584E-04 -3.55709947998E-01 +8.78614764841E-01
1.36000000000E+09 -1.57895596193E-01 +9.00270226999E-01 -3.63298647638E-04 +2.48021460072E-04 -3.19845567376E-04 +2.40612653604E-04 -3.43725687203E-01 +8.81271080229E-01
1.36500000000E+09 -1.42168245782E-01 +9.00411662843E-01 -4.01021530924E-04 +2.39455701371E-04 -3.44137085832E-04 +2.17769921418E-04 -3.31564963455E-01 +8.83822277687E-01
1.37000000000E+09 -1.27496062122E-01 +9.00545371538E-01 -3.89618711225E-04 +3.46033992577E-04 -3.85808489671E-04 +2.75720326495E-04 -3.18699972766E-01 +8.86119339693E-01
1.37500000000E+09 -1.14231488846E-01 +9.00377383583E-01 -4.82022119087E-04 +3.84827732786E-04 -4.71469740967E-04 +3.59547272129E-04 -3.05080622688E-01 +8.88353113552E-01
1.38000000000E+09 -1.01904322342E-01 +9.00039968225E-01 -3.68762495746E-04 +5.48039070111E-04 -4.52573449723E-04 +5.17854862211E-04 -2.90470061626E-01 +8.90426033578E-01
1.38500000000E+09 -8.96464588308E-02 +8.99521334013E-01 -2.41239541871E-04 +5.85349363471E-04 -3.65924181529E-04 +5.95712135995E-04 -2.75053764823E-01 +8.92332276329E-01
1.39000000000E+09 -7.68502386976E-02 +8.98122310106E-01 -2.51963053385E-04 +5.52123644553E-04 -2.50606597520E-04 +6.41446298985E-04 -2.58925722333E-01 +8.93906818828E-01
1.39500000000E+09 -6.25281850999E-02 +8.96013823894E-01 -2.50183283601E-04 +5.67189371461E-04 -3.04568304350E-04 +6.17183758631E-04 -2.42245782533E-01 +8.94748881095E-01
1.40000000000E+09 -4.59389132039E-02 +8.92924832041E-01 -2.30096611629E-04 +6.31922779686E-04 -1.66671725532E-04 +6.67193158325E-04 -2.24683759967E-01 +8.95087280403E-01
1.40500000000E+09 -2.74534830390E-02 +8.88553704189E-01 -2.61516839908E-04 +7.35336106959E-04 -2.65212137761E-04 +7.19015163814E-04 -2.06114737847E-01 +8.94964213380E-01
1.41000000000E+09 -7.25446722485E-03 +8.83134882192E-01 -1.89578071742E-04 +8.86405494397E-04 -1.79500176879E-04 +8.72222426437E-04 -1.85972302116E-01 +8.94410216261E-01
1.41500000000E+09 +1.39322213428E-02 +8.76960944578E-01 -1.87008886063E-05 +9.03371303571E-04 -1.04037440138E-04 +9.20390851618E-04 -1.64360519948E-01 +8.93179867412E-01
1.42000000000E+09 +3.57445633229E-02 +8.70162241505E-01 -2.80570657107E-05 +8.96936738719E-04 -5.11993050225E-05 +9.82143871038E-04 -1.41417617682E-01 +8.90614903412E-01
1.42500000000E+09 +5.73382371178E-02 +8.62609274541E-01 -7.39605165649E-05 +1.06835572612E-03 -9.59565687674E-06 +1.20399908226E-03 -1.17566113279E-01 +8.87034969236E-01
1.43000000000E+09 +7.88942193890E-02 +8.54528915344E-01 +1.86541144700E-04 +1.31800414485E-03 +2.48205695310E-04 +1.43023244618E-03 -9.25969270559E-02 +8.82193256080E-01
1.43500000000E+09 +1.00466550999E-01 +8.45162845442E-01 +4.76791965310E-04 +1.34661832408E-03 +6.65477210449E-04 +1.39207677120E-03 -6.62021067914E-02 +8.75609740457E-01
1.44000000000E+09 +1.22555653446E-01 +8.34499120281E-01 +6.95630148683E-04 +1.22480280951E-03 +8.30848363858E-04 +1.19610022660E-03 -3.79399882634E-02 +8.67112085444E-01
1.44500000000E+09 +1.46281445556E-01 +8.21422310779E-01 +7.19617600746E-04 +1.13581545640E-03 +7.92281231465E-04 +1.11610805267E-03 -7.64933709290E-03 +8.55707070375E-01
1.45000000000E+09 +1.71581233573E-01 +8.04628562484E-01 +6.69314446065E-04 +1.43834486703E-03 +7.87966267366E-04 +1.39268705020E-03 +2.43127540017E-02 +8.41090731041E-01
1.45500000000E+09 +1.98745830743E-01 +7.84035457086E-01 +9.78445059007E-04 +1.75421342300E-03 +1.12406515931E-03 +1.67843388771E-03 +5.78791443244E-02 +8.23520990348E-01
1.46000000000E+09 +2.28203987593E-01 +7.58775643167E-01 +1.66900340724E-03 +1.85833340655E-03 +1.80763543269E-03 +1.65859254829E-03 +9.28664181267E-02 +8.01870329116E-01
1.46500000000E+09 +2.59100491396E-01 +7.28184357091E-01 +2.11642212129E-03 +1.63365121555E-03 +2.04480124428E-03 +1.34334207993E-03 +1.29347940581E-01 +7.75068317248E-01
1.47000000000E+09 +2.90271677058E-01 +6.92162250661E-01 +2.57109225502E-03 +1.62505086179E-03 +2.35644090471E-03 +1.43749546295E-03 +1.66860947423E-01 +7.41112828029E-01
1.47500000000E+09 +3.21084671383E-01 +6.50081832600E-01 +3.24244275948E-03 +1.49503968920E-03 +3.01738666469E-03 +1.50951338868E-03 +2.03702739126E-01 +6.99715177655E-01
1.48000000000E+09 +3.48902293489E-01 +6.01346074815E-01 +4.09949832074E-03 +1.03621330194E-03 +4.14211638276E-03 +1.17704941924E-03 +2.40267979495E-01 +6.51029361914E-01
1.48500000000E+09 +3.72447893582E-01 +5.46852724115E-01 +4.73032628368E-03 +1.64019295469E-04 +4.89236201368E-03 +6.26058314612E-05 +2.75409433955E-01 +5.92055839970E-01
1.49000000000E+09 +3.90875949188E-01 +4.85429615093E-01 +5.40093349735E-03 -8.12048639989E-04 +5.35126498967E-03 -1.04540633487E-03 +3.04078616848E-01 +5.22028151356E-01
1.49500000000E+09 +4.01960589608E-01 +4.16020820918E-01 +5.76523395587E-03 -2.05243491132E-03 +5.47510229008E-03 -2.16596373698E-03 +3.22885543016E-01 +4.41672440938E-01
1.50000000000E+09 +4.02310816159E-01 +3.38329610278E-01 +6.70502685677E-03 -3.24943423810E-03 +6.26479004307E-03 -3.04407749945E-03 +3.28822800313E-01 +3.52339217573E-01
1.50500000000E+09 +3.89934982410E-01 +2.54149944796E-01 +6.99514288861E-03 -6.70985485088E-03 +6.88271032825E-03 -6.20500991588E-03 +3.17814949935E-01 +2.54288266744E-01
1.51000000000E+09 +3.60836467428E-01 +1.64512100159E-01 +4.35836210462E-03 -1.00771177837E-02 +4.63688953994E-03 -9.76742605583E-03 +2.85434335115E-01 +1.52478570059E-01
1.51500000000E+09 +3.12101765590E-01 +7.60466220243E-02 +9.88924550481E-04 -1.11665625808E-02 +1.27646563382E-03 -1.12245557812E-02 +2.30090173434E-01 +5.48972467217E-02
1.52000000000E+09 +2.44937242662E-01 -4.13331431248E-03 -2.75559599241E-03 -1.13699478211E-02 -2.67878946269E-03 -1.15553277543E-02 +1.53792980433E-01 -3.21625985676E-02
1.52500000000E+09 +1.61026231648E-01 -7.27796053687E-02 -5.52733151514E-03 -9.50026452515E-03 -5.54807642034E-03 -9.66709832723E-03 +5.82332119174E-02 -1.02001135557E-01
1.53000000000E+09 +6.28804160084E-02 -1.21627904305E-01 -7.41760631161E-03 -9.00212521742E-03 -7.47856152015E-03 -9.06896355298E-03 -5.08963496596E-02 -1.47993591754E-01
1.53500000000E+09 -4.22342671639E-02 -1.48265798001E-01 -1.08062365071E-02 -6.88296742522E-03 -1.07709192771E-02 -6.90849124416E-03 -1.63772243488E-01 -1.68233586219E-01
1.54000000000E+09 -1.50053305750E-01 -1.51715166181E-01 -1.30265976303E-02 -3.04976184710E-03 -1.28419457410E-02 -3.02951492222E-03 -2.74800827815E-01 -1.64481169794E-01
1.54500000000E+09 -2.54101778917E-01 -1.31546391930E-01 -1.29462651703E-02 +1.86645734975E-03 -1.28927299601E-02 +1.56335955881E-03 -3.74770780255E-01 -1.39258761326E-01
1.55000000000E+09 -3.46965716218E-01 -9.14060991774E-02 -1.05283307476E-02 +5.29994359895E-03 -1.07187562315E-02 +4.89650274481E-03 -4.60205426823E-01 -1.00344179236E-01
1.55500000000E+09 -4.24772444270E-01 -3.85824222171E-02 -7.97847507633E-03 +7.28872395347E-03 -8.50402255981E-03 +7.08209903225E-03 -5.31272294055E-01 -5.21988605721E-02
1.56000000000E+09 -4.87307703722E-01 +1.94566661194E-02 -5.01425702108E-03 +8.59486191284E-03 -5.55530676259E-03 +8.74689339763E-03 -5.87896990910E-01 +2.30351603525E-03
1.56500000000E+09 -5.37324677482E-01 +7.94462355507E-02 -1.98643755122E-03 +8.20026358755E-03 -2.23529490099E-03 +8.64052889476E-03 -6.31831759668E-01 +5.80692452010E-02
1.57000000000E+09 -5.75948005440E-01 +1.38504686708E-01 -1.40827936099E-04 +6.90020718441E-03 -1.57698541769E-04 +7.32509029329E-03 -6.64926448667E-01 +1.13594056065E-01
