# Hz S RI R 50
! CMT, C1220, 16058040, 17.2.0/1
! Date: 15/08/2018 12:11:31
! Data: Format (Calibration Info)
! Freq                      S11: Re/Im (F2)                       S21: Re/Im (F2)                       S12: Re/Im (F2)                       S22: Re/Im (F2)            
4.00000000000E+09 +6.52859690599E-01 -3.56783618926E-01 -5.06381015636E-05 -8.05798898729E-04 +5.83575006324E-06 -8.45900089698E-04 +7.67147680646E-01 -3.21172895153E-01
4.00500000000E+09 +6.44591535468E-01 -3.62846288478E-01 -2.01151439807E-04 -6.34484623752E-04 -1.40606524202E-04 -6.59346622020E-04 +7.57977989801E-01 -3.31653874232E-01
4.01000000000E+09 +6.35601065576E-01 -3.68610437415E-01 -6.26214545076E-05 -6.39067610564E-04 -2.64840324533E-05 -6.60384149735E-04 +7.48480826452E-01 -3.42100215962E-01
4.01500000000E+09 +6.25741982839E-01 -3.75158431607E-01 -1.14495367495E-04 -7.92601942372E-04 -1.08472309648E-04 -8.01214822434E-04 +7.38904452640E-01 -3.52150124199E-01
4.02000000000E+09 +6.14743213621E-01 -3.83348455264E-01 -4.29247518051E-04 -8.74764509499E-04 -3.83098782989E-04 -9.07234448000E-04 +7.28658924577E-01 -3.62299483104E-01
4.02500000000E+09 +6.02870308924E-01 -3.92311224523E-01 -6.81196835687E-04 -6.99004919943E-04 -6.93092674910E-04 -7.34562139798E-04 +7.17844243428E-01 -3.71901653754E-01
4.03000000000E+09 +5.91255798051E-01 -4.02287663570E-01 -6.08718790040E-04 -3.72787921029E-04 -5.57857038385E-04 -3.92429728995E-04 +7.07061599880E-01 -3.81435150004E-01
4.03500000000E+09 +5.79999441537E-01 -4.13350443469E-01 -4.98208452272E-04 -3.55055875978E-04 -5.43439305144E-04 -3.50273382013E-04 +6.95854482219E-01 -3.91266924257E-01
4.04000000000E+09 +5.68573081400E-01 -4.24544362896E-01 -5.40802874894E-04 -2.13863105030E-04 -5.75122693126E-04 -2.15649650061E-04 +6.84588229963E-01 -4.01497710618E-01
4.04500000000E+09 +5.57534004116E-01 -4.34659011965E-01 -4.02063968968E-04 -1.92930425090E-04 -4.17782323563E-04 -2.52826261732E-04 +6.72481425368E-01 -4.11286753104E-01
4.05000000000E+09 +5.46563041512E-01 -4.43243358109E-01 -3.80485759168E-04 -3.53754319466E-04 -3.98102748112E-04 -3.68605481719E-04 +6.60265630434E-01 -4.19930245568E-01
4.05500000000E+09 +5.35353153060E-01 -4.49741937042E-01 -5.80896745134E-04 -3.99612185464E-04 -5.96329995793E-04 -4.00407021916E-04 +6.48071887804E-01 -4.28564672245E-01
4.06000000000E+09 +5.23846582914E-01 -4.54655155708E-01 -5.39458351427E-04 -3.65437424458E-04 -6.18797276948E-04 -3.56069664158E-04 +6.35314044094E-01 -4.36755569186E-01
4.06500000000E+09 +5.11306693830E-01 -4.58455674167E-01 -8.13979693234E-04 -1.67935115910E-04 -8.54626212460E-04 -2.27904121415E-04 +6.21927837869E-01 -4.44773339164E-01
4.07000000000E+09 +4.97783993632E-01 -4.61812439406E-01 -6.53467356774E-04 +7.85607631235E-05 -6.75017757151E-04 +7.83922555315E-05 +6.08225537110E-01 -4.52864978914E-01
4.07500000000E+09 +4.82830672091E-01 -4.66151003690E-01 -4.61711414993E-04 -3.05746785718E-05 -4.94395755781E-04 -6.91418890673E-05 +5.94283514040E-01 -4.61030444641E-01
4.08000000000E+09 +4.66099004019E-01 -4.70730336213E-01 -7.28546022553E-04 -2.19693436542E-04 -7.67160046787E-04 -2.26566199890E-04 +5.80565194132E-01 -4.68771457747E-01
4.08500000000E+09 +4.48964067701E-01 -4.75428359996E-01 -7.72083908381E-04 +5.80535463938E-05 -8.09218071049E-04 +7.33069879394E-05 +5.66413005556E-01 -4.76662035841E-01
4.09000000000E+09 +4.32256232263E-01 -4.81728104169E-01 -5.39493129255E-04 +7.92434539092E-05 -5.70625323977E-04 +8.34039232962E-05 +5.51849895995E-01 -4.83291764766E-01
4.09500000000E+09 +4.15302240759E-01 -4.88752514466E-01 -8.09024151677E-04 +1.29402759451E-05 -8.66932631837E-04 +3.73727660214E-05 +5.37642102409E-01 -4.89635072182E-01
4.10000000000E+09 +3.97671034168E-01 -4.95405858494E-01 -7.53045607292E-04 +2.14918315715E-04 -7.32990328439E-04 +2.23704433873E-04 +5.21435059877E-01 -4.96150282619E-01
4.10500000000E+09 +3.80527757238E-01 -4.99743003509E-01 -8.78186780949E-04 +4.04454365391E-04 -8.80297036672E-04 +3.81748903335E-04 +5.05499615370E-01 -5.01574641213E-01
4.11000000000E+09 +3.64189623770E-01 -5.02133751251E-01 -7.88472880007E-04 +7.37044993942E-04 -7.40071414664E-04 +7.19578962714E-04 +4.88999888325E-01 -5.07692032106E-01
4.11500000000E+09 +3.49020390806E-01 -5.02899005040E-01 -1.40237248529E-04 +7.15759348473E-04 -1.98436951040E-04 +6.45099740997E-04 +4.72118399880E-01 -5.12845557626E-01
4.12000000000E+09 +3.33790864453E-01 -5.03091820766E-01 -3.56981044587E-04 +1.59480896997E-04 -3.80705044828E-04 +1.42650532270E-04 +4.55871967602E-01 -5.18037561606E-01
4.12500000000E+09 +3.17712599249E-01 -5.03395526144E-01 -6.31262942944E-04 +3.35193812619E-04 -7.34641453811E-04 +3.15820865768E-04 +4.38303976432E-01 -5.22536849358E-01
4.13000000000E+09 +2.99960820837E-01 -5.04305178056E-01 -7.66285419304E-04 +6.31196470710E-04 -7.52194696304E-04 +6.43096644355E-04 +4.21337375102E-01 -5.25866558057E-01
4.13500000000E+09 +2.79753543117E-01 -5.05315190245E-01 -6.13944931795E-04 +8.14384775301E-04 -6.57909723183E-04 +7.91267750909E-04 +4.03939517252E-01 -5.29355845197E-01
4.14000000000E+09 +2.59421874765E-01 -5.06390439718E-01 -2.43569653649E-04 +1.21624337198E-03 -3.47763916439E-04 +1.21347114102E-03 +3.85329531226E-01 -5.32412620854E-01
4.14500000000E+09 +2.38788311042E-01 -5.08762152988E-01 +3.68148207586E-04 +9.05029961058E-04 +3.44250029643E-04 +9.48023738379E-04 +3.67093579117E-01 -5.34992085805E-01
4.15000000000E+09 +2.18746656630E-01 -5.11910493263E-01 +1.74187164476E-04 +3.13215973957E-04 +1.84493987427E-04 +2.75964961264E-04 +3.48739230936E-01 -5.37215757697E-01
4.15500000000E+09 +1.98449143241E-01 -5.15471594149E-01 -3.94697802341E-04 +4.25246816169E-04 -3.97138360985E-04 +4.66029910496E-04 +3.30432671939E-01 -5.38589102145E-01
4.16000000000E+09 +1.79208181659E-01 -5.17351892141E-01 -2.55197536133E-04 +7.29713069353E-04 -2.32175005285E-04 +7.62981078018E-04 +3.12549155896E-01 -5.39318486494E-01
4.16500000000E+09 +1.61537295724E-01 -5.17764312161E-01 -9.83772086769E-05 +7.51077503032E-04 -8.32302433477E-05 +7.89434131988E-04 +2.94076949948E-01 -5.39196512468E-01
4.17000000000E+09 +1.45019291022E-01 -5.15752739156E-01 +3.86834344273E-05 +1.01756299467E-03 +5.13234305349E-05 +1.08526105177E-03 +2.75490707392E-01 -5.38233734037E-01
4.17500000000E+09 +1.30083649368E-01 -5.12220123070E-01 +2.99794880924E-04 +6.35173724074E-04 +3.07144378990E-04 +6.92276012831E-04 +2.56714542296E-01 -5.36954872865E-01
4.18000000000E+09 +1.15125261831E-01 -5.07731133620E-01 +2.04157438337E-04 +7.29508867989E-04 +2.27605952334E-04 +7.51269131375E-04 +2.37351177976E-01 -5.35426878173E-01
4.18500000000E+09 +9.88118865937E-02 -5.02591166450E-01 +2.27143993478E-04 +5.91861927501E-04 +2.66808817349E-04 +6.35529542037E-04 +2.18183775486E-01 -5.33259756114E-01
4.19000000000E+09 +8.14711302840E-02 -4.96709999946E-01 +2.60120843106E-04 +5.39146033221E-04 +3.52802112025E-04 +4.98689108918E-04 +1.98890135908E-01 -5.30827018200E-01
4.19500000000E+09 +6.29248931684E-02 -4.90443378446E-01 +4.00065836139E-05 +6.78159925686E-04 -1.44628583898E-05 +6.39531272373E-04 +1.79804558797E-01 -5.27499831679E-01
4.20000000000E+09 +4.42801957411E-02 -4.84288601957E-01 +2.12334110177E-04 +9.63103855254E-04 +1.97287521372E-04 +1.03400056918E-03 +1.60228212154E-01 -5.24013964473E-01
4.20500000000E+09 +2.54449354680E-02 -4.79239570664E-01 +6.96654613935E-04 +8.78670972842E-04 +7.38185385721E-04 +9.08752736830E-04 +1.40244520982E-01 -5.18492207422E-01
4.21000000000E+09 +7.13314401007E-03 -4.74229297700E-01 +4.93530427061E-04 +5.52110064018E-04 +4.59624631138E-04 +5.65436067091E-04 +1.20883532781E-01 -5.12905903925E-01
4.21500000000E+09 -1.14348285541E-02 -4.69284210971E-01 +5.14707401650E-04 +7.98745040508E-04 +4.94261377971E-04 +8.22401214717E-04 +1.01479946772E-01 -5.06926591734E-01
4.22000000000E+09 -2.84955136611E-02 -4.61892272722E-01 +9.40905750214E-04 +8.60765632520E-04 +9.46224094074E-04 +9.15179820555E-04 +8.28090367461E-02 -4.99876036085E-01
4.22500000000E+09 -4.36938010949E-02 -4.53076930932E-01 +7.93766785165E-04 +3.85146614022E-04 +8.30137312535E-04 +3.82363453591E-04 +6.44036093782E-02 -4.93217181585E-01
4.23000000000E+09 -5.82924132587E-02 -4.42810518089E-01 +8.29801595845E-04 +5.29069913552E-04 +8.28796546696E-04 +5.54104790860E-04 +4.55529569939E-02 -4.85525158123E-01
4.23500000000E+09 -7.17413635269E-02 -4.30683829760E-01 +6.21245228362E-04 +5.98326070186E-04 +6.39723281657E-04 +6.73783876441E-04 +2.73717283466E-02 -4.76394571758E-01
4.24000000000E+09 -8.55793549726E-02 -4.18730743864E-01 +1.21990055743E-03 +9.44460093260E-04 +1.19133075624E-03 +9.36483533249E-04 +9.34732066702E-03 -4.67186578145E-01
4.24500000000E+09 -1.02584477881E-01 -4.07028664900E-01 +1.87789280973E-03 +6.10614869106E-04 +1.90378643298E-03 +6.47775304515E-04 -8.96176187061E-03 -4.56733534312E-01
4.25000000000E+09 -1.21684153516E-01 -3.93206774047E-01 +1.96304208601E-03 -3.63637850906E-04 +1.93449580462E-03 -3.50649553735E-04 -2.60903499818E-02 -4.45622170434E-01
4.25500000000E+09 -1.40912039592E-01 -3.78766147898E-01 +1.29445789448E-03 -6.78714033991E-04 +1.33127849169E-03 -6.64345226360E-04 -4.35269203113E-02 -4.34677558073E-01
4.26000000000E+09 -1.59589379191E-01 -3.65896976733E-01 +1.00883952368E-03 -5.77270696928E-04 +1.06345602158E-03 -5.44969850129E-04 -6.08742993831E-02 -4.21790707900E-01
4.26500000000E+09 -1.78145369281E-01 -3.53189330717E-01 +1.05404805086E-03 -4.80127664297E-04 +1.10262823495E-03 -4.85655428124E-04 -7.60618085127E-02 -4.08656690553E-01
4.27000000000E+09 -1.94893887577E-01 -3.41983300638E-01 +1.16268538983E-03 -6.44390847731E-04 +1.15049706260E-03 -6.80685113135E-04 -9.23440506861E-02 -3.95853536918E-01
4.27500000000E+09 -2.10460050690E-01 -3.30605103850E-01 +1.06244219085E-03 -5.82441706007E-04 +1.13233664924E-03 -5.92554042690E-04 -1.08423330858E-01 -3.81482960940E-01
4.28000000000E+09 -2.23956094700E-01 -3.18095541096E-01 +1.12273365639E-03 -9.10389280858E-04 +1.12476711904E-03 -9.09547322152E-04 -1.23697341503E-01 -3.67514606760E-01
4.28500000000E+09 -2.35845803068E-01 -3.03919314826E-01 +7.55461407459E-04 -1.00578683500E-03 +7.17309259145E-04 -1.03685021146E-03 -1.39522853117E-01 -3.53154404491E-01
4.29000000000E+09 -2.45225730329E-01 -2.88115423797E-01 +8.45368321864E-04 -9.39388839415E-04 +7.99080614145E-04 -1.00560390304E-03 -1.54742346203E-01 -3.37881418467E-01
4.29500000000E+09 -2.54927660313E-01 -2.70979164947E-01 +5.94090756563E-04 -1.36483056278E-03 +5.64896902745E-04 -1.39073215727E-03 -1.68912857372E-01 -3.21601250522E-01
4.30000000000E+09 -2.64494124728E-01 -2.52228864164E-01 +2.41424544855E-04 -9.93588064811E-04 +2.59144526649E-04 -1.04387458335E-03 -1.81516954488E-01 -3.04869301869E-01
4.30500000000E+09 -2.75314579026E-01 -2.32947466744E-01 +2.96555415777E-04 -1.02139199986E-03 +2.84371031844E-04 -1.05935800962E-03 -1.93654812718E-01 -2.87806966809E-01
4.31000000000E+09 -2.87887745957E-01 -2.12986449285E-01 +4.10742296992E-04 -1.18279755391E-03 +4.47815972428E-04 -1.19493736921E-03 -2.04625796919E-01 -2.70360066993E-01
4.31500000000E+09 -3.00862996359E-01 -1.93169212241E-01 +1.16569370224E-04 -1.17199644679E-03 +1.02894007520E-04 -1.16229106377E-03 -2.15323701994E-01 -2.52917285772E-01
4.32000000000E+09 -3.13595962282E-01 -1.74212670392E-01 +1.09940143369E-04 -1.15490207401E-03 +6.23648207728E-05 -1.19295204412E-03 -2.26306068926E-01 -2.34859933906E-01
4.32500000000E+09 -3.24907821160E-01 -1.56835395437E-01 +1.58200371724E-04 -1.12105782827E-03 +1.41197251252E-04 -1.12180807433E-03 -2.35382004872E-01 -2.16217044964E-01
4.33000000000E+09 -3.34665901653E-01 -1.40806661234E-01 -4.55110008726E-05 -1.30039931332E-03 -6.83279062321E-05 -1.29479639483E-03 -2.45123349756E-01 -1.98043547875E-01
4.33500000000E+09 -3.42099933638E-01 -1.24718042079E-01 +1.11698667990E-04 -1.19222367514E-03 +4.54397080984E-05 -1.19889813211E-03 -2.53848486406E-01 -1.77910923636E-01
4.34000000000E+09 -3.46469635649E-01 -1.09357871526E-01 -2.03791642139E-04 -1.67553371851E-03 -2.11674587261E-04 -1.61628490214E-03 -2.61016276427E-01 -1.57639490060E-01
4.34500000000E+09 -3.49069453343E-01 -9.35277636049E-02 -5.93022750898E-04 -1.40574628909E-03 -5.41369716832E-04 -1.35242195736E-03 -2.68016914800E-01 -1.38014360014E-01
4.35000000000E+09 -3.51248050385E-01 -7.60541624302E-02 -6.03322953043E-04 -1.32404989975E-03 -5.65886277246E-04 -1.31001415066E-03 -2.74463090991E-01 -1.18209896100E-01
4.35500000000E+09 -3.53020164257E-01 -5.60611203383E-02 -7.67495324424E-04 -1.21506188120E-03 -7.93492649265E-04 -1.29454801940E-03 -2.80576302559E-01 -9.87414800862E-02
4.36000000000E+09 -3.54614872549E-01 -3.39617520626E-02 -1.10539492281E-03 -1.56883296096E-03 -1.09099863893E-03 -1.61255704815E-03 -2.85867493267E-01 -7.92706643761E-02
4.36500000000E+09 -3.56679310250E-01 -1.14434026200E-02 -1.53442782959E-03 -1.04292202896E-03 -1.55746895686E-03 -1.03758838694E-03 -2.89864127864E-01 -5.94962236564E-02
4.37000000000E+09 -3.60113073504E-01 +1.12167670932E-02 -1.47137286146E-03 -8.87065182722E-04 -1.49281909681E-03 -8.65045371499E-04 -2.92997276445E-01 -4.05881530578E-02
4.37500000000E+09 -3.64187135358E-01 +3.20561308368E-02 -1.53086124954E-03 -4.79711435635E-04 -1.54215805759E-03 -4.58083147044E-04 -2.96386700362E-01 -2.02032188557E-02
4.38000000000E+09 -3.69861043753E-01 +5.18779481597E-02 -1.43989002869E-03 -3.45985778698E-04 -1.44677819772E-03 -3.81182095084E-04 -2.97948523135E-01 +7.99256606155E-04
4.38500000000E+09 -3.74196526224E-01 +6.99005336661E-02 -1.46971146905E-03 -1.99349767881E-04 -1.48764812261E-03 -1.85216772409E-04 -2.98781325000E-01 +2.10492003229E-02
4.39000000000E+09 -3.77728363992E-01 +8.59161217030E-02 -1.23743339869E-03 -3.08339719028E-04 -1.27874614578E-03 -3.20403287729E-04 -2.99301783723E-01 +4.16012035346E-02
4.39500000000E+09 -3.78348828775E-01 +1.00756966251E-01 -1.49662271235E-03 -2.17867198497E-04 -1.46414414944E-03 -1.99264158264E-04 -2.99857337417E-01 +6.06942398066E-02
4.40000000000E+09 -3.76491613420E-01 +1.14827976646E-01 -1.95344035229E-03 -1.24884306774E-04 -1.93815620846E-03 -1.29921251258E-04 -2.99540241591E-01 +8.07989694600E-02
4.40500000000E+09 -3.73237296130E-01 +1.28684952954E-01 -1.96258236980E-03 +5.57562735618E-04 -1.99179677210E-03 +6.43151330948E-04 -2.97843497254E-01 +1.00256632936E-01
4.41000000000E+09 -3.69128941550E-01 +1.45382745002E-01 -1.50357066858E-03 +1.07811407587E-03 -1.54647332186E-03 +1.07255839932E-03 -2.95669705966E-01 +1.19561087683E-01
4.41500000000E+09 -3.62767555514E-01 +1.64388562330E-01 -9.74655536601E-04 +9.35445272838E-04 -9.31342702065E-04 +9.52596306086E-04 -2.91973684190E-01 +1.39191906335E-01
4.42000000000E+09 -3.56302106873E-01 +1.84859619402E-01 -9.55831663166E-04 +6.95404955598E-04 -9.09929576082E-04 +7.61116190795E-04 -2.87528583739E-01 +1.58536444594E-01
4.42500000000E+09 -3.49759678408E-01 +2.06053082470E-01 -1.07010219281E-03 +3.83717532886E-04 -1.07446532213E-03 +4.35538508580E-04 -2.83053706997E-01 +1.76893387204E-01
4.43000000000E+09 -3.45274078737E-01 +2.26425115576E-01 -1.54433104559E-03 +7.54359713310E-04 -1.50237800321E-03 +8.12949267946E-04 -2.78666466266E-01 +1.94989669442E-01
4.43500000000E+09 -3.42410911449E-01 +2.46080478837E-01 -1.35444867169E-03 +1.43783783815E-03 -1.29907981145E-03 +1.39827676987E-03 -2.74958906462E-01 +2.12799908720E-01
4.44000000000E+09 -3.40983359903E-01 +2.65154611197E-01 -9.27539998310E-04 +1.41366808720E-03 -9.07175839937E-04 +1.38551285176E-03 -2.70146224632E-01 +2.31914987889E-01
4.44500000000E+09 -3.37850831720E-01 +2.82275878540E-01 -6.10445489434E-04 +1.66087718737E-03 -5.57296498904E-04 +1.67049342136E-03 -2.62805943249E-01 +2.49449565484E-01
4.45000000000E+09 -3.33672690503E-01 +2.96186564751E-01 -2.12948416058E-04 +1.39111395756E-03 -1.46043549611E-04 +1.37295678533E-03 -2.55689917574E-01 +2.65738961409E-01
4.45500000000E+09 -3.28285512792E-01 +3.08324644146E-01 -3.55973439005E-04 +1.26275640679E-03 -3.26796310734E-04 +1.24985410774E-03 -2.47661347121E-01 +2.82212686680E-01
4.46000000000E+09 -3.21182050790E-01 +3.19309461427E-01 -1.88355642672E-04 +1.20742449765E-03 -1.60270706546E-04 +1.15229478172E-03 -2.39681515007E-01 +2.97578474208E-01
4.46500000000E+09 -3.13209408064E-01 +3.31129209939E-01 -2.88388159857E-04 +1.41954180148E-03 -2.07695538152E-04 +1.37239999493E-03 -2.31424166028E-01 +3.13013538193E-01
4.47000000000E+09 -3.02847326293E-01 +3.45777461955E-01 -4.83269472641E-05 +1.00557698302E-03 -5.90922708987E-05 +9.93835477511E-04 -2.22739473188E-01 +3.28314250383E-01
4.47500000000E+09 -2.90331011595E-01 +3.61574577641E-01 -4.73685935395E-04 +1.48612679031E-03 -4.43627875728E-04 +1.46922728377E-03 -2.14397396620E-01 +3.43092233297E-01
4.48000000000E+09 -2.78004868619E-01 +3.78033878175E-01 -3.13138822950E-05 +1.83054436630E-03 -6.20104753768E-05 +1.74009997404E-03 -2.05188299193E-01 +3.58206947088E-01
4.48500000000E+09 -2.66403183025E-01 +3.95124438460E-01 +4.71447640056E-04 +1.87643356953E-03 +4.21051333206E-04 +1.83459929964E-03 -1.95233809231E-01 +3.72329970079E-01
4.49000000000E+09 -2.57236643501E-01 +4.11571822576E-01 +9.68547800448E-04 +1.70699682467E-03 +9.38798451073E-04 +1.63885523524E-03 -1.84954800076E-01 +3.85618054206E-01
4.49500000000E+09 -2.50153170668E-01 +4.27319083469E-01 +1.06749029641E-03 +1.04141707274E-03 +1.11903050496E-03 +1.04834685407E-03 -1.74778181159E-01 +3.98410580857E-01
4.50000000000E+09 -2.44555431408E-01 +4.42228445052E-01 +6.67453116812E-04 +1.04653634412E-03 +6.44799304704E-04 +1.05558961647E-03 -1.64134174738E-01 +4.10929228791E-01
4.50500000000E+09 -2.38779681238E-01 +4.54270987971E-01 +7.30099858096E-04 +9.48989698184E-04 +7.44787323108E-04 +9.46868256607E-04 -1.53772807416E-01 +4.23201231945E-01
4.51000000000E+09 -2.33535317255E-01 +4.64102409054E-01 +6.22338183484E-04 +1.36037344937E-03 +6.21037368945E-04 +1.34860313974E-03 -1.42753978833E-01 +4.34922999494E-01
4.51500000000E+09 -2.26345286571E-01 +4.72541205916E-01 +1.18606069722E-03 +1.66481932574E-03 +1.15332699986E-03 +1.63885910451E-03 -1.32465078305E-01 +4.46188911219E-01
4.52000000000E+09 -2.17103647785E-01 +4.79833402606E-01 +1.94962762913E-03 +1.29643332689E-03 +1.90722277320E-03 +1.20855343339E-03 -1.21610317687E-01 +4.57389567961E-01
4.52500000000E+09 -2.05695716872E-01 +4.87117907367E-01 +1.94132799155E-03 +6.90834411264E-04 +1.91031279420E-03 +6.10578597810E-04 -1.09969376595E-01 +4.68240574729E-01
4.53000000000E+09 -1.92221166249E-01 +4.95136406381E-01 +2.00861005474E-03 +3.27444271638E-05 +1.96525190604E-03 -8.51870863441E-06 -9.79841251438E-02 +4.77477645834E-01
4.53500000000E+09 -1.77480978615E-01 +5.04436698875E-01 +1.38993451258E-03 -3.94849697073E-05 +1.37889698769E-03 -1.73816073979E-05 -8.58523471151E-02 +4.87051875554E-01
4.54000000000E+09 -1.62327380995E-01 +5.14604323218E-01 +1.53116169736E-03 +4.88197971006E-06 +1.53500323748E-03 +9.94850839954E-06 -7.32241041025E-02 +4.96084331825E-01
4.54500000000E+09 -1.47948404619E-01 +5.25321930347E-01 +1.50824510873E-03 -1.59783514113E-04 +1.50505408778E-03 -1.76711074223E-04 -6.14865575726E-02 +5.04429401924E-01
4.55000000000E+09 -1.35884281824E-01 +5.36246902596E-01 +1.49185770063E-03 -3.83952326254E-04 +1.40071062052E-03 -4.15688697582E-04 -4.89666001333E-02 +5.13442514031E-01
4.55500000000E+09 -1.25133388575E-01 +5.47096513429E-01 +1.27250049743E-03 -3.53895994948E-04 +1.21491488114E-03 -3.28981596481E-04 -3.73245734111E-02 +5.21778026679E-01
4.56000000000E+09 -1.15617658773E-01 +5.56025619500E-01 +1.34944743363E-03 -3.41764246369E-04 +1.32311316359E-03 -3.33043560743E-04 -2.46358637321E-02 +5.29683827618E-01
4.56500000000E+09 -1.07387754472E-01 +5.63127652130E-01 +1.69272139619E-03 -7.23310969798E-04 +1.64683824593E-03 -7.41370949021E-04 -1.26905797745E-02 +5.36438522749E-01
4.57000000000E+09 -9.92015211839E-02 +5.68742464813E-01 +1.22008996780E-03 -1.31898256422E-03 +1.19338847281E-03 -1.36872315598E-03 -6.38786143613E-04 +5.43477982153E-01
