# Hz S RI R 50
! CMT, C1220, 16058040, 17.2.0/1
! Date: 15/08/2018 12:08:37
! Data: Format (Calibration Info)
! Freq                      S11: Re/Im (F2)                       S21: Re/Im (F2)                       S12: Re/Im (F2)                       S22: Re/Im (F2)            
4.00000000000E+09 +6.55315555041E-01 -3.53563811901E-01 -2.31751681238E-04 -8.58830820660E-04 -2.18910762633E-04 -8.83539582751E-04 +7.66754970853E-01 -3.22316795190E-01
4.00500000000E+09 +6.47170254530E-01 -3.59813847465E-01 -3.35643471925E-04 -6.09323914081E-04 -3.09106357826E-04 -6.61975647887E-04 +7.57278588398E-01 -3.33010051079E-01
4.01000000000E+09 +6.38392018389E-01 -3.65637632308E-01 -1.48800904204E-04 -6.31349780359E-04 -1.20024650078E-04 -5.98201564916E-04 +7.47612547246E-01 -3.43597686597E-01
4.01500000000E+09 +6.28833851984E-01 -3.72512028957E-01 -2.16828768003E-04 -8.46517271088E-04 -1.46660356281E-04 -7.86746395940E-04 +7.37796883369E-01 -3.53489309995E-01
4.02000000000E+09 +6.17987528557E-01 -3.81010983724E-01 -4.63531875605E-04 -8.08373717811E-04 -4.63683947525E-04 -8.40437439106E-04 +7.27531959137E-01 -3.63587671719E-01
4.02500000000E+09 +6.06298092047E-01 -3.90240022686E-01 -7.21379738954E-04 -6.65536736012E-04 -7.24270051922E-04 -7.86070305723E-04 +7.16946923784E-01 -3.73044072813E-01
4.03000000000E+09 +5.94892778024E-01 -4.00222798989E-01 -8.07341473679E-04 -4.09161084848E-04 -8.11737952733E-04 -4.90009993681E-04 +7.06084132986E-01 -3.82637219709E-01
4.03500000000E+09 +5.83798786749E-01 -4.11079161108E-01 -6.67790275111E-04 -3.27397140178E-04 -6.07460114340E-04 -3.65215225081E-04 +6.94775056060E-01 -3.92404835362E-01
4.04000000000E+09 +5.72984195546E-01 -4.21968881366E-01 -6.72129361980E-04 -1.97099318266E-04 -6.94750044541E-04 -3.29941331989E-04 +6.83657115788E-01 -4.02503985221E-01
4.04500000000E+09 +5.62488887621E-01 -4.32122091512E-01 -6.05707293485E-04 -2.61419652934E-04 -6.27193688177E-04 -3.34017262217E-04 +6.71246098146E-01 -4.12500638896E-01
4.05000000000E+09 +5.51550359348E-01 -4.40764046753E-01 -6.38071628856E-04 -2.74238254212E-04 -6.43311752869E-04 -3.79890943871E-04 +6.58898634397E-01 -4.21298416219E-01
4.05500000000E+09 +5.40315941877E-01 -4.47340057266E-01 -7.53592487343E-04 -2.17383805982E-04 -7.43874824213E-04 -3.10282428151E-04 +6.46571932198E-01 -4.29862087434E-01
4.06000000000E+09 +5.28884760359E-01 -4.52236350477E-01 -6.92315474499E-04 -1.83228239992E-04 -7.71503996559E-04 -2.54643131355E-04 +6.33712313883E-01 -4.38109374375E-01
4.06500000000E+09 +5.16289624625E-01 -4.56243756142E-01 -8.98451215553E-04 -1.12799460693E-04 -9.30889647248E-04 -1.22262179429E-04 +6.20430898802E-01 -4.46057312821E-01
4.07000000000E+09 +5.02740711329E-01 -4.60067858681E-01 -8.78801841889E-04 +1.17016335583E-04 -9.76835636246E-04 +7.25952727361E-05 +6.06620023023E-01 -4.54086770776E-01
4.07500000000E+09 +4.87854376011E-01 -4.64560763291E-01 -7.82765421088E-04 +5.66398042222E-05 -8.03612626103E-04 +9.52956375797E-05 +5.92324786809E-01 -4.62117236806E-01
4.08000000000E+09 +4.71473029138E-01 -4.69843206116E-01 -9.85178429985E-04 +1.64715836581E-04 -1.06245728236E-03 +1.77149629626E-04 +5.78367046427E-01 -4.69531309567E-01
4.08500000000E+09 +4.54409326200E-01 -4.75343660148E-01 -9.05523711075E-04 +4.36859697368E-04 -9.77837364592E-04 +4.88907356051E-04 +5.64243880882E-01 -4.77231197021E-01
4.09000000000E+09 +4.37586736042E-01 -4.81665426344E-01 -5.24030032331E-04 +3.40246404065E-04 -5.50150009238E-04 +3.99536022255E-04 +5.49765899583E-01 -4.83639772122E-01
4.09500000000E+09 +4.21167188472E-01 -4.88737548718E-01 -8.26532635833E-04 +2.10884099042E-04 -8.12836992405E-04 +2.91991302108E-04 +5.35707299045E-01 -4.90182511355E-01
4.10000000000E+09 +4.04002890305E-01 -4.95556728684E-01 -8.86404510805E-04 +4.05415821791E-04 -9.28194137728E-04 +4.45984580990E-04 +5.19614971905E-01 -4.96510001427E-01
4.10500000000E+09 +3.87159499668E-01 -5.00039433199E-01 -9.44060218619E-04 +7.40860589205E-04 -9.68312562535E-04 +7.89301880829E-04 +5.03743336977E-01 -5.02022180996E-01
4.11000000000E+09 +3.70897331292E-01 -5.02587240469E-01 -8.26860683885E-04 +9.87298375156E-04 -8.13033492417E-04 +1.03739700057E-03 +4.86924185574E-01 -5.08009668767E-01
4.11500000000E+09 +3.55815497718E-01 -5.03485991054E-01 -2.54619660149E-04 +1.16668994315E-03 -2.35131191243E-04 +1.22908442373E-03 +4.69852236346E-01 -5.12714175272E-01
4.12000000000E+09 +3.40272760789E-01 -5.04112823485E-01 -2.44177492883E-04 +6.74902813783E-04 -1.87518730472E-04 +6.19807749147E-04 +4.53827960419E-01 -5.17751208134E-01
4.12500000000E+09 +3.23800627669E-01 -5.04514436235E-01 -4.11535591366E-04 +7.51288252573E-04 -3.99919012603E-04 +7.30402959099E-04 +4.36570568620E-01 -5.22406021298E-01
4.13000000000E+09 +3.05585602305E-01 -5.05846968658E-01 -5.44647903327E-04 +8.90853346184E-04 -5.17677529606E-04 +8.02586611525E-04 +4.19624205355E-01 -5.25798436261E-01
4.13500000000E+09 +2.85259028990E-01 -5.07488293286E-01 -4.12652056709E-04 +1.16730651648E-03 -4.16344785315E-04 +1.04493269570E-03 +4.02139910140E-01 -5.29359742335E-01
4.14000000000E+09 +2.64282342382E-01 -5.09102780430E-01 -6.07483853321E-05 +1.43466829974E-03 -1.07467836959E-04 +1.42591003938E-03 +3.83531141051E-01 -5.32298973489E-01
4.14500000000E+09 +2.43718056892E-01 -5.11942265672E-01 +4.24567599454E-04 +1.25748477269E-03 +3.96694885467E-04 +1.25024196725E-03 +3.65236328485E-01 -5.34834539166E-01
4.15000000000E+09 +2.23372202471E-01 -5.15620560376E-01 +4.38850881925E-04 +8.10091554181E-04 +3.83894224630E-04 +7.86614634511E-04 +3.46653325064E-01 -5.36993517753E-01
4.15500000000E+09 +2.03481191132E-01 -5.19450558547E-01 +1.21398707007E-04 +9.10895212828E-04 +6.19370587364E-05 +8.50996965933E-04 +3.28450769255E-01 -5.37951078104E-01
4.16000000000E+09 +1.84395494025E-01 -5.21711137399E-01 +3.25567011669E-04 +1.09948957614E-03 +2.51814264758E-04 +1.09420059897E-03 +3.10710532608E-01 -5.38483502122E-01
4.16500000000E+09 +1.66793531543E-01 -5.22204128190E-01 +5.87514508478E-04 +9.77985519310E-04 +4.89988391044E-04 +1.04945338074E-03 +2.92441845863E-01 -5.38428056776E-01
4.17000000000E+09 +1.50456617569E-01 -5.20577964808E-01 +7.75891722902E-04 +1.05190708873E-03 +7.30047585130E-04 +1.14016197455E-03 +2.73768696302E-01 -5.37563865878E-01
4.17500000000E+09 +1.34948701222E-01 -5.17210660866E-01 +9.19604583124E-04 +5.72818606643E-04 +9.55447391211E-04 +6.86588376156E-04 +2.54937671408E-01 -5.35886092881E-01
4.18000000000E+09 +1.19259803331E-01 -5.12360415027E-01 +7.62895405574E-04 +4.78466659073E-04 +7.28550907438E-04 +6.14281998524E-04 +2.35702588871E-01 -5.34304951196E-01
4.18500000000E+09 +1.02937861438E-01 -5.06969357968E-01 +6.03314094376E-04 +5.71295001565E-04 +6.26163467485E-04 +6.80355809234E-04 +2.16838552464E-01 -5.32066302836E-01
4.19000000000E+09 +8.51584296288E-02 -5.01196104435E-01 +8.08790979266E-04 +6.17324641497E-04 +8.48475866633E-04 +7.25427179663E-04 +1.97953809152E-01 -5.29658218136E-01
4.19500000000E+09 +6.64086932763E-02 -4.95314416948E-01 +8.81397235480E-04 +7.13361910545E-04 +9.48526282763E-04 +6.94130615559E-04 +1.78857240665E-01 -5.26408421202E-01
4.20000000000E+09 +4.70787155424E-02 -4.89929363108E-01 +1.17539215918E-03 +6.18475607621E-04 +1.29492417124E-03 +6.95972190473E-04 +1.59563260162E-01 -5.22783556037E-01
4.20500000000E+09 +2.74040664541E-02 -4.85134628940E-01 +1.44942671046E-03 +1.22553539670E-04 +1.61736000684E-03 +1.46863695710E-04 +1.39960312286E-01 -5.17365487116E-01
4.21000000000E+09 +8.62729183060E-03 -4.80252227466E-01 +9.35464971464E-04 -2.67959685460E-04 +1.06534962606E-03 -3.12867019376E-04 +1.20559706165E-01 -5.12179753057E-01
4.21500000000E+09 -9.88173706280E-03 -4.75126413902E-01 +6.86285869394E-04 +1.52423407606E-04 +7.85184784298E-04 +9.00430327008E-05 +1.01038624879E-01 -5.06249746025E-01
4.22000000000E+09 -2.69021046656E-02 -4.68071335774E-01 +1.22255938492E-03 +2.93667963177E-04 +1.29287249365E-03 +2.27598602173E-04 +8.25047542271E-02 -4.99389278398E-01
4.22500000000E+09 -4.20164459558E-02 -4.59612340912E-01 +1.12748670786E-03 -2.18536602302E-04 +1.18738360792E-03 -3.06500042530E-04 +6.42467782089E-02 -4.93092142755E-01
4.23000000000E+09 -5.67581871412E-02 -4.49914254417E-01 +1.13955131905E-03 -2.37268888520E-04 +1.15025424272E-03 -3.29124160836E-04 +4.53802687222E-02 -4.85506723044E-01
4.23500000000E+09 -7.15218589809E-02 -4.38306749573E-01 +9.07207942801E-04 -2.08508063183E-04 +8.27040088327E-04 -2.88554839543E-04 +2.71864690258E-02 -4.76657352520E-01
4.24000000000E+09 -8.65657382350E-02 -4.25505006012E-01 +1.23558748385E-03 -2.62596767176E-04 +1.24612729505E-03 -2.51037227642E-04 +8.85926375448E-03 -4.67491499375E-01
4.24500000000E+09 -1.03608512808E-01 -4.12796752485E-01 +1.45610452471E-03 -4.42571160773E-04 +1.42538632472E-03 -5.07373286206E-04 -9.54542218367E-03 -4.56886348292E-01
4.25000000000E+09 -1.22902206139E-01 -3.99129397538E-01 +1.37199196236E-03 -9.78272672450E-04 +1.31536199629E-03 -1.03356183399E-03 -2.67944991017E-02 -4.45713714363E-01
4.25500000000E+09 -1.42980723696E-01 -3.84820473750E-01 +1.11702057177E-03 -1.21424595849E-03 +1.04453088123E-03 -1.13540711428E-03 -4.42453229048E-02 -4.34931938389E-01
4.26000000000E+09 -1.62380195157E-01 -3.71614042112E-01 +8.16591833928E-04 -1.25060805206E-03 +7.71940365154E-04 -1.21932983058E-03 -6.16664531823E-02 -4.22166057373E-01
4.26500000000E+09 -1.81807196524E-01 -3.58871218029E-01 +6.95105478514E-04 -1.28741189124E-03 +6.02811019559E-04 -1.23599467658E-03 -7.71633340265E-02 -4.09174104631E-01
4.27000000000E+09 -1.99138420842E-01 -3.46467448212E-01 +4.62280721648E-04 -1.29902673902E-03 +4.57399434793E-04 -1.23800803657E-03 -9.32160021583E-02 -3.96277913820E-01
4.27500000000E+09 -2.14360740179E-01 -3.34201105117E-01 +4.90726772497E-04 -1.13137304598E-03 +5.04060647482E-04 -9.91745467874E-04 -1.09356972121E-01 -3.82143689816E-01
4.28000000000E+09 -2.27558170656E-01 -3.21667064435E-01 +4.91916731779E-04 -1.47123251435E-03 +5.88846631910E-04 -1.43566980663E-03 -1.24822468804E-01 -3.68159236065E-01
4.28500000000E+09 -2.39508687880E-01 -3.07383406235E-01 +1.12153796848E-04 -1.46587676566E-03 +1.39489690538E-04 -1.47732905539E-03 -1.40672563898E-01 -3.53694051274E-01
4.29000000000E+09 -2.49903088169E-01 -2.90964543464E-01 +1.31548658912E-04 -1.44398766819E-03 +1.35832911429E-04 -1.47257316758E-03 -1.56216165103E-01 -3.38400600629E-01
4.29500000000E+09 -2.59815899912E-01 -2.72764458301E-01 -1.86439356353E-04 -1.70612404354E-03 -8.53464928200E-05 -1.74011492538E-03 -1.70410400566E-01 -3.22146655128E-01
4.30000000000E+09 -2.69831093673E-01 -2.53187479104E-01 -4.07571759456E-04 -1.48651148525E-03 -3.72677741075E-04 -1.49228556104E-03 -1.82962518117E-01 -3.05514669752E-01
4.30500000000E+09 -2.80965509538E-01 -2.33009192406E-01 -6.66419976871E-04 -1.55780838925E-03 -6.81459303290E-04 -1.59642165226E-03 -1.95085680936E-01 -2.88838029789E-01
4.31000000000E+09 -2.93493095989E-01 -2.12598709195E-01 -7.70957931654E-04 -1.37407498382E-03 -8.02410977880E-04 -1.45613783759E-03 -2.06441028422E-01 -2.71773979245E-01
4.31500000000E+09 -3.06592825519E-01 -1.92929642828E-01 -1.08438166166E-03 -1.26086403181E-03 -1.15887618704E-03 -1.27816536649E-03 -2.17867954598E-01 -2.54454764873E-01
4.32000000000E+09 -3.20177262353E-01 -1.74089193400E-01 -1.26498534129E-03 -8.88833303038E-04 -1.28439789171E-03 -9.33407685146E-04 -2.29289433207E-01 -2.35940530149E-01
4.32500000000E+09 -3.31963912740E-01 -1.55958574799E-01 -9.13229628235E-04 -6.29122557357E-04 -9.47728529060E-04 -6.87035498852E-04 -2.38993642886E-01 -2.16660292894E-01
4.33000000000E+09 -3.41206279294E-01 -1.39348541512E-01 -1.06549027813E-03 -9.48793283417E-04 -1.11604670154E-03 -9.88627732674E-04 -2.48571338642E-01 -1.97897039029E-01
4.33500000000E+09 -3.48131616901E-01 -1.23443431842E-01 -1.23978636472E-03 -6.66988283563E-04 -1.32802359976E-03 -6.83569096955E-04 -2.57310420256E-01 -1.77586469264E-01
4.34000000000E+09 -3.52440332225E-01 -1.07701373734E-01 -1.28579435733E-03 -6.76352785366E-04 -1.29564277521E-03 -6.44289759730E-04 -2.64357069009E-01 -1.57448552061E-01
4.34500000000E+09 -3.54521708981E-01 -9.10748450721E-02 -1.54421081733E-03 -4.58118362373E-04 -1.54491466160E-03 -4.44791283030E-04 -2.71952700401E-01 -1.37475890250E-01
4.35000000000E+09 -3.55665946529E-01 -7.31137622607E-02 -1.56404277140E-03 -1.24093678664E-04 -1.57399882753E-03 -4.97533930340E-05 -2.78405319300E-01 -1.17266287029E-01
4.35500000000E+09 -3.57170886126E-01 -5.27509951106E-02 -1.33121429644E-03 +2.07997861081E-04 -1.36253152672E-03 +1.82198409946E-04 -2.84552630932E-01 -9.70544230263E-02
4.36000000000E+09 -3.58856617746E-01 -2.99906903837E-02 -1.30521280328E-03 -1.13962919589E-04 -1.32879074912E-03 -7.20923542588E-05 -2.89742077485E-01 -7.70788098531E-02
4.36500000000E+09 -3.60869331123E-01 -6.22350273391E-03 -1.56401514247E-03 +3.53706420725E-04 -1.61055566262E-03 +3.67708794346E-04 -2.93589843665E-01 -5.67293700346E-02
4.37000000000E+09 -3.63801238619E-01 +1.72530746028E-02 -1.27193783878E-03 +5.06220443946E-04 -1.35305769805E-03 +5.05408769000E-04 -2.96111419986E-01 -3.74183804024E-02
4.37500000000E+09 -3.67600306652E-01 +3.86435141962E-02 -1.28901614348E-03 +8.84748504128E-04 -1.32836458521E-03 +8.50742957325E-04 -2.99147206467E-01 -1.71741636328E-02
4.38000000000E+09 -3.72630860497E-01 +5.82200162892E-02 -9.35480587350E-04 +8.67254280227E-04 -9.26335888866E-04 +9.24325115469E-04 -3.00549323372E-01 +3.71470422562E-03
4.38500000000E+09 -3.77202322167E-01 +7.57368411724E-02 -7.32352649138E-04 +7.31590372622E-04 -7.63086205895E-04 +7.32903856497E-04 -3.01468732034E-01 +2.38650883910E-02
4.39000000000E+09 -3.80905526502E-01 +9.16465406850E-02 -1.00642018981E-03 +5.24232665125E-04 -8.95387825270E-04 +5.93836967330E-04 -3.01837234154E-01 +4.47307702307E-02
4.39500000000E+09 -3.81304202106E-01 +1.06777873285E-01 -1.00624445388E-03 +1.06393804896E-03 -9.92727491905E-04 +1.05798806698E-03 -3.02174213934E-01 +6.39208315471E-02
4.40000000000E+09 -3.78711593220E-01 +1.20853494178E-01 -6.80562113822E-04 +1.02290443000E-03 -6.78343120736E-04 +1.00550549382E-03 -3.01586668934E-01 +8.43447491269E-02
4.40500000000E+09 -3.74559718017E-01 +1.35011933047E-01 -7.52387105395E-04 +1.04631333368E-03 -7.01413137452E-04 +1.11965021061E-03 -2.99642467818E-01 +1.03952464495E-01
4.41000000000E+09 -3.69333161336E-01 +1.51503802490E-01 -5.39196436635E-04 +1.37313819224E-03 -4.72475887880E-04 +1.40099801735E-03 -2.97151121913E-01 +1.23291497591E-01
4.41500000000E+09 -3.62615454359E-01 +1.70671747956E-01 -1.45101616181E-04 +1.11605855258E-03 -1.07703795123E-04 +1.08182838015E-03 -2.93424066063E-01 +1.42844533640E-01
4.42000000000E+09 -3.55413773256E-01 +1.91691418359E-01 -2.38441677340E-04 +1.12340382523E-03 -2.32646497291E-04 +1.08623039341E-03 -2.89137340817E-01 +1.62137882272E-01
4.42500000000E+09 -3.48233634877E-01 +2.13256104735E-01 -9.20040589217E-05 +1.00694800876E-03 -7.73043261290E-05 +9.65279914703E-04 -2.84566031672E-01 +1.80829057434E-01
4.43000000000E+09 -3.43186951279E-01 +2.33955600792E-01 -3.72570131503E-04 +1.06646236658E-03 -3.62024017887E-04 +1.05629343745E-03 -2.80103581025E-01 +1.99074469664E-01
4.43500000000E+09 -3.39974858403E-01 +2.53827825391E-01 -2.52631606529E-04 +1.37204123322E-03 -2.46381264057E-04 +1.36020316510E-03 -2.75801124581E-01 +2.17245300798E-01
4.44000000000E+09 -3.38100813990E-01 +2.73131631987E-01 +1.40460551766E-04 +1.50996337218E-03 +1.35254848440E-04 +1.49819431285E-03 -2.70385846203E-01 +2.36476337192E-01
4.44500000000E+09 -3.34624105819E-01 +2.90123871252E-01 +6.35162978763E-04 +1.57984509827E-03 +6.23360713155E-04 +1.54433489956E-03 -2.62776651008E-01 +2.53915856584E-01
4.45000000000E+09 -3.30348016709E-01 +3.03685688794E-01 +9.65770665306E-04 +1.01467703192E-03 +9.47187215324E-04 +1.02965728944E-03 -2.55564957438E-01 +2.70309810617E-01
4.45500000000E+09 -3.25009001016E-01 +3.15867477813E-01 +7.31408216402E-04 +7.89638231954E-04 +7.12074522447E-04 +7.76448851150E-04 -2.47031450392E-01 +2.86685037168E-01
4.46000000000E+09 -3.17368398170E-01 +3.26933437463E-01 +6.49502696044E-04 +6.48742023910E-04 +6.58221516439E-04 +6.01812975719E-04 -2.38782485497E-01 +3.01955328584E-01
4.46500000000E+09 -3.08468623227E-01 +3.38231495706E-01 +4.66690212219E-04 +8.16950618774E-04 +5.08059054495E-04 +8.44583880016E-04 -2.29860319636E-01 +3.17105724706E-01
4.47000000000E+09 -2.97982749007E-01 +3.52062269050E-01 +8.66202224326E-04 +6.93239283812E-04 +8.89866637977E-04 +7.12070781984E-04 -2.21061185220E-01 +3.31842379788E-01
4.47500000000E+09 -2.85519454984E-01 +3.67982900808E-01 +6.85080689280E-04 +6.82194968514E-04 +7.07028763246E-04 +6.91788425874E-04 -2.12457728061E-01 +3.46275172978E-01
4.48000000000E+09 -2.72213532678E-01 +3.84576979458E-01 +8.66257839217E-04 +5.37115371958E-04 +8.60882602316E-04 +5.18703141573E-04 -2.03524859401E-01 +3.61160363442E-01
4.48500000000E+09 -2.60311285176E-01 +4.01297005442E-01 +7.96994417062E-04 +6.34684168319E-04 +7.93555634837E-04 +5.95574653522E-04 -1.93457535851E-01 +3.75428576528E-01
4.49000000000E+09 -2.50222985479E-01 +4.17450874311E-01 +1.11689446469E-03 +6.15312994608E-04 +1.16042136266E-03 +5.29111582218E-04 -1.82966700796E-01 +3.88495621698E-01
4.49500000000E+09 -2.42998173932E-01 +4.32583696175E-01 +1.33736927668E-03 +1.24790460344E-04 +1.32931245655E-03 +1.09629716701E-04 -1.72787242677E-01 +4.01054182189E-01
4.50000000000E+09 -2.37521006406E-01 +4.46842485853E-01 +8.53183583367E-04 -2.86862394590E-05 +8.43343987704E-04 -4.81847198097E-05 -1.62180753445E-01 +4.13538747101E-01
4.50500000000E+09 -2.31976192203E-01 +4.59104075531E-01 +8.41612053315E-04 -6.46452222990E-05 +8.11964650936E-04 -6.33149784097E-05 -1.51671660363E-01 +4.25394925415E-01
4.51000000000E+09 -2.26066265815E-01 +4.68747807707E-01 +6.06732000999E-04 +2.05912073928E-04 +6.42714911438E-04 +1.28435078555E-04 -1.40901003839E-01 +4.37122476307E-01
4.51500000000E+09 -2.18594916021E-01 +4.76714533999E-01 +8.80606636832E-04 +2.16424979182E-04 +8.99853907426E-04 +1.76756813983E-04 -1.30497126419E-01 +4.48607862457E-01
4.52000000000E+09 -2.09325885497E-01 +4.83447664217E-01 +1.08780331065E-03 +3.19311195680E-05 +1.04645279287E-03 -3.46633379709E-06 -1.19397731132E-01 +4.59559161064E-01
4.52500000000E+09 -1.97389105995E-01 +4.90589220606E-01 +1.12121781753E-03 -5.65403353567E-05 +1.06233218099E-03 -3.48165287862E-05 -1.07737356112E-01 +4.70115766954E-01
4.53000000000E+09 -1.83627347593E-01 +4.97706015177E-01 +1.37984558219E-03 -4.74344232535E-04 +1.28490707814E-03 -5.06865444000E-04 -9.56618691315E-02 +4.79328373452E-01
4.53500000000E+09 -1.69025633130E-01 +5.06359723720E-01 +7.94738779128E-04 -5.66301688891E-04 +7.20579068559E-04 -5.80497275617E-04 -8.34356856791E-02 +4.88899224155E-01
4.54000000000E+09 -1.53896726292E-01 +5.16152034001E-01 +8.43670305435E-04 -4.41150973953E-04 +7.79359037342E-04 -4.20393422904E-04 -7.07025124198E-02 +4.97645840572E-01
4.54500000000E+09 -1.39621308130E-01 +5.26531316503E-01 +1.04791483417E-03 -5.24160904815E-04 +9.81607257807E-04 -4.93329896054E-04 -5.90289527017E-02 +5.05698718869E-01
4.55000000000E+09 -1.27169880992E-01 +5.36969223718E-01 +9.58679993082E-04 -8.96662279759E-04 +8.69853151185E-04 -8.51705573701E-04 -4.66853586649E-02 +5.14422204407E-01
4.55500000000E+09 -1.16659773595E-01 +5.47297227399E-01 +5.04756347747E-04 -9.04695170791E-04 +5.21567564799E-04 -8.22368080978E-04 -3.50328580319E-02 +5.22926137252E-01
4.56000000000E+09 -1.07002009468E-01 +5.55955662915E-01 +4.97524309233E-04 -7.22412239199E-04 +4.79972537494E-04 -6.67149988096E-04 -2.20922083770E-02 +5.30415096551E-01
4.56500000000E+09 -9.84389235509E-02 +5.62533640017E-01 +8.15288046680E-04 -8.14901475339E-04 +7.50791223122E-04 -7.44593374827E-04 -1.01959994526E-02 +5.36910920107E-01
4.57000000000E+09 -9.02581206512E-02 +5.67356043486E-01 +6.19124980444E-04 -1.21446755546E-03 +5.57387187145E-04 -1.22061999964E-03 +1.73426822208E-03 +5.43949225168E-01
