# Hz S RI R 50
! CMT, C1220, 16058040, 17.2.0/1
! Date: 15/08/2018 12:13:31
! Data: Format (Calibration Info)
! Freq                      S11: Re/Im (F2)                       S21: Re/Im (F2)                       S12: Re/Im (F2)                       S22: Re/Im (F2)            
4.00000000000E+09 +6.52786200282E-01 -3.51891284783E-01 -2.10073830010E-05 -5.42947458744E-04 -1.13791280687E-05 -5.61674597888E-04 +7.67247499976E-01 -3.22300356457E-01
4.00500000000E+09 +6.44825745037E-01 -3.58027036573E-01 -5.56731534346E-05 -3.35000869397E-04 -5.54722232600E-05 -3.22911350930E-04 +7.58143034251E-01 -3.32897896031E-01
4.01000000000E+09 +6.36207938760E-01 -3.63660697513E-01 +2.02887653025E-04 -4.00181670227E-04 +1.82121789904E-04 -3.55127127227E-04 +7.48527673755E-01 -3.43363108189E-01
4.01500000000E+09 +6.26484479061E-01 -3.70410728803E-01 +1.75796977753E-04 -6.83963690075E-04 +9.67725715151E-05 -7.15094948417E-04 +7.38874912318E-01 -3.53292671127E-01
4.02000000000E+09 +6.15590773306E-01 -3.78234020456E-01 -2.81419983440E-04 -6.73093499120E-04 -2.22701346498E-04 -7.19555740383E-04 +7.28329147990E-01 -3.63579987900E-01
4.02500000000E+09 +6.04037572177E-01 -3.87079277164E-01 -3.09884683743E-04 -4.52838999056E-04 -3.60358869945E-04 -5.02363354922E-04 +7.17357957534E-01 -3.72887616370E-01
4.03000000000E+09 +5.92885652026E-01 -3.97126745848E-01 -3.16045488946E-04 -3.30151645446E-04 -2.93687929318E-04 -3.21929927938E-04 +7.06660442309E-01 -3.82297709136E-01
4.03500000000E+09 +5.81744109429E-01 -4.08256809366E-01 -1.61503091662E-04 -4.00863652171E-04 -1.64695956964E-04 -3.73446056590E-04 +6.95378980667E-01 -3.92168470780E-01
4.04000000000E+09 +5.70694930104E-01 -4.19417979679E-01 -2.14346772134E-04 -3.16381655538E-04 -2.42390561842E-04 -3.40997246805E-04 +6.84202941280E-01 -4.02190007250E-01
4.04500000000E+09 +5.60292319311E-01 -4.29669972756E-01 -1.83018353079E-04 -4.32314822410E-04 -1.47631494175E-04 -4.57205451817E-04 +6.72191973554E-01 -4.12094927884E-01
4.05000000000E+09 +5.49684893277E-01 -4.38527937179E-01 -1.40450578422E-04 -5.22596099923E-04 -1.06611218604E-04 -5.25548249105E-04 +6.59909465491E-01 -4.20809184833E-01
4.05500000000E+09 +5.38935239501E-01 -4.45090956418E-01 -4.61371790372E-04 -7.16627978269E-04 -4.09915120089E-04 -7.71261110066E-04 +6.47710801838E-01 -4.29433235820E-01
4.06000000000E+09 +5.28100025547E-01 -4.50239795017E-01 -6.41124606009E-04 -5.56962402523E-04 -6.55444614203E-04 -6.02305581510E-04 +6.34776649112E-01 -4.37637167219E-01
4.06500000000E+09 +5.16043764006E-01 -4.54417376376E-01 -8.03594453420E-04 -4.38175593061E-04 -7.99842010487E-04 -4.92355994527E-04 +6.21196942773E-01 -4.45650461697E-01
4.07000000000E+09 +5.02983889278E-01 -4.58094817990E-01 -8.16582958789E-04 -1.78145148882E-04 -7.85144520185E-04 -1.69106225434E-04 +6.07345062856E-01 -4.53532863407E-01
4.07500000000E+09 +4.88463396072E-01 -4.62453462007E-01 -7.57250286180E-04 -1.21087604375E-05 -7.26243727147E-04 -7.70772057146E-05 +5.93397757588E-01 -4.61567948160E-01
4.08000000000E+09 +4.72126376972E-01 -4.67307085540E-01 -7.45972933917E-04 -8.39172838867E-07 -7.57626284754E-04 +5.16404220738E-06 +5.79624302144E-01 -4.69113970232E-01
4.08500000000E+09 +4.55541819720E-01 -4.72496115502E-01 -7.43158776326E-04 +1.00192798593E-04 -7.58047864772E-04 +5.56298805215E-05 +5.65493838475E-01 -4.76856691204E-01
4.09000000000E+09 +4.39170002952E-01 -4.79067184297E-01 -5.87956074614E-04 -4.29687251450E-05 -5.59805219741E-04 -5.46088006127E-05 +5.50983129664E-01 -4.83145166758E-01
4.09500000000E+09 +4.22552194505E-01 -4.86554254704E-01 -9.53106533792E-04 -9.22663423859E-06 -9.42120806238E-04 -6.69103041350E-05 +5.36992366872E-01 -4.89565241658E-01
4.10000000000E+09 +4.05016318336E-01 -4.93766448450E-01 -1.15622138035E-03 +2.77149708418E-04 -1.12321263135E-03 +3.00085731873E-04 +5.20750203993E-01 -4.95868772626E-01
4.10500000000E+09 +3.88128066991E-01 -4.98446467018E-01 -1.03224777789E-03 +8.24361175337E-04 -1.06561405644E-03 +8.76820378821E-04 +5.04741360796E-01 -5.01208912251E-01
4.11000000000E+09 +3.72026687520E-01 -5.01348012439E-01 -6.13494182318E-04 +1.04127275831E-03 -6.11322177239E-04 +1.02764568847E-03 +4.88284113496E-01 -5.07176129461E-01
4.11500000000E+09 +3.57209991126E-01 -5.02507940528E-01 +1.68943382103E-05 +9.33305891053E-04 -2.96933657776E-05 +9.41278561446E-04 +4.71376185643E-01 -5.12161015441E-01
4.12000000000E+09 +3.42143659430E-01 -5.03341383018E-01 -5.95398547819E-05 +2.32081867856E-04 -4.76683307787E-05 +2.13076602574E-04 +4.55467541065E-01 -5.17125574153E-01
4.12500000000E+09 +3.26221131198E-01 -5.03963034534E-01 -5.15413914046E-04 +2.36597898133E-04 -5.29417129429E-04 +3.03041666227E-04 +4.38043974309E-01 -5.21772313837E-01
4.13000000000E+09 +3.08668538259E-01 -5.05308433178E-01 -6.63489837480E-04 +6.59774851482E-04 -7.12376613246E-04 +6.74221996306E-04 +4.21300347229E-01 -5.24921637418E-01
4.13500000000E+09 +2.88784162713E-01 -5.07038124972E-01 -5.66342321912E-04 +9.49036839286E-04 -5.95164424429E-04 +9.76560514522E-04 +4.03993180035E-01 -5.28543058480E-01
4.14000000000E+09 +2.68294682395E-01 -5.08426567850E-01 -9.92637232209E-05 +1.26103203600E-03 -1.74618094483E-04 +1.31901695513E-03 +3.85495079587E-01 -5.31584785130E-01
4.14500000000E+09 +2.48285450729E-01 -5.11436743759E-01 +4.12187590268E-04 +1.06269481685E-03 +4.13302283732E-04 +1.06685061229E-03 +3.67267796977E-01 -5.34029453224E-01
4.15000000000E+09 +2.27771733341E-01 -5.15670664341E-01 +3.80935374014E-04 +4.59239608032E-04 +4.09450545867E-04 +5.26093319129E-04 +3.49051437898E-01 -5.36191058382E-01
4.15500000000E+09 +2.07356783238E-01 -5.19625584649E-01 +2.32821288570E-05 +5.51291760895E-04 +6.92658415308E-05 +6.15385229749E-04 +3.30825058523E-01 -5.37468133465E-01
4.16000000000E+09 +1.88175233025E-01 -5.22066652178E-01 -5.28464601883E-06 +6.20194126393E-04 +2.56901687897E-05 +6.77736596963E-04 +3.13279648748E-01 -5.38075578872E-01
4.16500000000E+09 +1.70271753397E-01 -5.23085489238E-01 +1.22127405377E-04 +7.46560658725E-04 +1.68574300005E-04 +7.56169864383E-04 +2.95117006756E-01 -5.38018726497E-01
4.17000000000E+09 +1.53869831199E-01 -5.22080525597E-01 +2.79179331302E-04 +9.58965520297E-04 +2.65690667518E-04 +9.48902023641E-04 +2.76582983598E-01 -5.37140327929E-01
4.17500000000E+09 +1.38246109090E-01 -5.19533104256E-01 +4.84175535063E-04 +6.31562339214E-04 +4.83468116241E-04 +6.66479505337E-04 +2.58087356130E-01 -5.35949174570E-01
4.18000000000E+09 +1.22443371822E-01 -5.15568044132E-01 +3.85525371745E-04 +8.10722049592E-04 +4.13047775350E-04 +7.96389370636E-04 +2.38725895210E-01 -5.34583753680E-01
4.18500000000E+09 +1.05856828209E-01 -5.10737118048E-01 +6.03737742757E-04 +7.85607498893E-04 +5.89047271867E-04 +7.82766947588E-04 +2.19727579848E-01 -5.32386142451E-01
4.19000000000E+09 +8.82578969614E-02 -5.05137136816E-01 +6.98797714692E-04 +6.08743745013E-04 +7.12705533964E-04 +5.94116117411E-04 +2.00727882701E-01 -5.30011075944E-01
4.19500000000E+09 +6.98121879674E-02 -4.99649819162E-01 +6.04321137697E-04 +7.58606005306E-04 +5.76198145546E-04 +7.52516693944E-04 +1.81773624141E-01 -5.26800175571E-01
4.20000000000E+09 +5.04212772598E-02 -4.94562473517E-01 +9.68584654550E-04 +7.86465911415E-04 +9.73934069654E-04 +7.72981429002E-04 +1.62400155167E-01 -5.23406785015E-01
4.20500000000E+09 +3.09030417550E-02 -4.90176698486E-01 +1.16492477988E-03 +4.19187325547E-04 +1.18996977422E-03 +4.22472612487E-04 +1.42831643801E-01 -5.18038154760E-01
4.21000000000E+09 +1.13596829093E-02 -4.85692160005E-01 +1.02116543013E-03 +1.70126812708E-04 +1.00113175943E-03 +1.97941976181E-04 +1.23583357285E-01 -5.12963365648E-01
4.21500000000E+09 -7.56336895037E-03 -4.80383338077E-01 +1.01390361025E-03 +3.36240220222E-04 +9.91621118929E-04 +3.38534253362E-04 +1.04145204842E-01 -5.07165810004E-01
4.22000000000E+09 -2.49265983940E-02 -4.73297705610E-01 +1.40892753795E-03 +2.51519189238E-04 +1.43500638906E-03 +2.85252998220E-04 +8.55170396018E-02 -5.00323661836E-01
4.22500000000E+09 -4.03800315374E-02 -4.65291966999E-01 +1.43120799287E-03 -3.12604697620E-04 +1.47545135507E-03 -3.33588721589E-04 +6.74899457670E-02 -4.94004359286E-01
4.23000000000E+09 -5.55341227846E-02 -4.55894700726E-01 +1.10175619414E-03 -5.53463605411E-04 +1.12793027458E-03 -5.08477100714E-04 +4.85503495325E-02 -4.86839365162E-01
4.23500000000E+09 -7.06400796764E-02 -4.44503744956E-01 +7.73218855897E-04 -3.12028841440E-04 +8.11494002301E-04 -3.05042255893E-04 +3.01995791985E-02 -4.78013227576E-01
4.24000000000E+09 -8.59770302709E-02 -4.32345823864E-01 +1.17953858374E-03 -2.22914107010E-04 +1.24628677824E-03 -2.17081262160E-04 +1.20466855115E-02 -4.69059625338E-01
4.24500000000E+09 -1.03467721605E-01 -4.19558958024E-01 +1.54576089691E-03 -5.88063696438E-04 +1.57769239027E-03 -6.13086045478E-04 -6.51257957200E-03 -4.58830265731E-01
4.25000000000E+09 -1.22515013771E-01 -4.06053166977E-01 +1.36887558260E-03 -1.29838261370E-03 +1.44073360016E-03 -1.31637610828E-03 -2.36380842087E-02 -4.47706231021E-01
4.25500000000E+09 -1.42476997361E-01 -3.92438917135E-01 +8.24874261224E-04 -1.58302580824E-03 +8.83861757339E-04 -1.59752538874E-03 -4.10537932574E-02 -4.37145379462E-01
4.26000000000E+09 -1.62734027151E-01 -3.79520496184E-01 +3.19517713575E-04 -1.46254021775E-03 +3.79196321792E-04 -1.45192940947E-03 -5.85732174421E-02 -4.24582791866E-01
4.26500000000E+09 -1.82677634438E-01 -3.66764026568E-01 +2.83973823389E-04 -1.31763069080E-03 +3.02842577233E-04 -1.37134623648E-03 -7.41096708073E-02 -4.11872253772E-01
4.27000000000E+09 -2.00382208566E-01 -3.54012760684E-01 -6.23726487117E-06 -1.35559824185E-03 +4.17938571944E-05 -1.44335119356E-03 -9.06430401482E-02 -3.99366079762E-01
4.27500000000E+09 -2.15892333991E-01 -3.42186607076E-01 -1.87604346829E-04 -1.01406939930E-03 -1.72705860184E-04 -1.07768527967E-03 -1.07283369977E-01 -3.85097918853E-01
4.28000000000E+09 -2.29800674411E-01 -3.30026468649E-01 -5.01346415773E-05 -9.40034259307E-04 -7.91092276548E-05 -1.03155950851E-03 -1.22941723519E-01 -3.71121863193E-01
4.28500000000E+09 -2.42604738207E-01 -3.16161418190E-01 -2.34172985278E-05 -9.90076935010E-04 -1.38217329469E-05 -9.94412701934E-04 -1.39037843004E-01 -3.56638713108E-01
4.29000000000E+09 -2.53734667184E-01 -2.99858107420E-01 +7.10840905448E-05 -1.19164257017E-03 +3.48069418829E-05 -1.19353362663E-03 -1.54373890169E-01 -3.41229127746E-01
4.29500000000E+09 -2.64292626928E-01 -2.81780315720E-01 -3.51592611317E-04 -1.49720427421E-03 -3.81669073921E-04 -1.53659045479E-03 -1.68674418962E-01 -3.25156547125E-01
4.30000000000E+09 -2.74446688755E-01 -2.62116337507E-01 -6.86380947899E-04 -1.08976879923E-03 -7.74985862939E-04 -1.12818796026E-03 -1.81575447679E-01 -3.08318012092E-01
4.30500000000E+09 -2.85472067623E-01 -2.42071132567E-01 -6.66159573602E-04 -1.13154196259E-03 -7.09499242295E-04 -1.20847266824E-03 -1.93675593370E-01 -2.91286402805E-01
4.31000000000E+09 -2.97837731522E-01 -2.22108847829E-01 -1.00699953133E-03 -9.81277452752E-04 -1.05719086465E-03 -9.95194632604E-04 -2.05091644011E-01 -2.74119489007E-01
4.31500000000E+09 -3.11809365858E-01 -2.02516236987E-01 -9.92075166462E-04 -5.31802925783E-04 -1.08853933976E-03 -4.92228554721E-04 -2.16512908924E-01 -2.56730617305E-01
4.32000000000E+09 -3.25910868961E-01 -1.82517049436E-01 -7.42466962539E-04 -6.19702380889E-04 -7.90461488197E-04 -6.07738690993E-04 -2.27870977059E-01 -2.38201037009E-01
4.32500000000E+09 -3.37891174092E-01 -1.63393539770E-01 -7.77900241392E-04 -5.42010606396E-04 -7.33065235043E-04 -5.25330026628E-04 -2.37377580654E-01 -2.19355543599E-01
4.33000000000E+09 -3.47159975649E-01 -1.46006718552E-01 -7.67298564134E-04 -7.05184446476E-04 -7.21444190850E-04 -7.13043256697E-04 -2.46915995325E-01 -2.00686051014E-01
4.33500000000E+09 -3.54612169851E-01 -1.29632742302E-01 -1.03625390959E-03 -8.08120948950E-04 -1.02268627306E-03 -7.46408475118E-04 -2.55732711006E-01 -1.80552498604E-01
4.34000000000E+09 -3.59621410282E-01 -1.13225325785E-01 -1.47010380068E-03 -6.91103346844E-04 -1.46487124984E-03 -6.74500108202E-04 -2.63092182501E-01 -1.60586622968E-01
4.34500000000E+09 -3.62152608745E-01 -9.62382484371E-02 -1.59390270352E-03 -2.55827269648E-04 -1.53920477750E-03 -1.98364394202E-04 -2.70738683072E-01 -1.40598093068E-01
4.35000000000E+09 -3.63999111953E-01 -7.83590628112E-02 -1.60391878738E-03 +2.12505680176E-04 -1.56676430930E-03 +2.24329494861E-04 -2.77423248345E-01 -1.20270826758E-01
4.35500000000E+09 -3.66475663899E-01 -5.72050456996E-02 -1.14710844449E-03 +5.21050376487E-04 -1.13073385256E-03 +4.41451405416E-04 -2.83822889816E-01 -1.00244178123E-01
4.36000000000E+09 -3.67734031140E-01 -3.41616921291E-02 -1.14098876016E-03 -3.57305167252E-05 -1.05848725558E-03 -7.92221680481E-05 -2.89192364691E-01 -8.00622335560E-02
4.36500000000E+09 -3.69553497823E-01 -1.05292038323E-02 -1.58931967426E-03 +4.52090188654E-04 -1.56254050187E-03 +4.51213058003E-04 -2.92801656699E-01 -5.97262336867E-02
4.37000000000E+09 -3.72593425871E-01 +1.29199597003E-02 -1.33153475219E-03 +5.76236035905E-04 -1.28779572095E-03 +6.34366101041E-04 -2.95507760774E-01 -4.05701833412E-02
4.37500000000E+09 -3.76301747027E-01 +3.48864596570E-02 -1.36483429298E-03 +9.53321634340E-04 -1.40163118696E-03 +9.65781369454E-04 -2.98730985683E-01 -2.03142674090E-02
4.38000000000E+09 -3.80882617501E-01 +5.49788791258E-02 -1.07208178976E-03 +1.30592382223E-03 -1.05157562756E-03 +1.29722303108E-03 -3.00180903667E-01 +7.57615943828E-04
4.38500000000E+09 -3.85257159684E-01 +7.30196099719E-02 -6.85635893156E-04 +1.35900207391E-03 -6.70538395610E-04 +1.35245427251E-03 -3.01292911686E-01 +2.12772912760E-02
4.39000000000E+09 -3.88799379432E-01 +8.97197510013E-02 -4.98743680097E-04 +1.14824817431E-03 -5.06764795468E-04 +1.19867824410E-03 -3.01805601209E-01 +4.23309003503E-02
4.39500000000E+09 -3.89582771718E-01 +1.05346342029E-01 -3.01732519137E-04 +1.34626667222E-03 -3.38534294870E-04 +1.36042500609E-03 -3.02013326548E-01 +6.18763213105E-02
4.40000000000E+09 -3.87316432738E-01 +1.20567979871E-01 -1.71698115908E-04 +1.00570300300E-03 -1.50967428484E-04 +1.03883129960E-03 -3.01355424172E-01 +8.23212938104E-02
4.40500000000E+09 -3.83164104566E-01 +1.35418058565E-01 -4.56420110532E-04 +1.17722222070E-03 -4.69480033386E-04 +1.16444726339E-03 -2.99098841020E-01 +1.01970455614E-01
4.41000000000E+09 -3.77904707340E-01 +1.52319064914E-01 -9.53184911474E-05 +1.74967423664E-03 -1.23500406764E-04 +1.73317108948E-03 -2.96414496367E-01 +1.20953312171E-01
4.41500000000E+09 -3.71401050356E-01 +1.71317812369E-01 +4.65425914903E-04 +1.43721570143E-03 +5.22768290510E-04 +1.44731723610E-03 -2.92630503842E-01 +1.40420831728E-01
4.42000000000E+09 -3.64552651067E-01 +1.92127829787E-01 +6.96936714072E-04 +1.37762122912E-03 +6.72910426341E-04 +1.34399887160E-03 -2.88127493829E-01 +1.59816573227E-01
4.42500000000E+09 -3.58031297537E-01 +2.13738520585E-01 +1.09823325529E-03 +7.46292676603E-04 +1.05120587501E-03 +7.12442342153E-04 -2.83440336575E-01 +1.78407645968E-01
4.43000000000E+09 -3.53067097562E-01 +2.34918971098E-01 +4.44004860248E-04 +4.08069558961E-04 +4.55778491754E-04 +4.00869024128E-04 -2.78999067556E-01 +1.96465593316E-01
4.43500000000E+09 -3.49525339841E-01 +2.55455283534E-01 +3.12284101708E-04 +5.88117406153E-04 +3.47736838172E-04 +5.76856718056E-04 -2.74959340477E-01 +2.14444338060E-01
4.44000000000E+09 -3.46441946453E-01 +2.74851138257E-01 +3.53400187058E-04 +7.47984477763E-04 +3.43776763016E-04 +7.51655497617E-04 -2.69586522970E-01 +2.33615676373E-01
4.44500000000E+09 -3.42459536153E-01 +2.91525542741E-01 +7.42983315784E-04 +1.09674041392E-03 +7.96805227604E-04 +1.07513664457E-03 -2.62025296692E-01 +2.50944070263E-01
4.45000000000E+09 -3.38075217073E-01 +3.05088788081E-01 +1.24351960419E-03 +5.86005767809E-04 +1.28163918515E-03 +5.47653630072E-04 -2.54592278486E-01 +2.66961723851E-01
4.45500000000E+09 -3.32606934182E-01 +3.17408836869E-01 +9.76226945199E-04 +1.29753371650E-04 +9.52163016826E-04 +1.11826248902E-04 -2.46411943891E-01 +2.83164422695E-01
4.46000000000E+09 -3.24854918170E-01 +3.28893251230E-01 +7.26431474714E-04 +1.42532561925E-05 +7.63382390447E-04 -3.35075825744E-05 -2.38136709742E-01 +2.98535646031E-01
4.46500000000E+09 -3.15762206189E-01 +3.40786624400E-01 +5.49028312199E-04 +1.41579087782E-04 +5.52094595720E-04 +6.74903656930E-05 -2.29743712774E-01 +3.13686066064E-01
4.47000000000E+09 -3.04805608749E-01 +3.54941535072E-01 +5.48129198335E-04 +2.81700132865E-06 +5.55273030615E-04 -4.81710782816E-05 -2.20921217485E-01 +3.28938160691E-01
4.47500000000E+09 -2.91842893789E-01 +3.70756009127E-01 +3.74036017459E-04 +3.43222718343E-04 +3.07892210512E-04 +3.06750506692E-04 -2.12181625153E-01 +3.43314487787E-01
4.48000000000E+09 -2.78452776090E-01 +3.86972032891E-01 +6.04589374993E-04 +4.03500563391E-04 +5.76958073904E-04 +3.98470368254E-04 -2.03016346658E-01 +3.57966266337E-01
4.48500000000E+09 -2.66828310116E-01 +4.03731016222E-01 +7.24472739577E-04 +4.54415294648E-04 +6.89443427593E-04 +4.66163199467E-04 -1.93070051438E-01 +3.71715190698E-01
4.49000000000E+09 -2.56714679085E-01 +4.20358008391E-01 +1.10091015759E-03 +3.32193647198E-04 +1.03508352369E-03 +3.38291024629E-04 -1.83083942782E-01 +3.84583194297E-01
4.49500000000E+09 -2.49086080297E-01 +4.35765707827E-01 +1.33398385424E-03 -2.10865104862E-04 +1.29483200616E-03 -2.18888082902E-04 -1.73040295121E-01 +3.97415614325E-01
4.50000000000E+09 -2.43095880568E-01 +4.49995226023E-01 +8.68807337054E-04 -3.49990066070E-04 +8.08186243981E-04 -3.14145437526E-04 -1.62394429685E-01 +4.09827781570E-01
4.50500000000E+09 -2.37632428903E-01 +4.62533438253E-01 +8.90265234169E-04 -5.60980475822E-04 +8.64794052439E-04 -5.80313906093E-04 -1.51950896440E-01 +4.21747125862E-01
4.51000000000E+09 -2.31205748207E-01 +4.72557252159E-01 +4.36127109925E-04 -4.08879924849E-04 +4.24934573596E-04 -3.90858037646E-04 -1.41025918414E-01 +4.33252109208E-01
4.51500000000E+09 -2.23624336779E-01 +4.80609744292E-01 +5.53065216816E-04 -1.70433149255E-04 +5.22507504152E-04 -1.29075902663E-04 -1.30947196149E-01 +4.44322495463E-01
4.52000000000E+09 -2.14092200589E-01 +4.87959057132E-01 +9.04410035190E-04 -1.60171201860E-04 +8.93538494877E-04 -1.33310881014E-04 -1.20386333729E-01 +4.55412770267E-01
4.52500000000E+09 -2.01758503597E-01 +4.94786481696E-01 +9.47659576547E-04 -4.93430490739E-04 +9.84420234235E-04 -4.72282748088E-04 -1.08735573602E-01 +4.66141363595E-01
4.53000000000E+09 -1.88123731920E-01 +5.02195710814E-01 +1.08297066255E-03 -1.02499886021E-03 +1.05593331964E-03 -9.68763352240E-04 -9.71096950616E-02 +4.75121843735E-01
4.53500000000E+09 -1.73343477284E-01 +5.10939405236E-01 +4.26624684696E-04 -1.13081171469E-03 +4.02365202173E-04 -1.16427222258E-03 -8.51332756370E-02 +4.84812420679E-01
4.54000000000E+09 -1.58286333066E-01 +5.21118476258E-01 +1.80247726695E-04 -9.89206534531E-04 +2.24181643734E-04 -1.03504566701E-03 -7.25793006168E-02 +4.93584998533E-01
4.54500000000E+09 -1.43597281119E-01 +5.32056969521E-01 +6.98405984817E-05 -9.50794397906E-04 +7.69625634924E-05 -9.11590380146E-04 -6.09564184795E-02 +5.01876709875E-01
4.55000000000E+09 -1.30445474769E-01 +5.42508490158E-01 -3.52190611215E-05 -9.55086002819E-04 -1.82811082388E-05 -9.26842408075E-04 -4.88067593080E-02 +5.10707441208E-01
4.55500000000E+09 -1.19642854913E-01 +5.52664409475E-01 -2.69791670494E-04 -7.67887641785E-04 -2.55141258970E-04 -7.67528175386E-04 -3.72643350313E-02 +5.19161908695E-01
4.56000000000E+09 -1.09903045356E-01 +5.61116917914E-01 -3.30851459631E-04 -4.18220686840E-04 -3.81887359712E-04 -4.47649078201E-04 -2.48892607625E-02 +5.27026683262E-01
4.56500000000E+09 -1.01640440510E-01 +5.67769689507E-01 +1.50364623214E-04 -4.64138139453E-04 +1.13743467867E-04 -4.74718789676E-04 -1.30426855126E-02 +5.33905776753E-01
4.57000000000E+09 -9.36364006950E-02 +5.73093776156E-01 +1.82432922109E-05 -9.20400061554E-04 +5.81024004704E-05 -8.79544641939E-04 -1.19223181815E-03 +5.40868418997E-01
