# Hz S RI R 50
! CMT, C1220, 16058040, 17.2.0/1
! Date: 15/08/2018 12:12:58
! Data: Format (Calibration Info)
! Freq                      S11: Re/Im (F2)                       S21: Re/Im (F2)                       S12: Re/Im (F2)                       S22: Re/Im (F2)            
4.00000000000E+09 +6.50001964469E-01 -3.52177164604E-01 -2.06053528953E-04 -6.38643075555E-04 -1.99667122709E-04 -6.53617920342E-04 +7.66285558530E-01 -3.21542060071E-01
4.00500000000E+09 +6.42076982749E-01 -3.58069592155E-01 -3.15579199386E-04 -3.30000212726E-04 -3.24458256425E-04 -3.45520460342E-04 +7.57130693547E-01 -3.32009812118E-01
4.01000000000E+09 +6.33421736690E-01 -3.63674119425E-01 -1.47822719760E-05 -2.50362867310E-04 +6.57331436428E-06 -3.02767294951E-04 +7.47427262871E-01 -3.42249774103E-01
4.01500000000E+09 +6.23809341716E-01 -3.70308844355E-01 -4.04147024393E-05 -6.30296475712E-04 -7.37349668944E-06 -6.15565062282E-04 +7.37968700312E-01 -3.52073073983E-01
4.02000000000E+09 +6.12799947092E-01 -3.78170503978E-01 -4.24928742367E-04 -5.98119398210E-04 -3.98742404374E-04 -6.60150083263E-04 +7.27665557946E-01 -3.62301967382E-01
4.02500000000E+09 +6.01102092106E-01 -3.86966571217E-01 -5.27348322397E-04 -4.22030040220E-04 -5.40781394931E-04 -4.52971096764E-04 +7.16704970787E-01 -3.71763252776E-01
4.03000000000E+09 +5.89779993005E-01 -3.96461098923E-01 -5.32384055811E-04 -2.06233867226E-04 -4.79915723228E-04 -2.22308583887E-04 +7.06058035863E-01 -3.81041250238E-01
4.03500000000E+09 +5.78951412350E-01 -4.07397511753E-01 -3.25092745311E-04 -1.31731903907E-04 -3.50794131506E-04 -1.71834062501E-04 +6.94891839930E-01 -3.90815221646E-01
4.04000000000E+09 +5.67896416904E-01 -4.18464889097E-01 -3.79184260448E-04 -1.12357910631E-04 -3.97319801287E-04 -9.38128858869E-05 +6.83833388535E-01 -4.00748311611E-01
4.04500000000E+09 +5.57725594132E-01 -4.28586688370E-01 -3.42217912101E-04 -1.33975779526E-04 -3.19914898562E-04 -1.80452896945E-04 +6.71845296714E-01 -4.10593448884E-01
4.05000000000E+09 +5.47017596565E-01 -4.37401019519E-01 -1.76907137283E-04 -1.61776993085E-04 -1.68549977710E-04 -1.32185547716E-04 +6.59732046677E-01 -4.19380755256E-01
4.05500000000E+09 +5.35962325213E-01 -4.43830457295E-01 -3.41044986635E-04 -4.25871844928E-04 -2.97683454671E-04 -4.32093243443E-04 +6.47574889758E-01 -4.27771173959E-01
4.06000000000E+09 +5.25171010912E-01 -4.48540898131E-01 -4.61264315209E-04 -3.70062476730E-04 -5.10088757944E-04 -4.69684759532E-04 +6.34901690034E-01 -4.35873714398E-01
4.06500000000E+09 +5.13198241105E-01 -4.52453056705E-01 -7.30766426267E-04 -2.33561275517E-04 -7.67423354372E-04 -2.57397919906E-04 +6.21690415449E-01 -4.43671386053E-01
4.07000000000E+09 +5.00223490770E-01 -4.55769854190E-01 -7.05084564288E-04 +4.30961456255E-05 -7.03630621790E-04 +7.92073912118E-05 +6.08223462834E-01 -4.51814973828E-01
4.07500000000E+09 +4.85994918682E-01 -4.60092290525E-01 -5.69040991803E-04 +8.88867457362E-05 -5.96831987434E-04 +9.64207994006E-05 +5.94293688556E-01 -4.59979871170E-01
4.08000000000E+09 +4.69788987089E-01 -4.64868732041E-01 -6.66742797490E-04 +6.10017292728E-05 -6.89460928469E-04 +6.40143695701E-05 +5.80862458989E-01 -4.67576059074E-01
4.08500000000E+09 +4.53178427294E-01 -4.69902319870E-01 -6.88171816494E-04 +3.75045967713E-04 -6.92390427083E-04 +3.54586791690E-04 +5.67054647282E-01 -4.75569301723E-01
4.09000000000E+09 +4.36805925378E-01 -4.76455087776E-01 -2.29533617600E-04 +2.29953421899E-04 -2.21882751614E-04 +2.42515438013E-04 +5.52425302815E-01 -4.82246640239E-01
4.09500000000E+09 +4.20229560855E-01 -4.83686323987E-01 -5.10843028159E-04 -1.13735549152E-04 -5.16768087339E-04 -1.15842289807E-04 +5.38356275912E-01 -4.88631195746E-01
4.10000000000E+09 +4.02647130026E-01 -4.90621417777E-01 -8.79356991816E-04 +1.08281480458E-06 -8.43462934933E-04 +3.94179352144E-05 +5.22484436886E-01 -4.95043543007E-01
4.10500000000E+09 +3.86026257072E-01 -4.95056557514E-01 -1.08412845494E-03 +5.95409682223E-04 -1.10008108464E-03 +5.67081815265E-04 +5.06555917300E-01 -5.00635637566E-01
4.11000000000E+09 +3.70065439356E-01 -4.97751351247E-01 -7.33876995353E-04 +9.97614773412E-04 -7.81112956497E-04 +9.70469850853E-04 +4.90146146082E-01 -5.06824024965E-01
4.11500000000E+09 +3.55750616299E-01 -4.98811462398E-01 -1.05031499010E-04 +1.01665170486E-03 -1.09754369925E-04 +9.73991757815E-04 +4.73423909111E-01 -5.12039686243E-01
4.12000000000E+09 +3.40600006413E-01 -4.99824890767E-01 -4.99334311937E-05 +4.44460788987E-04 -3.10238204750E-05 +4.57954396944E-04 +4.57419090171E-01 -5.17413939574E-01
4.12500000000E+09 +3.24761089602E-01 -5.00325593313E-01 -2.95088664285E-04 +4.81551176125E-04 -3.16481902973E-04 +4.42479118373E-04 +4.40060913524E-01 -5.22344768353E-01
4.13000000000E+09 +3.07313365668E-01 -5.01611425282E-01 -3.50273025031E-04 +5.96903877620E-04 -3.75715812470E-04 +6.17905495509E-04 +4.22918304139E-01 -5.25640123048E-01
4.13500000000E+09 +2.87420105862E-01 -5.03235130974E-01 -3.82000207103E-04 +7.15182074441E-04 -4.73228390644E-04 +7.02624704404E-04 +4.05669741404E-01 -5.29413990731E-01
4.14000000000E+09 +2.67084456975E-01 -5.04346772645E-01 -1.83551700886E-04 +1.18659167148E-03 -2.44182578462E-04 +1.15710480775E-03 +3.87053291320E-01 -5.32567893774E-01
4.14500000000E+09 +2.47368952393E-01 -5.07154820424E-01 +3.88463571823E-04 +9.74243275968E-04 +3.64197882408E-04 +1.05178688521E-03 +3.68702362464E-01 -5.35256711028E-01
4.15000000000E+09 +2.27179303963E-01 -5.11466446955E-01 +3.11977311227E-04 +5.99612058227E-04 +3.16628227902E-04 +6.86565820233E-04 +3.50285656391E-01 -5.37707902137E-01
4.15500000000E+09 +2.06977945767E-01 -5.15500050681E-01 +2.16580829030E-04 +8.23980815716E-04 +1.85397937434E-04 +8.84661858090E-04 +3.32056178572E-01 -5.39130082810E-01
4.16000000000E+09 +1.87734202988E-01 -5.17835045397E-01 +4.61584143692E-04 +7.50956725950E-04 +4.37645713693E-04 +7.68991543126E-04 +3.14312601777E-01 -5.39990352831E-01
4.16500000000E+09 +1.70099573420E-01 -5.18714205316E-01 +4.58798243946E-04 +5.41676133839E-04 +4.70086515295E-04 +5.82693623509E-04 +2.95735315320E-01 -5.40224655632E-01
4.17000000000E+09 +1.53987782651E-01 -5.17669507767E-01 +5.93698688687E-04 +7.00867459483E-04 +6.14507820788E-04 +6.73884595637E-04 +2.77014302394E-01 -5.39350060508E-01
4.17500000000E+09 +1.38544020797E-01 -5.15145947928E-01 +6.13930063044E-04 +2.26978975014E-04 +6.17486244048E-04 +2.27794050582E-04 +2.58161930779E-01 -5.38198934103E-01
4.18000000000E+09 +1.23037235004E-01 -5.11058545265E-01 +2.90001542712E-04 +4.51850546458E-04 +3.35730708551E-04 +4.67030075327E-04 +2.38684343123E-01 -5.36941092245E-01
4.18500000000E+09 +1.06835727204E-01 -5.06239117549E-01 +5.22170024145E-04 +5.46187971738E-04 +5.17622636645E-04 +5.50558968592E-04 +2.19393071050E-01 -5.34909279989E-01
4.19000000000E+09 +8.95359500298E-02 -5.00507318802E-01 +7.01889242325E-04 +4.10451753533E-04 +7.18880718740E-04 +4.42466224102E-04 +1.99803817107E-01 -5.32661132540E-01
4.19500000000E+09 +7.15713565945E-02 -4.95126663494E-01 +6.43501394780E-04 +3.75010258574E-04 +6.58820427873E-04 +3.82104539484E-04 +1.80531096366E-01 -5.29250167143E-01
4.20000000000E+09 +5.26537559065E-02 -4.90374316987E-01 +8.03871742250E-04 +3.20474436972E-04 +8.81589072234E-04 +3.38047753911E-04 +1.60921653868E-01 -5.25770292887E-01
4.20500000000E+09 +3.33173707660E-02 -4.86263005333E-01 +8.74075893884E-04 +1.06198181726E-04 +9.31154823227E-04 +1.31272972511E-04 +1.40793650557E-01 -5.20451690428E-01
4.21000000000E+09 +1.37488961702E-02 -4.81948508186E-01 +6.58782495698E-04 -3.85856941165E-05 +6.68024460821E-04 -1.14694076337E-04 +1.21259657933E-01 -5.14870316828E-01
4.21500000000E+09 -5.09902040945E-03 -4.76331471028E-01 +5.27003978293E-04 +2.35979538473E-04 +5.32009204207E-04 +2.40357998700E-04 +1.01700510939E-01 -5.08990548330E-01
4.22000000000E+09 -2.17690281370E-02 -4.69042999315E-01 +9.36920092716E-04 +3.30129776015E-04 +9.08196006796E-04 +3.60966026024E-04 +8.25493883167E-02 -5.02077075245E-01
4.22500000000E+09 -3.65626592874E-02 -4.61480256821E-01 +1.00698590642E-03 -2.28569679981E-05 +1.05766320764E-03 -6.49907507282E-06 +6.39753728523E-02 -4.95201317853E-01
4.23000000000E+09 -5.13973219791E-02 -4.52594238098E-01 +9.66628052317E-04 -2.35015404752E-04 +9.74572063259E-04 -2.41939401967E-04 +4.49332637120E-02 -4.87391942841E-01
4.23500000000E+09 -6.64213403515E-02 -4.41634376445E-01 +7.56209996766E-04 -1.89726517931E-04 +7.92491394090E-04 -1.73671730410E-04 +2.66363139576E-02 -4.78103069741E-01
4.24000000000E+09 -8.17904590231E-02 -4.29779176008E-01 +1.00508133066E-03 -1.07765792731E-04 +1.03925870414E-03 -8.06145599444E-05 +8.57090788077E-03 -4.68852290678E-01
4.24500000000E+09 -9.90685618037E-02 -4.17330752228E-01 +1.35473624309E-03 -3.66278810394E-04 +1.36230903663E-03 -3.90893548861E-04 -9.95927957381E-03 -4.58225485159E-01
4.25000000000E+09 -1.18103496226E-01 -4.03926412311E-01 +1.31705894077E-03 -9.87875116262E-04 +1.38380711984E-03 -1.03016287685E-03 -2.71675071177E-02 -4.46905384957E-01
4.25500000000E+09 -1.37826202039E-01 -3.90452075521E-01 +7.81398961217E-04 -1.41226268734E-03 +7.94920804159E-04 -1.46942860889E-03 -4.46328986973E-02 -4.35828421499E-01
4.26000000000E+09 -1.57913223029E-01 -3.78114835739E-01 +2.90006389641E-04 -1.12456235633E-03 +2.96555306038E-04 -1.17323281973E-03 -6.21066664076E-02 -4.22984434888E-01
4.26500000000E+09 -1.77776038095E-01 -3.65759195629E-01 +3.90128472460E-04 -1.01320199275E-03 +4.08238403540E-04 -1.02320809898E-03 -7.74933488484E-02 -4.09710784238E-01
4.27000000000E+09 -1.95771373393E-01 -3.53606130782E-01 +3.29802712873E-04 -1.14626735832E-03 +3.63274384476E-04 -1.15661416204E-03 -9.39236283402E-02 -3.96493163284E-01
4.27500000000E+09 -2.11380392956E-01 -3.41869925219E-01 +2.11695497204E-04 -1.16091893775E-03 +1.90315916154E-04 -1.15684604204E-03 -1.09986794442E-01 -3.82007569884E-01
4.28000000000E+09 -2.25378227613E-01 -3.30047672344E-01 -7.70693226724E-05 -1.26988365728E-03 -1.14316925214E-04 -1.31928442941E-03 -1.25139219254E-01 -3.67583470450E-01
4.28500000000E+09 -2.38403942360E-01 -3.16362662170E-01 -3.36483912575E-04 -1.01252027805E-03 -3.37893713779E-04 -9.96154805175E-04 -1.40815948944E-01 -3.53210648184E-01
4.29000000000E+09 -2.49479310727E-01 -3.00211376765E-01 -1.31485544029E-04 -1.02383318476E-03 -1.10022725720E-04 -1.07679523977E-03 -1.55904298880E-01 -3.37849831461E-01
4.29500000000E+09 -2.59884455025E-01 -2.82366045734E-01 -5.95657358387E-04 -1.25392191653E-03 -6.10032112949E-04 -1.31027180688E-03 -1.70117954799E-01 -3.21532139324E-01
4.30000000000E+09 -2.70008488370E-01 -2.63188961978E-01 -7.65283182321E-04 -6.46037442710E-04 -7.46366028308E-04 -6.26555811788E-04 -1.82614464154E-01 -3.04606005115E-01
4.30500000000E+09 -2.81368289284E-01 -2.43539047634E-01 -3.50626209038E-04 -7.46730926057E-04 -3.88779248319E-04 -7.92556164393E-04 -1.94572425373E-01 -2.87548598812E-01
4.31000000000E+09 -2.93948509955E-01 -2.23657161608E-01 -5.63866509696E-04 -9.12544431347E-04 -5.84717238568E-04 -9.10690595199E-04 -2.05860765346E-01 -2.69781344992E-01
4.31500000000E+09 -3.07629172927E-01 -2.04263599113E-01 -8.48951217310E-04 -9.00764652864E-04 -8.75128424488E-04 -9.24792777760E-04 -2.16247328162E-01 -2.51985154259E-01
4.32000000000E+09 -3.22015511146E-01 -1.85057598153E-01 -1.18036897352E-03 -7.06585145279E-04 -1.20328410466E-03 -6.74227365716E-04 -2.26811076692E-01 -2.34202122122E-01
4.32500000000E+09 -3.34379938787E-01 -1.66148193919E-01 -1.07691865130E-03 -1.35124797445E-04 -1.09860364710E-03 -1.31902541890E-04 -2.36156464969E-01 -2.15500946445E-01
4.33000000000E+09 -3.44052590584E-01 -1.49042190414E-01 -7.71138275402E-04 -1.25227222113E-04 -8.12055222516E-04 -1.89598677484E-04 -2.45550603947E-01 -1.97095277864E-01
4.33500000000E+09 -3.51648657325E-01 -1.32882402340E-01 -6.56902147233E-04 -4.22576045013E-05 -7.02775830360E-04 -2.39592610530E-05 -2.54269870630E-01 -1.76956470840E-01
4.34000000000E+09 -3.57075642983E-01 -1.16640691251E-01 -7.27106073182E-04 -2.36780262465E-04 -6.53542458182E-04 -2.44933811877E-04 -2.61210896548E-01 -1.56669522105E-01
4.34500000000E+09 -3.60149953588E-01 -9.99443710104E-02 -7.54236039701E-04 -2.37769425910E-04 -7.28410786907E-04 -2.54553789355E-04 -2.68279499667E-01 -1.36869174101E-01
4.35000000000E+09 -3.62403533782E-01 -8.18542947803E-02 -1.09478005790E-03 -2.60357163787E-04 -1.02994662306E-03 -2.30479127086E-04 -2.74570204738E-01 -1.16673413564E-01
4.35500000000E+09 -3.65154379220E-01 -6.10019656940E-02 -9.68641594737E-04 +2.05886647711E-04 -9.78246312614E-04 +1.97662904213E-04 -2.79845259511E-01 -9.71579715320E-02
4.36000000000E+09 -3.66867316584E-01 -3.79785380174E-02 -9.63502082385E-04 -1.26156014534E-05 -1.00190672606E-03 +5.66508516313E-05 -2.84889852569E-01 -7.81854654022E-02
4.36500000000E+09 -3.69066948853E-01 -1.42021464516E-02 -1.12997016852E-03 +4.46680515935E-04 -1.13057482230E-03 +5.12233318788E-04 -2.88968069863E-01 -5.85021511612E-02
4.37000000000E+09 -3.72308761115E-01 +9.15858198012E-03 -7.71844928763E-04 +4.96233025954E-04 -7.54558821610E-04 +5.20441995390E-04 -2.91826758239E-01 -3.97335060244E-02
4.37500000000E+09 -3.76650682363E-01 +3.11723553596E-02 -8.20016627633E-04 +5.65223013245E-04 -7.93314910465E-04 +5.25949395748E-04 -2.95258787455E-01 -1.96114819529E-02
4.38000000000E+09 -3.81512756040E-01 +5.15915904014E-02 -6.69328422468E-04 +7.59911927822E-04 -6.62793782570E-04 +7.26007665841E-04 -2.96676598012E-01 +1.22967594114E-03
4.38500000000E+09 -3.85935234844E-01 +6.98939393238E-02 -4.58623761293E-04 +6.95182828940E-04 -4.65225548080E-04 +6.61747975330E-04 -2.97702596575E-01 +2.11732579160E-02
4.39000000000E+09 -3.89492067552E-01 +8.64523285557E-02 -4.21533879410E-04 +6.00537774370E-04 -4.01701114898E-04 +5.99504156353E-04 -2.98188195032E-01 +4.17591499779E-02
4.39500000000E+09 -3.90389705081E-01 +1.02215168493E-01 -4.48793596517E-04 +7.10921965874E-04 -4.59187408582E-04 +7.83271771769E-04 -2.98710838502E-01 +6.10172937483E-02
4.40000000000E+09 -3.88595894836E-01 +1.17219945428E-01 -3.75597746927E-04 +7.56708007322E-04 -2.67693123214E-04 +7.17626662559E-04 -2.98346963340E-01 +8.07966695344E-02
4.40500000000E+09 -3.84874570429E-01 +1.32602583488E-01 -3.57760686630E-04 +7.52602444509E-04 -3.76859283424E-04 +8.03619916710E-04 -2.96686185162E-01 +1.00254165128E-01
4.41000000000E+09 -3.79616406928E-01 +1.49761573298E-01 -1.32684027299E-04 +9.90102040292E-04 -8.43146429127E-05 +9.70812546912E-04 -2.94440104510E-01 +1.19375547007E-01
4.41500000000E+09 -3.73007674169E-01 +1.68840562786E-01 +2.01373405977E-04 +6.90521610289E-04 +2.19106274184E-04 +6.39138666832E-04 -2.90760954071E-01 +1.38977105730E-01
4.42000000000E+09 -3.66308948853E-01 +1.89800066700E-01 +4.34647273882E-05 +6.60667031388E-04 +7.13440773080E-05 +6.46767493869E-04 -2.86374548527E-01 +1.58367157295E-01
4.42500000000E+09 -3.59868689303E-01 +2.11199037800E-01 +1.58515927311E-04 +3.86996197700E-04 +1.72368794648E-04 +4.01945557525E-04 -2.81661489051E-01 +1.76548504068E-01
4.43000000000E+09 -3.55172142751E-01 +2.32611268048E-01 -3.27883389564E-04 +4.93676504484E-04 -2.85918419721E-04 +4.71090291590E-04 -2.77435844032E-01 +1.94544789819E-01
4.43500000000E+09 -3.51802059886E-01 +2.53285763479E-01 -7.36365928183E-05 +8.38469471394E-04 -8.54703347050E-05 +8.25206284779E-04 -2.73740367677E-01 +2.12201772896E-01
4.44000000000E+09 -3.48922535022E-01 +2.72821766653E-01 +6.77275704670E-05 +7.93400752239E-04 +5.71373176511E-05 +7.77329135183E-04 -2.68784298113E-01 +2.31124439972E-01
4.44500000000E+09 -3.45263506279E-01 +2.89908075781E-01 +4.18440960728E-04 +1.10866868049E-03 +4.67703740116E-04 +1.08953727272E-03 -2.61633716251E-01 +2.48541660719E-01
4.45000000000E+09 -3.40523270930E-01 +3.03851313039E-01 +7.64869625080E-04 +4.85634168457E-04 +7.90317725908E-04 +4.51811481838E-04 -2.54466928054E-01 +2.64775757105E-01
4.45500000000E+09 -3.35064232778E-01 +3.16115072650E-01 +3.66318776934E-04 +2.44788870833E-04 +3.21409046933E-04 +2.34564418382E-04 -2.46562164927E-01 +2.80928718022E-01
4.46000000000E+09 -3.27343558541E-01 +3.27748703793E-01 +3.15349887504E-04 +3.23655991636E-04 +2.79535422430E-04 +3.14344934101E-04 -2.38606833986E-01 +2.96173628088E-01
4.46500000000E+09 -3.18301122260E-01 +3.39844902471E-01 +1.90027318969E-04 +4.10326356036E-04 +1.61328450326E-04 +4.02310671828E-04 -2.30763004747E-01 +3.11440983924E-01
4.47000000000E+09 -3.07514558040E-01 +3.54182845703E-01 +3.99448803048E-04 +2.62295197425E-04 +4.20934889277E-04 +2.84411250449E-04 -2.22158658451E-01 +3.26819838163E-01
4.47500000000E+09 -2.94724082703E-01 +3.70387057824E-01 +1.48560852979E-04 +4.27142758847E-04 +1.48471835731E-04 +4.52416599387E-04 -2.13998961359E-01 +3.41649547377E-01
4.48000000000E+09 -2.81357501036E-01 +3.87145416371E-01 +2.69792000821E-04 +5.81289861251E-04 +2.69747865916E-04 +5.62868598630E-04 -2.05056633219E-01 +3.56897057268E-01
4.48500000000E+09 -2.69432845255E-01 +4.04157574253E-01 +4.58466001369E-04 +7.60022776406E-04 +4.60169042706E-04 +7.02915328967E-04 -1.95013410877E-01 +3.71031280037E-01
4.49000000000E+09 -2.59195251660E-01 +4.21088070781E-01 +8.68520325405E-04 +5.53474032397E-04 +8.16439367905E-04 +5.63694504449E-04 -1.84998716221E-01 +3.84140100167E-01
4.49500000000E+09 -2.51268220596E-01 +4.36610429760E-01 +9.51830498881E-04 +1.34358523026E-04 +9.60468751246E-04 +1.21934955687E-04 -1.74957037717E-01 +3.97223947676E-01
4.50000000000E+09 -2.45280381175E-01 +4.50760990088E-01 +5.79440566868E-04 +9.30978986719E-05 +5.57145862108E-04 +6.18969366016E-05 -1.64222383238E-01 +4.09765282767E-01
4.50500000000E+09 -2.39923688931E-01 +4.63335526364E-01 +6.99206013488E-04 -3.40445469650E-05 +6.91691758341E-04 -6.72896570706E-05 -1.53991121351E-01 +4.22027391750E-01
4.51000000000E+09 -2.33618051496E-01 +4.73639509509E-01 +3.81963341894E-04 +8.23117058970E-05 +3.75581876810E-04 +1.07898645652E-04 -1.43035842713E-01 +4.34068360761E-01
4.51500000000E+09 -2.25914771392E-01 +4.82142031244E-01 +5.23152108388E-04 +2.39799026847E-04 +5.25194763518E-04 +2.49704277619E-04 -1.32516974804E-01 +4.45441601463E-01
4.52000000000E+09 -2.15876247319E-01 +4.89684332890E-01 +7.76064139385E-04 +2.52110984377E-04 +7.41624543492E-04 +2.79494658528E-04 -1.21725892787E-01 +4.56430022901E-01
4.52500000000E+09 -2.03400126007E-01 +4.96436488176E-01 +9.36351757522E-04 +1.25591381318E-04 +9.50831412703E-04 +1.42262358970E-04 -1.10030341567E-01 +4.67313215691E-01
4.53000000000E+09 -1.89605425695E-01 +5.03786449582E-01 +1.16472832815E-03 -2.91695861973E-04 +1.14597039038E-03 -2.98474128258E-04 -9.80756911918E-02 +4.76422762410E-01
4.53500000000E+09 -1.74875785006E-01 +5.12650207560E-01 +7.24201940106E-04 -3.93653104676E-04 +7.26428762065E-04 -4.35255162912E-04 -8.60474183487E-02 +4.86026163245E-01
4.54000000000E+09 -1.59584607719E-01 +5.22762679871E-01 +8.47795679259E-04 -4.31703992516E-04 +8.38166889979E-04 -3.59237088337E-04 -7.34134563171E-02 +4.94956059970E-01
4.54500000000E+09 -1.44673598149E-01 +5.33701329781E-01 +6.57721120225E-04 -6.70053865442E-04 +6.79661622239E-04 -6.79967773737E-04 -6.18923964590E-02 +5.03236443688E-01
4.55000000000E+09 -1.31615237924E-01 +5.44232225320E-01 +5.88563625939E-04 -7.13317263161E-04 +5.70785013781E-04 -6.98319745470E-04 -4.97101912439E-02 +5.12440404041E-01
4.55500000000E+09 -1.20619285422E-01 +5.54412893141E-01 +3.03906806079E-04 -6.65287107383E-04 +2.86910169369E-04 -7.08037486116E-04 -3.79067692228E-02 +5.20926313143E-01
4.56000000000E+09 -1.10775302364E-01 +5.62913298962E-01 +2.22286749150E-04 -3.82748682098E-04 +2.19052919312E-04 -4.01479746743E-04 -2.54696644133E-02 +5.28829797241E-01
4.56500000000E+09 -1.02436674701E-01 +5.69654646778E-01 +7.06445634527E-04 -4.38440719309E-04 +6.94545045246E-04 -4.24608013751E-04 -1.33877426602E-02 +5.35910306272E-01
4.57000000000E+09 -9.39799607472E-02 +5.74793508610E-01 +5.35516887797E-04 -1.01950766550E-03 +4.99324475876E-04 -1.02085809246E-03 -1.42167908767E-03 +5.43037001551E-01
