# Hz S RI R 50
! CMT, C1220, 16058040, 17.2.0/1
! Date: 15/08/2018 12:10:51
! Data: Format (Calibration Info)
! Freq                      S11: Re/Im (F2)                       S21: Re/Im (F2)                       S12: Re/Im (F2)                       S22: Re/Im (F2)            
4.00000000000E+09 +6.54212220458E-01 -3.54744220104E-01 -2.62809525924E-04 -3.72945577857E-04 -2.18862725516E-04 -3.86875427678E-04 +7.67160750317E-01 -3.21449465547E-01
4.00500000000E+09 +6.45950373972E-01 -3.61014319415E-01 -3.37840399674E-04 -7.38042475742E-05 -3.26405519109E-04 -1.26955442556E-04 +7.57863692878E-01 -3.31983487121E-01
4.01000000000E+09 +6.37056409067E-01 -3.66591200134E-01 -1.01111089453E-04 -5.21743836290E-05 -8.04253393442E-05 -6.70565353336E-05 +7.48266175448E-01 -3.42318376230E-01
4.01500000000E+09 +6.27336842196E-01 -3.73329247515E-01 -4.33489465528E-05 -2.74370861105E-04 -7.58658151215E-05 -2.54125855632E-04 +7.38614999910E-01 -3.52198851099E-01
4.02000000000E+09 +6.16521799839E-01 -3.81440127060E-01 -2.81536531715E-04 -2.43626544304E-04 -3.52539971088E-04 -2.51660477424E-04 +7.28381853974E-01 -3.62406135985E-01
4.02500000000E+09 +6.04774537233E-01 -3.90519515088E-01 -3.82437934616E-04 -6.23777841644E-05 -4.34691728565E-04 -1.34234899943E-04 +7.17345224011E-01 -3.71923676788E-01
4.03000000000E+09 +5.93382568609E-01 -4.00666636151E-01 -2.82903372556E-04 +1.34212154374E-04 -3.17260687906E-04 +7.83226208553E-05 +7.06695281820E-01 -3.81299198263E-01
4.03500000000E+09 +5.82073430654E-01 -4.11854828654E-01 -9.78622133453E-05 +9.18124596014E-05 -1.03025886536E-04 +7.27665387607E-05 +6.95722894556E-01 -3.91117705044E-01
4.04000000000E+09 +5.70691058082E-01 -4.22914182982E-01 -7.02390491288E-05 +8.83198090608E-05 -9.26487323188E-05 +7.80958029309E-05 +6.84334651037E-01 -4.01235808630E-01
4.04500000000E+09 +5.59930537561E-01 -4.33074810433E-01 +1.26521742532E-05 -4.87760098763E-06 +4.47851140368E-05 -5.01738922777E-06 +6.72356972918E-01 -4.11147975740E-01
4.05000000000E+09 +5.49217735185E-01 -4.41813228391E-01 +3.79517363209E-05 -1.76768526348E-04 +3.95267129932E-05 -1.79814588445E-04 +6.60329167529E-01 -4.19851154516E-01
4.05500000000E+09 +5.38190205248E-01 -4.48645180507E-01 -1.61460917539E-04 -2.36754436122E-04 -1.56159977430E-04 -2.97006816723E-04 +6.48112684647E-01 -4.28697014904E-01
4.06000000000E+09 +5.26897237868E-01 -4.53609524195E-01 -1.96175202101E-04 -1.99996185749E-04 -1.76642793298E-04 -1.86182028307E-04 +6.35225596056E-01 -4.36994228290E-01
4.06500000000E+09 +5.14437965929E-01 -4.57708500839E-01 -3.42674505731E-04 -2.54611146800E-04 -3.94330786678E-04 -2.27890354607E-04 +6.21656375147E-01 -4.45054171984E-01
4.07000000000E+09 +5.00899825621E-01 -4.61416093931E-01 -3.90129952364E-04 +4.43206716846E-05 -4.41248185578E-04 +3.85674818149E-05 +6.07796760933E-01 -4.53213555180E-01
4.07500000000E+09 +4.85884264701E-01 -4.65737668066E-01 -1.85163627573E-04 +7.46191534678E-05 -1.58956159235E-04 +8.26743656830E-05 +5.93694988866E-01 -4.61175323428E-01
4.08000000000E+09 +4.69371688565E-01 -4.70577791318E-01 -2.59848404107E-04 -5.40411923271E-05 -1.97075362729E-04 -9.27549913692E-05 +5.80028678141E-01 -4.68783470706E-01
4.08500000000E+09 +4.52274322699E-01 -4.75725434424E-01 -3.99300552925E-04 -7.25850804862E-06 -4.03531342679E-04 -7.95130856309E-05 +5.65874750196E-01 -4.76687640992E-01
4.09000000000E+09 +4.35483861230E-01 -4.82260263224E-01 -2.64088371809E-04 +1.63225204775E-05 -2.28387186697E-04 -9.45669368479E-06 +5.51213766759E-01 -4.83308897508E-01
4.09500000000E+09 +4.18396872281E-01 -4.89525905806E-01 -4.68020205324E-04 -2.81338261864E-05 -4.69758817785E-04 -6.30236333020E-05 +5.36900869008E-01 -4.89595889401E-01
4.10000000000E+09 +4.00578472610E-01 -4.96314978710E-01 -5.44382526571E-04 +1.73925836903E-04 -6.00993133722E-04 +1.20996103985E-04 +5.20745729509E-01 -4.95950688262E-01
4.10500000000E+09 +3.83450535264E-01 -5.00770076766E-01 -5.30910974173E-04 +4.36179202519E-04 -5.53443737930E-04 +4.54601466140E-04 +5.04632151038E-01 -5.01128233464E-01
4.11000000000E+09 +3.66945269370E-01 -5.03329869734E-01 -3.32161246511E-04 +6.54070632392E-04 -3.16888379511E-04 +6.42540366282E-04 +4.88159697805E-01 -5.06871215596E-01
4.11500000000E+09 +3.51947457312E-01 -5.03957808896E-01 +2.73767039896E-04 +6.55041740658E-04 +2.44813264373E-04 +6.56553034389E-04 +4.71659021110E-01 -5.11753063161E-01
4.12000000000E+09 +3.36663303947E-01 -5.04640167079E-01 +1.69042530410E-04 -6.12037873038E-05 +1.47772882104E-04 -2.73887108775E-05 +4.55659808936E-01 -5.17144810852E-01
4.12500000000E+09 +3.20426634326E-01 -5.04942461475E-01 -1.95112615030E-04 +4.39567944620E-05 -2.42694440543E-04 +2.77976081321E-05 +4.38193404619E-01 -5.21946133227E-01
4.13000000000E+09 +3.02731566595E-01 -5.06109997281E-01 -3.42767728101E-04 +2.38175489212E-04 -3.59994239548E-04 +2.91640849868E-04 +4.21457473756E-01 -5.25070064396E-01
4.13500000000E+09 +2.82608316082E-01 -5.07524113430E-01 -2.43436318774E-04 +4.15590645489E-04 -2.89037365925E-04 +4.32590016792E-04 +4.04126845083E-01 -5.28812027556E-01
4.14000000000E+09 +2.61827901077E-01 -5.08865820851E-01 +3.34039550062E-06 +7.15453819835E-04 -3.39534177098E-05 +7.97663716416E-04 +3.85633750627E-01 -5.31944793550E-01
4.14500000000E+09 +2.41328071914E-01 -5.11374319558E-01 +5.43999739856E-04 +3.92431204087E-04 +5.25851031311E-04 +4.32831063621E-04 +3.67196571852E-01 -5.34792048749E-01
4.15000000000E+09 +2.20731344530E-01 -5.14958196951E-01 +3.63543252396E-04 -1.59011398196E-04 +3.38632706161E-04 -1.02985133037E-04 +3.48784124696E-01 -5.36970146338E-01
4.15500000000E+09 +2.00352996580E-01 -5.18442567564E-01 -2.22223127999E-04 -7.17587931026E-05 -2.05283610311E-04 -5.42525425065E-05 +3.30547015468E-01 -5.38490249176E-01
4.16000000000E+09 +1.80971275355E-01 -5.20562703825E-01 -1.97426165240E-04 +1.93136124361E-04 -2.02354081146E-04 +2.31451224460E-04 +3.12431690881E-01 -5.39357396346E-01
4.16500000000E+09 +1.63225246584E-01 -5.20994818794E-01 -1.41132135823E-04 +2.57235342959E-04 -8.18808161569E-05 +2.59477001751E-04 +2.93582719034E-01 -5.39084995311E-01
4.17000000000E+09 +1.46546499864E-01 -5.19504668561E-01 +3.20251804316E-05 +5.26977365882E-04 +2.80908478709E-05 +5.64697359445E-04 +2.74926345490E-01 -5.38006415962E-01
4.17500000000E+09 +1.30962849173E-01 -5.16441981806E-01 +2.89926414518E-04 +9.13838818652E-05 +2.85122694980E-04 +1.09441817884E-04 +2.56020899995E-01 -5.36490591634E-01
4.18000000000E+09 +1.15241134034E-01 -5.11409367738E-01 -1.70287500569E-04 +1.73879066004E-04 -1.57190198280E-04 +1.55282918739E-04 +2.36798043620E-01 -5.34699722182E-01
4.18500000000E+09 +9.90536799635E-02 -5.06141933409E-01 -8.69115944311E-05 +3.47820245874E-04 -4.29531207472E-05 +3.29418803434E-04 +2.17563553203E-01 -5.32419842549E-01
4.19000000000E+09 +8.15389519462E-02 -5.00201443967E-01 +1.84122726384E-05 +3.03041724996E-04 +1.14108304781E-04 +2.79117359107E-04 +1.98475268229E-01 -5.29675410638E-01
4.19500000000E+09 +6.30418650737E-02 -4.93980623383E-01 -1.48472168742E-04 +4.53882440309E-04 -1.60010467756E-04 +4.45138640137E-04 +1.79636905429E-01 -5.26287822069E-01
4.20000000000E+09 +4.39861679518E-02 -4.88179107383E-01 +1.37506076273E-04 +6.07069768420E-04 +1.05600719649E-04 +6.14918561053E-04 +1.60339802844E-01 -5.22725926335E-01
4.20500000000E+09 +2.47378467583E-02 -4.82981964926E-01 +3.77698842961E-04 +4.84493017813E-04 +4.04299528724E-04 +4.48740775941E-04 +1.40591255751E-01 -5.17207720291E-01
4.21000000000E+09 +5.98630847870E-03 -4.77802334147E-01 +2.59078560510E-04 +3.01199487488E-04 +2.40858641415E-04 +3.01630033983E-04 +1.21587294363E-01 -5.11783503316E-01
4.21500000000E+09 -1.25127142433E-02 -4.72462901342E-01 +3.04176285130E-04 +5.00236616305E-04 +2.65109003644E-04 +5.02401306851E-04 +1.02262647479E-01 -5.05965853876E-01
4.22000000000E+09 -2.97573855384E-02 -4.64916449645E-01 +4.89687748900E-04 +5.05032374817E-04 +4.96199776890E-04 +5.48277121081E-04 +8.35553032993E-02 -4.99048858110E-01
4.22500000000E+09 -4.47481257773E-02 -4.56173040655E-01 +4.85737907449E-04 +2.00886343491E-04 +4.44036794334E-04 +1.82899413133E-04 +6.55156897893E-02 -4.92519028261E-01
4.23000000000E+09 -5.93990419093E-02 -4.46276681932E-01 +4.90009550618E-04 +2.53483764821E-04 +4.50015926366E-04 +2.62478428015E-04 +4.67025049151E-02 -4.85189558805E-01
4.23500000000E+09 -7.37519452857E-02 -4.34369536049E-01 +2.72469778186E-04 +4.16001357418E-04 +2.64362513786E-04 +4.57749969615E-04 +2.84593598356E-02 -4.76492901081E-01
4.24000000000E+09 -8.81566215481E-02 -4.21963192225E-01 +6.72257623877E-04 +6.17744430830E-04 +7.11991449904E-04 +6.52354417110E-04 +1.00860642307E-02 -4.67414276833E-01
4.24500000000E+09 -1.04994869415E-01 -4.09558241406E-01 +1.29549884913E-03 +4.54859154355E-04 +1.29698858050E-03 +4.99079135324E-04 -8.34754809481E-03 -4.56996206710E-01
4.25000000000E+09 -1.24179498887E-01 -3.95813936146E-01 +1.37569196756E-03 -3.28062756842E-04 +1.40481556812E-03 -3.59058298552E-04 -2.57626662591E-02 -4.45599996855E-01
4.25500000000E+09 -1.43481380573E-01 -3.81534272003E-01 +8.02733316449E-04 -7.20105005927E-04 +8.26106855943E-04 -7.26469898446E-04 -4.30670695613E-02 -4.34502993287E-01
4.26000000000E+09 -1.62725184774E-01 -3.68476205508E-01 +3.75269331476E-04 -4.55838361153E-04 +4.01628100924E-04 -4.38615344694E-04 -6.01616688601E-02 -4.21738012458E-01
4.26500000000E+09 -1.81728761484E-01 -3.55552547179E-01 +5.49473512034E-04 -2.37684423571E-04 +5.79356462434E-04 -2.20558100933E-04 -7.54683482016E-02 -4.08673184882E-01
4.27000000000E+09 -1.98541268658E-01 -3.43575998191E-01 +7.32096002980E-04 -3.84328450669E-04 +8.18329829796E-04 -4.13800813595E-04 -9.15504209873E-02 -3.96060384894E-01
4.27500000000E+09 -2.14039186061E-01 -3.31984439206E-01 +6.76242413029E-04 -4.48214019876E-04 +7.20870926934E-04 -5.46701246516E-04 -1.08073248885E-01 -3.81846454639E-01
4.28000000000E+09 -2.27469058573E-01 -3.19515563636E-01 +5.71244064212E-04 -6.97995625003E-04 +5.78019546419E-04 -6.93026423531E-04 -1.23398904685E-01 -3.67428284513E-01
4.28500000000E+09 -2.39761616681E-01 -3.05449877415E-01 +3.68965089282E-04 -5.44198121335E-04 +3.49726890281E-04 -5.88296994879E-04 -1.38883863885E-01 -3.52983633326E-01
4.29000000000E+09 -2.49674930916E-01 -2.89053093631E-01 +6.39643139098E-04 -5.66048574247E-04 +6.95420116551E-04 -5.85250428455E-04 -1.53886503181E-01 -3.37716169794E-01
4.29500000000E+09 -2.59306651181E-01 -2.71216885919E-01 +4.97307940797E-04 -1.12364692071E-03 +5.16707334941E-04 -1.13666726216E-03 -1.67632719122E-01 -3.21618771022E-01
4.30000000000E+09 -2.68712707109E-01 -2.52084552375E-01 +1.02748839509E-04 -8.74943754318E-04 +9.00386117522E-05 -8.92427721320E-04 -1.80031177291E-01 -3.05395824537E-01
4.30500000000E+09 -2.79363589030E-01 -2.32567272890E-01 +9.11189136464E-05 -9.31948330379E-04 +7.84482498239E-05 -1.00811966645E-03 -1.92238126910E-01 -2.88997241733E-01
4.31000000000E+09 -2.91737491272E-01 -2.12639540337E-01 -3.89466989143E-05 -9.46982282344E-04 -7.54139500944E-05 -9.55152196078E-04 -2.03695736859E-01 -2.71833978879E-01
4.31500000000E+09 -3.04806315773E-01 -1.92679065816E-01 -2.32100604758E-04 -7.02915093084E-04 -2.64194284585E-04 -7.23647393958E-04 -2.14785096648E-01 -2.54673596572E-01
4.32000000000E+09 -3.17814911950E-01 -1.73578811985E-01 -1.01241522457E-04 -8.19360828993E-04 -1.45735302241E-04 -8.40758231851E-04 -2.26017298964E-01 -2.36728337970E-01
4.32500000000E+09 -3.29147518094E-01 -1.55432795842E-01 -8.00187613853E-05 -6.94322268573E-04 -8.77853186697E-05 -7.03296520755E-04 -2.35661206717E-01 -2.18063617236E-01
4.33000000000E+09 -3.38350192017E-01 -1.38921912657E-01 -9.46848636147E-05 -9.14740646325E-04 -1.27723831092E-04 -9.13250378408E-04 -2.45557500223E-01 -1.99762018648E-01
4.33500000000E+09 -3.45527945998E-01 -1.23045436898E-01 -1.06577662020E-04 -9.39224649610E-04 -1.83735313781E-04 -8.85961581088E-04 -2.54700719202E-01 -1.79639340595E-01
4.34000000000E+09 -3.50172239947E-01 -1.07345242450E-01 -5.66968209699E-04 -1.11409816737E-03 -5.58745886404E-04 -1.17513248605E-03 -2.62147244113E-01 -1.59373595192E-01
4.34500000000E+09 -3.52365367735E-01 -9.10292452897E-02 -7.64854982814E-04 -8.14201637422E-04 -7.73110011647E-04 -8.11556361992E-04 -2.69647428513E-01 -1.39172450647E-01
4.35000000000E+09 -3.54067254140E-01 -7.36295572993E-02 -7.81332396249E-04 -6.27214905572E-04 -7.43555790753E-04 -5.94803348360E-04 -2.76115124391E-01 -1.19038871008E-01
4.35500000000E+09 -3.55848327207E-01 -5.34235247574E-02 -6.85288251133E-04 -5.46401690503E-04 -6.58580504116E-04 -5.61325655322E-04 -2.82272237174E-01 -9.91803599204E-02
4.36000000000E+09 -3.57167819378E-01 -3.11872711384E-02 -9.31925235187E-04 -1.02192226113E-03 -9.63695243119E-04 -9.81670260534E-04 -2.87492117109E-01 -7.92257227370E-02
4.36500000000E+09 -3.58941023444E-01 -8.38542928660E-03 -1.33509700873E-03 -4.15210472212E-04 -1.30604360734E-03 -4.13020791796E-04 -2.91297925535E-01 -5.91459567052E-02
4.37000000000E+09 -3.61980054939E-01 +1.43058017325E-02 -1.14813372084E-03 -2.89619665354E-04 -1.18975693036E-03 -2.64546897310E-04 -2.93945154189E-01 -4.00151459726E-02
4.37500000000E+09 -3.65848163866E-01 +3.54167655698E-02 -1.24471604369E-03 -9.69332732355E-06 -1.18536147903E-03 +9.49993143352E-06 -2.97016225262E-01 -1.99350154584E-02
4.38000000000E+09 -3.70935521319E-01 +5.47530483972E-02 -1.11568638295E-03 +1.64776876127E-04 -1.13801425861E-03 +1.14157257787E-04 -2.98482872392E-01 +7.75979251464E-04
4.38500000000E+09 -3.75559984159E-01 +7.26993777980E-02 -1.03784171394E-03 +2.04061897780E-04 -1.00653749310E-03 +1.90231263180E-04 -2.99653125681E-01 +2.08471265034E-02
4.39000000000E+09 -3.78900858520E-01 +8.87500788761E-02 -9.55564347535E-04 +1.86486273582E-04 -9.60332768897E-04 +1.49602327168E-04 -3.00333330795E-01 +4.13691055717E-02
4.39500000000E+09 -3.79503085586E-01 +1.03631412935E-01 -8.88203878899E-04 +3.19946488210E-04 -9.57014538723E-04 +3.16470973182E-04 -3.01106039681E-01 +6.07575473290E-02
4.40000000000E+09 -3.77402739084E-01 +1.17830378091E-01 -1.12067409574E-03 +1.97243694699E-04 -1.06820367094E-03 +1.98487300533E-04 -3.00627881025E-01 +8.09830141548E-02
4.40500000000E+09 -3.73873992886E-01 +1.31710100076E-01 -1.28229031030E-03 +6.23747726244E-04 -1.30527316131E-03 +6.56716445883E-04 -2.98953490273E-01 +1.00340519579E-01
4.41000000000E+09 -3.69341012880E-01 +1.48341704291E-01 -9.75884896626E-04 +9.86061601905E-04 -1.01699134272E-03 +1.02072513867E-03 -2.96944685843E-01 +1.19704741895E-01
4.41500000000E+09 -3.62938785977E-01 +1.67113621177E-01 -6.27357333775E-04 +8.41288740725E-04 -6.07369861800E-04 +9.03884543330E-04 -2.93268560751E-01 +1.39444536990E-01
4.42000000000E+09 -3.56468915955E-01 +1.87340548993E-01 -5.53236228557E-04 +9.69578701186E-04 -5.67923566094E-04 +9.84201899849E-04 -2.89295619948E-01 +1.58969795208E-01
4.42500000000E+09 -3.50221573398E-01 +2.08575346681E-01 -4.01728662480E-04 +6.53729139444E-04 -3.84747739060E-04 +6.75714806963E-04 -2.84709447961E-01 +1.77972735841E-01
4.43000000000E+09 -3.45694133927E-01 +2.29224558923E-01 -7.77485331828E-04 +8.61532211334E-04 -7.44593386826E-04 +8.98629924522E-04 -2.80185534895E-01 +1.96267243977E-01
4.43500000000E+09 -3.42661632201E-01 +2.49084146760E-01 -6.26928874165E-04 +1.24154132922E-03 -6.02765967977E-04 +1.20998976301E-03 -2.76202387872E-01 +2.14294137710E-01
4.44000000000E+09 -3.40611528564E-01 +2.68157589384E-01 -3.30954774674E-04 +1.15687317734E-03 -3.63585073341E-04 +1.21358265738E-03 -2.70996213415E-01 +2.33571175349E-01
4.44500000000E+09 -3.37381192800E-01 +2.84992787562E-01 -1.96849805300E-05 +1.58642620293E-03 -2.89706786402E-05 +1.54558139739E-03 -2.63600502317E-01 +2.51089119860E-01
4.45000000000E+09 -3.33302699796E-01 +2.98637825851E-01 +4.14247063431E-04 +1.14676663327E-03 +4.49373878325E-04 +1.18799631625E-03 -2.56307397585E-01 +2.67629306850E-01
4.45500000000E+09 -3.27967799623E-01 +3.11053121094E-01 +2.04382942562E-04 +9.19379675934E-04 +2.67255360444E-04 +8.70129452483E-04 -2.47908007479E-01 +2.84094035031E-01
4.46000000000E+09 -3.20552239895E-01 +3.22123475754E-01 +2.54755271391E-04 +8.85235802331E-04 +3.01969090218E-04 +8.73008692503E-04 -2.39340829719E-01 +2.99459165047E-01
4.46500000000E+09 -3.12156457639E-01 +3.33765551345E-01 +2.49741655884E-04 +1.07268902121E-03 +2.76595332808E-04 +1.04758756747E-03 -2.30944410347E-01 +3.14491867567E-01
4.47000000000E+09 -3.01887618142E-01 +3.48013237547E-01 +4.39063153338E-04 +6.90548501320E-04 +4.72924022169E-04 +6.92572037085E-04 -2.22387247270E-01 +3.29581621870E-01
4.47500000000E+09 -2.89362898012E-01 +3.64016278038E-01 +1.44843136509E-04 +1.04272978626E-03 +1.74197603884E-04 +9.93430009214E-04 -2.13747510082E-01 +3.44293290564E-01
4.48000000000E+09 -2.76875095252E-01 +3.80315602792E-01 +4.58197698908E-04 +1.09516198476E-03 +4.49339560394E-04 +1.07072483030E-03 -2.04671495844E-01 +3.59136847736E-01
4.48500000000E+09 -2.65439708009E-01 +3.97425875468E-01 +7.45891818775E-04 +1.28174731454E-03 +7.59432866317E-04 +1.24185837480E-03 -1.94598983816E-01 +3.73152357523E-01
4.49000000000E+09 -2.55899215967E-01 +4.13854511063E-01 +1.25491477719E-03 +9.87796309522E-04 +1.20178127015E-03 +9.37174432483E-04 -1.84453870319E-01 +3.86172315086E-01
4.49500000000E+09 -2.48673601376E-01 +4.29625929334E-01 +1.29738939491E-03 +4.07446623138E-04 +1.28442760318E-03 +4.19330814716E-04 -1.74567721848E-01 +3.99088630739E-01
4.50000000000E+09 -2.43018648421E-01 +4.44065047959E-01 +9.61304400397E-04 +4.41562646197E-04 +9.55663347308E-04 +4.25958448134E-04 -1.64046761565E-01 +4.11871736115E-01
4.50500000000E+09 -2.37547319931E-01 +4.56308258839E-01 +1.08809579848E-03 +1.64180765947E-04 +1.09097776252E-03 +1.58280399474E-04 -1.53523966043E-01 +4.24057127937E-01
4.51000000000E+09 -2.31837651344E-01 +4.65952797254E-01 +8.57288653290E-04 +3.09186622463E-04 +8.51927269837E-04 +2.87527777296E-04 -1.42437526191E-01 +4.35966735366E-01
4.51500000000E+09 -2.24817959860E-01 +4.74210171194E-01 +1.01691864630E-03 +3.41909986218E-04 +9.86075681985E-04 +3.57621867895E-04 -1.31909869814E-01 +4.47358683131E-01
4.52000000000E+09 -2.15567383729E-01 +4.81863791855E-01 +1.29721346349E-03 +2.95403944058E-04 +1.25780756117E-03 +2.50444031767E-04 -1.20787991808E-01 +4.58476680157E-01
4.52500000000E+09 -2.03553745962E-01 +4.88892323109E-01 +1.40050484644E-03 +1.24851095030E-04 +1.38874450757E-03 +1.12611369517E-04 -1.09069238567E-01 +4.69050107399E-01
4.53000000000E+09 -1.90135022373E-01 +4.96433988245E-01 +1.65015459761E-03 -4.72755056776E-04 +1.58582140051E-03 -4.28021506196E-04 -9.71475813138E-02 +4.78310392440E-01
4.53500000000E+09 -1.75620665143E-01 +5.05631346768E-01 +1.13430567281E-03 -5.85331765329E-04 +1.13508341414E-03 -5.79476507982E-04 -8.48493566411E-02 +4.87777604718E-01
4.54000000000E+09 -1.60456598635E-01 +5.15866456491E-01 +1.20566647529E-03 -6.53104255343E-04 +1.17669965378E-03 -6.00163252134E-04 -7.21138031452E-02 +4.96665111195E-01
4.54500000000E+09 -1.45873034769E-01 +5.26667794158E-01 +9.23736727343E-04 -8.91069373926E-04 +8.56854999860E-04 -8.38350859354E-04 -6.02259899948E-02 +5.04998187189E-01
4.55000000000E+09 -1.33535031850E-01 +5.37158631092E-01 +7.65862283901E-04 -1.01059995907E-03 +7.41151931574E-04 -9.80176852360E-04 -4.76564215624E-02 +5.13636615517E-01
4.55500000000E+09 -1.23202295349E-01 +5.47821092863E-01 +5.27123273005E-04 -7.62317154229E-04 +5.11191090345E-04 -7.61384937229E-04 -3.59512354557E-02 +5.21754056671E-01
4.56000000000E+09 -1.13594161908E-01 +5.56973036911E-01 +5.27299101678E-04 -6.38468859231E-04 +5.43431366738E-04 -6.10305705654E-04 -2.34429619113E-02 +5.29324931978E-01
4.56500000000E+09 -1.05247325082E-01 +5.63998843693E-01 +9.92562883599E-04 -8.29809217933E-04 +9.52079769985E-04 -8.08070746774E-04 -1.15402972524E-02 +5.35997173866E-01
4.57000000000E+09 -9.68160417081E-02 +5.69323778744E-01 +6.38291504954E-04 -1.49663097397E-03 +6.43584829097E-04 -1.45552041120E-03 +3.78143756726E-04 +5.42919603762E-01
