# Hz S RI R 50
! CMT, C1220, 16058040, 17.2.0/1
! Date: 15/08/2018 12:13:09
! Data: Format (Calibration Info)
! Freq                      S11: Re/Im (F2)                       S21: Re/Im (F2)                       S12: Re/Im (F2)                       S22: Re/Im (F2)            
4.00000000000E+09 +6.52370425086E-01 -3.51546879488E-01 -1.00444762338E-04 -4.56758726388E-04 -1.42495037465E-04 -4.56120154387E-04 +7.66603529940E-01 -3.21465424807E-01
4.00500000000E+09 +6.44360225977E-01 -3.57604827650E-01 -1.65487206668E-04 -1.92203833711E-04 -1.91511252103E-04 -1.74854715327E-04 +7.57417317487E-01 -3.31905223447E-01
4.01000000000E+09 +6.35659298054E-01 -3.63283164110E-01 +1.67078366690E-04 -2.64906665324E-04 +1.70413776688E-04 -1.91227621648E-04 +7.47788139885E-01 -3.42232872031E-01
4.01500000000E+09 +6.25906880544E-01 -3.70042077522E-01 +1.43163611314E-04 -6.22947179394E-04 +1.49649972765E-04 -5.83472314497E-04 +7.38326030635E-01 -3.51965448573E-01
4.02000000000E+09 +6.15046661041E-01 -3.77934159224E-01 -2.40697247641E-04 -6.13131935238E-04 -2.31623766629E-04 -6.01519699814E-04 +7.28118371994E-01 -3.62125590347E-01
4.02500000000E+09 +6.03468408288E-01 -3.86735771301E-01 -3.13932505814E-04 -4.59451196626E-04 -3.44160186488E-04 -4.25410136520E-04 +7.17232758290E-01 -3.71535337848E-01
4.03000000000E+09 +5.92247065859E-01 -3.96494599122E-01 -3.31226355637E-04 -3.69332188953E-04 -3.38557693800E-04 -3.67358506677E-04 +7.06728380567E-01 -3.80933456754E-01
4.03500000000E+09 +5.81180967379E-01 -4.07618109468E-01 -2.83662591831E-04 -2.81007989123E-04 -3.03747384647E-04 -3.49240851882E-04 +6.95675263887E-01 -3.90855608652E-01
4.04000000000E+09 +5.70234807220E-01 -4.18792002238E-01 -3.69079989689E-04 -2.49898817305E-04 -3.41782807077E-04 -2.24170916695E-04 +6.84489646854E-01 -4.00887891119E-01
4.04500000000E+09 +5.59950702139E-01 -4.29093341510E-01 -3.22264350381E-04 -2.98241519498E-04 -2.84421139093E-04 -3.02666931168E-04 +6.72711619553E-01 -4.10798661307E-01
4.05000000000E+09 +5.49195123930E-01 -4.38038158815E-01 -2.72443912147E-04 -2.73354306634E-04 -2.05936414891E-04 -3.53184458236E-04 +6.60569460620E-01 -4.19738559690E-01
4.05500000000E+09 +5.38277023963E-01 -4.44494231714E-01 -4.84067946048E-04 -4.61812926327E-04 -5.00900544109E-04 -5.54016739142E-04 +6.48415897471E-01 -4.28221558224E-01
4.06000000000E+09 +5.27410922895E-01 -4.49441807395E-01 -6.49601006968E-04 -4.23453501395E-04 -6.49726975140E-04 -4.01725330133E-04 +6.35588071675E-01 -4.36678451101E-01
4.06500000000E+09 +5.15372054653E-01 -4.53505658094E-01 -9.05712511955E-04 -2.05857356718E-04 -8.79365978151E-04 -2.75809165140E-04 +6.22298622157E-01 -4.44616027565E-01
4.07000000000E+09 +5.02407441069E-01 -4.57047459174E-01 -8.97195435871E-04 +1.13820046642E-04 -8.92617372147E-04 +8.41172610477E-05 +6.08644653258E-01 -4.52833535122E-01
4.07500000000E+09 +4.87996690280E-01 -4.61461621711E-01 -6.93774809987E-04 +2.29993016705E-04 -7.26252323516E-04 +2.08807553045E-04 +5.94464234486E-01 -4.61139993459E-01
4.08000000000E+09 +4.71845880016E-01 -4.66308097742E-01 -7.09015909114E-04 +2.61999030223E-04 -7.86618759611E-04 +2.21851844086E-04 +5.80777440358E-01 -4.68656002218E-01
4.08500000000E+09 +4.55039745708E-01 -4.71591016351E-01 -5.85473316519E-04 +5.29516360823E-04 -6.59231542445E-04 +4.99880752724E-04 +5.66937588601E-01 -4.76623068347E-01
4.09000000000E+09 +4.38527859945E-01 -4.78119949270E-01 -1.51942548342E-04 +3.73396275893E-04 -2.20622039979E-04 +3.43955324449E-04 +5.52218925382E-01 -4.83227282957E-01
4.09500000000E+09 +4.22024622693E-01 -4.85525817077E-01 -4.38026086747E-04 +2.52939537341E-05 -4.89784084229E-04 +7.56089384061E-05 +5.37833637062E-01 -4.89534748055E-01
4.10000000000E+09 +4.04434323505E-01 -4.92674298698E-01 -6.84926086535E-04 +2.83233144908E-04 -7.56313786431E-04 +2.73306363251E-04 +5.21799027173E-01 -4.95887729152E-01
4.10500000000E+09 +3.87604427004E-01 -4.97239163035E-01 -7.27770150071E-04 +7.51918178521E-04 -7.75643097225E-04 +7.82681635124E-04 +5.05792837040E-01 -5.01267466437E-01
4.11000000000E+09 +3.71556308043E-01 -4.99916414487E-01 -3.79781935571E-04 +9.54689431477E-04 -3.71289560098E-04 +9.84738635406E-04 +4.89431363547E-01 -5.07257384597E-01
4.11500000000E+09 +3.56995874383E-01 -5.01212334155E-01 +2.19680071954E-04 +9.04439096927E-04 +1.96100638785E-04 +9.34058828324E-04 +4.72903301841E-01 -5.12398435204E-01
4.12000000000E+09 +3.41733989619E-01 -5.02243948159E-01 +2.19224635456E-04 +3.18668564482E-04 +2.36886202604E-04 +3.21420504116E-04 +4.56804326761E-01 -5.17663232064E-01
4.12500000000E+09 +3.25938271652E-01 -5.02726202308E-01 -9.24540520466E-05 +1.37973947310E-04 -9.00737836966E-05 +2.40743343174E-04 +4.39538576849E-01 -5.22696086767E-01
4.13000000000E+09 +3.08246909670E-01 -5.04208674894E-01 -2.85519617250E-04 +3.73973822007E-04 -2.46875142100E-04 +3.68099503620E-04 +4.22566825536E-01 -5.25964272774E-01
4.13500000000E+09 +2.88261918840E-01 -5.05855273088E-01 -3.62109324883E-04 +5.25076864776E-04 -3.31953484072E-04 +5.08258192726E-04 +4.05217912415E-01 -5.29620908528E-01
4.14000000000E+09 +2.67824965303E-01 -5.07117477393E-01 -1.57052664282E-04 +8.45709840349E-04 -1.14170035773E-04 +8.53332176843E-04 +3.86604907958E-01 -5.32906382809E-01
4.14500000000E+09 +2.47789021883E-01 -5.10043891250E-01 +2.64795693665E-04 +7.35476494107E-04 +3.75050792957E-04 +7.41783409442E-04 +3.68298897119E-01 -5.35635534293E-01
4.15000000000E+09 +2.27508551353E-01 -5.14220515429E-01 +2.25158110211E-04 +4.23020806236E-04 +2.79652007242E-04 +4.03289204078E-04 +3.49717775907E-01 -5.38164414498E-01
4.15500000000E+09 +2.07167074277E-01 -5.18310191647E-01 +7.19002258787E-05 +5.48245981668E-04 +6.87499239310E-05 +5.57655400843E-04 +3.31352618021E-01 -5.39632612866E-01
4.16000000000E+09 +1.87839893267E-01 -5.20819697212E-01 +2.17694177207E-04 +5.88456680477E-04 +1.89309658755E-04 +5.18244201582E-04 +3.13288638369E-01 -5.40487458339E-01
4.16500000000E+09 +1.69903729784E-01 -5.21794881873E-01 +2.15353397617E-04 +5.07790348649E-04 +1.86193277049E-04 +4.59687843740E-04 +2.94444700166E-01 -5.40591331550E-01
4.17000000000E+09 +1.53489144124E-01 -5.20829789610E-01 +3.38659816206E-04 +6.83857866723E-04 +3.14586509405E-04 +7.14668349221E-04 +2.75694777078E-01 -5.39493111039E-01
4.17500000000E+09 +1.37781086261E-01 -5.18078912726E-01 +3.93584171327E-04 +3.48496866978E-04 +3.51870364197E-04 +3.62318181480E-04 +2.56716065316E-01 -5.37974342053E-01
4.18000000000E+09 +1.22178443292E-01 -5.13811295188E-01 +2.41834657024E-04 +6.30909219500E-04 +1.69396493871E-04 +6.51392895962E-04 +2.37222638423E-01 -5.36409017688E-01
4.18500000000E+09 +1.05881283215E-01 -5.09173579650E-01 +5.02992612826E-04 +6.63840394242E-04 +4.89501338369E-04 +6.98332940069E-04 +2.18086022867E-01 -5.34091767080E-01
4.19000000000E+09 +8.83866008025E-02 -5.03515970342E-01 +6.69600249049E-04 +4.39307853704E-04 +6.18059421733E-04 +5.01721235072E-04 +1.98670941963E-01 -5.31602555344E-01
4.19500000000E+09 +7.00156689401E-02 -4.97996668645E-01 +5.87225027690E-04 +4.84808073255E-04 +5.70585616597E-04 +5.25220426953E-04 +1.79551184791E-01 -5.27960635660E-01
4.20000000000E+09 +5.06952411938E-02 -4.93105677263E-01 +8.90515377531E-04 +4.51624142017E-04 +9.00098897181E-04 +5.55456994441E-04 +1.60214395159E-01 -5.24376151687E-01
4.20500000000E+09 +3.12080001506E-02 -4.88760359757E-01 +1.07392443761E-03 +1.53346699709E-04 +1.06189858297E-03 +2.51217511175E-04 +1.40335785756E-01 -5.18927164158E-01
4.21000000000E+09 +1.15504690789E-02 -4.84148453320E-01 +7.70677625025E-04 -1.68548251711E-04 +8.14336328382E-04 -1.34260228213E-04 +1.21071793391E-01 -5.13423883847E-01
4.21500000000E+09 -7.32126549747E-03 -4.78659081205E-01 +6.21186791175E-04 +6.21835160404E-05 +6.36792423337E-04 +1.26257159935E-04 +1.01848197533E-01 -5.07495810714E-01
4.22000000000E+09 -2.42972165621E-02 -4.71508414200E-01 +9.01318544170E-04 +1.96895603683E-04 +9.61643854111E-04 +2.58130849505E-04 +8.29408343511E-02 -5.00610485326E-01
4.22500000000E+09 -3.96380155587E-02 -4.63646133132E-01 +1.06119766381E-03 -2.04906696675E-04 +1.11571071351E-03 -2.13444857938E-04 +6.47230741505E-02 -4.94047902065E-01
4.23000000000E+09 -5.46449580394E-02 -4.54431421574E-01 +8.50582198257E-04 -4.02567187899E-04 +9.19955228449E-04 -3.63079273234E-04 +4.57510012474E-02 -4.86375200278E-01
4.23500000000E+09 -6.97510147423E-02 -4.43136654527E-01 +5.81504951206E-04 -3.31042320446E-04 +6.32315294068E-04 -3.14895049580E-04 +2.74681235573E-02 -4.77401050012E-01
4.24000000000E+09 -8.50818791858E-02 -4.30973556192E-01 +8.78488019777E-04 -1.84051347403E-04 +9.64589118633E-04 -2.54449222740E-04 +9.33107860194E-03 -4.68386593161E-01
4.24500000000E+09 -1.02459341248E-01 -4.18316413930E-01 +1.18766955326E-03 -5.18360182088E-04 +1.23013745509E-03 -5.57652707566E-04 -9.32969849781E-03 -4.57783118220E-01
4.25000000000E+09 -1.21541893966E-01 -4.04848194442E-01 +9.95857064284E-04 -1.07171044342E-03 +1.06765628799E-03 -1.07126972264E-03 -2.64913626341E-02 -4.46458200445E-01
4.25500000000E+09 -1.41289860758E-01 -3.91280129881E-01 +4.59217753325E-04 -1.29875472026E-03 +4.84970345711E-04 -1.38193151918E-03 -4.40349305141E-02 -4.35491244856E-01
4.26000000000E+09 -1.61488050697E-01 -3.78616384712E-01 +1.45023665451E-04 -9.79363979503E-04 +1.29106400593E-04 -1.00740435225E-03 -6.14265169024E-02 -4.22657822434E-01
4.26500000000E+09 -1.81318422948E-01 -3.65906583208E-01 +2.72440897374E-04 -9.25028577766E-04 +2.25241095981E-04 -9.48234837010E-04 -7.69493594731E-02 -4.09232345637E-01
4.27000000000E+09 -1.99143907305E-01 -3.53627885473E-01 +1.33020224351E-04 -9.37434293367E-04 +9.53533702093E-05 -1.07756588306E-03 -9.32215583624E-02 -3.96103785563E-01
4.27500000000E+09 -2.14809566243E-01 -3.41748750774E-01 -2.49274517992E-05 -8.68652221617E-04 +4.93185769853E-06 -8.57371691224E-04 -1.09337784645E-01 -3.81452980576E-01
4.28000000000E+09 -2.28828551960E-01 -3.29782975514E-01 -7.82750108839E-05 -8.46135530052E-04 -1.31673618452E-04 -8.96184154708E-04 -1.24313911005E-01 -3.67004730164E-01
4.28500000000E+09 -2.41848598705E-01 -3.15742591501E-01 -1.75388258143E-04 -7.22819823148E-04 -2.24016505256E-04 -7.31783126754E-04 -1.39781019109E-01 -3.52689990995E-01
4.29000000000E+09 -2.52850096654E-01 -2.99545882315E-01 +1.02778201724E-04 -8.40124458192E-04 +1.08871691631E-04 -7.84593400353E-04 -1.54899686398E-01 -3.37569931007E-01
4.29500000000E+09 -2.63244120544E-01 -2.81550681520E-01 -2.50182462425E-04 -1.23220675530E-03 -3.16213005782E-04 -1.17642363354E-03 -1.68941836573E-01 -3.21257996034E-01
4.30000000000E+09 -2.73520335508E-01 -2.62161040374E-01 -5.38033155762E-04 -7.27891656429E-04 -5.38628270403E-04 -6.40071646163E-04 -1.81259869989E-01 -3.04434251603E-01
4.30500000000E+09 -2.84615536458E-01 -2.42174643748E-01 -3.18687659525E-04 -9.06691551316E-04 -2.78013015719E-04 -8.77769278163E-04 -1.93116488925E-01 -2.87605162676E-01
4.31000000000E+09 -2.97285374702E-01 -2.22111596995E-01 -6.14194344271E-04 -1.00441445723E-03 -5.64865326452E-04 -1.00569277242E-03 -2.04199576750E-01 -2.70230586774E-01
4.31500000000E+09 -3.10868030264E-01 -2.02421175482E-01 -9.54881555787E-04 -8.41812698678E-04 -8.94995056336E-04 -8.00014872326E-04 -2.14771928395E-01 -2.52840805321E-01
4.32000000000E+09 -3.25055204857E-01 -1.82839062340E-01 -1.06078952041E-03 -5.57779280878E-04 -1.03477492090E-03 -5.91190483728E-04 -2.25518086853E-01 -2.35178120092E-01
4.32500000000E+09 -3.37153166581E-01 -1.63884280134E-01 -9.38268401897E-04 -1.40570279869E-04 -8.77439655318E-04 -1.72595593076E-04 -2.35030174320E-01 -2.16588003843E-01
4.33000000000E+09 -3.46650140789E-01 -1.46585382070E-01 -6.91379841414E-04 -2.99917832873E-04 -7.25399061938E-04 -3.36349324039E-04 -2.44572321504E-01 -1.98465767935E-01
4.33500000000E+09 -3.54178538322E-01 -1.30316486343E-01 -7.51332595287E-04 -3.11528444674E-04 -7.37449426677E-04 -2.78270054388E-04 -2.53493439638E-01 -1.78574201339E-01
4.34000000000E+09 -3.59381900593E-01 -1.13796048131E-01 -9.09606457298E-04 -3.12134580322E-04 -8.91981381332E-04 -3.32927766848E-04 -2.60815351933E-01 -1.58496327734E-01
4.34500000000E+09 -3.62033782536E-01 -9.67931595011E-02 -9.24770018010E-04 -2.02558492827E-04 -9.27664403931E-04 -2.00985265570E-04 -2.68198588931E-01 -1.38565528785E-01
4.35000000000E+09 -3.63788844842E-01 -7.88015610908E-02 -1.13345051379E-03 -3.29655491103E-06 -1.17475337582E-03 +8.28475395347E-06 -2.74758918838E-01 -1.18444249706E-01
4.35500000000E+09 -3.66368353022E-01 -5.80470463488E-02 -9.64365486547E-04 +3.51495192004E-04 -9.61629554698E-04 +3.33158088038E-04 -2.80522085228E-01 -9.86830052528E-02
4.36000000000E+09 -3.67923616103E-01 -3.50734793807E-02 -8.40389704464E-04 +1.24410838058E-04 -8.39990328776E-04 +6.89753696840E-05 -2.85683251602E-01 -7.92950778939E-02
4.36500000000E+09 -3.70070548882E-01 -1.13269618102E-02 -1.04397525535E-03 +4.59512253567E-04 -1.09103125253E-03 +5.12347809675E-04 -2.89776143613E-01 -5.94150128519E-02
4.37000000000E+09 -3.73216498082E-01 +1.22823286362E-02 -6.50825135485E-04 +5.51451947732E-04 -6.66984348646E-04 +5.81139325500E-04 -2.92630044270E-01 -4.04544047453E-02
4.37500000000E+09 -3.77112940863E-01 +3.44213425802E-02 -7.79047539730E-04 +5.22923095379E-04 -7.13331592594E-04 +5.59357911830E-04 -2.96033752004E-01 -2.01979344947E-02
4.38000000000E+09 -3.81696195440E-01 +5.47673698849E-02 -6.60019574826E-04 +7.33476904497E-04 -6.40600962070E-04 +7.77614357109E-04 -2.97436387829E-01 +9.12123691142E-04
4.38500000000E+09 -3.85889642373E-01 +7.28949513945E-02 -4.36214393741E-04 +6.41526687766E-04 -4.54623332007E-04 +7.11003820782E-04 -2.98267822614E-01 +2.10365895617E-02
4.39000000000E+09 -3.89541574184E-01 +8.92101973753E-02 -4.29408307973E-04 +6.09175139142E-04 -4.62432410040E-04 +6.86453849585E-04 -2.98589629849E-01 +4.16652294502E-02
4.39500000000E+09 -3.90363160419E-01 +1.05060767670E-01 -4.13743635757E-04 +8.79456137877E-04 -4.08937970358E-04 +8.43303749922E-04 -2.98926636846E-01 +6.07268769673E-02
4.40000000000E+09 -3.88462187554E-01 +1.20301490433E-01 -2.04482680023E-04 +6.57171465205E-04 -2.32158551442E-04 +6.85994484883E-04 -2.98601315772E-01 +8.03822257982E-02
4.40500000000E+09 -3.84305245772E-01 +1.35676160672E-01 -3.99098608489E-04 +7.11796724060E-04 -4.15916683729E-04 +7.25263631329E-04 -2.96898191377E-01 +9.97884205969E-02
4.41000000000E+09 -3.78839892041E-01 +1.52714723520E-01 -2.91621842671E-04 +1.00998218705E-03 -2.31466059158E-04 +1.00739372244E-03 -2.94782675060E-01 +1.18722228019E-01
4.41500000000E+09 -3.71952996499E-01 +1.71713462799E-01 +7.20838552430E-05 +8.20277382552E-04 +1.25989827438E-04 +8.30170572971E-04 -2.91312044045E-01 +1.38193734954E-01
4.42000000000E+09 -3.65140494086E-01 +1.92383470886E-01 +6.62336143728E-05 +8.88007052617E-04 +6.64433655868E-05 +8.27601203851E-04 -2.87085831954E-01 +1.57537243414E-01
4.42500000000E+09 -3.58675618110E-01 +2.13868912054E-01 +2.70592806414E-04 +5.49158349434E-04 +2.94917770547E-04 +5.35156849681E-04 -2.82730971987E-01 +1.75784449916E-01
4.43000000000E+09 -3.53737292766E-01 +2.35118014349E-01 -1.59418088104E-04 +5.81403623713E-04 -1.72981562695E-04 +5.56778067335E-04 -2.78619895690E-01 +1.94075769132E-01
4.43500000000E+09 -3.50294790278E-01 +2.55658207505E-01 +2.56503543528E-05 +8.79703566139E-04 -2.18334258678E-05 +8.95478099112E-04 -2.75013449405E-01 +2.11987764002E-01
4.44000000000E+09 -3.47318804357E-01 +2.75128929932E-01 +2.38186313259E-04 +8.91371919741E-04 +2.77701979530E-04 +8.99091819874E-04 -2.70171369134E-01 +2.31234860870E-01
4.44500000000E+09 -3.43325307293E-01 +2.92094293906E-01 +6.03560822902E-04 +1.08524410530E-03 +6.53721983559E-04 +1.10797504872E-03 -2.63048209768E-01 +2.48949423156E-01
4.45000000000E+09 -3.38605390994E-01 +3.05696924058E-01 +9.21237695470E-04 +5.15116421819E-04 +9.18935980839E-04 +5.22880859053E-04 -2.55712056432E-01 +2.65371941298E-01
4.45500000000E+09 -3.33000985450E-01 +3.17911554753E-01 +6.91578889566E-04 +2.69015725831E-04 +6.04227444458E-04 +2.79227086355E-04 -2.47607169412E-01 +2.81850610431E-01
4.46000000000E+09 -3.25239852887E-01 +3.29296950210E-01 +6.19655689816E-04 +1.87721473426E-04 +6.15681439811E-04 +2.31022368390E-04 -2.39444235234E-01 +2.97281632810E-01
4.46500000000E+09 -3.16167306207E-01 +3.41192848669E-01 +4.25613019897E-04 +2.01950425742E-04 +4.14883394816E-04 +2.39561532377E-04 -2.31155894190E-01 +3.12832128592E-01
4.47000000000E+09 -3.05285317973E-01 +3.55355209479E-01 +5.43870891207E-04 +9.02712324916E-05 +5.58648176655E-04 +7.67876364208E-05 -2.22258282202E-01 +3.28090039277E-01
4.47500000000E+09 -2.92484050369E-01 +3.71365048767E-01 +3.19012663540E-04 +2.18594783531E-04 +2.79791067167E-04 +2.70779616059E-04 -2.13928843981E-01 +3.42759691946E-01
4.48000000000E+09 -2.79071148648E-01 +3.87907067201E-01 +4.17495167980E-04 +3.46897427044E-04 +4.17091534921E-04 +2.93096580835E-04 -2.04677688822E-01 +3.57767347332E-01
4.48500000000E+09 -2.67084442758E-01 +4.04643345634E-01 +5.20376464384E-04 +4.68198895900E-04 +5.09908886732E-04 +4.32044880431E-04 -1.94481338880E-01 +3.71587256678E-01
4.49000000000E+09 -2.56784115871E-01 +4.21241473050E-01 +8.09517123983E-04 +3.29525115062E-04 +8.69795687697E-04 +2.93056636299E-04 -1.84438662607E-01 +3.84678989526E-01
4.49500000000E+09 -2.49040078122E-01 +4.36461555883E-01 +1.01175740645E-03 -7.67382638088E-05 +9.87321832765E-04 -3.84876768763E-05 -1.74520784996E-01 +3.97574148584E-01
4.50000000000E+09 -2.43211386112E-01 +4.50476300843E-01 +5.40547057326E-04 -1.32103967233E-04 +5.44285101180E-04 -1.90011550577E-04 -1.63954981568E-01 +4.10017347924E-01
4.50500000000E+09 -2.37831865459E-01 +4.63067491747E-01 +6.76364612388E-04 -2.81796617841E-04 +6.96179155697E-04 -2.47171398012E-04 -1.53706507310E-01 +4.22144047341E-01
4.51000000000E+09 -2.31485099157E-01 +4.73133699832E-01 +2.93438769532E-04 -9.10201745839E-05 +2.81782748337E-04 -9.88979524316E-05 -1.42833291030E-01 +4.34189709001E-01
4.51500000000E+09 -2.23745877496E-01 +4.81512427460E-01 +4.71648864182E-04 +1.61065133293E-04 +4.74573360542E-04 +1.56329399791E-04 -1.32400658457E-01 +4.45579382154E-01
4.52000000000E+09 -2.13811225048E-01 +4.88696820635E-01 +7.45127922739E-04 +7.33454125864E-05 +7.22396751543E-04 +6.01077225167E-05 -1.21633315167E-01 +4.56649020525E-01
4.52500000000E+09 -2.01540451668E-01 +4.95405267156E-01 +8.36365346877E-04 -8.80741635979E-05 +8.03268952134E-04 -1.00810756788E-04 -1.10009339214E-01 +4.67471229071E-01
4.53000000000E+09 -1.87674047143E-01 +5.02727768924E-01 +9.84156537003E-04 -4.70252152860E-04 +9.31449324488E-04 -4.86710200253E-04 -9.83138111953E-02 +4.76723843863E-01
4.53500000000E+09 -1.72916617888E-01 +5.11398186283E-01 +5.20416732408E-04 -5.89715731151E-04 +4.69934306835E-04 -5.67686733816E-04 -8.61974604060E-02 +4.86618439034E-01
4.54000000000E+09 -1.57788241296E-01 +5.21379273925E-01 +6.14410126652E-04 -4.38780217279E-04 +5.76628791732E-04 -4.73006127119E-04 -7.33399429280E-02 +4.95601145659E-01
4.54500000000E+09 -1.43081332034E-01 +5.32137896078E-01 +5.10149129384E-04 -6.80056262166E-04 +5.18845124988E-04 -6.67148820673E-04 -6.16269508733E-02 +5.04063264276E-01
4.55000000000E+09 -1.30089926136E-01 +5.42673413982E-01 +3.43459763975E-04 -8.45645475575E-04 +3.11759968599E-04 -8.27388292965E-04 -4.91556157090E-02 +5.13128084713E-01
4.55500000000E+09 -1.19227088760E-01 +5.52934910317E-01 +2.28628526730E-05 -6.51371538709E-04 -6.04740694886E-06 -6.47282940838E-04 -3.72241203642E-02 +5.21504587852E-01
4.56000000000E+09 -1.09386202879E-01 +5.61436871875E-01 +1.57808659054E-05 -3.41879950731E-04 +5.25920214038E-05 -2.96614287548E-04 -2.46972567145E-02 +5.29392385595E-01
4.56500000000E+09 -1.01062864049E-01 +5.67909908816E-01 +5.93432687786E-04 -4.24375607096E-04 +5.62267815298E-04 -3.61289104067E-04 -1.24609415004E-02 +5.36283284714E-01
4.57000000000E+09 -9.28635522161E-02 +5.73017613509E-01 +4.16020802031E-04 -1.03765044750E-03 +3.74491835212E-04 -1.00530170849E-03 -3.25090689878E-04 +5.43123446098E-01
