# Hz S RI R 50
! CMT, C1220, 16058040, 17.2.0/1
! Date: 15/08/2018 12:08:15
! Data: Format (Calibration Info)
! Freq                      S11: Re/Im (F2)                       S21: Re/Im (F2)                       S12: Re/Im (F2)                       S22: Re/Im (F2)            
4.00000000000E+09 +6.54553167354E-01 -3.54873652333E-01 -3.05739721135E-04 -8.38516454544E-04 -2.63789220052E-04 -8.69954971747E-04 +7.66486638024E-01 -3.22602022110E-01
4.00500000000E+09 +6.46451120251E-01 -3.61129472506E-01 -4.39619323042E-04 -5.73870784490E-04 -4.39072786257E-04 -6.02274123401E-04 +7.57065385996E-01 -3.33160793146E-01
4.01000000000E+09 +6.37638698705E-01 -3.66904177551E-01 -3.39584302649E-04 -4.67546498315E-04 -2.74704493143E-04 -5.32500167731E-04 +7.47540060483E-01 -3.43798060939E-01
4.01500000000E+09 +6.27871333927E-01 -3.73769784195E-01 -2.24822790664E-04 -6.09081718743E-04 -3.07379028423E-04 -6.64114487889E-04 +7.37921193100E-01 -3.53847399437E-01
4.02000000000E+09 +6.17000695914E-01 -3.82173657654E-01 -4.40914094327E-04 -6.88982175582E-04 -4.00015137656E-04 -6.85753004278E-04 +7.27694504884E-01 -3.63965690727E-01
4.02500000000E+09 +6.05253377870E-01 -3.91299493921E-01 -6.49122974067E-04 -6.68381140337E-04 -6.21343093613E-04 -6.76099262562E-04 +7.17066258930E-01 -3.73528935185E-01
4.03000000000E+09 +5.93832386249E-01 -4.01201422562E-01 -7.42751980279E-04 -3.70256719584E-04 -7.45069421314E-04 -3.74554383237E-04 +7.06323330551E-01 -3.83010762246E-01
4.03500000000E+09 +5.82867118375E-01 -4.12394508380E-01 -6.33472632308E-04 -3.42034778608E-04 -6.75244112020E-04 -3.56998908522E-04 +6.94781297820E-01 -3.92696634840E-01
4.04000000000E+09 +5.71868187623E-01 -4.23244020248E-01 -7.00964448597E-04 -1.41476933040E-04 -7.19922080919E-04 -2.10474227811E-04 +6.83558923942E-01 -4.02713589643E-01
4.04500000000E+09 +5.61267487320E-01 -4.33412889307E-01 -5.63851813082E-04 -1.39101675569E-04 -5.52927356577E-04 -1.56262470994E-04 +6.71328590998E-01 -4.12835863940E-01
4.05000000000E+09 +5.50379980206E-01 -4.41839343793E-01 -5.60159997087E-04 -3.15277929746E-04 -5.43419625141E-04 -3.24414730810E-04 +6.59114074905E-01 -4.21869462205E-01
4.05500000000E+09 +5.39224383798E-01 -4.48181396690E-01 -7.43312765407E-04 -2.44175588429E-04 -7.74781605532E-04 -3.04448779320E-04 +6.46821707433E-01 -4.30709407794E-01
4.06000000000E+09 +5.27863048124E-01 -4.53074178744E-01 -7.22687622841E-04 -1.54662725008E-04 -7.77855879045E-04 -2.39510983341E-04 +6.33727976544E-01 -4.38938500844E-01
4.06500000000E+09 +5.15232813557E-01 -4.57031296454E-01 -9.17273301498E-04 -9.24833949451E-05 -9.31336099576E-04 -1.25014330670E-04 +6.20441864134E-01 -4.46707035127E-01
4.07000000000E+09 +5.01663364333E-01 -4.60732383863E-01 -8.63274715907E-04 +2.08365029969E-04 -9.09695026554E-04 +2.22298361646E-04 +6.06533742572E-01 -4.54581904304E-01
4.07500000000E+09 +4.86697781308E-01 -4.65227201756E-01 -7.60230541576E-04 +1.64846156098E-04 -7.66214487105E-04 +1.54100483463E-04 +5.92441496857E-01 -4.62485572923E-01
4.08000000000E+09 +4.70225107421E-01 -4.70247873189E-01 -8.85437072719E-04 +2.20189074769E-04 -9.56287979261E-04 +1.71089761287E-04 +5.78557401296E-01 -4.70111225917E-01
4.08500000000E+09 +4.53204871885E-01 -4.75660288206E-01 -9.07531229687E-04 +4.82402835950E-04 -9.45878985625E-04 +4.75295278692E-04 +5.64284902011E-01 -4.78002401467E-01
4.09000000000E+09 +4.36403602276E-01 -4.82125309412E-01 -5.32474812879E-04 +4.58929702271E-04 -5.74670480928E-04 +4.50107990493E-04 +5.49607004766E-01 -4.84674289313E-01
4.09500000000E+09 +4.19797279144E-01 -4.89144855090E-01 -7.80185835099E-04 +3.74613747415E-04 -7.90868040926E-04 +3.84184372224E-04 +5.35332235374E-01 -4.91113291534E-01
4.10000000000E+09 +4.02507468210E-01 -4.95987503347E-01 -7.73827955033E-04 +5.48390234421E-04 -7.86292610305E-04 +5.69497611487E-04 +5.19428713952E-01 -4.97501864922E-01
4.10500000000E+09 +3.85477289873E-01 -5.00387708465E-01 -7.59082513275E-04 +8.18431301694E-04 -7.52879254806E-04 +8.33645893423E-04 +5.03395501624E-01 -5.02974018275E-01
4.11000000000E+09 +3.69365076697E-01 -5.02691585099E-01 -6.31772254315E-04 +1.02414172445E-03 -5.94837759524E-04 +1.03139266162E-03 +4.86731944259E-01 -5.08575782812E-01
4.11500000000E+09 +3.54416901834E-01 -5.03591963362E-01 +3.37585459202E-07 +1.12624195604E-03 -4.39105234084E-06 +1.16691838331E-03 +4.70004967375E-01 -5.13491510821E-01
4.12000000000E+09 +3.38800756995E-01 -5.04141050685E-01 +2.58047005766E-05 +5.80547991958E-04 -3.57942628874E-06 +5.74380067808E-04 +4.53458555196E-01 -5.18562226641E-01
4.12500000000E+09 +3.22219366497E-01 -5.04498709909E-01 -2.36321664235E-04 +5.98298429138E-04 -2.79492426732E-04 +5.67017439142E-04 +4.35869054874E-01 -5.23113407398E-01
4.13000000000E+09 +3.04071330490E-01 -5.05582029855E-01 -3.99481953186E-04 +7.38010495656E-04 -4.68353128338E-04 +7.83160065919E-04 +4.18900633532E-01 -5.26505359456E-01
4.13500000000E+09 +2.83757603726E-01 -5.07107316207E-01 -2.83479033550E-04 +9.64205996686E-04 -3.32891778010E-04 +1.00910788701E-03 +4.01468413853E-01 -5.30096443765E-01
4.14000000000E+09 +2.63060858759E-01 -5.08616582571E-01 +4.91676948757E-05 +1.29511964313E-03 -1.04474569185E-05 +1.31910675955E-03 +3.83042692897E-01 -5.33091061517E-01
4.14500000000E+09 +2.42449455237E-01 -5.11622441357E-01 +5.54404227151E-04 +1.01580986071E-03 +5.81277009475E-04 +1.06953026759E-03 +3.64827353448E-01 -5.35698617589E-01
4.15000000000E+09 +2.21964986707E-01 -5.15345432575E-01 +5.31273178585E-04 +5.84641115537E-04 +5.88599326185E-04 +6.00071343727E-04 +3.46399170483E-01 -5.37636409072E-01
4.15500000000E+09 +2.01800604211E-01 -5.19007096435E-01 +2.25308271480E-04 +5.27917414000E-04 +2.30264594340E-04 +6.17622041740E-04 +3.28338305949E-01 -5.38831680676E-01
4.16000000000E+09 +1.82707979947E-01 -5.21002283953E-01 +2.69487025664E-04 +6.76628399718E-04 +2.28158035423E-04 +7.16303919160E-04 +3.10212784508E-01 -5.39514753746E-01
4.16500000000E+09 +1.65197215542E-01 -5.21261267698E-01 +3.00506039713E-04 +7.03251064934E-04 +2.97936275746E-04 +7.25054464090E-04 +2.91615683897E-01 -5.39126046155E-01
4.17000000000E+09 +1.49049274212E-01 -5.19459136297E-01 +5.45546175242E-04 +9.31716590508E-04 +5.22297435793E-04 +9.16158852199E-04 +2.72878015665E-01 -5.38587300858E-01
4.17500000000E+09 +1.33817466761E-01 -5.16087015803E-01 +7.50859455367E-04 +4.08568500487E-04 +7.81724941551E-04 +4.53280028986E-04 +2.53806693558E-01 -5.37209094899E-01
4.18000000000E+09 +1.18261614164E-01 -5.11456903586E-01 +5.12406478147E-04 +4.11039179164E-04 +5.13468658350E-04 +3.74540818215E-04 +2.34691546819E-01 -5.35666209490E-01
4.18500000000E+09 +1.01782756090E-01 -5.05853152175E-01 +4.33329360913E-04 +5.26487855281E-04 +4.48707442396E-04 +5.23633383615E-04 +2.15313075073E-01 -5.33309221302E-01
4.19000000000E+09 +8.42621126566E-02 -4.99831895578E-01 +7.52675685157E-04 +5.16388761794E-04 +7.58379367026E-04 +5.59227929543E-04 +1.96423087479E-01 -5.30467178652E-01
4.19500000000E+09 +6.58034269587E-02 -4.93942714593E-01 +6.40774221531E-04 +4.33540133234E-04 +6.36240720158E-04 +3.90801144432E-04 +1.77537007353E-01 -5.27142820017E-01
4.20000000000E+09 +4.63437398808E-02 -4.88574058259E-01 +7.35064023363E-04 +5.35717917209E-04 +7.63661931113E-04 +5.43528563302E-04 +1.57757697964E-01 -5.23520367845E-01
4.20500000000E+09 +2.67425668395E-02 -4.83692940072E-01 +1.08055765552E-03 +3.03361078870E-04 +1.12611464535E-03 +3.46744675030E-04 +1.37755051584E-01 -5.17654721307E-01
4.21000000000E+09 +7.95355676521E-03 -4.78545196562E-01 +7.08130594239E-04 -7.09914926594E-05 +7.31925377011E-04 -9.05927766655E-05 +1.18431600397E-01 -5.12183669404E-01
4.21500000000E+09 -1.01780965537E-02 -4.73255317964E-01 +6.51238013013E-04 +3.70433795528E-04 +6.83558336324E-04 +3.69693267966E-04 +9.90055278819E-02 -5.06241647482E-01
4.22000000000E+09 -2.69941512332E-02 -4.66289970171E-01 +1.18354419914E-03 +2.90159618208E-04 +1.24239618103E-03 +2.21432230950E-04 +8.05464448077E-02 -4.99331311145E-01
4.22500000000E+09 -4.21839444558E-02 -4.57945211380E-01 +9.86994625421E-04 -3.16806978031E-04 +1.05974611470E-03 -2.83084984427E-04 +6.23843250686E-02 -4.92864414415E-01
4.23000000000E+09 -5.69073632358E-02 -4.48168578575E-01 +9.03194577147E-04 -2.84275701716E-04 +8.87269095432E-04 -2.26949393113E-04 +4.38917697039E-02 -4.84924820290E-01
4.23500000000E+09 -7.15654319562E-02 -4.36154784396E-01 +6.11282687114E-04 -1.98050514495E-04 +6.32562285719E-04 -2.35414718686E-04 +2.57436592371E-02 -4.76175990985E-01
4.24000000000E+09 -8.63490117709E-02 -4.23305672898E-01 +8.87217253650E-04 +3.20889801895E-05 +9.27522712388E-04 +3.18988941953E-05 +7.37341968590E-03 -4.66588122983E-01
4.24500000000E+09 -1.03311658636E-01 -4.10690116152E-01 +1.33742326745E-03 -1.64435183573E-04 +1.37422575314E-03 -1.54485459360E-04 -1.11770363572E-02 -4.56125432042E-01
4.25000000000E+09 -1.22714882381E-01 -3.96926211902E-01 +1.29006678759E-03 -8.02977201004E-04 +1.28109272097E-03 -8.43343075872E-04 -2.85914811034E-02 -4.44686759556E-01
4.25500000000E+09 -1.42618671616E-01 -3.82548016165E-01 +9.22882789382E-04 -1.03294272410E-03 +8.97093348178E-04 -1.03973539004E-03 -4.59704744848E-02 -4.33691829827E-01
4.26000000000E+09 -1.62274321036E-01 -3.69527921417E-01 +5.49355397512E-04 -9.70438476806E-04 +6.17416968265E-04 -1.05893700438E-03 -6.30019637683E-02 -4.21124471034E-01
4.26500000000E+09 -1.81576330537E-01 -3.56424684068E-01 +4.90137184355E-04 -9.56801652849E-04 +5.61649542202E-04 -9.29643576462E-04 -7.83241025323E-02 -4.07995100219E-01
4.27000000000E+09 -1.98653919231E-01 -3.43857580095E-01 +4.03677833785E-04 -9.65164025786E-04 +3.99950731563E-04 -1.04996699005E-03 -9.41577783138E-02 -3.95145529204E-01
4.27500000000E+09 -2.13536155853E-01 -3.31753376948E-01 +2.81797164237E-04 -8.33315459357E-04 +2.75027364080E-04 -8.55502620226E-04 -1.10388317561E-01 -3.80559535790E-01
4.28000000000E+09 -2.26573123872E-01 -3.19261222295E-01 +2.44852740683E-04 -9.46189678784E-04 +2.53385275981E-04 -9.61704591452E-04 -1.25352683400E-01 -3.66359523564E-01
4.28500000000E+09 -2.38438807762E-01 -3.05097166947E-01 +1.10945611229E-04 -8.17858519203E-04 +9.51425523221E-05 -7.63735958089E-04 -1.41426626244E-01 -3.52012489967E-01
4.29000000000E+09 -2.48748704856E-01 -2.88640431348E-01 +4.17561582556E-04 -8.84113825307E-04 +3.98140126738E-04 -8.72888565484E-04 -1.56966820660E-01 -3.36572143019E-01
4.29500000000E+09 -2.58507624464E-01 -2.70359370494E-01 +1.95501170783E-04 -1.22407023882E-03 +1.32831894196E-04 -1.28497801219E-03 -1.70840898960E-01 -3.20263915865E-01
4.30000000000E+09 -2.68328480228E-01 -2.51019803634E-01 -4.83088276839E-05 -1.20012533837E-03 -1.07584382475E-04 -1.19394004822E-03 -1.83262796790E-01 -3.03995720467E-01
4.30500000000E+09 -2.79453199705E-01 -2.31003728517E-01 -4.10233602817E-04 -1.30273332289E-03 -4.36751670170E-04 -1.36737918551E-03 -1.95326079767E-01 -2.87183405019E-01
4.31000000000E+09 -2.92078642217E-01 -2.10661012865E-01 -5.33596184760E-04 -1.10915855434E-03 -5.66617750986E-04 -1.10876476392E-03 -2.06073061086E-01 -2.69911661089E-01
4.31500000000E+09 -3.05252656026E-01 -1.90775856264E-01 -7.84099839977E-04 -9.05871009287E-04 -8.28019004814E-04 -8.84626583476E-04 -2.17127896553E-01 -2.52751587037E-01
4.32000000000E+09 -3.18655129128E-01 -1.71631312657E-01 -7.55313601475E-04 -5.14040770587E-04 -8.17206688062E-04 -5.37503258924E-04 -2.28574017980E-01 -2.34124245919E-01
4.32500000000E+09 -3.29922864602E-01 -1.53555421221E-01 -2.27768688684E-04 -4.22231245462E-04 -2.35829446747E-04 -4.67429976552E-04 -2.38072096557E-01 -2.15091516262E-01
4.33000000000E+09 -3.38985690977E-01 -1.37494489273E-01 -4.55927867451E-04 -9.22489816782E-04 -4.67084008869E-04 -8.97715746715E-04 -2.47813929833E-01 -1.96500484270E-01
4.33500000000E+09 -3.46246855970E-01 -1.21746679567E-01 -6.07653126215E-04 -6.80203943507E-04 -6.75586767337E-04 -6.64436159715E-04 -2.56449408336E-01 -1.76234530371E-01
4.34000000000E+09 -3.50410295806E-01 -1.05963529377E-01 -8.35343970728E-04 -8.53143197582E-04 -8.09333546893E-04 -9.16940839288E-04 -2.63355846571E-01 -1.56488489712E-01
4.34500000000E+09 -3.52466305057E-01 -8.94493100499E-02 -1.15648529403E-03 -6.14201152988E-04 -1.12963523985E-03 -6.65884668121E-04 -2.70539572940E-01 -1.36792537525E-01
4.35000000000E+09 -3.53586271016E-01 -7.15432133313E-02 -1.09973695899E-03 -7.39077953996E-05 -1.13085522348E-03 -1.03463470542E-04 -2.76917344877E-01 -1.17038417132E-01
4.35500000000E+09 -3.54831546609E-01 -5.10866517394E-02 -7.12216540918E-04 -4.41582611086E-05 -7.47411067345E-04 -6.01226837772E-05 -2.83125996503E-01 -9.69451627847E-02
4.36000000000E+09 -3.56133748730E-01 -2.86902932279E-02 -8.43752151237E-04 -5.01614107594E-04 -8.34957152058E-04 -4.63449472631E-04 -2.88134799862E-01 -7.70844432103E-02
4.36500000000E+09 -3.58176129767E-01 -5.25658949408E-03 -1.08895152961E-03 +2.74275334173E-05 -1.07216247645E-03 +5.31041135501E-05 -2.92266706379E-01 -5.69555925638E-02
4.37000000000E+09 -3.61062460923E-01 +1.81884337814E-02 -7.28982471766E-04 -1.34242540647E-04 -7.45225249366E-04 -7.57565772806E-05 -2.95205957446E-01 -3.77261214904E-02
4.37500000000E+09 -3.64887332567E-01 +3.96205391218E-02 -1.03119788402E-03 +5.73571550963E-05 -1.06527421476E-03 +6.28380061222E-05 -2.98345329616E-01 -1.76915047481E-02
4.38000000000E+09 -3.69860443013E-01 +5.91510481614E-02 -9.83425086156E-04 +2.18614689709E-04 -1.02948627149E-03 +2.02213918131E-04 -3.00053945587E-01 +3.01238838879E-03
4.38500000000E+09 -3.74280394062E-01 +7.66982229316E-02 -9.04491614975E-04 +3.54111466653E-04 -8.56914431755E-04 +3.62469110668E-04 -3.01070759018E-01 +2.30851322477E-02
4.39000000000E+09 -3.77817629786E-01 +9.26943147042E-02 -6.64705708398E-04 +2.82460207338E-04 -6.63233798542E-04 +2.83512728103E-04 -3.01766794659E-01 +4.38933638507E-02
4.39500000000E+09 -3.78059433085E-01 +1.07565470602E-01 -7.02823355859E-04 +3.35030638403E-04 -7.13219300005E-04 +2.97975104436E-04 -3.01996201627E-01 +6.34767887353E-02
4.40000000000E+09 -3.75521211436E-01 +1.21469535108E-01 -8.78602951529E-04 +1.36273172259E-04 -8.66513489216E-04 +1.35430935402E-04 -3.01336459078E-01 +8.39728390363E-02
4.40500000000E+09 -3.71473219050E-01 +1.35260469884E-01 -1.06855279087E-03 +4.52137305077E-04 -1.04552480981E-03 +4.78936454430E-04 -2.99549946169E-01 +1.03611149149E-01
4.41000000000E+09 -3.66539549367E-01 +1.51819409850E-01 -9.33700984706E-04 +8.64838607164E-04 -8.97216935821E-04 +8.48431805816E-04 -2.97320938753E-01 +1.23140946507E-01
4.41500000000E+09 -3.59648615408E-01 +1.70952491963E-01 -5.40099019688E-04 +7.38586827725E-04 -5.25862709062E-04 +7.66781596791E-04 -2.93581272761E-01 +1.42690790991E-01
4.42000000000E+09 -3.52411320746E-01 +1.91822765166E-01 -5.42688896077E-04 +8.69420916639E-04 -5.66615394428E-04 +8.35057384377E-04 -2.89492999081E-01 +1.62042838829E-01
4.42500000000E+09 -3.45350692107E-01 +2.13302453198E-01 -2.65312136673E-04 +5.86416664053E-04 -3.05867559576E-04 +6.15069136215E-04 -2.84652290818E-01 +1.80758785613E-01
4.43000000000E+09 -3.40192668950E-01 +2.34160835436E-01 -6.66745170989E-04 +7.10850784213E-04 -6.43355247171E-04 +7.17243433271E-04 -2.79954730371E-01 +1.98679043345E-01
4.43500000000E+09 -3.36988576009E-01 +2.54035374400E-01 -5.91799786438E-04 +9.55906541481E-04 -5.76522786963E-04 +9.51748529145E-04 -2.75808652641E-01 +2.16902813514E-01
4.44000000000E+09 -3.34953596225E-01 +2.73004598074E-01 -3.90287409493E-04 +1.06273186690E-03 -4.05131442020E-04 +1.06013174460E-03 -2.70221655695E-01 +2.36169827297E-01
4.44500000000E+09 -3.31456806095E-01 +2.90008422464E-01 -4.86172950424E-06 +1.30025697307E-03 -4.54856791842E-05 +1.28443553410E-03 -2.62726852602E-01 +2.53509571702E-01
4.45000000000E+09 -3.27320225240E-01 +3.03466343630E-01 +3.17927125467E-04 +9.35379882587E-04 +2.55159231031E-04 +8.83735321139E-04 -2.55668447155E-01 +2.69926647593E-01
4.45500000000E+09 -3.22100323011E-01 +3.15580285314E-01 +5.83325387913E-05 +7.85431403242E-04 +7.48611997576E-05 +7.48678678850E-04 -2.47572477887E-01 +2.86314404296E-01
4.46000000000E+09 -3.14315737669E-01 +3.26745496039E-01 +9.67151336316E-05 +7.33102346777E-04 +9.80537826649E-05 +8.13591714565E-04 -2.39599916696E-01 +3.01495467706E-01
4.46500000000E+09 -3.05268184644E-01 +3.38017181761E-01 -2.06555746715E-05 +9.72573804625E-04 +3.36998375827E-05 +8.94004540641E-04 -2.31146495854E-01 +3.16726481686E-01
4.47000000000E+09 -2.94779974704E-01 +3.51691315974E-01 +4.49348035586E-04 +7.55578378349E-04 +4.43709481648E-04 +7.63328346799E-04 -2.22409371546E-01 +3.31988439354E-01
4.47500000000E+09 -2.82183803660E-01 +3.67397752314E-01 +1.16036275275E-04 +7.79002391720E-04 +9.03451920666E-05 +7.80985533493E-04 -2.13288880698E-01 +3.46946316947E-01
4.48000000000E+09 -2.69073754050E-01 +3.83756120826E-01 +2.52774738809E-04 +8.66431867068E-04 +2.25077044855E-04 +8.11301153056E-04 -2.03967045439E-01 +3.61646071654E-01
4.48500000000E+09 -2.57405621185E-01 +4.00471123960E-01 +2.89220104292E-04 +1.15783771536E-03 +3.03409127336E-04 +1.12949181679E-03 -1.93904980853E-01 +3.76043479178E-01
4.49000000000E+09 -2.47413826547E-01 +4.16733076305E-01 +8.11221442477E-04 +1.08947704202E-03 +8.35243715367E-04 +1.04546361200E-03 -1.83589045606E-01 +3.89317212742E-01
4.49500000000E+09 -2.40195843106E-01 +4.31742190797E-01 +1.09840343530E-03 +6.33187987320E-04 +1.11028476369E-03 +5.16455803916E-04 -1.73471743096E-01 +4.02133084823E-01
4.50000000000E+09 -2.34723928771E-01 +4.45889972867E-01 +7.20495872043E-04 +4.73653668146E-04 +6.89365262903E-04 +4.53463449872E-04 -1.62938280925E-01 +4.14783149895E-01
4.50500000000E+09 -2.29289202444E-01 +4.58107774236E-01 +7.43835596591E-04 +2.99311866697E-04 +7.59996026666E-04 +3.10749944714E-04 -1.52107230874E-01 +4.26721064374E-01
4.51000000000E+09 -2.23365545991E-01 +4.67413317648E-01 +5.76586336173E-04 +5.27809149107E-04 +5.44775961908E-04 +5.19445923351E-04 -1.40834204513E-01 +4.38181018827E-01
4.51500000000E+09 -2.16068520572E-01 +4.75344614422E-01 +7.72383295876E-04 +5.94842419402E-04 +7.30706444040E-04 +5.56348697204E-04 -1.30071313625E-01 +4.49355348104E-01
4.52000000000E+09 -2.06663998193E-01 +4.82138427773E-01 +9.96718450807E-04 +5.27700778299E-04 +9.71866528198E-04 +5.17288253854E-04 -1.18849467624E-01 +4.60164386751E-01
4.52500000000E+09 -1.94626601914E-01 +4.88879326514E-01 +1.10582205973E-03 +4.24314701848E-04 +1.10982083563E-03 +4.33029924131E-04 -1.07413320981E-01 +4.70804338359E-01
4.53000000000E+09 -1.81044236369E-01 +4.95946862570E-01 +1.40721376162E-03 -2.06428049339E-05 +1.34087872269E-03 -7.60405061508E-05 -9.56094691595E-02 +4.80218526194E-01
4.53500000000E+09 -1.66434367470E-01 +5.04456319453E-01 +9.56615651360E-04 -1.11582998324E-04 +9.62851066870E-04 -1.13876993257E-04 -8.34849107621E-02 +4.89860925344E-01
4.54000000000E+09 -1.51491941806E-01 +5.14232375354E-01 +1.10180997983E-03 -1.77317380569E-04 +1.08333248485E-03 -1.47637798859E-04 -7.08785618066E-02 +4.98722406117E-01
4.54500000000E+09 -1.37018622005E-01 +5.24820064807E-01 +1.00741240961E-03 -2.72378496256E-04 +9.71791575641E-04 -3.03997792523E-04 -5.89856038366E-02 +5.06755575739E-01
4.55000000000E+09 -1.24508681048E-01 +5.35110680397E-01 +1.01303886134E-03 -5.34316181648E-04 +9.72256943644E-04 -5.03577718279E-04 -4.64812583744E-02 +5.15403587527E-01
4.55500000000E+09 -1.14197995583E-01 +5.45259735494E-01 +5.91272417356E-04 -4.83443725575E-04 +5.95776914429E-04 -5.23864194802E-04 -3.46236207407E-02 +5.23602570854E-01
4.56000000000E+09 -1.04726868528E-01 +5.53800964772E-01 +6.25508557331E-04 -1.54388976016E-04 +6.41709623428E-04 -1.23954216893E-04 -2.16037921999E-02 +5.31373697934E-01
4.56500000000E+09 -9.64164644945E-02 +5.60433790040E-01 +1.19648351204E-03 -3.28267947603E-04 +1.17160471521E-03 -3.85476326270E-04 -9.49902163406E-03 +5.38094482997E-01
4.57000000000E+09 -8.83496750599E-02 +5.65354068866E-01 +9.95497872696E-04 -9.95717727739E-04 +9.58916160042E-04 -1.02810562322E-03 +2.45356979304E-03 +5.45258584544E-01
