# Hz S RI R 50
! CMT, C1220, 16058040, 17.2.0/1
! Date: 15/08/2018 12:08:48
! Data: Format (Calibration Info)
! Freq                      S11: Re/Im (F2)                       S21: Re/Im (F2)                       S12: Re/Im (F2)                       S22: Re/Im (F2)            
4.00000000000E+09 +6.54664779655E-01 -3.53862200804E-01 -3.01515652946E-04 -6.60421376205E-04 -2.59073132708E-04 -7.10814112008E-04 +7.66412997108E-01 -3.22592709408E-01
4.00500000000E+09 +6.46585274553E-01 -3.60101149445E-01 -3.60517834240E-04 -4.50028074970E-04 -3.31684482365E-04 -4.89816517513E-04 +7.56919424767E-01 -3.33148555212E-01
4.01000000000E+09 +6.37685218713E-01 -3.65937445671E-01 -1.72985368211E-04 -4.90720431736E-04 -2.08341012850E-04 -5.24398513786E-04 +7.47120497935E-01 -3.43653857670E-01
4.01500000000E+09 +6.28068835920E-01 -3.72872114809E-01 -2.14516868657E-04 -6.13478648491E-04 -2.09443017912E-04 -5.80856926907E-04 +7.37189331715E-01 -3.53401737944E-01
4.02000000000E+09 +6.17183003005E-01 -3.81283896397E-01 -4.42324300104E-04 -6.14311769173E-04 -4.34501243854E-04 -6.25390996428E-04 +7.26881094706E-01 -3.63349686375E-01
4.02500000000E+09 +6.05381822913E-01 -3.90447112618E-01 -6.05953277459E-04 -5.52428078426E-04 -6.26749554163E-04 -5.46112612129E-04 +7.16182960750E-01 -3.72727251079E-01
4.03000000000E+09 +5.93946138025E-01 -4.00409286708E-01 -6.84081660035E-04 -3.15147839080E-04 -6.50878341242E-04 -3.49917667919E-04 +7.05670066233E-01 -3.82187519229E-01
4.03500000000E+09 +5.82812038673E-01 -4.11163383978E-01 -5.17670521380E-04 -2.71487480417E-04 -4.89148698147E-04 -3.11613802228E-04 +6.94141847201E-01 -3.91896303414E-01
4.04000000000E+09 +5.72001600658E-01 -4.21943604619E-01 -5.54342123321E-04 -2.15538715411E-04 -5.59096809583E-04 -2.50410747841E-04 +6.82855525207E-01 -4.01935442226E-01
4.04500000000E+09 +5.61424081178E-01 -4.32168142505E-01 -5.60814647588E-04 -2.31450853939E-04 -5.71389470018E-04 -2.89484619959E-04 +6.70581257534E-01 -4.11800471730E-01
4.05000000000E+09 +5.50529125834E-01 -4.40771062196E-01 -5.42597264950E-04 -2.52856444131E-04 -5.67801804402E-04 -2.61464094708E-04 +6.58330265524E-01 -4.20406457353E-01
4.05500000000E+09 +5.39069283355E-01 -4.47368204990E-01 -6.09826254755E-04 -3.08330486504E-04 -6.37045790535E-04 -3.63719817849E-04 +6.46210568249E-01 -4.29012743511E-01
4.06000000000E+09 +5.27470431134E-01 -4.52077230271E-01 -6.81890892407E-04 -2.39605392419E-04 -6.95403780703E-04 -2.22081009106E-04 +6.33389624746E-01 -4.37140338745E-01
4.06500000000E+09 +5.14923210475E-01 -4.55927517835E-01 -7.91095935928E-04 -1.99433882650E-04 -8.53163888840E-04 -2.16396664503E-04 +6.19983185002E-01 -4.44970917174E-01
4.07000000000E+09 +5.01392978540E-01 -4.59625066518E-01 -9.21800799337E-04 +1.00115077490E-05 -9.58093963436E-04 -2.69227780543E-05 +6.06227118640E-01 -4.52821675250E-01
4.07500000000E+09 +4.86425611637E-01 -4.64053621412E-01 -9.29178805259E-04 +9.18327410852E-05 -9.12591507027E-04 -2.26167691505E-05 +5.92163503830E-01 -4.60931347579E-01
4.08000000000E+09 +4.70067168248E-01 -4.69137372998E-01 -1.03510724670E-03 +2.53960102547E-04 -1.08338636119E-03 +2.41374521186E-04 +5.78457950096E-01 -4.68314405864E-01
4.08500000000E+09 +4.53037789180E-01 -4.74519788402E-01 -9.49392036102E-04 +5.72103388545E-04 -9.84958776405E-04 +5.19583698267E-04 +5.64356468604E-01 -4.76026193650E-01
4.09000000000E+09 +4.36424365945E-01 -4.80961254972E-01 -5.71295906478E-04 +5.25993913413E-04 -5.62458977446E-04 +4.97656142277E-04 +5.49915826191E-01 -4.82492081625E-01
4.09500000000E+09 +4.19897615482E-01 -4.88054485958E-01 -7.55065364471E-04 +4.06206778412E-04 -7.28291282285E-04 +3.63232533485E-04 +5.35682919959E-01 -4.88930665322E-01
4.10000000000E+09 +4.02509714517E-01 -4.94799127605E-01 -7.96290054099E-04 +4.57197922501E-04 -8.42894821780E-04 +4.86472411564E-04 +5.19712877923E-01 -4.95268491970E-01
4.10500000000E+09 +3.85624662721E-01 -4.99047962053E-01 -9.61197566034E-04 +7.79578689026E-04 -9.58455245166E-04 +8.03336251372E-04 +5.03785709269E-01 -5.00646846177E-01
4.11000000000E+09 +3.69620145226E-01 -5.01454911040E-01 -7.70965385327E-04 +1.04929838371E-03 -8.22828098101E-04 +1.07587873244E-03 +4.87147581071E-01 -5.06545802831E-01
4.11500000000E+09 +3.54565234555E-01 -5.02256073128E-01 -1.84779597943E-04 +1.26991055545E-03 -2.37098878130E-04 +1.27718454813E-03 +4.70321437736E-01 -5.11216918856E-01
4.12000000000E+09 +3.39065371181E-01 -5.02825837577E-01 -1.49693492706E-04 +8.46661194284E-04 -1.95202556501E-04 +8.02469005386E-04 +4.54390085225E-01 -5.16416716030E-01
4.12500000000E+09 +3.22715806697E-01 -5.03155741173E-01 -8.89095405911E-05 +8.82976663202E-04 -9.31584630292E-05 +9.45980592030E-04 +4.37193937673E-01 -5.20982286749E-01
4.13000000000E+09 +3.04645949207E-01 -5.04639354753E-01 -1.39052991922E-04 +8.26909510964E-04 -1.87710863548E-04 +8.55081071378E-04 +4.20270653585E-01 -5.24193704977E-01
4.13500000000E+09 +2.84131696062E-01 -5.06219267862E-01 -1.88193183303E-04 +9.56685442151E-04 -2.22085714919E-04 +8.90765158839E-04 +4.03144546086E-01 -5.27720444567E-01
4.14000000000E+09 +2.63290051708E-01 -5.07767602615E-01 -2.44768202513E-05 +1.25011949483E-03 -4.96254964293E-05 +1.26439395444E-03 +3.84683242770E-01 -5.30778374546E-01
4.14500000000E+09 +2.42627295664E-01 -5.10341990898E-01 +5.11009408922E-04 +1.14160790104E-03 +4.60652822722E-04 +1.22064288718E-03 +3.66684799150E-01 -5.33397884137E-01
4.15000000000E+09 +2.22566114698E-01 -5.13896387300E-01 +5.27558728630E-04 +7.45929681444E-04 +4.92070269370E-04 +8.33761655251E-04 +3.48393845634E-01 -5.35672569428E-01
4.15500000000E+09 +2.02762238686E-01 -5.17819060153E-01 +2.72399221950E-04 +8.13624563734E-04 +2.66721258489E-04 +8.07655696356E-04 +3.30221410076E-01 -5.37003116719E-01
4.16000000000E+09 +1.83774504751E-01 -5.20197675783E-01 +4.98958146847E-04 +8.94721080722E-04 +4.87031302063E-04 +9.10403747543E-04 +3.12826718450E-01 -5.37723340419E-01
4.16500000000E+09 +1.66169723766E-01 -5.20769317006E-01 +6.35480021452E-04 +7.40786958239E-04 +6.44166944766E-04 +7.54483349534E-04 +2.94392506067E-01 -5.37898481965E-01
4.17000000000E+09 +1.49598688408E-01 -5.18972866712E-01 +7.04753369524E-04 +8.78148081324E-04 +6.97403267763E-04 +8.96853808743E-04 +2.75759027207E-01 -5.37015202236E-01
4.17500000000E+09 +1.34212739381E-01 -5.15532493837E-01 +8.39076289410E-04 +4.11967827294E-04 +8.28489478968E-04 +4.36791889862E-04 +2.57132656040E-01 -5.35969794565E-01
4.18000000000E+09 +1.18482832016E-01 -5.10479138608E-01 +5.22010717538E-04 +4.22432777641E-04 +5.77619818128E-04 +4.44522400389E-04 +2.37660672780E-01 -5.34698392375E-01
4.18500000000E+09 +1.02415969688E-01 -5.04953448143E-01 +5.63523425185E-04 +6.45262683146E-04 +5.62130451960E-04 +7.10719295427E-04 +2.18459816222E-01 -5.32519577730E-01
4.19000000000E+09 +8.48357838569E-02 -4.99131017273E-01 +8.46959357158E-04 +6.70806567381E-04 +9.08121075913E-04 +6.95114533774E-04 +1.99257022532E-01 -5.29961996604E-01
4.19500000000E+09 +6.62769238089E-02 -4.93295033331E-01 +9.49453784074E-04 +5.99490404665E-04 +9.80664917699E-04 +6.56687481758E-04 +1.80395518396E-01 -5.26698961346E-01
4.20000000000E+09 +4.69413218910E-02 -4.88119420142E-01 +1.24997771077E-03 +5.54884860995E-04 +1.29746031072E-03 +5.87899489299E-04 +1.60969601531E-01 -5.23338936622E-01
4.20500000000E+09 +2.73828477685E-02 -4.83079247319E-01 +1.48204891885E-03 +2.59127847036E-05 +1.56007401714E-03 +1.97452120302E-05 +1.41226065463E-01 -5.18073298472E-01
4.21000000000E+09 +8.84498131834E-03 -4.78245839640E-01 +9.60358924348E-04 -3.33316476490E-04 +9.39125866021E-04 -3.18445612703E-04 +1.21942043594E-01 -5.12784696772E-01
4.21500000000E+09 -9.61045838250E-03 -4.73143670821E-01 +8.22890472260E-04 +9.22545916751E-05 +8.27468007896E-04 +1.49949533200E-04 +1.02356297447E-01 -5.06864040878E-01
4.22000000000E+09 -2.65319312788E-02 -4.66028082600E-01 +1.30458598120E-03 +1.70546123706E-05 +1.37670989373E-03 +6.57052596347E-05 +8.38438103505E-02 -5.00116620825E-01
4.22500000000E+09 -4.15545209104E-02 -4.57611382033E-01 +1.15314007492E-03 -4.36870421230E-04 +1.11903128108E-03 -4.43552834196E-04 +6.54709753652E-02 -4.93869899281E-01
4.23000000000E+09 -5.59572477778E-02 -4.47758127124E-01 +1.13539760721E-03 -4.62634239571E-04 +1.14317565829E-03 -5.18293243792E-04 +4.65039088364E-02 -4.86374569309E-01
4.23500000000E+09 -7.03793234688E-02 -4.36276628994E-01 +8.32712785989E-04 -5.37115665611E-04 +8.26421047822E-04 -5.71083023718E-04 +2.85039987281E-02 -4.77590378722E-01
4.24000000000E+09 -8.53522079184E-02 -4.23937670025E-01 +1.01536200822E-03 -4.73402762535E-04 +1.02047936639E-03 -4.88729890676E-04 +1.01753215761E-02 -4.68774898311E-01
4.24500000000E+09 -1.02619382293E-01 -4.11301503690E-01 +1.22190328470E-03 -6.80013388001E-04 +1.22308636049E-03 -7.32252865831E-04 -8.53822594487E-03 -4.58403198617E-01
4.25000000000E+09 -1.21904351551E-01 -3.97509478943E-01 +1.06844347813E-03 -1.15097545479E-03 +1.07551943609E-03 -1.11820335509E-03 -2.58602331776E-02 -4.47298905114E-01
4.25500000000E+09 -1.41500795430E-01 -3.83169329521E-01 +7.46231273213E-04 -1.25929772591E-03 +8.03067238716E-04 -1.25335100268E-03 -4.34738007155E-02 -4.36762776060E-01
4.26000000000E+09 -1.60726643434E-01 -3.70244536597E-01 +4.63323390588E-04 -1.28131361802E-03 +5.08590442387E-04 -1.33018227472E-03 -6.11657112683E-02 -4.24114892934E-01
4.26500000000E+09 -1.79909207223E-01 -3.57826393274E-01 +2.61241933963E-04 -1.18777562410E-03 +3.32790127371E-04 -1.22441593031E-03 -7.69783870608E-02 -4.11250467705E-01
4.27000000000E+09 -1.97398923538E-01 -3.45789793307E-01 +1.45898897610E-04 -1.15188308629E-03 +1.64624574158E-04 -1.21180718332E-03 -9.36041546154E-02 -3.98212113639E-01
4.27500000000E+09 -2.12743749246E-01 -3.33651089514E-01 +2.61259595118E-04 -8.63883082304E-04 +2.46582593274E-04 -8.95346209388E-04 -1.09893081076E-01 -3.83821977374E-01
4.28000000000E+09 -2.25992957196E-01 -3.21115067479E-01 +3.72804167691E-04 -1.39598416973E-03 +3.57505732329E-04 -1.36823170587E-03 -1.25571712479E-01 -3.69778594321E-01
4.28500000000E+09 -2.38054964024E-01 -3.06925256807E-01 -2.40818274445E-04 -1.38817445164E-03 -1.61136752357E-04 -1.37205895010E-03 -1.41722915866E-01 -3.55051824964E-01
4.29000000000E+09 -2.48365085583E-01 -2.90440921120E-01 -1.04086318556E-04 -1.13148969096E-03 -1.56585045567E-04 -1.19532205017E-03 -1.57122320641E-01 -3.39497407623E-01
4.29500000000E+09 -2.58343127987E-01 -2.72385480999E-01 -3.31640989937E-04 -1.35491816492E-03 -3.21654431398E-04 -1.43048177442E-03 -1.71391010540E-01 -3.23211300703E-01
4.30000000000E+09 -2.68351526501E-01 -2.52957624220E-01 -5.05148830285E-04 -1.15936400371E-03 -5.16529978394E-04 -1.13407257626E-03 -1.84104095136E-01 -3.06358324631E-01
4.30500000000E+09 -2.79580614957E-01 -2.32738757923E-01 -5.91200519713E-04 -1.13351649527E-03 -5.84243856907E-04 -1.26341533405E-03 -1.96318133846E-01 -2.89523752118E-01
4.31000000000E+09 -2.92059515105E-01 -2.12367669636E-01 -6.45245049479E-04 -1.23324630662E-03 -7.06714249506E-04 -1.26904871029E-03 -2.07976318133E-01 -2.72126174596E-01
4.31500000000E+09 -3.05072876217E-01 -1.92893189458E-01 -1.06132581632E-03 -1.16076709816E-03 -1.12372515661E-03 -1.14600392413E-03 -2.19148221505E-01 -2.54291790661E-01
4.32000000000E+09 -3.18581238728E-01 -1.74192513290E-01 -1.18920197220E-03 -8.36446499318E-04 -1.18702219147E-03 -8.33082215412E-04 -2.30161735481E-01 -2.35857523461E-01
4.32500000000E+09 -3.30516249356E-01 -1.56249577153E-01 -9.80089697175E-04 -5.99598751851E-04 -1.04710999682E-03 -5.76873752282E-04 -2.39867768175E-01 -2.16719693710E-01
4.33000000000E+09 -3.39958543107E-01 -1.39705724420E-01 -1.15764018167E-03 -7.04225492312E-04 -1.17477931099E-03 -6.66657730024E-04 -2.49294555344E-01 -1.97923390659E-01
4.33500000000E+09 -3.46797391957E-01 -1.23759591172E-01 -1.18843960964E-03 -3.83127461016E-04 -1.23236329519E-03 -3.74989712938E-04 -2.58163444668E-01 -1.77675003751E-01
4.34000000000E+09 -3.51056604991E-01 -1.08148997963E-01 -1.17800163721E-03 -3.64474437244E-04 -1.17522912055E-03 -3.47592981119E-04 -2.65521140087E-01 -1.57564388918E-01
4.34500000000E+09 -3.53171049981E-01 -9.17550465203E-02 -1.29006735515E-03 -2.35318446886E-04 -1.22758610760E-03 -1.46061459202E-04 -2.73169996835E-01 -1.37280335800E-01
4.35000000000E+09 -3.54379689700E-01 -7.41321583845E-02 -1.31123979532E-03 -5.49256905620E-05 -1.27613740574E-03 +2.69824189374E-06 -2.79678018980E-01 -1.16667674590E-01
4.35500000000E+09 -3.56396103949E-01 -5.40391581100E-02 -1.28485008557E-03 +1.52182100347E-04 -1.20376099050E-03 +1.76647065377E-04 -2.85360763978E-01 -9.63658328755E-02
4.36000000000E+09 -3.58269103938E-01 -3.10568563649E-02 -1.25850427030E-03 -4.27283892328E-05 -1.25354010064E-03 -4.70530695880E-05 -2.90345074650E-01 -7.64396442487E-02
4.36500000000E+09 -3.60267916848E-01 -7.36399835950E-03 -1.45688929080E-03 +4.58738784248E-04 -1.43507076926E-03 +4.82358776456E-04 -2.94290676502E-01 -5.60885602985E-02
4.37000000000E+09 -3.63195628041E-01 +1.60163774050E-02 -1.17890065823E-03 +5.75218900132E-04 -1.18285544818E-03 +6.04674863621E-04 -2.96824759937E-01 -3.65570846343E-02
4.37500000000E+09 -3.67090792461E-01 +3.72746399274E-02 -1.00882958499E-03 +8.65360937688E-04 -1.02545003572E-03 +8.76254241480E-04 -2.99650705945E-01 -1.60795731119E-02
4.38000000000E+09 -3.72395372143E-01 +5.66766482395E-02 -7.34365965836E-04 +7.63902653947E-04 -7.08029990746E-04 +7.07018004029E-04 -3.00819417077E-01 +4.82616055580E-03
4.38500000000E+09 -3.77257571800E-01 +7.42240311237E-02 -6.84956028924E-04 +5.74472243773E-04 -7.01118192025E-04 +5.86860984331E-04 -3.01806107769E-01 +2.51575759809E-02
4.39000000000E+09 -3.81050208246E-01 +9.03193356035E-02 -9.77296002658E-04 +5.96903477350E-04 -9.69012574864E-04 +5.45142931479E-04 -3.01871805520E-01 +4.62283612790E-02
4.39500000000E+09 -3.81352204396E-01 +1.05439520689E-01 -9.07278358089E-04 +1.06621379339E-03 -9.36480214788E-04 +1.07402575406E-03 -3.01705948182E-01 +6.53912278710E-02
4.40000000000E+09 -3.79020048158E-01 +1.19531533026E-01 -6.57324701892E-04 +1.01832098313E-03 -7.15499635446E-04 +1.08198448446E-03 -3.01076183823E-01 +8.55639786543E-02
4.40500000000E+09 -3.75040789160E-01 +1.33809484559E-01 -6.80669614254E-04 +1.20547659197E-03 -6.73511656276E-04 +1.21954833158E-03 -2.98915409614E-01 +1.05213470914E-01
4.41000000000E+09 -3.69774474640E-01 +1.50414543009E-01 -2.57958210975E-04 +1.48644807243E-03 -2.16175121446E-04 +1.54424577342E-03 -2.96278302136E-01 +1.24306843334E-01
4.41500000000E+09 -3.63110063611E-01 +1.69547871342E-01 +7.64601616752E-05 +1.05428171057E-03 +9.57383522672E-05 +1.06777486294E-03 -2.92340148698E-01 +1.43928715283E-01
4.42000000000E+09 -3.55964087908E-01 +1.90554720215E-01 -4.03544972656E-05 +1.01073874433E-03 -3.87381054132E-05 +1.05700130751E-03 -2.87826969649E-01 +1.62993034197E-01
4.42500000000E+09 -3.48902008754E-01 +2.12197775682E-01 +4.30131890288E-05 +8.23985426945E-04 +1.07105106904E-04 +8.29821500306E-04 -2.83014496103E-01 +1.81453544800E-01
4.43000000000E+09 -3.43969345142E-01 +2.33120433997E-01 -2.92260460546E-04 +8.65757178515E-04 -2.48034110210E-04 +8.92112184422E-04 -2.78487391079E-01 +1.99551313171E-01
4.43500000000E+09 -3.40759411570E-01 +2.52996249153E-01 -1.17003849142E-04 +1.29485831121E-03 -6.30971680429E-05 +1.22169800364E-03 -2.74183098978E-01 +2.17316463865E-01
4.44000000000E+09 -3.38890632197E-01 +2.72570799595E-01 +3.07359597006E-04 +1.31767857848E-03 +3.17124999485E-04 +1.28391844532E-03 -2.68972392994E-01 +2.36240800730E-01
4.44500000000E+09 -3.35199715359E-01 +2.89505165773E-01 +6.73277932875E-04 +1.29453407975E-03 +7.07607594834E-04 +1.30179905774E-03 -2.61455452299E-01 +2.53662786905E-01
4.45000000000E+09 -3.31068485595E-01 +3.03120535878E-01 +9.27976377450E-04 +7.97854114821E-04 +1.02605941317E-03 +7.86927885317E-04 -2.54040503094E-01 +2.69975395293E-01
4.45500000000E+09 -3.25670493165E-01 +3.15198388980E-01 +6.31821393091E-04 +4.71808893354E-04 +6.58218899663E-04 +4.40111224967E-04 -2.45518910402E-01 +2.86171820790E-01
4.46000000000E+09 -3.18127521243E-01 +3.26253061534E-01 +4.83785181234E-04 +3.98413081041E-04 +4.53671470586E-04 +3.36039922149E-04 -2.37287762318E-01 +3.01114059938E-01
4.46500000000E+09 -3.09296325940E-01 +3.37684153701E-01 +2.66322334725E-04 +7.42632513972E-04 +2.67287485773E-04 +6.47001659263E-04 -2.28792492781E-01 +3.16085830381E-01
4.47000000000E+09 -2.98924364027E-01 +3.51489678848E-01 +6.40798032450E-04 +6.83118145162E-04 +6.23623002194E-04 +6.16848872187E-04 -2.19999523252E-01 +3.31013689599E-01
4.47500000000E+09 -2.86427466030E-01 +3.67470534671E-01 +5.00111521304E-04 +7.61633730159E-04 +4.75497743135E-04 +7.66280230508E-04 -2.11549718962E-01 +3.45332961824E-01
4.48000000000E+09 -2.73216660841E-01 +3.84123982067E-01 +7.64499316583E-04 +6.82692911224E-04 +7.04595215149E-04 +6.22247455281E-04 -2.02591997185E-01 +3.60122674397E-01
4.48500000000E+09 -2.61244345139E-01 +4.00753710966E-01 +7.30859150045E-04 +8.01686725562E-04 +6.97133604762E-04 +7.25793528213E-04 -1.92583953115E-01 +3.74103507903E-01
4.49000000000E+09 -2.51445384429E-01 +4.17073524830E-01 +1.19976722383E-03 +6.80748797214E-04 +1.13720530494E-03 +7.09160820010E-04 -1.82271387825E-01 +3.87239289106E-01
4.49500000000E+09 -2.44086935089E-01 +4.32355437563E-01 +1.43448923913E-03 +1.29615724732E-04 +1.34966862886E-03 +1.41149203104E-04 -1.72018322303E-01 +3.99738141809E-01
4.50000000000E+09 -2.38472248249E-01 +4.46683998021E-01 +8.52238563990E-04 +5.36879323664E-05 +8.54533369773E-04 +7.06567661786E-05 -1.61484296702E-01 +4.12082016402E-01
4.50500000000E+09 -2.32980336572E-01 +4.58825308105E-01 +9.40915694052E-04 -2.79274463630E-05 +9.65828896566E-04 -3.72123608525E-05 -1.51164183634E-01 +4.23680872768E-01
4.51000000000E+09 -2.27151084332E-01 +4.68439890987E-01 +8.33253915963E-04 +2.17225136070E-04 +8.27194997638E-04 +2.32441611608E-04 -1.40601448947E-01 +4.35358673829E-01
4.51500000000E+09 -2.19719690158E-01 +4.76567552429E-01 +1.09965636601E-03 +1.47233165276E-04 +1.06486781701E-03 +1.74759071209E-04 -1.30481751815E-01 +4.46691361182E-01
4.52000000000E+09 -2.10384252669E-01 +4.83600427882E-01 +1.24001241299E-03 -6.35372752794E-05 +1.25130135042E-03 -5.19532135771E-05 -1.19614171123E-01 +4.57709507451E-01
4.52500000000E+09 -1.98393335169E-01 +4.90679304196E-01 +1.30416105713E-03 -2.46664741411E-04 +1.26931195345E-03 -2.15993823726E-04 -1.08030374473E-01 +4.68416935355E-01
4.53000000000E+09 -1.84629173446E-01 +4.97919167131E-01 +1.30993090478E-03 -7.60787381198E-04 +1.29340956545E-03 -7.83219881285E-04 -9.62686883427E-02 +4.77703157329E-01
4.53500000000E+09 -1.69895083044E-01 +5.06522267039E-01 +7.03811540087E-04 -6.97994059128E-04 +6.40569613613E-04 -7.19191400601E-04 -8.40668128483E-02 +4.87336235771E-01
4.54000000000E+09 -1.54762297651E-01 +5.16087186545E-01 +8.69315796997E-04 -4.89925097025E-04 +7.91036390451E-04 -5.34067556869E-04 -7.13367601481E-02 +4.96067351416E-01
4.54500000000E+09 -1.40566332009E-01 +5.26639678540E-01 +9.89635701584E-04 -7.84525865216E-04 +9.78981053935E-04 -6.62440058810E-04 -5.98132306058E-02 +5.04329012051E-01
4.55000000000E+09 -1.28218672222E-01 +5.37214564174E-01 +8.50580844908E-04 -1.07710248900E-03 +8.46570856291E-04 -1.07636595052E-03 -4.76212397836E-02 +5.13063411938E-01
4.55500000000E+09 -1.17437778036E-01 +5.47635573170E-01 +4.31561366613E-04 -1.03924276823E-03 +4.37373605872E-04 -1.00019480675E-03 -3.61193219288E-02 +5.21490506296E-01
4.56000000000E+09 -1.07854094467E-01 +5.56147005343E-01 +2.62012605180E-04 -8.13917103114E-04 +2.68471757493E-04 -7.95389794697E-04 -2.32914655686E-02 +5.29291899128E-01
4.56500000000E+09 -9.92271099785E-02 +5.62750812247E-01 +5.95889668981E-04 -8.42170359652E-04 +5.54979618041E-04 -7.86173360171E-04 -1.14876230390E-02 +5.35925531801E-01
4.57000000000E+09 -9.10784444001E-02 +5.67571649245E-01 +4.44308903845E-04 -1.28386833127E-03 +3.57936064965E-04 -1.24208156305E-03 +4.41015165499E-04 +5.43022880589E-01
