# Hz S RI R 50
! CMT, C1220, 16058040, 17.2.0/1
! Date: 15/08/2018 12:14:29
! Data: Format (Calibration Info)
! Freq                      S11: Re/Im (F2)                       S21: Re/Im (F2)                       S12: Re/Im (F2)                       S22: Re/Im (F2)            
4.00000000000E+09 +6.51800194363E-01 -3.58026432330E-01 -1.81748216685E-04 -6.85231120169E-04 -1.17056839502E-04 -7.04492468951E-04 +7.66998681967E-01 -3.22001756876E-01
4.00500000000E+09 +6.43667864498E-01 -3.64275131357E-01 -2.94106968189E-04 -4.63712137782E-04 -2.17867276475E-04 -5.19866862961E-04 +7.57779201881E-01 -3.32544242247E-01
4.01000000000E+09 +6.34788201288E-01 -3.69785731175E-01 -1.16422183864E-04 -5.03379450046E-04 -6.85807790082E-05 -5.05711693369E-04 +7.48173173322E-01 -3.43076849977E-01
4.01500000000E+09 +6.25188056636E-01 -3.76317661950E-01 -2.46765360361E-04 -6.08419946954E-04 -1.83214348771E-04 -6.68168229505E-04 +7.38220632327E-01 -3.53001661060E-01
4.02000000000E+09 +6.14327450944E-01 -3.84513108559E-01 -4.10455735405E-04 -6.42965144023E-04 -3.73642533268E-04 -6.70365690037E-04 +7.27618489280E-01 -3.63074269133E-01
4.02500000000E+09 +6.02601026300E-01 -3.93533407584E-01 -6.30562391404E-04 -5.15934716618E-04 -6.25587606712E-04 -5.59076145311E-04 +7.16468799433E-01 -3.72306694857E-01
4.03000000000E+09 +5.91104432882E-01 -4.03506262156E-01 -6.68827720732E-04 -1.99509836872E-04 -6.50158824209E-04 -3.17540600112E-04 +7.05760039102E-01 -3.81506300778E-01
4.03500000000E+09 +5.79849201370E-01 -4.14716997245E-01 -4.53356047977E-04 -1.30624487755E-04 -4.94947547281E-04 -1.75299872494E-04 +6.94535849706E-01 -3.91027742136E-01
4.04000000000E+09 +5.68543918494E-01 -4.25982386230E-01 -4.82489282458E-04 +7.55915550764E-05 -4.85711145663E-04 -2.95615966511E-05 +6.83482582157E-01 -4.00822222917E-01
4.04500000000E+09 +5.57406226861E-01 -4.36349706355E-01 -3.19067773756E-04 -5.10742124248E-05 -3.77222812565E-04 -6.03036568950E-05 +6.71526465849E-01 -4.10606954838E-01
4.05000000000E+09 +5.46258978566E-01 -4.45010310740E-01 -2.99005823040E-04 -1.29920923100E-04 -3.60848175319E-04 -1.87237006300E-04 +6.59547474616E-01 -4.19176321463E-01
4.05500000000E+09 +5.35089694629E-01 -4.51468232927E-01 -4.77071083970E-04 -2.16314104208E-04 -5.04889876749E-04 -1.84928559006E-04 +6.47317313595E-01 -4.27896701584E-01
4.06000000000E+09 +5.23735276395E-01 -4.56582039682E-01 -4.98576935005E-04 -1.04063624891E-04 -5.01276190424E-04 -1.12651559939E-04 +6.34504466593E-01 -4.35787017842E-01
4.06500000000E+09 +5.11223478988E-01 -4.60501450182E-01 -6.53339949004E-04 -7.60993687234E-05 -6.65249673781E-04 -7.15480516534E-05 +6.21101970701E-01 -4.43622978505E-01
4.07000000000E+09 +4.97894588363E-01 -4.64267840098E-01 -5.47353937166E-04 +2.57067665650E-04 -5.72498129695E-04 +2.92983513074E-04 +6.07532624314E-01 -4.51523566700E-01
4.07500000000E+09 +4.83065422557E-01 -4.68735554149E-01 -3.45910310946E-04 +1.65901027699E-04 -3.32170211023E-04 +1.70484876919E-04 +5.93869863820E-01 -4.59661590040E-01
4.08000000000E+09 +4.66415428046E-01 -4.73677399636E-01 -4.59799482577E-04 +3.30620574576E-05 -4.72196528973E-04 +3.35630903657E-05 +5.80457305082E-01 -4.67538437808E-01
4.08500000000E+09 +4.49304369220E-01 -4.78745163326E-01 -5.26328295020E-04 +1.83371195986E-04 -5.19520322397E-04 +1.96567146168E-04 +5.66318911268E-01 -4.75372464276E-01
4.09000000000E+09 +4.32508554912E-01 -4.85158098275E-01 -2.72181549101E-04 +1.21064817595E-04 -2.89391114104E-04 +1.19450547317E-04 +5.51769384756E-01 -4.82021357086E-01
4.09500000000E+09 +4.15676539143E-01 -4.92143431494E-01 -5.55616794959E-04 +4.47735888573E-05 -5.74957830272E-04 +5.39918728984E-05 +5.37394577008E-01 -4.88468775543E-01
4.10000000000E+09 +3.97959087289E-01 -4.98764549706E-01 -5.51793015388E-04 +2.23113621021E-04 -5.64838308841E-04 +2.27965613146E-04 +5.21135788000E-01 -4.94626712301E-01
4.10500000000E+09 +3.80870365207E-01 -5.03219981838E-01 -5.96635734503E-04 +4.10612568604E-04 -5.40212346589E-04 +4.00572411114E-04 +5.05209539929E-01 -4.99808222261E-01
4.11000000000E+09 +3.64359267859E-01 -5.05672866524E-01 -5.50835295395E-04 +6.51036235524E-04 -5.52333286215E-04 +6.48853379278E-04 +4.88912075724E-01 -5.05422842666E-01
4.11500000000E+09 +3.48934758205E-01 -5.06323026872E-01 +3.94329037585E-05 +6.13046318887E-04 +4.73417767064E-05 +5.96239002648E-04 +4.72622624665E-01 -5.10508662273E-01
4.12000000000E+09 +3.33285819320E-01 -5.06596943019E-01 -1.51051753886E-04 +2.79889246478E-05 -1.81848167747E-04 +1.27272745492E-05 +4.56613270587E-01 -5.15764385553E-01
4.12500000000E+09 +3.16872437765E-01 -5.06675693336E-01 -5.21047166945E-04 +1.64276844232E-04 -5.18640190532E-04 +7.62576434857E-05 +4.39464046129E-01 -5.20393693639E-01
4.13000000000E+09 +2.98781876229E-01 -5.07578128578E-01 -7.29166467532E-04 +5.00003922229E-04 -7.42438035276E-04 +4.43766990635E-04 +4.22699647764E-01 -5.23663612169E-01
4.13500000000E+09 +2.78664981976E-01 -5.08850098099E-01 -5.98538400604E-04 +8.21718431395E-04 -6.51778150827E-04 +7.34814259561E-04 +4.05515850385E-01 -5.27134757927E-01
4.14000000000E+09 +2.57975126136E-01 -5.10095682295E-01 -1.97545402272E-04 +1.15865313634E-03 -2.75083250116E-04 +1.12401984901E-03 +3.87308194370E-01 -5.30164314511E-01
4.14500000000E+09 +2.37347498753E-01 -5.12680064325E-01 +3.39034319402E-04 +9.49716230637E-04 +3.33284452553E-04 +9.33845803886E-04 +3.69376377777E-01 -5.32985381716E-01
4.15000000000E+09 +2.16900952701E-01 -5.16105479489E-01 +3.02147129998E-04 +4.18053949339E-04 +3.17672833515E-04 +4.37113704642E-04 +3.51445099256E-01 -5.35364337541E-01
4.15500000000E+09 +1.96625322275E-01 -5.19748546215E-01 -1.27003889135E-04 +4.69615503932E-04 -1.98600703161E-04 +4.88335785715E-04 +3.33371546534E-01 -5.37074390798E-01
4.16000000000E+09 +1.77277914524E-01 -5.21542073603E-01 +3.25786088767E-05 +7.43836345055E-04 -6.31730138166E-05 +7.57186568911E-04 +3.15663076559E-01 -5.38253628942E-01
4.16500000000E+09 +1.59895080244E-01 -5.21821137004E-01 +1.95145557869E-04 +7.53706303742E-04 +1.84627264865E-04 +8.12648330142E-04 +2.97304949310E-01 -5.38425627286E-01
4.17000000000E+09 +1.43299381082E-01 -5.20015524284E-01 +4.14983129139E-04 +9.25796415425E-04 +3.97261732944E-04 +9.70952527552E-04 +2.78727694598E-01 -5.37947340940E-01
4.17500000000E+09 +1.28150382466E-01 -5.16411391427E-01 +5.71920508208E-04 +4.55069404088E-04 +5.23814980424E-04 +4.89866357519E-04 +2.59776791423E-01 -5.36941306017E-01
4.18000000000E+09 +1.12813156284E-01 -5.11669561789E-01 +4.56748296446E-04 +4.80725862590E-04 +5.06591829054E-04 +5.62522419432E-04 +2.40465244368E-01 -5.35546256858E-01
4.18500000000E+09 +9.64530318593E-02 -5.06361314824E-01 +4.59610395742E-04 +3.87070815143E-04 +4.97461457809E-04 +5.05957238214E-04 +2.21064332888E-01 -5.33706352285E-01
4.19000000000E+09 +7.89280301939E-02 -5.00418521653E-01 +6.34424687778E-04 +2.37281721078E-04 +6.89526455033E-04 +2.96148220516E-04 +2.01665528341E-01 -5.31370207446E-01
4.19500000000E+09 +6.01080087578E-02 -4.94360632619E-01 +3.42820797969E-04 +2.24833007231E-04 +3.09775062201E-04 +2.18795115292E-04 +1.82526740181E-01 -5.28027305885E-01
4.20000000000E+09 +4.06568350718E-02 -4.88337026446E-01 +3.12882703353E-04 +3.97523060857E-04 +3.91481156187E-04 +4.26193276540E-04 +1.62914467413E-01 -5.24491818880E-01
4.20500000000E+09 +2.14510137333E-02 -4.83017686172E-01 +6.56608626120E-04 +4.12112682221E-04 +7.37299012065E-04 +4.15021993060E-04 +1.43057377293E-01 -5.19121311479E-01
4.21000000000E+09 +2.91324697579E-03 -4.77754387473E-01 +4.25113695456E-04 +6.04816083846E-05 +5.26675271684E-04 +5.07969621269E-05 +1.23866438563E-01 -5.13650149414E-01
4.21500000000E+09 -1.53392609728E-02 -4.72462056098E-01 +3.42418960938E-04 +2.89882205415E-04 +4.03059904839E-04 +3.13481742662E-04 +1.04502965099E-01 -5.07830766599E-01
4.22000000000E+09 -3.23324346438E-02 -4.65198337013E-01 +6.27928484070E-04 +3.25218316954E-04 +7.12056418790E-04 +3.36466113039E-04 +8.61025789974E-02 -5.00841798265E-01
4.22500000000E+09 -4.74659008055E-02 -4.56417447295E-01 +5.53621816488E-04 +3.48846116886E-06 +5.93310465042E-04 -5.49015427613E-05 +6.79706912189E-02 -4.94737915792E-01
4.23000000000E+09 -6.22491651839E-02 -4.46208616582E-01 +4.93027810223E-04 +1.25939130952E-04 +5.45999951991E-04 +1.99690513786E-05 +4.90704002438E-02 -4.87664916235E-01
4.23500000000E+09 -7.61303868669E-02 -4.33687657383E-01 +1.62321731828E-04 +2.55719608056E-04 +1.21447421363E-04 +2.11236684436E-04 +3.03527095763E-02 -4.78832493164E-01
4.24000000000E+09 -9.02341638099E-02 -4.21042439544E-01 +6.40991802624E-04 +6.77196918928E-04 +5.99054327526E-04 +6.28079795402E-04 +1.22731745809E-02 -4.69643219103E-01
4.24500000000E+09 -1.06865875687E-01 -4.08539235112E-01 +1.25200601541E-03 +4.38083644841E-04 +1.21031307664E-03 +4.09075722475E-04 -6.14936717953E-03 -4.59550979044E-01
4.25000000000E+09 -1.25988465488E-01 -3.94576261850E-01 +1.36472992050E-03 -2.06435785348E-04 +1.26655223767E-03 -2.16367878835E-04 -2.34541413369E-02 -4.48592852446E-01
4.25500000000E+09 -1.45505731040E-01 -3.80130468223E-01 +9.26593415200E-04 -5.17493978034E-04 +9.00060093679E-04 -5.34408827740E-04 -4.07628593792E-02 -4.38012571988E-01
4.26000000000E+09 -1.64623556933E-01 -3.66838129999E-01 +6.69744656860E-04 -3.85153651370E-04 +6.43482550250E-04 -3.60813433185E-04 -5.84068938228E-02 -4.25849083417E-01
4.26500000000E+09 -1.83547066466E-01 -3.53984831799E-01 +7.67194567385E-04 -2.80402011641E-04 +7.48922631571E-04 -2.51880794305E-04 -7.44007348651E-02 -4.13193830051E-01
4.27000000000E+09 -2.00522745177E-01 -3.42034479350E-01 +9.11556357101E-04 -4.59723569155E-04 +8.71301556952E-04 -4.38828772012E-04 -9.14742400042E-02 -4.00447208105E-01
4.27500000000E+09 -2.15774449284E-01 -3.30497312068E-01 +8.60363333960E-04 -4.83715001675E-04 +8.25970916385E-04 -4.19909322706E-04 -1.08459053570E-01 -3.85698670585E-01
4.28000000000E+09 -2.29043729481E-01 -3.18184188296E-01 +9.59869073094E-04 -5.76625393298E-04 +9.54533588247E-04 -5.55355292201E-04 -1.23860838054E-01 -3.70991037615E-01
4.28500000000E+09 -2.40790131609E-01 -3.04217510481E-01 +7.97986065830E-04 -7.91204188049E-04 +8.02358967307E-04 -7.43052617405E-04 -1.39413765998E-01 -3.56683429682E-01
4.29000000000E+09 -2.50496337905E-01 -2.88394762480E-01 +9.05864914499E-04 -1.01960528051E-03 +9.52114656098E-04 -9.08220899431E-04 -1.54872016538E-01 -3.41428045541E-01
4.29500000000E+09 -2.59804290373E-01 -2.70856841129E-01 +6.50149782267E-04 -1.42100434989E-03 +7.18155804149E-04 -1.36154430331E-03 -1.69064034772E-01 -3.25292341651E-01
4.30000000000E+09 -2.69542757524E-01 -2.51984212135E-01 +3.14460176097E-04 -1.39328120633E-03 +3.52324450212E-04 -1.37150164838E-03 -1.82115555250E-01 -3.08677024686E-01
4.30500000000E+09 -2.80139612585E-01 -2.32193034721E-01 -2.81478175117E-06 -1.42700005199E-03 +9.41586535876E-05 -1.41129275890E-03 -1.94547973678E-01 -2.91351228142E-01
4.31000000000E+09 -2.92217476798E-01 -2.12080535825E-01 -5.52447735956E-05 -1.37283750222E-03 +2.70766322601E-05 -1.39038938490E-03 -2.06080501483E-01 -2.73719556086E-01
4.31500000000E+09 -3.04969617976E-01 -1.92369548800E-01 -5.07804272568E-04 -1.29458526681E-03 -3.97903821029E-04 -1.32631415279E-03 -2.17059230466E-01 -2.55981067663E-01
4.32000000000E+09 -3.17960533264E-01 -1.73039785388E-01 -5.38774581425E-04 -9.92211154000E-04 -4.62075225448E-04 -1.03430631163E-03 -2.27873208640E-01 -2.37539472802E-01
4.32500000000E+09 -3.29001827248E-01 -1.55216987329E-01 -2.79020118645E-04 -9.09941885352E-04 -2.32762050035E-04 -9.90563061422E-04 -2.37051046655E-01 -2.18852442932E-01
4.33000000000E+09 -3.38341727519E-01 -1.39074109704E-01 -5.93853886050E-04 -1.11431391843E-03 -5.37223570827E-04 -1.25102083336E-03 -2.46730899647E-01 -2.00550320723E-01
4.33500000000E+09 -3.45699315187E-01 -1.23226637931E-01 -7.06671880916E-04 -9.22974146174E-04 -6.45266041821E-04 -1.00947530952E-03 -2.55650953461E-01 -1.80635713100E-01
4.34000000000E+09 -3.50088906026E-01 -1.07463372404E-01 -8.70018723778E-04 -9.66626917687E-04 -8.98203080324E-04 -1.00844256210E-03 -2.63415969953E-01 -1.60482007615E-01
4.34500000000E+09 -3.52271046168E-01 -9.14481469644E-02 -1.01063890819E-03 -6.29224546061E-04 -1.11409087227E-03 -6.79917404648E-04 -2.70826679651E-01 -1.40110937471E-01
4.35000000000E+09 -3.54031548801E-01 -7.40517088217E-02 -8.97486907467E-04 -2.61630001015E-04 -9.64908513914E-04 -2.81904363481E-04 -2.77361586159E-01 -1.19891416874E-01
4.35500000000E+09 -3.55798271603E-01 -5.38183060488E-02 -6.03793835944E-04 -2.19562518036E-04 -6.53994431379E-04 -2.42633601530E-04 -2.83482302168E-01 -9.96517837998E-02
4.36000000000E+09 -3.57192946563E-01 -3.15929596367E-02 -6.90007888997E-04 -8.16774479314E-04 -7.95094907723E-04 -8.17315318393E-04 -2.88529229363E-01 -8.01866204467E-02
4.36500000000E+09 -3.58942480925E-01 -8.41514866570E-03 -1.17565858135E-03 -4.09315797489E-04 -1.22347201751E-03 -3.74090196342E-04 -2.92799440696E-01 -5.99412546159E-02
4.37000000000E+09 -3.61933298693E-01 +1.44717357311E-02 -1.01658368152E-03 -2.67361016928E-04 -1.06738848606E-03 -2.17207796338E-04 -2.95613116531E-01 -4.04933858281E-02
4.37500000000E+09 -3.65589933427E-01 +3.57705377277E-02 -1.02567951275E-03 +1.14561099056E-05 -1.04452619298E-03 +9.98305064304E-05 -2.98759024893E-01 -1.99651321432E-02
4.38000000000E+09 -3.70699201847E-01 +5.52631567698E-02 -8.38575751550E-04 +4.63390558029E-05 -8.62920198629E-04 +1.43079025098E-04 -3.00194041931E-01 +1.20972893528E-03
4.38500000000E+09 -3.75128761765E-01 +7.31942303732E-02 -8.37349346988E-04 -2.80207281751E-05 -8.42287443531E-04 -1.04417172287E-05 -3.00899634578E-01 +2.18118453427E-02
4.39000000000E+09 -3.78686786106E-01 +8.94007277314E-02 -8.11722042560E-04 -1.40804849068E-04 -7.56015383048E-04 -4.60124763002E-05 -3.01347747345E-01 +4.27266646113E-02
4.39500000000E+09 -3.79103012213E-01 +1.04237657722E-01 -9.40752584185E-04 -1.31146109542E-04 -8.84511693337E-04 -6.28950257295E-05 -3.01257784241E-01 +6.23122221353E-02
4.40000000000E+09 -3.77011313735E-01 +1.18422698709E-01 -1.27237614151E-03 -1.35681663300E-04 -1.27297220319E-03 -1.17384899382E-04 -3.00557681748E-01 +8.22752562141E-02
4.40500000000E+09 -3.73418011433E-01 +1.32183214768E-01 -1.47196139300E-03 +3.18265826489E-04 -1.39701982067E-03 +3.35521303981E-04 -2.98409472841E-01 +1.01635043207E-01
4.41000000000E+09 -3.69099048581E-01 +1.48924913694E-01 -1.23067480560E-03 +7.97848649791E-04 -1.17290162713E-03 +7.78931085324E-04 -2.96076206747E-01 +1.20931800994E-01
4.41500000000E+09 -3.62448841929E-01 +1.67934507848E-01 -9.68716078454E-04 +7.85226768487E-04 -8.74596831594E-04 +8.11155430167E-04 -2.91886855263E-01 +1.40540552357E-01
4.42000000000E+09 -3.55594754989E-01 +1.88253943558E-01 -7.00396569517E-04 +9.00383974910E-04 -6.46669790936E-04 +8.45954267856E-04 -2.87344497246E-01 +1.59744093361E-01
4.42500000000E+09 -3.49020825305E-01 +2.09372008283E-01 -6.25571978882E-04 +5.54993150176E-04 -5.48121221298E-04 +5.20177016260E-04 -2.82309750819E-01 +1.78126296703E-01
4.43000000000E+09 -3.44416466645E-01 +2.29808838123E-01 -1.04006625180E-03 +6.10923055888E-04 -9.82946096367E-04 +6.04366852692E-04 -2.77862667957E-01 +1.95753606382E-01
4.43500000000E+09 -3.41428301860E-01 +2.49705333327E-01 -1.13840568076E-03 +1.11736567910E-03 -1.09284451084E-03 +1.06625959331E-03 -2.74074409560E-01 +2.13522931285E-01
4.44000000000E+09 -3.39544281623E-01 +2.68732484719E-01 -8.09710432182E-04 +1.37114207355E-03 -7.63066364819E-04 +1.37197597258E-03 -2.68973299895E-01 +2.32420774576E-01
4.44500000000E+09 -3.36098268565E-01 +2.85591193372E-01 -2.37627489595E-04 +1.69119133801E-03 -2.33144552392E-04 +1.60912083456E-03 -2.61744773082E-01 +2.49692361169E-01
4.45000000000E+09 -3.32030003757E-01 +2.98857548383E-01 +1.05811302340E-04 +1.26691771480E-03 +8.69825517642E-05 +1.24402644294E-03 -2.54456339903E-01 +2.66021814370E-01
4.45500000000E+09 -3.26958572571E-01 +3.10747639600E-01 -4.77941525525E-05 +1.21542398930E-03 -6.76781193796E-05 +1.13124992596E-03 -2.46174940837E-01 +2.82189640252E-01
4.46000000000E+09 -3.19834936029E-01 +3.21674616824E-01 +1.67216488515E-04 +1.11868466314E-03 +4.76110854868E-05 +1.14127864269E-03 -2.37921896463E-01 +2.97384261919E-01
4.46500000000E+09 -3.11516905332E-01 +3.33057461683E-01 +1.15453512629E-04 +1.20076115787E-03 +8.82603732486E-05 +1.21526963231E-03 -2.29679377057E-01 +3.12516710323E-01
4.47000000000E+09 -3.01301595481E-01 +3.47374602883E-01 +4.32390792869E-04 +9.49710872213E-04 +3.63436618615E-04 +9.42334843610E-04 -2.20938634062E-01 +3.27545088848E-01
4.47500000000E+09 -2.88496998457E-01 +3.63277747240E-01 +1.34014428855E-04 +1.15464562049E-03 +8.26860354965E-05 +1.17704505417E-03 -2.12565097349E-01 +3.41819302842E-01
4.48000000000E+09 -2.75394376873E-01 +3.79443673005E-01 +3.57361810688E-04 +1.33586986210E-03 +3.22552528765E-04 +1.32036796424E-03 -2.03914740314E-01 +3.56638608266E-01
4.48500000000E+09 -2.63813402675E-01 +3.96070243024E-01 +6.93317573190E-04 +1.47434678358E-03 +6.92956511252E-04 +1.47756687828E-03 -1.93901088319E-01 +3.70887527807E-01
4.49000000000E+09 -2.54190663302E-01 +4.12519957778E-01 +1.29881317815E-03 +1.24424248181E-03 +1.22218875580E-03 +1.26800112496E-03 -1.83722807050E-01 +3.83998907437E-01
4.49500000000E+09 -2.47157505293E-01 +4.28139297172E-01 +1.40563112053E-03 +5.03399703230E-04 +1.39659860334E-03 +5.74941234672E-04 -1.73543789768E-01 +3.96821023966E-01
4.50000000000E+09 -2.41663472149E-01 +4.43025377001E-01 +9.96481693437E-04 +4.16925253038E-04 +9.79981691239E-04 +4.37570772317E-04 -1.62813174668E-01 +4.09206420848E-01
4.50500000000E+09 -2.35989081203E-01 +4.55576640361E-01 +9.14204430103E-04 +1.56991900808E-04 +9.57571912628E-04 +1.97972812562E-04 -1.52370414816E-01 +4.20869898974E-01
4.51000000000E+09 -2.30416778806E-01 +4.65435296609E-01 +6.00433045832E-04 +3.96804774358E-04 +6.44689032034E-04 +3.88228618518E-04 -1.41690112618E-01 +4.32457997974E-01
4.51500000000E+09 -2.23447110564E-01 +4.73599177693E-01 +7.52039986967E-04 +7.14031815863E-04 +8.74405183946E-04 +6.63403874222E-04 -1.31632308110E-01 +4.43729818364E-01
4.52000000000E+09 -2.14538891406E-01 +4.80990432152E-01 +1.18716828663E-03 +6.08044885371E-04 +1.25917762777E-03 +5.98348085578E-04 -1.20993741505E-01 +4.54648249883E-01
4.52500000000E+09 -2.02874447264E-01 +4.88148068212E-01 +1.29506912941E-03 +3.28714790024E-04 +1.33214164217E-03 +2.76142888556E-04 -1.09662735038E-01 +4.65358544039E-01
4.53000000000E+09 -1.89425904633E-01 +4.95710694725E-01 +1.51175149744E-03 -1.14037882367E-04 +1.46428907576E-03 -1.95466112262E-04 -9.77299726889E-02 +4.74668386147E-01
4.53500000000E+09 -1.74844704175E-01 +5.04714280191E-01 +1.07349707457E-03 -2.34787754215E-04 +1.06556944055E-03 -2.60649383091E-04 -8.57971210545E-02 +4.84065553056E-01
4.54000000000E+09 -1.59692943125E-01 +5.14767330054E-01 +1.17105028780E-03 -2.78757609827E-04 +1.15191875145E-03 -3.48769256487E-04 -7.32951877686E-02 +4.92842923144E-01
4.54500000000E+09 -1.44965252719E-01 +5.25579263349E-01 +8.82086747901E-04 -4.03351025393E-04 +8.85506136598E-04 -4.77494252974E-04 -6.17985673599E-02 +5.01074351604E-01
4.55000000000E+09 -1.32237735087E-01 +5.36006820899E-01 +8.26277628809E-04 -4.09843544215E-04 +7.70772103405E-04 -4.48899397134E-04 -4.98896570008E-02 +5.09826020114E-01
4.55500000000E+09 -1.21631466306E-01 +5.46558677048E-01 +8.18235894363E-04 -2.18348552643E-04 +6.79609597454E-04 -2.46324014425E-04 -3.86477603794E-02 +5.18390989264E-01
4.56000000000E+09 -1.12046237201E-01 +5.55390520898E-01 +9.99807675026E-04 -1.98360534594E-04 +9.49252779884E-04 -2.04343071420E-04 -2.63479486622E-02 +5.26669709450E-01
4.56500000000E+09 -1.03865309194E-01 +5.62538130698E-01 +1.44811057505E-03 -4.73640625976E-04 +1.32093627060E-03 -4.52896964645E-04 -1.45257667117E-02 +5.33715770949E-01
4.57000000000E+09 -9.58920520579E-02 +5.68047261938E-01 +1.14780981487E-03 -1.23337398857E-03 +1.09227320795E-03 -1.17847216842E-03 -2.44610579223E-03 +5.40949540839E-01
