# Hz S RI R 50
! CMT, C1220, 16058040, 17.2.0/1
! Date: 15/08/2018 12:09:12
! Data: Format (Calibration Info)
! Freq                      S11: Re/Im (F2)                       S21: Re/Im (F2)                       S12: Re/Im (F2)                       S22: Re/Im (F2)            
4.00000000000E+09 +6.52144419596E-01 -3.57351728995E-01 -2.90289806334E-04 -5.90964610388E-04 -2.25323665774E-04 -6.27292022241E-04 +7.65943472660E-01 -3.20836861214E-01
4.00500000000E+09 +6.43977272717E-01 -3.63370324047E-01 -3.13092906680E-04 -3.27529062519E-04 -3.24867428937E-04 -3.41510226468E-04 +7.56600061284E-01 -3.31202933046E-01
4.01000000000E+09 +6.35229266996E-01 -3.68876658722E-01 -1.33781755204E-04 -3.62033756120E-04 -1.60044236150E-04 -3.36866788743E-04 +7.46851940867E-01 -3.41502762605E-01
4.01500000000E+09 +6.25670964656E-01 -3.75885271271E-01 -1.69197935107E-04 -5.81904196917E-04 -2.15193678935E-04 -5.81654713202E-04 +7.37302777936E-01 -3.51189940050E-01
4.02000000000E+09 +6.14582073133E-01 -3.84143179743E-01 -4.78938180248E-04 -6.14348127675E-04 -5.01135883828E-04 -6.33691203064E-04 +7.27137957867E-01 -3.61405602745E-01
4.02500000000E+09 +6.02475350121E-01 -3.93426459203E-01 -6.75349803206E-04 -4.09895472638E-04 -6.75453558840E-04 -3.68780880344E-04 +7.16455347189E-01 -3.70650798291E-01
4.03000000000E+09 +5.90539042085E-01 -4.03247077604E-01 -6.24806436545E-04 -1.92645275374E-04 -6.61825280055E-04 -1.79856059890E-04 +7.05933829288E-01 -3.80113611057E-01
4.03500000000E+09 +5.79332667261E-01 -4.13950147682E-01 -4.59958917531E-04 -1.39990285265E-04 -4.40756928196E-04 -1.49347918292E-04 +6.94661945741E-01 -3.89961883307E-01
4.04000000000E+09 +5.68334387621E-01 -4.25015104799E-01 -5.35088321164E-04 -9.78688082569E-05 -4.80110787989E-04 -1.13613130326E-04 +6.83490535687E-01 -3.99862533800E-01
4.04500000000E+09 +5.57674510303E-01 -4.35213685953E-01 -5.32706584429E-04 -1.48751505126E-04 -5.17640340065E-04 -1.86736693620E-04 +6.71329681635E-01 -4.09704561596E-01
4.05000000000E+09 +5.46763099334E-01 -4.43986252398E-01 -5.24888998195E-04 -1.28156528483E-04 -4.75391934080E-04 -1.29830582499E-04 +6.59212342311E-01 -4.18247053658E-01
4.05500000000E+09 +5.35217596934E-01 -4.50564590564E-01 -5.75628943644E-04 -1.48816038753E-04 -5.97982402800E-04 -1.98622677590E-04 +6.47278252202E-01 -4.26804778441E-01
4.06000000000E+09 +5.23697376722E-01 -4.55060821369E-01 -6.29756841244E-04 -5.86355323307E-05 -6.27928940842E-04 -7.85875685323E-05 +6.34526819643E-01 -4.34963809802E-01
4.06500000000E+09 +5.11180918306E-01 -4.58446512991E-01 -7.43825608914E-04 -5.18616882035E-06 -7.29530902348E-04 -8.15538778718E-05 +6.21324201878E-01 -4.42715049150E-01
4.07000000000E+09 +4.97984028479E-01 -4.61843320339E-01 -7.63005410829E-04 +1.17008858360E-04 -7.58981110286E-04 +1.38727685895E-04 +6.07834724060E-01 -4.50699219392E-01
4.07500000000E+09 +4.83238447983E-01 -4.66020529162E-01 -7.40602618588E-04 +3.19444323623E-04 -7.38209561416E-04 +2.80526377901E-04 +5.94160707790E-01 -4.58922624328E-01
4.08000000000E+09 +4.66609478465E-01 -4.71075721824E-01 -6.65661363833E-04 +4.32068999530E-04 -6.70280512359E-04 +3.98081057620E-04 +5.80553407770E-01 -4.66501211868E-01
4.08500000000E+09 +4.49324093431E-01 -4.76270588992E-01 -5.81048653636E-04 +5.16381097731E-04 -5.89351111136E-04 +5.50567781922E-04 +5.66751411230E-01 -4.74429618544E-01
4.09000000000E+09 +4.32415293387E-01 -4.82569397567E-01 -1.77633374276E-04 +4.03919367497E-04 -2.45281705062E-04 +4.25447113257E-04 +5.52359821140E-01 -4.81239520511E-01
4.09500000000E+09 +4.15217494494E-01 -4.89657115510E-01 -4.70326492789E-04 +1.29626679232E-04 -4.69919601990E-04 +1.53611568341E-04 +5.38281742295E-01 -4.87875588387E-01
4.10000000000E+09 +3.97462467147E-01 -4.96208038507E-01 -6.73965341096E-04 +2.70489042021E-04 -7.15867827205E-04 +2.87859022626E-04 +5.22242044843E-01 -4.94469672208E-01
4.10500000000E+09 +3.80311336847E-01 -5.00253885361E-01 -8.53290794086E-04 +6.90847922285E-04 -9.45364530941E-04 +7.30780186983E-04 +5.06268618226E-01 -4.99885204158E-01
4.11000000000E+09 +3.64048706985E-01 -5.02695509079E-01 -6.40754197178E-04 +1.12389615588E-03 -6.39677390585E-04 +1.18344480168E-03 +4.89888450634E-01 -5.05818851507E-01
4.11500000000E+09 +3.48979717176E-01 -5.03136868147E-01 +1.29935729549E-04 +1.23702631492E-03 +1.28006616661E-04 +1.24798569028E-03 +4.73270872061E-01 -5.11037195353E-01
4.12000000000E+09 +3.33947409915E-01 -5.03510454124E-01 +2.10980969447E-04 +5.62653869999E-04 +1.92449563777E-04 +6.03600446984E-04 +4.57252026343E-01 -5.16461778569E-01
4.12500000000E+09 +3.17866865139E-01 -5.03806481445E-01 -4.36373484128E-05 +5.26147560471E-04 -4.36901753444E-05 +5.14827588598E-04 +4.39920042908E-01 -5.21328908928E-01
4.13000000000E+09 +2.99793232063E-01 -5.05014098118E-01 -9.62984199315E-05 +7.23308544589E-04 -1.33088625916E-04 +6.75732840706E-04 +4.22960669832E-01 -5.24732257231E-01
4.13500000000E+09 +2.79530192703E-01 -5.06246582564E-01 -1.29336880148E-04 +7.06445500230E-04 -9.55259520323E-05 +7.40664381524E-04 +4.05814792037E-01 -5.28544671247E-01
4.14000000000E+09 +2.58500180243E-01 -5.07228541838E-01 +1.07702354782E-05 +1.03920047170E-03 +1.08483487167E-05 +1.07126112199E-03 +3.87337133270E-01 -5.31728966828E-01
4.14500000000E+09 +2.38160038274E-01 -5.09298229296E-01 +5.56592887477E-04 +9.70707029329E-04 +5.55105830272E-04 +9.86421390878E-04 +3.69148446629E-01 -5.34582303459E-01
4.15000000000E+09 +2.17955975311E-01 -5.12728387337E-01 +5.12916221559E-04 +5.23430774920E-04 +5.49945061035E-04 +5.73494134447E-04 +3.50683500745E-01 -5.37197222668E-01
4.15500000000E+09 +1.97849508171E-01 -5.16327554035E-01 +2.84806755690E-04 +6.02476227921E-04 +2.97892123162E-04 +6.42793814172E-04 +3.32471584177E-01 -5.38809786669E-01
4.16000000000E+09 +1.78545843712E-01 -5.18438268723E-01 +4.92534928599E-04 +6.53790931336E-04 +4.75317538672E-04 +6.36304225432E-04 +3.14651886314E-01 -5.39875031621E-01
4.16500000000E+09 +1.60802512815E-01 -5.18741230399E-01 +5.28560547521E-04 +4.97778454027E-04 +5.52293946413E-04 +5.06975339629E-04 +2.96042179474E-01 -5.40256641918E-01
4.17000000000E+09 +1.44415689005E-01 -5.16684049839E-01 +6.54017327486E-04 +6.97593039241E-04 +6.15742717628E-04 +6.56264734918E-04 +2.77038613618E-01 -5.39521994561E-01
4.17500000000E+09 +1.29313081193E-01 -5.13142920605E-01 +7.28352776461E-04 +1.38885445490E-04 +7.54359311764E-04 +9.42916705646E-05 +2.57967573197E-01 -5.38409275534E-01
4.18000000000E+09 +1.14317932655E-01 -5.07992921270E-01 +2.47381419817E-04 +2.89461415907E-04 +2.56546737677E-04 +3.38145558410E-04 +2.38216257468E-01 -5.37075293227E-01
4.18500000000E+09 +9.87644150519E-02 -5.02645097182E-01 +4.23874346678E-04 +6.40093362436E-04 +3.93817671077E-04 +6.37513620494E-04 +2.18639414489E-01 -5.34837006055E-01
4.19000000000E+09 +8.12501105099E-02 -4.96692071313E-01 +8.02900681976E-04 +5.95698477015E-04 +8.11036310342E-04 +6.42009114569E-04 +1.99261399510E-01 -5.32248453394E-01
4.19500000000E+09 +6.30793125977E-02 -4.90398877089E-01 +9.49628286310E-04 +5.14974322466E-04 +9.60036249387E-04 +5.16596930305E-04 +1.80174384881E-01 -5.28986513182E-01
4.20000000000E+09 +4.41529219137E-02 -4.84782381988E-01 +1.11131472882E-03 +2.39406812816E-04 +1.13212207517E-03 +2.77983251814E-04 +1.60641142404E-01 -5.25622164726E-01
4.20500000000E+09 +2.49146071058E-02 -4.79487683387E-01 +1.09523881205E-03 -6.71500278971E-05 +1.09620141361E-03 -1.19261690712E-05 +1.40469300444E-01 -5.20320055723E-01
4.21000000000E+09 +6.29521075650E-03 -4.74567915717E-01 +7.90070048375E-04 -2.05646913464E-04 +8.49177851237E-04 -1.92905592096E-04 +1.20783128282E-01 -5.14926042623E-01
4.21500000000E+09 -1.25027098740E-02 -4.68943503017E-01 +7.16300257638E-04 +1.02566489380E-04 +7.87186663510E-04 +1.31301554689E-04 +1.00980748589E-01 -5.08844825558E-01
4.22000000000E+09 -2.91366958506E-02 -4.61153900803E-01 +1.19295994074E-03 +1.14479920445E-04 +1.21597223926E-03 +1.18223126737E-04 +8.20360613963E-02 -5.01803500814E-01
4.22500000000E+09 -4.36334568121E-02 -4.52427398243E-01 +1.13536297238E-03 -4.32305683826E-04 +1.15712242697E-03 -3.98147578828E-04 +6.35874103020E-02 -4.95320655086E-01
4.23000000000E+09 -5.73655056216E-02 -4.42825753781E-01 +1.01727757578E-03 -6.12116321823E-04 +1.02820850677E-03 -6.04733677228E-04 +4.42949757121E-02 -4.87741281311E-01
4.23500000000E+09 -7.16157497235E-02 -4.31767153715E-01 +6.78839082716E-04 -5.71613064231E-04 +7.62993189103E-04 -5.93123463832E-04 +2.58112632189E-02 -4.78350071940E-01
4.24000000000E+09 -8.64066695950E-02 -4.19451221609E-01 +8.56557758130E-04 -4.90389894682E-04 +9.60859421221E-04 -4.58204077969E-04 +7.63454472051E-03 -4.68963039157E-01
4.24500000000E+09 -1.03515970257E-01 -4.06643616304E-01 +1.15999722903E-03 -6.76347304880E-04 +1.22963276681E-03 -7.68594199746E-04 -1.09800677782E-02 -4.58354835980E-01
4.25000000000E+09 -1.22212426842E-01 -3.92382972292E-01 +1.05318555264E-03 -1.20006143956E-03 +1.10959999748E-03 -1.28190621962E-03 -2.83854861083E-02 -4.46973835338E-01
4.25500000000E+09 -1.40863485278E-01 -3.77805172997E-01 +5.35626175429E-04 -1.46224404828E-03 +5.57876734695E-04 -1.56290594144E-03 -4.59264554712E-02 -4.35810323917E-01
4.26000000000E+09 -1.59686998970E-01 -3.65205104589E-01 +1.79375023780E-04 -1.23142546711E-03 +1.27383621526E-04 -1.26505589269E-03 -6.34382729723E-02 -4.22963508088E-01
4.26500000000E+09 -1.78616571291E-01 -3.52836375977E-01 +1.79636429016E-04 -1.15179844270E-03 +1.62082029056E-04 -1.20446937051E-03 -7.91148567735E-02 -4.09665116964E-01
4.27000000000E+09 -1.96197233548E-01 -3.40962906834E-01 +1.44691106133E-04 -1.16890135541E-03 +9.39662486699E-05 -1.18451538447E-03 -9.55239848984E-02 -3.96471913108E-01
4.27500000000E+09 -2.11537617276E-01 -3.28821955627E-01 +2.30572207196E-04 -1.06207094670E-03 +1.25846493327E-04 -1.08377383467E-03 -1.11708859418E-01 -3.81692589074E-01
4.28000000000E+09 -2.24640122377E-01 -3.16202990634E-01 +7.52057099206E-05 -1.54974940458E-03 +2.72960975836E-06 -1.58545407135E-03 -1.26949121248E-01 -3.67241263710E-01
4.28500000000E+09 -2.36146464174E-01 -3.02543371598E-01 -6.18855671448E-04 -1.37113172691E-03 -6.19312841505E-04 -1.37080837831E-03 -1.42658514115E-01 -3.52538738573E-01
4.29000000000E+09 -2.46147296091E-01 -2.86788649071E-01 -5.06968914498E-04 -1.04723096477E-03 -5.83634820966E-04 -1.04551220630E-03 -1.57724031651E-01 -3.36985657379E-01
4.29500000000E+09 -2.55731734661E-01 -2.69680203043E-01 -6.09053546798E-04 -1.21162655153E-03 -6.36645898871E-04 -1.24343738953E-03 -1.71911276923E-01 -3.20724966097E-01
4.30000000000E+09 -2.65606018468E-01 -2.50853098191E-01 -8.58119961295E-04 -8.85452078245E-04 -8.60619337849E-04 -8.60588415718E-04 -1.84411583302E-01 -3.03704181994E-01
4.30500000000E+09 -2.76514101290E-01 -2.30937533049E-01 -7.35781392576E-04 -9.35362788827E-04 -7.27310938999E-04 -9.33720513281E-04 -1.96385650099E-01 -2.86691418776E-01
4.31000000000E+09 -2.88221532839E-01 -2.10846648182E-01 -8.45030384378E-04 -1.03329330522E-03 -8.54240077230E-04 -9.89609548107E-04 -2.07708335931E-01 -2.68841154676E-01
4.31500000000E+09 -3.00981760245E-01 -1.91687098338E-01 -1.19366209459E-03 -8.31581387273E-04 -1.21289452265E-03 -8.89891995226E-04 -2.18192210412E-01 -2.51080915217E-01
4.32000000000E+09 -3.14397741086E-01 -1.73032951193E-01 -1.43144678075E-03 -7.25786432590E-04 -1.44505063632E-03 -6.74191595549E-04 -2.28762997621E-01 -2.32721137254E-01
4.32500000000E+09 -3.26355607543E-01 -1.54888737149E-01 -1.33520525435E-03 -1.14440321007E-04 -1.36307497705E-03 -6.50146171427E-05 -2.37836272861E-01 -2.13905073746E-01
4.33000000000E+09 -3.35543575214E-01 -1.37777779362E-01 -1.20069795272E-03 -8.70372222650E-05 -1.17111126953E-03 -6.53543617685E-05 -2.47179072415E-01 -1.95666072693E-01
4.33500000000E+09 -3.42136631859E-01 -1.21898522966E-01 -1.08660359638E-03 +1.03755885308E-04 -1.04406558115E-03 +1.30071124531E-04 -2.56080078409E-01 -1.75484662116E-01
4.34000000000E+09 -3.46711025930E-01 -1.06662507348E-01 -1.02373098684E-03 -2.77604769156E-05 -9.91491250086E-04 -2.18053061860E-05 -2.63219968606E-01 -1.55207797116E-01
4.34500000000E+09 -3.49025992594E-01 -9.07042700345E-02 -1.01701544977E-03 +8.20533780850E-05 -1.03256217424E-03 -1.18776711727E-05 -2.70260303901E-01 -1.35151932278E-01
4.35000000000E+09 -3.50826984277E-01 -7.33766029999E-02 -1.23211614219E-03 +1.79259316946E-04 -1.26680961111E-03 +1.31402616033E-04 -2.76509716807E-01 -1.14918574110E-01
4.35500000000E+09 -3.53194717772E-01 -5.34743218622E-02 -1.09937651922E-03 +4.22500687220E-04 -1.07822064615E-03 +3.99276217738E-04 -2.82037148370E-01 -9.49117255406E-02
4.36000000000E+09 -3.54545123473E-01 -3.06107126128E-02 -1.14629971082E-03 +1.60754976471E-04 -1.14542336907E-03 +1.43615971779E-04 -2.86564504402E-01 -7.54448336639E-02
4.36500000000E+09 -3.56117845398E-01 -7.53966405569E-03 -1.39102104055E-03 +8.09648114415E-04 -1.34896674331E-03 +7.79020956109E-04 -2.90379242251E-01 -5.56759991212E-02
4.37000000000E+09 -3.58605288004E-01 +1.51066015109E-02 -8.87034075307E-04 +9.57075775493E-04 -9.36260371259E-04 +9.80109281019E-04 -2.92895742979E-01 -3.66801501176E-02
4.37500000000E+09 -3.62331892441E-01 +3.56738148407E-02 -5.72913581398E-04 +9.64209565953E-04 -6.56188113962E-04 +9.48125829412E-04 -2.95863275200E-01 -1.67585604579E-02
4.38000000000E+09 -3.67450742579E-01 +5.51118646509E-02 -5.77870085043E-04 +8.20777544498E-04 -6.33346382465E-04 +8.40097526103E-04 -2.97300762868E-01 +3.83439307615E-03
4.38500000000E+09 -3.72018042110E-01 +7.26532136518E-02 -6.55929202174E-04 +8.28579716194E-04 -6.58514292474E-04 +8.08042621963E-04 -2.98286010348E-01 +2.39284185371E-02
4.39000000000E+09 -3.75805434644E-01 +8.89289930428E-02 -6.57968940430E-04 +9.29586576485E-04 -6.34533581614E-04 +9.70735434177E-04 -2.98545741623E-01 +4.46182839640E-02
4.39500000000E+09 -3.76077003549E-01 +1.03934515028E-01 -4.63309992719E-04 +1.28132085800E-03 -4.63234341024E-04 +1.28003765285E-03 -2.98731604825E-01 +6.36813297221E-02
4.40000000000E+09 -3.73935927636E-01 +1.17952212821E-01 -2.13407995444E-04 +1.19386745726E-03 -2.41448406025E-04 +1.14988515445E-03 -2.98067619041E-01 +8.34982080429E-02
4.40500000000E+09 -3.70519375347E-01 +1.31940266489E-01 -1.41789795972E-04 +1.33021977869E-03 -1.14083744665E-04 +1.34595989920E-03 -2.95917674106E-01 +1.02669603093E-01
4.41000000000E+09 -3.65768402959E-01 +1.48322107895E-01 +3.17976969098E-04 +1.34416574481E-03 +3.25264351070E-04 +1.34073538955E-03 -2.93738384003E-01 +1.21440404939E-01
4.41500000000E+09 -3.59516245369E-01 +1.66927241824E-01 +4.83383238711E-04 +9.83109024179E-04 +5.66581851576E-04 +9.19979034727E-04 -2.90268069438E-01 +1.40708678512E-01
4.42000000000E+09 -3.52928988455E-01 +1.87407914188E-01 +4.72987981276E-04 +9.16706715289E-04 +4.79480062808E-04 +8.77908865019E-04 -2.86102867794E-01 +1.59985352590E-01
4.42500000000E+09 -3.46340318285E-01 +2.08254625236E-01 +6.06068886791E-04 +5.52099365558E-04 +6.41339549631E-04 +5.62020484040E-04 -2.81297594435E-01 +1.78380753440E-01
4.43000000000E+09 -3.42030047463E-01 +2.28873089031E-01 +5.45219405975E-05 +5.24948218840E-04 +4.59101131552E-05 +5.26053299937E-04 -2.77089620670E-01 +1.96231284644E-01
4.43500000000E+09 -3.39123750737E-01 +2.48863776942E-01 +1.80321805316E-04 +9.45791075322E-04 +2.30520686818E-04 +9.16760421846E-04 -2.73117947017E-01 +2.13818706266E-01
4.44000000000E+09 -3.36629266594E-01 +2.68307974846E-01 +5.21040131112E-04 +8.76202509743E-04 +5.07988070443E-04 +8.75943554240E-04 -2.68181331984E-01 +2.32652974214E-01
4.44500000000E+09 -3.33043630559E-01 +2.84655123472E-01 +8.23960235160E-04 +9.22618463248E-04 +8.72515948827E-04 +9.24209977753E-04 -2.60880450663E-01 +2.50067305820E-01
4.45000000000E+09 -3.28776684478E-01 +2.98229996342E-01 +1.06520685098E-03 +4.32405895586E-04 +1.06099191861E-03 +4.50889927728E-04 -2.53832017201E-01 +2.65981028219E-01
4.45500000000E+09 -3.23649711371E-01 +3.10020991171E-01 +8.34228797231E-04 +1.26360946920E-04 +8.11929575840E-04 +1.10432726202E-04 -2.45908318250E-01 +2.82040658659E-01
4.46000000000E+09 -3.16546193059E-01 +3.21351392184E-01 +5.56603456127E-04 -1.60350724190E-05 +5.50263142718E-04 -1.29218025838E-05 -2.38120797654E-01 +2.97046939190E-01
4.46500000000E+09 -3.08263861392E-01 +3.33134112309E-01 +3.49661553421E-04 +3.12864679892E-04 +3.02036911026E-04 +2.76370009805E-04 -2.30391456280E-01 +3.12229126848E-01
4.47000000000E+09 -2.97934749751E-01 +3.47348044368E-01 +4.66008430433E-04 +3.33205426095E-04 +4.50141460705E-04 +2.74091537211E-04 -2.22008965528E-01 +3.27715050761E-01
4.47500000000E+09 -2.85539572246E-01 +3.63256082001E-01 +5.55783334888E-04 +4.71862753702E-04 +5.48490140874E-04 +5.08452333244E-04 -2.13677655932E-01 +3.42451526282E-01
4.48000000000E+09 -2.72658244244E-01 +3.79634025089E-01 +6.87946083008E-04 +3.96380923323E-04 +7.10362596299E-04 +3.31807852530E-04 -2.04787374781E-01 +3.57570931895E-01
4.48500000000E+09 -2.61352705012E-01 +3.95986441023E-01 +8.47847721780E-04 +6.30922468834E-04 +8.13840221389E-04 +5.87118480457E-04 -1.94837506272E-01 +3.71685122158E-01
4.49000000000E+09 -2.52335966690E-01 +4.12279787818E-01 +1.33031405185E-03 +2.12555705848E-04 +1.28965288334E-03 +2.57883579570E-04 -1.84779672510E-01 +3.84938548424E-01
4.49500000000E+09 -2.45469690637E-01 +4.27862634132E-01 +1.24857855336E-03 -5.10562822672E-04 +1.17646136297E-03 -5.09024258318E-04 -1.74962016853E-01 +3.97780811018E-01
4.50000000000E+09 -2.39881022598E-01 +4.42362755220E-01 +5.70537311923E-04 -3.32091876981E-04 +4.77369990475E-04 -2.99817593610E-04 -1.64457600876E-01 +4.10367555980E-01
4.50500000000E+09 -2.34475646868E-01 +4.54504821719E-01 +6.71808010288E-04 -3.54979419992E-04 +6.31440891690E-04 -3.75682116452E-04 -1.54185795833E-01 +4.22680193220E-01
4.51000000000E+09 -2.28621643636E-01 +4.64383360612E-01 +4.12482006344E-04 -1.11972318974E-04 +3.89625147456E-04 -7.96138926895E-05 -1.43246370538E-01 +4.34452420794E-01
4.51500000000E+09 -2.21362583641E-01 +4.72220517674E-01 +6.48787072351E-04 -1.25677269032E-05 +6.52905431643E-04 +3.77541042965E-05 -1.33237673461E-01 +4.45895850925E-01
4.52000000000E+09 -2.12376917439E-01 +4.79687862885E-01 +7.99847476739E-04 -2.34950034906E-04 +7.99239968528E-04 -2.06892290194E-04 -1.22414306659E-01 +4.57170134627E-01
4.52500000000E+09 -2.00325001341E-01 +4.86836168102E-01 +8.79914928457E-04 -2.64326673862E-04 +8.45916434505E-04 -2.87681400517E-04 -1.10707947348E-01 +4.67963420357E-01
4.53000000000E+09 -1.86701746154E-01 +4.94414532382E-01 +9.78867079157E-04 -6.47394128876E-04 +9.31107696080E-04 -6.11383284374E-04 -9.90356739598E-02 +4.77282431565E-01
4.53500000000E+09 -1.72077655653E-01 +5.03308106545E-01 +5.46476819780E-04 -6.79007360101E-04 +6.10545522435E-04 -6.06525796705E-04 -8.69631444584E-02 +4.87220182196E-01
4.54000000000E+09 -1.57261411261E-01 +5.13266097629E-01 +6.95877569040E-04 -5.92063141108E-04 +6.26407623863E-04 -5.71125578799E-04 -7.42829283919E-02 +4.96267939085E-01
4.54500000000E+09 -1.43193937736E-01 +5.24248365718E-01 +6.73109425144E-04 -9.24850468179E-04 +5.82403455078E-04 -8.98848064053E-04 -6.26135497305E-02 +5.04733268752E-01
4.55000000000E+09 -1.30673103247E-01 +5.35207685126E-01 +3.81293362273E-04 -9.81305808964E-04 +3.32598627933E-04 -1.04641746877E-03 -5.02093858120E-02 +5.13845857086E-01
4.55500000000E+09 -1.19990859777E-01 +5.45414821156E-01 +1.28619519396E-04 -7.89714842577E-04 +1.07931109033E-04 -7.53725760690E-04 -3.86040946407E-02 +5.22295403655E-01
4.56000000000E+09 -1.10649144284E-01 +5.54242154868E-01 +1.49832316960E-04 -6.71052300718E-04 +1.72492377209E-04 -6.73979083628E-04 -2.59838418311E-02 +5.30362537328E-01
4.56500000000E+09 -1.02276513357E-01 +5.60871058770E-01 +4.57877080109E-04 -7.99333428162E-04 +4.45172933409E-04 -7.96818713053E-04 -1.37509397075E-02 +5.37475057559E-01
4.57000000000E+09 -9.42619337062E-02 +5.66031125268E-01 +2.35442065309E-04 -1.24830351344E-03 +2.04531831317E-04 -1.25685031994E-03 -1.39939386660E-03 +5.44545378678E-01
