# Hz S RI R 50
! CMT, C1220, 16058040, 17.2.0/1
! Date: 15/08/2018 12:11:21
! Data: Format (Calibration Info)
! Freq                      S11: Re/Im (F2)                       S21: Re/Im (F2)                       S12: Re/Im (F2)                       S22: Re/Im (F2)            
4.00000000000E+09 +6.50921556701E-01 -3.55393947975E-01 -1.94480828273E-04 -5.99012195323E-04 -2.14746940493E-04 -6.28280927925E-04 +7.67351146986E-01 -3.20972666296E-01
4.00500000000E+09 +6.42699962593E-01 -3.61357922553E-01 -3.08539866513E-04 -3.28529034266E-04 -3.18033188207E-04 -3.79136039051E-04 +7.58090316855E-01 -3.31463723458E-01
4.01000000000E+09 +6.33796831072E-01 -3.66913666639E-01 -9.21112654175E-05 -3.13180273103E-04 -1.37689637975E-04 -2.98318396505E-04 +7.48461258128E-01 -3.42004006549E-01
4.01500000000E+09 +6.24148021408E-01 -3.73339192562E-01 -1.49548589859E-04 -4.16140616962E-04 -2.01531064188E-04 -4.51808326068E-04 +7.38852132777E-01 -3.51898840388E-01
4.02000000000E+09 +6.13045162147E-01 -3.81619249832E-01 -3.88171675487E-04 -4.31807431867E-04 -3.54416780122E-04 -5.08675383618E-04 +7.28572063302E-01 -3.62079311845E-01
4.02500000000E+09 +6.01162775917E-01 -3.90335131291E-01 -5.08408196390E-04 -2.80528760443E-04 -5.10268256192E-04 -2.64842006174E-04 +7.17727180392E-01 -3.71475497733E-01
4.03000000000E+09 +5.89482083982E-01 -4.00149356295E-01 -3.29258694858E-04 -8.28049412024E-05 -3.95370984030E-04 -8.82321874869E-05 +7.07095372509E-01 -3.81002907364E-01
4.03500000000E+09 +5.78274222538E-01 -4.11001662311E-01 -2.71578482367E-04 -9.41061775936E-05 -2.71033954014E-04 -1.31446649367E-04 +6.95943408371E-01 -3.90881116148E-01
4.04000000000E+09 +5.67055423715E-01 -4.21915422390E-01 -2.55468682826E-04 -6.00639387808E-05 -3.49459882801E-04 -1.68240375588E-05 +6.84749249740E-01 -4.00950342479E-01
4.04500000000E+09 +5.56329409799E-01 -4.31876318032E-01 -1.49439752179E-04 -1.05762499035E-04 -1.13465877453E-04 -1.47267965108E-04 +6.72754041403E-01 -4.10846311224E-01
4.05000000000E+09 +5.45478894095E-01 -4.40450410714E-01 -1.35803751588E-04 -2.79341052206E-04 -1.42161690837E-04 -3.03336760307E-04 +6.60616862740E-01 -4.19490776333E-01
4.05500000000E+09 +5.34205138422E-01 -4.46820061668E-01 -3.53813366261E-04 -2.91999319240E-04 -3.73839234497E-04 -3.21555191771E-04 +6.48471516313E-01 -4.28240959754E-01
4.06000000000E+09 +5.22828811969E-01 -4.51495950848E-01 -3.38346474843E-04 -2.51211314409E-04 -3.42105823735E-04 -2.21825816458E-04 +6.35780809956E-01 -4.36501509544E-01
4.06500000000E+09 +5.10460511118E-01 -4.55007233604E-01 -4.99403775666E-04 -2.00243721768E-04 -4.97982137089E-04 -1.61824358764E-04 +6.22433335993E-01 -4.44607568465E-01
4.07000000000E+09 +4.97442865713E-01 -4.58412245517E-01 -4.30842866328E-04 -1.90383262529E-05 -4.44208566798E-04 +9.51924602711E-06 +6.08807662850E-01 -4.52850054488E-01
4.07500000000E+09 +4.82680360716E-01 -4.62631559000E-01 -3.16204914044E-04 -1.53068717310E-04 -3.16503607684E-04 -1.62105474260E-04 +5.94857959347E-01 -4.61102139744E-01
4.08000000000E+09 +4.66005901603E-01 -4.67229411359E-01 -6.41915833443E-04 -1.59440602992E-04 -6.09429805210E-04 -2.02815621318E-04 +5.80980158149E-01 -4.68897570674E-01
4.08500000000E+09 +4.49198998310E-01 -4.71882288824E-01 -6.53692955779E-04 +9.86561839563E-05 -6.53343251260E-04 +8.31181885421E-05 +5.66921213347E-01 -4.76830332134E-01
4.09000000000E+09 +4.32582187456E-01 -4.78239728205E-01 -3.81547440359E-04 +1.44250011618E-04 -3.73738071285E-04 +1.23166671073E-04 +5.52214497271E-01 -4.83571212730E-01
4.09500000000E+09 +4.15894571483E-01 -4.85086180479E-01 -5.82698483152E-04 -4.14390753267E-06 -5.78572391628E-04 +2.34498016540E-06 +5.37932364484E-01 -4.90071426751E-01
4.10000000000E+09 +3.98472936625E-01 -4.91634067639E-01 -5.56898053594E-04 +1.10246509020E-04 -5.70927777108E-04 +1.02411569834E-04 +5.21732530986E-01 -4.96533848397E-01
4.10500000000E+09 +3.81500984866E-01 -4.96056272241E-01 -7.77168237121E-04 +3.60556399439E-04 -7.83756836212E-04 +3.18648216438E-04 +5.05472536796E-01 -5.01947294685E-01
4.11000000000E+09 +3.65311508804E-01 -4.98392128861E-01 -5.21067530230E-04 +6.89409624352E-04 -5.27722398213E-04 +6.67885075275E-04 +4.88866692543E-01 -5.07794348352E-01
4.11500000000E+09 +3.50525540291E-01 -4.98940245258E-01 +2.01024210239E-04 +5.09453171629E-04 +1.48640758450E-04 +5.47172316338E-04 +4.72294054885E-01 -5.12509101499E-01
4.12000000000E+09 +3.35818547256E-01 -4.99279540568E-01 -1.12324952234E-04 -6.60340987521E-05 -1.45092413529E-04 -5.10416534452E-05 +4.56146254751E-01 -5.17877499988E-01
4.12500000000E+09 +3.19972017629E-01 -4.99874745841E-01 -4.35505416549E-04 +2.97663753629E-05 -4.57889221620E-04 +6.24733218793E-05 +4.38639377001E-01 -5.22555609598E-01
4.13000000000E+09 +3.02227025645E-01 -5.00888577067E-01 -5.29588940505E-04 +3.30699673775E-04 -5.35048912754E-04 +3.48351589711E-04 +4.21873037772E-01 -5.25867286925E-01
4.13500000000E+09 +2.82200803906E-01 -5.02013119352E-01 -4.70328950862E-04 +4.01465217666E-04 -4.47968491274E-04 +4.55785308746E-04 +4.04401336864E-01 -5.29490636458E-01
4.14000000000E+09 +2.62035434633E-01 -5.02938572884E-01 -2.31500106135E-04 +7.29365592547E-04 -2.03220982114E-04 +8.02655403921E-04 +3.85858457905E-01 -5.32600225399E-01
4.14500000000E+09 +2.41857380496E-01 -5.05123114271E-01 +2.37221388110E-04 +4.30026422722E-04 +2.36132055227E-04 +4.09447800197E-04 +3.67577222136E-01 -5.35388213774E-01
4.15000000000E+09 +2.22533225299E-01 -5.08610449041E-01 -7.51334697532E-05 -6.36346377422E-05 -6.57587983405E-05 -9.25659516108E-05 +3.49113150168E-01 -5.37790227907E-01
4.15500000000E+09 +2.02480243330E-01 -5.12794181414E-01 -6.55973943824E-04 +2.81205585801E-04 -6.62866664268E-04 +2.82314131809E-04 +3.30613350154E-01 -5.39277332021E-01
4.16000000000E+09 +1.83288616084E-01 -5.15036254950E-01 -4.31953374444E-04 +6.28376963151E-04 -4.49748600779E-04 +6.42877857492E-04 +3.12529111989E-01 -5.40144084398E-01
4.16500000000E+09 +1.65562991685E-01 -5.15580216658E-01 -2.32795056328E-04 +6.41825479956E-04 -2.19290447123E-04 +5.96854235840E-04 +2.93774627856E-01 -5.39800911635E-01
4.17000000000E+09 +1.49298583021E-01 -5.13363664947E-01 -1.72138376692E-04 +8.95799233177E-04 -1.18841925236E-04 +9.12091428684E-04 +2.75082317772E-01 -5.38818020969E-01
4.17500000000E+09 +1.34798176243E-01 -5.10176617974E-01 +9.60296268267E-05 +5.38823430639E-04 +1.09207782584E-04 +5.01978879567E-04 +2.56146603267E-01 -5.37467895310E-01
4.18000000000E+09 +1.20159390792E-01 -5.06213784859E-01 +2.32021313440E-05 +6.08898742076E-04 +2.74793196232E-05 +5.55551151949E-04 +2.36641782883E-01 -5.35788478936E-01
4.18500000000E+09 +1.03865565082E-01 -5.01476331312E-01 -9.08983449997E-05 +6.11574897114E-04 -9.44311384331E-05 +5.91893803205E-04 +2.17386391651E-01 -5.33480051494E-01
4.19000000000E+09 +8.63876395857E-02 -4.95680236371E-01 +1.24402684707E-04 +6.71570000264E-04 +5.74076115899E-05 +6.95536317639E-04 +1.98082467428E-01 -5.30783309417E-01
4.19500000000E+09 +6.80973219841E-02 -4.89733600891E-01 -3.97521747374E-05 +8.40766390208E-04 -6.81884954531E-05 +8.29901770009E-04 +1.79148397795E-01 -5.27191772615E-01
4.20000000000E+09 +4.96106897149E-02 -4.83874518622E-01 +2.66129730723E-04 +1.04391474361E-03 +2.08573733942E-04 +1.05156354828E-03 +1.59756810598E-01 -5.23662361059E-01
4.20500000000E+09 +3.09173437950E-02 -4.79088234012E-01 +7.09211562765E-04 +8.42522931585E-04 +6.60465801569E-04 +8.60942939118E-04 +1.39847170727E-01 -5.17923310553E-01
4.21000000000E+09 +1.28249389001E-02 -4.74712853538E-01 +4.03477482236E-04 +5.72540747699E-04 +3.38646298607E-04 +5.68720914645E-04 +1.20796890325E-01 -5.12443139256E-01
4.21500000000E+09 -5.94262931478E-03 -4.69986547417E-01 +4.81389286471E-04 +8.61654357926E-04 +3.93779007803E-04 +9.03902224866E-04 +1.01408751738E-01 -5.06469655579E-01
4.22000000000E+09 -2.30677603307E-02 -4.62817277006E-01 +9.71784251517E-04 +8.16909747531E-04 +9.68074293517E-04 +8.93814085818E-04 +8.28469154420E-02 -4.99377808941E-01
4.22500000000E+09 -3.79398442750E-02 -4.54074284702E-01 +7.67126902608E-04 +2.94188444449E-04 +7.68669998821E-04 +3.54767183378E-04 +6.46382643558E-02 -4.92946483686E-01
4.23000000000E+09 -5.22556844457E-02 -4.44357836459E-01 +8.08445919084E-04 +3.93525192443E-04 +8.74529036526E-04 +4.47608891417E-04 +4.58101560209E-02 -4.85376137957E-01
4.23500000000E+09 -6.57283788758E-02 -4.33235823388E-01 +4.13486630124E-04 +6.54433240709E-04 +4.47700213740E-04 +6.52887095873E-04 +2.76794384244E-02 -4.76490931963E-01
4.24000000000E+09 -8.03190054293E-02 -4.21716503990E-01 +1.17081902615E-03 +8.92840239940E-04 +1.25198725584E-03 +9.27308980250E-04 +9.49279148964E-03 -4.67488314064E-01
4.24500000000E+09 -9.74281089027E-02 -4.09911208568E-01 +1.76098369686E-03 +4.83717574163E-04 +1.82159767582E-03 +4.83485565507E-04 -8.97134840521E-03 -4.57034116033E-01
4.25000000000E+09 -1.16306090378E-01 -3.96206748482E-01 +1.65742259251E-03 -5.11821124301E-04 +1.67919928277E-03 -4.76106928732E-04 -2.63345837877E-02 -4.45841324160E-01
4.25500000000E+09 -1.35251024328E-01 -3.82596642165E-01 +9.53281187292E-04 -5.29341781120E-04 +1.02920809673E-03 -5.99149999371E-04 -4.38715762747E-02 -4.34777469064E-01
4.26000000000E+09 -1.54323549813E-01 -3.70535321659E-01 +7.95922223175E-04 -2.94160425576E-04 +7.94919353169E-04 -3.32168608071E-04 -6.11934797924E-02 -4.21844000043E-01
4.26500000000E+09 -1.73429102834E-01 -3.58520552546E-01 +9.34786181624E-04 -2.30092031309E-04 +9.88037871353E-04 -2.86967209190E-04 -7.66488863316E-02 -4.08646844974E-01
4.27000000000E+09 -1.91143602224E-01 -3.47443423033E-01 +1.11744572297E-03 -4.47573089713E-04 +1.11195925247E-03 -4.90399571724E-04 -9.28270076563E-02 -3.95626416982E-01
4.27500000000E+09 -2.06976819302E-01 -3.35970549297E-01 +1.05770512015E-03 -4.19355280274E-04 +1.08334742687E-03 -4.69552621252E-04 -1.09047157197E-01 -3.81107213675E-01
4.28000000000E+09 -2.20411934495E-01 -3.23698765423E-01 +1.02728547792E-03 -8.00248647396E-04 +1.05489111188E-03 -7.92147436910E-04 -1.24075662192E-01 -3.66760401304E-01
4.28500000000E+09 -2.32598308312E-01 -3.09856252967E-01 +7.90511100808E-04 -7.64592829793E-04 +7.25086467741E-04 -7.70392644919E-04 -1.39565876627E-01 -3.52384234384E-01
4.29000000000E+09 -2.42514078146E-01 -2.94775516016E-01 +9.15603367209E-04 -7.28386036275E-04 +9.07017940571E-04 -7.66040976037E-04 -1.54697391132E-01 -3.37198033170E-01
4.29500000000E+09 -2.53048445315E-01 -2.77733310876E-01 +7.14214327274E-04 -1.19465774972E-03 +6.93596810468E-04 -1.25336400703E-03 -1.68730775418E-01 -3.20918482260E-01
4.30000000000E+09 -2.63239182063E-01 -2.58830590396E-01 +5.16599739834E-04 -8.75598716996E-04 +4.79142598557E-04 -9.11903737828E-04 -1.81100464945E-01 -3.04220062384E-01
4.30500000000E+09 -2.74257439960E-01 -2.39562599671E-01 +6.87122837420E-04 -9.89831428662E-04 +6.16554478776E-04 -1.04228342514E-03 -1.92929692084E-01 -2.87344147796E-01
4.31000000000E+09 -2.87232311958E-01 -2.19594187893E-01 +6.67262765514E-04 -1.39293828358E-03 +6.54696215502E-04 -1.40594603042E-03 -2.03904203577E-01 -2.70129813626E-01
4.31500000000E+09 -3.00378975994E-01 -1.99953744156E-01 +1.52220246612E-04 -1.46372135964E-03 +1.64593900607E-04 -1.48912966599E-03 -2.14613159014E-01 -2.52917148574E-01
4.32000000000E+09 -3.13820387214E-01 -1.81345668293E-01 -2.07316038861E-05 -1.39306563172E-03 -4.56595423625E-05 -1.35758958564E-03 -2.25574219565E-01 -2.35141352714E-01
4.32500000000E+09 -3.25843909014E-01 -1.63848965476E-01 +5.25462215804E-05 -1.17808465901E-03 +2.66791646880E-05 -1.21994689897E-03 -2.35095285701E-01 -2.16658387763E-01
4.33000000000E+09 -3.35963341816E-01 -1.47409121259E-01 -6.11708070795E-05 -1.33007629617E-03 -1.09296901750E-04 -1.29238231646E-03 -2.44797415835E-01 -1.98399913647E-01
4.33500000000E+09 -3.43554045315E-01 -1.31454747429E-01 +1.62551379801E-06 -1.31682079289E-03 -7.72893081714E-06 -1.34092990175E-03 -2.53799054696E-01 -1.78362758901E-01
4.34000000000E+09 -3.48588832706E-01 -1.16080712008E-01 -3.44852382718E-04 -1.80706403996E-03 -3.59643080380E-04 -1.68857492929E-03 -2.61082951029E-01 -1.58072361247E-01
4.34500000000E+09 -3.51830192225E-01 -1.00102350586E-01 -7.31411624578E-04 -1.41842408921E-03 -7.80974776447E-04 -1.39396985570E-03 -2.68229559256E-01 -1.38269374033E-01
4.35000000000E+09 -3.54425733454E-01 -8.21850664592E-02 -7.48412184332E-04 -1.37542917414E-03 -7.40184064609E-04 -1.31380174836E-03 -2.74795237095E-01 -1.18409764974E-01
4.35500000000E+09 -3.56451335295E-01 -6.19015629645E-02 -1.02839393680E-03 -1.22681332668E-03 -9.67327624639E-04 -1.24729077353E-03 -2.80787989210E-01 -9.86639935198E-02
4.36000000000E+09 -3.58206224164E-01 -3.96922080899E-02 -1.28547588154E-03 -1.39930677976E-03 -1.20119549857E-03 -1.42806179389E-03 -2.86064805545E-01 -7.91188514079E-02
4.36500000000E+09 -3.60648141790E-01 -1.71025586913E-02 -1.57624915588E-03 -8.41090672368E-04 -1.63079407512E-03 -8.45075459706E-04 -2.89983394137E-01 -5.92194706563E-02
4.37000000000E+09 -3.64619014436E-01 +5.86054920921E-03 -1.46032353830E-03 -6.35985780552E-04 -1.43722822173E-03 -6.67677846212E-04 -2.92953236647E-01 -4.02878147170E-02
4.37500000000E+09 -3.69352055032E-01 +2.70320420030E-02 -1.50047076686E-03 -4.29002003856E-04 -1.49475660015E-03 -4.53634475111E-04 -2.96275491153E-01 -1.99403034338E-02
4.38000000000E+09 -3.75270034550E-01 +4.76922509020E-02 -1.49302813871E-03 -3.73862924964E-04 -1.53060721071E-03 -3.93638494161E-04 -2.97760196548E-01 +9.53695347503E-04
4.38500000000E+09 -3.79361301220E-01 +6.59922445501E-02 -1.50543650465E-03 -1.24754522376E-04 -1.52368281324E-03 -1.96576188741E-04 -2.98648479663E-01 +2.11875823921E-02
4.39000000000E+09 -3.83101082157E-01 +8.21244549439E-02 -1.45049426109E-03 -1.50112017546E-04 -1.47408158287E-03 -2.05435440907E-04 -2.99094683581E-01 +4.17707949060E-02
4.39500000000E+09 -3.84110976509E-01 +9.72642827592E-02 -1.58285239012E-03 +2.51431700577E-06 -1.58337093025E-03 +1.56386065666E-05 -2.99496623176E-01 +6.08629636066E-02
4.40000000000E+09 -3.82421009724E-01 +1.11628119107E-01 -1.98616849086E-03 +1.32083985764E-04 -1.97880182943E-03 +1.19432320381E-04 -2.99131145379E-01 +8.07584721807E-02
4.40500000000E+09 -3.79658228645E-01 +1.25953318911E-01 -1.87030061840E-03 +7.74767913910E-04 -1.88742021942E-03 +8.15674555297E-04 -2.97381081073E-01 +1.00047227331E-01
4.41000000000E+09 -3.75472100581E-01 +1.43443987940E-01 -1.49300913372E-03 +1.16824186763E-03 -1.54820204280E-03 +1.14448910979E-03 -2.95289505536E-01 +1.19218410281E-01
4.41500000000E+09 -3.69136245833E-01 +1.62684624645E-01 -9.91619497447E-04 +1.01500008706E-03 -9.61306936680E-04 +1.03748218420E-03 -2.91678203608E-01 +1.38716773583E-01
4.42000000000E+09 -3.62704220154E-01 +1.83569675957E-01 -1.03001533891E-03 +9.03268582399E-04 -1.04966779128E-03 +9.04469614583E-04 -2.87441742861E-01 +1.58017601720E-01
4.42500000000E+09 -3.56308586844E-01 +2.04985026360E-01 -1.03703205673E-03 +8.10780309571E-04 -1.07530374713E-03 +9.10047967433E-04 -2.83201521295E-01 +1.76438165374E-01
4.43000000000E+09 -3.51933440376E-01 +2.25915177641E-01 -1.30650978706E-03 +1.09818415336E-03 -1.27367344256E-03 +1.18241213249E-03 -2.78927533650E-01 +1.94608597816E-01
4.43500000000E+09 -3.49245565623E-01 +2.46114366170E-01 -9.63945314114E-04 +1.59869895384E-03 -9.46018419330E-04 +1.65955531039E-03 -2.75197765469E-01 +2.12489336385E-01
4.44000000000E+09 -3.47445388906E-01 +2.65894626221E-01 -6.45499118400E-04 +1.45797473076E-03 -6.27827603300E-04 +1.46987235293E-03 -2.70413667236E-01 +2.31578053248E-01
4.44500000000E+09 -3.43917337392E-01 +2.83320170246E-01 -3.47163934837E-04 +1.75760857866E-03 -2.80687576826E-04 +1.72651923025E-03 -2.63225727780E-01 +2.49280188757E-01
4.45000000000E+09 -3.39624244643E-01 +2.97276146996E-01 +1.46197906681E-04 +1.42778756956E-03 +2.25666737256E-04 +1.40886718190E-03 -2.56154583873E-01 +2.65752179067E-01
4.45500000000E+09 -3.34416937443E-01 +3.09658399578E-01 -5.77466506163E-05 +1.08977421514E-03 -5.62479728050E-06 +1.08630680873E-03 -2.48048086037E-01 +2.82302203724E-01
4.46000000000E+09 -3.27198884501E-01 +3.21344794606E-01 -1.34325004563E-04 +1.07793382137E-03 -8.99887471291E-05 +1.05217010637E-03 -2.39901194822E-01 +2.97855950034E-01
4.46500000000E+09 -3.18745253881E-01 +3.33517743358E-01 -1.56325519694E-04 +1.39658938607E-03 -9.71409719644E-05 +1.37225173782E-03 -2.31571972468E-01 +3.13095272699E-01
4.47000000000E+09 -3.08010157287E-01 +3.48025392406E-01 +2.10741842409E-05 +1.15990766948E-03 +6.83515388745E-05 +1.11344370871E-03 -2.22856519066E-01 +3.28390994846E-01
4.47500000000E+09 -2.95702780164E-01 +3.63832381469E-01 -7.33831178544E-05 +1.54417087233E-03 -6.54733985265E-05 +1.53269059998E-03 -2.14338043650E-01 +3.43251341007E-01
4.48000000000E+09 -2.83341830514E-01 +3.80960304743E-01 +3.99835247018E-04 +1.59473548885E-03 +4.11994733005E-04 +1.54090382450E-03 -2.05109207247E-01 +3.58223877027E-01
4.48500000000E+09 -2.71501647795E-01 +3.98249690928E-01 +5.86148250069E-04 +1.56389765189E-03 +6.46038303814E-04 +1.46075510798E-03 -1.95150050337E-01 +3.72102698833E-01
4.49000000000E+09 -2.62197255922E-01 +4.15209807202E-01 +1.03079540129E-03 +1.46461102615E-03 +9.35665287705E-04 +1.44916504107E-03 -1.85007828842E-01 +3.85439191594E-01
4.49500000000E+09 -2.54684494764E-01 +4.31180080397E-01 +1.20241596258E-03 +8.97357512205E-04 +1.18033143054E-03 +8.83352040262E-04 -1.74980758225E-01 +3.98131143002E-01
4.50000000000E+09 -2.48682845451E-01 +4.46132103770E-01 +7.40392451839E-04 +9.84042813341E-04 +7.62212232323E-04 +9.94457110897E-04 -1.64422382197E-01 +4.10840519059E-01
4.50500000000E+09 -2.43082314083E-01 +4.58226494915E-01 +9.13254716958E-04 +8.92675641170E-04 +9.68528670747E-04 +8.91598350186E-04 -1.54022261573E-01 +4.23099809082E-01
4.51000000000E+09 -2.37510718935E-01 +4.68499318373E-01 +9.90507130324E-04 +1.07683052958E-03 +9.71409777276E-04 +1.01316838500E-03 -1.43068434694E-01 +4.34923107060E-01
4.51500000000E+09 -2.30185584750E-01 +4.77179716588E-01 +1.36562934783E-03 +1.14674046627E-03 +1.33018935453E-03 +1.08846234293E-03 -1.32675408610E-01 +4.46264629909E-01
4.52000000000E+09 -2.20829720358E-01 +4.84983293846E-01 +1.78209932442E-03 +7.40394833481E-04 +1.70815477300E-03 +7.30670771644E-04 -1.21900110956E-01 +4.57384299421E-01
4.52500000000E+09 -2.08672972624E-01 +4.92673689010E-01 +1.76338840724E-03 +4.09389155335E-04 +1.70505733548E-03 +3.69781951048E-04 -1.10298795003E-01 +4.68223087060E-01
4.53000000000E+09 -1.94557196711E-01 +5.00578649350E-01 +1.78577191321E-03 -9.22321875836E-05 +1.78525560867E-03 -9.86438397086E-05 -9.83413074038E-02 +4.77481242256E-01
4.53500000000E+09 -1.79519944837E-01 +5.09779729074E-01 +1.29704228131E-03 -1.05514647671E-04 +1.31668682784E-03 -1.60063329140E-04 -8.63160638749E-02 +4.87217678862E-01
4.54000000000E+09 -1.63988731864E-01 +5.19976480999E-01 +1.49083464260E-03 -1.28576150937E-04 +1.43402377395E-03 -1.65760937280E-04 -7.37271993707E-02 +4.96268977575E-01
4.54500000000E+09 -1.49392151813E-01 +5.30701813287E-01 +1.53941601844E-03 -3.28313395139E-04 +1.42126687511E-03 -2.74253837134E-04 -6.19460196726E-02 +5.04907457027E-01
4.55000000000E+09 -1.36862709397E-01 +5.41820516439E-01 +1.42970494321E-03 -5.58823067352E-04 +1.34771049342E-03 -5.58593814742E-04 -4.92839646639E-02 +5.13934552261E-01
4.55500000000E+09 -1.25553846057E-01 +5.52542179627E-01 +1.23757579764E-03 -5.48349913202E-04 +1.26493920270E-03 -5.39099595787E-04 -3.74852271771E-02 +5.22299304133E-01
4.56000000000E+09 -1.15699326298E-01 +5.61282209857E-01 +1.25973969991E-03 -6.43837626701E-04 +1.21176814869E-03 -6.02603530279E-04 -2.48120864744E-02 +5.30135792660E-01
4.56500000000E+09 -1.07221591237E-01 +5.68185826233E-01 +1.47336399889E-03 -8.73425229720E-04 +1.40494274209E-03 -8.49773743187E-04 -1.26777157893E-02 +5.36898217480E-01
4.57000000000E+09 -9.88522930964E-02 +5.73566369558E-01 +1.04638724949E-03 -1.37690881300E-03 +1.01271698933E-03 -1.38761391263E-03 -5.47907609617E-04 +5.43899060080E-01
