# Hz S RI R 50
! CMT, C1220, 16058040, 17.2.0/1
! Date: 15/08/2018 12:12:14
! Data: Format (Calibration Info)
! Freq                      S11: Re/Im (F2)                       S21: Re/Im (F2)                       S12: Re/Im (F2)                       S22: Re/Im (F2)            
4.00000000000E+09 +6.55510473101E-01 -3.55777375409E-01 +1.08133177269E-04 -7.85702932350E-04 +6.76730314403E-05 -8.40450288147E-04 +7.67270378380E-01 -3.22587829468E-01
4.00500000000E+09 +6.47334852306E-01 -3.62127248688E-01 -2.03770123661E-05 -5.54754380383E-04 +1.18759342016E-05 -5.58837349930E-04 +7.58079572854E-01 -3.33087211093E-01
4.01000000000E+09 +6.38519158363E-01 -3.67982576481E-01 +1.05885539870E-04 -5.27239127667E-04 +2.15579359221E-04 -5.68067644272E-04 +7.48337535497E-01 -3.43641244417E-01
4.01500000000E+09 +6.28816018981E-01 -3.74926885292E-01 +1.88267372994E-04 -7.82893882339E-04 +2.26427095829E-04 -7.68175649094E-04 +7.38618273153E-01 -3.53407855821E-01
4.02000000000E+09 +6.17713341056E-01 -3.83275359941E-01 -2.12155268660E-05 -9.10316126827E-04 +8.37394053510E-05 -9.32300608567E-04 +7.28237012646E-01 -3.63605738732E-01
4.02500000000E+09 +6.05623362862E-01 -3.92359612160E-01 -2.69026954169E-04 -9.57383976195E-04 -2.06812771630E-04 -9.71165021914E-04 +7.17409877400E-01 -3.73070704493E-01
4.03000000000E+09 +5.93983149861E-01 -4.02333971696E-01 -3.52929333952E-04 -7.37598933705E-04 -3.35682328196E-04 -8.41451416122E-04 +7.06642348394E-01 -3.82447537059E-01
4.03500000000E+09 +5.82775191934E-01 -4.13338408709E-01 -4.34200629389E-04 -6.89534156733E-04 -4.06889579901E-04 -7.40567650337E-04 +6.95372087284E-01 -3.92241379325E-01
4.04000000000E+09 +5.71766450143E-01 -4.24659477299E-01 -5.04393623590E-04 -5.16301078699E-04 -5.01929010528E-04 -5.35729755367E-04 +6.84259353333E-01 -4.02474081329E-01
4.04500000000E+09 +5.60964006673E-01 -4.35148669107E-01 -3.66458286726E-04 -4.84631069873E-04 -3.74249298982E-04 -5.34109384695E-04 +6.72098405466E-01 -4.12428655689E-01
4.05000000000E+09 +5.49895563771E-01 -4.44177955788E-01 -3.48017474427E-04 -5.23634420003E-04 -3.02098443377E-04 -5.84104112759E-04 +6.59676805565E-01 -4.20912252589E-01
4.05500000000E+09 +5.38640243528E-01 -4.50911489280E-01 -4.24189549013E-04 -7.05454492414E-04 -4.11807951461E-04 -7.86690103778E-04 +6.47469955578E-01 -4.29347243654E-01
4.06000000000E+09 +5.27151820250E-01 -4.56063027941E-01 -5.93473397451E-04 -6.64382333416E-04 -5.81132423319E-04 -6.93135963363E-04 +6.34736175153E-01 -4.37619281106E-01
4.06500000000E+09 +5.14453471960E-01 -4.60074108138E-01 -8.46408203434E-04 -5.81920741462E-04 -8.32759830779E-04 -6.29308584156E-04 +6.21225860128E-01 -4.45476049720E-01
4.07000000000E+09 +5.01029775376E-01 -4.63665033790E-01 -8.61237225255E-04 -3.34510795909E-04 -8.46349085569E-04 -3.64066755729E-04 +6.07576263784E-01 -4.53408545711E-01
4.07500000000E+09 +4.86244959949E-01 -4.68119111455E-01 -8.14624999005E-04 -2.87468781722E-04 -7.90149376435E-04 -3.44094203305E-04 +5.93553805155E-01 -4.61495281152E-01
4.08000000000E+09 +4.69546550666E-01 -4.73159362663E-01 -9.47667182195E-04 -2.02921618622E-04 -1.01770499319E-03 -2.39017128668E-04 +5.79882849011E-01 -4.68948539711E-01
4.08500000000E+09 +4.52299908684E-01 -4.78367667758E-01 -9.36961343619E-04 +5.89469635264E-05 -9.38802676013E-04 +6.16315121948E-05 +5.66034239090E-01 -4.76927802765E-01
4.09000000000E+09 +4.35466365148E-01 -4.84872536641E-01 -5.77308900061E-04 -2.46194291973E-05 -6.37698951549E-04 -2.56873958007E-05 +5.51308131928E-01 -4.83436741357E-01
4.09500000000E+09 +4.18307763671E-01 -4.92159495521E-01 -8.22550894130E-04 -1.53788570528E-04 -8.02680347512E-04 -1.83862900736E-04 +5.37248670029E-01 -4.89621891734E-01
4.10000000000E+09 +4.00429760751E-01 -4.98968283944E-01 -9.59791264896E-04 -6.13057300470E-05 -9.36237685454E-04 -4.18014420985E-05 +5.21413679197E-01 -4.96059475557E-01
4.10500000000E+09 +3.83141517197E-01 -5.03407962421E-01 -1.05508171615E-03 +1.52902240901E-04 -1.12464092129E-03 +1.49088180705E-04 +5.05350350107E-01 -5.01631274209E-01
4.11000000000E+09 +3.66678756295E-01 -5.06102129882E-01 -1.14644237502E-03 +4.45525795910E-04 -1.16951645376E-03 +4.80011040793E-04 +4.88865982321E-01 -5.07613583475E-01
4.11500000000E+09 +3.51202674539E-01 -5.07084730037E-01 -5.87063063682E-04 +7.01787722700E-04 -6.31047820228E-04 +7.31213937954E-04 +4.71891600441E-01 -5.12650564457E-01
4.12000000000E+09 +3.35644715090E-01 -5.07436464776E-01 -5.81336526567E-04 +3.29650594937E-04 -6.10217159963E-04 +2.52701522503E-04 +4.55937690785E-01 -5.17643156010E-01
4.12500000000E+09 +3.19386549348E-01 -5.07718665533E-01 -7.41369972376E-04 +3.40022989847E-04 -7.64039208081E-04 +3.23377899596E-04 +4.38696055988E-01 -5.22453096585E-01
4.13000000000E+09 +3.01265182534E-01 -5.08715684411E-01 -8.96148038674E-04 +5.59856190659E-04 -8.95562054192E-04 +5.11745179152E-04 +4.21601985321E-01 -5.25715475411E-01
4.13500000000E+09 +2.81002601919E-01 -5.10104199976E-01 -7.99924438993E-04 +5.93778506606E-04 -8.09418465249E-04 +5.48401294883E-04 +4.04381122409E-01 -5.29067617488E-01
4.14000000000E+09 +2.60171616560E-01 -5.11234199225E-01 -7.88138381427E-04 +9.85111349698E-04 -8.45028665588E-04 +9.91877143456E-04 +3.86062433269E-01 -5.32181749892E-01
4.14500000000E+09 +2.39496680606E-01 -5.13541914662E-01 -3.48269102876E-04 +9.46280085729E-04 -3.91398919636E-04 +9.57983868482E-04 +3.67810392398E-01 -5.34833084557E-01
4.15000000000E+09 +2.19059853299E-01 -5.16901714584E-01 -3.06837245076E-04 +6.90314752526E-04 -3.38731674612E-04 +7.32850358020E-04 +3.49544404683E-01 -5.37277227809E-01
4.15500000000E+09 +1.98628567402E-01 -5.20504449680E-01 -6.38641036215E-04 +8.08471844051E-04 -7.12611528880E-04 +8.14497292347E-04 +3.31324766295E-01 -5.38588883060E-01
4.16000000000E+09 +1.79261990195E-01 -5.22645596738E-01 -3.70355128130E-04 +1.07027172420E-03 -4.09190046747E-04 +1.09782821731E-03 +3.13579475503E-01 -5.39339363681E-01
4.16500000000E+09 +1.61103188147E-01 -5.23300447882E-01 -2.09417598248E-04 +1.02838793355E-03 -2.75425155252E-04 +1.01453441580E-03 +2.95155159277E-01 -5.39388515871E-01
4.17000000000E+09 +1.44169011338E-01 -5.21510110921E-01 -7.46700058376E-05 +1.29827095712E-03 -1.07052971897E-04 +1.34253213375E-03 +2.76373026206E-01 -5.38346703054E-01
4.17500000000E+09 +1.28519245003E-01 -5.18153185262E-01 +2.10231582155E-04 +8.46394621485E-04 +2.25531361417E-04 +8.56468199247E-04 +2.57983142626E-01 -5.36973555626E-01
4.18000000000E+09 +1.12757985947E-01 -5.13090754215E-01 -1.72621503215E-04 +9.04680347266E-04 -1.97952937852E-04 +9.30364952351E-04 +2.38792344316E-01 -5.35554644310E-01
4.18500000000E+09 +9.66409218752E-02 -5.07828605711E-01 -2.48790010497E-05 +1.25975382197E-03 -5.54783478735E-05 +1.28544405215E-03 +2.19765662071E-01 -5.33644313298E-01
4.19000000000E+09 +7.89851943490E-02 -5.01785008363E-01 +3.91339507175E-04 +1.16020030875E-03 +3.80367705855E-04 +1.19992075249E-03 +2.00479906549E-01 -5.31390510537E-01
4.19500000000E+09 +6.05814644867E-02 -4.95758347078E-01 +3.74889211215E-04 +1.18641357425E-03 +3.71321562405E-04 +1.24308956422E-03 +1.81315052250E-01 -5.28039669686E-01
4.20000000000E+09 +4.11031162610E-02 -4.90133479289E-01 +7.81240356557E-04 +1.20861131035E-03 +7.75494746709E-04 +1.24049401586E-03 +1.62057973845E-01 -5.24607524407E-01
4.20500000000E+09 +2.15706038193E-02 -4.84696706547E-01 +1.00319086647E-03 +7.68200065875E-04 +1.00785088070E-03 +7.46368491514E-04 +1.42284389448E-01 -5.19305615468E-01
4.21000000000E+09 +2.74752958407E-03 -4.79395552048E-01 +4.79822168407E-04 +5.46568110107E-04 +4.93630506940E-04 +5.48549268077E-04 +1.22960902717E-01 -5.13959660451E-01
4.21500000000E+09 -1.59745624973E-02 -4.73852783292E-01 +5.13545226996E-04 +1.00148761370E-03 +5.43181766003E-04 +1.08115784044E-03 +1.03597534926E-01 -5.08164266693E-01
4.22000000000E+09 -3.31130572147E-02 -4.66158716245E-01 +1.02807095062E-03 +9.94119131739E-04 +1.03402211810E-03 +1.02653172503E-03 +8.48306387722E-02 -5.01517985956E-01
4.22500000000E+09 -4.84927043102E-02 -4.57210558302E-01 +9.76934847744E-04 +6.87956454145E-04 +9.39464383129E-04 +6.51677132032E-04 +6.63547187297E-02 -4.95048392823E-01
4.23000000000E+09 -6.31249825908E-02 -4.46897951650E-01 +1.19662108837E-03 +6.29218250279E-04 +1.21294126065E-03 +6.55646592133E-04 +4.74696759004E-02 -4.87561519002E-01
4.23500000000E+09 -7.74970675578E-02 -4.34845894253E-01 +9.65736844070E-04 +5.10355129377E-04 +9.79741680994E-04 +5.57501481172E-04 +2.90830504745E-02 -4.78596478935E-01
4.24000000000E+09 -9.17812635729E-02 -4.22155361177E-01 +1.19540866310E-03 +6.89119263365E-04 +1.22165545386E-03 +7.03911391343E-04 +1.10367400029E-02 -4.69411120311E-01
4.24500000000E+09 -1.08734211745E-01 -4.09875333510E-01 +1.67059178329E-03 +4.82261145114E-04 +1.70262853342E-03 +4.69217952960E-04 -7.31865624830E-03 -4.58974018606E-01
4.25000000000E+09 -1.28113585131E-01 -3.95770827996E-01 +1.62954220567E-03 -3.67692013117E-05 +1.65580143959E-03 -2.59088553891E-05 -2.43516950853E-02 -4.48208616176E-01
4.25500000000E+09 -1.47414579504E-01 -3.80885758304E-01 +1.43452279549E-03 -1.53853758758E-04 +1.39935616082E-03 -1.52299591784E-04 -4.19047225007E-02 -4.37474463677E-01
4.26000000000E+09 -1.66080904283E-01 -3.67728217423E-01 +1.39997159599E-03 -2.70647224116E-04 +1.41889450975E-03 -2.15762595959E-04 -5.93222753495E-02 -4.24877695215E-01
4.26500000000E+09 -1.85093888056E-01 -3.54809019832E-01 +1.39900937108E-03 -4.06983506776E-04 +1.38778126544E-03 -4.42848512684E-04 -7.48938833820E-02 -4.12115734058E-01
4.27000000000E+09 -2.01943270187E-01 -3.42574083102E-01 +1.43996431164E-03 -5.38086615896E-04 +1.48749444372E-03 -5.96498159676E-04 -9.16163452734E-02 -3.99283104771E-01
4.27500000000E+09 -2.16999390349E-01 -3.30952165692E-01 +1.37116158415E-03 -5.64926183215E-04 +1.32659385543E-03 -6.53501703313E-04 -1.07734852760E-01 -3.84760191475E-01
4.28000000000E+09 -2.30685377574E-01 -3.18507088275E-01 +1.43462126415E-03 -9.16531756860E-04 +1.38685666090E-03 -1.00104958622E-03 -1.23270599859E-01 -3.71053534158E-01
4.28500000000E+09 -2.42753655079E-01 -3.04154679924E-01 +1.08256913515E-03 -9.11453356826E-04 +1.10272069241E-03 -8.98530296862E-04 -1.39438217145E-01 -3.56493859259E-01
4.29000000000E+09 -2.52763038170E-01 -2.87468588664E-01 +1.34417840754E-03 -1.13281115385E-03 +1.33102780186E-03 -1.18056820399E-03 -1.54663790945E-01 -3.41348716277E-01
4.29500000000E+09 -2.61901675875E-01 -2.69538205072E-01 +9.75099472402E-04 -1.66939608879E-03 +9.88349893796E-04 -1.66823630841E-03 -1.69078761853E-01 -3.25051258073E-01
4.30000000000E+09 -2.71307171218E-01 -2.50530998753E-01 +5.52191870127E-04 -1.45676753540E-03 +5.51055769994E-04 -1.43268726799E-03 -1.81806938331E-01 -3.08218541291E-01
4.30500000000E+09 -2.82081298753E-01 -2.30770812598E-01 +4.96500102150E-04 -1.50682415308E-03 +5.13190943172E-04 -1.51660394801E-03 -1.93914803727E-01 -2.91383619626E-01
4.31000000000E+09 -2.94161271777E-01 -2.10652373440E-01 +3.90739726880E-04 -1.69711500938E-03 +3.98901732476E-04 -1.76702705929E-03 -2.05431564982E-01 -2.74042820655E-01
4.31500000000E+09 -3.06934082144E-01 -1.90916824937E-01 -4.14245758184E-05 -1.61392983587E-03 -6.29727624762E-05 -1.56286221364E-03 -2.16488620864E-01 -2.56369961189E-01
4.32000000000E+09 -3.20221038829E-01 -1.71627999415E-01 -1.37882517878E-04 -1.44582929957E-03 -2.00497013816E-04 -1.47192824790E-03 -2.27567944795E-01 -2.38229196845E-01
4.32500000000E+09 -3.31394988778E-01 -1.53291437761E-01 -1.59328731045E-04 -1.32757563627E-03 -1.74610877118E-04 -1.28733733613E-03 -2.36836196087E-01 -2.19491585278E-01
4.33000000000E+09 -3.40736672273E-01 -1.36671014029E-01 -3.28178989288E-04 -1.41269576518E-03 -3.19452705380E-04 -1.38745113190E-03 -2.46711376287E-01 -2.01247359761E-01
4.33500000000E+09 -3.47640789816E-01 -1.20438010952E-01 -3.35899760729E-04 -1.19561595871E-03 -3.41207606022E-04 -1.18636379983E-03 -2.55599491186E-01 -1.80980550516E-01
4.34000000000E+09 -3.51911312301E-01 -1.04905558921E-01 -3.84925434725E-04 -1.42213568290E-03 -3.32775278779E-04 -1.42012233550E-03 -2.63005893033E-01 -1.60808456487E-01
4.34500000000E+09 -3.54128542478E-01 -8.84195082567E-02 -6.64432927075E-04 -1.32203035561E-03 -6.28816310710E-04 -1.31340248547E-03 -2.70451121953E-01 -1.40872021807E-01
4.35000000000E+09 -3.55443389638E-01 -7.09220388158E-02 -8.52305318527E-04 -1.12255837225E-03 -8.02912126460E-04 -1.12713448460E-03 -2.77259886671E-01 -1.20542157863E-01
4.35500000000E+09 -3.57340505439E-01 -5.11093922370E-02 -7.34889841618E-04 -9.95490494360E-04 -7.62634473083E-04 -1.00189658771E-03 -2.82831933153E-01 -1.00617138893E-01
4.36000000000E+09 -3.58884763504E-01 -2.86118390062E-02 -9.62952742268E-04 -1.42831495017E-03 -9.81597204301E-04 -1.50081668676E-03 -2.88569594940E-01 -8.11888448852E-02
4.36500000000E+09 -3.60839145947E-01 -5.35869809660E-03 -1.31474875689E-03 -8.86481794034E-04 -1.34021569250E-03 -8.37780133573E-04 -2.92543222978E-01 -6.07991638173E-02
4.37000000000E+09 -3.63210895500E-01 +1.78787022548E-02 -1.23892695286E-03 -8.02798645781E-04 -1.26280308841E-03 -8.37786295755E-04 -2.95338821604E-01 -4.17333141622E-02
4.37500000000E+09 -3.66730327314E-01 +3.87173457844E-02 -1.25462674988E-03 -3.80858131465E-04 -1.25626901905E-03 -4.52038276810E-04 -2.98708482206E-01 -2.12728798028E-02
4.38000000000E+09 -3.71641739268E-01 +5.82438620713E-02 -1.18556272331E-03 -4.51922583274E-04 -1.17920131966E-03 -4.94140464610E-04 -3.00185573664E-01 -1.37606759915E-04
4.38500000000E+09 -3.76064128085E-01 +7.60599810588E-02 -1.22561189972E-03 -4.77275192933E-04 -1.20968846329E-03 -4.61878103792E-04 -3.01065800418E-01 +2.01181758540E-02
4.39000000000E+09 -3.79566205698E-01 +9.22417446899E-02 -1.30529600219E-03 -4.58373435844E-04 -1.29640168303E-03 -4.62045137804E-04 -3.01602390228E-01 +4.11050447314E-02
4.39500000000E+09 -3.79808443411E-01 +1.07309274431E-01 -1.42299738571E-03 -1.75924177361E-04 -1.45686178623E-03 -2.13198096832E-04 -3.01921818781E-01 +6.03610246604E-02
4.40000000000E+09 -3.77599420418E-01 +1.21604256646E-01 -1.54811459415E-03 -3.50105838915E-04 -1.55281211350E-03 -2.80064694437E-04 -3.01537572384E-01 +8.05064359626E-02
4.40500000000E+09 -3.73634668171E-01 +1.35660715933E-01 -1.77001560183E-03 +2.16492305825E-04 -1.77203133966E-03 +2.03464710249E-04 -2.99466236486E-01 +1.00139839106E-01
4.41000000000E+09 -3.69236302868E-01 +1.51918261340E-01 -1.41759145018E-03 +6.56280857636E-04 -1.45116572952E-03 +6.91410096093E-04 -2.97168330806E-01 +1.19170439153E-01
4.41500000000E+09 -3.62615487562E-01 +1.71206593875E-01 -1.21461807800E-03 +4.59019650210E-04 -1.17656096676E-03 +4.73727397923E-04 -2.93569858720E-01 +1.38923052346E-01
4.42000000000E+09 -3.55572505422E-01 +1.91613921930E-01 -1.12964828466E-03 +6.08180448938E-04 -1.15245609418E-03 +6.06831842024E-04 -2.88841550384E-01 +1.58542268644E-01
4.42500000000E+09 -3.48576949334E-01 +2.12472134706E-01 -1.05841949256E-03 +2.60858939407E-04 -1.05861398770E-03 +3.36782243564E-04 -2.84228100382E-01 +1.76712700709E-01
4.43000000000E+09 -3.43792329620E-01 +2.32673026024E-01 -1.72245406096E-03 +4.39034281481E-04 -1.69740540933E-03 +4.42622504422E-04 -2.80090419507E-01 +1.94859724476E-01
4.43500000000E+09 -3.40953054488E-01 +2.52362036608E-01 -1.72497288364E-03 +1.22726402210E-03 -1.68331338506E-03 +1.26777904853E-03 -2.76152666765E-01 +2.12810864149E-01
4.44000000000E+09 -3.38721175537E-01 +2.71708973242E-01 -1.21234626779E-03 +1.51861639494E-03 -1.16500788229E-03 +1.47942922662E-03 -2.71143775238E-01 +2.31937602359E-01
4.44500000000E+09 -3.34937815981E-01 +2.88283965376E-01 -6.57273254094E-04 +1.77415703881E-03 -5.99489611674E-04 +1.73912684476E-03 -2.63632116329E-01 +2.49497325061E-01
4.45000000000E+09 -3.30478208293E-01 +3.01807736385E-01 -1.59175956552E-04 +1.26103412136E-03 -1.32342114526E-04 +1.27568730196E-03 -2.56571774560E-01 +2.65593756712E-01
4.45500000000E+09 -3.24810879682E-01 +3.13703804370E-01 -4.86352806535E-04 +9.84698904845E-04 -5.19778687346E-04 +9.83758991908E-04 -2.48584599661E-01 +2.82165604783E-01
4.46000000000E+09 -3.17249768596E-01 +3.24553776063E-01 -6.50540821154E-04 +1.18437474008E-03 -6.14026530243E-04 +1.24313455695E-03 -2.40524680923E-01 +2.97618165802E-01
4.46500000000E+09 -3.08760038692E-01 +3.35596748329E-01 -4.73498332191E-04 +1.60116363102E-03 -4.07229163478E-04 +1.57640440816E-03 -2.32021155626E-01 +3.13280259902E-01
4.47000000000E+09 -2.98891991607E-01 +3.49655113203E-01 +3.21154285854E-05 +1.29394061538E-03 +8.99184489494E-05 +1.30758884659E-03 -2.23015368575E-01 +3.28450305793E-01
4.47500000000E+09 -2.86345755971E-01 +3.65906772696E-01 -1.44150816911E-04 +1.42040424854E-03 -1.36759437463E-04 +1.38497043394E-03 -2.14556540592E-01 +3.42770495436E-01
4.48000000000E+09 -2.72982728775E-01 +3.82218605029E-01 -6.63117424274E-05 +1.33989786779E-03 -8.31859536907E-06 +1.28974832224E-03 -2.05737092875E-01 +3.58112610529E-01
4.48500000000E+09 -2.61005861180E-01 +3.98658283337E-01 +3.49153758736E-05 +1.78668586752E-03 +3.11426710946E-05 +1.74099707121E-03 -1.95310875257E-01 +3.72218532859E-01
4.49000000000E+09 -2.51320142930E-01 +4.14395740553E-01 +8.21492683872E-04 +1.80349050514E-03 +8.34550651977E-04 +1.77109617049E-03 -1.85160183350E-01 +3.85200399128E-01
4.49500000000E+09 -2.44574490838E-01 +4.29424177761E-01 +1.19782534142E-03 +9.57889371851E-04 +1.16263406478E-03 +9.39226402488E-04 -1.74950555029E-01 +3.98179136429E-01
4.50000000000E+09 -2.39203201103E-01 +4.44097585964E-01 +5.63756016932E-04 +7.13059688508E-04 +5.06054327931E-04 +7.29301862332E-04 -1.64174834137E-01 +4.10656161701E-01
4.50500000000E+09 -2.33508087778E-01 +4.56203724361E-01 +4.26082539754E-04 +7.61723191424E-04 +3.93826030486E-04 +7.22386468809E-04 -1.53612448475E-01 +4.22605870607E-01
4.51000000000E+09 -2.27936127698E-01 +4.65856241037E-01 +2.02505954667E-04 +1.17321414225E-03 +1.80663721263E-04 +1.15297961297E-03 -1.42832982802E-01 +4.34187370290E-01
4.51500000000E+09 -2.20546313064E-01 +4.73857822852E-01 +6.32348360060E-04 +1.54867178316E-03 +6.60687525301E-04 +1.51390611796E-03 -1.32510002259E-01 +4.45321241801E-01
4.52000000000E+09 -2.11493565916E-01 +4.81074669866E-01 +1.24436250481E-03 +1.43737491360E-03 +1.27542012382E-03 +1.37743842096E-03 -1.21866600727E-01 +4.56464375367E-01
4.52500000000E+09 -1.99563650544E-01 +4.87862627515E-01 +1.54066322450E-03 +1.05602669220E-03 +1.51573828705E-03 +1.06056007304E-03 -1.10341164149E-01 +4.67325117133E-01
4.53000000000E+09 -1.86488952587E-01 +4.95077370873E-01 +1.73854412213E-03 +4.51877536615E-04 +1.75443709364E-03 +4.37291538164E-04 -9.84601391720E-02 +4.76654028235E-01
4.53500000000E+09 -1.71951787451E-01 +5.03923508689E-01 +1.13739651254E-03 +3.30406289894E-04 +1.09512597832E-03 +3.21074656963E-04 -8.62429811826E-02 +4.86298083404E-01
4.54000000000E+09 -1.57344790856E-01 +5.13656924053E-01 +1.31574364125E-03 +6.33880025047E-04 +1.28966046249E-03 +6.11352674748E-04 -7.34879490860E-02 +4.95348592936E-01
4.54500000000E+09 -1.43356564881E-01 +5.24580810872E-01 +1.73121728429E-03 +3.10456242739E-04 +1.69299626910E-03 +2.89096336462E-04 -6.17116586899E-02 +5.03574986158E-01
4.55000000000E+09 -1.30957633205E-01 +5.35465375854E-01 +1.56798256782E-03 -1.81591842998E-04 +1.51606461337E-03 -1.82799381153E-04 -4.92652553686E-02 +5.12611362959E-01
4.55500000000E+09 -1.20219965481E-01 +5.46017915473E-01 +1.25870500054E-03 -7.72729086044E-05 +1.26026518936E-03 -7.37645577852E-05 -3.76477234769E-02 +5.20869168737E-01
4.56000000000E+09 -1.10689361720E-01 +5.54522603955E-01 +1.41933005333E-03 -3.65665239200E-05 +1.41584475275E-03 -9.11212810018E-05 -2.47523586370E-02 +5.28866767821E-01
4.56500000000E+09 -1.02555891313E-01 +5.61083500343E-01 +1.72888416558E-03 -3.07674143863E-04 +1.67005865001E-03 -3.07655561549E-04 -1.26733066937E-02 +5.35453673604E-01
4.57000000000E+09 -9.47398779674E-02 +5.66273233416E-01 +1.58883789112E-03 -8.72667864435E-04 +1.49830754684E-03 -8.51899522249E-04 -8.48324121929E-04 +5.42354085523E-01
