# Hz S RI R 50
! CMT, C1220, 16058040, 17.2.0/1
! Date: 15/08/2018 12:12:28
! Data: Format (Calibration Info)
! Freq                      S11: Re/Im (F2)                       S21: Re/Im (F2)                       S12: Re/Im (F2)                       S22: Re/Im (F2)            
4.00000000000E+09 +6.54445153789E-01 -3.56417709077E-01 -6.35258829631E-05 -7.95021332335E-04 -4.31644226318E-05 -7.79692876560E-04 +7.66842768181E-01 -3.22866716705E-01
4.00500000000E+09 +6.46204472304E-01 -3.62696906325E-01 -1.26588365472E-04 -4.90629215442E-04 -1.35473748814E-04 -4.59611629554E-04 +7.57473817708E-01 -3.33479169359E-01
4.01000000000E+09 +6.37415144964E-01 -3.68466495562E-01 +1.57791861419E-05 -4.59117235906E-04 +6.76346728378E-05 -4.39030288771E-04 +7.47575060827E-01 -3.43982329187E-01
4.01500000000E+09 +6.27653806917E-01 -3.75526127633E-01 +1.00826309636E-04 -6.61871993121E-04 +1.61630071843E-04 -6.54141230369E-04 +7.37669280056E-01 -3.53607530665E-01
4.02000000000E+09 +6.16528599031E-01 -3.83903888056E-01 -1.12983960152E-04 -8.09894083886E-04 -1.58125462558E-05 -8.04720894444E-04 +7.27382396939E-01 -3.63565399270E-01
4.02500000000E+09 +6.04375507829E-01 -3.92986381201E-01 -3.18060571256E-04 -8.60978116669E-04 -3.08615042159E-04 -8.78816757859E-04 +7.16388759239E-01 -3.72946692173E-01
4.03000000000E+09 +5.92592293582E-01 -4.03002578512E-01 -4.80912219833E-04 -6.44284004338E-04 -4.64655732141E-04 -6.91847784439E-04 +7.05750687168E-01 -3.82198598470E-01
4.03500000000E+09 +5.81262918853E-01 -4.13823191788E-01 -4.91613101006E-04 -4.77189399040E-04 -4.72578183346E-04 -5.58393958660E-04 +6.94617666112E-01 -3.91948894372E-01
4.04000000000E+09 +5.70189036246E-01 -4.24999107560E-01 -4.81468998995E-04 -3.47961439001E-04 -5.48454513772E-04 -3.83752794657E-04 +6.83509849296E-01 -4.01902313579E-01
4.04500000000E+09 +5.59374320186E-01 -4.35379795530E-01 -3.76696120667E-04 -3.13627122634E-04 -3.52769222395E-04 -3.56738807987E-04 +6.71436508325E-01 -4.11774718169E-01
4.05000000000E+09 +5.48392453385E-01 -4.44464062693E-01 -2.75761316865E-04 -4.25016279835E-04 -2.66849786691E-04 -4.13892650310E-04 +6.59105464670E-01 -4.20504169866E-01
4.05500000000E+09 +5.36789109599E-01 -4.51266877731E-01 -4.09567510240E-04 -6.63614064928E-04 -3.96497874368E-04 -7.02888461115E-04 +6.46977465900E-01 -4.28726871314E-01
4.06000000000E+09 +5.25120962510E-01 -4.56280299332E-01 -5.79124360581E-04 -6.11745077731E-04 -5.91568120575E-04 -6.48019584313E-04 +6.34432541127E-01 -4.36840950742E-01
4.06500000000E+09 +5.12467745497E-01 -4.59989202801E-01 -7.66845527471E-04 -4.43744228991E-04 -7.87477706414E-04 -5.13899246309E-04 +6.21073195503E-01 -4.44864696014E-01
4.07000000000E+09 +4.99055692959E-01 -4.63360528986E-01 -8.54648525142E-04 -2.54759667603E-04 -8.57853292993E-04 -2.94559729561E-04 +6.07378486871E-01 -4.52952940767E-01
4.07500000000E+09 +4.84280953683E-01 -4.67731864384E-01 -7.57272522728E-04 -1.55982028797E-04 -8.14413033493E-04 -2.20876656731E-04 +5.93342144365E-01 -4.61114041562E-01
4.08000000000E+09 +4.67621076239E-01 -4.72702579378E-01 -8.11502152554E-04 -1.10821417894E-04 -8.87355298275E-04 -1.15015665297E-04 +5.79688875263E-01 -4.68551710780E-01
4.08500000000E+09 +4.50168423952E-01 -4.77727923535E-01 -8.16455023874E-04 +6.50349743202E-05 -8.44272396102E-04 +8.19687666418E-05 +5.65792199256E-01 -4.76346250804E-01
4.09000000000E+09 +4.33426928841E-01 -4.84030987849E-01 -5.22951752210E-04 +8.35403801524E-05 -5.34597097366E-04 +5.06821926550E-05 +5.51270916502E-01 -4.83037516919E-01
4.09500000000E+09 +4.16285793760E-01 -4.91126527208E-01 -6.65560673757E-04 -1.37928014025E-04 -7.06054917729E-04 -1.41102167958E-04 +5.36996773088E-01 -4.89302402005E-01
4.10000000000E+09 +3.98465146219E-01 -4.97896018271E-01 -8.39286768521E-04 -1.32314041714E-04 -8.71642100832E-04 -1.29694673172E-04 +5.21060068553E-01 -4.95504751577E-01
4.10500000000E+09 +3.81184418974E-01 -5.02063928499E-01 -1.10573661602E-03 +1.38159618723E-04 -1.09671814423E-03 +1.29460596517E-04 +5.05041441417E-01 -5.00940748306E-01
4.11000000000E+09 +3.64654483267E-01 -5.04596424260E-01 -1.12981882694E-03 +5.21428687908E-04 -1.20262737292E-03 +5.49706955963E-04 +4.88658138761E-01 -5.06844494652E-01
4.11500000000E+09 +3.49355210484E-01 -5.05140903075E-01 -5.77518739372E-04 +8.11720280942E-04 -6.42920988307E-04 +7.88973148566E-04 +4.71800090223E-01 -5.11894986586E-01
4.12000000000E+09 +3.34129584814E-01 -5.05516754893E-01 -4.98409833951E-04 +3.66091546620E-04 -4.97003377688E-04 +3.22661451725E-04 +4.56105887919E-01 -5.16887886810E-01
4.12500000000E+09 +3.17898033511E-01 -5.05905138822E-01 -7.05711990965E-04 +3.80464627003E-04 -7.13848765537E-04 +3.80237485131E-04 +4.38839346837E-01 -5.21882563483E-01
4.13000000000E+09 +2.99849473778E-01 -5.06822799192E-01 -8.47911726207E-04 +5.54335844888E-04 -8.87573401753E-04 +5.40164536548E-04 +4.21759271618E-01 -5.25134757972E-01
4.13500000000E+09 +2.79565033531E-01 -5.08049121179E-01 -8.20842140706E-04 +6.88053404274E-04 -8.49719734116E-04 +6.74150449217E-04 +4.04541358767E-01 -5.28628045124E-01
4.14000000000E+09 +2.58616457478E-01 -5.09014913354E-01 -7.22625492601E-04 +1.15069389859E-03 -7.77897235136E-04 +1.13827853013E-03 +3.86165750931E-01 -5.31591346130E-01
4.14500000000E+09 +2.38316459678E-01 -5.10915797062E-01 -9.87607732042E-05 +1.20361057295E-03 -1.23704496710E-04 +1.19298823237E-03 +3.68117413545E-01 -5.34266759500E-01
4.15000000000E+09 +2.18144120152E-01 -5.14408195029E-01 -9.46849796553E-05 +7.74956555449E-04 -8.75758298247E-05 +8.26750712554E-04 +3.49849473678E-01 -5.36746764243E-01
4.15500000000E+09 +1.97976223944E-01 -5.18157123031E-01 -3.52509411404E-04 +9.67969635693E-04 -4.08349420303E-04 +9.61214096326E-04 +3.31544765457E-01 -5.38041346874E-01
4.16000000000E+09 +1.78390823101E-01 -5.20240342533E-01 -1.98384571679E-05 +1.13636794230E-03 +2.66179399861E-05 +1.19928855841E-03 +3.13966092426E-01 -5.38844586617E-01
4.16500000000E+09 +1.60351227266E-01 -5.20680147512E-01 +1.73817883225E-04 +9.36277839665E-04 +1.81394477062E-04 +9.71483008436E-04 +2.95633059929E-01 -5.39183778071E-01
4.17000000000E+09 +1.43580339073E-01 -5.18810677042E-01 +3.61215585344E-04 +1.09536726932E-03 +3.05877443052E-04 +1.16200982708E-03 +2.76745860766E-01 -5.38205615764E-01
4.17500000000E+09 +1.27927218358E-01 -5.15351840777E-01 +5.32325928904E-04 +4.63731467009E-04 +5.13163656542E-04 +4.63362742784E-04 +2.58270538378E-01 -5.36909150921E-01
4.18000000000E+09 +1.12569287254E-01 -5.10165474946E-01 -7.22724722784E-05 +5.18674860995E-04 -3.44213835463E-05 +5.55368910403E-04 +2.38951425274E-01 -5.35639923540E-01
4.18500000000E+09 +9.64651737413E-02 -5.04891195542E-01 +2.60017667322E-05 +9.19846982231E-04 -1.11880916416E-05 +9.18918610385E-04 +2.19861952486E-01 -5.33632575315E-01
4.19000000000E+09 +7.89378600913E-02 -4.98808186321E-01 +3.44191529510E-04 +8.73507897334E-04 +3.56099026001E-04 +9.32494180815E-04 +2.00458709497E-01 -5.31510042604E-01
4.19500000000E+09 +6.06778264174E-02 -4.92698691828E-01 +3.69316023461E-04 +9.29945351250E-04 +3.79951546349E-04 +9.81871242556E-04 +1.81080760969E-01 -5.28029974494E-01
4.20000000000E+09 +4.14428162298E-02 -4.86989921547E-01 +7.08380434929E-04 +8.58306808888E-04 +7.05055960493E-04 +9.50394555782E-04 +1.61777542031E-01 -5.24309791173E-01
4.20500000000E+09 +2.22577450935E-02 -4.81446691033E-01 +7.69037447397E-04 +5.11364791546E-04 +8.08547690870E-04 +5.87844242956E-04 +1.42101155160E-01 -5.19136379003E-01
4.21000000000E+09 +3.69065989069E-03 -4.76449096976E-01 +3.19011354768E-04 +3.65242152315E-04 +3.37101454168E-04 +4.24889405383E-04 +1.22710116427E-01 -5.13623810876E-01
4.21500000000E+09 -1.51565920479E-02 -4.70772272818E-01 +2.65276539309E-04 +8.96165889594E-04 +3.31071931089E-04 +8.96310166927E-04 +1.03528013692E-01 -5.07777289007E-01
4.22000000000E+09 -3.20447124127E-02 -4.62919194991E-01 +7.48689602346E-04 +9.99812459980E-04 +8.06102418579E-04 +1.04008520465E-03 +8.48135015193E-02 -5.01138188981E-01
4.22500000000E+09 -4.68910446052E-02 -4.53871176575E-01 +9.22268305895E-04 +7.37121252354E-04 +9.49952242253E-04 +7.72617312169E-04 +6.65602093657E-02 -4.94669504032E-01
4.23000000000E+09 -6.10055994229E-02 -4.43884495880E-01 +1.12908273405E-03 +5.54568338319E-04 +1.13479553342E-03 +5.98192697484E-04 +4.76505315987E-02 -4.87469259211E-01
4.23500000000E+09 -7.52388938180E-02 -4.32286074056E-01 +8.83874856743E-04 +5.75838473087E-04 +9.41740860830E-04 +5.91380762836E-04 +2.91761818143E-02 -4.78401242470E-01
4.24000000000E+09 -8.96556955477E-02 -4.19712301342E-01 +1.27974988635E-03 +6.30185297889E-04 +1.36814264669E-03 +6.18486176499E-04 +1.10601200225E-02 -4.69422620701E-01
4.24500000000E+09 -1.06612979980E-01 -4.07406756378E-01 +1.67900686943E-03 +4.03956661222E-04 +1.71479350128E-03 +3.40980539050E-04 -7.32802035368E-03 -4.58992524234E-01
4.25000000000E+09 -1.25784120924E-01 -3.93169830015E-01 +1.70779985024E-03 -1.09606690442E-04 +1.70515147075E-03 -9.17268994741E-05 -2.44559344310E-02 -4.48230720999E-01
4.25500000000E+09 -1.44492171726E-01 -3.78362787635E-01 +1.46897984731E-03 -3.95139423981E-04 +1.44401930665E-03 -4.17849502046E-04 -4.20822941681E-02 -4.37690472994E-01
4.26000000000E+09 -1.63041970547E-01 -3.65621107417E-01 +1.29228682522E-03 -4.76960117152E-04 +1.34812711180E-03 -5.00644841081E-04 -5.97754199887E-02 -4.25092383777E-01
4.26500000000E+09 -1.81865580028E-01 -3.53235075063E-01 +1.26519098444E-03 -5.47690469356E-04 +1.28197453212E-03 -5.47440798137E-04 -7.55336093752E-02 -4.11949099056E-01
4.27000000000E+09 -1.98940270456E-01 -3.41364570463E-01 +1.29678787603E-03 -7.48347634848E-04 +1.30716147819E-03 -7.77352419721E-04 -9.21866660441E-02 -3.99136978158E-01
4.27500000000E+09 -2.14139536167E-01 -3.29550894260E-01 +1.18868472878E-03 -6.88452614368E-04 +1.21086370112E-03 -7.13540238416E-04 -1.08382760203E-01 -3.84507007023E-01
4.28000000000E+09 -2.27451391602E-01 -3.17060214493E-01 +1.24539243034E-03 -1.30220456018E-03 +1.19582259848E-03 -1.30170478577E-03 -1.23881589736E-01 -3.70559977044E-01
4.28500000000E+09 -2.39277217485E-01 -3.03130618273E-01 +6.79163541947E-04 -1.14424931436E-03 +6.76156200957E-04 -1.10309983009E-03 -1.39818157479E-01 -3.56077810215E-01
4.29000000000E+09 -2.49284871018E-01 -2.86712718654E-01 +8.47389950670E-04 -1.05772693843E-03 +8.91278147608E-04 -1.08346812859E-03 -1.55248904635E-01 -3.40780569767E-01
4.29500000000E+09 -2.58463554047E-01 -2.69041155194E-01 +5.93436211658E-04 -1.47654728137E-03 +6.74971962051E-04 -1.51573985070E-03 -1.69548540014E-01 -3.24487770547E-01
4.30000000000E+09 -2.67949093385E-01 -2.50201325411E-01 +3.27696985791E-04 -1.20729348920E-03 +3.70176796897E-04 -1.21872992334E-03 -1.82228166170E-01 -3.07687734623E-01
4.30500000000E+09 -2.78578809504E-01 -2.30412649061E-01 +4.56309575687E-04 -1.33282654999E-03 +4.55556350768E-04 -1.40874916364E-03 -1.94421675146E-01 -2.90823554440E-01
4.31000000000E+09 -2.90408359659E-01 -2.10451981082E-01 +2.61615995743E-04 -1.73178940254E-03 +2.04524192520E-04 -1.72780552494E-03 -2.06016970785E-01 -2.73365444568E-01
4.31500000000E+09 -3.03039516927E-01 -1.91260192201E-01 -2.35310782111E-04 -1.42051964685E-03 -2.58855307683E-04 -1.44651353127E-03 -2.16982293230E-01 -2.55737150080E-01
4.32000000000E+09 -3.16487362351E-01 -1.72563420095E-01 -3.53090041462E-04 -1.39295586065E-03 -3.66684679160E-04 -1.36895693364E-03 -2.28013450292E-01 -2.37390101458E-01
4.32500000000E+09 -3.28207912146E-01 -1.54477518631E-01 -3.49879573324E-04 -1.16123504686E-03 -4.34641010982E-04 -1.18511087880E-03 -2.37400191244E-01 -2.18615437075E-01
4.33000000000E+09 -3.37563678882E-01 -1.37477264363E-01 -5.12749525949E-04 -1.17755701544E-03 -4.62979911726E-04 -1.17084873260E-03 -2.47064617093E-01 -2.00310488454E-01
4.33500000000E+09 -3.44002767217E-01 -1.21547784532E-01 -5.21528656136E-04 -9.93970361018E-04 -4.83617397185E-04 -1.00792448250E-03 -2.56085476580E-01 -1.80129156565E-01
4.34000000000E+09 -3.48532779836E-01 -1.06349785177E-01 -4.80830443001E-04 -1.10494341433E-03 -4.84556139014E-04 -1.11695247864E-03 -2.63561496775E-01 -1.59768552619E-01
4.34500000000E+09 -3.50689345707E-01 -9.03737336926E-02 -6.10496460803E-04 -1.03189903284E-03 -6.29478100293E-04 -1.03943357596E-03 -2.70982402188E-01 -1.39691175061E-01
4.35000000000E+09 -3.52530884863E-01 -7.31836373902E-02 -8.01600851606E-04 -1.07248661810E-03 -8.03100713249E-04 -1.03226256652E-03 -2.77562464415E-01 -1.19128349577E-01
4.35500000000E+09 -3.54943864410E-01 -5.33943395809E-02 -8.67396340522E-04 -8.30681792906E-04 -8.76856076235E-04 -8.10054806737E-04 -2.83238702472E-01 -9.92487062995E-02
4.36000000000E+09 -3.56568122948E-01 -3.04356227580E-02 -1.01950206653E-03 -1.22894578834E-03 -1.04623838449E-03 -1.20389825170E-03 -2.88694965374E-01 -7.96701010454E-02
4.36500000000E+09 -3.58337766732E-01 -7.22095153255E-03 -1.37858068084E-03 -5.41567147484E-04 -1.37643952956E-03 -5.25316957782E-04 -2.92628279049E-01 -5.93710096694E-02
4.37000000000E+09 -3.60547675334E-01 +1.57362160059E-02 -1.11763517218E-03 -4.55200830995E-04 -1.20543966887E-03 -4.85111901378E-04 -2.95380178734E-01 -4.02023786660E-02
4.37500000000E+09 -3.64338955222E-01 +3.60757346555E-02 -1.03304274620E-03 -2.41831742563E-04 -1.04174035567E-03 -1.96202756547E-04 -2.98677341738E-01 -1.96915524701E-02
4.38000000000E+09 -3.69476260570E-01 +5.55787349970E-02 -9.32133262739E-04 -3.62492570953E-04 -9.87464377178E-04 -2.80052580001E-04 -2.99976239904E-01 +1.50419426371E-03
4.38500000000E+09 -3.74113045423E-01 +7.33163261652E-02 -1.03301094861E-03 -5.25353499146E-04 -1.03329516351E-03 -4.87124096183E-04 -3.00849733244E-01 +2.19751609282E-02
4.39000000000E+09 -3.77669669461E-01 +8.96038124938E-02 -1.31305475868E-03 -4.21265693688E-04 -1.31378536919E-03 -4.47053907336E-04 -3.01014345413E-01 +4.30666841674E-02
4.39500000000E+09 -3.77924018241E-01 +1.04560649659E-01 -1.37437149282E-03 -8.40763316403E-05 -1.48022337066E-03 -5.78496413504E-05 -3.01058569021E-01 +6.21193079026E-02
4.40000000000E+09 -3.75637927961E-01 +1.18644179393E-01 -1.54611338579E-03 -1.58225808703E-04 -1.48161861607E-03 -8.91863067537E-05 -3.00519055211E-01 +8.21271697933E-02
4.40500000000E+09 -3.71821229589E-01 +1.32265069803E-01 -1.72311693028E-03 +3.38861826185E-04 -1.70312106503E-03 +3.71596726554E-04 -2.98504422727E-01 +1.01729918850E-01
4.41000000000E+09 -3.67588479968E-01 +1.48481608413E-01 -1.29845038010E-03 +7.78653933401E-04 -1.27378634408E-03 +7.83102511661E-04 -2.96018642411E-01 +1.20733236380E-01
4.41500000000E+09 -3.61195962348E-01 +1.67480344730E-01 -1.08438988587E-03 +6.20613286858E-04 -1.00712857684E-03 +6.39505558409E-04 -2.92204094626E-01 +1.40331191131E-01
4.42000000000E+09 -3.54404600160E-01 +1.87762350804E-01 -9.56349736306E-04 +7.65713322719E-04 -9.29833731937E-04 +7.37097555470E-04 -2.87470284446E-01 +1.59596892993E-01
4.42500000000E+09 -3.47750408652E-01 +2.08345993707E-01 -8.78601231163E-04 +3.43528212815E-04 -8.38371175162E-04 +3.84690965363E-04 -2.82975303923E-01 +1.77698897396E-01
4.43000000000E+09 -3.43423762504E-01 +2.28557483327E-01 -1.59466355656E-03 +5.04884780252E-04 -1.55413583013E-03 +5.18039616937E-04 -2.78798166727E-01 +1.95840878844E-01
4.43500000000E+09 -3.41147114717E-01 +2.48299904591E-01 -1.40864693302E-03 +1.40556223862E-03 -1.38733021574E-03 +1.42850698175E-03 -2.74859262032E-01 +2.13792358349E-01
4.44000000000E+09 -3.38809379801E-01 +2.67925741069E-01 -8.17431138885E-04 +1.58740521727E-03 -7.75127258509E-04 +1.55066739911E-03 -2.69767275984E-01 +2.32871599146E-01
4.44500000000E+09 -3.35214648701E-01 +2.84190520431E-01 -2.24024572530E-04 +1.74785396342E-03 -2.42872429505E-04 +1.69764462437E-03 -2.62354284872E-01 +2.50378709185E-01
4.45000000000E+09 -3.31085827176E-01 +2.97770614468E-01 +2.26970350743E-04 +1.07363745112E-03 +2.37027919319E-04 +1.05661048038E-03 -2.55051674041E-01 +2.66536117946E-01
4.45500000000E+09 -3.25753422015E-01 +3.09600618892E-01 -2.31840725426E-04 +6.78352652709E-04 -2.14372631661E-04 +7.06039139858E-04 -2.46946065228E-01 +2.82922510419E-01
4.46000000000E+09 -3.18658864953E-01 +3.20512632088E-01 -4.93207012307E-04 +8.80945355131E-04 -4.94616047112E-04 +9.51943445058E-04 -2.38788767338E-01 +2.98367079070E-01
4.46500000000E+09 -3.10490254483E-01 +3.32039897919E-01 -3.12350705308E-04 +1.24140341911E-03 -3.34602666304E-04 +1.24275081677E-03 -2.30189431264E-01 +3.13641536137E-01
4.47000000000E+09 -3.00536401643E-01 +3.46287519975E-01 -7.99288393965E-05 +1.14006706976E-03 -1.15321707542E-05 +1.14223360672E-03 -2.21062056623E-01 +3.28811938558E-01
4.47500000000E+09 -2.87901350742E-01 +3.62606495897E-01 +6.66195652904E-06 +1.22511433186E-03 -1.33782334026E-05 +1.19638384852E-03 -2.12679768016E-01 +3.42631189841E-01
4.48000000000E+09 -2.74632666630E-01 +3.78918991938E-01 -1.25354818812E-04 +1.09528695446E-03 -7.01080255845E-05 +1.04627700622E-03 -2.04050486451E-01 +3.57888777762E-01
4.48500000000E+09 -2.63025052056E-01 +3.95142457593E-01 -4.78043908738E-05 +1.67395203392E-03 -3.36348396293E-05 +1.63674274289E-03 -1.93751892758E-01 +3.71983899546E-01
4.49000000000E+09 -2.53842279653E-01 +4.11192361432E-01 +7.90556599154E-04 +1.71581933656E-03 +7.68808036955E-04 +1.70266563406E-03 -1.83592079938E-01 +3.84821334962E-01
4.49500000000E+09 -2.47089629399E-01 +4.26641199342E-01 +1.21335426833E-03 +9.08687337335E-04 +1.10392924097E-03 +8.62953365715E-04 -1.73589169475E-01 +3.97672256153E-01
4.50000000000E+09 -2.41598630770E-01 +4.41380640343E-01 +5.27323364950E-04 +7.10780382026E-04 +5.17137864394E-04 +7.10512166575E-04 -1.62897596984E-01 +4.10076336773E-01
4.50500000000E+09 -2.36256372809E-01 +4.53449851827E-01 +5.21178054680E-04 +7.54525180819E-04 +5.00572547846E-04 +7.16588868820E-04 -1.52603652374E-01 +4.21995590723E-01
4.51000000000E+09 -2.30741325237E-01 +4.63345121225E-01 +3.79726807963E-04 +1.12958240384E-03 +3.95635459365E-04 +1.11650530146E-03 -1.41733134100E-01 +4.33764806639E-01
4.51500000000E+09 -2.23614661693E-01 +4.71293482458E-01 +7.66991417339E-04 +1.33798420587E-03 +8.01718222215E-04 +1.32277094999E-03 -1.31344185826E-01 +4.44724731411E-01
4.52000000000E+09 -2.14923064535E-01 +4.78869038629E-01 +1.29952424853E-03 +1.16555747385E-03 +1.29872828745E-03 +1.14195688452E-03 -1.20918396305E-01 +4.55705947247E-01
4.52500000000E+09 -2.03153599372E-01 +4.86079191138E-01 +1.55123894384E-03 +8.15219560169E-04 +1.48211630436E-03 +7.85630904130E-04 -1.09485271263E-01 +4.66710419384E-01
4.53000000000E+09 -1.89790843900E-01 +4.93457672586E-01 +1.64435377567E-03 +1.43783311143E-04 +1.63204433979E-03 +1.70585757275E-04 -9.76187572090E-02 +4.76047104626E-01
4.53500000000E+09 -1.75430126689E-01 +5.02404865923E-01 +9.55408167422E-04 +2.05637397494E-04 +9.38582075725E-04 +1.93991860568E-04 -8.53278162630E-02 +4.85649419986E-01
4.54000000000E+09 -1.60960675460E-01 +5.12218965841E-01 +1.32110263994E-03 +5.20468489454E-04 +1.26387753421E-03 +4.86176337466E-04 -7.27491540889E-02 +4.94444511963E-01
4.54500000000E+09 -1.47228339596E-01 +5.23462779815E-01 +1.66800269732E-03 -2.15595552483E-07 +1.62230534262E-03 -5.48886160760E-05 -6.11622868229E-02 +5.02593265440E-01
4.55000000000E+09 -1.34701156278E-01 +5.34728890533E-01 +1.28682369277E-03 -3.74650631777E-04 +1.25913349846E-03 -4.07698579739E-04 -4.89907408803E-02 +5.11549032596E-01
4.55500000000E+09 -1.24041912418E-01 +5.45397143074E-01 +1.00361553797E-03 -1.29102879885E-04 +9.93637422132E-04 -1.38759270818E-04 -3.74210648057E-02 +5.20102658337E-01
4.56000000000E+09 -1.14373158466E-01 +5.54187199322E-01 +1.14871635092E-03 -7.54430637188E-05 +1.13931970333E-03 -8.74857594173E-05 -2.47986955552E-02 +5.28012793489E-01
4.56500000000E+09 -1.06321020037E-01 +5.60787486509E-01 +1.54795900497E-03 -2.38343884121E-04 +1.52599040434E-03 -2.50315189183E-04 -1.28329867707E-02 +5.34834670796E-01
4.57000000000E+09 -9.85337300919E-02 +5.66122145639E-01 +1.43435812645E-03 -8.84286587619E-04 +1.37935213103E-03 -8.61259176354E-04 -8.95682674792E-04 +5.41910062158E-01
