# Hz S RI R 50
! CMT, C1220, 16058040, 17.2.0/1
! Date: 15/08/2018 12:14:40
! Data: Format (Calibration Info)
! Freq                      S11: Re/Im (F2)                       S21: Re/Im (F2)                       S12: Re/Im (F2)                       S22: Re/Im (F2)            
4.00000000000E+09 +6.53162922390E-01 -3.57635039407E-01 -1.86313301857E-04 -5.26211530281E-04 -2.40024693636E-04 -5.16009542408E-04 +7.67494275449E-01 -3.21326871422E-01
4.00500000000E+09 +6.45040151790E-01 -3.63833885775E-01 -1.90993507639E-04 -2.92363892820E-04 -2.88269553654E-04 -2.78558427927E-04 +7.58200191135E-01 -3.31846337530E-01
4.01000000000E+09 +6.36124796932E-01 -3.69567494140E-01 -3.51239411787E-05 -3.04624551943E-04 -5.56806969533E-05 -2.61605301396E-04 +7.48654628991E-01 -3.42235479391E-01
4.01500000000E+09 +6.26466905623E-01 -3.76215366027E-01 -8.62834994849E-05 -5.14283808866E-04 -9.97013301390E-05 -4.79896892592E-04 +7.39079723461E-01 -3.52218845492E-01
4.02000000000E+09 +6.15696386939E-01 -3.84427651182E-01 -2.53010805436E-04 -4.99342527030E-04 -2.62597141821E-04 -4.86229104061E-04 +7.28526739685E-01 -3.62380187947E-01
4.02500000000E+09 +6.03922730588E-01 -3.93504175651E-01 -4.33429117044E-04 -5.15300055687E-04 -4.68797383779E-04 -4.79495953065E-04 +7.17661567115E-01 -3.71763621803E-01
4.03000000000E+09 +5.92472626152E-01 -4.03483018953E-01 -4.89651927210E-04 -2.80041354546E-04 -4.54063874303E-04 -2.34579031233E-04 +7.06960213973E-01 -3.81208085279E-01
4.03500000000E+09 +5.81277269974E-01 -4.14841831098E-01 -3.57190839825E-04 -2.70536951645E-04 -3.01039576176E-04 -2.66751272786E-04 +6.95752931879E-01 -3.91051205125E-01
4.04000000000E+09 +5.69895670817E-01 -4.26117636513E-01 -4.08460065895E-04 -2.22762364358E-04 -3.78727575374E-04 -1.43457402546E-04 +6.84647774423E-01 -4.01006641585E-01
4.04500000000E+09 +5.58892417537E-01 -4.36542325646E-01 -3.18880864991E-04 -2.66386553230E-04 -2.36474982665E-04 -2.75273727119E-04 +6.72673363095E-01 -4.10982863906E-01
4.05000000000E+09 +5.47703554058E-01 -4.45278899788E-01 -3.88989030418E-04 -3.35996890433E-04 -2.68997836252E-04 -3.85719360068E-04 +6.60619265942E-01 -4.19817121561E-01
4.05500000000E+09 +5.36564209957E-01 -4.51915678167E-01 -5.64586311714E-04 -4.01742380071E-04 -5.44397527289E-04 -4.63568859807E-04 +6.48180065274E-01 -4.28540667592E-01
4.06000000000E+09 +5.25198315075E-01 -4.57049165658E-01 -6.27675837121E-04 -2.87068626630E-04 -5.52316745435E-04 -3.79292645535E-04 +6.35190460726E-01 -4.36780795857E-01
4.06500000000E+09 +5.12577727554E-01 -4.61056041681E-01 -8.69530051265E-04 -1.94456330571E-04 -8.61769566825E-04 -2.80145038131E-04 +6.21653070649E-01 -4.44759766282E-01
4.07000000000E+09 +4.99329322076E-01 -4.64767992554E-01 -7.93706914087E-04 +1.97690897190E-04 -7.90525354357E-04 +1.04850685002E-04 +6.07841846188E-01 -4.52597458334E-01
4.07500000000E+09 +4.84566248908E-01 -4.69402543325E-01 -5.86279080607E-04 +1.89976703246E-04 -6.02434606606E-04 +7.58815579695E-05 +5.93926964412E-01 -4.60621529490E-01
4.08000000000E+09 +4.67909510681E-01 -4.74427898827E-01 -6.66526752763E-04 +1.74510880345E-04 -7.46652631026E-04 +8.70959145808E-05 +5.80176788889E-01 -4.68318327879E-01
4.08500000000E+09 +4.50718186568E-01 -4.79713809825E-01 -6.73088971240E-04 +3.99419607723E-04 -7.78064121817E-04 +3.34385407943E-04 +5.66025523157E-01 -4.75971622777E-01
4.09000000000E+09 +4.33905527643E-01 -4.86091655751E-01 -4.15485656736E-04 +3.29147137300E-04 -4.58739935183E-04 +2.81467989596E-04 +5.51605019396E-01 -4.82416911824E-01
4.09500000000E+09 +4.17053138729E-01 -4.92998306145E-01 -6.24407965422E-04 +2.18998674558E-04 -7.46890872169E-04 +2.42540728035E-04 +5.37396409476E-01 -4.88777388308E-01
4.10000000000E+09 +3.99534193725E-01 -4.99835976024E-01 -6.08696206769E-04 +4.87161814156E-04 -6.65214617536E-04 +5.08539342920E-04 +5.21127456754E-01 -4.95039174564E-01
4.10500000000E+09 +3.82289154696E-01 -5.04327662642E-01 -5.52938331160E-04 +6.68121702513E-04 -6.24922806193E-04 +6.61533426994E-04 +5.05172903933E-01 -5.00174850490E-01
4.11000000000E+09 +3.65897594517E-01 -5.06909831722E-01 -4.20734482605E-04 +8.10798054092E-04 -5.16791818932E-04 +8.52884911618E-04 +4.88875640619E-01 -5.05904006675E-01
4.11500000000E+09 +3.50488511790E-01 -5.07882874069E-01 +2.27472078311E-04 +8.18593116537E-04 +1.84635006086E-04 +8.68237886055E-04 +4.72469953752E-01 -5.10949500422E-01
4.12000000000E+09 +3.34671489892E-01 -5.08194295298E-01 +1.22946963781E-04 +1.47851032739E-04 +8.59755324827E-05 +2.78354490720E-04 +4.56401703762E-01 -5.16246117589E-01
4.12500000000E+09 +3.18289992650E-01 -5.08302887694E-01 -1.95493898285E-04 +1.44636343292E-04 -2.28783825091E-04 +2.64489002259E-04 +4.39274293313E-01 -5.20948911021E-01
4.13000000000E+09 +3.00238973731E-01 -5.09308413693E-01 -5.06482050013E-04 +3.70926709920E-04 -4.47282037619E-04 +4.94897235293E-04 +4.22478437655E-01 -5.24393358640E-01
4.13500000000E+09 +2.79869447265E-01 -5.10720138778E-01 -3.81016092540E-04 +5.82859729796E-04 -3.31831773495E-04 +6.66971192184E-04 +4.04975718335E-01 -5.27826893405E-01
4.14000000000E+09 +2.59155025454E-01 -5.12066025076E-01 -9.43101958374E-05 +8.97764185247E-04 -2.43541655335E-05 +9.73698241678E-04 +3.86662764512E-01 -5.30915681164E-01
4.14500000000E+09 +2.38495771671E-01 -5.14807877647E-01 +3.74747524523E-04 +7.09458103220E-04 +4.34182695048E-04 +7.20262222380E-04 +3.68406077168E-01 -5.33671893854E-01
4.15000000000E+09 +2.17891042742E-01 -5.18421964383E-01 +3.00037990269E-04 +1.82863195944E-04 +3.60218623306E-04 +2.16851405339E-04 +3.50276189227E-01 -5.35876950010E-01
4.15500000000E+09 +1.97400279843E-01 -5.22079262669E-01 -2.04227939296E-04 +2.50615798912E-04 -1.17472081085E-04 +1.55248577285E-04 +3.32072617908E-01 -5.37475357467E-01
4.16000000000E+09 +1.78003145348E-01 -5.23983973737E-01 -2.22342831807E-04 +4.87261811041E-04 -1.37859161361E-04 +4.34429019691E-04 +3.14060655363E-01 -5.38107971960E-01
4.16500000000E+09 +1.60412444599E-01 -5.24346759580E-01 -1.18410016801E-04 +6.33747288495E-04 -8.43552813704E-05 +6.05693904491E-04 +2.95750097335E-01 -5.37912170566E-01
4.17000000000E+09 +1.43730966511E-01 -5.22616503833E-01 +1.26532833551E-04 +8.82438254256E-04 +1.20878536441E-04 +8.50369751133E-04 +2.77142917414E-01 -5.37227579694E-01
4.17500000000E+09 +1.28254303099E-01 -5.19051960913E-01 +3.17439865109E-04 +4.27074378052E-04 +3.01404044287E-04 +3.56532247118E-04 +2.58321750152E-01 -5.35782506439E-01
4.18000000000E+09 +1.12838332603E-01 -5.14257488785E-01 +1.84845161195E-04 +6.00446566343E-04 +6.69493920293E-05 +5.58231126313E-04 +2.39319154580E-01 -5.34247623761E-01
4.18500000000E+09 +9.63316858118E-02 -5.08898826891E-01 +1.15969333428E-04 +6.79321678526E-04 +8.26416949306E-05 +6.52985297147E-04 +2.20250127927E-01 -5.32162989172E-01
4.19000000000E+09 +7.88512826740E-02 -5.02996290647E-01 +4.11325128518E-04 +6.09065240504E-04 +3.84595515491E-04 +6.01909418980E-04 +2.01184362536E-01 -5.29606523302E-01
4.19500000000E+09 +5.97711682756E-02 -4.97031566582E-01 +2.86237319422E-04 +6.00649860703E-04 +2.19628621129E-04 +6.24627374638E-04 +1.82310350578E-01 -5.26347270308E-01
4.20000000000E+09 +4.00760377945E-02 -4.91114755024E-01 +4.49796564776E-04 +7.97456711696E-04 +3.38736372294E-04 +8.08705842908E-04 +1.62940193171E-01 -5.22947903558E-01
4.20500000000E+09 +2.06489681349E-02 -4.85652802918E-01 +8.08583193797E-04 +6.65246364683E-04 +7.35815723129E-04 +7.26457423762E-04 +1.43366277392E-01 -5.17638568487E-01
4.21000000000E+09 +1.91106771569E-03 -4.80422749337E-01 +6.20311320347E-04 +3.23436366464E-04 +5.80703301613E-04 +4.26014169244E-04 +1.24369025081E-01 -5.12347310682E-01
4.21500000000E+09 -1.63947143579E-02 -4.75104314446E-01 +7.00542756399E-04 +5.43798973434E-04 +6.25391895190E-04 +6.80792262416E-04 +1.05121611498E-01 -5.06772977025E-01
4.22000000000E+09 -3.37091184917E-02 -4.67893797839E-01 +1.05647639007E-03 +5.69513375722E-04 +1.03723569215E-03 +6.37344730484E-04 +8.65776033207E-02 -4.99860446722E-01
4.22500000000E+09 -4.89494274553E-02 -4.59046566442E-01 +1.01144413038E-03 +9.86131669307E-06 +9.95234029554E-04 +8.61098719027E-05 +6.86670459639E-02 -4.93908868487E-01
4.23000000000E+09 -6.38468111065E-02 -4.48778621349E-01 +9.57152378749E-04 -3.72160549034E-05 +9.87203983872E-04 +9.90381095819E-05 +4.95355835204E-02 -4.86867120412E-01
4.23500000000E+09 -7.80634769735E-02 -4.36252082918E-01 +5.73199472576E-04 -3.96247792432E-05 +6.52592759499E-04 +2.52552442725E-05 +3.07876958615E-02 -4.78439723018E-01
4.24000000000E+09 -9.24110375231E-02 -4.23285062646E-01 +8.76761107495E-04 +2.86066431305E-04 +9.53081371565E-04 +3.59620740201E-04 +1.23836895701E-02 -4.69051765378E-01
4.24500000000E+09 -1.09071790357E-01 -4.10592817556E-01 +1.37577213663E-03 +1.63517098082E-04 +1.47104394305E-03 +1.41067165142E-04 -6.05634889495E-03 -4.58761524573E-01
4.25000000000E+09 -1.28394615839E-01 -3.96497793114E-01 +1.45481002600E-03 -5.93994021055E-04 +1.53209290337E-03 -5.99812199005E-04 -2.33739540591E-02 -4.47571443587E-01
4.25500000000E+09 -1.47893600838E-01 -3.81866676125E-01 +9.46553508465E-04 -9.61720933253E-04 +1.02827742559E-03 -1.01764497094E-03 -4.05104550218E-02 -4.36701367099E-01
4.26000000000E+09 -1.67199158698E-01 -3.68484899952E-01 +5.65171885682E-04 -7.31814431834E-04 +6.01472105641E-04 -8.14190228260E-04 -5.78127501964E-02 -4.24548283495E-01
4.26500000000E+09 -1.86325585676E-01 -3.55477150247E-01 +5.21671370605E-04 -6.43795472128E-04 +6.10292720301E-04 -6.95688185669E-04 -7.35844015703E-02 -4.11613759443E-01
4.27000000000E+09 -2.03274164283E-01 -3.43269286800E-01 +5.68173496674E-04 -6.89944312020E-04 +5.86824731479E-04 -7.81196256068E-04 -9.03177331997E-02 -3.98924782481E-01
4.27500000000E+09 -2.18575541061E-01 -3.31589810900E-01 +4.32299745549E-04 -5.51517037946E-04 +3.89171390948E-04 -6.85338581697E-04 -1.06966063925E-01 -3.84278679126E-01
4.28000000000E+09 -2.31964028582E-01 -3.19160406353E-01 +5.36359677056E-04 -5.79824007620E-04 +4.68732879908E-04 -6.71870690386E-04 -1.21989145294E-01 -3.69959373231E-01
4.28500000000E+09 -2.43762567541E-01 -3.04960864614E-01 +4.48440394469E-04 -6.07078146156E-04 +3.75744176127E-04 -6.46616817497E-04 -1.37367870206E-01 -3.55867269000E-01
4.29000000000E+09 -2.53410901173E-01 -2.88881534463E-01 +6.82315310045E-04 -7.51825335519E-04 +5.98377106717E-04 -7.29791182133E-04 -1.52727692576E-01 -3.40933711001E-01
4.29500000000E+09 -2.62758016510E-01 -2.71352737235E-01 +5.53234178367E-04 -1.07334323460E-03 +4.55828815369E-04 -1.11716822598E-03 -1.66553889524E-01 -3.24997208887E-01
4.30000000000E+09 -2.72563217948E-01 -2.52338561274E-01 +3.03799174296E-04 -1.07234520708E-03 +2.15127107551E-04 -1.10790995076E-03 -1.79556497619E-01 -3.08988320797E-01
4.30500000000E+09 -2.83309886121E-01 -2.32409855762E-01 +3.40180433086E-06 -1.17192686057E-03 -3.67506060485E-05 -1.21095807825E-03 -1.92313087328E-01 -2.92156035025E-01
4.31000000000E+09 -2.95526772172E-01 -2.12022160872E-01 -3.90309628812E-06 -1.09087462344E-03 -7.18962601818E-05 -1.06387522994E-03 -2.03785505595E-01 -2.74849341109E-01
4.31500000000E+09 -3.08168760704E-01 -1.92032722497E-01 -3.40568693557E-04 -9.95544102784E-04 -3.58383224625E-04 -9.74332111827E-04 -2.15216298764E-01 -2.57488846935E-01
4.32000000000E+09 -3.21259414295E-01 -1.72602376634E-01 -3.33190113585E-04 -7.52465319277E-04 -3.09249412375E-04 -7.03259568930E-04 -2.26509350206E-01 -2.39182177124E-01
4.32500000000E+09 -3.32256298238E-01 -1.54514344569E-01 -7.99298723710E-06 -8.50476675764E-04 -1.54909749839E-05 -7.83048881527E-04 -2.36060578019E-01 -2.20500124221E-01
4.33000000000E+09 -3.41652826421E-01 -1.38091023589E-01 -2.43083844399E-04 -1.21660707805E-03 -2.01532536393E-04 -1.13302218627E-03 -2.46035726026E-01 -2.02185164855E-01
4.33500000000E+09 -3.49044090715E-01 -1.22004193574E-01 -4.12088868245E-04 -9.65927377161E-04 -4.56564148339E-04 -9.34767175168E-04 -2.55128488922E-01 -1.81996671088E-01
4.34000000000E+09 -3.53247607074E-01 -1.05895825121E-01 -6.75328972433E-04 -1.16477718816E-03 -6.42291657176E-04 -1.11589535457E-03 -2.62862826916E-01 -1.61783208938E-01
4.34500000000E+09 -3.55289696167E-01 -8.95685019580E-02 -9.50317413441E-04 -8.38486322226E-04 -8.64413538251E-04 -8.04742023697E-04 -2.70370746421E-01 -1.41418462084E-01
4.35000000000E+09 -3.56707639421E-01 -7.20481819542E-02 -8.95304905070E-04 -5.83922727895E-04 -8.59311950415E-04 -5.71851846902E-04 -2.77053256400E-01 -1.21278234893E-01
4.35500000000E+09 -3.58320535987E-01 -5.17235340159E-02 -7.36169525385E-04 -4.21052165446E-04 -7.22443728712E-04 -4.96972812807E-04 -2.83375882986E-01 -1.00856527137E-01
4.36000000000E+09 -3.59573425035E-01 -2.93255445519E-02 -8.64349403150E-04 -9.11431372560E-04 -8.30829288004E-04 -9.42131050360E-04 -2.88263160635E-01 -8.11832060460E-02
4.36500000000E+09 -3.61240475551E-01 -6.10401123346E-03 -1.25585404915E-03 -4.68391950704E-04 -1.19607557677E-03 -5.27571285314E-04 -2.92332978867E-01 -6.11409687809E-02
4.37000000000E+09 -3.64011160561E-01 +1.70464746976E-02 -1.07812008857E-03 -4.04530149703E-04 -1.06992873765E-03 -4.66515679190E-04 -2.95091203519E-01 -4.18791653853E-02
4.37500000000E+09 -3.67398663847E-01 +3.84513398942E-02 -1.27328437491E-03 -1.26613813128E-04 -1.26209704466E-03 -1.41206403745E-04 -2.98438323092E-01 -2.17050935633E-02
4.38000000000E+09 -3.72349314691E-01 +5.79957173314E-02 -1.14185061719E-03 +4.59817953333E-05 -1.13247136034E-03 +4.55406678066E-05 -3.00122095597E-01 -6.21959508755E-04
4.38500000000E+09 -3.76652507333E-01 +7.58341302265E-02 -1.06376950962E-03 +8.50885506343E-05 -1.09080846382E-03 -1.27939674053E-05 -3.01101949651E-01 +1.99493787264E-02
4.39000000000E+09 -3.79962812410E-01 +9.20644936088E-02 -9.80416028690E-04 +7.24087971402E-05 -1.00688469045E-03 +7.99553056761E-05 -3.01743778113E-01 +4.08766749641E-02
4.39500000000E+09 -3.80386792197E-01 +1.06985439253E-01 -1.04593013784E-03 +2.34384930174E-04 -1.10596876929E-03 +1.64984632364E-04 -3.01783352621E-01 +6.04135300303E-02
4.40000000000E+09 -3.78191432911E-01 +1.21207697491E-01 -1.19251189863E-03 +7.22412724809E-05 -1.19299982163E-03 +1.30230109098E-04 -3.01311988127E-01 +8.02441917203E-02
4.40500000000E+09 -3.74512133155E-01 +1.35048924083E-01 -1.42428540483E-03 +4.88491817163E-04 -1.47678579730E-03 +4.50463768252E-04 -2.99806381347E-01 +9.97098190926E-02
4.41000000000E+09 -3.70102522720E-01 +1.51758123458E-01 -1.23388689136E-03 +9.71445688649E-04 -1.28639817563E-03 +1.00692375734E-03 -2.97749244341E-01 +1.19271764694E-01
4.41500000000E+09 -3.63318741117E-01 +1.70973021729E-01 -8.63529799279E-04 +9.83112124930E-04 -8.23134749174E-04 +9.80917243617E-04 -2.93756737686E-01 +1.39022690508E-01
4.42000000000E+09 -3.56159932375E-01 +1.91372887223E-01 -6.08608390451E-04 +1.05877873486E-03 -6.30048790889E-04 +1.11283325334E-03 -2.89715763416E-01 +1.58573827351E-01
4.42500000000E+09 -3.49456881268E-01 +2.12483960791E-01 -4.27615456252E-04 +7.27107117911E-04 -4.27819985288E-04 +8.01572638646E-04 -2.84721417727E-01 +1.77625653629E-01
4.43000000000E+09 -3.44515866780E-01 +2.32991840790E-01 -7.12224869940E-04 +7.68336626747E-04 -6.76211842418E-04 +8.22089183250E-04 -2.80160164966E-01 +1.95651366746E-01
4.43500000000E+09 -3.41447255973E-01 +2.52869838321E-01 -7.85602963841E-04 +1.09386149057E-03 -7.64448204168E-04 +1.17608325734E-03 -2.76250473359E-01 +2.13654753857E-01
4.44000000000E+09 -3.39468792148E-01 +2.71982181242E-01 -4.65764106163E-04 +1.22513137022E-03 -4.31428080895E-04 +1.26396432604E-03 -2.71006768150E-01 +2.32829786179E-01
4.44500000000E+09 -3.35871473603E-01 +2.88928076199E-01 +2.60650123097E-05 +1.50527134139E-03 +8.20120839978E-05 +1.54667230184E-03 -2.63669077618E-01 +2.50231871068E-01
4.45000000000E+09 -3.31476472990E-01 +3.02176425463E-01 +2.86350918422E-04 +1.02976475500E-03 +3.71686671271E-04 +1.05329611520E-03 -2.56337635939E-01 +2.66987639661E-01
4.45500000000E+09 -3.26250278634E-01 +3.14103863121E-01 +1.21942883391E-04 +8.59606355901E-04 +1.45764575503E-04 +8.50418321169E-04 -2.47762743699E-01 +2.83371436226E-01
4.46000000000E+09 -3.18798026408E-01 +3.25085349550E-01 +1.60522297550E-04 +7.36373760353E-04 +2.57586498161E-04 +7.72428994052E-04 -2.39080346058E-01 +2.98773440240E-01
4.46500000000E+09 -3.10064344684E-01 +3.36265496907E-01 +2.22432380525E-05 +8.14051668513E-04 +1.07248203723E-04 +7.73638948416E-04 -2.30473175176E-01 +3.13799822742E-01
4.47000000000E+09 -2.99781147245E-01 +3.50332690519E-01 +2.67260991480E-04 +6.25414238937E-04 +3.49033832874E-04 +5.98121599322E-04 -2.21642278238E-01 +3.28668590869E-01
4.47500000000E+09 -2.86925318209E-01 +3.66144779279E-01 -1.49779241101E-04 +8.25370720666E-04 -7.63977558275E-05 +7.23691297248E-04 -2.13000150900E-01 +3.43006740307E-01
4.48000000000E+09 -2.73610318148E-01 +3.82296610575E-01 -2.04957183397E-05 +1.05774263253E-03 -4.78474568844E-07 +1.02514071442E-03 -2.04269846749E-01 +3.57570861479E-01
4.48500000000E+09 -2.61676890228E-01 +3.98851055516E-01 +2.66672415523E-04 +1.36659490207E-03 +2.93493504082E-04 +1.24938757698E-03 -1.94395011973E-01 +3.71770667515E-01
4.49000000000E+09 -2.51937399470E-01 +4.14877667781E-01 +8.04784042561E-04 +1.19640623165E-03 +8.30310519241E-04 +1.14164505172E-03 -1.84193258803E-01 +3.84773396737E-01
4.49500000000E+09 -2.44746967926E-01 +4.30385436847E-01 +1.00109629402E-03 +7.11019326885E-04 +9.46726609621E-04 +6.33570026855E-04 -1.74119026087E-01 +3.97586881309E-01
4.50000000000E+09 -2.39150958412E-01 +4.45018131217E-01 +6.81354069375E-04 +6.42144161582E-04 +6.45916582526E-04 +6.20337674591E-04 -1.63540564596E-01 +4.10159514650E-01
4.50500000000E+09 -2.33513120180E-01 +4.57438889763E-01 +7.20600191578E-04 +4.81501903723E-04 +6.65400547124E-04 +4.42827466766E-04 -1.53018490148E-01 +4.22145508773E-01
4.51000000000E+09 -2.27792274752E-01 +4.67053356007E-01 +4.97225816571E-04 +7.31961617376E-04 +4.28550271268E-04 +7.21691685875E-04 -1.41986145966E-01 +4.33772724245E-01
4.51500000000E+09 -2.20701326881E-01 +4.75150910384E-01 +7.37105173204E-04 +9.68270710392E-04 +7.13405085866E-04 +9.44405538186E-04 -1.31666756893E-01 +4.44954129945E-01
4.52000000000E+09 -2.11759825235E-01 +4.82344530693E-01 +1.22461661925E-03 +9.37503311195E-04 +1.19028621967E-03 +9.43854065178E-04 -1.20956323434E-01 +4.55791699815E-01
4.52500000000E+09 -2.00052489162E-01 +4.89418977738E-01 +1.50715130250E-03 +6.39830079445E-04 +1.45393278840E-03 +6.13719464009E-04 -1.09687489051E-01 +4.66590302027E-01
4.53000000000E+09 -1.86561912785E-01 +4.96708573206E-01 +1.75101354735E-03 -2.94349882229E-05 +1.72812351959E-03 +2.64423446206E-06 -9.76295969193E-02 +4.75867327262E-01
4.53500000000E+09 -1.72044586089E-01 +5.05508540759E-01 +1.21193722601E-03 -2.30104111098E-04 +1.20548699272E-03 -1.70832102936E-04 -8.54655990464E-02 +4.85465491879E-01
4.54000000000E+09 -1.56870603199E-01 +5.15441400398E-01 +1.31338214071E-03 -2.71703560150E-04 +1.27921677127E-03 -2.16997525909E-04 -7.28812065183E-02 +4.94294950341E-01
4.54500000000E+09 -1.42253396543E-01 +5.26116647340E-01 +1.06919767596E-03 -3.89222078078E-04 +1.07079601228E-03 -4.09561447999E-04 -6.09909821699E-02 +5.02436958955E-01
4.55000000000E+09 -1.29415986532E-01 +5.36454321170E-01 +1.00236986225E-03 -5.82321331626E-04 +9.72969877732E-04 -5.55646033348E-04 -4.87410856543E-02 +5.10943829123E-01
4.55500000000E+09 -1.18811110773E-01 +5.46755644766E-01 +7.00788191958E-04 -4.13553430555E-04 +6.96496504033E-04 -3.85831827443E-04 -3.74128806969E-02 +5.19273960109E-01
4.56000000000E+09 -1.09334455376E-01 +5.55571015194E-01 +8.93376129667E-04 -1.95042833348E-04 +9.44918988483E-04 -1.82919533988E-04 -2.50210862977E-02 +5.27108827055E-01
4.56500000000E+09 -1.01056774801E-01 +5.62489110127E-01 +1.41041687906E-03 -4.86776205924E-04 +1.41679501662E-03 -4.90912723946E-04 -1.31528041581E-02 +5.33910784976E-01
4.57000000000E+09 -9.31171228829E-02 +5.67862610020E-01 +1.12507423138E-03 -1.30637279276E-03 +1.08788205389E-03 -1.28425027603E-03 -1.35180830676E-03 +5.41033338075E-01
