# Hz S RI R 50
! CMT, C1220, 16058040, 17.2.0/1
! Date: 15/08/2018 12:12:38
! Data: Format (Calibration Info)
! Freq                      S11: Re/Im (F2)                       S21: Re/Im (F2)                       S12: Re/Im (F2)                       S22: Re/Im (F2)            
4.00000000000E+09 +6.50235487658E-01 -3.57543171706E-01 -1.99194740316E-05 -7.94078955639E-04 -4.08095109252E-06 -7.48908162859E-04 +7.66390978054E-01 -3.22341861878E-01
4.00500000000E+09 +6.42063394755E-01 -3.63425360876E-01 -1.93865874097E-04 -5.74374080272E-04 -1.29801905954E-04 -5.36842516908E-04 +7.57245533867E-01 -3.32892573237E-01
4.01000000000E+09 +6.33417505788E-01 -3.69022612593E-01 -4.45091970802E-05 -4.66139612731E-04 -1.27845571557E-05 -4.99973758160E-04 +7.47352653800E-01 -3.43384547135E-01
4.01500000000E+09 +6.23627737505E-01 -3.75953441164E-01 +1.91933234981E-05 -7.02477091950E-04 +9.36441356936E-05 -6.90521643838E-04 +7.37619422894E-01 -3.53043525779E-01
4.02000000000E+09 +6.12388477223E-01 -3.84191672419E-01 -2.84800909904E-04 -8.53951369999E-04 -2.41660839072E-04 -9.06816985607E-04 +7.27246322040E-01 -3.63217000238E-01
4.02500000000E+09 +6.00160083453E-01 -3.93102968150E-01 -5.52508244265E-04 -7.29463989732E-04 -4.37286955552E-04 -7.57924765907E-04 +7.16284429763E-01 -3.72689108842E-01
4.03000000000E+09 +5.88130986863E-01 -4.02683468489E-01 -6.02519364275E-04 -4.73276299595E-04 -6.40332395275E-04 -4.92926739546E-04 +7.05617055950E-01 -3.81894579114E-01
4.03500000000E+09 +5.76969165771E-01 -4.13481728640E-01 -5.03409826830E-04 -4.30061563920E-04 -5.03434531881E-04 -4.40429315527E-04 +6.94357950035E-01 -3.91694194536E-01
4.04000000000E+09 +5.65910319637E-01 -4.24611002075E-01 -6.11860230275E-04 -2.92402233733E-04 -6.30383531020E-04 -3.21266208774E-04 +6.83198266076E-01 -4.01586999497E-01
4.04500000000E+09 +5.55129760309E-01 -4.34732057411E-01 -5.00662380070E-04 -2.35693514567E-04 -4.97706850110E-04 -3.01802634507E-04 +6.71037683774E-01 -4.11415016164E-01
4.05000000000E+09 +5.44170632219E-01 -4.43677355254E-01 -3.72083630964E-04 -1.84005001838E-04 -3.99321440526E-04 -2.32942900160E-04 +6.58682982690E-01 -4.19968050658E-01
4.05500000000E+09 +5.32546708830E-01 -4.50165756415E-01 -4.50374454799E-04 -4.28047026730E-04 -4.96835444555E-04 -5.09988744589E-04 +6.46555755912E-01 -4.28183645238E-01
4.06000000000E+09 +5.21149316437E-01 -4.54621819645E-01 -5.83655446213E-04 -3.63428184655E-04 -6.19583436431E-04 -4.17257233832E-04 +6.33931607062E-01 -4.36252068435E-01
4.06500000000E+09 +5.08687563332E-01 -4.58004251208E-01 -8.02114989101E-04 -2.57773293945E-04 -8.31934610490E-04 -2.98012115158E-04 +6.20574986491E-01 -4.44032913596E-01
4.07000000000E+09 +4.95637574592E-01 -4.61307470602E-01 -8.72896295376E-04 -4.87522308669E-05 -9.67597975106E-04 -2.66428290309E-05 +6.07062859442E-01 -4.51830501804E-01
4.07500000000E+09 +4.80975155126E-01 -4.65344422871E-01 -7.24624223386E-04 +1.41818431219E-04 -7.91380436710E-04 +1.06447391286E-04 +5.93182968250E-01 -4.59920793520E-01
4.08000000000E+09 +4.64266093863E-01 -4.70154084774E-01 -6.78006089271E-04 +1.54292289626E-04 -8.10318827754E-04 +9.45575162283E-05 +5.79788789217E-01 -4.67311984798E-01
4.08500000000E+09 +4.46893568881E-01 -4.74671695977E-01 -6.33619175852E-04 +2.76772137445E-04 -7.24692077085E-04 +2.79076511542E-04 +5.66027717857E-01 -4.75290928518E-01
4.09000000000E+09 +4.30323955105E-01 -4.80946104635E-01 -2.94990182200E-04 +2.52205699803E-04 -3.34473530393E-04 +3.02874075138E-04 +5.51632317353E-01 -4.81984455838E-01
4.09500000000E+09 +4.13219879346E-01 -4.87941091683E-01 -4.24188562077E-04 -1.44959797569E-04 -4.82460830391E-04 -8.53695141843E-05 +5.37468857934E-01 -4.88250542579E-01
4.10000000000E+09 +3.95532178244E-01 -4.94509902442E-01 -7.36112974990E-04 -4.44528306648E-05 -8.12443103974E-04 +1.14412779325E-05 +5.21647724532E-01 -4.94701457087E-01
4.10500000000E+09 +3.78294075721E-01 -4.98576423281E-01 -9.69387094999E-04 +2.41979303633E-04 -9.52329970409E-04 +2.58553481629E-04 +5.05758173140E-01 -5.00294807853E-01
4.11000000000E+09 +3.61921337761E-01 -5.00896437057E-01 -9.67671530622E-04 +6.03091726610E-04 -9.62958627581E-04 +6.75102813880E-04 +4.89309226920E-01 -5.06353215930E-01
4.11500000000E+09 +3.47079192603E-01 -5.00837617704E-01 -4.32063280684E-04 +9.53951194668E-04 -4.50607901102E-04 +9.07959559888E-04 +4.72221161043E-01 -5.11295417832E-01
4.12000000000E+09 +3.32232733791E-01 -5.01314489434E-01 -3.04633273660E-04 +4.45472176263E-04 -3.43876805306E-04 +4.00354439975E-04 +4.56621449902E-01 -5.16423907756E-01
4.12500000000E+09 +3.16353972482E-01 -5.01615508172E-01 -5.67714413192E-04 +4.36431090063E-04 -5.34514202764E-04 +3.86427206263E-04 +4.39348881834E-01 -5.21459251128E-01
4.13000000000E+09 +2.98602863460E-01 -5.02544434987E-01 -6.22904857725E-04 +5.64082783426E-04 -6.16797196041E-04 +4.52083510996E-04 +4.22146360748E-01 -5.24648681714E-01
4.13500000000E+09 +2.78411278939E-01 -5.03704863488E-01 -7.13604876208E-04 +6.12123933761E-04 -7.15109315852E-04 +5.23798910763E-04 +4.05000648246E-01 -5.28116280385E-01
4.14000000000E+09 +2.57676675024E-01 -5.04178283379E-01 -6.54117538553E-04 +1.10509214064E-03 -7.52534628929E-04 +1.05029990259E-03 +3.86594011825E-01 -5.31019475395E-01
4.14500000000E+09 +2.37853214375E-01 -5.05995772281E-01 -1.11890695135E-04 +1.15823650161E-03 -1.36323274303E-04 +1.17164823578E-03 +3.68662052113E-01 -5.33743794751E-01
4.15000000000E+09 +2.17990395312E-01 -5.09516113927E-01 -1.14676251078E-04 +8.34504868844E-04 -1.07008451817E-04 +8.23319264001E-04 +3.50561476034E-01 -5.36209274126E-01
4.15500000000E+09 +1.98093313099E-01 -5.13158842310E-01 -2.36580008362E-04 +1.14625194204E-03 -3.09561273164E-04 +1.14983320936E-03 +3.32429399454E-01 -5.37743039567E-01
4.16000000000E+09 +1.78761774391E-01 -5.15243182466E-01 +2.28878239833E-04 +1.15830700299E-03 +1.58974214595E-04 +1.14959968230E-03 +3.14921970624E-01 -5.38617583042E-01
4.16500000000E+09 +1.61002326413E-01 -5.15491308924E-01 +3.40601202070E-04 +8.37669776804E-04 +2.86046908994E-04 +8.58525768915E-04 +2.96535863365E-01 -5.39076877930E-01
4.17000000000E+09 +1.44868785090E-01 -5.13527488009E-01 +3.93569873938E-04 +1.02606114572E-03 +3.35315361646E-04 +1.07799007392E-03 +2.77702326122E-01 -5.38316253283E-01
4.17500000000E+09 +1.29777777955E-01 -5.10004562343E-01 +5.50010717290E-04 +5.27348546823E-04 +4.98362292897E-04 +5.49270825757E-04 +2.59051755598E-01 -5.37259500969E-01
4.18000000000E+09 +1.15013178117E-01 -5.05060711906E-01 +1.66038767001E-04 +7.18600523953E-04 +6.44694433015E-05 +7.57768413704E-04 +2.39674945142E-01 -5.36106600611E-01
4.18500000000E+09 +9.94064873026E-02 -4.99996013858E-01 +3.83906872350E-04 +9.79478441602E-04 +3.64366144924E-04 +1.08029110895E-03 +2.20508728477E-01 -5.34197789214E-01
4.19000000000E+09 +8.21110930319E-02 -4.93884002582E-01 +6.59115355643E-04 +8.40652064581E-04 +7.10087832155E-04 +9.67452478854E-04 +2.00946784384E-01 -5.32083909083E-01
4.19500000000E+09 +6.43546941772E-02 -4.87628108661E-01 +7.87007533592E-04 +8.97008209735E-04 +7.90209692173E-04 +9.13377559011E-04 +1.81593090068E-01 -5.28635857932E-01
4.20000000000E+09 +4.56212720860E-02 -4.82122035870E-01 +1.00563532594E-03 +6.47372582344E-04 +1.08135126435E-03 +7.26655114471E-04 +1.62171844253E-01 -5.25242413966E-01
4.20500000000E+09 +2.70018810976E-02 -4.76964200999E-01 +1.09173332911E-03 +2.63490509408E-04 +1.11728590143E-03 +3.41614417209E-04 +1.42172583851E-01 -5.20017625643E-01
4.21000000000E+09 +8.54445220550E-03 -4.72393817716E-01 +6.87969228072E-04 +8.28848244799E-05 +7.61762628528E-04 +5.97321123072E-05 +1.22573673157E-01 -5.14484586308E-01
4.21500000000E+09 -1.02592054709E-02 -4.66774847285E-01 +5.51321791326E-04 +4.50119052237E-04 +6.17403633859E-04 +4.77549926231E-04 +1.03257091220E-01 -5.08542018848E-01
4.22000000000E+09 -2.67993219158E-02 -4.58854405209E-01 +9.47533474496E-04 +5.87955601217E-04 +9.88705823688E-04 +5.59197156885E-04 +8.43015012441E-02 -5.01886406761E-01
4.22500000000E+09 -4.08961019572E-02 -4.50265375671E-01 +1.02492107802E-03 +3.16301941306E-04 +1.08795280801E-03 +2.87194091463E-04 +6.58226708254E-02 -4.95305761074E-01
4.23000000000E+09 -5.45212317877E-02 -4.40926583577E-01 +1.13197819291E-03 +1.32773725639E-04 +1.20200784523E-03 +8.81012026972E-05 +4.68856039362E-02 -4.87862895432E-01
4.23500000000E+09 -6.85312954187E-02 -4.30024571689E-01 +8.78064402927E-04 +1.01576488763E-04 +9.39997499424E-04 +3.49896625572E-05 +2.83493750924E-02 -4.78648027059E-01
4.24000000000E+09 -8.31030864141E-02 -4.18097607173E-01 +1.16454529531E-03 +1.67179176250E-04 +1.10568792516E-03 +7.80239472044E-05 +1.04289945695E-02 -4.69595020716E-01
4.24500000000E+09 -1.00071096228E-01 -4.05756052736E-01 +1.46540944280E-03 -4.24135010062E-05 +1.42540759203E-03 -8.72737809947E-05 -8.03084424405E-03 -4.59234542868E-01
4.25000000000E+09 -1.18542315553E-01 -3.91681950605E-01 +1.53015970117E-03 -4.50162084825E-04 +1.52423512296E-03 -5.48022193865E-04 -2.53641512641E-02 -4.48316558696E-01
4.25500000000E+09 -1.36807167686E-01 -3.77739515410E-01 +1.20091754902E-03 -8.13293694111E-04 +1.16138241743E-03 -8.34687381700E-04 -4.30167816073E-02 -4.37563092688E-01
4.26000000000E+09 -1.55488216000E-01 -3.65768483851E-01 +9.98789356371E-04 -8.17060308284E-04 +9.63528199174E-04 -8.66233621705E-04 -6.06253695347E-02 -4.24951015245E-01
4.26500000000E+09 -1.74514378462E-01 -3.53997513225E-01 +8.54967366015E-04 -7.45462475840E-04 +7.83491597865E-04 -8.04966566372E-04 -7.64103357897E-02 -4.11909923440E-01
4.27000000000E+09 -1.92106254496E-01 -3.42402820648E-01 +9.36687781252E-04 -8.37838275016E-04 +9.09053575640E-04 -8.69511735917E-04 -9.31220942547E-02 -3.98941550362E-01
4.27500000000E+09 -2.07385844715E-01 -3.30670522482E-01 +9.65651549495E-04 -9.69486349601E-04 +9.21352280307E-04 -9.48484897817E-04 -1.09412164518E-01 -3.84305392079E-01
4.28000000000E+09 -2.20368687282E-01 -3.18560653035E-01 +6.85180836479E-04 -1.49655736154E-03 +6.60990817857E-04 -1.34581346143E-03 -1.24975454818E-01 -3.70180543978E-01
4.28500000000E+09 -2.32252355002E-01 -3.05555060245E-01 +2.42039434394E-04 -1.15086603341E-03 +1.95296545266E-04 -1.09985857394E-03 -1.41084979415E-01 -3.55678515979E-01
4.29000000000E+09 -2.42712438379E-01 -2.90040568561E-01 +5.23468708210E-04 -1.09396615546E-03 +4.81417091701E-04 -1.09173108859E-03 -1.56367428620E-01 -3.40206662127E-01
4.29500000000E+09 -2.52557398248E-01 -2.72729219197E-01 +2.67635760101E-04 -1.53131708597E-03 +2.23030108571E-04 -1.49570256610E-03 -1.70712894652E-01 -3.23784484678E-01
4.30000000000E+09 -2.62255244599E-01 -2.54049143751E-01 -3.95766359923E-05 -1.15456930108E-03 -2.64437363205E-05 -1.15530887318E-03 -1.83375531181E-01 -3.06808169299E-01
4.30500000000E+09 -2.72726141426E-01 -2.34899592579E-01 +6.38241397501E-05 -1.34281848232E-03 +1.35859426964E-04 -1.34920218954E-03 -1.95592874111E-01 -2.89848029208E-01
4.31000000000E+09 -2.84650029881E-01 -2.15452948485E-01 -2.17487790583E-04 -1.54278058038E-03 -2.20762639434E-04 -1.55770510539E-03 -2.07371609777E-01 -2.72035126937E-01
4.31500000000E+09 -2.97606502774E-01 -1.96873982935E-01 -5.25675382788E-04 -1.41614526966E-03 -4.75355671900E-04 -1.41053768177E-03 -2.18125523519E-01 -2.53884534186E-01
4.32000000000E+09 -3.11440719317E-01 -1.78600755531E-01 -8.54927899122E-04 -1.39595905023E-03 -8.39393043885E-04 -1.41397161200E-03 -2.28786834817E-01 -2.35519249395E-01
4.32500000000E+09 -3.23795404789E-01 -1.60528615131E-01 -9.27614574528E-04 -8.80460367529E-04 -9.47322144160E-04 -8.85485504376E-04 -2.37965835658E-01 -2.16619842032E-01
4.33000000000E+09 -3.32959286141E-01 -1.43552137380E-01 -8.94914242804E-04 -8.80608521098E-04 -8.42484855095E-04 -9.29895836567E-04 -2.47232201053E-01 -1.98156118943E-01
4.33500000000E+09 -3.39719256443E-01 -1.28120964728E-01 -9.62201303892E-04 -5.00308982754E-04 -9.21970315451E-04 -5.67319889161E-04 -2.55972078565E-01 -1.78098508500E-01
4.34000000000E+09 -3.44783760293E-01 -1.13103003215E-01 -8.22176309786E-04 -7.36523145536E-04 -8.29264714716E-04 -7.20562020215E-04 -2.63345184195E-01 -1.57882846731E-01
4.34500000000E+09 -3.47669683680E-01 -9.75358622493E-02 -9.52714620713E-04 -6.24473153423E-04 -9.25538513959E-04 -7.02074501874E-04 -2.70564925679E-01 -1.37696632920E-01
4.35000000000E+09 -3.50178021911E-01 -8.02411259645E-02 -1.12754173103E-03 -4.69552257054E-04 -1.17384834870E-03 -5.37327638833E-04 -2.76836188436E-01 -1.17251852723E-01
4.35500000000E+09 -3.53161876855E-01 -6.00588004467E-02 -1.00701727151E-03 -2.26426337892E-04 -1.02177281237E-03 -2.62035965771E-04 -2.82242279836E-01 -9.75090475056E-02
4.36000000000E+09 -3.54691675018E-01 -3.74299487541E-02 -1.22142894173E-03 -5.75978013459E-04 -1.27647023181E-03 -6.04266886611E-04 -2.87588724758E-01 -7.81685459368E-02
4.36500000000E+09 -3.56988161461E-01 -1.43780676662E-02 -1.31209103312E-03 +1.14267080164E-04 -1.35550816360E-03 +1.16007827623E-04 -2.91625125770E-01 -5.79993190905E-02
4.37000000000E+09 -3.59683809106E-01 +8.21287200298E-03 -1.06053109443E-03 +1.79321029707E-04 -1.09686372493E-03 +1.81311976755E-04 -2.94265505140E-01 -3.89187536924E-02
4.37500000000E+09 -3.64359433758E-01 +2.87232023564E-02 -8.57621095288E-04 +3.09691827763E-04 -9.04877015767E-04 +3.80117958280E-04 -2.97600695209E-01 -1.86174583746E-02
4.38000000000E+09 -3.69716910055E-01 +4.84400051502E-02 -6.96113099792E-04 +3.30842889552E-04 -7.16948086093E-04 +4.10356334352E-04 -2.98918926086E-01 +2.57373930939E-03
4.38500000000E+09 -3.74699291570E-01 +6.63591456974E-02 -6.79151879450E-04 +9.07125540558E-05 -6.21058489478E-04 +1.29548250961E-04 -2.99728569191E-01 +2.29074785745E-02
4.39000000000E+09 -3.78497351593E-01 +8.27794861900E-02 -7.86540903694E-04 +4.34115532443E-05 -7.59855045950E-04 +1.52159191525E-04 -2.99968968572E-01 +4.39148862602E-02
4.39500000000E+09 -3.79150903697E-01 +9.77081357320E-02 -8.18246322437E-04 +2.07626346923E-04 -8.21487595730E-04 +2.58508969912E-04 -2.99947999969E-01 +6.30236040499E-02
4.40000000000E+09 -3.77390114543E-01 +1.11704267860E-01 -1.03400964020E-03 +1.84105599344E-04 -9.91412622163E-04 +2.44845901086E-04 -2.99463532317E-01 +8.29363442448E-02
4.40500000000E+09 -3.74469431992E-01 +1.25932105268E-01 -1.02323895186E-03 +5.66787594722E-04 -1.07710640450E-03 +6.37085861538E-04 -2.97311420604E-01 +1.02697440628E-01
4.41000000000E+09 -3.70030156732E-01 +1.42716804186E-01 -6.98796544398E-04 +8.23840930030E-04 -6.49509978284E-04 +8.57449237839E-04 -2.94739448494E-01 +1.21610457911E-01
4.41500000000E+09 -3.63981391921E-01 +1.61627313773E-01 -5.12437277059E-04 +5.71436883409E-04 -4.27972960566E-04 +5.49572961540E-04 -2.90780200332E-01 +1.41101222404E-01
4.42000000000E+09 -3.57548918867E-01 +1.82072578915E-01 -5.44547147670E-04 +6.02143099641E-04 -4.69880789656E-04 +5.58393956484E-04 -2.85946723520E-01 +1.60335509648E-01
4.42500000000E+09 -3.51570330596E-01 +2.02766353668E-01 -5.41923618597E-04 +3.26065310617E-04 -4.96511207991E-04 +3.27245001275E-04 -2.81180269958E-01 +1.78273521981E-01
4.43000000000E+09 -3.47678321024E-01 +2.23627244914E-01 -1.19864354692E-03 +5.95025023515E-04 -1.11673892438E-03 +5.40776019710E-04 -2.76971763876E-01 +1.96127043866E-01
4.43500000000E+09 -3.45382593778E-01 +2.44021587385E-01 -8.99426516795E-04 +1.32187101525E-03 -8.77651364006E-04 +1.21116608018E-03 -2.72926572926E-01 +2.13866410360E-01
4.44000000000E+09 -3.42946081371E-01 +2.63677463721E-01 -4.31822532207E-04 +1.26620335144E-03 -4.25549316678E-04 +1.14647376607E-03 -2.67912321937E-01 +2.32506658331E-01
4.44500000000E+09 -3.39783717443E-01 +2.80240636099E-01 +3.36391914857E-05 +1.45534417072E-03 +1.71024035318E-05 +1.36796315908E-03 -2.60640766725E-01 +2.49893013131E-01
4.45000000000E+09 -3.35650905036E-01 +2.93975615831E-01 +3.36862725193E-04 +8.90355642655E-04 +3.18819225740E-04 +8.53791635658E-04 -2.53456337737E-01 +2.65837140860E-01
4.45500000000E+09 -3.30762115225E-01 +3.06004575669E-01 +5.67440295103E-05 +6.70629056021E-04 -4.13164305739E-06 +6.66532604233E-04 -2.45566589338E-01 +2.82037280053E-01
4.46000000000E+09 -3.23808719087E-01 +3.17557391430E-01 -3.03950592429E-05 +7.39431597089E-04 -4.35641907199E-05 +7.54860922505E-04 -2.37544669305E-01 +2.97413915065E-01
4.46500000000E+09 -3.15768182491E-01 +3.29561622892E-01 -4.17505668584E-05 +9.10729749691E-04 -8.95403750093E-05 +9.40810986754E-04 -2.29244550799E-01 +3.12527403946E-01
4.47000000000E+09 -3.05670573060E-01 +3.44185325276E-01 +1.34146206031E-04 +8.06324163436E-04 +1.71400891079E-04 +8.28166514486E-04 -2.20490459541E-01 +3.27544936860E-01
4.47500000000E+09 -2.93159841684E-01 +3.60699831207E-01 +1.11397748075E-04 +8.91963321419E-04 +5.74352305907E-05 +8.91487956652E-04 -2.12352008140E-01 +3.41724930105E-01
4.48000000000E+09 -2.80202933533E-01 +3.77164339832E-01 +2.40223885202E-05 +9.69562545720E-04 +2.77481729365E-05 +9.50309992605E-04 -2.03861016673E-01 +3.57063787338E-01
4.48500000000E+09 -2.68997554448E-01 +3.93905899548E-01 +3.25248547288E-04 +1.38065671977E-03 +3.12756702314E-04 +1.38459487071E-03 -1.93576721054E-01 +3.71336104713E-01
4.49000000000E+09 -2.59823985827E-01 +4.10660827049E-01 +9.70407697424E-04 +1.15644434211E-03 +9.92228345896E-04 +1.21342559356E-03 -1.83396238005E-01 +3.84248657356E-01
4.49500000000E+09 -2.52965126878E-01 +4.26657704217E-01 +1.08803528094E-03 +4.19102833523E-04 +1.08057156696E-03 +4.73459638313E-04 -1.73374428676E-01 +3.97123915014E-01
4.50000000000E+09 -2.47189846142E-01 +4.41593780694E-01 +5.13267336071E-04 +3.39312867760E-04 +5.60009712616E-04 +3.86725202208E-04 -1.62652366978E-01 +4.09494906740E-01
4.50500000000E+09 -2.42005126995E-01 +4.53991444032E-01 +5.06910314196E-04 +4.71130100334E-04 +5.60673779928E-04 +4.39845190704E-04 -1.52479449071E-01 +4.21405337999E-01
4.51000000000E+09 -2.36287922724E-01 +4.64030081663E-01 +4.42551516376E-04 +7.04525692990E-04 +4.58483618068E-04 +6.77035695027E-04 -1.41580140917E-01 +4.33325597906E-01
4.51500000000E+09 -2.29325588361E-01 +4.72614621737E-01 +6.68471586419E-04 +8.66229208586E-04 +6.93257121546E-04 +8.21628872630E-04 -1.31252131354E-01 +4.44392566541E-01
4.52000000000E+09 -2.20159788631E-01 +4.80724264469E-01 +1.02190792520E-03 +7.56386870540E-04 +1.02073008876E-03 +7.22063204589E-04 -1.20769950660E-01 +4.55342068608E-01
4.52500000000E+09 -2.07780338692E-01 +4.88281300533E-01 +1.24585132981E-03 +5.53674642271E-04 +1.23232655503E-03 +5.03425336251E-04 -1.09282925737E-01 +4.66281017631E-01
4.53000000000E+09 -1.94059540791E-01 +4.95827716063E-01 +1.44683296316E-03 +3.56098681596E-06 +1.40784297783E-03 -4.90095729113E-05 -9.73682456149E-02 +4.75515174683E-01
4.53500000000E+09 -1.79510991457E-01 +5.04944258202E-01 +8.67821778694E-04 +2.16433931451E-07 +8.45081364007E-04 -5.45930454757E-05 -8.53214163074E-02 +4.85025732252E-01
4.54000000000E+09 -1.64657296456E-01 +5.15364936469E-01 +1.13175579098E-03 +1.03319403720E-04 +1.12261610369E-03 +8.84648453031E-05 -7.28108489883E-02 +4.93746134611E-01
4.54500000000E+09 -1.50303753368E-01 +5.26853027884E-01 +1.23310345424E-03 -3.25713507733E-04 +1.12821798377E-03 -3.83663418799E-04 -6.13523300313E-02 +5.01953358787E-01
4.55000000000E+09 -1.37450015234E-01 +5.38068948937E-01 +9.17443484138E-04 -4.65017996269E-04 +8.74576005068E-04 -4.26555452558E-04 -4.94383713444E-02 +5.10816830778E-01
4.55500000000E+09 -1.26283792975E-01 +5.48761082145E-01 +7.67739664780E-04 -2.30147497729E-04 +7.59115127997E-04 -2.81023191824E-04 -3.80172119612E-02 +5.19629497718E-01
4.56000000000E+09 -1.16594793210E-01 +5.57578571462E-01 +8.59672909037E-04 -1.44984903394E-04 +8.29192079637E-04 -1.32326012830E-04 -2.54933721165E-02 +5.27618725193E-01
4.56500000000E+09 -1.08483458354E-01 +5.64520263830E-01 +1.26048072842E-03 -2.90173077078E-04 +1.27383050902E-03 -3.29338207986E-04 -1.35717245775E-02 +5.34627381191E-01
4.57000000000E+09 -1.00426219592E-01 +5.70052670836E-01 +1.13513175041E-03 -8.97749004334E-04 +1.11337051374E-03 -9.49573832298E-04 -1.61028541066E-03 +5.41802973791E-01
