# Hz S RI R 50
! CMT, C1220, 16058040, 17.2.0/1
! Date: 15/08/2018 12:15:01
! Data: Format (Calibration Info)
! Freq                      S11: Re/Im (F2)                       S21: Re/Im (F2)                       S12: Re/Im (F2)                       S22: Re/Im (F2)            
4.00000000000E+09 +6.53996578514E-01 -3.56397052987E-01 -2.91807375182E-04 -8.10164126255E-04 -3.14893567404E-04 -8.22712617157E-04 +7.68172949096E-01 -3.19861482051E-01
4.00500000000E+09 +6.45960637428E-01 -3.62663126578E-01 -4.03114695108E-04 -5.36303152006E-04 -3.70928947636E-04 -5.91632115148E-04 +7.59036267777E-01 -3.30500243408E-01
4.01000000000E+09 +6.37164510278E-01 -3.68356942513E-01 -2.02500073557E-04 -5.15969276602E-04 -2.01153942064E-04 -5.71668008781E-04 +7.49590602124E-01 -3.40897649894E-01
4.01500000000E+09 +6.27467997162E-01 -3.74999249094E-01 -2.95962675404E-04 -7.32204404965E-04 -2.62116951095E-04 -7.11654943835E-04 +7.39931307874E-01 -3.50867959894E-01
4.02000000000E+09 +6.16722006755E-01 -3.83146140288E-01 -5.02491678686E-04 -7.32769898477E-04 -5.01830207850E-04 -7.56935425280E-04 +7.29693602902E-01 -3.61035902166E-01
4.02500000000E+09 +6.05012586367E-01 -3.92190418359E-01 -6.69676545708E-04 -6.69304271051E-04 -6.92101872092E-04 -7.09778953534E-04 +7.18847132845E-01 -3.70727110577E-01
4.03000000000E+09 +5.93647879934E-01 -4.02207823473E-01 -8.07510557916E-04 -3.75962102016E-04 -7.90973583062E-04 -4.60231615193E-04 +7.08015376684E-01 -3.80353048672E-01
4.03500000000E+09 +5.82478650307E-01 -4.13550004464E-01 -6.72971523975E-04 -3.49561758700E-04 -7.08918834773E-04 -3.61789444336E-04 +6.96767051886E-01 -3.90128847409E-01
4.04000000000E+09 +5.71296749357E-01 -4.24774501342E-01 -7.95754133146E-04 -1.28990640131E-04 -7.96349053353E-04 -2.31365601264E-04 +6.85660028981E-01 -4.00227758294E-01
4.04500000000E+09 +5.60547580050E-01 -4.35269893514E-01 -6.34703925156E-04 -1.53433912041E-04 -6.49686815171E-04 -1.11093512154E-04 +6.73615774406E-01 -4.10240056169E-01
4.05000000000E+09 +5.49555575912E-01 -4.44248775229E-01 -5.64838317806E-04 -2.18568901253E-04 -6.36794291499E-04 -2.72396167048E-04 +6.61573060684E-01 -4.18989370329E-01
4.05500000000E+09 +5.38413901677E-01 -4.50986274696E-01 -8.21707052109E-04 -2.80305078410E-04 -8.35155091775E-04 -2.61100017427E-04 +6.49136548258E-01 -4.27648345888E-01
4.06000000000E+09 +5.26999225151E-01 -4.56189727753E-01 -8.33240669277E-04 -1.15700557743E-04 -8.54031205599E-04 -1.57309336708E-04 +6.36250610054E-01 -4.35841110571E-01
4.06500000000E+09 +5.14485596048E-01 -4.60334094458E-01 -1.05531050541E-03 +2.80158393237E-05 -1.03880379977E-03 -7.21070715036E-06 +6.22976436657E-01 -4.43901139789E-01
4.07000000000E+09 +5.01266019633E-01 -4.64185658015E-01 -8.59518893640E-04 +3.85250824714E-04 -9.01685053364E-04 +3.40429410116E-04 +6.09005369572E-01 -4.52142402495E-01
4.07500000000E+09 +4.86498541611E-01 -4.68694763304E-01 -6.97085060755E-04 +3.21695844890E-04 -7.11230046571E-04 +3.17619035318E-04 +5.94956876630E-01 -4.60094538892E-01
4.08000000000E+09 +4.70006603653E-01 -4.73898949237E-01 -8.21103312153E-04 +3.01190456501E-04 -8.67028118479E-04 +2.33252843781E-04 +5.81398443909E-01 -4.67814404290E-01
4.08500000000E+09 +4.52886058295E-01 -4.79275112720E-01 -8.19907364094E-04 +6.30764379249E-04 -8.80339859791E-04 +6.20973842448E-04 +5.67277337160E-01 -4.75581032387E-01
4.09000000000E+09 +4.36013446478E-01 -4.85679185601E-01 -3.93187218362E-04 +4.67592647667E-04 -4.03062135541E-04 +4.97458524922E-04 +5.52814614181E-01 -4.82116932988E-01
4.09500000000E+09 +4.19339975591E-01 -4.92819573110E-01 -6.74702867959E-04 +3.86494133486E-04 -6.72444247925E-04 +4.09560553909E-04 +5.38504829102E-01 -4.88552966098E-01
4.10000000000E+09 +4.01753602412E-01 -4.99774498743E-01 -6.36849546459E-04 +5.81013331032E-04 -6.72595959577E-04 +5.77064116692E-04 +5.22544266946E-01 -4.94847779439E-01
4.10500000000E+09 +3.84572398212E-01 -5.04211243680E-01 -6.29729359319E-04 +7.39684957532E-04 -7.10773858970E-04 +7.77821323104E-04 +5.06532924513E-01 -5.00516939936E-01
4.11000000000E+09 +3.68172331373E-01 -5.06803977245E-01 -5.80807570570E-04 +9.14392359781E-04 -5.92700373892E-04 +9.46980320045E-04 +4.89784706388E-01 -5.06524502574E-01
4.11500000000E+09 +3.53047725563E-01 -5.07846767430E-01 +1.22332202946E-05 +1.09999795948E-03 -2.20725778163E-05 +1.09522359864E-03 +4.72968431445E-01 -5.11543906546E-01
4.12000000000E+09 +3.37269133212E-01 -5.08415918887E-01 +3.23794737067E-05 +4.89158816663E-04 -3.83687693016E-05 +4.82259408390E-04 +4.56754939546E-01 -5.16596666291E-01
4.12500000000E+09 +3.20740847578E-01 -5.08709513920E-01 -2.61490198453E-04 +5.42762479585E-04 -2.91914239972E-04 +5.18997108251E-04 +4.39519364634E-01 -5.21114426827E-01
4.13000000000E+09 +3.02738341325E-01 -5.09754699203E-01 -5.09157643387E-04 +7.06444152949E-04 -5.27078294218E-04 +6.62393354427E-04 +4.22755013585E-01 -5.24508849576E-01
4.13500000000E+09 +2.82576356129E-01 -5.11197706173E-01 -4.02426752920E-04 +1.00742909692E-03 -4.42395252208E-04 +9.73402141665E-04 +4.05281214432E-01 -5.28059155759E-01
4.14000000000E+09 +2.61774248723E-01 -5.12710688069E-01 -8.48458497732E-05 +1.40673195962E-03 -9.34472756523E-05 +1.43061835346E-03 +3.86795413115E-01 -5.31057370388E-01
4.14500000000E+09 +2.41210470723E-01 -5.15644802345E-01 +5.91869518574E-04 +1.15415597625E-03 +5.73180945873E-04 +1.20762098425E-03 +3.68563329525E-01 -5.33719288050E-01
4.15000000000E+09 +2.20584534875E-01 -5.19384125077E-01 +5.12197693624E-04 +6.99214699983E-04 +5.23502248719E-04 +7.07979039712E-04 +3.50255281814E-01 -5.35905734732E-01
4.15500000000E+09 +2.00171726151E-01 -5.23274474654E-01 +2.36065259826E-04 +7.32932967158E-04 +2.35217261726E-04 +7.94152318140E-04 +3.32156455741E-01 -5.37400419516E-01
4.16000000000E+09 +1.80793238039E-01 -5.25373120060E-01 +3.75890978313E-04 +7.85167348029E-04 +3.91780311973E-04 +8.23230359554E-04 +3.14266356541E-01 -5.38065946161E-01
4.16500000000E+09 +1.63054783536E-01 -5.25890836676E-01 +5.05638410970E-04 +7.63895083179E-04 +5.09983764888E-04 +7.40745733564E-04 +2.96074319405E-01 -5.37874190010E-01
4.17000000000E+09 +1.46504080436E-01 -5.24422997747E-01 +6.87734506846E-04 +8.68867785718E-04 +6.87932381392E-04 +9.10352440664E-04 +2.77434941125E-01 -5.37428973069E-01
4.17500000000E+09 +1.30890910171E-01 -5.21210205892E-01 +8.09827065462E-04 +4.01816887531E-04 +8.31388351000E-04 +4.36584545459E-04 +2.58404412976E-01 -5.35993705764E-01
4.18000000000E+09 +1.15017838818E-01 -5.16588986607E-01 +5.79086391414E-04 +4.25805270015E-04 +5.97966779644E-04 +4.76950743532E-04 +2.39286740346E-01 -5.34443328273E-01
4.18500000000E+09 +9.85155953321E-02 -5.11160455058E-01 +5.90289227054E-04 +4.83145745068E-04 +5.31043182411E-04 +5.85227864691E-04 +2.20084173100E-01 -5.32362163622E-01
4.19000000000E+09 +8.09075203589E-02 -5.05310764057E-01 +8.45211095000E-04 +4.82204885984E-04 +9.01669528447E-04 +4.70066132604E-04 +2.00924140653E-01 -5.29766472723E-01
4.19500000000E+09 +6.21257849608E-02 -4.99579343356E-01 +7.67505743396E-04 +3.17281692385E-04 +7.92705379751E-04 +3.54968251498E-04 +1.81952539059E-01 -5.26570609049E-01
4.20000000000E+09 +4.24046387535E-02 -4.94132265798E-01 +9.05024803072E-04 +3.92361147973E-04 +9.54112287374E-04 +4.49839022832E-04 +1.62388280037E-01 -5.23094979523E-01
4.20500000000E+09 +2.26093395893E-02 -4.88985631992E-01 +1.16531474897E-03 +5.63502659658E-05 +1.19236808292E-03 +1.52461478844E-04 +1.42806568834E-01 -5.17460082035E-01
4.21000000000E+09 +3.59108763398E-03 -4.83898316486E-01 +6.55280764784E-04 -2.39731033694E-04 +6.70941776454E-04 -2.48763360495E-04 +1.23560848056E-01 -5.12366569490E-01
4.21500000000E+09 -1.49566538331E-02 -4.78532135398E-01 +6.23885274932E-04 +2.38902935416E-04 +6.12348121624E-04 +2.22220615480E-04 +1.04093351411E-01 -5.06448029228E-01
4.22000000000E+09 -3.21998121791E-02 -4.71285336339E-01 +1.06890706533E-03 +1.92691599783E-04 +1.07283632950E-03 +2.13509526456E-04 +8.56886505213E-02 -4.99373305599E-01
4.22500000000E+09 -4.75559288170E-02 -4.62712797034E-01 +8.80714571376E-04 -2.54295678230E-04 +8.96527422366E-04 -3.19920172029E-04 +6.74954779810E-02 -4.93030673411E-01
4.23000000000E+09 -6.24751837087E-02 -4.52671209811E-01 +8.56039148676E-04 -1.78255493850E-04 +9.07191420942E-04 -2.10752261221E-04 +4.86928290406E-02 -4.85550414773E-01
4.23500000000E+09 -7.71113816977E-02 -4.40545498872E-01 +6.43443712771E-04 -2.20833543205E-04 +6.36653906974E-04 -2.57174345121E-04 +3.03094826108E-02 -4.76998466972E-01
4.24000000000E+09 -9.19681699984E-02 -4.27528863859E-01 +9.45056051994E-04 -9.03874984163E-05 +9.15121270322E-04 -1.09613729443E-04 +1.21263986558E-02 -4.67620269916E-01
4.24500000000E+09 -1.08725438940E-01 -4.14768367511E-01 +1.29813973764E-03 -2.76530452801E-04 +1.32027905676E-03 -3.00908111180E-04 -6.25133100993E-03 -4.57525587126E-01
4.25000000000E+09 -1.28085762321E-01 -4.00963277770E-01 +1.13361000886E-03 -8.21798035766E-04 +1.15384896161E-03 -8.92831947291E-04 -2.35257306016E-02 -4.46301802592E-01
4.25500000000E+09 -1.48068825228E-01 -3.86537746758E-01 +8.41520779077E-04 -9.60515009085E-04 +8.63335075908E-04 -9.66610218203E-04 -4.07100416549E-02 -4.35474462684E-01
4.26000000000E+09 -1.67863945221E-01 -3.73213223020E-01 +5.75757930600E-04 -9.59018803343E-04 +5.80800474757E-04 -9.55613962409E-04 -5.79681777292E-02 -4.22805535534E-01
4.26500000000E+09 -1.87310474275E-01 -3.60144252736E-01 +5.32779476066E-04 -1.00430671166E-03 +4.79252124706E-04 -9.94343572894E-04 -7.32946552485E-02 -4.09795862380E-01
4.27000000000E+09 -2.04702962153E-01 -3.47633392137E-01 +4.41462316181E-04 -9.98101365374E-04 +4.29207729442E-04 -1.01904432264E-03 -8.93522596952E-02 -3.97331822847E-01
4.27500000000E+09 -2.20075888067E-01 -3.35704163637E-01 +3.20116868958E-04 -9.59590237067E-04 +2.99104789504E-04 -9.75175208547E-04 -1.05939941937E-01 -3.83244577124E-01
4.28000000000E+09 -2.33509357595E-01 -3.23277224666E-01 +1.98362775454E-04 -9.96644077529E-04 +2.48866651172E-04 -1.00073061250E-03 -1.21272432247E-01 -3.69273197171E-01
4.28500000000E+09 -2.45571003588E-01 -3.09116064402E-01 +4.09305808261E-05 -7.93777749624E-04 +4.69892017072E-05 -8.34827959858E-04 -1.37240615440E-01 -3.55129504817E-01
4.29000000000E+09 -2.55805261927E-01 -2.92871058445E-01 +3.46657002190E-04 -9.05613594717E-04 +4.03786316586E-04 -8.98118251315E-04 -1.52717445339E-01 -3.39919652767E-01
4.29500000000E+09 -2.65401988187E-01 -2.74810227539E-01 +2.13784564144E-04 -1.31335862169E-03 +1.93458243873E-04 -1.33265163225E-03 -1.66596963967E-01 -3.23427545904E-01
4.30000000000E+09 -2.75153942038E-01 -2.55546027146E-01 -1.64751619829E-04 -1.32424987020E-03 -9.97289771003E-05 -1.29959098329E-03 -1.79188743386E-01 -3.07051827506E-01
4.30500000000E+09 -2.85985783068E-01 -2.35453965273E-01 -4.40704647744E-04 -1.41237512419E-03 -4.58426960643E-04 -1.47202097716E-03 -1.91376492061E-01 -2.90096379615E-01
4.31000000000E+09 -2.98240328396E-01 -2.15026153466E-01 -6.46144750630E-04 -1.23504238358E-03 -6.10671037954E-04 -1.20494129385E-03 -2.02410773015E-01 -2.73006733617E-01
4.31500000000E+09 -3.11201479995E-01 -1.94949551714E-01 -9.38455889664E-04 -9.42123820282E-04 -9.76855670276E-04 -1.00604199651E-03 -2.13588804993E-01 -2.56099222155E-01
4.32000000000E+09 -3.24621962526E-01 -1.75458784841E-01 -9.90257512422E-04 -5.48331451195E-04 -1.03371056448E-03 -5.71112912808E-04 -2.25009867478E-01 -2.37842377680E-01
4.32500000000E+09 -3.35965537261E-01 -1.56739150301E-01 -4.74902225244E-04 -3.77642663681E-04 -4.69692169255E-04 -4.17182508793E-04 -2.34356031470E-01 -2.19096377854E-01
4.33000000000E+09 -3.45171562998E-01 -1.40229279370E-01 -6.18607112417E-04 -7.92035831850E-04 -6.17462184420E-04 -7.91835619476E-04 -2.43966073791E-01 -2.00882532602E-01
4.33500000000E+09 -3.52550684816E-01 -1.24126167678E-01 -7.33464867110E-04 -5.73013999166E-04 -7.99130749466E-04 -5.98091871300E-04 -2.52591576696E-01 -1.80755192032E-01
4.34000000000E+09 -3.57089229218E-01 -1.08018246532E-01 -8.97198311216E-04 -7.44407511784E-04 -9.24981658478E-04 -7.21589859690E-04 -2.59773082945E-01 -1.61184687270E-01
4.34500000000E+09 -3.59467783872E-01 -9.14357380884E-02 -1.19597159498E-03 -4.07435249338E-04 -1.21787211299E-03 -4.28891877411E-04 -2.67500186254E-01 -1.41657887574E-01
4.35000000000E+09 -3.60937029189E-01 -7.34502701608E-02 -1.15273748078E-03 +8.92875205890E-05 -1.13312963729E-03 +8.18262465739E-05 -2.74503927969E-01 -1.21824463921E-01
4.35500000000E+09 -3.62594686927E-01 -5.29453525238E-02 -6.84020298434E-04 +1.34541128371E-04 -7.08180600866E-04 +1.22768384943E-04 -2.81007088686E-01 -1.01757297632E-01
4.36000000000E+09 -3.64019079035E-01 -3.04184396601E-02 -6.69573555189E-04 -4.01324762238E-04 -6.88495375984E-04 -4.04921639695E-04 -2.86175805312E-01 -8.22523384440E-02
4.36500000000E+09 -3.65823147703E-01 -6.75688430424E-03 -1.01185874927E-03 +4.44904245250E-05 -1.02271215326E-03 +2.38804496201E-05 -2.90543255249E-01 -6.23718433901E-02
4.37000000000E+09 -3.68605892651E-01 +1.67260978381E-02 -7.13553815085E-04 -6.19912558514E-05 -7.58870196553E-04 -3.62982929610E-05 -2.93597015665E-01 -4.31466140554E-02
4.37500000000E+09 -3.72228839620E-01 +3.85043531004E-02 -9.82627818813E-04 +1.52035882467E-04 -1.01462584878E-03 +1.50801214943E-04 -2.96936701960E-01 -2.28986623751E-02
4.38000000000E+09 -3.76823097760E-01 +5.85870567532E-02 -8.93208261708E-04 +2.30910389318E-04 -9.06261511877E-04 +2.55465307002E-04 -2.98640361672E-01 -1.97637635824E-03
4.38500000000E+09 -3.80952775535E-01 +7.65672003688E-02 -8.11046731258E-04 +2.60130961020E-04 -8.01164715742E-04 +3.45585009958E-04 -2.99852865722E-01 +1.83045806302E-02
4.39000000000E+09 -3.84291395287E-01 +9.29237627433E-02 -7.24089979896E-04 +2.39157210772E-04 -7.17331634975E-04 +2.39009140402E-04 -3.00688738629E-01 +3.91107447006E-02
4.39500000000E+09 -3.84651338045E-01 +1.08246147631E-01 -7.67604057139E-04 +2.91821305226E-04 -7.83356287812E-04 +3.53635995348E-04 -3.01286434238E-01 +5.87286221649E-02
4.40000000000E+09 -3.82235291387E-01 +1.22673476303E-01 -9.11601210944E-04 +2.06378934411E-04 -9.00850554669E-04 +3.05379959476E-04 -3.00687518754E-01 +7.89984373653E-02
4.40500000000E+09 -3.78352272632E-01 +1.36754255983E-01 -1.08126515958E-03 +5.02680287819E-04 -1.09316593332E-03 +5.28482455152E-04 -2.99110513067E-01 +9.82122041039E-02
4.41000000000E+09 -3.73514619152E-01 +1.53411361168E-01 -9.53175278644E-04 +9.95280997224E-04 -9.44017770537E-04 +1.06260914743E-03 -2.96915929735E-01 +1.17698530302E-01
4.41500000000E+09 -3.66817434976E-01 +1.72646641982E-01 -4.68013707636E-04 +9.17150730493E-04 -4.78905702408E-04 +9.16171367523E-04 -2.93146469280E-01 +1.37100668684E-01
4.42000000000E+09 -3.59584704705E-01 +1.93389158513E-01 -4.66351960370E-04 +9.42331235417E-04 -5.02422339906E-04 +9.15952286259E-04 -2.89301163369E-01 +1.56477611035E-01
4.42500000000E+09 -3.52693151452E-01 +2.14700372887E-01 -2.07497699169E-04 +6.87475106289E-04 -2.03108662117E-04 +7.05759917092E-04 -2.84736469075E-01 +1.75595882614E-01
4.43000000000E+09 -3.47524108181E-01 +2.35384600164E-01 -5.50083546791E-04 +7.38432532561E-04 -5.58605708601E-04 +7.78569708671E-04 -2.80359287519E-01 +1.93452293454E-01
4.43500000000E+09 -3.44133830645E-01 +2.55395700792E-01 -4.80511844854E-04 +1.05008465632E-03 -4.47771763534E-04 +1.05771892486E-03 -2.76800891675E-01 +2.11797063367E-01
4.44000000000E+09 -3.41852066968E-01 +2.74479864808E-01 -2.38067577950E-04 +1.04786726366E-03 -1.84025655436E-04 +1.00690010978E-03 -2.71560657705E-01 +2.31051972527E-01
4.44500000000E+09 -3.38202981738E-01 +2.91333215373E-01 +8.24886585413E-05 +1.23262505965E-03 +7.64183387151E-05 +1.22292770866E-03 -2.64368524098E-01 +2.48315250473E-01
4.45000000000E+09 -3.33867388481E-01 +3.04806617367E-01 +3.54121716182E-04 +8.53510840066E-04 +3.88176754229E-04 +8.26003061932E-04 -2.57342348172E-01 +2.64925547046E-01
4.45500000000E+09 -3.28523673415E-01 +3.17000183987E-01 +1.24511253884E-04 +7.24965176365E-04 +1.33295628337E-04 +7.07568196192E-04 -2.49077850126E-01 +2.81432413905E-01
4.46000000000E+09 -3.20696386746E-01 +3.28185641568E-01 +1.92268460492E-04 +7.04160943391E-04 +1.69868291858E-04 +7.07960247404E-04 -2.40900982039E-01 +2.96955730062E-01
4.46500000000E+09 -3.11634198325E-01 +3.39442568605E-01 +1.28536658767E-04 +9.05179860023E-04 +1.01354777235E-04 +9.20726469978E-04 -2.32527701352E-01 +3.12449966827E-01
4.47000000000E+09 -3.01142131581E-01 +3.53202365440E-01 +4.90636189605E-04 +7.58335116657E-04 +4.45905042798E-04 +6.96728556610E-04 -2.23925016450E-01 +3.27881309114E-01
4.47500000000E+09 -2.88407264995E-01 +3.69082857126E-01 +1.16418674305E-04 +7.45309912314E-04 +1.42054195585E-04 +7.94552868389E-04 -2.14990668790E-01 +3.42698311808E-01
4.48000000000E+09 -2.74948323550E-01 +3.85482901747E-01 +3.40313099890E-04 +7.76756421142E-04 +3.26060254509E-04 +7.94490363348E-04 -2.06038445270E-01 +3.57247260176E-01
4.48500000000E+09 -2.62958594366E-01 +4.02196714967E-01 +3.38016778046E-04 +1.07206617843E-03 +3.63319193262E-04 +9.98588059224E-04 -1.96138269644E-01 +3.71477962960E-01
4.49000000000E+09 -2.52630849703E-01 +4.18550215788E-01 +7.92323571744E-04 +1.06159110501E-03 +8.06652431277E-04 +1.08295207562E-03 -1.85790571522E-01 +3.84530563653E-01
4.49500000000E+09 -2.45060418729E-01 +4.33704199688E-01 +1.14732035416E-03 +5.69991055326E-04 +1.12008693556E-03 +5.51047499443E-04 -1.75923489327E-01 +3.97355029721E-01
4.50000000000E+09 -2.39412122499E-01 +4.48027312174E-01 +8.08511595774E-04 +3.88232260191E-04 +8.16511347873E-04 +4.14781825399E-04 -1.65384712893E-01 +4.10265153601E-01
4.50500000000E+09 -2.33819218986E-01 +4.60495414273E-01 +7.99160039976E-04 +1.37558469773E-04 +8.22496840256E-04 +1.76333938122E-04 -1.54597663960E-01 +4.22400343283E-01
4.51000000000E+09 -2.27927817148E-01 +4.70238085800E-01 +5.35179638987E-04 +3.49957203539E-04 +5.79663226473E-04 +3.57719452123E-04 -1.43674326791E-01 +4.34092475186E-01
4.51500000000E+09 -2.20651238106E-01 +4.78490662658E-01 +6.98998513968E-04 +5.18317563256E-04 +6.88473279728E-04 +5.44502350606E-04 -1.33214223237E-01 +4.45429215263E-01
4.52000000000E+09 -2.11409712053E-01 +4.85619903693E-01 +1.01588418203E-03 +4.70886757116E-04 +1.02872366585E-03 +5.10164506372E-04 -1.22347652460E-01 +4.56249272309E-01
4.52500000000E+09 -1.99434408905E-01 +4.92543588828E-01 +1.14132938540E-03 +3.22920665366E-04 +1.13337587706E-03 +2.79539893285E-04 -1.11044808832E-01 +4.66985254142E-01
4.53000000000E+09 -1.85775314294E-01 +4.99671104720E-01 +1.35759094459E-03 -1.62166537060E-04 +1.35644623278E-03 -1.10452200483E-04 -9.91933708746E-02 +4.76328447424E-01
4.53500000000E+09 -1.71177328672E-01 +5.08276215288E-01 +8.78482890655E-04 -2.33953441982E-04 +8.47908743683E-04 -2.50846183890E-04 -8.72251876347E-02 +4.86025281786E-01
4.54000000000E+09 -1.55957147011E-01 +5.18075769410E-01 +9.73507212308E-04 -1.94914473253E-04 +9.24510891397E-04 -1.68507616802E-04 -7.45237751995E-02 +4.95148267154E-01
4.54500000000E+09 -1.41298453050E-01 +5.28447923557E-01 +9.47000017927E-04 -2.62014169073E-04 +9.17744305443E-04 -2.61451270426E-04 -6.26052685985E-02 +5.03620014264E-01
4.55000000000E+09 -1.28528925604E-01 +5.38744985832E-01 +9.38781968023E-04 -5.85549407820E-04 +9.14312315040E-04 -5.44325921910E-04 -5.00858790609E-02 +5.12380713026E-01
4.55500000000E+09 -1.17889864781E-01 +5.49070370461E-01 +5.01754511401E-04 -4.94784545052E-04 +4.93725949166E-04 -4.57892461112E-04 -3.83996498649E-02 +5.20826420707E-01
4.56000000000E+09 -1.08202754807E-01 +5.57758327952E-01 +5.91876283302E-04 -1.18960149391E-04 +6.22690140550E-04 -1.24503756155E-04 -2.56832422870E-02 +5.28484717438E-01
4.56500000000E+09 -9.98222764599E-02 +5.64550838394E-01 +1.17517913244E-03 -3.24524759691E-04 +1.15049856399E-03 -3.21500720798E-04 -1.39986546770E-02 +5.35223829289E-01
4.57000000000E+09 -9.18103729601E-02 +5.69724915457E-01 +1.05884448485E-03 -1.03577168540E-03 +1.02806685119E-03 -1.01298406630E-03 -2.03454005980E-03 +5.42481155237E-01
