# Hz S RI R 50
! CMT, C1220, 16058040, 17.2.0/1
! Date: 15/08/2018 12:09:30
! Data: Format (Calibration Info)
! Freq                      S11: Re/Im (F2)                       S21: Re/Im (F2)                       S12: Re/Im (F2)                       S22: Re/Im (F2)            
4.00000000000E+09 +6.50493225399E-01 -3.55061077382E-01 -2.09155864160E-04 -5.12810153707E-04 -2.41562976497E-04 -5.37689615764E-04 +7.66305573423E-01 -3.20493355105E-01
4.00500000000E+09 +6.42362322550E-01 -3.60897489245E-01 -2.53240448778E-04 -2.97261004618E-04 -2.44193510898E-04 -3.14459984214E-04 +7.57062280593E-01 -3.30886920711E-01
4.01000000000E+09 +6.33704031915E-01 -3.66601330061E-01 +4.39233410242E-06 -3.38214438822E-04 +3.11043963139E-05 -4.33635423860E-04 +7.47486161273E-01 -3.41196434760E-01
4.01500000000E+09 +6.23833712219E-01 -3.73567138576E-01 -7.08564052247E-05 -7.05958678569E-04 -6.89840656120E-05 -7.23017405096E-04 +7.37998899855E-01 -3.50915166238E-01
4.02000000000E+09 +6.12592947744E-01 -3.81425440454E-01 -5.09362867007E-04 -6.70692326755E-04 -5.15746232658E-04 -7.12146113895E-04 +7.27827900786E-01 -3.61191521389E-01
4.02500000000E+09 +6.00702346471E-01 -3.90265729541E-01 -7.47018348110E-04 -4.01152868559E-04 -7.46520151079E-04 -4.60007352340E-04 +7.16944858346E-01 -3.70511198941E-01
4.03000000000E+09 +5.89168002861E-01 -3.99694000259E-01 -6.75172531324E-04 -7.48613071110E-05 -7.19474963758E-04 -1.69453013408E-04 +7.06626857578E-01 -3.79993898384E-01
4.03500000000E+09 +5.78301898422E-01 -4.10550934539E-01 -4.35757375267E-04 -1.61478754025E-05 -4.30020911079E-04 -1.92582025218E-05 +6.95414727380E-01 -3.89929798735E-01
4.04000000000E+09 +5.67285624097E-01 -4.21640341037E-01 -4.31345923740E-04 -2.79374036604E-05 -4.59786460077E-04 -7.21941656375E-05 +6.84155736288E-01 -3.99931036389E-01
4.04500000000E+09 +5.56780637591E-01 -4.31660621614E-01 -3.91503568166E-04 -7.84725701929E-05 -4.00184448355E-04 -1.00526155701E-04 +6.72180760339E-01 -4.09712250098E-01
4.05000000000E+09 +5.45721168112E-01 -4.40527705148E-01 -3.64232214402E-04 -1.55183627135E-04 -3.25804169096E-04 -1.41007171806E-04 +6.60045095529E-01 -4.18475140233E-01
4.05500000000E+09 +5.34283586987E-01 -4.46660084316E-01 -5.44343757934E-04 -2.77986416898E-04 -5.63818969254E-04 -2.77593766230E-04 +6.47981528635E-01 -4.27050312688E-01
4.06000000000E+09 +5.23026365512E-01 -4.50985726798E-01 -5.76851166509E-04 -9.06505856352E-05 -6.25291823019E-04 -9.19785943475E-05 +6.35377469168E-01 -4.35418595625E-01
4.06500000000E+09 +5.10841400884E-01 -4.54281879665E-01 -7.38586757237E-04 -4.77953025579E-06 -7.32169203714E-04 -2.78636937771E-05 +6.22046347539E-01 -4.43490532221E-01
4.07000000000E+09 +4.98002791504E-01 -4.57667950265E-01 -7.25957601164E-04 +2.94914915953E-04 -7.76543713151E-04 +2.73867972549E-04 +6.08317506325E-01 -4.51452251383E-01
4.07500000000E+09 +4.83465237223E-01 -4.61964308745E-01 -5.14349335086E-04 +3.82268408941E-04 -4.97331785223E-04 +3.86519632854E-04 +5.94471924801E-01 -4.59531298902E-01
4.08000000000E+09 +4.66888183262E-01 -4.66868073998E-01 -5.30986694387E-04 +3.32723528226E-04 -4.80637645882E-04 +3.87332269189E-04 +5.80849793734E-01 -4.67141399398E-01
4.08500000000E+09 +4.49939898770E-01 -4.71849988702E-01 -3.86137115126E-04 +4.57944298175E-04 -3.79778668030E-04 +5.07838011240E-04 +5.67068191170E-01 -4.75150635140E-01
4.09000000000E+09 +4.33215443725E-01 -4.78390377953E-01 -6.58067588918E-05 +1.95540922456E-04 -7.43447831666E-05 +2.13329249473E-04 +5.52500396312E-01 -4.81854365142E-01
4.09500000000E+09 +4.16232419530E-01 -4.85365255428E-01 -5.20131170682E-04 -4.94149709296E-05 -4.84212535265E-04 -3.13582528810E-05 +5.38498561444E-01 -4.88337482115E-01
4.10000000000E+09 +3.98621911488E-01 -4.91668710730E-01 -7.73947415364E-04 +1.98543635961E-04 -7.49391233505E-04 +1.95843210665E-04 +5.22579018516E-01 -4.94899494607E-01
4.10500000000E+09 +3.82037992565E-01 -4.95686480063E-01 -8.51633490370E-04 +6.88412073050E-04 -8.97856307668E-04 +6.45110703206E-04 +5.06518414959E-01 -5.00474130304E-01
4.11000000000E+09 +3.66200753138E-01 -4.98165515417E-01 -5.84135575570E-04 +1.05835026384E-03 -6.26633699914E-04 +1.05121504795E-03 +4.90079163277E-01 -5.06484591598E-01
4.11500000000E+09 +3.51726114139E-01 -4.98711886508E-01 +1.45842028833E-04 +1.14477643931E-03 +1.01580218883E-04 +1.13003051964E-03 +4.73575224149E-01 -5.11697725321E-01
4.12000000000E+09 +3.36813725208E-01 -4.99613331436E-01 +2.13069946781E-04 +4.47187918577E-04 +2.27970619620E-04 +4.91856220732E-04 +4.57454817997E-01 -5.17272083294E-01
4.12500000000E+09 +3.20716429681E-01 -5.00232538393E-01 -1.05173331893E-04 +4.25509312565E-04 -1.25457489023E-04 +4.30955568466E-04 +4.39851772385E-01 -5.22231130244E-01
4.13000000000E+09 +3.02579829277E-01 -5.01265279000E-01 -1.50903542064E-04 +5.66926982148E-04 -1.93946062251E-04 +5.68402851836E-04 +4.22906414282E-01 -5.25757550074E-01
4.13500000000E+09 +2.82550616337E-01 -5.02126109191E-01 -2.92532711031E-04 +6.26278030528E-04 -2.97929267626E-04 +6.19233981813E-04 +4.05490116156E-01 -5.29607488042E-01
4.14000000000E+09 +2.62327116396E-01 -5.03060685521E-01 -5.62227015332E-05 +1.11434543949E-03 -6.62600856610E-05 +1.10984586785E-03 +3.86700009819E-01 -5.32693023957E-01
4.14500000000E+09 +2.42670353721E-01 -5.05734740892E-01 +5.37485080975E-04 +9.46881275482E-04 +5.43380032215E-04 +9.81987907098E-04 +3.68411900243E-01 -5.35361559431E-01
4.15000000000E+09 +2.22361195022E-01 -5.09704457190E-01 +4.42234402447E-04 +6.23526544103E-04 +4.80759376089E-04 +6.00463656605E-04 +3.49932341790E-01 -5.37875509696E-01
4.15500000000E+09 +2.02420720746E-01 -5.13503566498E-01 +4.03886991068E-04 +7.59801599954E-04 +4.05109533447E-04 +7.46209756511E-04 +3.31601676179E-01 -5.39338268604E-01
4.16000000000E+09 +1.83169115566E-01 -5.15836316814E-01 +6.19202861907E-04 +5.71077972843E-04 +6.07928965529E-04 +6.50884466114E-04 +3.13571376426E-01 -5.40286441779E-01
4.16500000000E+09 +1.65520400356E-01 -5.16175361702E-01 +5.87023966417E-04 +3.55405374108E-04 +6.19346448027E-04 +4.01447455235E-04 +2.94770261339E-01 -5.40370253689E-01
4.17000000000E+09 +1.49527438765E-01 -5.14329495325E-01 +6.92727923795E-04 +4.75085627167E-04 +6.82117963827E-04 +5.09617540063E-04 +2.75895999168E-01 -5.39274384021E-01
4.17500000000E+09 +1.34609977410E-01 -5.10977908623E-01 +5.96152553280E-04 -1.51855096773E-05 +5.80471392667E-04 +8.66957559847E-06 +2.57140397570E-01 -5.38060319219E-01
4.18000000000E+09 +1.19793006240E-01 -5.06401772652E-01 +1.42042012553E-04 +4.51866591983E-04 +1.77750614157E-04 +4.62136191032E-04 +2.37505893136E-01 -5.36716635980E-01
4.18500000000E+09 +1.04027274294E-01 -5.01416667728E-01 +6.14057581468E-04 +6.80231214616E-04 +6.00738622228E-04 +7.26051503997E-04 +2.18020039721E-01 -5.34421556977E-01
4.19000000000E+09 +8.68575163259E-02 -4.95467906322E-01 +9.75698240409E-04 +3.85162895950E-04 +1.06610726026E-03 +4.55661478726E-04 +1.98775972798E-01 -5.31912609000E-01
4.19500000000E+09 +6.89540454781E-02 -4.89757685504E-01 +9.02993742690E-04 +1.86346155200E-04 +9.85999397910E-04 +1.57615315363E-04 +1.79812426431E-01 -5.28548302595E-01
4.20000000000E+09 +4.99376452192E-02 -4.84518575991E-01 +8.81087280714E-04 +2.58279154617E-05 +8.85686668912E-04 +7.10867871896E-05 +1.60124075062E-01 -5.25435546725E-01
4.20500000000E+09 +3.07078204110E-02 -4.79843624640E-01 +8.98050251954E-04 -6.23747435099E-05 +9.64938994334E-04 -5.55643349140E-05 +1.39879488915E-01 -5.20008351242E-01
4.21000000000E+09 +1.16840294776E-02 -4.75162538796E-01 +7.22458430683E-04 -2.84214414774E-04 +7.09739019788E-04 -2.92528137534E-04 +1.20346832348E-01 -5.14530709877E-01
4.21500000000E+09 -6.82676485432E-03 -4.69340348579E-01 +5.93119093757E-04 +2.51129046252E-05 +5.75755387198E-04 -3.01631829156E-05 +1.00318012291E-01 -5.08550736165E-01
4.22000000000E+09 -2.28333103822E-02 -4.62016581199E-01 +1.01002491270E-03 +4.41943304311E-05 +1.06184969668E-03 +1.05812398813E-04 +8.11675529351E-02 -5.01260233540E-01
4.22500000000E+09 -3.71155393135E-02 -4.54300950758E-01 +1.08999906013E-03 -3.17774273438E-04 +1.10190774785E-03 -3.73962151573E-04 +6.26963985014E-02 -4.94429301818E-01
4.23000000000E+09 -5.13740105335E-02 -4.45482741551E-01 +9.43296596878E-04 -5.95349113443E-04 +1.06852194400E-03 -6.06023710346E-04 +4.36505232706E-02 -4.86460334336E-01
4.23500000000E+09 -6.59921815082E-02 -4.34715898240E-01 +6.22755417896E-04 -6.61312108907E-04 +5.94868862628E-04 -6.63764199090E-04 +2.54991033994E-02 -4.77070406301E-01
4.24000000000E+09 -8.12219583693E-02 -4.22761743144E-01 +7.12545638705E-04 -5.00268611909E-04 +6.82266215489E-04 -5.31107135856E-04 +7.42311683783E-03 -4.67865279676E-01
4.24500000000E+09 -9.83504725012E-02 -4.09923599719E-01 +1.00409494043E-03 -6.89745295388E-04 +1.04133365307E-03 -6.97502061074E-04 -1.12551813591E-02 -4.57129215097E-01
4.25000000000E+09 -1.16792019547E-01 -3.96008927931E-01 +9.51857443826E-04 -1.06573661284E-03 +9.20236959955E-04 -1.10567517640E-03 -2.83063347556E-02 -4.45377829969E-01
4.25500000000E+09 -1.35449187255E-01 -3.82444250906E-01 +5.59250899616E-04 -1.35321515458E-03 +5.27018598694E-04 -1.35057853964E-03 -4.57930313969E-02 -4.34233572976E-01
4.26000000000E+09 -1.54875287885E-01 -3.70460162518E-01 +2.21753780547E-04 -1.24439452063E-03 +2.05057975033E-04 -1.32195966388E-03 -6.30174130585E-02 -4.21140099274E-01
4.26500000000E+09 -1.74399174613E-01 -3.58369969229E-01 +1.17513564945E-04 -1.20580098026E-03 +1.34112593219E-04 -1.17362897186E-03 -7.81368906866E-02 -4.07760005665E-01
4.27000000000E+09 -1.92496998271E-01 -3.46561641663E-01 +2.47698704375E-05 -1.27872481674E-03 -7.75163752677E-06 -1.34873113730E-03 -9.40454325018E-02 -3.94860391784E-01
4.27500000000E+09 -2.07953720254E-01 -3.34653891933E-01 -1.83657102783E-04 -1.13333664381E-03 -2.12496890099E-04 -1.06271114293E-03 -1.10036888845E-01 -3.80519490037E-01
4.28000000000E+09 -2.21408652564E-01 -3.22372708961E-01 -2.81321095315E-04 -1.24544991973E-03 -3.34129583974E-04 -1.30326931882E-03 -1.25169365387E-01 -3.66444690674E-01
4.28500000000E+09 -2.33540330222E-01 -3.08750317786E-01 -6.74426725947E-04 -1.01413303829E-03 -7.26065380281E-04 -9.97728704254E-04 -1.41110503689E-01 -3.51989862344E-01
4.29000000000E+09 -2.43704438846E-01 -2.92934177900E-01 -4.07714184442E-04 -7.66893665123E-04 -4.15162421226E-04 -8.05538794194E-04 -1.56116403855E-01 -3.36500199117E-01
4.29500000000E+09 -2.53640978941E-01 -2.75994342284E-01 -6.17229794235E-04 -1.13667883190E-03 -5.77104467372E-04 -1.12175939209E-03 -1.70289402848E-01 -3.20314447075E-01
4.30000000000E+09 -2.63604751036E-01 -2.57357717723E-01 -7.86888737789E-04 -7.77415790054E-04 -8.17118144278E-04 -7.36130378924E-04 -1.82973253482E-01 -3.03397227818E-01
4.30500000000E+09 -2.74924510998E-01 -2.37932202516E-01 -8.21379435701E-04 -9.58190371472E-04 -8.04022385509E-04 -9.59582213033E-04 -1.94738794270E-01 -2.86275779944E-01
4.31000000000E+09 -2.87337806560E-01 -2.18100122627E-01 -9.55503948828E-04 -8.75393072862E-04 -9.37227525348E-04 -8.97185998122E-04 -2.05731967408E-01 -2.68664881174E-01
4.31500000000E+09 -3.00780746322E-01 -1.98882795277E-01 -1.21089514023E-03 -7.26347849201E-04 -1.20632641544E-03 -7.26528098771E-04 -2.16147756469E-01 -2.51353492899E-01
4.32000000000E+09 -3.14733201332E-01 -1.79909044112E-01 -1.50092534971E-03 -5.77319718679E-04 -1.50610708313E-03 -5.67142263610E-04 -2.27221531192E-01 -2.33346607354E-01
4.32500000000E+09 -3.26921945861E-01 -1.61376103168E-01 -1.41481575795E-03 +1.01943054323E-04 -1.42331659732E-03 +6.95921497682E-05 -2.36264153837E-01 -2.14250681447E-01
4.33000000000E+09 -3.35970704607E-01 -1.44669983501E-01 -1.18543775189E-03 +5.58852636099E-05 -1.22149500501E-03 +8.29536348194E-05 -2.45586693932E-01 -1.96129846679E-01
4.33500000000E+09 -3.43275675730E-01 -1.29435848339E-01 -1.02942203740E-03 +2.68242427969E-04 -1.03025689121E-03 +2.32537747861E-04 -2.54430763043E-01 -1.75969794554E-01
4.34000000000E+09 -3.48834276802E-01 -1.13979540443E-01 -9.86636621682E-04 +5.55269085707E-05 -9.80572927300E-04 +2.23174024900E-05 -2.61205410717E-01 -1.55836914486E-01
4.34500000000E+09 -3.52010657578E-01 -9.77440039101E-02 -1.18788814877E-03 +1.84166518101E-04 -1.17709950110E-03 +1.36414830009E-04 -2.68156940284E-01 -1.36162945697E-01
4.35000000000E+09 -3.54227364715E-01 -7.99053940445E-02 -1.32003569795E-03 +5.58610664218E-04 -1.32361449947E-03 +5.55552782059E-04 -2.74450804662E-01 -1.16358869614E-01
4.35500000000E+09 -3.56841629420E-01 -5.93454431753E-02 -9.90817691120E-04 +6.93947832251E-04 -9.70869428168E-04 +7.11590634698E-04 -2.80213883819E-01 -9.67112970810E-02
4.36000000000E+09 -3.58107534385E-01 -3.67328014293E-02 -1.03178730711E-03 +4.80937376785E-04 -1.08085711885E-03 +5.09363699831E-04 -2.85211304970E-01 -7.76002629718E-02
4.36500000000E+09 -3.60276345911E-01 -1.35299878513E-02 -1.04712699076E-03 +1.18577040740E-03 -1.14584261772E-03 +1.15767372429E-03 -2.89304171076E-01 -5.78149416080E-02
4.37000000000E+09 -3.63165117346E-01 +9.14398667224E-03 -5.53090997760E-04 +1.15938176199E-03 -5.33193525680E-04 +1.23931820729E-03 -2.92149013666E-01 -3.88855263656E-02
4.37500000000E+09 -3.67681984428E-01 +3.02855177085E-02 -3.72518945015E-04 +1.03195299086E-03 -3.84800678929E-04 +1.04227386566E-03 -2.95166743794E-01 -1.88803509301E-02
4.38000000000E+09 -3.72969211876E-01 +5.02306201176E-02 -3.71663105874E-04 +1.01547729316E-03 -3.54917868282E-04 +1.00900141672E-03 -2.96815994550E-01 +1.48734371954E-03
4.38500000000E+09 -3.77699106110E-01 +6.82601389025E-02 -2.88486724315E-04 +1.04870039236E-03 -3.06700006799E-04 +1.04657915329E-03 -2.97964493855E-01 +2.13271575285E-02
4.39000000000E+09 -3.81375338878E-01 +8.47694527254E-02 -1.33238958430E-04 +9.90324531861E-04 -1.60696498715E-04 +1.03613091252E-03 -2.98968122483E-01 +4.18925364138E-02
4.39500000000E+09 -3.81992933340E-01 +9.99142519447E-02 -2.63003294007E-05 +1.23141525841E-03 +1.44965681192E-05 +1.29513061719E-03 -2.99284787784E-01 +6.12304338435E-02
4.40000000000E+09 -3.80289287835E-01 +1.14355117429E-01 +3.04864642179E-04 +1.03265433214E-03 +3.06898266152E-04 +1.07807269733E-03 -2.99107834934E-01 +8.12275658554E-02
4.40500000000E+09 -3.76722325710E-01 +1.29024630041E-01 +2.49766403867E-04 +9.53026137435E-04 +3.30787342093E-04 +9.95574647921E-04 -2.97246414374E-01 +1.00739274473E-01
4.41000000000E+09 -3.71940912679E-01 +1.45564070485E-01 +3.68315071371E-04 +9.44422689359E-04 +4.32154032982E-04 +9.24790327869E-04 -2.95063586604E-01 +1.19647639757E-01
4.41500000000E+09 -3.65953659976E-01 +1.64366425577E-01 +6.16337423784E-04 +7.08786549434E-04 +6.58294279557E-04 +6.89732622017E-04 -2.91762946365E-01 +1.39213064306E-01
4.42000000000E+09 -3.59659334652E-01 +1.85317973626E-01 +4.96185930391E-04 +6.21682141462E-04 +5.40091180288E-04 +5.78525692519E-04 -2.87618964021E-01 +1.58641149942E-01
4.42500000000E+09 -3.53409203080E-01 +2.06578659123E-01 +5.42749575044E-04 +3.24282537858E-04 +5.71430686538E-04 +2.74893289637E-04 -2.83093200712E-01 +1.77182219082E-01
4.43000000000E+09 -3.48816359231E-01 +2.27963878661E-01 +1.11894061103E-04 +4.72005541933E-04 +1.87132834543E-04 +5.01023797904E-04 -2.78863754764E-01 +1.95371218852E-01
4.43500000000E+09 -3.45476924439E-01 +2.48346018044E-01 +3.45640287232E-04 +6.68128845385E-04 +3.10011067784E-04 +5.77203060300E-04 -2.74726550223E-01 +2.13435690958E-01
4.44000000000E+09 -3.42734692092E-01 +2.67434614657E-01 +4.23845735186E-04 +7.29243940196E-04 +4.16990572316E-04 +6.78686826032E-04 -2.69612198525E-01 +2.32177514590E-01
4.44500000000E+09 -3.39773756970E-01 +2.84002941509E-01 +9.21181035576E-04 +8.17251874724E-04 +8.59323503416E-04 +7.63696951499E-04 -2.62407121774E-01 +2.49559071194E-01
4.45000000000E+09 -3.35564446410E-01 +2.98065156206E-01 +1.07172384000E-03 +3.60051160802E-04 +1.04170178012E-03 +2.53730264990E-04 -2.55407069882E-01 +2.65691643516E-01
4.45500000000E+09 -3.30438853640E-01 +3.10376268260E-01 +7.91936921091E-04 +7.48089404090E-05 +7.61086711648E-04 +5.78935303730E-05 -2.47651333012E-01 +2.81869953738E-01
4.46000000000E+09 -3.23290151557E-01 +3.22115059790E-01 +7.13935666442E-04 -5.42439382772E-05 +6.31320014591E-04 -8.14181722430E-05 -2.39796066183E-01 +2.97235533065E-01
4.46500000000E+09 -3.14683113000E-01 +3.34527158741E-01 +4.64426830759E-04 +5.93442349657E-05 +4.71637169824E-04 +8.55590433749E-05 -2.31884623862E-01 +3.12858882484E-01
4.47000000000E+09 -3.03896292532E-01 +3.48875600850E-01 +6.20820631355E-04 +5.85953036382E-05 +5.94753465962E-04 +9.90183381470E-05 -2.23190188959E-01 +3.28303298381E-01
4.47500000000E+09 -2.91360855667E-01 +3.64755829590E-01 +6.06433278493E-04 +1.50453309544E-04 +5.98714376240E-04 +1.55197257560E-04 -2.14799986366E-01 +3.43085017187E-01
4.48000000000E+09 -2.78687462528E-01 +3.81150973654E-01 +6.21256536137E-04 +1.77427618435E-04 +5.74373434447E-04 +1.47395617483E-04 -2.05751930737E-01 +3.58068587718E-01
4.48500000000E+09 -2.67334495151E-01 +3.97925284892E-01 +8.20805473451E-04 +3.09280272382E-04 +8.11918786645E-04 +2.73679030669E-04 -1.95931493618E-01 +3.72156403927E-01
4.49000000000E+09 -2.58130321780E-01 +4.14679179077E-01 +1.16290597891E-03 -3.63438406317E-05 +1.12135227447E-03 -6.15248570792E-05 -1.85991611689E-01 +3.85747763733E-01
4.49500000000E+09 -2.51019377908E-01 +4.30540180774E-01 +1.17235128610E-03 -6.09951533058E-04 +1.13642424472E-03 -5.95273312733E-04 -1.75836694554E-01 +3.98769815016E-01
4.50000000000E+09 -2.45031757105E-01 +4.45216453796E-01 +4.88233618869E-04 -5.62873033321E-04 +5.43363906193E-04 -5.78670487094E-04 -1.65194641412E-01 +4.11528966094E-01
4.50500000000E+09 -2.39458929622E-01 +4.57621012981E-01 +6.59256669431E-04 -6.93962514503E-04 +5.99335114023E-04 -6.41704575877E-04 -1.54701889384E-01 +4.23804161928E-01
4.51000000000E+09 -2.33401227518E-01 +4.67403091804E-01 +2.19304047929E-04 -4.55594896210E-04 +2.56941593533E-04 -4.17868299619E-04 -1.43672599436E-01 +4.35770634156E-01
4.51500000000E+09 -2.26021955327E-01 +4.75762295174E-01 +3.42377221163E-04 -4.36962452439E-04 +3.67705837341E-04 -4.38033482844E-04 -1.33292939832E-01 +4.47240812774E-01
4.52000000000E+09 -2.16577033701E-01 +4.83344993615E-01 +3.51492617003E-04 -3.25648801357E-04 +3.29648470317E-04 -3.11840438634E-04 -1.22175570133E-01 +4.58529104728E-01
4.52500000000E+09 -2.04613035852E-01 +4.90325616315E-01 +5.04070747882E-04 -2.73475936997E-04 +4.86188436866E-04 -2.76255398611E-04 -1.10288046676E-01 +4.69056898626E-01
4.53000000000E+09 -1.91067799367E-01 +4.98264850053E-01 +7.29190532821E-04 -6.49703317399E-04 +7.25517971065E-04 -6.62142166595E-04 -9.85353417146E-02 +4.78274130869E-01
4.53500000000E+09 -1.76232134538E-01 +5.07594441087E-01 +2.85018863051E-04 -7.47405880753E-04 +2.67257952685E-04 -7.09494619375E-04 -8.64532182808E-02 +4.88096633971E-01
4.54000000000E+09 -1.61064135032E-01 +5.17867850332E-01 +3.37605595000E-04 -6.67100168697E-04 +3.24191151798E-04 -6.84604372514E-04 -7.36386402185E-02 +4.96935385025E-01
4.54500000000E+09 -1.46408679569E-01 +5.28882552732E-01 +1.54904390441E-04 -8.73501546586E-04 +1.25734175328E-04 -8.96196629617E-04 -6.19832247070E-02 +5.05442634844E-01
4.55000000000E+09 -1.33531528992E-01 +5.39559969328E-01 +9.07244041842E-05 -8.33968854176E-04 +6.30103615469E-05 -8.34004001023E-04 -4.93512463680E-02 +5.14487280662E-01
4.55500000000E+09 -1.22665992750E-01 +5.49769544750E-01 -1.42928672937E-04 -7.18002354728E-04 -1.66681998612E-04 -6.84858461862E-04 -3.74732789182E-02 +5.22777651040E-01
4.56000000000E+09 -1.13378496833E-01 +5.58505602776E-01 -2.26609715231E-04 -4.40717336968E-04 -2.30280445917E-04 -3.98026239570E-04 -2.50135860513E-02 +5.30620800680E-01
4.56500000000E+09 -1.05033607770E-01 +5.65431723444E-01 +2.54717288969E-04 -4.85506083985E-04 +2.07941312439E-04 -5.02992895771E-04 -1.28481167935E-02 +5.37510648319E-01
4.57000000000E+09 -9.65233350479E-02 +5.70761917278E-01 +8.79222348786E-05 -9.18341677757E-04 +2.76021969223E-05 -9.47435716696E-04 -6.66492675240E-04 +5.44422027097E-01
