# Hz S RI R 50
! CMT, C1220, 16058040, 17.2.0/1
! Date: 15/08/2018 12:13:21
! Data: Format (Calibration Info)
! Freq                      S11: Re/Im (F2)                       S21: Re/Im (F2)                       S12: Re/Im (F2)                       S22: Re/Im (F2)            
4.00000000000E+09 +6.52914511060E-01 -3.51483911031E-01 -9.63981082379E-05 -6.44820433473E-04 -7.31626264740E-05 -5.86276963521E-04 +7.67069197284E-01 -3.21828617307E-01
4.00500000000E+09 +6.44844113814E-01 -3.57576676319E-01 -8.70775035175E-05 -3.52543448437E-04 -1.20869273271E-04 -3.39980501393E-04 +7.57967895551E-01 -3.32375709999E-01
4.01000000000E+09 +6.36180803409E-01 -3.63177375667E-01 +1.49334357329E-04 -3.66437182586E-04 +2.20384055342E-04 -4.29342306648E-04 +7.48313797620E-01 -3.42824617749E-01
4.01500000000E+09 +6.26397295773E-01 -3.69939745027E-01 +7.36076470418E-05 -7.72647320025E-04 +1.30699975103E-04 -7.69799776882E-04 +7.38698803129E-01 -3.52665670944E-01
4.02000000000E+09 +6.15619977653E-01 -3.77765506625E-01 -3.61713055502E-04 -7.70278838579E-04 -2.88300902260E-04 -8.33635921700E-04 +7.28403236503E-01 -3.62828891212E-01
4.02500000000E+09 +6.04080748542E-01 -3.86693315860E-01 -4.35546880566E-04 -5.26221927914E-04 -4.67122559928E-04 -5.83697466790E-04 +7.17442955524E-01 -3.72228544418E-01
4.03000000000E+09 +5.92911177668E-01 -3.96658633574E-01 -4.81933195656E-04 -3.87091437605E-04 -4.76807700756E-04 -4.28484518608E-04 +7.06891999002E-01 -3.81636245352E-01
4.03500000000E+09 +5.81864188998E-01 -4.07746133721E-01 -4.31689068864E-04 -3.20679525484E-04 -3.86118302832E-04 -3.83907651180E-04 +6.95701950579E-01 -3.91531174814E-01
4.04000000000E+09 +5.70954659920E-01 -4.19037599842E-01 -4.16243960627E-04 -2.58095570127E-04 -4.10728553997E-04 -2.77643633865E-04 +6.84575717673E-01 -4.01665488163E-01
4.04500000000E+09 +5.60494796430E-01 -4.29351620330E-01 -3.17124744436E-04 -2.90682272809E-04 -3.28962892682E-04 -3.22592963359E-04 +6.72640528518E-01 -4.11514476629E-01
4.05000000000E+09 +5.49832723142E-01 -4.38228257604E-01 -2.66369216845E-04 -3.40789816840E-04 -2.47501557600E-04 -4.10602201617E-04 +6.60469859189E-01 -4.20355017047E-01
4.05500000000E+09 +5.39122040486E-01 -4.44838461118E-01 -5.00300234451E-04 -5.35215048685E-04 -5.19181727594E-04 -5.98536408350E-04 +6.48153975054E-01 -4.28977689660E-01
4.06000000000E+09 +5.28209311361E-01 -4.50005073168E-01 -7.18309489573E-04 -4.15287529534E-04 -7.02938947689E-04 -4.48802949741E-04 +6.35407260292E-01 -4.37209091886E-01
4.06500000000E+09 +5.16162898141E-01 -4.54025827758E-01 -8.77322152109E-04 -2.69156391595E-04 -9.09062392640E-04 -2.29883532993E-04 +6.22053786314E-01 -4.45189955815E-01
4.07000000000E+09 +5.03179306920E-01 -4.57719752064E-01 -8.43156092580E-04 +3.95278647984E-05 -8.88351886499E-04 +4.97146503844E-05 +6.08294835917E-01 -4.53399804768E-01
4.07500000000E+09 +4.88653091121E-01 -4.62266619274E-01 -7.15260573184E-04 +1.70047133438E-04 -7.18787535000E-04 +1.96236560578E-04 +5.94291118097E-01 -4.61677501100E-01
4.08000000000E+09 +4.72449183636E-01 -4.67068823874E-01 -7.07433288229E-04 +1.76937029749E-04 -7.64621924175E-04 +1.65009472513E-04 +5.80403882670E-01 -4.69279827164E-01
4.08500000000E+09 +4.55673905476E-01 -4.72460587911E-01 -6.83303315625E-04 +3.13588729954E-04 -6.77837135626E-04 +3.68291475148E-04 +5.66471918000E-01 -4.77134642758E-01
4.09000000000E+09 +4.39115871600E-01 -4.79074411610E-01 -3.91188158633E-04 +1.64759487309E-04 -3.71562279925E-04 +2.05720358910E-04 +5.51836220659E-01 -4.83653325455E-01
4.09500000000E+09 +4.22462743922E-01 -4.86385927798E-01 -6.98583623175E-04 -5.49314723098E-06 -7.06368124169E-04 +2.59812207435E-05 +5.37557907419E-01 -4.90193720741E-01
4.10000000000E+09 +4.04978549502E-01 -4.93615066525E-01 -9.39400778604E-04 +2.68283723840E-04 -9.63118754339E-04 +2.72156007634E-04 +5.21430258223E-01 -4.96475469115E-01
4.10500000000E+09 +3.88091418927E-01 -4.98330621677E-01 -9.48104914042E-04 +8.31054808788E-04 -9.28237906197E-04 +8.20930453499E-04 +5.05383887342E-01 -5.01910054086E-01
4.11000000000E+09 +3.71933893994E-01 -5.01183134278E-01 -5.20278484267E-04 +1.02547262336E-03 -5.37895308891E-04 +1.01607494451E-03 +4.88722604811E-01 -5.07852729590E-01
4.11500000000E+09 +3.57116093389E-01 -5.02398392068E-01 +3.10477647784E-05 +9.65578930556E-04 +9.03106802972E-06 +9.51742974014E-04 +4.71897917009E-01 -5.12803948210E-01
4.12000000000E+09 +3.41832289600E-01 -5.03322351782E-01 -2.73418561310E-06 +4.26126009931E-04 -1.13204152539E-05 +3.68823521562E-04 +4.55757213865E-01 -5.17896268605E-01
4.12500000000E+09 +3.25872971013E-01 -5.03781123050E-01 -3.49018271098E-04 +3.47483305329E-04 -3.69557111780E-04 +3.87977584858E-04 +4.38532968378E-01 -5.22661403525E-01
4.13000000000E+09 +3.08240196417E-01 -5.05222916722E-01 -5.00441584180E-04 +6.72380319457E-04 -5.48024147176E-04 +6.50474183478E-04 +4.21541604163E-01 -5.25761807415E-01
4.13500000000E+09 +2.88340942301E-01 -5.06852292096E-01 -4.17956656156E-04 +8.85492298548E-04 -5.01179933806E-04 +8.63404300189E-04 +4.04383111251E-01 -5.29330283841E-01
4.14000000000E+09 +2.67892860822E-01 -5.08286325465E-01 -1.22124027592E-04 +1.26573575273E-03 -1.75474041104E-04 +1.27759524474E-03 +3.85707671762E-01 -5.32308124454E-01
4.14500000000E+09 +2.47769996294E-01 -5.11282269708E-01 +4.52353548475E-04 +1.07513709914E-03 +4.55092005427E-04 +1.10629684297E-03 +3.67509682643E-01 -5.34980069670E-01
4.15000000000E+09 +2.27237977969E-01 -5.15439254483E-01 +4.96787634394E-04 +6.41223850818E-04 +4.70365996090E-04 +6.63088508868E-04 +3.49145840773E-01 -5.37262996247E-01
4.15500000000E+09 +2.06874299469E-01 -5.19469007489E-01 +2.82959637724E-04 +7.05992534429E-04 +2.56780702326E-04 +7.25896389468E-04 +3.30907791047E-01 -5.38609188001E-01
4.16000000000E+09 +1.87520523471E-01 -5.21948243082E-01 +4.45700162310E-04 +6.63239903628E-04 +3.86393730188E-04 +6.89947219808E-04 +3.13192121665E-01 -5.39427030702E-01
4.16500000000E+09 +1.69586412687E-01 -5.22873670676E-01 +4.88780456063E-04 +6.02377278784E-04 +4.99963624294E-04 +6.46621242174E-04 +2.94792196507E-01 -5.39609531710E-01
4.17000000000E+09 +1.53126375113E-01 -5.21895364813E-01 +5.28604209787E-04 +7.21150067253E-04 +5.62667387292E-04 +7.69740199445E-04 +2.75851343618E-01 -5.38653295431E-01
4.17500000000E+09 +1.37342679159E-01 -5.19376556051E-01 +6.19494855232E-04 +3.77328906021E-04 +6.49857677897E-04 +3.50911010260E-04 +2.57106140571E-01 -5.37318833204E-01
4.18000000000E+09 +1.21574629864E-01 -5.15085876379E-01 +4.70598952758E-04 +5.73488478622E-04 +5.12681383895E-04 +5.89238367364E-04 +2.37623599353E-01 -5.35849603916E-01
4.18500000000E+09 +1.05177267504E-01 -5.10369386436E-01 +7.22486036662E-04 +5.38464166159E-04 +7.24638268102E-04 +5.71180428258E-04 +2.18450846117E-01 -5.33528967909E-01
4.19000000000E+09 +8.74298354757E-02 -5.04723813151E-01 +8.34132694414E-04 +2.59170137927E-04 +9.01465813550E-04 +3.45725829091E-04 +1.99204658547E-01 -5.31089922541E-01
4.19500000000E+09 +6.89488890493E-02 -4.99184178391E-01 +6.84784746898E-04 +3.21786310160E-04 +6.93803033479E-04 +3.15589952504E-04 +1.80098715909E-01 -5.27522553526E-01
4.20000000000E+09 +4.95191451730E-02 -4.94152960723E-01 +9.34818915062E-04 +3.08584147688E-04 +9.95137005889E-04 +3.72508030264E-04 +1.60786336381E-01 -5.23971187867E-01
4.20500000000E+09 +2.99217012215E-02 -4.89667102256E-01 +1.02140142059E-03 +5.56836466066E-05 +1.07235950709E-03 +5.43336633501E-05 +1.40882536030E-01 -5.18516444321E-01
4.21000000000E+09 +1.03600076903E-02 -4.85012513054E-01 +7.73989609633E-04 -1.90204548799E-04 +7.89510077967E-04 -1.80872691582E-04 +1.21649680027E-01 -5.12927881156E-01
4.21500000000E+09 -8.51291021059E-03 -4.79564557648E-01 +6.41443593083E-04 +8.45408465193E-05 +6.61174707740E-04 +3.49055154544E-05 +1.02429782039E-01 -5.07031524559E-01
4.22000000000E+09 -2.57264067471E-02 -4.72507702721E-01 +1.02867088402E-03 +1.71110299440E-04 +1.03738801196E-03 +1.29073059106E-04 +8.37691900980E-02 -4.99984132409E-01
4.22500000000E+09 -4.12256223809E-02 -4.64425570860E-01 +1.13863049006E-03 -2.95311252609E-04 +1.10864952054E-03 -3.17222438290E-04 +6.57379558679E-02 -4.93426614564E-01
4.23000000000E+09 -5.63693545785E-02 -4.55029931053E-01 +8.73683650526E-04 -4.58717644272E-04 +8.89504313995E-04 -4.99526961077E-04 +4.70222266493E-02 -4.85929806684E-01
4.23500000000E+09 -7.15561066449E-02 -4.43532286026E-01 +6.09507004671E-04 -3.08395490117E-04 +5.66581432418E-04 -3.12467163796E-04 +2.88293352137E-02 -4.77179180043E-01
4.24000000000E+09 -8.69099836266E-02 -4.31257620981E-01 +9.79402548799E-04 -1.59900822402E-04 +9.06855046842E-04 -1.94251178151E-04 +1.07750149391E-02 -4.68280863662E-01
4.24500000000E+09 -1.04258012784E-01 -4.18521884600E-01 +1.32390962424E-03 -5.85222478118E-04 +1.29881534597E-03 -5.40532560784E-04 -7.73842484042E-03 -4.58000693637E-01
4.25000000000E+09 -1.23304245116E-01 -4.04981761116E-01 +1.19482088564E-03 -1.12038489273E-03 +1.17458810186E-03 -1.12579815587E-03 -2.49564655499E-02 -4.46888156211E-01
4.25500000000E+09 -1.43239284043E-01 -3.91241121846E-01 +6.48655005647E-04 -1.39848643665E-03 +6.61232124868E-04 -1.38429834631E-03 -4.24861867608E-02 -4.36184724815E-01
4.26000000000E+09 -1.63504398997E-01 -3.78349121905E-01 +2.85045842665E-04 -1.25291820675E-03 +2.63520553395E-04 -1.20932197670E-03 -5.99785855495E-02 -4.23419408957E-01
4.26500000000E+09 -1.83299045542E-01 -3.65379672174E-01 +2.50901276739E-04 -1.26805725316E-03 +3.14258850391E-04 -1.20029203462E-03 -7.54023570295E-02 -4.10341972080E-01
4.27000000000E+09 -2.00964941537E-01 -3.52732653856E-01 +1.93319738934E-06 -1.37480135830E-03 +1.20943422271E-05 -1.29998859856E-03 -9.19789838869E-02 -3.97564474093E-01
4.27500000000E+09 -2.16447839828E-01 -3.40910379886E-01 -1.38789553948E-04 -1.03702052980E-03 -1.17568124279E-04 -1.02046385630E-03 -1.08303701763E-01 -3.83103819499E-01
4.28000000000E+09 -2.30310210575E-01 -3.28787480011E-01 -1.76532435743E-04 -1.02095119117E-03 -1.35980037279E-04 -1.02595328202E-03 -1.23668836032E-01 -3.68817288814E-01
4.28500000000E+09 -2.43216585692E-01 -3.14752820399E-01 -2.77564691301E-04 -9.59905445923E-04 -2.21967428181E-04 -9.85921821115E-04 -1.39460739329E-01 -3.54246636841E-01
4.29000000000E+09 -2.54165253698E-01 -2.98454027626E-01 -1.25669972924E-04 -1.02689096256E-03 -1.31705440138E-04 -1.08816989199E-03 -1.54601883701E-01 -3.38993148154E-01
4.29500000000E+09 -2.64568058179E-01 -2.80470246192E-01 -5.50758182475E-04 -1.37504467885E-03 -5.42098908053E-04 -1.39070742870E-03 -1.68674449315E-01 -3.22598368160E-01
4.30000000000E+09 -2.74785813180E-01 -2.60818162889E-01 -8.74682458832E-04 -8.97226468255E-04 -8.84173671549E-04 -9.18114873242E-04 -1.81071184071E-01 -3.05879850688E-01
4.30500000000E+09 -2.85691818725E-01 -2.40697835839E-01 -7.58589377000E-04 -1.01706819705E-03 -7.71995860458E-04 -1.03869589309E-03 -1.92863617239E-01 -2.89042737081E-01
4.31000000000E+09 -2.98102705470E-01 -2.20619951624E-01 -1.11079280358E-03 -8.94676887914E-04 -1.11978972804E-03 -9.51413832560E-04 -2.04137569326E-01 -2.71868099349E-01
4.31500000000E+09 -3.11762254563E-01 -2.00999403166E-01 -1.29380100177E-03 -4.73385477083E-04 -1.24369942064E-03 -5.25253449208E-04 -2.15045487454E-01 -2.54518817378E-01
4.32000000000E+09 -3.25786265492E-01 -1.81328440638E-01 -1.18570310258E-03 -2.70590947698E-04 -1.14073286732E-03 -3.47688072229E-04 -2.26093718672E-01 -2.36473556262E-01
4.32500000000E+09 -3.37884390899E-01 -1.62304382466E-01 -9.84558261634E-04 -1.04927002408E-05 -1.05974293102E-03 -5.31045705883E-05 -2.35385923099E-01 -2.17934858183E-01
4.33000000000E+09 -3.47273724718E-01 -1.44884177078E-01 -8.09095102337E-04 -1.54764780125E-04 -8.88818317864E-04 -1.40865357434E-04 -2.44966920446E-01 -1.99742035341E-01
4.33500000000E+09 -3.54694108145E-01 -1.28562846621E-01 -9.21158638224E-04 -1.84494558563E-04 -9.58998302683E-04 -1.67997123064E-04 -2.53819730784E-01 -1.79781400185E-01
4.34000000000E+09 -3.59798054420E-01 -1.12049694306E-01 -1.11332191955E-03 -2.78237953072E-05 -1.17814001474E-03 -2.59670917037E-05 -2.61055559116E-01 -1.59861638686E-01
4.34500000000E+09 -3.62321004164E-01 -9.49679572943E-02 -1.03118580367E-03 +2.11131265563E-04 -1.09057629960E-03 +2.05569637835E-04 -2.68792513208E-01 -1.40119965876E-01
4.35000000000E+09 -3.63931377519E-01 -7.71716936245E-02 -1.08094403502E-03 +4.43724985101E-04 -1.12560183138E-03 +5.03861915957E-04 -2.75580615691E-01 -1.19908805102E-01
4.35500000000E+09 -3.66522366147E-01 -5.62969973081E-02 -6.29660890383E-04 +6.46571113907E-04 -6.95170183324E-04 +7.01298776837E-04 -2.81549834728E-01 -1.00131379922E-01
4.36000000000E+09 -3.67870033598E-01 -3.31893674486E-02 -6.30155615122E-04 +1.65958034438E-04 -6.24749505039E-04 +1.24325296608E-04 -2.87031822745E-01 -8.04861857571E-02
4.36500000000E+09 -3.70011315465E-01 -9.45615884423E-03 -9.49659363746E-04 +5.38929171104E-04 -9.77519698188E-04 +6.08014184223E-04 -2.90961507374E-01 -6.04550897957E-02
4.37000000000E+09 -3.72947894484E-01 +1.42861730880E-02 -5.60299344471E-04 +5.24500927753E-04 -6.05996038684E-04 +6.15049228224E-04 -2.93947585308E-01 -4.14138577362E-02
4.37500000000E+09 -3.76533226538E-01 +3.63517928771E-02 -7.21743757283E-04 +6.41858970149E-04 -7.18386247416E-04 +7.35323017052E-04 -2.97385113741E-01 -2.11574313971E-02
4.38000000000E+09 -3.80905835762E-01 +5.63980390135E-02 -5.23552965433E-04 +9.02726971602E-04 -4.78810225263E-04 +9.43038818274E-04 -2.99040820303E-01 -4.47700019081E-05
4.38500000000E+09 -3.85108894088E-01 +7.44572245924E-02 -3.55685431546E-04 +7.45286812260E-04 -2.47691428166E-04 +7.52198415821E-04 -3.00080497360E-01 +2.04113639828E-02
4.39000000000E+09 -3.88742822709E-01 +9.08940576831E-02 -3.26669481245E-04 +6.39942345147E-04 -2.27282855387E-04 +6.42990879656E-04 -3.00564875458E-01 +4.13993496285E-02
4.39500000000E+09 -3.89469239121E-01 +1.06699286712E-01 -2.88878111585E-04 +8.17430978271E-04 -2.92479195005E-04 +8.34275654870E-04 -3.00768302176E-01 +6.07317555429E-02
4.40000000000E+09 -3.87206515186E-01 +1.21943356941E-01 -1.59676775216E-04 +6.18411390719E-04 -5.90931939945E-05 +5.84492673412E-04 -3.00327425951E-01 +8.07523737985E-02
4.40500000000E+09 -3.82927060841E-01 +1.36968500798E-01 -4.81530679427E-04 +6.92686122561E-04 -4.14747875765E-04 +6.97456668038E-04 -2.98382408114E-01 +1.00321553048E-01
4.41000000000E+09 -3.77481182115E-01 +1.53796698584E-01 -2.78262511332E-04 +1.22998293357E-03 -2.04202542169E-04 +1.20705070296E-03 -2.95917153998E-01 +1.19335421189E-01
4.41500000000E+09 -3.70725243084E-01 +1.72661373408E-01 +2.49501635564E-04 +1.00245723790E-03 +2.85258511920E-04 +9.35984454201E-04 -2.92448817804E-01 +1.38882187478E-01
4.42000000000E+09 -3.63764919862E-01 +1.93251015826E-01 +2.74920252309E-04 +9.89974796342E-04 +3.47381214224E-04 +9.34832585808E-04 -2.88067846121E-01 +1.58261067124E-01
4.42500000000E+09 -3.57285991847E-01 +2.14763419824E-01 +5.45565958381E-04 +6.41158413375E-04 +5.40306857652E-04 +5.29562529623E-04 -2.83587303682E-01 +1.76683247246E-01
4.43000000000E+09 -3.52211639774E-01 +2.35855139845E-01 +4.76973375902E-05 +5.26863786025E-04 +1.97389206544E-05 +4.34751060065E-04 -2.79448935302E-01 +1.94975104870E-01
4.43500000000E+09 -3.48725150182E-01 +2.56137524492E-01 +1.01768162703E-04 +8.00648145712E-04 +8.14253509618E-05 +7.78479452351E-04 -2.75637395777E-01 +2.12981316465E-01
4.44000000000E+09 -3.45832981011E-01 +2.75543706969E-01 +3.16036353444E-04 +9.13475973152E-04 +2.78555438096E-04 +9.17422469897E-04 -2.70502720655E-01 +2.32063935057E-01
4.44500000000E+09 -3.41885844278E-01 +2.92400467840E-01 +7.83397718840E-04 +1.15709422756E-03 +7.18548658069E-04 +1.10157976326E-03 -2.63278338410E-01 +2.49605827490E-01
4.45000000000E+09 -3.37210332021E-01 +3.05887326036E-01 +1.17542542946E-03 +5.11483850322E-04 +1.12221450715E-03 +5.36541877787E-04 -2.56071471286E-01 +2.65985800542E-01
4.45500000000E+09 -3.31624453700E-01 +3.18166966831E-01 +9.16525838571E-04 +1.99588242658E-04 +8.69936718716E-04 +2.31477026078E-04 -2.48065436123E-01 +2.82477533727E-01
4.46000000000E+09 -3.23816164146E-01 +3.29396761894E-01 +8.56278592974E-04 +9.97779481506E-06 +7.71208596391E-04 +7.52883680716E-05 -2.39915530383E-01 +2.98111338184E-01
4.46500000000E+09 -3.14876381288E-01 +3.41208786213E-01 +6.34601749659E-04 +2.90555416939E-05 +6.24035376001E-04 +5.64068273247E-05 -2.31403186289E-01 +3.13752802986E-01
4.47000000000E+09 -3.04027183438E-01 +3.55442023172E-01 +6.77553845982E-04 -2.03548783661E-04 +6.44274377666E-04 -8.29321013737E-05 -2.22340613256E-01 +3.28969000695E-01
4.47500000000E+09 -2.91174564693E-01 +3.71486500286E-01 +3.50989755046E-04 +7.83913581351E-06 +3.80057995793E-04 +7.00074510950E-05 -2.13804361604E-01 +3.43564027929E-01
4.48000000000E+09 -2.77543325674E-01 +3.87760402709E-01 +4.16166034025E-04 +1.07568402029E-04 +4.85379252634E-04 +1.54162741653E-04 -2.04554073019E-01 +3.58543338650E-01
4.48500000000E+09 -2.65585440767E-01 +4.04403208256E-01 +5.50909160935E-04 +1.97198344218E-04 +5.38817731268E-04 +2.08586338913E-04 -1.94350361019E-01 +3.72514434859E-01
4.49000000000E+09 -2.55442130218E-01 +4.20789619230E-01 +8.48141936353E-04 +1.34359465421E-04 +8.99216918864E-04 +1.65186024716E-04 -1.84105651876E-01 +3.85499416601E-01
4.49500000000E+09 -2.47737740153E-01 +4.36164082981E-01 +9.30299364385E-04 -3.39499861173E-04 +9.81828427732E-04 -3.64007818990E-04 -1.73966538127E-01 +3.98443286617E-01
4.50000000000E+09 -2.41925285243E-01 +4.50263900212E-01 +4.15164169662E-04 -3.46250370990E-04 +5.16836446492E-04 -4.19150261046E-04 -1.63244052333E-01 +4.10830176696E-01
4.50500000000E+09 -2.36292756849E-01 +4.62775091248E-01 +3.78961134164E-04 -5.37146883297E-04 +4.51677336843E-04 -5.71041837046E-04 -1.52798721901E-01 +4.22803547159E-01
4.51000000000E+09 -2.29892065883E-01 +4.72680334109E-01 -4.88339191162E-05 -2.22941423500E-04 -7.06565377329E-06 -2.87792998484E-04 -1.41783021945E-01 +4.34505580871E-01
4.51500000000E+09 -2.22176622558E-01 +4.80717631742E-01 +2.46158633518E-04 +1.51138769759E-04 +2.61431376145E-04 +3.95516174633E-05 -1.31472083696E-01 +4.45749746587E-01
4.52000000000E+09 -2.12482875043E-01 +4.87888095491E-01 +5.63551680876E-04 +1.09583906520E-04 +5.27508592784E-04 +1.75742865678E-05 -1.20716331656E-01 +4.56635408061E-01
4.52500000000E+09 -2.00316215700E-01 +4.94610915134E-01 +6.84762205740E-04 -8.73835737045E-05 +6.17791652449E-04 -1.10555396250E-04 -1.09010042793E-01 +4.67381447535E-01
4.53000000000E+09 -1.86536576275E-01 +5.01828604309E-01 +9.30941682465E-04 -5.16524632912E-04 +8.84519158014E-04 -5.55007656435E-04 -9.73643155973E-02 +4.76377955336E-01
4.53500000000E+09 -1.71742335543E-01 +5.10429563671E-01 +3.84429018959E-04 -6.53157237145E-04 +3.16543282763E-04 -7.10120173396E-04 -8.53225533186E-02 +4.86086260270E-01
4.54000000000E+09 -1.56778542926E-01 +5.20190938867E-01 +3.44918820955E-04 -4.34877676654E-04 +2.08726408802E-04 -4.92941140615E-04 -7.26350040824E-02 +4.95059107956E-01
4.54500000000E+09 -1.42143748837E-01 +5.31112546337E-01 +3.86423989215E-04 -5.58330637305E-04 +2.94168774255E-04 -5.40100006945E-04 -6.09622947558E-02 +5.03368499092E-01
4.55000000000E+09 -1.29186093592E-01 +5.41541748261E-01 +2.57725023639E-04 -7.17882086894E-04 +2.12652263640E-04 -6.94430914981E-04 -4.85179028647E-02 +5.12353001254E-01
4.55500000000E+09 -1.18610572180E-01 +5.51677674844E-01 +7.03376743478E-05 -5.74451311014E-04 -5.33778429136E-06 -5.21656553685E-04 -3.67862747835E-02 +5.20626156494E-01
4.56000000000E+09 -1.08821461273E-01 +5.60080171072E-01 +3.55197586458E-05 -3.40655174306E-04 -2.61750875100E-05 -2.72269273414E-04 -2.42729310575E-02 +5.28436492306E-01
4.56500000000E+09 -1.00589793743E-01 +5.66547016110E-01 +5.19501917460E-04 -3.95534644058E-04 +4.71196850215E-04 -3.77735272996E-04 -1.22894023555E-02 +5.35322040406E-01
4.57000000000E+09 -9.25845398971E-02 +5.71746501605E-01 +3.65781656732E-04 -9.95361609631E-04 +3.42721521947E-04 -9.00344951740E-04 -2.83649121370E-04 +5.42285097450E-01
