# Hz S RI R 50
! CMT, C1220, 16058040, 17.2.0/1
! Date: 15/08/2018 12:09:01
! Data: Format (Calibration Info)
! Freq                      S11: Re/Im (F2)                       S21: Re/Im (F2)                       S12: Re/Im (F2)                       S22: Re/Im (F2)            
4.00000000000E+09 +6.52362452423E-01 -3.57409840733E-01 -3.12131673218E-04 -6.14795367211E-04 -2.49860898665E-04 -6.09712155450E-04 +7.65989108323E-01 -3.21649286938E-01
4.00500000000E+09 +6.44141274082E-01 -3.63313510735E-01 -3.33208480649E-04 -4.16647772678E-04 -3.43386322042E-04 -3.96247056880E-04 +7.56400900768E-01 -3.32082404750E-01
4.01000000000E+09 +6.35347063557E-01 -3.68979270951E-01 -2.08278642124E-04 -3.37794890121E-04 -1.94518179683E-04 -3.97794342437E-04 +7.46586049813E-01 -3.42436447573E-01
4.01500000000E+09 +6.25816630593E-01 -3.75789471168E-01 -1.89150503324E-04 -5.33018679808E-04 -1.88572243988E-04 -5.52945909095E-04 +7.36894128216E-01 -3.51950871933E-01
4.02000000000E+09 +6.14897299900E-01 -3.84033578169E-01 -4.46814742541E-04 -5.90313135025E-04 -4.36985917764E-04 -6.42632230524E-04 +7.26682677524E-01 -3.62004879162E-01
4.02500000000E+09 +6.02996742253E-01 -3.93292256002E-01 -6.25168897667E-04 -4.49440472371E-04 -6.48487861203E-04 -4.98994734451E-04 +7.15870305285E-01 -3.71343978587E-01
4.03000000000E+09 +5.91191491160E-01 -4.03346212307E-01 -6.19284285388E-04 -2.45641736470E-04 -6.69977273699E-04 -2.72047403410E-04 +7.05393383008E-01 -3.80623678123E-01
4.03500000000E+09 +5.79852215589E-01 -4.14282684494E-01 -4.68793862957E-04 -1.67004858382E-04 -5.02058296013E-04 -2.38945730415E-04 +6.94233435778E-01 -3.90395803177E-01
4.04000000000E+09 +5.68791451765E-01 -4.25249475206E-01 -5.11967088495E-04 -9.17248426399E-05 -5.18420095653E-04 -1.42796486934E-04 +6.82986910109E-01 -4.00349853454E-01
4.04500000000E+09 +5.58104858513E-01 -4.35506089490E-01 -4.64841575082E-04 -1.99560106356E-04 -4.55967845116E-04 -2.48662704225E-04 +6.70864061863E-01 -4.10104970910E-01
4.05000000000E+09 +5.47236802294E-01 -4.44198801646E-01 -4.94079108629E-04 -1.86874019855E-04 -5.40054905923E-04 -2.23324241969E-04 +6.58647667199E-01 -4.18690468455E-01
4.05500000000E+09 +5.35885734771E-01 -4.50740487884E-01 -5.85745972042E-04 -2.39620967336E-04 -5.68256790636E-04 -2.75299561063E-04 +6.46631662105E-01 -4.27225892216E-01
4.06000000000E+09 +5.24310208390E-01 -4.55323996677E-01 -6.44691307402E-04 -1.65602188448E-04 -6.96175887151E-04 -1.67026901104E-04 +6.33962686072E-01 -4.35397043277E-01
4.06500000000E+09 +5.11904764063E-01 -4.58891495774E-01 -7.85789120915E-04 -1.26384574315E-04 -7.58893741413E-04 -7.39033135507E-05 +6.20646407000E-01 -4.43312686866E-01
4.07000000000E+09 +4.98570824491E-01 -4.62128510449E-01 -7.89896706123E-04 +5.75738039412E-05 -8.53290290719E-04 +1.02405291353E-04 +6.07158548469E-01 -4.51237763918E-01
4.07500000000E+09 +4.83886346247E-01 -4.66283322247E-01 -8.15078496692E-04 +1.68967232485E-04 -8.03207728326E-04 +1.61409500112E-04 +5.93255553936E-01 -4.59328246612E-01
4.08000000000E+09 +4.67472556392E-01 -4.71336609389E-01 -8.14167476512E-04 +3.42738824784E-04 -8.66699473138E-04 +3.50284806786E-04 +5.79575553736E-01 -4.66851473369E-01
4.08500000000E+09 +4.50244177693E-01 -4.76625942412E-01 -6.80459504025E-04 +5.06894990202E-04 -8.08100009320E-04 +5.39674390179E-04 +5.65490630599E-01 -4.74642117249E-01
4.09000000000E+09 +4.33177076663E-01 -4.82933319065E-01 -3.90933133623E-04 +4.81445993070E-04 -4.29807645955E-04 +4.90021101273E-04 +5.51201948450E-01 -4.81233335553E-01
4.09500000000E+09 +4.16000228677E-01 -4.90010133865E-01 -5.26052563789E-04 +3.37304111646E-04 -5.48788096373E-04 +3.46654178308E-04 +5.37183979527E-01 -4.87757803362E-01
4.10000000000E+09 +3.98340598753E-01 -4.96500556042E-01 -6.85166422981E-04 +3.49622394500E-04 -6.84758177930E-04 +3.36844250007E-04 +5.21170515663E-01 -4.93981700007E-01
4.10500000000E+09 +3.81361878080E-01 -5.00746901378E-01 -8.24571674160E-04 +7.14353496378E-04 -8.59312805100E-04 +6.93174227438E-04 +5.05339197931E-01 -4.99511659118E-01
4.11000000000E+09 +3.65153152569E-01 -5.03202016207E-01 -7.38009847122E-04 +1.06381978522E-03 -7.11730954947E-04 +1.06350929740E-03 +4.88909603075E-01 -5.05477483002E-01
4.11500000000E+09 +3.50137508908E-01 -5.03868478846E-01 -7.03552312021E-05 +1.24712549707E-03 -9.36946119347E-05 +1.24233585170E-03 +4.72232378388E-01 -5.10409373822E-01
4.12000000000E+09 +3.34839187895E-01 -5.04301122028E-01 +9.40021383013E-06 +7.19283797453E-04 -5.91566701725E-06 +6.83187728494E-04 +4.56451384611E-01 -5.15697984473E-01
4.12500000000E+09 +3.18805108571E-01 -5.04474747853E-01 -6.70036777207E-05 +6.66939391621E-04 -1.24046761063E-04 +7.55393889868E-04 +4.39272476353E-01 -5.20592634017E-01
4.13000000000E+09 +3.00948457873E-01 -5.05664100219E-01 -1.12520118541E-04 +8.18547829756E-04 -9.12272841239E-05 +7.80765227825E-04 +4.22367552067E-01 -5.24011853699E-01
4.13500000000E+09 +2.80759865514E-01 -5.07092419476E-01 -4.45008443349E-05 +7.62696339295E-04 -1.02074163955E-04 +7.71973969510E-04 +4.05295125764E-01 -5.27771813380E-01
4.14000000000E+09 +2.59859821451E-01 -5.08556402695E-01 +1.84279407038E-05 +1.01657784848E-03 -3.98466571886E-05 +1.11071616384E-03 +3.86712534291E-01 -5.30899423950E-01
4.14500000000E+09 +2.39019444298E-01 -5.10926642388E-01 +4.84815918509E-04 +9.76276732243E-04 +4.72724786898E-04 +9.90851632117E-04 +3.68669363285E-01 -5.33646565135E-01
4.15000000000E+09 +2.18483759842E-01 -5.14334854366E-01 +5.04856964142E-04 +6.80409714494E-04 +4.72444158949E-04 +7.10847560363E-04 +3.50296961566E-01 -5.36256585498E-01
4.15500000000E+09 +1.98335338098E-01 -5.17874041240E-01 +2.99206670875E-04 +7.25498398869E-04 +3.28467112312E-04 +7.93843789438E-04 +3.32012825586E-01 -5.37676561566E-01
4.16000000000E+09 +1.79113903473E-01 -5.20135811013E-01 +5.24763627326E-04 +7.04691740842E-04 +5.70446981554E-04 +7.62590726433E-04 +3.14536882685E-01 -5.38680378994E-01
4.16500000000E+09 +1.61297165103E-01 -5.20622791586E-01 +5.87914147357E-04 +5.82702110727E-04 +5.52789843156E-04 +6.38218957841E-04 +2.95988341330E-01 -5.39037886789E-01
4.17000000000E+09 +1.44730335920E-01 -5.18708130878E-01 +7.29861691865E-04 +7.51994499837E-04 +7.59306639010E-04 +7.60994794997E-04 +2.77089845516E-01 -5.38351271132E-01
4.17500000000E+09 +1.29459842149E-01 -5.15250970546E-01 +8.62909091692E-04 +1.30655439909E-04 +8.53710771309E-04 +1.87895215294E-04 +2.58115768854E-01 -5.37335577419E-01
4.18000000000E+09 +1.14197168022E-01 -5.10099293727E-01 +3.97822040548E-04 +2.25790993043E-04 +3.87506455039E-04 +2.60373162648E-04 +2.38439668570E-01 -5.35844292872E-01
4.18500000000E+09 +9.86363993389E-02 -5.04451531389E-01 +4.24646458390E-04 +6.14605127262E-04 +3.82782601506E-04 +5.46467986112E-04 +2.19246936790E-01 -5.33762632774E-01
4.19000000000E+09 +8.13423136593E-02 -4.98530510042E-01 +7.66373883745E-04 +5.98553157311E-04 +7.87425146569E-04 +6.90021830021E-04 +1.99991656127E-01 -5.31340415729E-01
4.19500000000E+09 +6.29985524373E-02 -4.92524901702E-01 +9.31775392534E-04 +5.29633068412E-04 +9.06577715293E-04 +5.56317895889E-04 +1.80978311371E-01 -5.28089127535E-01
4.20000000000E+09 +4.35406424570E-02 -4.87045120562E-01 +1.15427259105E-03 +3.67666504654E-04 +1.18782508558E-03 +3.67747441150E-04 +1.61397542927E-01 -5.24762094025E-01
4.20500000000E+09 +2.40118300453E-02 -4.81461763939E-01 +1.22557398073E-03 -1.07171445331E-04 +1.25013498095E-03 -5.73270279601E-05 +1.41313594914E-01 -5.19448569845E-01
4.21000000000E+09 +5.37627918397E-03 -4.76270846780E-01 +7.62560718208E-04 -2.51018672615E-04 +7.98760782526E-04 -2.28922701101E-04 +1.21816411433E-01 -5.13944752406E-01
4.21500000000E+09 -1.32689331182E-02 -4.70679190157E-01 +7.11713673119E-04 +1.09731638143E-04 +7.17927329268E-04 +1.24228671388E-04 +1.02332377793E-01 -5.08098672621E-01
4.22000000000E+09 -2.99708259519E-02 -4.63133733592E-01 +1.18163416912E-03 +1.11990051808E-04 +1.20750266333E-03 +1.00845986253E-04 +8.36160983959E-02 -5.01356715058E-01
4.22500000000E+09 -4.48065011733E-02 -4.54593519751E-01 +1.09223629061E-03 -3.46308223564E-04 +1.12433378487E-03 -3.69749748239E-04 +6.52010586741E-02 -4.95146398063E-01
4.23000000000E+09 -5.91067218875E-02 -4.44748709421E-01 +1.08956764001E-03 -4.75690163774E-04 +1.14354154021E-03 -5.13797775171E-04 +4.58662374371E-02 -4.87812054011E-01
4.23500000000E+09 -7.33299792413E-02 -4.33395753571E-01 +7.66305698460E-04 -5.43475761053E-04 +7.71143536996E-04 -5.94642069217E-04 +2.74828859323E-02 -4.78758030935E-01
4.24000000000E+09 -8.80669752139E-02 -4.21109432508E-01 +9.12068979791E-04 -4.82699189144E-04 +9.27886793086E-04 -4.72949134785E-04 +9.15519520091E-03 -4.69599009339E-01
4.24500000000E+09 -1.05127600861E-01 -4.08432043192E-01 +1.13446435672E-03 -5.85896688531E-04 +1.16517639825E-03 -5.79556003797E-04 -9.63874335440E-03 -4.59131688824E-01
4.25000000000E+09 -1.24310359777E-01 -3.94423112901E-01 +1.05141374397E-03 -1.04574812661E-03 +1.11714616286E-03 -1.09135043826E-03 -2.71238646300E-02 -4.47827803024E-01
4.25500000000E+09 -1.43763728808E-01 -3.79631380826E-01 +7.49378930446E-04 -1.32723444459E-03 +7.56339265204E-04 -1.32305308512E-03 -4.49036425848E-02 -4.37018592452E-01
4.26000000000E+09 -1.62751861995E-01 -3.66480232741E-01 +4.09016592055E-04 -1.28612437231E-03 +3.08644937491E-04 -1.28422223163E-03 -6.25210795527E-02 -4.24156534480E-01
4.26500000000E+09 -1.81817576799E-01 -3.53645358719E-01 +2.27371515277E-04 -1.21461999103E-03 +1.94596708760E-04 -1.17875757505E-03 -7.83581207531E-02 -4.11052719570E-01
4.27000000000E+09 -1.99394845242E-01 -3.41569898067E-01 +8.18631332959E-05 -1.10706332148E-03 +7.75265884119E-05 -1.11809226085E-03 -9.50442554223E-02 -3.97888934519E-01
4.27500000000E+09 -2.14829899178E-01 -3.29246228645E-01 +1.70402244125E-04 -8.96009321162E-04 +2.10105610255E-04 -8.82073579751E-04 -1.11338179830E-01 -3.83160460695E-01
4.28000000000E+09 -2.28186747446E-01 -3.16595550529E-01 +2.51625379923E-04 -1.36905060540E-03 +2.72459472894E-04 -1.35713080287E-03 -1.26829736375E-01 -3.68648830587E-01
4.28500000000E+09 -2.40008712387E-01 -3.02462580853E-01 -3.32487878866E-04 -1.30203039988E-03 -3.29828815517E-04 -1.31788784370E-03 -1.42567833835E-01 -3.53831657134E-01
4.29000000000E+09 -2.50001713968E-01 -2.86262199250E-01 -3.14543907770E-04 -1.06878894061E-03 -2.91324965156E-04 -1.07151831093E-03 -1.57725381715E-01 -3.38327826772E-01
4.29500000000E+09 -2.59363213735E-01 -2.68630053111E-01 -4.51525214577E-04 -1.16768539494E-03 -4.59863204105E-04 -1.21030894521E-03 -1.71910682536E-01 -3.22137968179E-01
4.30000000000E+09 -2.69042529409E-01 -2.49650624585E-01 -5.65911543819E-04 -8.97905945797E-04 -5.74010676301E-04 -8.73199763210E-04 -1.84666272787E-01 -3.05174615867E-01
4.30500000000E+09 -2.79736202414E-01 -2.29728300966E-01 -4.58425110993E-04 -1.05273686394E-03 -4.53534999594E-04 -1.04736087509E-03 -1.96754388983E-01 -2.88202709141E-01
4.31000000000E+09 -2.91582032777E-01 -2.09394990482E-01 -5.61174779548E-04 -1.13545916095E-03 -5.90574895996E-04 -1.15756281678E-03 -2.08306936654E-01 -2.70606934969E-01
4.31500000000E+09 -3.04072295754E-01 -1.89780577630E-01 -1.00274784920E-03 -1.08262450357E-03 -1.01103035194E-03 -1.12626787668E-03 -2.19132247441E-01 -2.52659138355E-01
4.32000000000E+09 -3.17050173871E-01 -1.70884896362E-01 -1.26573908876E-03 -8.47622051954E-04 -1.24952322358E-03 -8.77434782655E-04 -2.29944233882E-01 -2.34253519138E-01
4.32500000000E+09 -3.28616510766E-01 -1.52761014282E-01 -1.16337841381E-03 -4.14520521953E-04 -1.15333988334E-03 -4.17628745405E-04 -2.39328917935E-01 -2.15113764649E-01
4.33000000000E+09 -3.38022524619E-01 -1.35796704690E-01 -1.07067061152E-03 -3.73123746061E-04 -1.08759776473E-03 -3.30290213463E-04 -2.48560278858E-01 -1.96600529410E-01
4.33500000000E+09 -3.44661317781E-01 -1.19621516127E-01 -1.00907805089E-03 -2.08765688218E-04 -1.04757904396E-03 -2.22883859333E-04 -2.57405345549E-01 -1.76418736389E-01
4.34000000000E+09 -3.49036579880E-01 -1.04012017708E-01 -9.86026810061E-04 -2.94465451975E-04 -9.67605712227E-04 -3.11813014040E-04 -2.64831253752E-01 -1.56166787891E-01
4.34500000000E+09 -3.51068967056E-01 -8.77568143793E-02 -1.10046029071E-03 -2.47482202732E-04 -1.05953408009E-03 -1.95649032710E-04 -2.72278676390E-01 -1.35837243974E-01
4.35000000000E+09 -3.52533002737E-01 -7.04242116338E-02 -1.29560278388E-03 -1.72895049779E-04 -1.30089051945E-03 -1.08197643117E-04 -2.78439188612E-01 -1.15257833278E-01
4.35500000000E+09 -3.54620953797E-01 -5.07490104746E-02 -1.27391404123E-03 +1.71423677982E-04 -1.29767287126E-03 +1.82289501932E-04 -2.83853184740E-01 -9.51827732811E-02
4.36000000000E+09 -3.56402590375E-01 -2.80081462310E-02 -1.25695623454E-03 -1.79840922404E-05 -1.27295297366E-03 +1.01546203908E-05 -2.88659753448E-01 -7.55256908024E-02
4.36500000000E+09 -3.58092558317E-01 -4.44406548465E-03 -1.44238553654E-03 +4.99976133344E-04 -1.48013877795E-03 +5.12170500926E-04 -2.92587164703E-01 -5.54063629501E-02
4.37000000000E+09 -3.60298129051E-01 +1.87933980577E-02 -1.13682309290E-03 +7.03422130750E-04 -1.18153483657E-03 +7.25182563285E-04 -2.94999475824E-01 -3.59092227097E-02
4.37500000000E+09 -3.63492193267E-01 +3.95873555268E-02 -9.40681445631E-04 +8.86480682928E-04 -8.86709165607E-04 +9.64432374968E-04 -2.97634522318E-01 -1.56721311420E-02
4.38000000000E+09 -3.68384837569E-01 +5.88402646703E-02 -6.24932848710E-04 +8.08400982963E-04 -5.80028729022E-04 +7.87507048767E-04 -2.98866287306E-01 +4.87404282025E-03
4.38500000000E+09 -3.72912352070E-01 +7.65518536658E-02 -5.84226652126E-04 +5.43117222575E-04 -6.21699733042E-04 +5.47218602345E-04 -2.99725099875E-01 +2.50827637321E-02
4.39000000000E+09 -3.76413260390E-01 +9.28718167191E-02 -1.00645344073E-03 +5.46926047543E-04 -9.41857616547E-04 +5.50578103179E-04 -2.99930423615E-01 +4.59610837088E-02
4.39500000000E+09 -3.76446013365E-01 +1.08136394676E-01 -9.58531872935E-04 +1.15410059607E-03 -9.16363710155E-04 +1.18680941759E-03 -2.99792219650E-01 +6.51250483641E-02
4.40000000000E+09 -3.74065026200E-01 +1.22265222433E-01 -6.03632182758E-04 +1.14386725629E-03 -5.36043924214E-04 +1.19440005125E-03 -2.99043238231E-01 +8.48146905625E-02
4.40500000000E+09 -3.70045708036E-01 +1.36129177105E-01 -5.19708454904E-04 +1.28738264523E-03 -5.48226732830E-04 +1.27049737068E-03 -2.96969070152E-01 +1.04142960757E-01
4.41000000000E+09 -3.65313788744E-01 +1.52309933006E-01 -1.23578727351E-04 +1.48048371118E-03 -1.44211630528E-05 +1.49091889880E-03 -2.94586945589E-01 +1.23080482951E-01
4.41500000000E+09 -3.58896096209E-01 +1.71122806501E-01 +2.46245157529E-04 +1.10082057654E-03 +2.22583841921E-04 +1.01512357805E-03 -2.90880829110E-01 +1.42501050740E-01
4.42000000000E+09 -3.51992281176E-01 +1.91624001503E-01 +1.09428716654E-04 +1.00268293953E-03 +1.22004267726E-04 +9.69457097730E-04 -2.86391053633E-01 +1.61619940570E-01
4.42500000000E+09 -3.45074054608E-01 +2.12705181026E-01 +2.38811838583E-04 +8.16499053184E-04 +2.60217318143E-04 +7.82075655954E-04 -2.81649485099E-01 +1.79902866271E-01
4.43000000000E+09 -3.40132566529E-01 +2.33062359295E-01 -1.76025770998E-04 +7.92132461290E-04 -1.56015148000E-04 +7.83438317480E-04 -2.77427831932E-01 +1.97802217746E-01
4.43500000000E+09 -3.36919294438E-01 +2.52462510766E-01 -1.48611215456E-04 +1.24997930679E-03 -1.11380464757E-04 +1.26614449188E-03 -2.73285760734E-01 +2.15680846769E-01
4.44000000000E+09 -3.34714243386E-01 +2.71726648259E-01 +4.37674436960E-04 +1.34333461016E-03 +3.57371551520E-04 +1.30230124200E-03 -2.68193045629E-01 +2.34476001738E-01
4.44500000000E+09 -3.30891469231E-01 +2.88366058882E-01 +8.20615116110E-04 +1.30445850943E-03 +8.06008548518E-04 +1.30443409545E-03 -2.60680959885E-01 +2.51905786411E-01
4.45000000000E+09 -3.26372857077E-01 +3.01864253192E-01 +1.08057556466E-03 +7.03694532465E-04 +1.11133545357E-03 +6.94563537689E-04 -2.53283367044E-01 +2.67964856118E-01
4.45500000000E+09 -3.20736594299E-01 +3.13691601141E-01 +8.25527898178E-04 +4.57808090481E-04 +8.26437457557E-04 +4.18883267199E-04 -2.45136584339E-01 +2.83899842304E-01
4.46000000000E+09 -3.13434282768E-01 +3.24675822492E-01 +6.03678487731E-04 +2.78355510875E-04 +6.32495003997E-04 +2.32729607635E-04 -2.37050885124E-01 +2.98852682764E-01
4.46500000000E+09 -3.04834987046E-01 +3.36184177319E-01 +4.38843504834E-04 +5.11953821683E-04 +4.47206863889E-04 +4.99962079873E-04 -2.28995345336E-01 +3.13898960173E-01
4.47000000000E+09 -2.94707225915E-01 +3.50161881583E-01 +5.93203460659E-04 +4.31034853389E-04 +6.24582586357E-04 +4.47381372441E-04 -2.20305130109E-01 +3.28877427779E-01
4.47500000000E+09 -2.82205289880E-01 +3.66210726565E-01 +5.82563490544E-04 +6.47764201766E-04 +6.13550650585E-04 +6.01233690940E-04 -2.12033700545E-01 +3.43192844364E-01
4.48000000000E+09 -2.69127259988E-01 +3.82549125660E-01 +7.65997929852E-04 +5.53213115460E-04 +7.71998368925E-04 +5.07079075518E-04 -2.03380955820E-01 +3.58078024611E-01
4.48500000000E+09 -2.57369333701E-01 +3.98722912263E-01 +8.04022538276E-04 +7.44833923193E-04 +8.12071317938E-04 +7.05852438746E-04 -1.93470286353E-01 +3.72187332662E-01
4.49000000000E+09 -2.48091995772E-01 +4.14532616774E-01 +1.30945109723E-03 +4.64419254108E-04 +1.29281181077E-03 +4.43213401981E-04 -1.83414255713E-01 +3.85530932198E-01
4.49500000000E+09 -2.41191784253E-01 +4.29755255399E-01 +1.33799762531E-03 -2.06325339310E-04 +1.35447795829E-03 -1.72906036003E-04 -1.73404485113E-01 +3.98135716554E-01
4.50000000000E+09 -2.35666489620E-01 +4.44040568794E-01 +7.29925930150E-04 -2.12612890221E-04 +7.54551315668E-04 -1.84010491100E-04 -1.62756701365E-01 +4.10545413296E-01
4.50500000000E+09 -2.30080485604E-01 +4.56065245133E-01 +7.85846381723E-04 -2.53049039697E-04 +7.67686478908E-04 -2.30124174644E-04 -1.52700752627E-01 +4.22395123851E-01
4.51000000000E+09 -2.24135357835E-01 +4.65547335516E-01 +6.76965782778E-04 +5.01516111977E-05 +7.12460883014E-04 -1.41869674779E-06 -1.42075690897E-01 +4.34284648595E-01
4.51500000000E+09 -2.16803860848E-01 +4.73247050552E-01 +9.20873166706E-04 -4.06136213819E-05 +9.17303427148E-04 -7.46048351260E-05 -1.31929388109E-01 +4.45714883001E-01
4.52000000000E+09 -2.07820690332E-01 +4.80319453315E-01 +1.05786589912E-03 -2.19498086463E-04 +1.03510239169E-03 -2.40764876305E-04 -1.21184386389E-01 +4.56808773101E-01
4.52500000000E+09 -1.95905783230E-01 +4.87419363484E-01 +9.69276309628E-04 -2.83594220807E-04 +9.54956050884E-04 -3.10647298820E-04 -1.09633975947E-01 +4.67688925178E-01
4.53000000000E+09 -1.82220541363E-01 +4.94887791658E-01 +1.13777093368E-03 -6.59584297243E-04 +1.08508699723E-03 -7.19804643980E-04 -9.77059883508E-02 +4.76902607663E-01
4.53500000000E+09 -1.67429338342E-01 +5.03709307923E-01 +5.99009171743E-04 -6.82349579840E-04 +6.02554962624E-04 -6.74018072218E-04 -8.57124407338E-02 +4.86580775914E-01
4.54000000000E+09 -1.52549650045E-01 +5.13247748807E-01 +7.39194049995E-04 -5.81893755578E-04 +7.25880879356E-04 -5.75964539041E-04 -7.31310394261E-02 +4.95480243108E-01
4.54500000000E+09 -1.38550517691E-01 +5.23894037744E-01 +7.55722195497E-04 -8.36976586154E-04 +7.39729087942E-04 -8.02899016924E-04 -6.16433820958E-02 +5.03746538351E-01
4.55000000000E+09 -1.26342111981E-01 +5.34617930875E-01 +6.04657391831E-04 -9.26692846699E-04 +5.88806607922E-04 -9.15884687647E-04 -4.95637259028E-02 +5.12698577178E-01
4.55500000000E+09 -1.15824736724E-01 +5.44953561460E-01 +3.15218875097E-04 -8.28279554757E-04 +2.78139103557E-04 -8.37801036752E-04 -3.80209275666E-02 +5.21331317124E-01
4.56000000000E+09 -1.06446383324E-01 +5.53651483966E-01 +3.31254012755E-04 -7.77461480716E-04 +3.03844957746E-04 -7.24600250150E-04 -2.54226787167E-02 +5.29298217605E-01
4.56500000000E+09 -9.79662810321E-02 +5.60204625000E-01 +5.76649726321E-04 -8.22598763566E-04 +5.79935274865E-04 -8.05002746957E-04 -1.34429847424E-02 +5.36340647580E-01
4.57000000000E+09 -9.00422460267E-02 +5.64866160203E-01 +4.34533565386E-04 -1.31397050562E-03 +3.40846913161E-04 -1.27165898919E-03 -1.18180802437E-03 +5.43554470076E-01
