# Hz S RI R 50
! CMT, C1220, 16058040, 17.2.0/1
! Date: 15/08/2018 09:48:35
! Data: Format (Calibration Info)
! Freq                      S11: Re/Im (F2)                       S21: Re/Im (F2)                       S12: Re/Im (F2)                       S22: Re/Im (F2)            
2.50000000000E+09 +5.76830515714E-01 +6.68634584256E-01 -2.03651763444E-04 -1.62040175913E-03 -2.34162187245E-04 -1.69919644950E-03 +5.75296978576E-01 +7.18022414359E-01
2.50500000000E+09 +5.83703660692E-01 +6.61092322814E-01 -3.52131058088E-04 -1.64976090481E-03 -4.37794868334E-04 -1.69315525078E-03 +5.80729915813E-01 +7.12462791150E-01
2.51000000000E+09 +5.90957196157E-01 +6.53077722913E-01 -5.52899456034E-04 -1.72276142651E-03 -6.41712342443E-04 -1.63568378811E-03 +5.86168214844E-01 +7.07231312087E-01
2.51500000000E+09 +5.98282414026E-01 +6.44881641100E-01 -8.55810077345E-04 -1.64969660469E-03 -8.39428923698E-04 -1.62832780337E-03 +5.91327312288E-01 +7.01738905297E-01
2.52000000000E+09 +6.05168116908E-01 +6.36135920860E-01 -1.08952414683E-03 -1.49775118125E-03 -1.01685534924E-03 -1.51995082002E-03 +5.96723474783E-01 +6.95502876042E-01
2.52500000000E+09 +6.11371094122E-01 +6.27622305373E-01 -1.18413083587E-03 -1.31566647137E-03 -1.17651208731E-03 -1.37257222745E-03 +6.02518847894E-01 +6.88948778450E-01
2.53000000000E+09 +6.17128674348E-01 +6.19345024155E-01 -1.26127710769E-03 -1.23251378156E-03 -1.27818837904E-03 -1.26774193053E-03 +6.08830135859E-01 +6.81780937237E-01
2.53500000000E+09 +6.22208116761E-01 +6.11174150600E-01 -1.36292771681E-03 -1.15363154164E-03 -1.39751560620E-03 -1.17709871347E-03 +6.14645179987E-01 +6.75166400150E-01
2.54000000000E+09 +6.26685387496E-01 +6.03131175420E-01 -1.58013453169E-03 -1.08473449117E-03 -1.49480835660E-03 -1.09869919106E-03 +6.20443780551E-01 +6.68747016290E-01
2.54500000000E+09 +6.31093528261E-01 +5.95812027613E-01 -1.63789106600E-03 -9.44395523400E-04 -1.57322401047E-03 -1.08524106726E-03 +6.26082377646E-01 +6.62282286912E-01
2.55000000000E+09 +6.35994955111E-01 +5.88664016035E-01 -1.80611262816E-03 -7.07292310332E-04 -1.87969480121E-03 -9.40582845609E-04 +6.31151057265E-01 +6.55721661318E-01
2.55500000000E+09 +6.41612638079E-01 +5.80917614763E-01 -1.85236854818E-03 -5.23756402855E-04 -2.12077873541E-03 -6.86358391150E-04 +6.36416093835E-01 +6.49119858507E-01
2.56000000000E+09 +6.47810492757E-01 +5.73111762638E-01 -1.79510247557E-03 -3.07834920545E-04 -2.17125832533E-03 -2.03930099226E-04 +6.41970506656E-01 +6.41644401608E-01
2.56500000000E+09 +6.54717245188E-01 +5.64315105158E-01 -1.73578480288E-03 -3.02865582424E-04 -1.97064194871E-03 +2.40821594938E-05 +6.47717980689E-01 +6.34070372174E-01
2.57000000000E+09 +6.61731143717E-01 +5.55289734224E-01 -1.84747666415E-03 -2.29627734845E-04 -1.83036231826E-03 +1.76762248844E-04 +6.53062241001E-01 +6.26513549882E-01
2.57500000000E+09 +6.68734175543E-01 +5.45697389882E-01 -1.91762633966E-03 -7.40449465170E-05 -1.70290966478E-03 +2.04471557934E-04 +6.58274916124E-01 +6.19133142805E-01
2.58000000000E+09 +6.75130657207E-01 +5.35848710321E-01 -2.07696145041E-03 +1.47836856094E-04 -1.73253572251E-03 +2.00754662636E-04 +6.63080361437E-01 +6.11785482364E-01
2.58500000000E+09 +6.80907606687E-01 +5.25870751416E-01 -1.98528771568E-03 +5.30672907130E-04 -1.74197945626E-03 +3.83282328596E-04 +6.67745334192E-01 +6.04181700389E-01
2.59000000000E+09 +6.86183706659E-01 +5.16408986397E-01 -1.70965496895E-03 +5.03423572549E-04 -1.65382783139E-03 +3.50858483455E-04 +6.72655276994E-01 +5.96200164053E-01
2.59500000000E+09 +6.91022513156E-01 +5.06735587717E-01 -1.81775441364E-03 +3.80173753915E-04 -1.89154143720E-03 +2.88305305295E-04 +6.77736717268E-01 +5.87602092459E-01
2.60000000000E+09 +6.94900811001E-01 +4.97250269102E-01 -2.05691627156E-03 +5.20515549483E-04 -2.05309573023E-03 +4.65091725663E-04 +6.82604782726E-01 +5.79070116057E-01
2.60500000000E+09 +6.99127338640E-01 +4.87511210175E-01 -2.20103325713E-03 +8.92251329459E-04 -2.26120871139E-03 +8.80786982787E-04 +6.87777600767E-01 +5.70584462709E-01
2.61000000000E+09 +7.03300993944E-01 +4.77336149092E-01 -2.24217251303E-03 +1.32592918570E-03 -2.23518417512E-03 +1.30676771206E-03 +6.92626737538E-01 +5.62162340902E-01
2.61500000000E+09 +7.07921211455E-01 +4.66611565356E-01 -1.89799027776E-03 +1.83318851922E-03 -1.98279290700E-03 +1.78261159653E-03 +6.97017609095E-01 +5.53912537228E-01
2.62000000000E+09 +7.12799916591E-01 +4.54761165183E-01 -1.51268251750E-03 +1.74748068442E-03 -1.54979452091E-03 +1.86194660091E-03 +7.01672187260E-01 +5.45008502868E-01
2.62500000000E+09 +7.17481425325E-01 +4.41733726861E-01 -1.52869721131E-03 +1.58377237640E-03 -1.43078759525E-03 +1.80626878655E-03 +7.06464419447E-01 +5.35729597285E-01
2.63000000000E+09 +7.22096420565E-01 +4.28205789145E-01 -1.53273984018E-03 +1.90667849524E-03 -1.27711886896E-03 +1.99487191358E-03 +7.11185712517E-01 +5.26366720188E-01
2.63500000000E+09 +7.26064733241E-01 +4.14256664516E-01 -1.49622530118E-03 +2.04379864930E-03 -1.14860448400E-03 +1.98013128610E-03 +7.16408967141E-01 +5.17125652338E-01
2.64000000000E+09 +7.29565058969E-01 +4.00458601511E-01 -1.44818107167E-03 +2.46020314232E-03 -1.19167363492E-03 +2.17924520072E-03 +7.21376006836E-01 +5.07596494005E-01
2.64500000000E+09 +7.32604695720E-01 +3.87370322105E-01 -8.20333299452E-04 +2.94164123572E-03 -9.06003530929E-04 +2.49171248262E-03 +7.25869094479E-01 +4.98262350958E-01
2.65000000000E+09 +7.35306204439E-01 +3.74995691135E-01 -3.29254753895E-04 +2.69495160967E-03 -6.19712060356E-04 +2.53882959365E-03 +7.30088575940E-01 +4.88709936149E-01
2.65500000000E+09 +7.38005327659E-01 +3.62628196756E-01 -1.48109655478E-04 +2.49450342199E-03 -4.19610914023E-04 +2.59253352799E-03 +7.34044242541E-01 +4.78319602223E-01
2.66000000000E+09 +7.40641496821E-01 +3.50825382837E-01 -2.33361629689E-04 +2.53650505924E-03 -3.53130577625E-04 +2.71831564928E-03 +7.38082163690E-01 +4.67227299106E-01
2.66500000000E+09 +7.43613042523E-01 +3.38804813768E-01 +2.15464671573E-05 +2.77302360440E-03 +1.10248477246E-04 +2.85926228071E-03 +7.42832922381E-01 +4.55879945435E-01
2.67000000000E+09 +7.46280642075E-01 +3.25749946373E-01 +4.46453031834E-04 +2.81969684396E-03 +4.81000086400E-04 +2.71883207028E-03 +7.47438467770E-01 +4.44497937906E-01
2.67500000000E+09 +7.48449381087E-01 +3.12258150016E-01 +6.69260627067E-04 +2.69204989911E-03 +6.90995075016E-04 +2.48638580927E-03 +7.51282859610E-01 +4.33167479587E-01
2.68000000000E+09 +7.50260888950E-01 +2.97704579298E-01 +8.42474341119E-04 +2.52412463810E-03 +6.93849454670E-04 +2.40334238601E-03 +7.55098397426E-01 +4.22785154402E-01
2.68500000000E+09 +7.51341605888E-01 +2.82337725488E-01 +7.81564111100E-04 +2.50000488127E-03 +6.77914324722E-04 +2.50621363697E-03 +7.58302690717E-01 +4.11323671201E-01
2.69000000000E+09 +7.51733146135E-01 +2.66826158044E-01 +9.67462405449E-04 +2.75330736351E-03 +9.23848177265E-04 +2.72475523815E-03 +7.60849683413E-01 +3.99219636459E-01
2.69500000000E+09 +7.51839165308E-01 +2.51500768248E-01 +1.45739206114E-03 +2.80824186749E-03 +1.50366024806E-03 +2.74682252319E-03 +7.63711891353E-01 +3.86299896182E-01
2.70000000000E+09 +7.52109543203E-01 +2.35921804644E-01 +1.88092713423E-03 +2.70670055085E-03 +1.80110758836E-03 +2.59261151788E-03 +7.66723558326E-01 +3.72812399245E-01
2.70500000000E+09 +7.52013352308E-01 +2.20770404012E-01 +2.16341319574E-03 +2.16938213170E-03 +2.06316219002E-03 +2.24834383833E-03 +7.69784724196E-01 +3.59188161781E-01
2.71000000000E+09 +7.52114245550E-01 +2.05997353510E-01 +2.13201461440E-03 +1.96371879768E-03 +2.10312717152E-03 +2.07707697730E-03 +7.72526726419E-01 +3.46516403015E-01
2.71500000000E+09 +7.52762949823E-01 +1.91044932222E-01 +2.00845259540E-03 +1.98233725610E-03 +2.11762127768E-03 +2.14284834338E-03 +7.75362511716E-01 +3.34076332362E-01
2.72000000000E+09 +7.53200075786E-01 +1.76140496210E-01 +2.25684549539E-03 +2.21197459775E-03 +2.50352645229E-03 +2.21208409410E-03 +7.77596517030E-01 +3.20951131616E-01
2.72500000000E+09 +7.53710433843E-01 +1.60709753269E-01 +2.86123279771E-03 +2.08222503046E-03 +2.96299426517E-03 +1.75878575678E-03 +7.78545931061E-01 +3.07031749302E-01
2.73000000000E+09 +7.53545110746E-01 +1.44661736923E-01 +2.91836045481E-03 +1.74761193300E-03 +2.80281316883E-03 +1.37814108227E-03 +7.80043093387E-01 +2.92838158901E-01
2.73500000000E+09 +7.52448354744E-01 +1.27877813419E-01 +3.10875681537E-03 +1.75862131343E-03 +2.68093035825E-03 +1.52178350243E-03 +7.81117338308E-01 +2.77811930210E-01
2.74000000000E+09 +7.50292871877E-01 +1.10793645154E-01 +3.65972320468E-03 +1.63434246641E-03 +3.17701054201E-03 +1.72150322532E-03 +7.82882508407E-01 +2.62925027922E-01
2.74500000000E+09 +7.46683875220E-01 +9.31407196919E-02 +3.88991380751E-03 +1.10246267425E-03 +3.60473126208E-03 +1.53456684880E-03 +7.84002725363E-01 +2.47568266661E-01
2.75000000000E+09 +7.41679861306E-01 +7.56028512737E-02 +4.13387869598E-03 +9.84223299031E-04 +4.10993466352E-03 +1.40468703923E-03 +7.84530193105E-01 +2.32676760614E-01
2.75500000000E+09 +7.35965692889E-01 +5.81922244090E-02 +4.46804007089E-03 +4.57921114388E-04 +4.70925120187E-03 +7.76455485264E-04 +7.83957332386E-01 +2.17504113259E-01
2.76000000000E+09 +7.30038360819E-01 +4.09023179510E-02 +4.55503482145E-03 +1.38286962401E-04 +4.89501379769E-03 +1.45751681718E-04 +7.83620621606E-01 +2.01712233916E-01
2.76500000000E+09 +7.24205509526E-01 +2.35913258999E-02 +4.85357368512E-03 -2.41903872895E-04 +5.13813488386E-03 -3.53306693608E-04 +7.82472871255E-01 +1.84393131182E-01
2.77000000000E+09 +7.19068664189E-01 +5.83150749272E-03 +5.37471222889E-03 -1.01225723901E-03 +5.55997715704E-03 -1.13585946717E-03 +7.81606137722E-01 +1.66608007823E-01
2.77500000000E+09 +7.14186560064E-01 -1.29565478255E-02 +5.13682142549E-03 -2.13973543940E-03 +5.21286536807E-03 -2.42092854621E-03 +7.79676762065E-01 +1.48553352090E-01
2.78000000000E+09 +7.09441737142E-01 -3.22523107382E-02 +4.51200158045E-03 -2.48773815100E-03 +4.51194181198E-03 -2.74970044518E-03 +7.77627067847E-01 +1.31202587148E-01
2.78500000000E+09 +7.04663575989E-01 -5.26990489005E-02 +4.48041619590E-03 -2.68619802394E-03 +4.23822849606E-03 -2.97394938881E-03 +7.75379585769E-01 +1.14010350805E-01
2.79000000000E+09 +6.98963614460E-01 -7.42898188762E-02 +4.52926856877E-03 -3.22051476071E-03 +4.18903108468E-03 -3.28050540235E-03 +7.72188210967E-01 +9.61465749726E-02
2.79500000000E+09 +6.91347698743E-01 -9.52152630162E-02 +4.32498465095E-03 -3.73635547186E-03 +4.04219779100E-03 -3.56846336719E-03 +7.67721466229E-01 +7.75923678245E-02
2.80000000000E+09 +6.82460536872E-01 -1.15177560392E-01 +4.44770472843E-03 -4.58284226037E-03 +4.40884737416E-03 -4.22382638573E-03 +7.62392725062E-01 +5.82086191166E-02
2.80500000000E+09 +6.73163836808E-01 -1.34187989337E-01 +3.63904038654E-03 -5.80781860740E-03 +3.91857093935E-03 -5.61909746624E-03 +7.56422767772E-01 +3.94347130239E-02
2.81000000000E+09 +6.62694199648E-01 -1.52513471358E-01 +2.42357967712E-03 -5.81580892109E-03 +2.58521490093E-03 -5.94183272030E-03 +7.50885508643E-01 +2.00941580041E-02
2.81500000000E+09 +6.51492171059E-01 -1.70184962150E-01 +2.18589163929E-03 -5.87885655866E-03 +2.09701295584E-03 -6.09740195825E-03 +7.44055196817E-01 +7.02587086343E-04
2.82000000000E+09 +6.39060632482E-01 -1.87833717715E-01 +1.79060499326E-03 -6.30734681490E-03 +1.46928189799E-03 -6.37568988886E-03 +7.36377599578E-01 -1.89344054504E-02
2.82500000000E+09 +6.25458512477E-01 -2.05490034161E-01 +1.02349609270E-03 -6.67303328203E-03 +8.22198569806E-04 -6.42411969145E-03 +7.26961002199E-01 -3.88645458261E-02
2.83000000000E+09 +6.10004567780E-01 -2.23622652734E-01 +4.78654998809E-04 -6.97056764570E-03 +4.65193970511E-04 -6.60276550604E-03 +7.16734984484E-01 -5.88391176930E-02
2.83500000000E+09 +5.93644619741E-01 -2.41666056331E-01 -5.39230982242E-04 -7.12671859300E-03 -3.41980976532E-04 -6.86370965256E-03 +7.06394389592E-01 -7.88998758283E-02
2.84000000000E+09 +5.75763202091E-01 -2.60435537499E-01 -1.00382835316E-03 -6.65397832188E-03 -8.19105596990E-04 -6.54157168764E-03 +6.95786783287E-01 -1.00291661261E-01
2.84500000000E+09 +5.55878594299E-01 -2.79926407130E-01 -9.53012896855E-04 -7.13208720215E-03 -8.36133904599E-04 -7.14138742431E-03 +6.83465702008E-01 -1.21530806428E-01
2.85000000000E+09 +5.34352938092E-01 -2.98799451358E-01 -1.94051975357E-03 -8.11998138527E-03 -1.99839013671E-03 -8.16343492269E-03 +6.69332182459E-01 -1.42386727176E-01
2.85500000000E+09 +5.12051830980E-01 -3.17110516738E-01 -3.82051185727E-03 -8.35021647902E-03 -3.76447158591E-03 -8.19695935256E-03 +6.54167060380E-01 -1.62024429832E-01
2.86000000000E+09 +4.88673727965E-01 -3.35453455296E-01 -5.33808956307E-03 -7.75338134816E-03 -5.20321215889E-03 -7.67021710125E-03 +6.38425415599E-01 -1.82537367705E-01
2.86500000000E+09 +4.64681958323E-01 -3.52429544953E-01 -6.82158064743E-03 -6.59965530974E-03 -6.74812727519E-03 -6.67157533205E-03 +6.21031640512E-01 -2.04106791605E-01
2.87000000000E+09 +4.39313310150E-01 -3.68953118882E-01 -7.29881442995E-03 -5.10615421196E-03 -7.39793819396E-03 -5.08976852839E-03 +6.00682339153E-01 -2.25737578005E-01
2.87500000000E+09 +4.13485539529E-01 -3.83011404552E-01 -7.07044602128E-03 -4.41413002945E-03 -7.18340588622E-03 -4.23554873625E-03 +5.79756276978E-01 -2.45197498365E-01
2.88000000000E+09 +3.88028810261E-01 -3.95813260750E-01 -7.50249835677E-03 -4.62388652801E-03 -7.47837859366E-03 -4.27674908208E-03 +5.58256772099E-01 -2.64394278601E-01
2.88500000000E+09 +3.62668769482E-01 -4.07837944661E-01 -9.24639935911E-03 -3.74374989568E-03 -8.80170163558E-03 -3.44875686065E-03 +5.35203521943E-01 -2.82763510246E-01
2.89000000000E+09 +3.36315293532E-01 -4.19996376926E-01 -9.55156765695E-03 -2.08016906683E-03 -9.00899903306E-03 -2.18473953068E-03 +5.09481671204E-01 -3.01108226975E-01
2.89500000000E+09 +3.07671314751E-01 -4.31357208280E-01 -9.72028741959E-03 -1.03772218644E-03 -9.38052929086E-03 -1.49867269561E-03 +4.81011279923E-01 -3.18420377430E-01
2.90000000000E+09 +2.76667749803E-01 -4.41443633168E-01 -1.00819811405E-02 +2.37188805689E-04 -1.01546734584E-02 -1.25143680123E-04 +4.50746004754E-01 -3.33187230900E-01
2.90500000000E+09 +2.42777528718E-01 -4.48884557262E-01 -9.63363558685E-03 +1.52540958886E-03 -9.79804227222E-03 +1.55833371532E-03 +4.21631734735E-01 -3.47861165674E-01
2.91000000000E+09 +2.08374734185E-01 -4.52936540493E-01 -9.69130098755E-03 +2.16499758153E-03 -9.58607158453E-03 +2.44148055641E-03 +3.90392565771E-01 -3.62726904794E-01
2.91500000000E+09 +1.73293504871E-01 -4.55334977180E-01 -9.90485070357E-03 +3.79048779366E-03 -9.37423012633E-03 +3.87115584111E-03 +3.56988443572E-01 -3.75011153013E-01
2.92000000000E+09 +1.37757558003E-01 -4.55196558371E-01 -8.74093534590E-03 +5.39531727505E-03 -8.22095633017E-03 +4.99124674164E-03 +3.22138306677E-01 -3.83818798081E-01
2.92500000000E+09 +1.02672317686E-01 -4.53140604449E-01 -7.74980990831E-03 +5.45291543260E-03 -7.51839508615E-03 +4.83249632824E-03 +2.86613508764E-01 -3.90031316816E-01
2.93000000000E+09 +6.80125059945E-02 -4.49972350042E-01 -7.98120525693E-03 +5.94281769137E-03 -8.14063051192E-03 +5.44876972665E-03 +2.50501847325E-01 -3.94643735033E-01
2.93500000000E+09 +3.26913204310E-02 -4.45603011843E-01 -7.64692048623E-03 +7.34560881428E-03 -7.98248936432E-03 +7.08623573488E-03 +2.13306705153E-01 -3.99478436967E-01
2.94000000000E+09 -2.59604355511E-03 -4.39059942622E-01 -6.86232201736E-03 +8.52404461292E-03 -7.07505404285E-03 +8.40066693732E-03 +1.73532725509E-01 -4.02976233640E-01
2.94500000000E+09 -3.80498942954E-02 -4.31126873991E-01 -5.82804831063E-03 +1.01169193936E-02 -6.02274359524E-03 +9.88060545023E-03 +1.32638417007E-01 -4.02441935561E-01
2.95000000000E+09 -7.44268603651E-02 -4.18714523471E-01 -3.56524091829E-03 +1.05590679100E-02 -3.96677643146E-03 +1.04058639544E-02 +9.27958595659E-02 -3.97205819359E-01
2.95500000000E+09 -1.08436103255E-01 -4.02434083772E-01 -2.27516371389E-03 +9.90433340500E-03 -2.76736066857E-03 +1.00666164814E-02 +5.50682615294E-02 -3.90493583619E-01
2.96000000000E+09 -1.40279202601E-01 -3.84702022035E-01 -2.19347870394E-03 +1.00577164105E-02 -2.39914539381E-03 +1.05164001300E-02 +1.50382209856E-02 -3.81909581841E-01
2.96500000000E+09 -1.72158735187E-01 -3.64783880423E-01 -1.34425745168E-03 +1.09234209489E-02 -1.11196337803E-03 +1.13169088966E-02 -2.61594596709E-02 -3.70247578223E-01
2.97000000000E+09 -2.02945620853E-01 -3.41745719645E-01 +1.21650551202E-04 +1.13835085743E-02 +5.47856212864E-04 +1.13842916634E-02 -6.68537766790E-02 -3.55065339051E-01
2.97500000000E+09 -2.32923023421E-01 -3.16699256602E-01 +1.33577104681E-03 +1.16885865331E-02 +1.45021493384E-03 +1.13516797505E-02 -1.06299049018E-01 -3.37339061787E-01
2.98000000000E+09 -2.62567710092E-01 -2.88872353731E-01 +3.59766708602E-03 +1.16564400045E-02 +3.18423147804E-03 +1.14889585573E-02 -1.43986726586E-01 -3.16569532946E-01
2.98500000000E+09 -2.90438818804E-01 -2.58122832425E-01 +4.99080904639E-03 +1.04659733972E-02 +4.61371108505E-03 +1.08164537391E-02 -1.80523194297E-01 -2.93090192215E-01
2.99000000000E+09 -3.15895002521E-01 -2.26281875903E-01 +5.50030697781E-03 +9.71324432476E-03 +5.62228970147E-03 +1.03006534001E-02 -2.15752689298E-01 -2.65956100824E-01
2.99500000000E+09 -3.40449963284E-01 -1.93231147662E-01 +6.29837924167E-03 +1.01791216056E-02 +6.95451707623E-03 +1.03608633584E-02 -2.49025348347E-01 -2.35964380970E-01
3.00000000000E+09 -3.61737902530E-01 -1.59231345246E-01 +8.69166657074E-03 +9.45080330559E-03 +9.18642060567E-03 +9.04232864626E-03 -2.79417264789E-01 -2.03425852631E-01
3.00500000000E+09 -3.81218690912E-01 -1.25939943386E-01 +9.53656426480E-03 +7.85723511877E-03 +9.53729224816E-03 +7.21763502677E-03 -3.07648920883E-01 -1.70439853073E-01
3.01000000000E+09 -3.99026758801E-01 -9.20398084674E-02 +1.07682361954E-02 +6.71607861386E-03 +1.02643153785E-02 +6.39908640648E-03 -3.33485338073E-01 -1.35541003527E-01
3.01500000000E+09 -4.14075914063E-01 -5.72443926666E-02 +1.14185312594E-02 +5.27473892171E-03 +1.10125496055E-02 +5.40049597010E-03 -3.56923007471E-01 -9.94264142095E-02
3.02000000000E+09 -4.25788953512E-01 -2.20661669032E-02 +1.20152171121E-02 +3.94548216812E-03 +1.18486921079E-02 +4.14004247459E-03 -3.76728233431E-01 -5.97687891949E-02
3.02500000000E+09 -4.34560400251E-01 +1.37635085256E-02 +1.24924842206E-02 +2.84825226925E-03 +1.24348892771E-02 +2.86914784586E-03 -3.91812350840E-01 -2.00189992492E-02
3.03000000000E+09 -4.39058124173E-01 +5.03258149074E-02 +1.33881840125E-02 +8.64647511064E-04 +1.32354114308E-02 +1.00110310817E-03 -4.04767055742E-01 +1.95122226561E-02
3.03500000000E+09 -4.39626060339E-01 +8.64685351919E-02 +1.33122799194E-02 -1.19342342920E-03 +1.32269601149E-02 -8.66819680491E-04 -4.15738049954E-01 +5.85487025018E-02
3.04000000000E+09 -4.37623559922E-01 +1.21194694220E-01 +1.27966047203E-02 -3.36016832682E-03 +1.32614457783E-02 -2.88867322765E-03 -4.24917111806E-01 +9.86462478309E-02
3.04500000000E+09 -4.34221461301E-01 +1.56121137714E-01 +1.17393599774E-02 -4.75077554981E-03 +1.24960831177E-02 -4.85736148059E-03 -4.30521593095E-01 +1.39408714306E-01
3.05000000000E+09 -4.28385357141E-01 +1.91290034398E-01 +1.09797648208E-02 -5.77154114115E-03 +1.13844800398E-02 -6.57149716019E-03 -4.31635497600E-01 +1.79316181976E-01
3.05500000000E+09 -4.21056293311E-01 +2.26069255826E-01 +1.02752929595E-02 -6.82835688203E-03 +9.92251168892E-03 -7.66525168828E-03 -4.31009429315E-01 +2.17107418772E-01
3.06000000000E+09 -4.11387905014E-01 +2.60845195935E-01 +9.68837015120E-03 -8.37454336407E-03 +8.87729573526E-03 -8.57330356415E-03 -4.29188189498E-01 +2.55476335565E-01
3.06500000000E+09 -3.99251178205E-01 +2.94134800250E-01 +8.27792145756E-03 -1.02240927142E-02 +7.70887941991E-03 -9.59369195437E-03 -4.24153027306E-01 +2.93266862584E-01
3.07000000000E+09 -3.86118611818E-01 +3.24112211061E-01 +5.91729618832E-03 -1.13075084530E-02 +6.40524862152E-03 -1.05100219899E-02 -4.17017665181E-01 +3.28860004972E-01
