# Hz S RI R 50
! CMT, C1220, 16058040, 17.2.0/1
! Date: 15/08/2018 09:47:29
! Data: Format (Calibration Info)
! Freq                      S11: Re/Im (F2)                       S21: Re/Im (F2)                       S12: Re/Im (F2)                       S22: Re/Im (F2)            
2.50000000000E+09 +5.77962720352E-01 +6.67052163464E-01 +1.32352977346E-04 -1.49174384095E-03 +2.24481944753E-04 -1.61172688297E-03 +5.75837785566E-01 +7.17557355249E-01
2.50500000000E+09 +5.84901214289E-01 +6.59395352058E-01 +4.42667890410E-05 -1.53460917561E-03 -2.74528890221E-05 -1.57617354547E-03 +5.81390359446E-01 +7.12019954022E-01
2.51000000000E+09 +5.92098065603E-01 +6.51298090717E-01 -1.36424225505E-04 -1.56401464648E-03 -1.91588234547E-04 -1.54445022403E-03 +5.86801423612E-01 +7.06758223614E-01
2.51500000000E+09 +5.99482664506E-01 +6.43032893627E-01 -2.83205327053E-04 -1.60051001666E-03 -2.75881845194E-04 -1.52497414928E-03 +5.91901384292E-01 +7.01232500135E-01
2.52000000000E+09 +6.06414576951E-01 +6.34218740914E-01 -4.61816468693E-04 -1.51754950877E-03 -4.33513199565E-04 -1.52904580144E-03 +5.97209986536E-01 +6.95138321715E-01
2.52500000000E+09 +6.12502713720E-01 +6.25700380562E-01 -5.36668157299E-04 -1.49541209044E-03 -5.41567707010E-04 -1.50204803704E-03 +6.03095410810E-01 +6.88504486894E-01
2.53000000000E+09 +6.18183756842E-01 +6.17366750866E-01 -6.60065059751E-04 -1.44473668439E-03 -6.98318990953E-04 -1.48225825979E-03 +6.09334398884E-01 +6.81295967119E-01
2.53500000000E+09 +6.23195946507E-01 +6.09102185557E-01 -8.27774975312E-04 -1.38162717818E-03 -8.62165830415E-04 -1.46379528605E-03 +6.15242984226E-01 +6.74624446021E-01
2.54000000000E+09 +6.27601224433E-01 +6.01119687201E-01 -9.53859402565E-04 -1.39899611880E-03 -9.37379441143E-04 -1.40891275210E-03 +6.20934195611E-01 +6.67888717288E-01
2.54500000000E+09 +6.31810871995E-01 +5.93844691661E-01 -1.12261289424E-03 -1.37277539763E-03 -9.87895072131E-04 -1.46663760952E-03 +6.26426317444E-01 +6.61628288775E-01
2.55000000000E+09 +6.36688527584E-01 +5.86653379125E-01 -1.29135841397E-03 -1.24524361637E-03 -1.25894474510E-03 -1.46089039768E-03 +6.31448314666E-01 +6.55165331459E-01
2.55500000000E+09 +6.42264018586E-01 +5.78973666817E-01 -1.50277830219E-03 -1.13911167778E-03 -1.62970694753E-03 -1.41396752675E-03 +6.36636994348E-01 +6.48526646927E-01
2.56000000000E+09 +6.48611753544E-01 +5.71148785983E-01 -1.53100994893E-03 -8.78230908261E-04 -1.88225586460E-03 -9.23512634389E-04 +6.42166699326E-01 +6.41159073350E-01
2.56500000000E+09 +6.55457497857E-01 +5.62506714471E-01 -1.51070896343E-03 -8.66937456525E-04 -1.80938389660E-03 -6.52064817209E-04 +6.47802685453E-01 +6.33629772796E-01
2.57000000000E+09 +6.62539592199E-01 +5.53569041151E-01 -1.68691663596E-03 -8.53242279555E-04 -1.76289190214E-03 -3.90494166872E-04 +6.53305195496E-01 +6.26073133115E-01
2.57500000000E+09 +6.69639769563E-01 +5.43863432690E-01 -1.76467486089E-03 -7.30666768124E-04 -1.68518555299E-03 -3.36954401828E-04 +6.58556536005E-01 +6.18736873218E-01
2.58000000000E+09 +6.76024917121E-01 +5.34204129037E-01 -2.01252150601E-03 -5.47829844339E-04 -1.68283828681E-03 -3.03638611919E-04 +6.63449725618E-01 +6.11370927786E-01
2.58500000000E+09 +6.81924249518E-01 +5.24150136362E-01 -2.00911042047E-03 -1.20836633980E-04 -1.72746306846E-03 -1.55096383127E-04 +6.67977212455E-01 +6.03744427105E-01
2.59000000000E+09 +6.87299270225E-01 +5.14538844513E-01 -1.70788786311E-03 -5.83540193192E-05 -1.65545796397E-03 -1.79936737361E-04 +6.73003157100E-01 +5.95912717510E-01
2.59500000000E+09 +6.91984858406E-01 +5.04711580902E-01 -1.84783963386E-03 -1.27704374447E-04 -1.86161495838E-03 -2.46640883877E-04 +6.78046209451E-01 +5.87277424201E-01
2.60000000000E+09 +6.95946950044E-01 +4.95236411596E-01 -2.08739120331E-03 -2.59688581696E-05 -2.10320740257E-03 -8.07873007277E-05 +6.83043948914E-01 +5.78772217118E-01
2.60500000000E+09 +7.00181055541E-01 +4.85482462801E-01 -2.23368523789E-03 +2.12599203972E-04 -2.24549145791E-03 +2.12515338607E-04 +6.88410853734E-01 +5.70268022494E-01
2.61000000000E+09 +7.04428144634E-01 +4.75227765137E-01 -2.48200700655E-03 +5.43603262367E-04 -2.40047493966E-03 +5.04738489226E-04 +6.93216223880E-01 +5.61486230735E-01
2.61500000000E+09 +7.09053136529E-01 +4.64181563726E-01 -2.22275223281E-03 +1.09817812313E-03 -2.27931937859E-03 +1.13232213087E-03 +6.97544856903E-01 +5.53293382369E-01
2.62000000000E+09 +7.13758312091E-01 +4.52344073337E-01 -1.77052577081E-03 +1.17274145089E-03 -1.86401730771E-03 +1.21781014395E-03 +7.02159684271E-01 +5.44407469881E-01
2.62500000000E+09 +7.18605304577E-01 +4.39052869278E-01 -1.75605841066E-03 +9.70728334671E-04 -1.80991473692E-03 +1.16901568203E-03 +7.07050497060E-01 +5.34925292844E-01
2.63000000000E+09 +7.22960079776E-01 +4.25450150215E-01 -1.89937126889E-03 +1.22207547139E-03 -1.69308573931E-03 +1.42292454151E-03 +7.11608111761E-01 +5.25563521556E-01
2.63500000000E+09 +7.26898170681E-01 +4.11615028176E-01 -1.95073550450E-03 +1.34225418404E-03 -1.64653143533E-03 +1.39691905777E-03 +7.16724171821E-01 +5.16309291270E-01
2.64000000000E+09 +7.30451951707E-01 +3.97685628618E-01 -2.09096537533E-03 +1.78566928224E-03 -1.76088725343E-03 +1.58421377543E-03 +7.21519588759E-01 +5.06877842350E-01
2.64500000000E+09 +7.33221521330E-01 +3.84501424228E-01 -1.61791637693E-03 +2.30628882866E-03 -1.57920625694E-03 +1.92517630595E-03 +7.25840869221E-01 +4.97581526594E-01
2.65000000000E+09 +7.35811202447E-01 +3.72288724837E-01 -1.16483663392E-03 +2.26210436513E-03 -1.32475012499E-03 +2.01009751038E-03 +7.30073565606E-01 +4.88128263703E-01
2.65500000000E+09 +7.38566639390E-01 +3.60038396568E-01 -1.02848903271E-03 +2.05629625861E-03 -1.27975526394E-03 +2.04945799086E-03 +7.33962285653E-01 +4.77648504524E-01
2.66000000000E+09 +7.41352530819E-01 +3.48371685346E-01 -1.20041962638E-03 +2.22013026276E-03 -1.33874330999E-03 +2.37014621311E-03 +7.37954308141E-01 +4.66637188679E-01
2.66500000000E+09 +7.44262205450E-01 +3.36239144950E-01 -1.03121485203E-03 +2.55049801490E-03 -9.40465539952E-04 +2.68520438195E-03 +7.42704251989E-01 +4.55465504600E-01
2.67000000000E+09 +7.46831757449E-01 +3.23233339576E-01 -6.64995186003E-04 +2.73430654800E-03 -4.31319668937E-04 +2.70050188931E-03 +7.47289696960E-01 +4.44299729943E-01
2.67500000000E+09 +7.48921399896E-01 +3.09640414767E-01 -3.64022334090E-04 +2.70713675725E-03 -2.62107167211E-04 +2.54360222365E-03 +7.51439787752E-01 +4.33086594040E-01
2.68000000000E+09 +7.50675154149E-01 +2.95056137760E-01 -2.53130201423E-04 +2.62384194194E-03 -2.80410687216E-04 +2.45871126744E-03 +7.55167299532E-01 +4.22673286729E-01
2.68500000000E+09 +7.51718476181E-01 +2.79654317676E-01 -3.39981306458E-04 +2.70914964484E-03 -4.35743337375E-04 +2.65893452283E-03 +7.58423360831E-01 +4.11159686388E-01
2.69000000000E+09 +7.52050393083E-01 +2.64175167049E-01 -1.34757373476E-04 +3.18580997378E-03 -1.03392694434E-04 +3.16933457563E-03 +7.60980245495E-01 +3.99244128686E-01
2.69500000000E+09 +7.52341138140E-01 +2.48599256591E-01 +5.04264240144E-04 +3.28216579320E-03 +5.26423570550E-04 +3.25903936806E-03 +7.64100791757E-01 +3.86344698706E-01
2.70000000000E+09 +7.52427335092E-01 +2.32824674249E-01 +9.19736521757E-04 +3.14722729018E-03 +8.72974141469E-04 +3.03516435602E-03 +7.67402174419E-01 +3.72737307102E-01
2.70500000000E+09 +7.52146633979E-01 +2.17703942838E-01 +1.27528631695E-03 +2.84010682658E-03 +1.07336127024E-03 +2.83884839829E-03 +7.70456743477E-01 +3.58932562376E-01
2.71000000000E+09 +7.52144654676E-01 +2.02914150615E-01 +1.29978526364E-03 +2.65659875875E-03 +1.19849189334E-03 +2.80869820301E-03 +7.73270241673E-01 +3.46051752988E-01
2.71500000000E+09 +7.52873606594E-01 +1.88075438334E-01 +1.15722964477E-03 +2.78195944304E-03 +1.22202060567E-03 +2.92448657600E-03 +7.76103628582E-01 +3.33452873027E-01
2.72000000000E+09 +7.53345260462E-01 +1.73151182468E-01 +1.51787379182E-03 +3.13579268657E-03 +1.81052711419E-03 +3.29536042395E-03 +7.78216115500E-01 +3.20519804731E-01
2.72500000000E+09 +7.53861648064E-01 +1.57750892677E-01 +2.17891965787E-03 +3.03176282756E-03 +2.44052148241E-03 +2.76557998324E-03 +7.79362197064E-01 +3.06424514996E-01
2.73000000000E+09 +7.53797375428E-01 +1.41861504002E-01 +2.30996402496E-03 +2.81891016767E-03 +2.30334456808E-03 +2.40800918455E-03 +7.80556018441E-01 +2.91980736159E-01
2.73500000000E+09 +7.52760862067E-01 +1.24864783629E-01 +2.55002972991E-03 +2.98726588631E-03 +2.24016279938E-03 +2.57691418977E-03 +7.81412050120E-01 +2.76952012355E-01
2.74000000000E+09 +7.50462899677E-01 +1.07669554707E-01 +3.34151121907E-03 +2.94423193039E-03 +2.76350230434E-03 +2.87799349293E-03 +7.83244534575E-01 +2.62356514049E-01
2.74500000000E+09 +7.46587320560E-01 +8.98056494480E-02 +3.71348470447E-03 +2.38512855254E-03 +3.25146297308E-03 +2.74249666609E-03 +7.84748738129E-01 +2.46754458456E-01
2.75000000000E+09 +7.41294436821E-01 +7.21551724064E-02 +4.00780104836E-03 +2.12025599663E-03 +3.95021913632E-03 +2.65670609664E-03 +7.84998617028E-01 +2.31428223244E-01
2.75500000000E+09 +7.35630644048E-01 +5.49191196161E-02 +4.30127311099E-03 +1.84301911412E-03 +4.46606232084E-03 +2.20678029770E-03 +7.83970312249E-01 +2.16282686562E-01
2.76000000000E+09 +7.29727169723E-01 +3.75303610523E-02 +4.62292048174E-03 +1.61238375045E-03 +4.92020412755E-03 +1.78609896719E-03 +7.83460476864E-01 +2.00993973611E-01
2.76500000000E+09 +7.23591639061E-01 +2.03167038830E-02 +5.07291957603E-03 +1.29402917200E-03 +5.36642923647E-03 +1.29838581186E-03 +7.82367917647E-01 +1.83866598191E-01
2.77000000000E+09 +7.18424951074E-01 +2.57210566875E-03 +5.75371854836E-03 +6.56880733814E-04 +5.97221700088E-03 +5.55712817153E-04 +7.81645681236E-01 +1.66113584197E-01
2.77500000000E+09 +7.13311690160E-01 -1.60862463903E-02 +5.96200918893E-03 -4.40321459232E-04 +6.17228917867E-03 -6.91252261369E-04 +7.79934146472E-01 +1.47979382225E-01
2.78000000000E+09 +7.08691798960E-01 -3.54212997229E-02 +5.67364817754E-03 -1.10680042540E-03 +5.68925966147E-03 -1.50930003446E-03 +7.77886531859E-01 +1.30523351749E-01
2.78500000000E+09 +7.03504151798E-01 -5.59029544356E-02 +5.53770055239E-03 -1.55463500305E-03 +5.39723830782E-03 -1.94304232037E-03 +7.75711280710E-01 +1.13107039761E-01
2.79000000000E+09 +6.97525714239E-01 -7.71372363750E-02 +5.67118323137E-03 -2.09255245827E-03 +5.26597622446E-03 -2.29010839660E-03 +7.72381261924E-01 +9.52040381561E-02
2.79500000000E+09 +6.89972517431E-01 -9.77424756601E-02 +5.60513750289E-03 -2.56860073945E-03 +5.24289435108E-03 -2.47114586916E-03 +7.67891255802E-01 +7.68297675843E-02
2.80000000000E+09 +6.81417990424E-01 -1.17744436741E-01 +5.88626173584E-03 -3.57854196293E-03 +5.75718650233E-03 -3.26450974555E-03 +7.62507063351E-01 +5.77326939804E-02
2.80500000000E+09 +6.72056106152E-01 -1.37071859941E-01 +5.34389100314E-03 -4.94039976433E-03 +5.47793852224E-03 -4.73350593060E-03 +7.56792031047E-01 +3.88850765655E-02
2.81000000000E+09 +6.61588960126E-01 -1.55687403743E-01 +4.20896131426E-03 -5.14536517702E-03 +4.39129535332E-03 -5.22152394400E-03 +7.51415555890E-01 +1.95303401984E-02
2.81500000000E+09 +6.49726742779E-01 -1.73276263037E-01 +4.03479994435E-03 -5.49276320192E-03 +4.03178780596E-03 -5.72323309127E-03 +7.44617835561E-01 -3.29517396974E-04
2.82000000000E+09 +6.36860553748E-01 -1.90670763083E-01 +3.72788691502E-03 -6.02030103559E-03 +3.40484892765E-03 -6.16028244230E-03 +7.36699413565E-01 -2.03655840087E-02
2.82500000000E+09 +6.23302930560E-01 -2.07717058318E-01 +3.14425849189E-03 -6.67213001904E-03 +2.80261857560E-03 -6.51309699429E-03 +7.27192360713E-01 -4.03384283279E-02
2.83000000000E+09 +6.08186790833E-01 -2.25865795399E-01 +2.42493685818E-03 -7.38824519286E-03 +2.34385816398E-03 -7.01016599092E-03 +7.16744677555E-01 -6.05445054618E-02
2.83500000000E+09 +5.91852950232E-01 -2.44143525883E-01 +1.12497173271E-03 -7.67412356697E-03 +1.30804748775E-03 -7.38383639215E-03 +7.05927891368E-01 -8.06315635730E-02
2.84000000000E+09 +5.73651271045E-01 -2.63101215967E-01 +6.17434343168E-04 -7.14196313806E-03 +8.09425385010E-04 -7.12276421611E-03 +6.95098005000E-01 -1.01552914445E-01
2.84500000000E+09 +5.53347573588E-01 -2.82333583699E-01 +8.43340529161E-04 -7.78576026200E-03 +9.44727109579E-04 -7.81975867284E-03 +6.83057491771E-01 -1.22824123450E-01
2.85000000000E+09 +5.31739523677E-01 -3.01124581769E-01 -2.42718294483E-04 -9.03931036908E-03 -2.49529185440E-04 -8.98229955645E-03 +6.68764675828E-01 -1.43916500373E-01
2.85500000000E+09 +5.09009818716E-01 -3.19365350488E-01 -2.05601959079E-03 -9.56202372750E-03 -2.04094505887E-03 -9.43511371348E-03 +6.52914867546E-01 -1.63689661761E-01
2.86000000000E+09 +4.85303755205E-01 -3.37511152126E-01 -3.83824530810E-03 -9.14744033382E-03 -3.68133850994E-03 -9.10043834250E-03 +6.36725160526E-01 -1.83761178538E-01
2.86500000000E+09 +4.60766781427E-01 -3.54056433646E-01 -5.61840338627E-03 -8.24418131708E-03 -5.52042245237E-03 -8.30512028207E-03 +6.18965804144E-01 -2.04902671159E-01
2.87000000000E+09 +4.35611350800E-01 -3.69749355720E-01 -6.20733948386E-03 -6.61272963771E-03 -6.31995796604E-03 -6.64450942360E-03 +5.98972142073E-01 -2.25792261204E-01
2.87500000000E+09 +4.10310966458E-01 -3.83520808296E-01 -5.83701607578E-03 -6.04826707463E-03 -6.01845738525E-03 -5.93321054381E-03 +5.78403824609E-01 -2.45209163547E-01
2.88000000000E+09 +3.85409268993E-01 -3.96664512041E-01 -6.39802209527E-03 -6.56917854153E-03 -6.43012423222E-03 -6.17785691139E-03 +5.56951762965E-01 -2.64346353172E-01
2.88500000000E+09 +3.59365056159E-01 -4.08784680956E-01 -8.32892883436E-03 -5.88056337648E-03 -7.99565514418E-03 -5.53037748668E-03 +5.34061860387E-01 -2.82383416221E-01
2.89000000000E+09 +3.32518173297E-01 -4.20375883826E-01 -8.88482151019E-03 -4.29752349830E-03 -8.29366236919E-03 -4.21959543137E-03 +5.08939115466E-01 -3.00636759171E-01
2.89500000000E+09 +3.03962704575E-01 -4.30696265822E-01 -9.26180233012E-03 -3.65347929822E-03 -8.83752087101E-03 -3.96164151360E-03 +4.80451863334E-01 -3.18198235436E-01
2.90000000000E+09 +2.73653465531E-01 -4.40164465470E-01 -1.00477752760E-02 -2.30952973338E-03 -9.97447317976E-03 -2.68004533446E-03 +4.50388681052E-01 -3.33320985756E-01
2.90500000000E+09 +2.40707273668E-01 -4.47254334751E-01 -9.85011152754E-03 -1.14431015935E-03 -1.00133813639E-02 -1.16108198794E-03 +4.21032001068E-01 -3.48281404892E-01
2.91000000000E+09 +2.06849143744E-01 -4.51869203266E-01 -1.00382026843E-02 -4.88949606763E-04 -1.00434864418E-02 -1.69891384216E-04 +3.89699181947E-01 -3.63014528094E-01
2.91500000000E+09 +1.71628889753E-01 -4.54307789794E-01 -1.06748078066E-02 +6.51867938572E-04 -1.01558260747E-02 +9.61401439329E-04 +3.56301060938E-01 -3.75083623891E-01
2.92000000000E+09 +1.36095640949E-01 -4.53957757555E-01 -1.03870069735E-02 +2.42569285001E-03 -9.71095291776E-03 +2.25027989953E-03 +3.21435914676E-01 -3.84278711097E-01
2.92500000000E+09 +1.01307121196E-01 -4.51581663331E-01 -9.90230558580E-03 +3.00191200371E-03 -9.49616342181E-03 +2.40824478300E-03 +2.85374735510E-01 -3.90095356128E-01
2.93000000000E+09 +6.68497472363E-02 -4.48318140033E-01 -1.02127931585E-02 +4.03795165820E-03 -1.01711408087E-02 +3.42455834214E-03 +2.49161834541E-01 -3.94768500672E-01
2.93500000000E+09 +3.20712222976E-02 -4.43863117323E-01 -1.01379796650E-02 +5.59057152163E-03 -1.03332973538E-02 +5.22085372940E-03 +2.11550350419E-01 -3.99131767659E-01
2.94000000000E+09 -2.81957024467E-03 -4.37650543858E-01 -9.41452193117E-03 +6.99611248127E-03 -9.54532520903E-03 +6.85227016560E-03 +1.71973537972E-01 -4.01922467278E-01
2.94500000000E+09 -3.86005540012E-02 -4.29485801920E-01 -8.64360478474E-03 +8.66360583375E-03 -8.74442693026E-03 +8.37045729321E-03 +1.31880472846E-01 -4.01201727515E-01
2.95000000000E+09 -7.43682578844E-02 -4.16782982201E-01 -6.96440538499E-03 +9.61176404645E-03 -7.34460573123E-03 +9.32792826807E-03 +9.20048137071E-02 -3.96543180268E-01
2.95500000000E+09 -1.07971760730E-01 -4.00785621778E-01 -5.77600669520E-03 +9.96040869316E-03 -6.34628164649E-03 +9.98814908163E-03 +5.39199967805E-02 -3.89418566863E-01
2.96000000000E+09 -1.40055747290E-01 -3.83561535358E-01 -5.19559486132E-03 +1.04309512416E-02 -5.62189730796E-03 +1.08164005808E-02 +1.40843102401E-02 -3.80562340564E-01
2.96500000000E+09 -1.72251056588E-01 -3.63296567378E-01 -4.27125913164E-03 +1.14975145578E-02 -4.20765691282E-03 +1.20949540679E-02 -2.67665972045E-02 -3.68277683055E-01
2.97000000000E+09 -2.03292694063E-01 -3.39795268960E-01 -2.72799148833E-03 +1.24051405603E-02 -2.29947057476E-03 +1.25318930921E-02 -6.67561268101E-02 -3.52996908563E-01
2.97500000000E+09 -2.32899640524E-01 -3.13797159640E-01 -1.18310978225E-03 +1.31208696609E-02 -9.75202916563E-04 +1.27232079175E-02 -1.05520316668E-01 -3.35505788004E-01
2.98000000000E+09 -2.61033095244E-01 -2.85645005629E-01 +1.44366277006E-03 +1.31455318644E-02 +1.06780916587E-03 +1.28596728796E-02 -1.42948331194E-01 -3.15278291044E-01
2.98500000000E+09 -2.87991294305E-01 -2.56260819390E-01 +2.70763260057E-03 +1.18643586825E-02 +2.17636708767E-03 +1.21407067013E-02 -1.79728237338E-01 -2.92288715602E-01
2.99000000000E+09 -3.14185152567E-01 -2.25100270052E-01 +3.23990915548E-03 +1.17198782400E-02 +3.11080591593E-03 +1.23157526424E-02 -2.14817768670E-01 -2.65172012034E-01
2.99500000000E+09 -3.38665497770E-01 -1.91780683837E-01 +4.43695008115E-03 +1.24796734813E-02 +5.06017751536E-03 +1.29546727086E-02 -2.47865054273E-01 -2.35901897013E-01
3.00000000000E+09 -3.59633429879E-01 -1.57738993292E-01 +7.16973481714E-03 +1.19758722756E-02 +7.91100133938E-03 +1.16762120438E-02 -2.79038428168E-01 -2.03154396616E-01
3.00500000000E+09 -3.78793235492E-01 -1.24413046393E-01 +8.48674962924E-03 +1.06197713494E-02 +8.60369064104E-03 +9.89488026947E-03 -3.06730216586E-01 -1.69502686409E-01
3.01000000000E+09 -3.96098345897E-01 -9.08640474813E-02 +1.00706245570E-02 +9.28506565843E-03 +9.67947550844E-03 +8.85213963441E-03 -3.31970417588E-01 -1.35136526564E-01
3.01500000000E+09 -4.11170770558E-01 -5.66274844804E-02 +1.10201766555E-02 +7.86026740386E-03 +1.06252252397E-02 +7.91952205447E-03 -3.55481673624E-01 -9.99150611651E-02
3.02000000000E+09 -4.22972437429E-01 -2.14650312054E-02 +1.17734948848E-02 +6.38293029863E-03 +1.15853399281E-02 +6.52348565249E-03 -3.75853827288E-01 -6.06954579452E-02
3.02500000000E+09 -4.31607344619E-01 +1.42947040106E-02 +1.21648853276E-02 +5.24018356547E-03 +1.20800869005E-02 +5.25786674265E-03 -3.91523911052E-01 -2.14248811762E-02
3.03000000000E+09 -4.35939095972E-01 +5.04910406525E-02 +1.31900569427E-02 +3.84644098176E-03 +1.29949082791E-02 +3.81515622859E-03 -4.05278927654E-01 +1.86184188627E-02
3.03500000000E+09 -4.36559870809E-01 +8.60308699029E-02 +1.38174049270E-02 +1.93018198710E-03 +1.35784788310E-02 +2.34115142888E-03 -4.16427216626E-01 +5.81930216021E-02
3.04000000000E+09 -4.35384589970E-01 +1.20397658936E-01 +1.40648893012E-02 -3.47657010870E-04 +1.43517045039E-02 +1.84046606293E-04 -4.25259706288E-01 +9.86395996039E-02
3.04500000000E+09 -4.32284877578E-01 +1.55734737050E-01 +1.34467554995E-02 -2.22650607959E-03 +1.43232184453E-02 -2.22421087904E-03 -4.30992965196E-01 +1.39399632716E-01
3.05000000000E+09 -4.26332906121E-01 +1.91224269075E-01 +1.28858607488E-02 -3.90490664234E-03 +1.34481401230E-02 -4.64566924546E-03 -4.31967915615E-01 +1.79457240679E-01
3.05500000000E+09 -4.18188721438E-01 +2.25707699684E-01 +1.20181836165E-02 -5.21084571002E-03 +1.18379877230E-02 -6.21536255337E-03 -4.31368612738E-01 +2.17217640714E-01
3.06000000000E+09 -4.08636862596E-01 +2.59718932786E-01 +1.15212195661E-02 -6.73224028968E-03 +1.06720500908E-02 -7.02727199089E-03 -4.29781769103E-01 +2.55599990595E-01
3.06500000000E+09 -3.96872505242E-01 +2.92513889681E-01 +1.04515777422E-02 -8.72457829465E-03 +9.74218471012E-03 -8.15419021532E-03 -4.24856899875E-01 +2.93530447984E-01
3.07000000000E+09 -3.84444020073E-01 +3.23036692057E-01 +8.21559971730E-03 -1.01047351672E-02 +8.51180415564E-03 -9.21173346807E-03 -4.18039824949E-01 +3.29646979300E-01
