# Hz S RI R 50
! CMT, C1220, 16058040, 17.2.0/1
! Date: 15/08/2018 09:48:55
! Data: Format (Calibration Info)
! Freq                      S11: Re/Im (F2)                       S21: Re/Im (F2)                       S12: Re/Im (F2)                       S22: Re/Im (F2)            
2.50000000000E+09 +5.76529320444E-01 +6.69336498764E-01 -4.75833422771E-04 -1.66165429851E-03 -4.57017887076E-04 -1.80719720097E-03 +5.75258187894E-01 +7.17863599270E-01
2.50500000000E+09 +5.83397922797E-01 +6.61846310432E-01 -6.72300379751E-04 -1.71893288840E-03 -7.59579064787E-04 -1.75141565102E-03 +5.80844115209E-01 +7.12247363516E-01
2.51000000000E+09 +5.90627149267E-01 +6.53914918811E-01 -8.84224233180E-04 -1.66572441463E-03 -8.89461088178E-04 -1.59600899784E-03 +5.86103259811E-01 +7.07134143114E-01
2.51500000000E+09 +5.98076518696E-01 +6.45670490417E-01 -1.06865282375E-03 -1.56219593319E-03 -1.06830936214E-03 -1.47253119141E-03 +5.91490639558E-01 +7.01598349630E-01
2.52000000000E+09 +6.05046762163E-01 +6.37008103816E-01 -1.22496385820E-03 -1.46873680327E-03 -1.18238668047E-03 -1.46291491124E-03 +5.96799285663E-01 +6.95437946227E-01
2.52500000000E+09 +6.11049598784E-01 +6.28417741031E-01 -1.32945185936E-03 -1.20329590764E-03 -1.36387558507E-03 -1.31753056550E-03 +6.02604013786E-01 +6.88872342891E-01
2.53000000000E+09 +6.16862190456E-01 +6.20050806032E-01 -1.36168291442E-03 -1.15801970772E-03 -1.43807134443E-03 -1.17867361188E-03 +6.08891601934E-01 +6.81701885146E-01
2.53500000000E+09 +6.22016309073E-01 +6.11924229753E-01 -1.43644313209E-03 -1.06141489464E-03 -1.42947053036E-03 -1.09921087266E-03 +6.14587453498E-01 +6.75045849813E-01
2.54000000000E+09 +6.26528047546E-01 +6.03880605844E-01 -1.59064279710E-03 -9.98966012135E-04 -1.52357445612E-03 -9.75585326582E-04 +6.20420903054E-01 +6.68611406974E-01
2.54500000000E+09 +6.30862952696E-01 +5.96528964382E-01 -1.76759688595E-03 -9.25599202884E-04 -1.72330960004E-03 -1.05684148486E-03 +6.26032454392E-01 +6.62201333549E-01
2.55000000000E+09 +6.35886307249E-01 +5.89182303501E-01 -1.90363330543E-03 -7.10645019873E-04 -1.95562218891E-03 -8.86345833608E-04 +6.31164215806E-01 +6.55563710373E-01
2.55500000000E+09 +6.41468788438E-01 +5.81460913125E-01 -1.97882512647E-03 -4.67302877125E-04 -2.23746322063E-03 -6.18780893466E-04 +6.36377527425E-01 +6.48899860578E-01
2.56000000000E+09 +6.47716493673E-01 +5.73724605182E-01 -1.91181160432E-03 -2.37971677940E-04 -2.20339031861E-03 -1.45292228983E-04 +6.41858649436E-01 +6.41596776420E-01
2.56500000000E+09 +6.54571529702E-01 +5.65010910947E-01 -1.89700231244E-03 -2.43569388715E-04 -2.15456187096E-03 +5.57691534076E-05 +6.47511259177E-01 +6.34020466562E-01
2.57000000000E+09 +6.61559761190E-01 +5.55977159453E-01 -2.02544434713E-03 -1.85825588303E-04 -2.00460518399E-03 +2.67813610696E-04 +6.52957788651E-01 +6.26378840890E-01
2.57500000000E+09 +6.68697943649E-01 +5.46412436483E-01 -2.18632812948E-03 -1.84677250502E-06 -1.90669754882E-03 +3.19079513952E-04 +6.58205324256E-01 +6.19047843525E-01
2.58000000000E+09 +6.75090252282E-01 +5.36530141967E-01 -2.31987308613E-03 +3.26890111787E-04 -1.98184664378E-03 +3.84313851127E-04 +6.62825946194E-01 +6.11800143359E-01
2.58500000000E+09 +6.81013014064E-01 +5.26605222452E-01 -2.21320349139E-03 +7.43749547451E-04 -1.94274396427E-03 +5.85528057177E-04 +6.67468804384E-01 +6.04246071238E-01
2.59000000000E+09 +6.86208408932E-01 +5.17125096747E-01 -1.84860582219E-03 +7.97172412584E-04 -1.83184868516E-03 +6.55650063269E-04 +6.72505514386E-01 +5.96307018364E-01
2.59500000000E+09 +6.90962309603E-01 +5.07370229277E-01 -1.94528915856E-03 +6.66433452062E-04 -2.00236452794E-03 +5.96827847319E-04 +6.77455383939E-01 +5.87529453102E-01
2.60000000000E+09 +6.95021685782E-01 +4.97972484207E-01 -2.13541924230E-03 +8.75621430084E-04 -2.18510743648E-03 +8.10396587035E-04 +6.82400092029E-01 +5.79008758339E-01
2.60500000000E+09 +6.99273263820E-01 +4.88176628031E-01 -2.35191187441E-03 +1.25582084125E-03 -2.33526612628E-03 +1.24860019566E-03 +6.87564590809E-01 +5.70763167210E-01
2.61000000000E+09 +7.03502152345E-01 +4.78007410871E-01 -2.26339807289E-03 +1.77874761808E-03 -2.24530265923E-03 +1.76645577756E-03 +6.92482092468E-01 +5.62409955885E-01
2.61500000000E+09 +7.08210181464E-01 +4.67248439966E-01 -1.81956455430E-03 +2.25463715257E-03 -1.82870822883E-03 +2.25980786045E-03 +6.96952450911E-01 +5.54241114376E-01
2.62000000000E+09 +7.13001773403E-01 +4.55435386010E-01 -1.29016367861E-03 +2.14470395658E-03 -1.34480033586E-03 +2.27240073752E-03 +7.01719419622E-01 +5.45349609255E-01
2.62500000000E+09 +7.17845580858E-01 +4.42344459798E-01 -1.30963959063E-03 +1.97977268584E-03 -1.14740127343E-03 +2.16266415157E-03 +7.06566753079E-01 +5.35965704347E-01
2.63000000000E+09 +7.22306604349E-01 +4.28758417229E-01 -1.28633137576E-03 +2.19533696570E-03 -1.00011262369E-03 +2.33941488198E-03 +7.11285887122E-01 +5.26613072717E-01
2.63500000000E+09 +7.26418777882E-01 +4.14943195450E-01 -1.17194775196E-03 +2.41588629248E-03 -8.06347579004E-04 +2.28103832533E-03 +7.16498844200E-01 +5.17358149815E-01
2.64000000000E+09 +7.29809985179E-01 +4.01022418646E-01 -9.80864485416E-04 +2.79703636149E-03 -8.02649684932E-04 +2.41323892193E-03 +7.21419725575E-01 +5.07772420877E-01
2.64500000000E+09 +7.32958183470E-01 +3.87941984165E-01 -3.86429292417E-04 +3.03654216010E-03 -5.20543288422E-04 +2.63882335031E-03 +7.26004671100E-01 +4.98447414943E-01
2.65000000000E+09 +7.35352320958E-01 +3.75534625270E-01 +1.98305274716E-06 +2.78480713052E-03 -2.88544987909E-04 +2.61849517891E-03 +7.30307184387E-01 +4.88863343540E-01
2.65500000000E+09 +7.38242391678E-01 +3.63309243136E-01 +1.49405243587E-04 +2.54398933575E-03 -9.86089942516E-05 +2.67494349830E-03 +7.34222798712E-01 +4.78484019393E-01
2.66000000000E+09 +7.40928677923E-01 +3.51389546810E-01 +6.55523207259E-05 +2.62019250255E-03 +4.43788895231E-05 +2.85450586575E-03 +7.38237472194E-01 +4.67396027267E-01
2.66500000000E+09 +7.43789419963E-01 +3.39390174184E-01 +3.14492439794E-04 +2.89945270972E-03 +5.32811649523E-04 +2.92337057748E-03 +7.43042703497E-01 +4.56044934135E-01
2.67000000000E+09 +7.46513562990E-01 +3.26398464660E-01 +7.97261022428E-04 +2.86631284933E-03 +9.34206830711E-04 +2.74187415252E-03 +7.47561520528E-01 +4.44533398466E-01
2.67500000000E+09 +7.48698490584E-01 +3.12789863079E-01 +1.05901017589E-03 +2.61005713963E-03 +1.07858299922E-03 +2.36811354293E-03 +7.51388743346E-01 +4.33295692738E-01
2.68000000000E+09 +7.50468307000E-01 +2.98189845135E-01 +1.10128939800E-03 +2.39468239960E-03 +9.72062107667E-04 +2.29288559020E-03 +7.55132357398E-01 +4.22951890373E-01
2.68500000000E+09 +7.51566039923E-01 +2.82729856351E-01 +1.09641064480E-03 +2.45780795074E-03 +1.00273792328E-03 +2.45449232560E-03 +7.58470415301E-01 +4.11510809675E-01
2.69000000000E+09 +7.51796791633E-01 +2.67334940328E-01 +1.28341834673E-03 +2.72709509874E-03 +1.23669193537E-03 +2.73028726747E-03 +7.61040979125E-01 +3.99399528050E-01
2.69500000000E+09 +7.52015468508E-01 +2.51954757441E-01 +1.80808759710E-03 +2.79511836625E-03 +1.77112952998E-03 +2.67843557108E-03 +7.63917072710E-01 +3.86461974101E-01
2.70000000000E+09 +7.52234399560E-01 +2.36492760635E-01 +2.32579700628E-03 +2.61454196749E-03 +2.20071090947E-03 +2.54069824160E-03 +7.67007714918E-01 +3.72861216040E-01
2.70500000000E+09 +7.52129430989E-01 +2.21295136144E-01 +2.65256241608E-03 +2.08006347462E-03 +2.50862705852E-03 +2.13009572412E-03 +7.69962826201E-01 +3.59303518072E-01
2.71000000000E+09 +7.52269725245E-01 +2.06401428928E-01 +2.55946124449E-03 +1.72332210563E-03 +2.52290116886E-03 +1.94309655288E-03 +7.72784303530E-01 +3.46701716797E-01
2.71500000000E+09 +7.52983373722E-01 +1.91490468962E-01 +2.46137408722E-03 +1.71606963765E-03 +2.62290254344E-03 +1.84445823310E-03 +7.75748617165E-01 +3.34196441524E-01
2.72000000000E+09 +7.53454424545E-01 +1.76464143360E-01 +2.71682101305E-03 +1.87860499143E-03 +3.01913329586E-03 +1.75701033516E-03 +7.78114056704E-01 +3.21053571105E-01
2.72500000000E+09 +7.53979653826E-01 +1.61236567616E-01 +3.24193519662E-03 +1.56840004632E-03 +3.39027885975E-03 +1.22825531109E-03 +7.78931270717E-01 +3.07062312340E-01
2.73000000000E+09 +7.53830644715E-01 +1.45390345438E-01 +3.34434750244E-03 +1.20078051669E-03 +3.11528147132E-03 +8.67957300607E-04 +7.80470653350E-01 +2.92862103455E-01
2.73500000000E+09 +7.52915286642E-01 +1.28504934673E-01 +3.35695583079E-03 +1.11804517787E-03 +2.92481578498E-03 +9.81970847040E-04 +7.81590363712E-01 +2.77677836747E-01
2.74000000000E+09 +7.50817940188E-01 +1.11482936777E-01 +3.91313589826E-03 +1.01415062805E-03 +3.41605847506E-03 +1.20682829759E-03 +7.83336429950E-01 +2.62820443268E-01
2.74500000000E+09 +7.47360873287E-01 +9.37272054202E-02 +4.07108084671E-03 +4.23054831651E-04 +3.84384426855E-03 +8.94985406391E-04 +7.84546742767E-01 +2.47397843241E-01
2.75000000000E+09 +7.42518711634E-01 +7.58716915910E-02 +4.16678346063E-03 +2.12208388333E-04 +4.25713695395E-03 +5.72182339381E-04 +7.84852816509E-01 +2.32374542719E-01
2.75500000000E+09 +7.36642216747E-01 +5.83860185084E-02 +4.31877550259E-03 -2.38246217788E-04 +4.64079901775E-03 +2.00288329913E-05 +7.84304742465E-01 +2.17170067842E-01
2.76000000000E+09 +7.30729100000E-01 +4.10264942034E-02 +4.31106772919E-03 -5.81581700936E-04 +4.66888939516E-03 -5.81763551174E-04 +7.83803295727E-01 +2.01519032238E-01
2.76500000000E+09 +7.24824496847E-01 +2.36464050459E-02 +4.62264419508E-03 -8.50918756115E-04 +4.81358277852E-03 -9.38446156223E-04 +7.82733156367E-01 +1.84014578472E-01
2.77000000000E+09 +7.19583292918E-01 +5.69937637159E-03 +5.04290633296E-03 -1.55535429055E-03 +5.21793213582E-03 -1.72416177050E-03 +7.81807286335E-01 +1.66165512818E-01
2.77500000000E+09 +7.14663464886E-01 -1.29001895259E-02 +4.83769209640E-03 -2.75683474515E-03 +4.92130660641E-03 -2.96940370817E-03 +7.79781390184E-01 +1.48190512754E-01
2.78000000000E+09 +7.10036605306E-01 -3.23337661269E-02 +4.14672932632E-03 -3.04627466772E-03 +4.15147723767E-03 -3.34950453361E-03 +7.77802707306E-01 +1.30867651347E-01
2.78500000000E+09 +7.05265965661E-01 -5.28812507218E-02 +4.06219822653E-03 -3.27067024818E-03 +3.83635310446E-03 -3.45508437870E-03 +7.75545208694E-01 +1.13736084241E-01
2.79000000000E+09 +6.99404413156E-01 -7.44456741360E-02 +4.09487357801E-03 -3.83431402318E-03 +3.70640511074E-03 -3.84879751277E-03 +7.72469936524E-01 +9.57682821690E-02
2.79500000000E+09 +6.91952116514E-01 -9.56402084732E-02 +3.69901443495E-03 -4.32996128251E-03 +3.41974465705E-03 -4.09178512888E-03 +7.67933870425E-01 +7.69890098074E-02
2.80000000000E+09 +6.82791085543E-01 -1.15789751877E-01 +3.69658153546E-03 -5.04486328188E-03 +3.66982922454E-03 -4.70613613981E-03 +7.62373830971E-01 +5.77407936220E-02
2.80500000000E+09 +6.73378182217E-01 -1.34840786468E-01 +2.77706246159E-03 -6.13722122541E-03 +3.10703452947E-03 -6.04453928572E-03 +7.56437802134E-01 +3.89805942020E-02
2.81000000000E+09 +6.62726794359E-01 -1.53010548586E-01 +1.68856377584E-03 -6.04219842190E-03 +1.85846663624E-03 -6.17892121962E-03 +7.50906227444E-01 +1.96662287963E-02
2.81500000000E+09 +6.51539006118E-01 -1.70531747023E-01 +1.33564822461E-03 -6.12621152988E-03 +1.22749431289E-03 -6.30658250747E-03 +7.43850589934E-01 +2.18337200460E-04
2.82000000000E+09 +6.39236546242E-01 -1.88416372511E-01 +8.12445318341E-04 -6.46199666775E-03 +5.58348885125E-04 -6.49387559984E-03 +7.36227424913E-01 -1.93056465757E-02
2.82500000000E+09 +6.25566266052E-01 -2.06378858741E-01 -2.59042752219E-05 -6.62513200746E-03 -2.83489136403E-04 -6.41677680760E-03 +7.26726912353E-01 -3.93647500669E-02
2.83000000000E+09 +6.09638641491E-01 -2.24667163296E-01 -6.27996138908E-04 -6.68260498712E-03 -6.15449738391E-04 -6.39356023983E-03 +7.16316290794E-01 -5.91575639276E-02
2.83500000000E+09 +5.92977196494E-01 -2.42653819735E-01 -1.52570618708E-03 -6.62992794350E-03 -1.36069091762E-03 -6.40541301766E-03 +7.06035948780E-01 -7.91002135990E-02
2.84000000000E+09 +5.74951864389E-01 -2.61201662642E-01 -1.85869675649E-03 -6.09032326269E-03 -1.65409090280E-03 -6.03120646066E-03 +6.95344073197E-01 -1.00659510357E-01
2.84500000000E+09 +5.55200534414E-01 -2.80436385677E-01 -1.70121100873E-03 -6.51740509993E-03 -1.69693094870E-03 -6.57587960361E-03 +6.82850032323E-01 -1.21790216085E-01
2.85000000000E+09 +5.33862518756E-01 -2.99590801892E-01 -2.62800540146E-03 -7.50140361074E-03 -2.68244627436E-03 -7.44592643918E-03 +6.68785280452E-01 -1.42212140361E-01
2.85500000000E+09 +5.11429492205E-01 -3.18023293631E-01 -4.49436484852E-03 -7.70574510040E-03 -4.48314383093E-03 -7.56096936319E-03 +6.53868453564E-01 -1.61972189522E-01
2.86000000000E+09 +4.87674722228E-01 -3.36489775585E-01 -6.05107095061E-03 -6.91102219283E-03 -5.93587197387E-03 -6.81526059975E-03 +6.38000281687E-01 -1.82436111176E-01
2.86500000000E+09 +4.63441292256E-01 -3.53422328899E-01 -7.42727296343E-03 -5.62141420705E-03 -7.29816871064E-03 -5.65890430477E-03 +6.20708431209E-01 -2.04027478383E-01
2.87000000000E+09 +4.37967360901E-01 -3.69739155621E-01 -7.68126756015E-03 -4.11064789723E-03 -7.69237936528E-03 -4.05100741937E-03 +6.00267928693E-01 -2.25668259884E-01
2.87500000000E+09 +4.11811157977E-01 -3.83804175486E-01 -7.27539322929E-03 -3.34092021036E-03 -7.30563659290E-03 -3.17020694992E-03 +5.79153376066E-01 -2.44987075152E-01
2.88000000000E+09 +3.86020395927E-01 -3.96273852718E-01 -7.53207792511E-03 -3.68808142017E-03 -7.39151461217E-03 -3.35151868589E-03 +5.57841586852E-01 -2.64032297092E-01
2.88500000000E+09 +3.60586579213E-01 -4.07995974586E-01 -9.42033860573E-03 -2.91385033106E-03 -8.88244967796E-03 -2.61891139910E-03 +5.34824844997E-01 -2.82386994769E-01
2.89000000000E+09 +3.33972883616E-01 -4.19870063107E-01 -9.70382083280E-03 -9.60612808523E-04 -9.07254289841E-03 -1.16867431803E-03 +5.09215301108E-01 -3.00632424625E-01
2.89500000000E+09 +3.05353919617E-01 -4.30867646842E-01 -9.54609440140E-03 +6.23633051877E-05 -9.21770280977E-03 -4.38730133551E-04 +4.80902520563E-01 -3.17819256947E-01
2.90000000000E+09 +2.74251363428E-01 -4.40757092839E-01 -9.91117431319E-03 +1.28544562745E-03 -1.00341108670E-02 +9.17848322401E-04 +4.50949443636E-01 -3.32861276120E-01
2.90500000000E+09 +2.39979710561E-01 -4.47852876825E-01 -9.35670371360E-03 +2.78600877533E-03 -9.59022306067E-03 +2.74901871178E-03 +4.21568237538E-01 -3.47851367604E-01
2.91000000000E+09 +2.05523567878E-01 -4.51161118500E-01 -9.07257517389E-03 +3.35487774867E-03 -9.00941949253E-03 +3.57717081235E-03 +3.90007598099E-01 -3.62505093860E-01
2.91500000000E+09 +1.70710933021E-01 -4.52620308425E-01 -9.13420131979E-03 +4.88278511732E-03 -8.64896618768E-03 +4.91130693023E-03 +3.56614593542E-01 -3.74555365301E-01
2.92000000000E+09 +1.35932165400E-01 -4.52264119273E-01 -7.83123389828E-03 +6.26764659307E-03 -7.42201960359E-03 +5.85882986163E-03 +3.21710832631E-01 -3.83033072051E-01
2.92500000000E+09 +1.01178934595E-01 -4.50176432147E-01 -6.74857429633E-03 +6.23279349177E-03 -6.67758808901E-03 +5.58978144930E-03 +2.86379986644E-01 -3.88844986652E-01
2.93000000000E+09 +6.67227355559E-02 -4.47100474932E-01 -7.06897201891E-03 +6.67621315106E-03 -7.36207968124E-03 +6.21301157323E-03 +2.51089020227E-01 -3.93713344401E-01
2.93500000000E+09 +3.14189790505E-02 -4.42584193954E-01 -6.55743921867E-03 +8.19218430916E-03 -6.99506675212E-03 +8.01835790798E-03 +2.13814223798E-01 -3.98832425243E-01
2.94000000000E+09 -3.63108874102E-03 -4.35494565141E-01 -5.48181039426E-03 +9.25175151778E-03 -5.72384849382E-03 +9.21303293476E-03 +1.73808327461E-01 -4.02357520811E-01
2.94500000000E+09 -3.84534271673E-02 -4.27123614066E-01 -4.18243339658E-03 +1.04318467458E-02 -4.40233951456E-03 +1.03294748116E-02 +1.32999418761E-01 -4.01578763361E-01
2.95000000000E+09 -7.41399138475E-02 -4.14871013007E-01 -2.01979952689E-03 +1.06778046627E-02 -2.38672890613E-03 +1.06951621342E-02 +9.31321115226E-02 -3.96398080850E-01
2.95500000000E+09 -1.07899338533E-01 -3.98952593981E-01 -6.81195846940E-04 +9.76093234704E-03 -1.06166921795E-03 +1.00631242690E-02 +5.56188130378E-02 -3.89263748307E-01
2.96000000000E+09 -1.39522888979E-01 -3.81314926958E-01 -6.76397652537E-04 +9.53576620421E-03 -7.41890112553E-04 +1.00758389476E-02 +1.61415442845E-02 -3.80802622913E-01
2.96500000000E+09 -1.71222815219E-01 -3.61419047572E-01 -1.25191579177E-04 +1.03461096727E-02 +2.75949499341E-04 +1.06180288310E-02 -2.47422199395E-02 -3.69368021737E-01
2.97000000000E+09 -2.01739161715E-01 -3.38293378407E-01 +1.37432732144E-03 +1.08463103107E-02 +1.89162301823E-03 +1.07391174653E-02 -6.52592925856E-02 -3.54556489930E-01
2.97500000000E+09 -2.31126834815E-01 -3.13351524765E-01 +2.81466925254E-03 +1.09516580403E-02 +2.90456463280E-03 +1.05555361976E-02 -1.04508957052E-01 -3.36957292626E-01
2.98000000000E+09 -2.60517013603E-01 -2.85927206007E-01 +4.81985764416E-03 +1.04124454922E-02 +4.48098481755E-03 +1.02223339731E-02 -1.42148402819E-01 -3.16626914117E-01
2.98500000000E+09 -2.88214394361E-01 -2.55405071082E-01 +5.67961435585E-03 +9.18165403906E-03 +5.46697751135E-03 +9.42297306397E-03 -1.78626082124E-01 -2.93417840986E-01
2.99000000000E+09 -3.13431577504E-01 -2.23315407217E-01 +5.97580014634E-03 +8.61256321341E-03 +6.11189756327E-03 +9.05543126945E-03 -2.13952835902E-01 -2.66900515176E-01
2.99500000000E+09 -3.37036935975E-01 -1.90637196878E-01 +7.05545716716E-03 +9.09551430218E-03 +7.62596342867E-03 +9.21887152459E-03 -2.47597824388E-01 -2.37125024949E-01
3.00000000000E+09 -3.57961999046E-01 -1.57554970936E-01 +9.32391582678E-03 +7.94618797092E-03 +9.71105272866E-03 +7.41865670059E-03 -2.78077574352E-01 -2.04604537666E-01
3.00500000000E+09 -3.77560075650E-01 -1.24786663100E-01 +9.80467188105E-03 +6.35159308191E-03 +9.63391516979E-03 +5.75535940571E-03 -3.06550950524E-01 -1.71956333043E-01
3.01000000000E+09 -3.95605747076E-01 -9.14118558606E-02 +1.06983863576E-02 +5.36728575185E-03 +1.01685409068E-02 +5.11738957206E-03 -3.32695828757E-01 -1.37324018934E-01
3.01500000000E+09 -4.10791915552E-01 -5.65314583675E-02 +1.13841745852E-02 +3.97466645786E-03 +1.09131269258E-02 +4.13327145685E-03 -3.56602908679E-01 -1.01042753290E-01
3.02000000000E+09 -4.21974586575E-01 -2.15654657238E-02 +1.18651614463E-02 +2.63239309896E-03 +1.17522487742E-02 +2.84899644857E-03 -3.76516900972E-01 -6.13109302285E-02
3.02500000000E+09 -4.30411837940E-01 +1.35050195173E-02 +1.23619163204E-02 +1.37859374782E-03 +1.22661172547E-02 +1.45227480609E-03 -3.91784416477E-01 -2.15869521554E-02
3.03000000000E+09 -4.35340879434E-01 +4.93245462643E-02 +1.26998503455E-02 -6.53051286498E-04 +1.24749752057E-02 -4.74137285224E-04 -4.05151240593E-01 +1.81187335462E-02
3.03500000000E+09 -4.36343056339E-01 +8.51764907411E-02 +1.23674363746E-02 -2.31542947426E-03 +1.22517673663E-02 -1.92853881546E-03 -4.16432999649E-01 +5.74902639222E-02
3.04000000000E+09 -4.34471804081E-01 +1.19894193395E-01 +1.19832409687E-02 -4.18254561068E-03 +1.24049454388E-02 -3.76705591113E-03 -4.25608746517E-01 +9.79484043695E-02
3.04500000000E+09 -4.31107902837E-01 +1.54262818796E-01 +1.09659706696E-02 -5.69102858553E-03 +1.17068497049E-02 -5.79630417341E-03 -4.30909802600E-01 +1.38869305614E-01
3.05000000000E+09 -4.25620420307E-01 +1.88999903109E-01 +1.00529572610E-02 -6.75776250655E-03 +1.03967746690E-02 -7.52564652493E-03 -4.31816800174E-01 +1.78675104321E-01
3.05500000000E+09 -4.18688612767E-01 +2.23502713665E-01 +9.15725826907E-03 -7.79548840350E-03 +8.78752909504E-03 -8.45341921229E-03 -4.31139564054E-01 +2.16373901767E-01
3.06000000000E+09 -4.09376383564E-01 +2.58149099273E-01 +8.34121479901E-03 -9.21102964666E-03 +7.48236215100E-03 -9.21252438807E-03 -4.29241086283E-01 +2.54621938591E-01
3.06500000000E+09 -3.97686668026E-01 +2.91249592253E-01 +6.67282355660E-03 -1.06287718385E-02 +6.25752843857E-03 -9.90767230357E-03 -4.24391548785E-01 +2.92119342107E-01
3.07000000000E+09 -3.84729767160E-01 +3.21470953418E-01 +4.38315517040E-03 -1.13218893338E-02 +4.87901955561E-03 -1.07058611398E-02 -4.17444710358E-01 +3.27737682580E-01
