# Hz S RI R 50
! CMT, C1220, 16058040, 17.2.0/1
! Date: 15/08/2018 09:50:06
! Data: Format (Calibration Info)
! Freq                      S11: Re/Im (F2)                       S21: Re/Im (F2)                       S12: Re/Im (F2)                       S22: Re/Im (F2)            
2.50000000000E+09 +5.76381316012E-01 +6.70322033330E-01 +1.30805887240E-04 -1.43781940066E-03 +1.56882456928E-04 -1.58323231696E-03 +5.74914476673E-01 +7.17872001291E-01
2.50500000000E+09 +5.83194818994E-01 +6.62731974077E-01 -3.55975679105E-05 -1.52248381648E-03 -1.36841028138E-04 -1.55486339741E-03 +5.80548642110E-01 +7.12475210780E-01
2.51000000000E+09 +5.90324427980E-01 +6.54725516367E-01 -2.09565574690E-04 -1.56952393877E-03 -2.78681282524E-04 -1.53725934655E-03 +5.86034224930E-01 +7.07277820259E-01
2.51500000000E+09 +5.97462870122E-01 +6.46690753168E-01 -3.74015660597E-04 -1.57925598794E-03 -3.60959708192E-04 -1.52587485673E-03 +5.91330318114E-01 +7.01700868089E-01
2.52000000000E+09 +6.04416857958E-01 +6.38038028052E-01 -5.37528720529E-04 -1.53746349758E-03 -5.14393759760E-04 -1.53889273234E-03 +5.96783360041E-01 +6.95545513230E-01
2.52500000000E+09 +6.10439144289E-01 +6.29431353251E-01 -6.54629754308E-04 -1.45275193862E-03 -6.22205033343E-04 -1.49570564687E-03 +6.02607908209E-01 +6.89007069604E-01
2.53000000000E+09 +6.16137285974E-01 +6.21219773836E-01 -8.26856047155E-04 -1.43120893275E-03 -8.15957975340E-04 -1.51165998902E-03 +6.08802454574E-01 +6.81866983390E-01
2.53500000000E+09 +6.21327773926E-01 +6.13094773073E-01 -9.63614767838E-04 -1.34525981464E-03 -9.82806625555E-04 -1.34788778428E-03 +6.14517808297E-01 +6.75191991118E-01
2.54000000000E+09 +6.25898733938E-01 +6.05227551535E-01 -1.10724795344E-03 -1.28590927234E-03 -1.06070712527E-03 -1.26410513241E-03 +6.20248955894E-01 +6.68775482703E-01
2.54500000000E+09 +6.30410540072E-01 +5.97916984161E-01 -1.26235269908E-03 -1.24214911237E-03 -1.13568821297E-03 -1.31823881336E-03 +6.25849368543E-01 +6.62476427224E-01
2.55000000000E+09 +6.35543157249E-01 +5.90583995755E-01 -1.43366430390E-03 -1.10031271863E-03 -1.38306395287E-03 -1.28482080705E-03 +6.31002229018E-01 +6.55970545427E-01
2.55500000000E+09 +6.41042968893E-01 +5.82731405949E-01 -1.52683108385E-03 -9.55682918171E-04 -1.70578379302E-03 -1.15739720346E-03 +6.36295051845E-01 +6.49460784079E-01
2.56000000000E+09 +6.47387360582E-01 +5.74892317705E-01 -1.52783889914E-03 -7.20307464944E-04 -1.89709109766E-03 -7.35912590254E-04 +6.41955704355E-01 +6.41921491507E-01
2.56500000000E+09 +6.54230198582E-01 +5.66138751620E-01 -1.53041990260E-03 -7.44915268477E-04 -1.85319409626E-03 -4.39939702740E-04 +6.47629843925E-01 +6.34434764538E-01
2.57000000000E+09 +6.61138615902E-01 +5.56969849044E-01 -1.63601834023E-03 -6.58800507377E-04 -1.74266850978E-03 -3.11320351435E-04 +6.53082411356E-01 +6.26869971934E-01
2.57500000000E+09 +6.68346097318E-01 +5.47316590137E-01 -1.75116516135E-03 -5.09376598369E-04 -1.63189432348E-03 -2.45684770330E-04 +6.58369964641E-01 +6.19694957994E-01
2.58000000000E+09 +6.74756330427E-01 +5.37423425449E-01 -1.91521133356E-03 -3.50503531723E-04 -1.62998758035E-03 -2.23925221121E-04 +6.63353821590E-01 +6.12419476066E-01
2.58500000000E+09 +6.80572752577E-01 +5.27445340220E-01 -1.88976035692E-03 +1.95774973038E-05 -1.68565636364E-03 -3.10343227844E-05 +6.67984223030E-01 +6.04772285364E-01
2.59000000000E+09 +6.85848262268E-01 +5.17867053159E-01 -1.66326320730E-03 +7.07501992300E-05 -1.57430653656E-03 -6.39023203002E-05 +6.73047310189E-01 +5.96831135586E-01
2.59500000000E+09 +6.90674359567E-01 +5.08062943154E-01 -1.69593855759E-03 -6.09426055048E-05 -1.75172684483E-03 -1.89765650104E-04 +6.78271455088E-01 +5.88127776044E-01
2.60000000000E+09 +6.94611731181E-01 +4.98509401366E-01 -2.00328341862E-03 +1.87626905227E-05 -2.02246549052E-03 -1.10229238595E-05 +6.83421362732E-01 +5.79463469397E-01
2.60500000000E+09 +6.98821648710E-01 +4.88989563789E-01 -2.20015056467E-03 +2.57146666751E-04 -2.17810845940E-03 +2.43412939367E-04 +6.88676085992E-01 +5.70937734700E-01
2.61000000000E+09 +7.02986259655E-01 +4.78857445485E-01 -2.43001545722E-03 +6.36021571801E-04 -2.43414400677E-03 +5.62152416936E-04 +6.93720950038E-01 +5.62288690884E-01
2.61500000000E+09 +7.07642525146E-01 +4.68165226250E-01 -2.14589168814E-03 +1.24618931385E-03 -2.22403561214E-03 +1.25357174246E-03 +6.97916934449E-01 +5.53908407150E-01
2.62000000000E+09 +7.12394257411E-01 +4.56519349389E-01 -1.69492182745E-03 +1.34122014790E-03 -1.77585238061E-03 +1.41524189431E-03 +7.02579136544E-01 +5.45053981272E-01
2.62500000000E+09 +7.17258070418E-01 +4.43576994445E-01 -1.63451056803E-03 +1.10641039821E-03 -1.63124716322E-03 +1.30124025893E-03 +7.07402748127E-01 +5.35695416340E-01
2.63000000000E+09 +7.21606050460E-01 +4.30315054897E-01 -1.75475428447E-03 +1.27471504710E-03 -1.52621208496E-03 +1.44540529439E-03 +7.12201273642E-01 +5.26190613319E-01
2.63500000000E+09 +7.25431401063E-01 +4.16633821841E-01 -1.80918926007E-03 +1.39901343690E-03 -1.46255998481E-03 +1.44037399177E-03 +7.17247247422E-01 +5.16750589775E-01
2.64000000000E+09 +7.29065740777E-01 +4.03114020255E-01 -1.97045985887E-03 +1.80493435857E-03 -1.61436365033E-03 +1.58157686558E-03 +7.22020111230E-01 +5.07211694248E-01
2.64500000000E+09 +7.32110815846E-01 +3.89970127339E-01 -1.52864130166E-03 +2.36863476909E-03 -1.48781763951E-03 +1.97486082522E-03 +7.26479949341E-01 +4.97897736573E-01
2.65000000000E+09 +7.34781804759E-01 +3.77559620047E-01 -9.85477589733E-04 +2.32643881112E-03 -1.19632532264E-03 +2.07154939644E-03 +7.30758458060E-01 +4.88322706925E-01
2.65500000000E+09 +7.37420586029E-01 +3.65228797743E-01 -9.04062192293E-04 +2.09857585928E-03 -1.11424574984E-03 +2.08122025642E-03 +7.34697779933E-01 +4.77992584886E-01
2.66000000000E+09 +7.40210599495E-01 +3.53385240949E-01 -1.00444721361E-03 +2.25460155337E-03 -1.11581139304E-03 +2.41498351649E-03 +7.38680778405E-01 +4.66819262401E-01
2.66500000000E+09 +7.43158522378E-01 +3.41260780758E-01 -7.97626686021E-04 +2.57521365350E-03 -6.65383296339E-04 +2.75776276124E-03 +7.43373923345E-01 +4.55523080962E-01
2.67000000000E+09 +7.45828652502E-01 +3.28055068350E-01 -3.72589246909E-04 +2.61922295638E-03 -1.67304704730E-04 +2.58726785126E-03 +7.47975346782E-01 +4.44250237227E-01
2.67500000000E+09 +7.47860412121E-01 +3.14483572664E-01 -1.36450893147E-04 +2.44516553571E-03 -5.09466548964E-05 +2.27906127347E-03 +7.52065512577E-01 +4.32996158129E-01
2.68000000000E+09 +7.49639255844E-01 +3.00114955194E-01 -1.73071330866E-04 +2.37254250973E-03 -2.12622037399E-04 +2.26896546751E-03 +7.55752397027E-01 +4.22184816687E-01
2.68500000000E+09 +7.50726292279E-01 +2.84936415835E-01 -2.59437818198E-04 +2.61470656871E-03 -3.83862062439E-04 +2.51656449039E-03 +7.58983588281E-01 +4.10690556797E-01
2.69000000000E+09 +7.51143086586E-01 +2.69457054278E-01 -9.90602379434E-05 +3.13993172818E-03 -6.48385838858E-05 +3.09193664985E-03 +7.61387097727E-01 +3.98655509993E-01
2.69500000000E+09 +7.51426913501E-01 +2.54168075516E-01 +6.64407722708E-04 +3.29229944376E-03 +6.82985472488E-04 +3.20836425896E-03 +7.64210287017E-01 +3.85763025218E-01
2.70000000000E+09 +7.51683020293E-01 +2.38562308071E-01 +1.12668757426E-03 +3.04997610968E-03 +1.09529924261E-03 +2.96161381682E-03 +7.67542875269E-01 +3.72209448795E-01
2.70500000000E+09 +7.51502644101E-01 +2.23604212365E-01 +1.40110479528E-03 +2.62237052537E-03 +1.25483635302E-03 +2.60731509610E-03 +7.70517128780E-01 +3.58400285686E-01
2.71000000000E+09 +7.51799570891E-01 +2.08810771906E-01 +1.28720590885E-03 +2.46751760489E-03 +1.26194480828E-03 +2.57261759035E-03 +7.73168637465E-01 +3.45597947605E-01
2.71500000000E+09 +7.52530458841E-01 +1.93815918018E-01 +1.22001032731E-03 +2.56154804048E-03 +1.24292104283E-03 +2.77946044535E-03 +7.75885158119E-01 +3.33129083319E-01
2.72000000000E+09 +7.53106631473E-01 +1.78814354186E-01 +1.47995612131E-03 +3.05498486044E-03 +1.69862922624E-03 +3.14316273981E-03 +7.78094154937E-01 +3.20001760900E-01
2.72500000000E+09 +7.53825851811E-01 +1.63433822620E-01 +2.14499371559E-03 +2.98924601460E-03 +2.45539556299E-03 +2.75942834034E-03 +7.79025681694E-01 +3.05855464833E-01
2.73000000000E+09 +7.53776305140E-01 +1.47359951910E-01 +2.42512187194E-03 +2.81104116825E-03 +2.40977108692E-03 +2.37592256702E-03 +7.80352876086E-01 +2.91402663229E-01
2.73500000000E+09 +7.52854141650E-01 +1.30555276728E-01 +2.69672405127E-03 +3.00925180010E-03 +2.38568932930E-03 +2.60206032950E-03 +7.81007233210E-01 +2.76371166135E-01
2.74000000000E+09 +7.50756109086E-01 +1.13276809929E-01 +3.56535671850E-03 +2.77325364913E-03 +2.98930450289E-03 +2.73410364182E-03 +7.82508547885E-01 +2.61748481878E-01
2.74500000000E+09 +7.47032369502E-01 +9.55825142509E-02 +3.84447692711E-03 +2.02311820514E-03 +3.44928411685E-03 +2.43083322212E-03 +7.83924081335E-01 +2.46547528532E-01
2.75000000000E+09 +7.42049934033E-01 +7.81800516139E-02 +4.04169317296E-03 +1.74933537027E-03 +3.91369337492E-03 +2.24500196971E-03 +7.84087923465E-01 +2.31326792653E-01
2.75500000000E+09 +7.36581285543E-01 +6.09507895202E-02 +4.15073308743E-03 +1.48689490767E-03 +4.39609380876E-03 +1.85262476996E-03 +7.83145240379E-01 +2.16126276862E-01
2.76000000000E+09 +7.30705208008E-01 +4.37552313820E-02 +4.36170918502E-03 +1.39717823355E-03 +4.68199056335E-03 +1.50898413372E-03 +7.82555060202E-01 +2.00881809016E-01
2.76500000000E+09 +7.24961397781E-01 +2.66406923370E-02 +4.97442350018E-03 +1.17612986202E-03 +5.25309774591E-03 +1.21415790628E-03 +7.81422918529E-01 +1.83649844639E-01
2.77000000000E+09 +7.19778603803E-01 +8.68285006522E-03 +5.70743312531E-03 +4.44626498924E-04 +5.98052535888E-03 +4.27291674350E-04 +7.80460941929E-01 +1.66105623550E-01
2.77500000000E+09 +7.14755550812E-01 -9.90486337009E-03 +5.95742560955E-03 -7.36162324151E-04 +6.10508261108E-03 -1.03583653469E-03 +7.78680782312E-01 +1.48097424452E-01
2.78000000000E+09 +7.10069625576E-01 -2.91797645495E-02 +5.48096063484E-03 -1.49560859603E-03 +5.53052748128E-03 -1.82880148356E-03 +7.76499620236E-01 +1.30920634720E-01
2.78500000000E+09 +7.05122255883E-01 -4.95654856983E-02 +5.16434924692E-03 -1.96833243535E-03 +5.03073536188E-03 -2.24691377531E-03 +7.74167041567E-01 +1.13900135643E-01
2.79000000000E+09 +6.99236330107E-01 -7.07913028273E-02 +5.09965603028E-03 -2.21231716632E-03 +4.78034852335E-03 -2.37996734201E-03 +7.70783496499E-01 +9.64973346081E-02
2.79500000000E+09 +6.91915904682E-01 -9.16152160995E-02 +5.20582074295E-03 -2.46305367183E-03 +4.89888577085E-03 -2.37055128625E-03 +7.66611994283E-01 +7.82699988937E-02
2.80000000000E+09 +6.83452401452E-01 -1.11619374561E-01 +5.67708149587E-03 -3.47433361253E-03 +5.56952976086E-03 -3.17874423518E-03 +7.61705344767E-01 +5.90152562912E-02
2.80500000000E+09 +6.74343172777E-01 -1.30885594044E-01 +5.19054692918E-03 -4.82164485185E-03 +5.33120144398E-03 -4.61859724818E-03 +7.56001019071E-01 +4.00634079219E-02
2.81000000000E+09 +6.63951980131E-01 -1.49246822325E-01 +4.16760005625E-03 -5.18430240984E-03 +4.36437298375E-03 -5.30278305397E-03 +7.50398223707E-01 +2.06478392163E-02
2.81500000000E+09 +6.52729538797E-01 -1.67095139723E-01 +3.92129996816E-03 -5.65045883996E-03 +3.85440688054E-03 -5.87908046674E-03 +7.43374646560E-01 +1.30277334091E-03
2.82000000000E+09 +6.40262638412E-01 -1.84699352120E-01 +3.43758250556E-03 -6.26638198465E-03 +3.07100326036E-03 -6.39334270922E-03 +7.35856899887E-01 -1.80847271399E-02
2.82500000000E+09 +6.26935776150E-01 -2.02175654081E-01 +2.68724199875E-03 -6.83317003603E-03 +2.29127885902E-03 -6.64136316586E-03 +7.26573807258E-01 -3.79321238048E-02
2.83000000000E+09 +6.12110853198E-01 -2.20401701189E-01 +1.86040864568E-03 -7.28856365451E-03 +1.74287340874E-03 -6.91794175333E-03 +7.16341126996E-01 -5.79311519393E-02
2.83500000000E+09 +5.96050271703E-01 -2.38982268699E-01 +7.51047621146E-04 -7.28180011910E-03 +8.46855200271E-04 -6.94580497168E-03 +7.06001894338E-01 -7.79189031863E-02
2.84000000000E+09 +5.77995598348E-01 -2.58296262410E-01 +4.54941008993E-04 -6.76166610274E-03 +6.64426781939E-04 -6.73024569331E-03 +6.95548465308E-01 -9.90990625961E-02
2.84500000000E+09 +5.58207933823E-01 -2.77700303932E-01 +7.65649257850E-04 -7.57011389768E-03 +9.18162797379E-04 -7.66572424273E-03 +6.83446644507E-01 -1.20368964012E-01
2.85000000000E+09 +5.36975229114E-01 -2.96875161432E-01 -3.91753097364E-04 -8.96446029637E-03 -4.20123242825E-04 -8.97048568135E-03 +6.69319498515E-01 -1.41330535995E-01
2.85500000000E+09 +5.14538080374E-01 -3.15461983283E-01 -2.35075125230E-03 -9.47181568516E-03 -2.30700876885E-03 -9.30534214908E-03 +6.53897114667E-01 -1.60803203208E-01
2.86000000000E+09 +4.91114359923E-01 -3.34029739620E-01 -4.26808163092E-03 -8.94153514907E-03 -4.13756530159E-03 -8.86584293968E-03 +6.38256825348E-01 -1.80817492697E-01
2.86500000000E+09 +4.66666847688E-01 -3.51105174947E-01 -5.98502048086E-03 -7.74445357938E-03 -5.90239882432E-03 -7.75087471855E-03 +6.20861065923E-01 -2.02019942704E-01
2.87000000000E+09 +4.41354807778E-01 -3.67055785584E-01 -6.23762519689E-03 -5.90342303873E-03 -6.30902526633E-03 -5.92952725407E-03 +6.01206477812E-01 -2.23218333456E-01
2.87500000000E+09 +4.15892143977E-01 -3.80975530497E-01 -5.78242620688E-03 -5.71166790404E-03 -5.88031717984E-03 -5.50766804007E-03 +5.81033377578E-01 -2.42895629733E-01
2.88000000000E+09 +3.90781186798E-01 -3.94070533212E-01 -6.42063803271E-03 -6.14740460487E-03 -6.44332908442E-03 -5.78068591578E-03 +5.59735405125E-01 -2.62432867316E-01
2.88500000000E+09 +3.64790392012E-01 -4.06410661231E-01 -8.08367878269E-03 -5.51251651954E-03 -7.71844047983E-03 -5.13504731554E-03 +5.36873011804E-01 -2.80471574900E-01
2.89000000000E+09 +3.37994569087E-01 -4.18143452826E-01 -8.64866733490E-03 -4.18841958537E-03 -8.04849467645E-03 -4.11418076357E-03 +5.12156726716E-01 -2.99120086193E-01
2.89500000000E+09 +3.09531294454E-01 -4.28835946869E-01 -9.17147879830E-03 -3.55869710972E-03 -8.70412067017E-03 -3.85920948409E-03 +4.83786104080E-01 -3.16961796718E-01
2.90000000000E+09 +2.79225697425E-01 -4.38695341778E-01 -1.01348580783E-02 -2.12698175193E-03 -1.00498757107E-02 -2.52369625436E-03 +4.53835898164E-01 -3.32241746584E-01
2.90500000000E+09 +2.45925416052E-01 -4.46100221441E-01 -9.97370553184E-03 -9.75309734989E-04 -1.01338659700E-02 -1.00186670818E-03 +4.24895694014E-01 -3.47347145553E-01
2.91000000000E+09 +2.12051294373E-01 -4.50777282412E-01 -1.03228710444E-02 +3.18609242116E-05 -1.02167402614E-02 +3.04167273492E-04 +3.93698458481E-01 -3.62694434384E-01
2.91500000000E+09 +1.76900318666E-01 -4.53505616780E-01 -1.04388501056E-02 +1.47043566296E-03 -9.93719631658E-03 +1.65570940612E-03 +3.60554184774E-01 -3.75040536552E-01
2.92000000000E+09 +1.41261373593E-01 -4.53347347846E-01 -9.88965755054E-03 +2.93334567355E-03 -9.27592353317E-03 +2.64166886764E-03 +3.25846525433E-01 -3.84796789223E-01
2.92500000000E+09 +1.06667294877E-01 -4.51311880788E-01 -9.30978718751E-03 +3.12364375568E-03 -8.96917621413E-03 +2.55184361538E-03 +2.89728731589E-01 -3.91421537218E-01
2.93000000000E+09 +7.19427486532E-02 -4.48674715937E-01 -9.87680645873E-03 +4.04250894091E-03 -9.98707505487E-03 +3.39395646546E-03 +2.53261452869E-01 -3.96835633116E-01
2.93500000000E+09 +3.67315748043E-02 -4.44431626579E-01 -9.87120085245E-03 +5.77739191767E-03 -1.01881713909E-02 +5.37704144554E-03 +2.15716328625E-01 -4.01538065540E-01
2.94000000000E+09 +1.58862243091E-03 -4.38941978034E-01 -9.17987085596E-03 +7.40497854799E-03 -9.40077156300E-03 +7.26509650028E-03 +1.75628964183E-01 -4.05127980447E-01
2.94500000000E+09 -3.51266428193E-02 -4.31135883953E-01 -8.02982446087E-03 +9.08223483237E-03 -8.26879654861E-03 +8.89979885684E-03 +1.34835244156E-01 -4.04584541998E-01
2.95000000000E+09 -7.13884879450E-02 -4.18358835356E-01 -6.10509854844E-03 +9.74592207571E-03 -6.46621491730E-03 +9.53859337703E-03 +9.48864185021E-02 -3.99928347641E-01
2.95500000000E+09 -1.05018935749E-01 -4.02779201937E-01 -5.01097364431E-03 +9.73395599469E-03 -5.55125081844E-03 +9.74818522592E-03 +5.64105873683E-02 -3.93451391852E-01
2.96000000000E+09 -1.37404190114E-01 -3.86170513184E-01 -4.54407860939E-03 +1.00765038644E-02 -4.89022655720E-03 +1.04746622810E-02 +1.59526537014E-02 -3.85016984032E-01
2.96500000000E+09 -1.70092871714E-01 -3.66607648080E-01 -3.85244299549E-03 +1.09696012148E-02 -3.72528275763E-03 +1.15336406679E-02 -2.55668811434E-02 -3.73279308494E-01
2.97000000000E+09 -2.01753072871E-01 -3.43463094997E-01 -2.46383720776E-03 +1.19328482666E-02 -2.01688635507E-03 +1.20813868364E-02 -6.66617490839E-02 -3.58141322978E-01
2.97500000000E+09 -2.31648097519E-01 -3.17570838146E-01 -1.13291060069E-03 +1.25994957733E-02 -8.88446775750E-04 +1.22592032131E-02 -1.06349221489E-01 -3.40343705277E-01
2.98000000000E+09 -2.60198644920E-01 -2.89624223447E-01 +1.40796424200E-03 +1.27788933330E-02 +1.08769525235E-03 +1.25209638712E-02 -1.44706764318E-01 -3.19309162953E-01
2.98500000000E+09 -2.87294181713E-01 -2.60325780299E-01 +2.68022265297E-03 +1.17873064296E-02 +2.18500136857E-03 +1.19960637163E-02 -1.81380096492E-01 -2.95491141101E-01
2.99000000000E+09 -3.13829523854E-01 -2.29431113393E-01 +3.54316723641E-03 +1.16303139716E-02 +3.55178984391E-03 +1.22265087943E-02 -2.16560562480E-01 -2.68115320855E-01
2.99500000000E+09 -3.38977436318E-01 -1.96145880989E-01 +4.71726282158E-03 +1.19817245592E-02 +5.37426522053E-03 +1.23105669910E-02 -2.49818530143E-01 -2.38235370128E-01
3.00000000000E+09 -3.60222212772E-01 -1.61882379782E-01 +7.09621801054E-03 +1.13730731165E-02 +7.81370276607E-03 +1.10634385068E-02 -2.80738500460E-01 -2.05634186276E-01
3.00500000000E+09 -3.79769704776E-01 -1.28717824420E-01 +8.04939971599E-03 +1.02132497405E-02 +8.18702083714E-03 +9.51065274387E-03 -3.08993145498E-01 -1.72543666616E-01
3.01000000000E+09 -3.97577303938E-01 -9.50811803731E-02 +9.66814247821E-03 +9.35617204138E-03 +9.28259741568E-03 +8.84137767254E-03 -3.35226507566E-01 -1.37441769515E-01
3.01500000000E+09 -4.13178423948E-01 -6.08321075379E-02 +1.09341796402E-02 +7.95885525580E-03 +1.04407663969E-02 +7.93934961050E-03 -3.58823899032E-01 -1.01100475765E-01
3.02000000000E+09 -4.25736769417E-01 -2.56546686072E-02 +1.16950700676E-02 +6.41641222736E-03 +1.15122187899E-02 +6.56273169366E-03 -3.78826231989E-01 -6.11254833049E-02
3.02500000000E+09 -4.34794399277E-01 +1.07954075089E-02 +1.23139579450E-02 +5.28534957455E-03 +1.22019353191E-02 +5.32227250901E-03 -3.93948870789E-01 -2.10948746379E-02
3.03000000000E+09 -4.39182269356E-01 +4.73716693151E-02 +1.35035740877E-02 +3.58363007133E-03 +1.32895777404E-02 +3.71243418902E-03 -4.06965067835E-01 +1.88714468431E-02
3.03500000000E+09 -4.39898385310E-01 +8.29954268894E-02 +1.39205871866E-02 +1.55949904714E-03 +1.37613827750E-02 +1.92111430939E-03 -4.18301795292E-01 +5.83871309773E-02
3.04000000000E+09 -4.39121167820E-01 +1.17751076847E-01 +1.38652924830E-02 -6.90252613525E-04 +1.41530839861E-02 -2.13094186509E-04 -4.27066038824E-01 +9.87536645700E-02
3.04500000000E+09 -4.36322052502E-01 +1.53384345216E-01 +1.30822129580E-02 -2.31774450251E-03 +1.38977507696E-02 -2.23783735612E-03 -4.32774333697E-01 +1.39682984648E-01
3.05000000000E+09 -4.30543765516E-01 +1.89601406624E-01 +1.27381200001E-02 -3.73119574384E-03 +1.33527864691E-02 -4.46480728875E-03 -4.33971856258E-01 +1.80055822271E-01
3.05500000000E+09 -4.22491880162E-01 +2.24498822180E-01 +1.21891987843E-02 -5.09227028401E-03 +1.19180738283E-02 -6.11590061012E-03 -4.33090035296E-01 +2.18454998235E-01
3.06000000000E+09 -4.13106439231E-01 +2.58745600400E-01 +1.18021610738E-02 -6.72982205930E-03 +1.09259922826E-02 -7.04513630998E-03 -4.30548751022E-01 +2.57191675833E-01
3.06500000000E+09 -4.01434096422E-01 +2.91757662431E-01 +1.07114652871E-02 -8.95019766578E-03 +1.00314963898E-02 -8.31263387004E-03 -4.25407829981E-01 +2.94950289143E-01
3.07000000000E+09 -3.89166497145E-01 +3.22198003835E-01 +8.38152834555E-03 -1.05783846955E-02 +8.65907850194E-03 -9.64273189295E-03 -4.17936030068E-01 +3.31080980509E-01
