# Hz S RI R 50
! CMT, C1220, 16058040, 17.2.0/1
! Date: 15/08/2018 09:49:22
! Data: Format (Calibration Info)
! Freq                      S11: Re/Im (F2)                       S21: Re/Im (F2)                       S12: Re/Im (F2)                       S22: Re/Im (F2)            
2.50000000000E+09 +5.76431286499E-01 +6.68695800366E-01 -1.09008213214E-04 -1.77936894829E-03 -9.57773192796E-05 -1.91850245017E-03 +5.74901070892E-01 +7.17958497180E-01
2.50500000000E+09 +5.83390173334E-01 +6.61189126822E-01 -2.69555926455E-04 -1.81095276498E-03 -3.86927194782E-04 -1.87490319112E-03 +5.80425960816E-01 +7.12428840290E-01
2.51000000000E+09 +5.90625946868E-01 +6.53317747375E-01 -5.09166812346E-04 -1.87866588803E-03 -5.46186077743E-04 -1.84612681585E-03 +5.85958801033E-01 +7.07220946511E-01
2.51500000000E+09 +5.97895580730E-01 +6.45160634471E-01 -7.61945808343E-04 -1.82975489596E-03 -7.11899614330E-04 -1.79548517428E-03 +5.91158754580E-01 +7.01724172444E-01
2.52000000000E+09 +6.04798855283E-01 +6.36549612946E-01 -9.75188048847E-04 -1.78045214594E-03 -9.32084537420E-04 -1.76193629559E-03 +5.96432335618E-01 +6.95534727977E-01
2.52500000000E+09 +6.10782664001E-01 +6.28069833319E-01 -1.14615909212E-03 -1.59304717414E-03 -1.08568724567E-03 -1.60849022671E-03 +6.02359028833E-01 +6.88998546777E-01
2.53000000000E+09 +6.16355594569E-01 +6.19814507659E-01 -1.21063665010E-03 -1.51628702348E-03 -1.24304192238E-03 -1.52665153242E-03 +6.08651569037E-01 +6.81869051085E-01
2.53500000000E+09 +6.21359147513E-01 +6.11560369982E-01 -1.37319742202E-03 -1.43066991945E-03 -1.35812005417E-03 -1.45986213779E-03 +6.14414457033E-01 +6.75201471984E-01
2.54000000000E+09 +6.25890718546E-01 +6.03819688781E-01 -1.54301713976E-03 -1.36812555446E-03 -1.47956768841E-03 -1.37433598440E-03 +6.20203311924E-01 +6.68626245916E-01
2.54500000000E+09 +6.30377775585E-01 +5.96474491321E-01 -1.79309785940E-03 -1.29073799567E-03 -1.68493009989E-03 -1.39397262084E-03 +6.25677348172E-01 +6.62277828140E-01
2.55000000000E+09 +6.35255185649E-01 +5.89320235562E-01 -1.94547206142E-03 -9.60136176497E-04 -2.05196643877E-03 -1.19110440858E-03 +6.30642486184E-01 +6.55770112050E-01
2.55500000000E+09 +6.41025163846E-01 +5.81537286298E-01 -1.98499246886E-03 -7.08785522417E-04 -2.27123461257E-03 -9.26713199890E-04 +6.35961233884E-01 +6.49153093875E-01
2.56000000000E+09 +6.47466920620E-01 +5.73668790753E-01 -1.88032709204E-03 -5.24797799505E-04 -2.29057852501E-03 -5.44096426298E-04 +6.41513502574E-01 +6.41929572667E-01
2.56500000000E+09 +6.54333515612E-01 +5.64933388552E-01 -1.89961249839E-03 -5.96858650522E-04 -2.20325178226E-03 -2.78382268608E-04 +6.47144875714E-01 +6.34366683158E-01
2.57000000000E+09 +6.61317578974E-01 +5.55996569052E-01 -2.08687852049E-03 -5.14616603921E-04 -2.10373766625E-03 -3.60815320406E-05 +6.52573072600E-01 +6.26850687536E-01
2.57500000000E+09 +6.68531719704E-01 +5.46257132131E-01 -2.30063757662E-03 -3.07837354059E-04 -2.04497105286E-03 +6.91000800175E-05 +6.57909667365E-01 +6.19638289568E-01
2.58000000000E+09 +6.74851392348E-01 +5.36571628627E-01 -2.45706772636E-03 +6.09815217356E-06 -2.06973416141E-03 +1.41153892099E-04 +6.62651302937E-01 +6.12262676712E-01
2.58500000000E+09 +6.80664976738E-01 +5.26762466790E-01 -2.32879724937E-03 +4.81287767610E-04 -2.05641860740E-03 +3.25971133155E-04 +6.67325622419E-01 +6.04706180469E-01
2.59000000000E+09 +6.85976841287E-01 +5.17215319469E-01 -2.02163621759E-03 +5.69136613043E-04 -1.99389628119E-03 +3.46458638617E-04 +6.72259910488E-01 +5.96867373561E-01
2.59500000000E+09 +6.90832365651E-01 +5.07432818837E-01 -2.11162996018E-03 +3.80046207118E-04 -2.10748322543E-03 +2.56359570241E-04 +6.77443900941E-01 +5.88240487740E-01
2.60000000000E+09 +6.94766708103E-01 +4.97887254971E-01 -2.35724701005E-03 +4.82712778861E-04 -2.36624931359E-03 +5.11865259421E-04 +6.82373331545E-01 +5.79818641220E-01
2.60500000000E+09 +6.98924496720E-01 +4.88333796921E-01 -2.63286968775E-03 +8.23778046550E-04 -2.57052765115E-03 +8.63203929628E-04 +6.87782412746E-01 +5.71479386673E-01
2.61000000000E+09 +7.03186619939E-01 +4.78263612962E-01 -2.67053692344E-03 +1.38274131414E-03 -2.61549965596E-03 +1.33595970923E-03 +6.92837770785E-01 +5.62969629805E-01
2.61500000000E+09 +7.07918526669E-01 +4.67488467095E-01 -2.23053590779E-03 +1.89690303792E-03 -2.29593603204E-03 +1.87318902208E-03 +6.97291799085E-01 +5.54542492018E-01
2.62000000000E+09 +7.12716092174E-01 +4.55835859075E-01 -1.83629839305E-03 +1.93603331192E-03 -1.92437531966E-03 +2.05706901350E-03 +7.01996728597E-01 +5.45688393120E-01
2.62500000000E+09 +7.17704700743E-01 +4.43007654792E-01 -1.84112488215E-03 +1.85937117442E-03 -1.77723146909E-03 +2.09387056261E-03 +7.06775341929E-01 +5.36386846291E-01
2.63000000000E+09 +7.22207507756E-01 +4.29538865092E-01 -1.89994475006E-03 +2.18348197762E-03 -1.54969784782E-03 +2.38373618446E-03 +7.11530362436E-01 +5.27099256422E-01
2.63500000000E+09 +7.26233779595E-01 +4.15795302898E-01 -1.73341921726E-03 +2.40751146040E-03 -1.33142841139E-03 +2.35338829906E-03 +7.16825868493E-01 +5.17570468297E-01
2.64000000000E+09 +7.29822415162E-01 +4.02139773767E-01 -1.54891211762E-03 +2.81616317750E-03 -1.27814154680E-03 +2.46117478791E-03 +7.21654242330E-01 +5.08183912278E-01
2.64500000000E+09 +7.33030571672E-01 +3.88961230455E-01 -1.02524541751E-03 +3.13675242735E-03 -1.16253927747E-03 +2.64412560115E-03 +7.26361616906E-01 +4.98721636731E-01
2.65000000000E+09 +7.35594064261E-01 +3.76520762827E-01 -6.09546158239E-04 +3.07315335821E-03 -9.34313009685E-04 +2.87401573646E-03 +7.30650635326E-01 +4.89124414428E-01
2.65500000000E+09 +7.38254630397E-01 +3.64255080092E-01 -4.20581793408E-04 +2.94399807735E-03 -7.45701192247E-04 +3.06916644971E-03 +7.34483985796E-01 +4.78681961431E-01
2.66000000000E+09 +7.41155718721E-01 +3.52283117668E-01 -3.66391854639E-04 +3.13476460972E-03 -4.02908380507E-04 +3.33865275508E-03 +7.38429178631E-01 +4.67601988459E-01
2.66500000000E+09 +7.44231573463E-01 +3.40261146724E-01 -7.77913369645E-05 +3.37314557819E-03 +1.35650269340E-04 +3.50151268634E-03 +7.43139689632E-01 +4.56223722694E-01
2.67000000000E+09 +7.47116837695E-01 +3.27062882920E-01 +5.07262770530E-04 +3.47486718314E-03 +6.95929389752E-04 +3.34189456211E-03 +7.47711683156E-01 +4.44953928942E-01
2.67500000000E+09 +7.49316096764E-01 +3.13158119305E-01 +9.97472998401E-04 +3.22788602325E-03 +1.02470170274E-03 +2.95992458460E-03 +7.51692735021E-01 +4.33688933865E-01
2.68000000000E+09 +7.51151304806E-01 +2.98546306939E-01 +1.12118121749E-03 +2.89567384059E-03 +9.71141283248E-04 +2.78917660624E-03 +7.55621358252E-01 +4.23128074672E-01
2.68500000000E+09 +7.52399933502E-01 +2.83204542451E-01 +1.06253905765E-03 +2.92026099393E-03 +1.00528165588E-03 +2.94811260381E-03 +7.58848091580E-01 +4.11629725981E-01
2.69000000000E+09 +7.52795220303E-01 +2.67887674604E-01 +1.28498632250E-03 +3.19276413757E-03 +1.26482126295E-03 +3.12916519539E-03 +7.61630649985E-01 +3.99597609867E-01
2.69500000000E+09 +7.53173449715E-01 +2.52594944760E-01 +1.89172098044E-03 +3.22831857206E-03 +1.95062582553E-03 +3.17260160504E-03 +7.64502136339E-01 +3.86508342074E-01
2.70000000000E+09 +7.53611576446E-01 +2.37087388218E-01 +2.41112952940E-03 +2.97902287463E-03 +2.32949565919E-03 +2.92498907297E-03 +7.67651320310E-01 +3.72960309264E-01
2.70500000000E+09 +7.53431090079E-01 +2.22005365869E-01 +2.82031974249E-03 +2.47998491467E-03 +2.63781412559E-03 +2.51580510191E-03 +7.70652946229E-01 +3.59154239531E-01
2.71000000000E+09 +7.53683100348E-01 +2.07104886153E-01 +2.88903942813E-03 +2.04268239951E-03 +2.80852093532E-03 +2.21466297626E-03 +7.73407050427E-01 +3.46478440599E-01
2.71500000000E+09 +7.54380920157E-01 +1.92135752538E-01 +2.70704137044E-03 +1.83472820314E-03 +2.83523061855E-03 +1.97161538250E-03 +7.76320598843E-01 +3.34049341682E-01
2.72000000000E+09 +7.54801215691E-01 +1.76949890304E-01 +2.71633982498E-03 +2.02984322737E-03 +3.01332857287E-03 +1.94867635624E-03 +7.78578931122E-01 +3.20780817187E-01
2.72500000000E+09 +7.55276671230E-01 +1.61468008667E-01 +3.27603599799E-03 +1.87343222111E-03 +3.38512341739E-03 +1.55377330793E-03 +7.79565885511E-01 +3.06698730627E-01
2.73000000000E+09 +7.55070624347E-01 +1.45427858603E-01 +3.32166231411E-03 +1.63013423103E-03 +3.15350520637E-03 +1.24686481630E-03 +7.80974317357E-01 +2.92119346618E-01
2.73500000000E+09 +7.54167472446E-01 +1.28376493515E-01 +3.52819700030E-03 +1.61996099330E-03 +3.08883353519E-03 +1.40410702085E-03 +7.81962255995E-01 +2.77029056562E-01
2.74000000000E+09 +7.52223302815E-01 +1.11275127141E-01 +4.25317011049E-03 +1.51595362075E-03 +3.64887622465E-03 +1.64775370150E-03 +7.83467752096E-01 +2.62180792983E-01
2.74500000000E+09 +7.48989782601E-01 +9.32579886681E-02 +4.45618055402E-03 +7.89058107386E-04 +4.14556456501E-03 +1.31229652163E-03 +7.84669614803E-01 +2.46736674242E-01
2.75000000000E+09 +7.44006505415E-01 +7.53397974565E-02 +4.57468457297E-03 +3.89051929566E-04 +4.68684782600E-03 +9.42748064342E-04 +7.85047517558E-01 +2.31502379926E-01
2.75500000000E+09 +7.38283332755E-01 +5.77469613680E-02 +4.68587987970E-03 -4.11152262314E-05 +5.01545454678E-03 +2.89248226891E-04 +7.84226680714E-01 +2.16175535327E-01
2.76000000000E+09 +7.32331166328E-01 +4.04659981507E-02 +4.79324339949E-03 -3.07988968070E-04 +5.16354491355E-03 -2.78812383267E-04 +7.83445207840E-01 +2.00600074931E-01
2.76500000000E+09 +7.26566619650E-01 +2.32026772665E-02 +5.13104333817E-03 -7.27744867018E-04 +5.40498668243E-03 -8.41831724274E-04 +7.82231555641E-01 +1.83290615976E-01
2.77000000000E+09 +7.21406066852E-01 +5.25252923241E-03 +5.55168708579E-03 -1.44979603913E-03 +5.78225573435E-03 -1.66476376782E-03 +7.81251125404E-01 +1.65531747314E-01
2.77500000000E+09 +7.16515775620E-01 -1.35129793205E-02 +5.34176886541E-03 -2.59212260192E-03 +5.45087081211E-03 -2.83731343752E-03 +7.79287000331E-01 +1.47589828615E-01
2.78000000000E+09 +7.11868610564E-01 -3.31396114576E-02 +4.77412571050E-03 -3.07888234031E-03 +4.69570326987E-03 -3.40314093024E-03 +7.77236304018E-01 +1.30211399274E-01
2.78500000000E+09 +7.06789083413E-01 -5.38110605365E-02 +4.62735400028E-03 -3.42258496470E-03 +4.31422440353E-03 -3.65348697825E-03 +7.74785969489E-01 +1.12890999139E-01
2.79000000000E+09 +7.00809988171E-01 -7.53684986207E-02 +4.54392101381E-03 -4.03885490318E-03 +4.14985730228E-03 -4.07110940523E-03 +7.71335883873E-01 +9.53122346284E-02
2.79500000000E+09 +6.93283319387E-01 -9.66894971518E-02 +4.11595156751E-03 -4.50977182325E-03 +3.80335922640E-03 -4.29173299074E-03 +7.66728972186E-01 +7.66986065251E-02
2.80000000000E+09 +6.84328680151E-01 -1.17259793608E-01 +4.08162052473E-03 -5.20618257547E-03 +4.06729784052E-03 -4.86710651332E-03 +7.61264806122E-01 +5.75282374983E-02
2.80500000000E+09 +6.74534131693E-01 -1.36476413155E-01 +3.23064291182E-03 -6.36884771299E-03 +3.44422825818E-03 -6.20640621914E-03 +7.55212944010E-01 +3.89293012578E-02
2.81000000000E+09 +6.63885850337E-01 -1.54979147487E-01 +2.08508976762E-03 -6.19757945996E-03 +2.19812922432E-03 -6.35326250128E-03 +7.49635870035E-01 +1.98809770486E-02
2.81500000000E+09 +6.52504307445E-01 -1.72847377330E-01 +1.92679743031E-03 -6.35381569902E-03 +1.81562027527E-03 -6.55026989323E-03 +7.42773713641E-01 +6.29118153121E-04
2.82000000000E+09 +6.39784329003E-01 -1.90681566875E-01 +1.43411534179E-03 -6.95584611139E-03 +1.04965996912E-03 -6.91709619914E-03 +7.35194389438E-01 -1.90018947823E-02
2.82500000000E+09 +6.25958652394E-01 -2.08578395571E-01 +3.39995436311E-04 -7.28101510909E-03 +6.87315047873E-05 -6.94990777063E-03 +7.25696721319E-01 -3.88378019406E-02
2.83000000000E+09 +6.09985532211E-01 -2.26981343763E-01 -4.17813082885E-04 -7.35110029224E-03 -3.67291983932E-04 -6.94129484478E-03 +7.15300242998E-01 -5.86860548998E-02
2.83500000000E+09 +5.93307098621E-01 -2.44934186182E-01 -1.46318845079E-03 -7.22552846660E-03 -1.15446283337E-03 -6.99743462889E-03 +7.04652801922E-01 -7.85311607566E-02
2.84000000000E+09 +5.75067069036E-01 -2.63527436898E-01 -1.95149611452E-03 -6.59727606002E-03 -1.70273119818E-03 -6.57210382359E-03 +6.93961293673E-01 -9.95365207066E-02
2.84500000000E+09 +5.55140607028E-01 -2.82823165784E-01 -1.67072959759E-03 -6.99643677107E-03 -1.57814030660E-03 -7.07813415399E-03 +6.81930160819E-01 -1.20252139068E-01
2.85000000000E+09 +5.33590667256E-01 -3.01891790483E-01 -2.75830100420E-03 -8.10560343592E-03 -2.80169959114E-03 -8.10291935484E-03 +6.68477572465E-01 -1.40934692838E-01
2.85500000000E+09 +5.10893402946E-01 -3.20328881200E-01 -4.71262849538E-03 -8.14292793875E-03 -4.63832921439E-03 -8.01649577931E-03 +6.53261171347E-01 -1.60986642734E-01
2.86000000000E+09 +4.87125713577E-01 -3.38620959287E-01 -6.19632582104E-03 -7.28616548378E-03 -6.10131590968E-03 -7.22932445986E-03 +6.37230387603E-01 -1.81268389710E-01
2.86500000000E+09 +4.62626306409E-01 -3.55272052775E-01 -7.58442578025E-03 -6.10472958812E-03 -7.48657681530E-03 -6.14881194754E-03 +6.19711420055E-01 -2.02681441378E-01
2.87000000000E+09 +4.37265097684E-01 -3.71315907697E-01 -8.13693471782E-03 -4.39766868182E-03 -8.15925048032E-03 -4.38881929963E-03 +5.99125522770E-01 -2.23801670347E-01
2.87500000000E+09 +4.11387200051E-01 -3.85473222012E-01 -7.56474443983E-03 -3.63078301815E-03 -7.68029065802E-03 -3.37947383435E-03 +5.78492503829E-01 -2.42407385703E-01
2.88000000000E+09 +3.85464008136E-01 -3.98040938194E-01 -7.88280762760E-03 -3.70107169329E-03 -7.75614821859E-03 -3.33764287969E-03 +5.57673261197E-01 -2.61459291559E-01
2.88500000000E+09 +3.59638472798E-01 -4.09760800787E-01 -9.42200282668E-03 -2.89956052868E-03 -8.95685383852E-03 -2.57572115990E-03 +5.35113853228E-01 -2.79706936727E-01
2.89000000000E+09 +3.32713056985E-01 -4.21576045515E-01 -9.59121724110E-03 -1.09283595091E-03 -8.96672987802E-03 -1.18233065877E-03 +5.09996827294E-01 -2.97643261079E-01
2.89500000000E+09 +3.04032574454E-01 -4.32424988530E-01 -9.35407806465E-03 -3.07537517924E-04 -9.10292451721E-03 -6.68796750802E-04 +4.82245530276E-01 -3.14986955833E-01
2.90000000000E+09 +2.72874289114E-01 -4.42386396115E-01 -9.89881898134E-03 +8.13543472862E-04 -9.96267250234E-03 +4.60504371998E-04 +4.52534069520E-01 -3.30320619401E-01
2.90500000000E+09 +2.38416212339E-01 -4.49820852279E-01 -9.53052299338E-03 +2.18930716291E-03 -9.66316141089E-03 +2.19645514361E-03 +4.23718032473E-01 -3.45209747191E-01
2.91000000000E+09 +2.03380053871E-01 -4.53185768639E-01 -9.39112662771E-03 +2.95848631710E-03 -9.17113581401E-03 +3.22305771209E-03 +3.92877688214E-01 -3.60300428625E-01
2.91500000000E+09 +1.68258188135E-01 -4.54713611635E-01 -9.41155399869E-03 +4.41675123632E-03 -8.89222509764E-03 +4.50727969163E-03 +3.59928556470E-01 -3.72504522779E-01
2.92000000000E+09 +1.33092675393E-01 -4.54065524326E-01 -8.13529353404E-03 +5.97016354198E-03 -7.63694745893E-03 +5.54797311765E-03 +3.25819129446E-01 -3.81906275032E-01
2.92500000000E+09 +9.80825617687E-02 -4.51738502455E-01 -7.08387258193E-03 +5.73954989061E-03 -6.91281928081E-03 +5.14044963140E-03 +2.90521035846E-01 -3.88779085362E-01
2.93000000000E+09 +6.33573461182E-02 -4.48224353616E-01 -7.38264541182E-03 +6.19843517785E-03 -7.55304050673E-03 +5.67418303986E-03 +2.54787163810E-01 -3.94412496554E-01
2.93500000000E+09 +2.77580803037E-02 -4.43414044576E-01 -7.11952245607E-03 +7.65311917587E-03 -7.43614398701E-03 +7.33166964378E-03 +2.17137518333E-01 -3.99953618935E-01
2.94000000000E+09 -7.54852221390E-03 -4.35877729550E-01 -6.19433029143E-03 +8.79595147789E-03 -6.42365556613E-03 +8.68417678621E-03 +1.76839691288E-01 -4.03726038874E-01
2.94500000000E+09 -4.25106305206E-02 -4.26865720599E-01 -5.00575035121E-03 +1.01699420361E-02 -5.23180875128E-03 +9.97338800274E-03 +1.36171419193E-01 -4.03110474849E-01
2.95000000000E+09 -7.83279283017E-02 -4.13855443338E-01 -2.81671384136E-03 +1.04517300506E-02 -3.24655940103E-03 +1.03480297403E-02 +9.61876654771E-02 -3.98765904754E-01
2.95500000000E+09 -1.11876733056E-01 -3.97421745704E-01 -1.71388538127E-03 +9.71239137299E-03 -2.21434946946E-03 +9.90816648181E-03 +5.79365513316E-02 -3.92468338729E-01
2.96000000000E+09 -1.43308460616E-01 -3.79162346086E-01 -1.55722683794E-03 +9.85850044913E-03 -1.80220396121E-03 +1.02834073204E-02 +1.73417820980E-02 -3.84033047572E-01
2.96500000000E+09 -1.74675487424E-01 -3.59135273250E-01 -7.91470575973E-04 +1.05414027059E-02 -5.53797943953E-04 +1.10189431177E-02 -2.39992302930E-02 -3.72332163700E-01
2.97000000000E+09 -2.05187464954E-01 -3.35660727323E-01 +6.07898120751E-04 +1.10477438401E-02 +1.01025147006E-03 +1.10501960254E-02 -6.48748263576E-02 -3.57221172986E-01
2.97500000000E+09 -2.34015005854E-01 -3.10343835009E-01 +1.87425473097E-03 +1.12774188967E-02 +2.00839654893E-03 +1.09970767726E-02 -1.04323304230E-01 -3.39572324783E-01
2.98000000000E+09 -2.62963424821E-01 -2.82652678605E-01 +4.02324234366E-03 +1.10346961438E-02 +3.68411881704E-03 +1.08895178917E-02 -1.42102831917E-01 -3.19132391441E-01
2.98500000000E+09 -2.90096755226E-01 -2.52020805616E-01 +5.08803697359E-03 +9.92293575803E-03 +4.74503816608E-03 +1.02526667951E-02 -1.78921766460E-01 -2.95933295321E-01
2.99000000000E+09 -3.15226203371E-01 -2.20045986834E-01 +5.46975729834E-03 +9.43216051943E-03 +5.60966864009E-03 +9.98642800855E-03 -2.14431254326E-01 -2.69029506260E-01
2.99500000000E+09 -3.38396004930E-01 -1.86883882371E-01 +6.78400133641E-03 +9.92044408245E-03 +7.34733573723E-03 +1.01440792106E-02 -2.47965510679E-01 -2.39347996113E-01
3.00000000000E+09 -3.58630406812E-01 -1.53584417742E-01 +9.13031914354E-03 +8.69115688009E-03 +9.61090206718E-03 +8.18988047378E-03 -2.78960722956E-01 -2.07211071980E-01
3.00500000000E+09 -3.77827012901E-01 -1.20904120790E-01 +9.57158324048E-03 +7.03745403554E-03 +9.52551278559E-03 +6.36695983925E-03 -3.07735993468E-01 -1.73814905245E-01
3.01000000000E+09 -3.95301854538E-01 -8.74675104362E-02 +1.05161852442E-02 +5.95382751052E-03 +1.00255043971E-02 +5.64375252587E-03 -3.33688884437E-01 -1.39080138719E-01
3.01500000000E+09 -4.10314304243E-01 -5.28751180027E-02 +1.10123321124E-02 +4.64464778037E-03 +1.06727857118E-02 +4.76674916407E-03 -3.57329735281E-01 -1.03322221482E-01
3.02000000000E+09 -4.21436793898E-01 -1.75735349811E-02 +1.14596105513E-02 +3.49117516508E-03 +1.14210351262E-02 +3.69189248898E-03 -3.77940547687E-01 -6.40132379581E-02
3.02500000000E+09 -4.29321377502E-01 +1.74095586739E-02 +1.20005682692E-02 +2.37700833079E-03 +1.19706000758E-02 +2.46733737218E-03 -3.94141441519E-01 -2.42757249423E-02
3.03000000000E+09 -4.33685728377E-01 +5.29310641186E-02 +1.27036950933E-02 +6.03841793165E-04 +1.25372871934E-02 +6.67588210623E-04 -4.08262146377E-01 +1.60044434065E-02
3.03500000000E+09 -4.34553025105E-01 +8.84544971274E-02 +1.24926835389E-02 -1.02473017496E-03 +1.23465422028E-02 -7.28036895167E-04 -4.20130218115E-01 +5.61620048858E-02
3.04000000000E+09 -4.32504480721E-01 +1.22928167940E-01 +1.24338777078E-02 -2.84051655888E-03 +1.28483277065E-02 -2.45098226973E-03 -4.29360612108E-01 +9.78216996549E-02
3.04500000000E+09 -4.28903068097E-01 +1.57139992468E-01 +1.16397676562E-02 -4.49582998664E-03 +1.23984818353E-02 -4.64779574938E-03 -4.34113207980E-01 +1.39390110261E-01
3.05000000000E+09 -4.23287957819E-01 +1.91691873520E-01 +1.08019989018E-02 -5.82636042013E-03 +1.11736627270E-02 -6.59780573834E-03 -4.34748877758E-01 +1.79287055343E-01
3.05500000000E+09 -4.16159601691E-01 +2.25846789464E-01 +9.86896262196E-03 -6.67547903603E-03 +9.44373806738E-03 -7.47330407178E-03 -4.34273631628E-01 +2.17594527789E-01
3.06000000000E+09 -4.07045646074E-01 +2.60120471257E-01 +9.49474884076E-03 -7.96879059349E-03 +8.65944095783E-03 -8.15009020810E-03 -4.32034836350E-01 +2.56564980864E-01
3.06500000000E+09 -3.95156830179E-01 +2.93288923448E-01 +8.31645250178E-03 -9.75786469014E-03 +7.79560403579E-03 -9.13345925308E-03 -4.26631388769E-01 +2.94595401310E-01
3.07000000000E+09 -3.81960353273E-01 +3.23144521663E-01 +6.13458726664E-03 -1.09281815832E-02 +6.50840230119E-03 -1.01243105489E-02 -4.19387622900E-01 +3.30423600269E-01
