# Hz S RI R 50
! CMT, C1220, 16058040, 17.2.0/1
! Date: 15/08/2018 09:45:08
! Data: Format (Calibration Info)
! Freq                      S11: Re/Im (F2)                       S21: Re/Im (F2)                       S12: Re/Im (F2)                       S22: Re/Im (F2)            
2.50000000000E+09 +5.80557157024E-01 +6.60904945022E-01 +8.59744302890E-05 -1.73244935527E-03 +1.50416291150E-04 -1.93476856548E-03 +5.73909915370E-01 +7.18486470891E-01
2.50500000000E+09 +5.87488092729E-01 +6.53134412489E-01 -8.97363899587E-05 -1.85830985693E-03 -1.48419979531E-04 -1.90587492957E-03 +5.79484495563E-01 +7.12913413992E-01
2.51000000000E+09 +5.94853904269E-01 +6.44997557705E-01 -2.64386721237E-04 -1.83404214459E-03 -3.91380425828E-04 -1.83981643896E-03 +5.84882495107E-01 +7.07944125066E-01
2.51500000000E+09 +6.02175595779E-01 +6.36796123623E-01 -4.87601189334E-04 -1.87280099864E-03 -5.02847651091E-04 -1.81635198616E-03 +5.90140467877E-01 +7.02375376399E-01
2.52000000000E+09 +6.08953812976E-01 +6.27982924710E-01 -7.46686941289E-04 -1.78349090912E-03 -6.92920293199E-04 -1.76094322943E-03 +5.95430510512E-01 +6.96278673060E-01
2.52500000000E+09 +6.14905780330E-01 +6.19379722476E-01 -8.90358705353E-04 -1.60856561319E-03 -8.35715953107E-04 -1.71636415986E-03 +6.01291708662E-01 +6.89621393849E-01
2.53000000000E+09 +6.20300114422E-01 +6.11064914265E-01 -1.00736617732E-03 -1.53924317455E-03 -1.04369623950E-03 -1.60865302776E-03 +6.07538253264E-01 +6.82444706987E-01
2.53500000000E+09 +6.25012212583E-01 +6.02929401123E-01 -1.10753680597E-03 -1.51374536267E-03 -1.13547771636E-03 -1.50854040501E-03 +6.13239397829E-01 +6.75694444532E-01
2.54000000000E+09 +6.29110575372E-01 +5.95259795965E-01 -1.28958866618E-03 -1.47272421714E-03 -1.20738334732E-03 -1.49973604238E-03 +6.19123329243E-01 +6.69146255429E-01
2.54500000000E+09 +6.33574699589E-01 +5.88124728884E-01 -1.48529765353E-03 -1.46685188148E-03 -1.38480482829E-03 -1.54868645338E-03 +6.24591560792E-01 +6.62782971294E-01
2.55000000000E+09 +6.38280775254E-01 +5.80966846896E-01 -1.72896937648E-03 -1.16747986164E-03 -1.70999139494E-03 -1.44972283415E-03 +6.29691068145E-01 +6.56387761941E-01
2.55500000000E+09 +6.43842651516E-01 +5.73506398618E-01 -1.85976210632E-03 -9.44332148676E-04 -2.06805179003E-03 -1.20287661572E-03 +6.34880209172E-01 +6.49745057607E-01
2.56000000000E+09 +6.50362596127E-01 +5.65789433261E-01 -1.77102642747E-03 -7.13855540935E-04 -2.16821862824E-03 -6.72659170410E-04 +6.40313604645E-01 +6.42456060749E-01
2.56500000000E+09 +6.57268222487E-01 +5.56917989762E-01 -1.71067057095E-03 -7.34015655530E-04 -2.06381281776E-03 -4.86446138313E-04 +6.45932810209E-01 +6.34814621522E-01
2.57000000000E+09 +6.64327774048E-01 +5.47807304689E-01 -1.85055346763E-03 -7.22721987362E-04 -1.96300345205E-03 -3.05566745497E-04 +6.51289240286E-01 +6.27356140258E-01
2.57500000000E+09 +6.71542447277E-01 +5.38137916374E-01 -2.12126204184E-03 -6.70100026465E-04 -1.88454853785E-03 -2.83507362029E-04 +6.56570038647E-01 +6.20080228981E-01
2.58000000000E+09 +6.77799623496E-01 +5.28202712425E-01 -2.32317110025E-03 -3.32518682787E-04 -1.96537805085E-03 -2.03608335316E-04 +6.61366894286E-01 +6.12794449381E-01
2.58500000000E+09 +6.83406540464E-01 +5.18250487945E-01 -2.30663454371E-03 +1.24762981444E-04 -1.96121931859E-03 -1.85675490484E-05 +6.66054837099E-01 +6.05317520892E-01
2.59000000000E+09 +6.88488732410E-01 +5.08584061849E-01 -1.94159819034E-03 +1.80601767280E-04 -1.88538356924E-03 -3.54357162795E-05 +6.71125022635E-01 +5.97484701761E-01
2.59500000000E+09 +6.92874365693E-01 +4.98804987039E-01 -2.08394889446E-03 +1.79604353429E-05 -2.05223867597E-03 -5.36956918647E-05 +6.76237675368E-01 +5.88991487964E-01
2.60000000000E+09 +6.96715438584E-01 +4.89428486165E-01 -2.27629783550E-03 +1.20818288846E-04 -2.32930791359E-03 +1.27299094622E-04 +6.81273823710E-01 +5.80586552079E-01
2.60500000000E+09 +7.00839030472E-01 +4.79609048561E-01 -2.63347088146E-03 +4.87036096870E-04 -2.56814970326E-03 +4.41106864261E-04 +6.86500490330E-01 +5.72183356202E-01
2.61000000000E+09 +7.05012507946E-01 +4.69312513844E-01 -2.70137325494E-03 +9.82804047820E-04 -2.67910133210E-03 +8.95310350234E-04 +6.91461437692E-01 +5.63751236346E-01
2.61500000000E+09 +7.09822101001E-01 +4.58426750308E-01 -2.34058583869E-03 +1.52050450636E-03 -2.45191343818E-03 +1.54378256478E-03 +6.95936643366E-01 +5.55389465756E-01
2.62000000000E+09 +7.14602775489E-01 +4.46175960194E-01 -1.93845447685E-03 +1.51001766833E-03 -2.03280977567E-03 +1.64265155947E-03 +7.00832101130E-01 +5.46445344980E-01
2.62500000000E+09 +7.19507586681E-01 +4.32887949735E-01 -2.06849475083E-03 +1.43795127886E-03 -2.00295458846E-03 +1.66693579625E-03 +7.05748744742E-01 +5.37093121418E-01
2.63000000000E+09 +7.24064740793E-01 +4.19008075952E-01 -2.09762425148E-03 +1.75280741818E-03 -1.80476509866E-03 +1.94759890207E-03 +7.10431506432E-01 +5.27792150281E-01
2.63500000000E+09 +7.27944494928E-01 +4.04846069087E-01 -2.09514552592E-03 +1.98776172139E-03 -1.61977499663E-03 +2.03766351581E-03 +7.15597223990E-01 +5.18440979804E-01
2.64000000000E+09 +7.31362919762E-01 +3.90965282785E-01 -1.86469282729E-03 +2.52964070335E-03 -1.54182152023E-03 +2.18787402753E-03 +7.20499052409E-01 +5.09037990297E-01
2.64500000000E+09 +7.34514276875E-01 +3.77755267446E-01 -1.36978401000E-03 +2.78241039551E-03 -1.33880701275E-03 +2.34733203490E-03 +7.24998494933E-01 +4.99809550232E-01
2.65000000000E+09 +7.37022094792E-01 +3.65156229479E-01 -9.87281392287E-04 +2.69073750218E-03 -1.23267386329E-03 +2.46937660228E-03 +7.29386913846E-01 +4.90198265517E-01
2.65500000000E+09 +7.39680554580E-01 +3.52870887913E-01 -8.80552502178E-04 +2.61325375069E-03 -1.12410123993E-03 +2.58932646239E-03 +7.33293054897E-01 +4.79647127342E-01
2.66000000000E+09 +7.42372964464E-01 +3.40976666168E-01 -8.70560899954E-04 +2.80049830528E-03 -1.00212246168E-03 +3.04290147445E-03 +7.37407868259E-01 +4.68505580790E-01
2.66500000000E+09 +7.45302807470E-01 +3.28857381453E-01 -5.56222632954E-04 +3.03865994724E-03 -3.97779396033E-04 +3.18237970545E-03 +7.42247400730E-01 +4.57150069609E-01
2.67000000000E+09 +7.47945755747E-01 +3.15801910633E-01 -9.78851746811E-05 +3.15225654726E-03 +1.15708567964E-04 +3.04045167344E-03 +7.46907366607E-01 +4.46021414584E-01
2.67500000000E+09 +7.50258638985E-01 +3.01937954828E-01 +2.15843791880E-04 +2.97581827519E-03 +2.96895750815E-04 +2.77410570131E-03 +7.50931395368E-01 +4.34795831486E-01
2.68000000000E+09 +7.51897995782E-01 +2.87188348719E-01 +3.53824088354E-04 +2.82071697600E-03 +2.79726986443E-04 +2.65173274631E-03 +7.54757499894E-01 +4.24341591854E-01
2.68500000000E+09 +7.52863104458E-01 +2.71720672186E-01 +2.84401117393E-04 +2.89661721010E-03 +1.86659890070E-04 +2.83845368914E-03 +7.58048622858E-01 +4.12888595693E-01
2.69000000000E+09 +7.53022023198E-01 +2.56129765930E-01 +4.35355066702E-04 +3.17265036956E-03 +4.36956473468E-04 +3.21780595530E-03 +7.60770892738E-01 +4.00804130331E-01
2.69500000000E+09 +7.52989798075E-01 +2.40769440529E-01 +9.60375165978E-04 +3.29958356353E-03 +9.98072103729E-04 +3.26785485568E-03 +7.63855325336E-01 +3.87640649715E-01
2.70000000000E+09 +7.52884008028E-01 +2.25389960663E-01 +1.44036847735E-03 +3.23122851405E-03 +1.35104516954E-03 +3.20747200029E-03 +7.67084267710E-01 +3.73879896642E-01
2.70500000000E+09 +7.52581827683E-01 +2.10421323264E-01 +1.80323876184E-03 +2.96264372467E-03 +1.66219910208E-03 +2.95596035937E-03 +7.70249500562E-01 +3.59992587537E-01
2.71000000000E+09 +7.52577165488E-01 +1.95762731359E-01 +1.95634857935E-03 +2.78074876187E-03 +1.85562316554E-03 +2.93985980033E-03 +7.72890898558E-01 +3.47206401974E-01
2.71500000000E+09 +7.53070133298E-01 +1.81023844701E-01 +1.99907947552E-03 +2.70092353284E-03 +2.12339857997E-03 +2.88273122429E-03 +7.75817682010E-01 +3.34784614489E-01
2.72000000000E+09 +7.53560772331E-01 +1.66057321248E-01 +2.19696420595E-03 +2.83108127500E-03 +2.48345516268E-03 +2.85883476096E-03 +7.78316294185E-01 +3.21541144944E-01
2.72500000000E+09 +7.53893609550E-01 +1.50435039629E-01 +2.67832398965E-03 +2.72676793692E-03 +2.94778423583E-03 +2.39187477605E-03 +7.79372194355E-01 +3.07344905143E-01
2.73000000000E+09 +7.53577682507E-01 +1.34229610145E-01 +2.82851851321E-03 +2.60264366907E-03 +2.72744834667E-03 +2.12729609409E-03 +7.80578246719E-01 +2.92712876512E-01
2.73500000000E+09 +7.52367117705E-01 +1.17064703447E-01 +3.16661508913E-03 +2.77100338574E-03 +2.71769827106E-03 +2.39497057463E-03 +7.81446091748E-01 +2.77294347192E-01
2.74000000000E+09 +7.49963373993E-01 +9.98130880309E-02 +4.06825487976E-03 +2.62567028888E-03 +3.39873048120E-03 +2.63219861303E-03 +7.82940445277E-01 +2.62402066611E-01
2.74500000000E+09 +7.46257644398E-01 +8.19567887075E-02 +4.49601365923E-03 +1.88691907822E-03 +4.02606140839E-03 +2.35593798303E-03 +7.84116009074E-01 +2.46939340714E-01
2.75000000000E+09 +7.41102351697E-01 +6.40090031010E-02 +4.67007495959E-03 +1.41117818318E-03 +4.66290573026E-03 +2.03662633809E-03 +7.84418903890E-01 +2.31789636658E-01
2.75500000000E+09 +7.35140078371E-01 +4.65280701528E-02 +4.81986188027E-03 +9.87024442698E-04 +5.11607615271E-03 +1.42740634052E-03 +7.83639782127E-01 +2.16502928843E-01
2.76000000000E+09 +7.28996929140E-01 +2.91306700910E-02 +4.98546957639E-03 +6.93103391566E-04 +5.35198161966E-03 +8.50135615607E-04 +7.82907993795E-01 +2.00855906567E-01
2.76500000000E+09 +7.23047151315E-01 +1.20282543015E-02 +5.43692555178E-03 +4.11998102346E-04 +5.75927947621E-03 +3.85156666729E-04 +7.81626257426E-01 +1.83546350095E-01
2.77000000000E+09 +7.17849167897E-01 -5.85155264369E-03 +5.95843729313E-03 -3.84859797064E-04 +6.25447383031E-03 -5.67522766087E-04 +7.80378601429E-01 +1.65783879917E-01
2.77500000000E+09 +7.12905039800E-01 -2.45092235984E-02 +5.92366873600E-03 -1.56283211146E-03 +6.10099270145E-03 -1.84671278509E-03 +7.78345116937E-01 +1.47732266413E-01
2.78000000000E+09 +7.08321150445E-01 -4.42575151370E-02 +5.38311537887E-03 -2.13842490719E-03 +5.38505812720E-03 -2.48483665192E-03 +7.76122479629E-01 +1.30355364652E-01
2.78500000000E+09 +7.03112800131E-01 -6.50608725401E-02 +5.22746235533E-03 -2.43024671117E-03 +4.97431906675E-03 -2.76447381937E-03 +7.73733730556E-01 +1.13304782864E-01
2.79000000000E+09 +6.96849396286E-01 -8.66384669165E-02 +5.35884654442E-03 -3.00430520378E-03 +4.93850740060E-03 -3.09560701091E-03 +7.70512562778E-01 +9.54617945730E-02
2.79500000000E+09 +6.89245651625E-01 -1.07938713069E-01 +5.12690260671E-03 -3.56910142463E-03 +4.77541658414E-03 -3.45131154770E-03 +7.65898054276E-01 +7.72007510981E-02
2.80000000000E+09 +6.79935492189E-01 -1.28724276617E-01 +5.20569606068E-03 -4.37810195789E-03 +5.06591513517E-03 -4.04178714719E-03 +7.60598896213E-01 +5.80516239436E-02
2.80500000000E+09 +6.69963604847E-01 -1.48086288861E-01 +4.53201497827E-03 -5.48730653753E-03 +4.69004403370E-03 -5.34601050637E-03 +7.54532959626E-01 +3.92897259536E-02
2.81000000000E+09 +6.58731467563E-01 -1.66461840758E-01 +3.62663227881E-03 -5.51137819841E-03 +3.70561757650E-03 -5.67126521457E-03 +7.48845894662E-01 +2.01233417974E-02
2.81500000000E+09 +6.46813890296E-01 -1.84025173754E-01 +3.52959585254E-03 -5.88063934477E-03 +3.44056768944E-03 -6.10032421599E-03 +7.41828879046E-01 +8.27053244501E-04
2.82000000000E+09 +6.33911744269E-01 -2.01360355586E-01 +3.22150286051E-03 -6.58411059014E-03 +2.89628369839E-03 -6.70598396040E-03 +7.34394027612E-01 -1.86982333611E-02
2.82500000000E+09 +6.20105673919E-01 -2.18878706207E-01 +2.34159625897E-03 -7.34524572844E-03 +1.93438517933E-03 -7.06110740416E-03 +7.25064155887E-01 -3.87622113846E-02
2.83000000000E+09 +6.04168173700E-01 -2.37378843939E-01 +1.53242343148E-03 -7.70672362584E-03 +1.42522956897E-03 -7.22535563059E-03 +7.14702336053E-01 -5.88883066195E-02
2.83500000000E+09 +5.86985945839E-01 -2.55587532694E-01 +4.32297137816E-04 -7.85810341710E-03 +6.69572064549E-04 -7.47855949322E-03 +7.04151322101E-01 -7.89882244881E-02
2.84000000000E+09 +5.67968413474E-01 -2.74241285767E-01 -6.26606165459E-05 -7.56709002074E-03 +1.61422274389E-04 -7.42705282041E-03 +6.93180611922E-01 -1.00327636064E-01
2.84500000000E+09 +5.47049256654E-01 -2.93184396141E-01 -6.04937331240E-06 -8.13009621399E-03 +1.36211791357E-04 -8.15190041806E-03 +6.80577928328E-01 -1.21156853651E-01
2.85000000000E+09 +5.24736344521E-01 -3.11920896590E-01 -1.13783150882E-03 -9.39219916025E-03 -1.13964130765E-03 -9.41432162882E-03 +6.66383693516E-01 -1.41641740579E-01
2.85500000000E+09 +5.01126406898E-01 -3.29831649752E-01 -3.28839942237E-03 -9.81114920528E-03 -3.25124349324E-03 -9.67518067957E-03 +6.51072502378E-01 -1.61376873298E-01
2.86000000000E+09 +4.76737806181E-01 -3.47548248232E-01 -5.12909443162E-03 -9.09449515840E-03 -4.92664240859E-03 -9.02534572401E-03 +6.35090726772E-01 -1.81447985019E-01
2.86500000000E+09 +4.51715463932E-01 -3.63779974692E-01 -6.77061042525E-03 -8.00030210465E-03 -6.60811522187E-03 -8.04829673564E-03 +6.17503402004E-01 -2.02765243402E-01
2.87000000000E+09 +4.26021094231E-01 -3.79020876828E-01 -7.43281302673E-03 -6.43106008506E-03 -7.42659170657E-03 -6.51484523817E-03 +5.97287013114E-01 -2.23855974486E-01
2.87500000000E+09 +4.00232736709E-01 -3.92658156086E-01 -7.23227826147E-03 -5.70127739205E-03 -7.31150665440E-03 -5.57438557237E-03 +5.76301221458E-01 -2.42748606821E-01
2.88000000000E+09 +3.74176542545E-01 -4.05246695255E-01 -7.83048746319E-03 -5.72911474359E-03 -7.74812390111E-03 -5.40056762534E-03 +5.55094597308E-01 -2.61479226922E-01
2.88500000000E+09 +3.47809351118E-01 -4.16402538288E-01 -9.51699017791E-03 -4.98459183942E-03 -9.07949121801E-03 -4.67311770318E-03 +5.32468643812E-01 -2.79036451667E-01
2.89000000000E+09 +3.20740358071E-01 -4.27417859517E-01 -1.01006435862E-02 -3.14228380225E-03 -9.45465065827E-03 -3.20764387967E-03 +5.07550972192E-01 -2.97112933799E-01
2.89500000000E+09 +2.91998007387E-01 -4.37341088693E-01 -1.00734283594E-02 -2.21145338103E-03 -9.69621559768E-03 -2.58360727529E-03 +4.79557354057E-01 -3.14387892045E-01
2.90000000000E+09 +2.61245960440E-01 -4.46447282534E-01 -1.06241919920E-02 -1.08934747338E-03 -1.06707144559E-02 -1.42630448949E-03 +4.49920081851E-01 -3.29408488625E-01
2.90500000000E+09 +2.27461093027E-01 -4.53330172785E-01 -1.05158687320E-02 +2.01622293656E-04 -1.07649415843E-02 +2.42195372742E-04 +4.21069270047E-01 -3.44438907193E-01
2.91000000000E+09 +1.92260493982E-01 -4.56790091113E-01 -1.06687905401E-02 +1.11212429105E-03 -1.06544214500E-02 +1.44318664662E-03 +3.89925797737E-01 -3.59456806981E-01
2.91500000000E+09 +1.56745699610E-01 -4.57489676290E-01 -1.09839401607E-02 +2.73749969109E-03 -1.04371359244E-02 +2.98693120568E-03 +3.56864609551E-01 -3.71346860525E-01
2.92000000000E+09 +1.21453997626E-01 -4.55917762383E-01 -9.93570148238E-03 +4.43380567610E-03 -9.34217854724E-03 +4.15257812396E-03 +3.22726233764E-01 -3.80297204708E-01
2.92500000000E+09 +8.69824611950E-02 -4.52673400977E-01 -9.08920682920E-03 +4.53784489132E-03 -8.82086025854E-03 +4.01246545898E-03 +2.87434354971E-01 -3.86537849726E-01
2.93000000000E+09 +5.26090298333E-02 -4.48443533666E-01 -9.54911740077E-03 +5.37932196941E-03 -9.54337480832E-03 +4.82784846670E-03 +2.52054301288E-01 -3.91838218712E-01
2.93500000000E+09 +1.76941766962E-02 -4.43223138390E-01 -9.23334451376E-03 +6.92053226302E-03 -9.47550484809E-03 +6.60498030039E-03 +2.14606137071E-01 -3.97238234068E-01
2.94000000000E+09 -1.75369953942E-02 -4.35514710864E-01 -8.55113673828E-03 +8.22246139393E-03 -8.65279578728E-03 +8.08053420699E-03 +1.74767611918E-01 -4.00903114300E-01
2.94500000000E+09 -5.24893239286E-02 -4.25737667903E-01 -7.51529899214E-03 +9.93560150688E-03 -7.60284643425E-03 +9.63580625979E-03 +1.34221679685E-01 -4.00531815143E-01
2.95000000000E+09 -8.79081300438E-02 -4.11817748101E-01 -5.53999565130E-03 +1.06375413003E-02 -5.88642521151E-03 +1.03981862130E-02 +9.44464256201E-02 -3.95899273753E-01
2.95500000000E+09 -1.20973380942E-01 -3.94593239186E-01 -4.24596965729E-03 +1.04251473065E-02 -4.77650971643E-03 +1.05796018355E-02 +5.64639262809E-02 -3.89284592110E-01
2.96000000000E+09 -1.52133562666E-01 -3.75455661008E-01 -3.99290325709E-03 +1.07796474648E-02 -4.22842810387E-03 +1.12471865080E-02 +1.66229490834E-02 -3.80921778069E-01
2.96500000000E+09 -1.82749376821E-01 -3.54243256052E-01 -3.07826142075E-03 +1.18848721738E-02 -2.87590871676E-03 +1.22793394767E-02 -2.42449076367E-02 -3.69184457535E-01
2.97000000000E+09 -2.12534429431E-01 -3.29830398763E-01 -1.53728178197E-03 +1.27762944699E-02 -1.03998027323E-03 +1.27652100581E-02 -6.49185588184E-02 -3.54577134257E-01
2.97500000000E+09 -2.40490992761E-01 -3.03301803892E-01 +2.10824103719E-04 +1.35550612201E-02 +3.26351257703E-04 +1.30775387238E-02 -1.04288160682E-01 -3.37287304335E-01
2.98000000000E+09 -2.67932246228E-01 -2.75153389128E-01 +2.95723952489E-03 +1.31917864862E-02 +2.47751399955E-03 +1.29147809375E-02 -1.42424080218E-01 -3.17260459846E-01
2.98500000000E+09 -2.94408759049E-01 -2.44555506175E-01 +4.11465425424E-03 +1.19692593266E-02 +3.63138184589E-03 +1.22285498726E-02 -1.79371680683E-01 -2.93899205493E-01
2.99000000000E+09 -3.19015646487E-01 -2.12287033581E-01 +4.66984751047E-03 +1.15891184555E-02 +4.71441591564E-03 +1.21903555769E-02 -2.14581723872E-01 -2.67106228376E-01
2.99500000000E+09 -3.41690815186E-01 -1.78316765077E-01 +6.03982482715E-03 +1.23327750070E-02 +6.70775331543E-03 +1.25980967686E-02 -2.48010798051E-01 -2.37608272490E-01
3.00000000000E+09 -3.60807833919E-01 -1.44484222454E-01 +8.96635643752E-03 +1.13340045321E-02 +9.58966463958E-03 +1.09069967825E-02 -2.78812344437E-01 -2.05458604921E-01
3.00500000000E+09 -3.78816361468E-01 -1.11638092260E-01 +1.00859328633E-02 +9.56916956547E-03 +1.00516546646E-02 +8.90971910538E-03 -3.07681838556E-01 -1.72620056648E-01
3.01000000000E+09 -3.95098125657E-01 -7.83947928810E-02 +1.12891158301E-02 +8.10095985386E-03 +1.07384414377E-02 +7.74193077242E-03 -3.34212480539E-01 -1.37768735424E-01
3.01500000000E+09 -4.09485945634E-01 -4.40966177542E-02 +1.19679060042E-02 +6.66910678994E-03 +1.15185016493E-02 +6.77522453773E-03 -3.58092336277E-01 -1.01479306300E-01
3.02000000000E+09 -4.19927833382E-01 -8.76835348620E-03 +1.26349277431E-02 +5.25808223147E-03 +1.25823587067E-02 +5.49683399324E-03 -3.78595799709E-01 -6.20016964113E-02
3.02500000000E+09 -4.26783035421E-01 +2.63365670884E-02 +1.33905737126E-02 +3.86922719358E-03 +1.34088769462E-02 +3.94358082783E-03 -3.94461969388E-01 -2.21990129732E-02
3.03000000000E+09 -4.30240875093E-01 +6.14815004820E-02 +1.39235757976E-02 +1.86752371499E-03 +1.38219682530E-02 +1.98930086807E-03 -4.08223746781E-01 +1.78115614265E-02
3.03500000000E+09 -4.30115268070E-01 +9.65013057024E-02 +1.39521597965E-02 +1.46508394834E-04 +1.39060249214E-02 +5.60400481874E-04 -4.19561397323E-01 +5.77896619156E-02
3.04000000000E+09 -4.27577977863E-01 +1.30552956067E-01 +1.40883054465E-02 -1.93901539644E-03 +1.44633003188E-02 -1.42068688319E-03 -4.28989296856E-01 +9.87260271129E-02
3.04500000000E+09 -4.23183679461E-01 +1.64612605555E-01 +1.33445804417E-02 -3.91050627594E-03 +1.41938916848E-02 -3.98472971183E-03 -4.34191460548E-01 +1.40643077422E-01
3.05000000000E+09 -4.16618160097E-01 +1.98979398553E-01 +1.24173222090E-02 -5.50662622651E-03 +1.29845804127E-02 -6.32734646188E-03 -4.34616955055E-01 +1.80956153994E-01
3.05500000000E+09 -4.08202625371E-01 +2.32465600061E-01 +1.14595699955E-02 -6.68106314554E-03 +1.10782531116E-02 -7.59464938898E-03 -4.33726846519E-01 +2.18736739226E-01
3.06000000000E+09 -3.98426608293E-01 +2.65932791997E-01 +1.07676402278E-02 -8.13187703020E-03 +9.81073911843E-03 -8.33411035104E-03 -4.31940840839E-01 +2.57362746949E-01
3.06500000000E+09 -3.86110518165E-01 +2.98566393592E-01 +9.54222925845E-03 -9.86809847768E-03 +8.91201363179E-03 -9.22516319019E-03 -4.26707801455E-01 +2.95336603979E-01
3.07000000000E+09 -3.72431661167E-01 +3.28396885837E-01 +7.29429316331E-03 -1.10832638069E-02 +7.63851286755E-03 -1.03075003048E-02 -4.19734823850E-01 +3.31212233312E-01
