# Hz S RI R 50
! CMT, C1220, 16058040, 17.2.0/1
! Date: 15/08/2018 09:46:01
! Data: Format (Calibration Info)
! Freq                      S11: Re/Im (F2)                       S21: Re/Im (F2)                       S12: Re/Im (F2)                       S22: Re/Im (F2)            
2.50000000000E+09 +5.79265844099E-01 +6.64121226584E-01 +1.97308458606E-04 -1.50811719510E-03 +2.21805340898E-04 -1.65179141166E-03 +5.74595061464E-01 +7.17754295944E-01
2.50500000000E+09 +5.86140542126E-01 +6.56550636655E-01 +1.13804540745E-04 -1.56087183516E-03 +6.14828510917E-05 -1.64874485056E-03 +5.80227809706E-01 +7.12288196597E-01
2.51000000000E+09 +5.93587510068E-01 +6.48403650596E-01 -3.33912915876E-05 -1.66695681300E-03 -1.25727460160E-04 -1.69809826998E-03 +5.85539188647E-01 +7.07135247246E-01
2.51500000000E+09 +6.00988624365E-01 +6.40099820631E-01 -2.73005473309E-04 -1.70732302307E-03 -2.85640318659E-04 -1.64181227599E-03 +5.90749500917E-01 +7.01680894694E-01
2.52000000000E+09 +6.07820254049E-01 +6.31223507156E-01 -5.15258761284E-04 -1.66844916384E-03 -4.58583727941E-04 -1.65454032490E-03 +5.96077907667E-01 +6.95639607125E-01
2.52500000000E+09 +6.13785087071E-01 +6.22621812239E-01 -6.53097790101E-04 -1.49070066860E-03 -5.83632533451E-04 -1.58500530845E-03 +6.02003063447E-01 +6.89106548772E-01
2.53000000000E+09 +6.19415543068E-01 +6.14307990041E-01 -6.96332074859E-04 -1.44696487430E-03 -7.47590580499E-04 -1.52935558473E-03 +6.08274704491E-01 +6.81868815762E-01
2.53500000000E+09 +6.24258029355E-01 +6.06110742441E-01 -8.17171206800E-04 -1.43902847472E-03 -8.10719508941E-04 -1.48924189646E-03 +6.14138670435E-01 +6.75219025964E-01
2.54000000000E+09 +6.28549336102E-01 +5.98207839404E-01 -9.79150363448E-04 -1.42603039554E-03 -8.95864593491E-04 -1.41766525892E-03 +6.19849695767E-01 +6.68633463353E-01
2.54500000000E+09 +6.32773532441E-01 +5.90925282015E-01 -1.22057454016E-03 -1.41561274985E-03 -1.12109444708E-03 -1.51666170758E-03 +6.25435171697E-01 +6.62386294152E-01
2.55000000000E+09 +6.37563372201E-01 +5.83886771664E-01 -1.39686244221E-03 -1.19152076349E-03 -1.39980077661E-03 -1.38017146429E-03 +6.30494855726E-01 +6.55868938753E-01
2.55500000000E+09 +6.43169660468E-01 +5.76286915955E-01 -1.46403930750E-03 -1.00877281736E-03 -1.65839200891E-03 -1.25232524971E-03 +6.35762841976E-01 +6.49311305876E-01
2.56000000000E+09 +6.49675033332E-01 +5.68590918814E-01 -1.45781722202E-03 -8.61616759340E-04 -1.79772451909E-03 -8.34676581811E-04 +6.41351162760E-01 +6.41934553763E-01
2.56500000000E+09 +6.56529868481E-01 +5.59798441856E-01 -1.43161337966E-03 -8.82652296351E-04 -1.75054081579E-03 -6.63750426728E-04 +6.46876830170E-01 +6.34341051884E-01
2.57000000000E+09 +6.63626647723E-01 +5.50860796663E-01 -1.59286980280E-03 -8.83747292980E-04 -1.73907948438E-03 -5.30044509871E-04 +6.52225494638E-01 +6.26795545196E-01
2.57500000000E+09 +6.70749054700E-01 +5.41092621373E-01 -1.76214871958E-03 -8.00352501451E-04 -1.64306307360E-03 -4.21040117863E-04 +6.57627624222E-01 +6.19427887286E-01
2.58000000000E+09 +6.77127671459E-01 +5.31355535274E-01 -2.00495264528E-03 -5.59957351361E-04 -1.69052521097E-03 -4.09620868328E-04 +6.62380127537E-01 +6.12118258354E-01
2.58500000000E+09 +6.82963517863E-01 +5.21358056894E-01 -2.04374230814E-03 -2.21965909264E-04 -1.73524990040E-03 -2.35302510389E-04 +6.67004021366E-01 +6.04516795388E-01
2.59000000000E+09 +6.88045935164E-01 +5.11771770411E-01 -1.82055465652E-03 -9.96086391604E-05 -1.67782295276E-03 -2.33067672856E-04 +6.71970346586E-01 +5.96729787611E-01
2.59500000000E+09 +6.92779753638E-01 +5.01983262910E-01 -1.90705118559E-03 -2.59464596784E-04 -1.91798807850E-03 -3.32935657761E-04 +6.77107204515E-01 +5.88335581456E-01
2.60000000000E+09 +6.96731770265E-01 +4.92406247195E-01 -2.10250039557E-03 -1.65412478059E-04 -2.15837466716E-03 -1.78697639843E-04 +6.82108563296E-01 +5.79942909908E-01
2.60500000000E+09 +7.00811662246E-01 +4.82591185947E-01 -2.39386303574E-03 +1.25747138195E-04 -2.38144940944E-03 +8.11836882737E-05 +6.87455984581E-01 +5.71501141779E-01
2.61000000000E+09 +7.05113537720E-01 +4.72366658422E-01 -2.56782254616E-03 +5.00809021249E-04 -2.60766886995E-03 +4.97798446821E-04 +6.92335197499E-01 +5.62841130640E-01
2.61500000000E+09 +7.09914663795E-01 +4.61397207053E-01 -2.34298816214E-03 +1.18482408304E-03 -2.42100340518E-03 +1.13677573743E-03 +6.96730601582E-01 +5.54619599124E-01
2.62000000000E+09 +7.14702302127E-01 +4.49340861411E-01 -1.93203150412E-03 +1.19447419333E-03 -2.05667569431E-03 +1.31758100058E-03 +7.01559343499E-01 +5.45842914364E-01
2.62500000000E+09 +7.19613535366E-01 +4.35978934624E-01 -1.90327658453E-03 +1.11601412605E-03 -1.92822505761E-03 +1.33666966599E-03 +7.06639886582E-01 +5.36527372085E-01
2.63000000000E+09 +7.24115263433E-01 +4.22339629934E-01 -1.96045420237E-03 +1.32500680869E-03 -1.79360272769E-03 +1.53958888184E-03 +7.11491232562E-01 +5.27108488066E-01
2.63500000000E+09 +7.28089056668E-01 +4.08283074060E-01 -2.03684428087E-03 +1.48085520924E-03 -1.64058462774E-03 +1.51676480046E-03 +7.16600454261E-01 +5.17620506156E-01
2.64000000000E+09 +7.31609300771E-01 +3.94410440261E-01 -2.07341262639E-03 +1.94473161859E-03 -1.69217344903E-03 +1.70586680954E-03 +7.21483758998E-01 +5.08261824793E-01
2.64500000000E+09 +7.34682776260E-01 +3.81228311190E-01 -1.66974161650E-03 +2.35787816774E-03 -1.59717305299E-03 +1.97162083920E-03 +7.26044949309E-01 +4.98871073660E-01
2.65000000000E+09 +7.37165050813E-01 +3.68729797022E-01 -1.22434363495E-03 +2.35868049556E-03 -1.40870284369E-03 +2.10306911035E-03 +7.30394529199E-01 +4.89354458539E-01
2.65500000000E+09 +7.39885606913E-01 +3.56401369441E-01 -1.05991437335E-03 +2.24243675246E-03 -1.29763167398E-03 +2.25301718719E-03 +7.34365267266E-01 +4.78674251353E-01
2.66000000000E+09 +7.42556312996E-01 +3.44428395269E-01 -1.08635639009E-03 +2.34507853291E-03 -1.18820514472E-03 +2.56077601013E-03 +7.38428458703E-01 +4.67532462880E-01
2.66500000000E+09 +7.45518545611E-01 +3.32471269739E-01 -9.05280454878E-04 +2.69638435065E-03 -7.23520942505E-04 +2.81382184366E-03 +7.42959668786E-01 +4.56170531819E-01
2.67000000000E+09 +7.48179134638E-01 +3.19153605130E-01 -4.99915307609E-04 +2.79302562216E-03 -3.23484078468E-04 +2.78526133979E-03 +7.47676308579E-01 +4.45005837974E-01
2.67500000000E+09 +7.50271689115E-01 +3.05353023526E-01 -2.35844242680E-04 +2.76864074801E-03 -1.63087704879E-04 +2.59965243640E-03 +7.51867107768E-01 +4.33729679481E-01
2.68000000000E+09 +7.51879836083E-01 +2.90686237809E-01 -8.61864581489E-05 +2.64638413722E-03 -1.45393642325E-04 +2.47540981576E-03 +7.55625211136E-01 +4.23073413450E-01
2.68500000000E+09 +7.52978719857E-01 +2.75340014055E-01 -1.10394673084E-04 +2.77630345677E-03 -1.76975170232E-04 +2.67707026471E-03 +7.58792908671E-01 +4.11464591570E-01
2.69000000000E+09 +7.53339656504E-01 +2.59727068874E-01 +4.76489087450E-05 +3.09400492726E-03 +2.63944933622E-05 +3.05473810923E-03 +7.61272428457E-01 +3.99389516598E-01
2.69500000000E+09 +7.53446373345E-01 +2.44215109893E-01 +5.97292804024E-04 +3.24353472912E-03 +6.66800139623E-04 +3.24509382826E-03 +7.64291907312E-01 +3.86490729588E-01
2.70000000000E+09 +7.53441714120E-01 +2.28581661074E-01 +1.11657361585E-03 +3.21000201362E-03 +1.08443462287E-03 +3.11956411856E-03 +7.67636777547E-01 +3.72824772981E-01
2.70500000000E+09 +7.53219580574E-01 +2.13387309808E-01 +1.53554634159E-03 +2.76127376765E-03 +1.36720218708E-03 +2.73814457173E-03 +7.70839247015E-01 +3.58794363793E-01
2.71000000000E+09 +7.53163861168E-01 +1.98595196067E-01 +1.60370613442E-03 +2.44525794215E-03 +1.47956362269E-03 +2.59971530033E-03 +7.73274900081E-01 +3.46023447930E-01
2.71500000000E+09 +7.53712822353E-01 +1.83710966844E-01 +1.41081551769E-03 +2.40187160178E-03 +1.44169251365E-03 +2.59753956796E-03 +7.76107437494E-01 +3.33700789076E-01
2.72000000000E+09 +7.54307695987E-01 +1.68703956175E-01 +1.46909443057E-03 +2.70695748384E-03 +1.72346439212E-03 +2.79225006138E-03 +7.78409097026E-01 +3.20527329636E-01
2.72500000000E+09 +7.54767513589E-01 +1.53134352025E-01 +2.00460624705E-03 +2.72685748772E-03 +2.25435963255E-03 +2.45582642442E-03 +7.79562156213E-01 +3.06449914361E-01
2.73000000000E+09 +7.54408339931E-01 +1.37006852242E-01 +2.05622262907E-03 +2.69670643012E-03 +2.07515096734E-03 +2.26981445672E-03 +7.80848106186E-01 +2.91765504261E-01
2.73500000000E+09 +7.53203399860E-01 +1.19745386306E-01 +2.42441765409E-03 +3.04001299321E-03 +2.10567233150E-03 +2.61673221816E-03 +7.81492521859E-01 +2.76432405506E-01
2.74000000000E+09 +7.50923436173E-01 +1.02584225410E-01 +3.32168245335E-03 +2.91033991293E-03 +2.74702074636E-03 +2.82812938277E-03 +7.83137549385E-01 +2.61780500736E-01
2.74500000000E+09 +7.47010828478E-01 +8.45613119161E-02 +3.72115271351E-03 +2.20025168227E-03 +3.25975658213E-03 +2.57608482796E-03 +7.84372727184E-01 +2.46301645671E-01
2.75000000000E+09 +7.41712743179E-01 +6.68161733941E-02 +3.95431174825E-03 +1.86182106411E-03 +3.82433486515E-03 +2.35911113858E-03 +7.84662232436E-01 +2.30931706222E-01
2.75500000000E+09 +7.35591350766E-01 +4.95260775513E-02 +4.09511563760E-03 +1.60108324074E-03 +4.27542000214E-03 +1.94094714861E-03 +7.83759451240E-01 +2.15773700846E-01
2.76000000000E+09 +7.29580309659E-01 +3.24068239203E-02 +4.27952440905E-03 +1.45503955697E-03 +4.58187139083E-03 +1.57808295122E-03 +7.83038069856E-01 +2.00313763088E-01
2.76500000000E+09 +7.23689003317E-01 +1.51893547985E-02 +4.80778163599E-03 +1.36405439103E-03 +5.13266171486E-03 +1.38287809682E-03 +7.81900780337E-01 +1.82998698286E-01
2.77000000000E+09 +7.18384078775E-01 -2.72438554272E-03 +5.62827998740E-03 +7.07173362130E-04 +5.90636286481E-03 +6.07545881638E-04 +7.80960919047E-01 +1.65222722584E-01
2.77500000000E+09 +7.13447735492E-01 -2.14666542448E-02 +5.79113656708E-03 -5.16422874645E-04 +6.02727080536E-03 -7.16428561954E-04 +7.79015777386E-01 +1.46815925236E-01
2.78000000000E+09 +7.08504868653E-01 -4.11852388095E-02 +5.43404360967E-03 -1.11998518620E-03 +5.50973727967E-03 -1.44943935544E-03 +7.76563340673E-01 +1.29473255441E-01
2.78500000000E+09 +7.03147909077E-01 -6.17112787711E-02 +5.41698115932E-03 -1.54832533901E-03 +5.28346131657E-03 -1.86407275026E-03 +7.74161364771E-01 +1.12425570602E-01
2.79000000000E+09 +6.97084320947E-01 -8.30099551700E-02 +5.46578865784E-03 -2.20096742838E-03 +5.11624919110E-03 -2.35167614248E-03 +7.70526012967E-01 +9.47227931805E-02
2.79500000000E+09 +6.89420326075E-01 -1.04063564680E-01 +5.29655319037E-03 -2.69619184176E-03 +4.90825912739E-03 -2.61800430002E-03 +7.66053472601E-01 +7.64672954977E-02
2.80000000000E+09 +6.80402647939E-01 -1.24472078248E-01 +5.48891464741E-03 -3.48591799012E-03 +5.36079026263E-03 -3.15422905781E-03 +7.60748981200E-01 +5.74602632509E-02
2.80500000000E+09 +6.70622516519E-01 -1.43750506054E-01 +4.94386531154E-03 -4.71939031919E-03 +5.04856494037E-03 -4.53102377659E-03 +7.54834884471E-01 +3.85969139748E-02
2.81000000000E+09 +6.59559930474E-01 -1.62100232803E-01 +3.97703831173E-03 -4.85432795748E-03 +4.14297962522E-03 -4.92298064048E-03 +7.49154366268E-01 +1.95245948632E-02
2.81500000000E+09 +6.47838294475E-01 -1.79759587917E-01 +3.92129536349E-03 -5.09921609179E-03 +3.80528165636E-03 -5.35385336969E-03 +7.42066669670E-01 -1.84081009263E-05
2.82000000000E+09 +6.34879247022E-01 -1.97250868479E-01 +3.65295559147E-03 -5.85473047619E-03 +3.34443994329E-03 -5.96774966961E-03 +7.34333697869E-01 -1.93565135744E-02
2.82500000000E+09 +6.20786372777E-01 -2.14606001953E-01 +2.80521044090E-03 -6.50844601824E-03 +2.47133904877E-03 -6.30750987522E-03 +7.24959949810E-01 -3.91205067642E-02
2.83000000000E+09 +6.05045835247E-01 -2.32452080251E-01 +2.14569992633E-03 -6.87929740375E-03 +2.08439639394E-03 -6.53068324307E-03 +7.14641389648E-01 -5.90974221374E-02
2.83500000000E+09 +5.88445511136E-01 -2.50379411412E-01 +1.10941640993E-03 -7.09086887133E-03 +1.25974783520E-03 -6.81789427185E-03 +7.04033792542E-01 -7.89658779856E-02
2.84000000000E+09 +5.69983186458E-01 -2.69136731708E-01 +6.13681897863E-04 -6.59251889825E-03 +8.10037673091E-04 -6.49228151823E-03 +6.93473395027E-01 -9.96580794647E-02
2.84500000000E+09 +5.49552493159E-01 -2.88532326874E-01 +1.01771267123E-03 -7.15004642539E-03 +1.15482190624E-03 -7.16036409222E-03 +6.81625576729E-01 -1.20875097781E-01
2.85000000000E+09 +5.27365737569E-01 -3.07386182337E-01 +1.97991686376E-04 -8.46477465674E-03 +1.65157527054E-04 -8.51555723019E-03 +6.67497999790E-01 -1.41884292143E-01
2.85500000000E+09 +5.04056903652E-01 -3.25327197960E-01 -1.64662946721E-03 -9.16856776581E-03 -1.60888687614E-03 -9.11630130916E-03 +6.51857314180E-01 -1.61815061915E-01
2.86000000000E+09 +4.80003778954E-01 -3.43094640045E-01 -3.38013328578E-03 -8.86548944369E-03 -3.26418136979E-03 -8.74874394287E-03 +6.35786782414E-01 -1.81897992946E-01
2.86500000000E+09 +4.55440903891E-01 -3.59371995206E-01 -5.08529534532E-03 -8.07896354411E-03 -5.00027488522E-03 -8.09649129253E-03 +6.18312568128E-01 -2.02898923504E-01
2.87000000000E+09 +4.30173196513E-01 -3.74921776034E-01 -5.74958833494E-03 -6.50687784861E-03 -5.78314694249E-03 -6.55353238370E-03 +5.98186755030E-01 -2.24025198531E-01
2.87500000000E+09 +4.04443439648E-01 -3.88911887772E-01 -5.32602606297E-03 -6.09354754588E-03 -5.46068850754E-03 -5.92966784571E-03 +5.77585152916E-01 -2.43347688254E-01
2.88000000000E+09 +3.78816687186E-01 -4.01439823004E-01 -6.04623269913E-03 -6.62184439934E-03 -6.10074432651E-03 -6.23810472894E-03 +5.56203979616E-01 -2.62300902564E-01
2.88500000000E+09 +3.52703036724E-01 -4.13208221775E-01 -7.90087548730E-03 -5.88575467851E-03 -7.52331262003E-03 -5.48309801424E-03 +5.33077191682E-01 -2.79995728560E-01
2.89000000000E+09 +3.25505776114E-01 -4.24302465954E-01 -8.42772214924E-03 -4.37062023950E-03 -7.81832018585E-03 -4.28522988729E-03 +5.08334730147E-01 -2.97885325144E-01
2.89500000000E+09 +2.96735448252E-01 -4.34299403327E-01 -8.65199724775E-03 -3.72372398383E-03 -8.22461590308E-03 -4.03238668956E-03 +4.80219078393E-01 -3.15315551843E-01
2.90000000000E+09 +2.66026808260E-01 -4.43243433354E-01 -9.61189168305E-03 -2.78301887294E-03 -9.59439968754E-03 -3.13769680090E-03 +4.50119245133E-01 -3.30318209385E-01
2.90500000000E+09 +2.32452294914E-01 -4.50005547587E-01 -9.69220420600E-03 -1.51518163231E-03 -9.87091287547E-03 -1.55730414640E-03 +4.21432125179E-01 -3.44811772725E-01
2.91000000000E+09 +1.98279357105E-01 -4.53370770667E-01 -1.01446512678E-02 -7.49166803310E-04 -1.01261350345E-02 -4.31630241674E-04 +3.90623584857E-01 -3.59736412982E-01
2.91500000000E+09 +1.63402985656E-01 -4.55026635833E-01 -1.06757206786E-02 +1.03499493283E-03 -1.01939945700E-02 +1.25121013656E-03 +3.57782317247E-01 -3.71602043046E-01
2.92000000000E+09 +1.28003847815E-01 -4.54333826881E-01 -9.70308003379E-03 +2.77032875190E-03 -9.10322330096E-03 +2.49963076121E-03 +3.23911226722E-01 -3.80766780403E-01
2.92500000000E+09 +9.29813913046E-02 -4.51409814418E-01 -9.01652639928E-03 +2.76324892710E-03 -8.65872848655E-03 +2.23985668448E-03 +2.88637159221E-01 -3.87483346353E-01
2.93000000000E+09 +5.83980977836E-02 -4.47270693695E-01 -9.63238481648E-03 +3.62284859788E-03 -9.57652468162E-03 +2.96954071737E-03 +2.52881823519E-01 -3.93005824487E-01
2.93500000000E+09 +2.35828467509E-02 -4.41766621143E-01 -9.44004496590E-03 +5.04360325562E-03 -9.64770599012E-03 +4.64364493664E-03 +2.15612938282E-01 -3.98174254127E-01
2.94000000000E+09 -1.09362660711E-02 -4.34262737492E-01 -9.05459650086E-03 +6.19229592132E-03 -9.18566701596E-03 +6.02047832767E-03 +1.75861053765E-01 -4.02196352934E-01
2.94500000000E+09 -4.54958248924E-02 -4.25443084816E-01 -8.30293080150E-03 +7.96659592306E-03 -8.48098841276E-03 +7.65127939103E-03 +1.35005897803E-01 -4.02161194757E-01
2.95000000000E+09 -8.09729695488E-02 -4.12634981286E-01 -6.59552654867E-03 +8.66622064925E-03 -6.95902201004E-03 +8.43230446602E-03 +9.49560152921E-02 -3.97332830856E-01
2.95500000000E+09 -1.14817306869E-01 -3.96055893402E-01 -5.76170365194E-03 +8.76489972597E-03 -6.25114100619E-03 +8.76984542661E-03 +5.68591561861E-02 -3.90900608650E-01
2.96000000000E+09 -1.46078329068E-01 -3.77165342079E-01 -5.45667239306E-03 +9.37538733817E-03 -5.85886339828E-03 +9.80133962748E-03 +1.66021745181E-02 -3.82365365545E-01
2.96500000000E+09 -1.77157487717E-01 -3.56406394999E-01 -4.61979594386E-03 +1.04727056389E-02 -4.52682582479E-03 +1.09321315141E-02 -2.43930065664E-02 -3.70388864904E-01
2.97000000000E+09 -2.06865611192E-01 -3.32489608498E-01 -3.46305166818E-03 +1.13776653856E-02 -3.05111216851E-03 +1.14892358403E-02 -6.49051336494E-02 -3.55938798298E-01
2.97500000000E+09 -2.35377449916E-01 -3.06960968163E-01 -2.09445506033E-03 +1.23018207534E-02 -1.91043680556E-03 +1.19463374655E-02 -1.04463367555E-01 -3.38592906351E-01
2.98000000000E+09 -2.63443240041E-01 -2.79116185967E-01 +2.39057561119E-04 +1.25019629469E-02 -5.94167066578E-05 +1.21580965430E-02 -1.42797612450E-01 -3.18384322972E-01
2.98500000000E+09 -2.90300423905E-01 -2.48734080743E-01 +1.41370689080E-03 +1.16234410796E-02 +9.18598419749E-04 +1.18587377752E-02 -1.79823380084E-01 -2.95035543944E-01
2.99000000000E+09 -3.15044082801E-01 -2.16996493081E-01 +2.00163401996E-03 +1.19069744718E-02 +1.91430867268E-03 +1.24987521097E-02 -2.15155247871E-01 -2.68095645759E-01
2.99500000000E+09 -3.38529801929E-01 -1.84137036483E-01 +3.57912015843E-03 +1.27876251785E-02 +4.22511916921E-03 +1.32815517694E-02 -2.48645462205E-01 -2.38442016506E-01
3.00000000000E+09 -3.59083722676E-01 -1.50355912125E-01 +6.53936202323E-03 +1.22483849000E-02 +7.19382483588E-03 +1.18906533353E-02 -2.79802450743E-01 -2.05950344322E-01
3.00500000000E+09 -3.77792182331E-01 -1.17018334027E-01 +7.85115979214E-03 +1.06568522680E-02 +7.97256176404E-03 +9.95476707173E-03 -3.08032078625E-01 -1.72656446608E-01
3.01000000000E+09 -3.94420699467E-01 -8.33197512606E-02 +9.10462158790E-03 +9.57172197252E-03 +8.70309054311E-03 +9.10583935649E-03 -3.34466329779E-01 -1.38101644446E-01
3.01500000000E+09 -4.08550579866E-01 -4.92427432693E-02 +1.01600674643E-02 +8.54800143982E-03 +9.71939103325E-03 +8.48095150437E-03 -3.58510460032E-01 -1.02072685454E-01
3.02000000000E+09 -4.19560122892E-01 -1.44182993270E-02 +1.12212739675E-02 +7.10999077901E-03 +1.10389999602E-02 +7.29434969247E-03 -3.79356993721E-01 -6.24711069709E-02
3.02500000000E+09 -4.27498862302E-01 +2.03589677924E-02 +1.18761979009E-02 +5.87396737755E-03 +1.17715178010E-02 +5.97218497061E-03 -3.95453820553E-01 -2.19324939660E-02
3.03000000000E+09 -4.31822891172E-01 +5.61440621277E-02 +1.28322426316E-02 +4.40272957295E-03 +1.26110161485E-02 +4.42177444572E-03 -4.08681019487E-01 +1.88037637377E-02
3.03500000000E+09 -4.32285373581E-01 +9.18694606032E-02 +1.34549251935E-02 +2.63506128810E-03 +1.32317979561E-02 +3.01136865718E-03 -4.19453525628E-01 +5.87350617485E-02
3.04000000000E+09 -4.29805731862E-01 +1.26202072264E-01 +1.39118896208E-02 +4.91523551811E-04 +1.41215579613E-02 +1.11965243372E-03 -4.28300269253E-01 +9.93520409326E-02
3.04500000000E+09 -4.25776765424E-01 +1.60477861477E-01 +1.34265086090E-02 -1.55816393164E-03 +1.42606961136E-02 -1.44346866386E-03 -4.33468970120E-01 +1.40616958198E-01
3.05000000000E+09 -4.19646155654E-01 +1.94940801887E-01 +1.27386194164E-02 -3.25850487447E-03 +1.32741932319E-02 -3.96350004676E-03 -4.34281831260E-01 +1.80687847349E-01
3.05500000000E+09 -4.11624229473E-01 +2.28971399331E-01 +1.18238517794E-02 -4.37067748628E-03 +1.16592777276E-02 -5.30084811763E-03 -4.33652489048E-01 +2.18583648317E-01
3.06000000000E+09 -4.01797937234E-01 +2.62690853778E-01 +1.15986874455E-02 -5.68176352985E-03 +1.08229063917E-02 -6.01589032761E-03 -4.31933985699E-01 +2.57512444781E-01
3.06500000000E+09 -3.89695939043E-01 +2.95355885698E-01 +1.08202812234E-02 -7.62651463686E-03 +1.01406980801E-02 -7.12466453679E-03 -4.26606904976E-01 +2.95455213538E-01
3.07000000000E+09 -3.76431335498E-01 +3.24944081946E-01 +9.03572388564E-03 -9.22970885216E-03 +9.25993933440E-03 -8.30569765851E-03 -4.19322264558E-01 +3.31866516313E-01
