# Hz S RI R 50
! CMT, C1220, 16058040, 17.2.0/1
! Date: 15/08/2018 09:51:20
! Data: Format (Calibration Info)
! Freq                      S11: Re/Im (F2)                       S21: Re/Im (F2)                       S12: Re/Im (F2)                       S22: Re/Im (F2)            
2.50000000000E+09 +5.75223225179E-01 +6.71752344226E-01 -2.99591452121E-04 -1.67434134945E-03 -2.85595651267E-04 -1.79519551648E-03 +5.75070012116E-01 +7.18178615902E-01
2.50500000000E+09 +5.82021325058E-01 +6.64147509453E-01 -3.98856218240E-04 -1.73566308310E-03 -4.87859015156E-04 -1.71713523612E-03 +5.80566884267E-01 +7.12509126563E-01
2.51000000000E+09 +5.89215674414E-01 +6.56177092164E-01 -5.79257169473E-04 -1.73178345467E-03 -6.62367127635E-04 -1.67219875039E-03 +5.85928527988E-01 +7.07288090867E-01
2.51500000000E+09 +5.96481424953E-01 +6.47903551341E-01 -7.84954250602E-04 -1.72956337763E-03 -7.85315874767E-04 -1.68076900253E-03 +5.91127749715E-01 +7.01646042882E-01
2.52000000000E+09 +6.03291210161E-01 +6.39265570382E-01 -1.03853032246E-03 -1.64437052976E-03 -9.38883638783E-04 -1.66834543148E-03 +5.96461151419E-01 +6.95615909184E-01
2.52500000000E+09 +6.09425305433E-01 +6.30946679006E-01 -1.15918689706E-03 -1.46251449329E-03 -1.13817873599E-03 -1.54602798710E-03 +6.02287607475E-01 +6.89018900701E-01
2.53000000000E+09 +6.15091398745E-01 +6.22813390329E-01 -1.22874861237E-03 -1.35763934931E-03 -1.27918635340E-03 -1.41610187633E-03 +6.08558662992E-01 +6.81886139173E-01
2.53500000000E+09 +6.20167059779E-01 +6.14876924057E-01 -1.36379690712E-03 -1.31255226744E-03 -1.31272482633E-03 -1.30735358336E-03 +6.14364509182E-01 +6.75227145149E-01
2.54000000000E+09 +6.24861085198E-01 +6.07097117674E-01 -1.55636877607E-03 -1.28265700672E-03 -1.48150069701E-03 -1.26418093744E-03 +6.20203864284E-01 +6.68834035377E-01
2.54500000000E+09 +6.29359038712E-01 +5.99848148088E-01 -1.74510250358E-03 -1.22635340150E-03 -1.64977009462E-03 -1.36482313389E-03 +6.25787182817E-01 +6.62511463841E-01
2.55000000000E+09 +6.34324273562E-01 +5.92672902093E-01 -1.93592453414E-03 -8.97422693791E-04 -1.99085737588E-03 -1.14791838480E-03 +6.30848195226E-01 +6.55938513568E-01
2.55500000000E+09 +6.40072883849E-01 +5.84855262651E-01 -2.00396743126E-03 -6.94560837119E-04 -2.29683426950E-03 -8.78214158831E-04 +6.36080964851E-01 +6.49263177754E-01
2.56000000000E+09 +6.46460099349E-01 +5.76935234424E-01 -1.93816450029E-03 -3.81252964983E-04 -2.37698565300E-03 -3.27770759050E-04 +6.41606619343E-01 +6.41881318617E-01
2.56500000000E+09 +6.53437824832E-01 +5.68093240189E-01 -1.89129157404E-03 -4.07417693285E-04 -2.16418692055E-03 -8.52575155973E-05 +6.47476241742E-01 +6.34397778247E-01
2.57000000000E+09 +6.60475832515E-01 +5.58963175465E-01 -2.04743599390E-03 -3.59589561182E-04 -2.05829196173E-03 +7.39965586982E-05 +6.52824333612E-01 +6.26756955098E-01
2.57500000000E+09 +6.67892663294E-01 +5.49035521306E-01 -2.20500815789E-03 -1.55085068176E-04 -1.93200661560E-03 +1.31384478619E-04 +6.58142855057E-01 +6.19358319291E-01
2.58000000000E+09 +6.74256887605E-01 +5.39172181542E-01 -2.34636684376E-03 +1.22252538697E-04 -1.95280031625E-03 +2.31552023331E-04 +6.62805279646E-01 +6.12022451308E-01
2.58500000000E+09 +6.80235690767E-01 +5.29096138982E-01 -2.14739354920E-03 +6.04028181012E-04 -1.93291861125E-03 +4.23938685334E-04 +6.67390347480E-01 +6.04346259365E-01
2.59000000000E+09 +6.85577777242E-01 +5.19480147926E-01 -1.87895846836E-03 +6.00710213778E-04 -1.79973855463E-03 +4.05037745694E-04 +6.72433779997E-01 +5.96452870692E-01
2.59500000000E+09 +6.90498662395E-01 +5.09764899983E-01 -1.96598765472E-03 +4.18253349823E-04 -2.01450778268E-03 +3.31085087100E-04 +6.77374643335E-01 +5.87652392734E-01
2.60000000000E+09 +6.94607271883E-01 +5.00398098676E-01 -2.21185811616E-03 +5.38212940418E-04 -2.21296903962E-03 +4.70768685881E-04 +6.82361708386E-01 +5.79202644599E-01
2.60500000000E+09 +6.98888364618E-01 +4.90820864017E-01 -2.44815143508E-03 +8.56136130498E-04 -2.39172890995E-03 +8.46085122444E-04 +6.87613061563E-01 +5.70822087291E-01
2.61000000000E+09 +7.03096029277E-01 +4.80853962208E-01 -2.44874018148E-03 +1.36220095149E-03 -2.47571297320E-03 +1.32085433598E-03 +6.92402457249E-01 +5.62422996780E-01
2.61500000000E+09 +7.07650339546E-01 +4.70315093813E-01 -2.07398093000E-03 +1.89354231604E-03 -2.12069544992E-03 +1.87605975978E-03 +6.96747348404E-01 +5.54258545553E-01
2.62000000000E+09 +7.12341663470E-01 +4.58725744267E-01 -1.64430847758E-03 +1.79666336767E-03 -1.72120676896E-03 +1.95149058417E-03 +7.01437279950E-01 +5.45388171673E-01
2.62500000000E+09 +7.17142147954E-01 +4.46015486610E-01 -1.69026161270E-03 +1.69461034383E-03 -1.60745264302E-03 +1.93377584399E-03 +7.06321138862E-01 +5.36095334226E-01
2.63000000000E+09 +7.21643914475E-01 +4.32623309448E-01 -1.75282150261E-03 +1.97792286762E-03 -1.48934693281E-03 +2.23266330710E-03 +7.10933165131E-01 +5.26884560301E-01
2.63500000000E+09 +7.25606531722E-01 +4.18806231595E-01 -1.69128375890E-03 +2.28638914964E-03 -1.27386062000E-03 +2.19977189781E-03 +7.16154204593E-01 +5.17461971381E-01
2.64000000000E+09 +7.29101460569E-01 +4.05218008304E-01 -1.50412799481E-03 +2.69096421200E-03 -1.25028728895E-03 +2.34133381687E-03 +7.21062276363E-01 +5.08063348120E-01
2.64500000000E+09 +7.32391212276E-01 +3.92181994648E-01 -9.98346112862E-04 +3.01086376120E-03 -1.06886099028E-03 +2.53760689244E-03 +7.25541143530E-01 +4.98580892072E-01
2.65000000000E+09 +7.35250413220E-01 +3.79818051668E-01 -5.62181051694E-04 +2.91899193459E-03 -8.59772306016E-04 +2.67735825064E-03 +7.29863171906E-01 +4.89176010662E-01
2.65500000000E+09 +7.38076071912E-01 +3.67539067456E-01 -3.81927029816E-04 +2.76743716021E-03 -6.31590674933E-04 +2.87185444892E-03 +7.33837689198E-01 +4.78784564610E-01
2.66000000000E+09 +7.41102038933E-01 +3.55581782391E-01 -2.80491582540E-04 +2.92783834937E-03 -3.41790808607E-04 +3.16735394406E-03 +7.37785278331E-01 +4.67713537521E-01
2.66500000000E+09 +7.44088980785E-01 +3.43432579294E-01 -2.38560859052E-05 +3.10839179497E-03 +1.66469361858E-04 +3.23358752099E-03 +7.42653073845E-01 +4.56443338180E-01
2.67000000000E+09 +7.46851846729E-01 +3.30608058092E-01 +4.74736738804E-04 +3.13629759289E-03 +6.70390979600E-04 +3.01698952410E-03 +7.47323487209E-01 +4.45030216350E-01
2.67500000000E+09 +7.49022053451E-01 +3.16951975738E-01 +7.84762420627E-04 +2.90560873274E-03 +8.08750500096E-04 +2.67803627815E-03 +7.51229656660E-01 +4.33637777014E-01
2.68000000000E+09 +7.50987748684E-01 +3.02433722068E-01 +8.47276179996E-04 +2.67709759257E-03 +7.80642517440E-04 +2.56538103780E-03 +7.54806109483E-01 +4.23208859635E-01
2.68500000000E+09 +7.52101529265E-01 +2.86992930887E-01 +8.30637970310E-04 +2.77286104591E-03 +7.19005940686E-04 +2.76869192285E-03 +7.58187203860E-01 +4.11844768417E-01
2.69000000000E+09 +7.52540975130E-01 +2.71378586574E-01 +1.07792629919E-03 +3.05536525294E-03 +1.05107074258E-03 +3.02773305167E-03 +7.60718782879E-01 +3.99788928063E-01
2.69500000000E+09 +7.52767387535E-01 +2.55962091462E-01 +1.64529417752E-03 +3.04019287195E-03 +1.58792825325E-03 +3.01030419105E-03 +7.63720062151E-01 +3.86920674150E-01
2.70000000000E+09 +7.52992259933E-01 +2.40260551985E-01 +2.08206650019E-03 +2.90334479184E-03 +1.92363754731E-03 +2.81207376715E-03 +7.66797911513E-01 +3.73390099644E-01
2.70500000000E+09 +7.53058950760E-01 +2.24961037840E-01 +2.37193251489E-03 +2.38513703460E-03 +2.21171564763E-03 +2.43484168391E-03 +7.69871889212E-01 +3.59785637532E-01
2.71000000000E+09 +7.53350849872E-01 +2.09844402022E-01 +2.37400951006E-03 +2.14141342123E-03 +2.26494253035E-03 +2.27403413929E-03 +7.72511002376E-01 +3.47019971903E-01
2.71500000000E+09 +7.54107204752E-01 +1.94737376362E-01 +2.22734901920E-03 +2.07378325435E-03 +2.31209838118E-03 +2.21467753629E-03 +7.75459359253E-01 +3.34705475289E-01
2.72000000000E+09 +7.54749846280E-01 +1.79466898687E-01 +2.43408635124E-03 +2.37819733734E-03 +2.75106163655E-03 +2.35972235652E-03 +7.77722841941E-01 +3.21604699319E-01
2.72500000000E+09 +7.55117890329E-01 +1.63864291548E-01 +3.04059246207E-03 +2.18164424389E-03 +3.22411731007E-03 +1.91290527621E-03 +7.78635501233E-01 +3.07693522200E-01
2.73000000000E+09 +7.55037986571E-01 +1.47780076286E-01 +3.20108107354E-03 +1.97868555223E-03 +3.03530422402E-03 +1.54558040836E-03 +7.80175396477E-01 +2.93418504212E-01
2.73500000000E+09 +7.53982682981E-01 +1.31015162212E-01 +3.43407978534E-03 +1.86943375638E-03 +3.00653614209E-03 +1.66239353128E-03 +7.81384574687E-01 +2.78529998388E-01
2.74000000000E+09 +7.51836425386E-01 +1.13984785878E-01 +4.15470566504E-03 +1.71637792060E-03 +3.52402556866E-03 +1.81532896401E-03 +7.83304714967E-01 +2.63568535418E-01
2.74500000000E+09 +7.48343217485E-01 +9.64128071696E-02 +4.27069026233E-03 +1.05576621342E-03 +3.99294000628E-03 +1.53977873337E-03 +7.84535237641E-01 +2.48171443464E-01
2.75000000000E+09 +7.43405375434E-01 +7.88606891177E-02 +4.39992253145E-03 +7.54159865065E-04 +4.45290811639E-03 +1.27923970646E-03 +7.84766758960E-01 +2.33104602546E-01
2.75500000000E+09 +7.37847861080E-01 +6.15950742397E-02 +4.60091943024E-03 +4.74584827746E-04 +4.91851669131E-03 +7.10639095949E-04 +7.84210262736E-01 +2.17914235471E-01
2.76000000000E+09 +7.32073958551E-01 +4.42859711562E-02 +4.84097168874E-03 +1.44584258392E-04 +5.19703794485E-03 +2.26516906365E-04 +7.83807782918E-01 +2.02271822682E-01
2.76500000000E+09 +7.26462972000E-01 +2.70687373014E-02 +5.26786482857E-03 -1.89593255270E-04 +5.54271245110E-03 -2.46039504524E-04 +7.82844630610E-01 +1.84777518531E-01
2.77000000000E+09 +7.21341356703E-01 +9.06328576211E-03 +5.83081993130E-03 -1.02705687483E-03 +6.05792017370E-03 -1.24092021813E-03 +7.82050393618E-01 +1.66979366684E-01
2.77500000000E+09 +7.16468909764E-01 -9.51644117182E-03 +5.67891068657E-03 -2.43685524881E-03 +5.81921356168E-03 -2.70622604220E-03 +7.80193965043E-01 +1.48807265992E-01
2.78000000000E+09 +7.11767043245E-01 -2.90500176811E-02 +4.91628018756E-03 -2.91016462042E-03 +4.91872728264E-03 -3.28869551139E-03 +7.78069788066E-01 +1.31649156921E-01
2.78500000000E+09 +7.06836293767E-01 -4.93693200393E-02 +4.68804140532E-03 -3.08839563736E-03 +4.43499285317E-03 -3.39606261350E-03 +7.75994046632E-01 +1.14421130361E-01
2.79000000000E+09 +7.01150977195E-01 -7.07716607423E-02 +4.79973478230E-03 -3.56693499371E-03 +4.33223053636E-03 -3.64104740882E-03 +7.72726027924E-01 +9.64969715743E-02
2.79500000000E+09 +6.93701218841E-01 -9.21183692180E-02 +4.53003976330E-03 -4.15266743536E-03 +4.22754718296E-03 -3.92062052078E-03 +7.68276818822E-01 +7.77879292717E-02
2.80000000000E+09 +6.84587734718E-01 -1.12549848088E-01 +4.67361729158E-03 -5.02261813132E-03 +4.60799802735E-03 -4.62715093831E-03 +7.62810313803E-01 +5.84618779421E-02
2.80500000000E+09 +6.74817860861E-01 -1.31674149609E-01 +3.79817120753E-03 -6.30467560429E-03 +4.07011283807E-03 -6.09440137689E-03 +7.57130668439E-01 +3.95320135648E-02
2.81000000000E+09 +6.64093740852E-01 -1.49883958898E-01 +2.63455368215E-03 -6.33682132573E-03 +2.81796873919E-03 -6.45497920106E-03 +7.51434101681E-01 +2.01273673987E-02
2.81500000000E+09 +6.52725102253E-01 -1.67503101484E-01 +2.26026182516E-03 -6.51414680308E-03 +2.14556371366E-03 -6.68950192639E-03 +7.44463934318E-01 +6.64660220836E-04
2.82000000000E+09 +6.40528485867E-01 -1.85361194187E-01 +1.69905352573E-03 -7.06368476401E-03 +1.36543488601E-03 -7.04337552231E-03 +7.36828626856E-01 -1.88849137557E-02
2.82500000000E+09 +6.27122458954E-01 -2.03389276803E-01 +7.00616746008E-04 -7.34155184414E-03 +4.43124267825E-04 -7.01051309429E-03 +7.27250848026E-01 -3.88610073685E-02
2.83000000000E+09 +6.11490778219E-01 -2.22137282484E-01 +5.28341214714E-05 -7.39549720654E-03 +8.15503470242E-05 -6.98505646587E-03 +7.16990843424E-01 -5.89089108881E-02
2.83500000000E+09 +5.94894618487E-01 -2.40453776491E-01 -8.92569047047E-04 -7.36052001107E-03 -6.13895625691E-04 -7.14852197068E-03 +7.06599986523E-01 -7.89975631818E-02
2.84000000000E+09 +5.76944190056E-01 -2.59070842246E-01 -1.38318378224E-03 -6.95163683403E-03 -1.12948250440E-03 -6.97848233152E-03 +6.95821219666E-01 -1.00433884075E-01
2.84500000000E+09 +5.57312978131E-01 -2.78415846026E-01 -1.28867882233E-03 -7.45019279116E-03 -1.17600866348E-03 -7.50442915398E-03 +6.83402062044E-01 -1.21638428892E-01
2.85000000000E+09 +5.36080200168E-01 -2.97597447788E-01 -2.35679736590E-03 -8.48052721288E-03 -2.38797081626E-03 -8.57443005847E-03 +6.69267642953E-01 -1.42194910802E-01
2.85500000000E+09 +5.13663575330E-01 -3.15925181911E-01 -4.32203178628E-03 -8.82405452178E-03 -4.32594786385E-03 -8.63735878289E-03 +6.54171404800E-01 -1.61762265904E-01
2.86000000000E+09 +4.90155580677E-01 -3.34234056506E-01 -6.10567319230E-03 -8.00535193892E-03 -5.99130554925E-03 -7.97982437841E-03 +6.38392775385E-01 -1.82110378801E-01
2.86500000000E+09 +4.65979496586E-01 -3.50911706418E-01 -7.67367035871E-03 -6.51639934516E-03 -7.55581002322E-03 -6.59184598180E-03 +6.21044347263E-01 -2.03603853938E-01
2.87000000000E+09 +4.40824675148E-01 -3.66983593978E-01 -7.92494984588E-03 -4.79403269039E-03 -7.95051151099E-03 -4.78882148879E-03 +6.00796570509E-01 -2.25155581647E-01
2.87500000000E+09 +4.15119783431E-01 -3.81362005056E-01 -7.46587521406E-03 -4.13338413944E-03 -7.54253645699E-03 -3.98419990883E-03 +5.79944624012E-01 -2.44493183980E-01
2.88000000000E+09 +3.89220224192E-01 -3.94080413107E-01 -7.82081898410E-03 -4.43088051357E-03 -7.75098082239E-03 -4.02682918118E-03 +5.58760461599E-01 -2.63868145408E-01
2.88500000000E+09 +3.63584692762E-01 -4.05586427037E-01 -9.62380911280E-03 -3.71818994870E-03 -9.17480278838E-03 -3.32991954731E-03 +5.35790166379E-01 -2.82226169314E-01
2.89000000000E+09 +3.37316219858E-01 -4.17496244742E-01 -9.90346662176E-03 -1.79608325175E-03 -9.35948860391E-03 -1.95127321583E-03 +5.10140566204E-01 -3.00909478681E-01
2.89500000000E+09 +3.09033761955E-01 -4.28627542675E-01 -9.99267455116E-03 -8.26255882808E-04 -9.65193170427E-03 -1.19561058280E-03 +4.81494583556E-01 -3.18026003962E-01
2.90000000000E+09 +2.78293366505E-01 -4.38993381955E-01 -1.03141351050E-02 +5.02010653676E-04 -1.04180956385E-02 +1.29806657794E-04 +4.51565894639E-01 -3.33083829464E-01
2.90500000000E+09 +2.44175203635E-01 -4.46699893646E-01 -9.97774046682E-03 +1.81852556456E-03 -1.01521772327E-02 +1.86082853504E-03 +4.22199009963E-01 -3.48091093856E-01
2.91000000000E+09 +2.09231519049E-01 -4.50476098205E-01 -9.71696406778E-03 +2.55756748740E-03 -9.57321306612E-03 +2.82728155998E-03 +3.90646684912E-01 -3.62890897004E-01
2.91500000000E+09 +1.74237553787E-01 -4.52082306474E-01 -9.80497587584E-03 +3.96675950917E-03 -9.37878706957E-03 +4.08612099137E-03 +3.57032989190E-01 -3.74899303122E-01
2.92000000000E+09 +1.39077325128E-01 -4.51615372036E-01 -8.79967208255E-03 +5.42646781578E-03 -8.28571777509E-03 +5.03743735582E-03 +3.22079391212E-01 -3.83495988983E-01
2.92500000000E+09 +1.04267317523E-01 -4.49529549789E-01 -7.98447554476E-03 +5.41065843172E-03 -7.74483000319E-03 +4.86051891487E-03 +2.86634693597E-01 -3.89382126326E-01
2.93000000000E+09 +6.93756545998E-02 -4.46516690721E-01 -8.38602582441E-03 +6.06782824846E-03 -8.52495485850E-03 +5.52257928352E-03 +2.50846834452E-01 -3.94064765002E-01
2.93500000000E+09 +3.36920835971E-02 -4.42168207784E-01 -8.08652337859E-03 +7.71697995394E-03 -8.37005460505E-03 +7.42431803107E-03 +2.13645271935E-01 -3.98837483189E-01
2.94000000000E+09 -1.99353509492E-03 -4.35209777943E-01 -7.05231786184E-03 +8.95784472463E-03 -7.30734715089E-03 +8.80567075997E-03 +1.73834086019E-01 -4.01984708383E-01
2.94500000000E+09 -3.72131802445E-02 -4.26701916264E-01 -6.03188458812E-03 +1.05203003675E-02 -6.19583393221E-03 +1.02712977086E-02 +1.33529564243E-01 -4.01163080312E-01
2.95000000000E+09 -7.30874460523E-02 -4.14372958795E-01 -3.82216830052E-03 +1.10223994505E-02 -4.28453222602E-03 +1.08820376136E-02 +9.39304023549E-02 -3.96279910071E-01
2.95500000000E+09 -1.06721821810E-01 -3.98787704535E-01 -2.42285416201E-03 +1.05731366089E-02 -2.89407501698E-03 +1.07509723026E-02 +5.63356951587E-02 -3.89394567664E-01
2.96000000000E+09 -1.38603454384E-01 -3.81385218135E-01 -2.15019549325E-03 +1.06154016666E-02 -2.44696092260E-03 +1.10622343493E-02 +1.66519475803E-02 -3.80974717134E-01
2.96500000000E+09 -1.70061977348E-01 -3.61857615024E-01 -1.42492627135E-03 +1.14758349787E-02 -1.19004561401E-03 +1.19423126749E-02 -2.42359130274E-02 -3.69588691252E-01
2.97000000000E+09 -2.00753449336E-01 -3.38889570892E-01 +2.25675053370E-04 +1.22334760012E-02 +6.38372401054E-04 +1.22238790201E-02 -6.46416816084E-02 -3.54843915847E-01
2.97500000000E+09 -2.29677548294E-01 -3.14054176445E-01 +1.95141900416E-03 +1.26134399084E-02 +2.03928919575E-03 +1.21813593827E-02 -1.04008335188E-01 -3.37532941257E-01
2.98000000000E+09 -2.58641202861E-01 -2.87058654944E-01 +4.49972208941E-03 +1.19588548512E-02 +4.03444315665E-03 +1.17291439001E-02 -1.41787153904E-01 -3.16969189075E-01
2.98500000000E+09 -2.86499833785E-01 -2.57115856252E-01 +5.44668422544E-03 +1.05945443970E-02 +5.10689519760E-03 +1.09357923518E-02 -1.78381807114E-01 -2.93707482056E-01
2.99000000000E+09 -3.12214328868E-01 -2.25014962746E-01 +5.90213420309E-03 +9.93703405770E-03 +6.03134757831E-03 +1.04651629949E-02 -2.13395725468E-01 -2.66771107768E-01
2.99500000000E+09 -3.35845803893E-01 -1.91959149495E-01 +6.94534853424E-03 +1.04040336604E-02 +7.56584354114E-03 +1.06749951176E-02 -2.46876325564E-01 -2.37459420791E-01
3.00000000000E+09 -3.56795616112E-01 -1.58735591686E-01 +9.36800627076E-03 +9.34212843953E-03 +9.95137396863E-03 +8.82369750452E-03 -2.77657583117E-01 -2.05116777329E-01
3.00500000000E+09 -3.76485025438E-01 -1.26053343132E-01 +9.90941194562E-03 +7.62006662366E-03 +9.91392883119E-03 +6.97814572708E-03 -3.06070281633E-01 -1.72414694486E-01
3.01000000000E+09 -3.94799270811E-01 -9.26982494153E-02 +1.09227277011E-02 +6.65614400438E-03 +1.04285227826E-02 +6.30257393706E-03 -3.32084649062E-01 -1.37733176733E-01
3.01500000000E+09 -4.10469535898E-01 -5.79865110375E-02 +1.17300832334E-02 +5.35237767944E-03 +1.13043814602E-02 +5.38708605054E-03 -3.55951002040E-01 -1.01712913156E-01
3.02000000000E+09 -4.21934560382E-01 -2.26801983363E-02 +1.22898342475E-02 +3.96709873590E-03 +1.22144771754E-02 +4.18939794248E-03 -3.75862188788E-01 -6.20153189851E-02
3.02500000000E+09 -4.30361763729E-01 +1.24027033813E-02 +1.29372125729E-02 +2.58352898071E-03 +1.28904352615E-02 +2.69014571662E-03 -3.91150153872E-01 -2.24685349212E-02
3.03000000000E+09 -4.35266230697E-01 +4.78050562414E-02 +1.34575313111E-02 +6.67617165601E-04 +1.33027846580E-02 +7.48197238376E-04 -4.04771040799E-01 +1.69235988967E-02
3.03500000000E+09 -4.36729590842E-01 +8.32512892290E-02 +1.33318586803E-02 -1.03928974465E-03 +1.32939326680E-02 -6.08995941527E-04 -4.16180867575E-01 +5.64620499256E-02
3.04000000000E+09 -4.35376351180E-01 +1.18068665725E-01 +1.32529387366E-02 -3.10693813915E-03 +1.36188832354E-02 -2.61556307445E-03 -4.25349204871E-01 +9.66827677011E-02
3.04500000000E+09 -4.31971774422E-01 +1.52772146748E-01 +1.23604451703E-02 -4.85084383424E-03 +1.31340390273E-02 -4.91710021017E-03 -4.30973825815E-01 +1.37556489966E-01
3.05000000000E+09 -4.26490270707E-01 +1.87624965581E-01 +1.14262935726E-02 -6.17697544806E-03 +1.18723593995E-02 -6.91446048579E-03 -4.32114895861E-01 +1.77300050252E-01
3.05500000000E+09 -4.19572221060E-01 +2.21852265677E-01 +1.06263425099E-02 -7.18131869224E-03 +1.01683985100E-02 -8.01613478564E-03 -4.31843124869E-01 +2.15303171603E-01
3.06000000000E+09 -4.10851799738E-01 +2.56611445091E-01 +1.00717239070E-02 -8.64685910580E-03 +9.14023143674E-03 -8.82636891728E-03 -4.30020177187E-01 +2.53967106057E-01
3.06500000000E+09 -3.99220979141E-01 +2.90053015751E-01 +8.63738854135E-03 -1.05448321706E-02 +8.06570519069E-03 -9.76911749448E-03 -4.24898729385E-01 +2.91797752658E-01
3.07000000000E+09 -3.86417505464E-01 +3.20425847539E-01 +6.26080136242E-03 -1.17532848200E-02 +6.65845946621E-03 -1.09853258490E-02 -4.17890060945E-01 +3.27209435352E-01
