# Hz S RI R 50
! CMT, C1220, 16058040, 17.2.0/1
! Date: 15/08/2018 10:50:53
! Data: Format (Calibration Info)
! Freq                      S11: Re/Im (F2)                       S21: Re/Im (F2)                       S12: Re/Im (F2)                       S22: Re/Im (F2)            
2.50000000000E+09 +5.80632011845E-01 +6.50336991899E-01 -1.12217157910E-03 +6.07384913436E-04 -1.20382696233E-03 +6.30806565069E-04 +5.62137813366E-01 +7.25981181837E-01
2.50500000000E+09 +5.88147237600E-01 +6.41201328424E-01 -1.04798618569E-03 +6.89039159919E-04 -1.08874029703E-03 +7.85960537607E-04 +5.67827764703E-01 +7.20378628207E-01
2.51000000000E+09 +5.96478087740E-01 +6.31816467242E-01 -1.01558260510E-03 +7.51802265798E-04 -9.97916201223E-04 +8.00573322349E-04 +5.73603341222E-01 +7.14986729500E-01
2.51500000000E+09 +6.04841531037E-01 +6.22913361410E-01 -9.89795047700E-04 +9.54387784780E-04 -9.74277973846E-04 +9.02168581499E-04 +5.78902091952E-01 +7.09281914812E-01
2.52000000000E+09 +6.12512082132E-01 +6.14488637203E-01 -8.35193751884E-04 +1.07917177020E-03 -8.93359380602E-04 +1.05969324548E-03 +5.83917016458E-01 +7.03169497221E-01
2.52500000000E+09 +6.18767836832E-01 +6.07382239078E-01 -6.92858720600E-04 +1.13594534254E-03 -7.54556312020E-04 +1.12166434579E-03 +5.89327099025E-01 +6.96770208669E-01
2.53000000000E+09 +6.23609971184E-01 +6.01127527922E-01 -6.20561001779E-04 +1.13110916477E-03 -6.42906276152E-04 +1.20438155623E-03 +5.95294694499E-01 +6.89915189822E-01
2.53500000000E+09 +6.27329795772E-01 +5.95612234513E-01 -5.34340038338E-04 +1.23779537736E-03 -6.15398436859E-04 +1.23570113943E-03 +6.01220296915E-01 +6.83410476286E-01
2.54000000000E+09 +6.30269791656E-01 +5.89808216554E-01 -4.09850029783E-04 +1.34506991943E-03 -4.28830996294E-04 +1.35599884167E-03 +6.07055702265E-01 +6.77194187716E-01
2.54500000000E+09 +6.33313597504E-01 +5.83801663008E-01 -2.54232531444E-04 +1.45952198453E-03 -3.45073605580E-04 +1.43796435808E-03 +6.12837081356E-01 +6.70999161489E-01
2.55000000000E+09 +6.37116951326E-01 +5.76827828867E-01 +3.63260189283E-05 +1.51225894428E-03 -1.29715431401E-04 +1.62250962235E-03 +6.17988561446E-01 +6.65095992396E-01
2.55500000000E+09 +6.42045000766E-01 +5.68392898327E-01 +2.26248849838E-04 +1.35459259967E-03 +1.68461265267E-04 +1.52065967275E-03 +6.23232615766E-01 +6.58804751415E-01
2.56000000000E+09 +6.48741583352E-01 +5.59336667380E-01 +2.16284190288E-04 +1.24306106203E-03 +3.22741739477E-04 +1.44746881060E-03 +6.28196237686E-01 +6.51924500489E-01
2.56500000000E+09 +6.56622716911E-01 +5.49088467787E-01 +2.54916772744E-04 +1.29268879282E-03 +4.97338719600E-04 +1.41144929847E-03 +6.33519480197E-01 +6.44722139925E-01
2.57000000000E+09 +6.64958622014E-01 +5.38533046628E-01 +4.50455370615E-04 +1.34652245547E-03 +6.05845075204E-04 +1.19446824360E-03 +6.39086239282E-01 +6.37196154026E-01
2.57500000000E+09 +6.72945162170E-01 +5.28495537340E-01 +5.95485779365E-04 +1.34638514413E-03 +6.88099833452E-04 +1.05770257775E-03 +6.44892539520E-01 +6.29750436529E-01
2.58000000000E+09 +6.79897814107E-01 +5.19316210892E-01 +8.07376939086E-04 +1.21642782107E-03 +7.24035048244E-04 +9.89766818426E-04 +6.50464449803E-01 +6.22456632707E-01
2.58500000000E+09 +6.85347762456E-01 +5.10982212713E-01 +9.66001200630E-04 +1.00353987728E-03 +8.23599641642E-04 +9.35590859104E-04 +6.55808054422E-01 +6.14760164958E-01
2.59000000000E+09 +6.89375803292E-01 +5.03639930458E-01 +9.08143370529E-04 +8.31689043730E-04 +7.65362756878E-04 +8.30686560315E-04 +6.60697013606E-01 +6.07163490917E-01
2.59500000000E+09 +6.92064894322E-01 +4.96230980979E-01 +8.35352354059E-04 +9.00172955983E-04 +8.24796946457E-04 +9.29562649494E-04 +6.65631623135E-01 +5.99260231842E-01
2.60000000000E+09 +6.93948288963E-01 +4.88281262746E-01 +1.04858608961E-03 +7.92271172644E-04 +1.04973962631E-03 +8.66373431216E-04 +6.70875682155E-01 +5.90915738289E-01
2.60500000000E+09 +6.96020050001E-01 +4.78750522352E-01 +1.16279667105E-03 +6.12329241667E-04 +1.17350695621E-03 +6.17067386728E-04 +6.76649722564E-01 +5.82320681079E-01
2.61000000000E+09 +6.98488102576E-01 +4.67090790801E-01 +1.07143685046E-03 +4.93358886722E-04 +1.13726784289E-03 +4.88929029820E-04 +6.81970037356E-01 +5.73304822041E-01
2.61500000000E+09 +7.02179641644E-01 +4.53432159928E-01 +1.13460635513E-03 +4.35911728470E-04 +1.15658751888E-03 +4.27656319524E-04 +6.86860402165E-01 +5.64627735247E-01
2.62000000000E+09 +7.06396679601E-01 +4.37614446990E-01 +1.11019437617E-03 +2.56005778011E-04 +1.16089581216E-03 +2.47895140793E-04 +6.91700789611E-01 +5.55731395655E-01
2.62500000000E+09 +7.11585909053E-01 +4.20879928692E-01 +1.04669032559E-03 +2.91545701130E-04 +1.06001682784E-03 +2.61107925153E-04 +6.96595979912E-01 +5.47190781529E-01
2.63000000000E+09 +7.17242763210E-01 +4.04128667626E-01 +1.09866422918E-03 +3.37960585234E-04 +1.13679027532E-03 +1.77296882135E-04 +7.01542517628E-01 +5.38205196370E-01
2.63500000000E+09 +7.22430601702E-01 +3.88121479993E-01 +1.26019185420E-03 +1.25557899580E-04 +1.10790954373E-03 +2.28065341969E-05 +7.06277810492E-01 +5.28901561280E-01
2.64000000000E+09 +7.26831128583E-01 +3.73759351404E-01 +1.15977810682E-03 -3.61077484075E-05 +9.71630859439E-04 -4.71485400459E-05 +7.11025275375E-01 +5.19340572970E-01
2.64500000000E+09 +7.30096382317E-01 +3.61766979010E-01 +1.05697678776E-03 -2.05703749671E-04 +9.33355592673E-04 -6.31924269027E-05 +7.15720614474E-01 +5.09718527992E-01
2.65000000000E+09 +7.32239089752E-01 +3.51746132894E-01 +9.52248676330E-04 -1.72729883039E-04 +9.17502389300E-04 -5.85407573899E-05 +7.20249850373E-01 +4.99635688164E-01
2.65500000000E+09 +7.33797572170E-01 +3.42705178364E-01 +9.41892832639E-04 -1.24324662786E-04 +1.02132995981E-03 -6.80652341800E-05 +7.24445398456E-01 +4.88877312529E-01
2.66000000000E+09 +7.34923481070E-01 +3.33788412292E-01 +1.02722699142E-03 -1.78484423583E-04 +1.14994121607E-03 -1.28618286993E-04 +7.28501818334E-01 +4.77789741131E-01
2.66500000000E+09 +7.36001201184E-01 +3.24001581818E-01 +9.60483690207E-04 -2.58137253837E-04 +9.90313328829E-04 -2.95158604290E-04 +7.32809512306E-01 +4.66821036652E-01
2.67000000000E+09 +7.36951305033E-01 +3.12000594996E-01 +9.65286244313E-04 -1.44093601545E-04 +9.01353014058E-04 -2.40592735149E-04 +7.37409208190E-01 +4.56148268091E-01
2.67500000000E+09 +7.38000075821E-01 +2.97947204121E-01 +1.06268204871E-03 -1.67821703851E-04 +1.00200467503E-03 -1.08542033079E-04 +7.41914343419E-01 +4.44994900620E-01
2.68000000000E+09 +7.39128993966E-01 +2.82212108915E-01 +1.16510989692E-03 -2.78861257566E-04 +1.15199730437E-03 -2.27792901146E-04 +7.46084528076E-01 +4.33632636794E-01
2.68500000000E+09 +7.40524195261E-01 +2.65218270832E-01 +1.09905722626E-03 -5.05460332763E-04 +1.11666218917E-03 -4.50464899820E-04 +7.49168019888E-01 +4.21928689825E-01
2.69000000000E+09 +7.41680672568E-01 +2.47895243634E-01 +1.04112046037E-03 -4.25717350132E-04 +1.04574294685E-03 -4.29023990239E-04 +7.51939043485E-01 +4.10021848615E-01
2.69500000000E+09 +7.42562177768E-01 +2.31407949153E-01 +1.22595393263E-03 -3.94766796869E-04 +1.16947320811E-03 -3.26443714070E-04 +7.54806626595E-01 +3.97448882320E-01
2.70000000000E+09 +7.43349061332E-01 +2.16179101519E-01 +1.41339560743E-03 -5.89343836869E-04 +1.39920080104E-03 -5.70234486491E-04 +7.57928056433E-01 +3.84333693646E-01
2.70500000000E+09 +7.43892924859E-01 +2.02174950006E-01 +1.40846716631E-03 -8.90974054250E-04 +1.39563402445E-03 -7.80670632119E-04 +7.61253402228E-01 +3.70897623166E-01
2.71000000000E+09 +7.44019298889E-01 +1.89276777200E-01 +1.29852788492E-03 -1.12048827449E-03 +1.35590682108E-03 -1.01127629358E-03 +7.63983594042E-01 +3.57434930448E-01
2.71500000000E+09 +7.44044521364E-01 +1.76694269235E-01 +1.14812805235E-03 -1.14547900000E-03 +1.25746903356E-03 -1.24988953564E-03 +7.66356759393E-01 +3.44838819800E-01
2.72000000000E+09 +7.43691859175E-01 +1.63897097444E-01 +1.16928923547E-03 -1.28419606675E-03 +1.18506225760E-03 -1.42684937746E-03 +7.68386001348E-01 +3.32091240532E-01
2.72500000000E+09 +7.43393081305E-01 +1.49906241896E-01 +1.06270322128E-03 -1.43907913010E-03 +8.96918627301E-04 -1.49708374366E-03 +7.69472587134E-01 +3.18537714251E-01
2.73000000000E+09 +7.42171029775E-01 +1.34237326428E-01 +1.13289769971E-03 -1.52768040939E-03 +9.44537146556E-04 -1.46904897090E-03 +7.70792053910E-01 +3.04309698433E-01
2.73500000000E+09 +7.40193980134E-01 +1.16685501551E-01 +9.16216706579E-04 -1.88810529365E-03 +8.21112946003E-04 -1.62842966177E-03 +7.71321650993E-01 +2.89319273146E-01
2.74000000000E+09 +7.37688680007E-01 +9.85428724723E-02 +6.66802057518E-04 -1.94997975531E-03 +7.38375210837E-04 -1.67528282897E-03 +7.72673793504E-01 +2.74727179859E-01
2.74500000000E+09 +7.34051230669E-01 +7.94349965366E-02 +5.14556381809E-04 -1.95702555424E-03 +7.53312936899E-04 -1.79892030642E-03 +7.74126095468E-01 +2.59901658174E-01
2.75000000000E+09 +7.29163720580E-01 +6.09051349283E-02 +6.29024779539E-04 -1.95980820447E-03 +8.05367238550E-04 -1.87917510458E-03 +7.75126716950E-01 +2.44627447161E-01
2.75500000000E+09 +7.23927299005E-01 +4.34048502448E-02 +4.66727015044E-04 -2.46223059405E-03 +6.66757536417E-04 -2.57337921821E-03 +7.75264328108E-01 +2.29580986602E-01
2.76000000000E+09 +7.18928168141E-01 +2.66564176286E-02 +1.40962598076E-04 -2.50129598936E-03 +1.39158107395E-04 -2.65899902774E-03 +7.74647941947E-01 +2.14117794193E-01
2.76500000000E+09 +7.13521094635E-01 +9.97093218236E-03 -2.25154251614E-04 -2.64952095677E-03 -2.66098673323E-04 -2.82798812300E-03 +7.73761154510E-01 +1.98106451949E-01
2.77000000000E+09 +7.07886053611E-01 -7.10704744883E-03 -6.92641936719E-04 -2.47468829422E-03 -8.01127585974E-04 -2.53749946740E-03 +7.73277594568E-01 +1.81065466978E-01
2.77500000000E+09 +7.01894558110E-01 -2.50094959709E-02 -5.88024262509E-04 -2.02989838851E-03 -7.21241534881E-04 -2.09727136115E-03 +7.71806938191E-01 +1.62828820202E-01
2.78000000000E+09 +6.95463125002E-01 -4.37655020492E-02 -3.99349539006E-04 -2.44194903747E-03 -4.84500074603E-04 -2.43430784028E-03 +7.69815626470E-01 +1.45170334045E-01
2.78500000000E+09 +6.88833732689E-01 -6.38575466320E-02 -8.47410814661E-04 -2.91440635215E-03 -9.85614585443E-04 -2.81659963926E-03 +7.67951177701E-01 +1.27412631865E-01
2.79000000000E+09 +6.81915403322E-01 -8.54518393162E-02 -1.36987272517E-03 -2.71106781578E-03 -1.43847388765E-03 -2.49499437649E-03 +7.64959495585E-01 +1.09986581079E-01
2.79500000000E+09 +6.73881308431E-01 -1.07622403393E-01 -1.45705332677E-03 -2.75560989825E-03 -1.36985947748E-03 -2.55708040831E-03 +7.61321652170E-01 +9.19220410767E-02
2.80000000000E+09 +6.64924365241E-01 -1.29316654069E-01 -1.87410881378E-03 -2.66847523712E-03 -1.70326713425E-03 -2.63224063661E-03 +7.56616280605E-01 +7.32623584918E-02
2.80500000000E+09 +6.55288091253E-01 -1.49496836310E-01 -1.89804197741E-03 -2.73831553767E-03 -1.75265256608E-03 -2.75332996697E-03 +7.50864780895E-01 +5.35241026458E-02
2.81000000000E+09 +6.44641731626E-01 -1.67495416629E-01 -2.59413519726E-03 -3.17416036041E-03 -2.61640093636E-03 -3.29431076726E-03 +7.44115200146E-01 +3.45294686624E-02
2.81500000000E+09 +6.33396611486E-01 -1.83527060683E-01 -3.36199263641E-03 -2.62611918221E-03 -3.54395320479E-03 -2.64235287109E-03 +7.37915996725E-01 +1.48320340792E-02
2.82000000000E+09 +6.21371168944E-01 -1.98484050169E-01 -3.67547798693E-03 -2.53949699113E-03 -3.79725358169E-03 -2.36845079589E-03 +7.30739112146E-01 -5.84851232205E-03
2.82500000000E+09 +6.07456997885E-01 -2.12947211350E-01 -4.39336419768E-03 -2.16322867436E-03 -4.26448095066E-03 -1.93305798726E-03 +7.21912213858E-01 -2.65242316760E-02
2.83000000000E+09 +5.91957418407E-01 -2.27215394486E-01 -4.79012864725E-03 -1.59399337894E-03 -4.56143955357E-03 -1.53551296054E-03 +7.11654582443E-01 -4.61104006238E-02
2.83500000000E+09 +5.75615781861E-01 -2.43529662974E-01 -5.26000019428E-03 -1.04061327307E-03 -5.00277364097E-03 -1.15391673327E-03 +7.01424169247E-01 -6.59308149307E-02
2.84000000000E+09 +5.55723601275E-01 -2.62175770876E-01 -5.48052301513E-03 -2.80271024897E-04 -5.40479019468E-03 -3.97164230719E-04 +6.90153272128E-01 -8.58638901503E-02
2.84500000000E+09 +5.33579684913E-01 -2.81872483735E-01 -5.38110180927E-03 +3.60554307771E-04 -5.43526044649E-03 +2.69587718731E-04 +6.77858808539E-01 -1.06362145840E-01
2.85000000000E+09 +5.09548564266E-01 -3.02493279520E-01 -5.43884557253E-03 +5.56346424598E-04 -5.53023267248E-03 +4.82515510341E-04 +6.64175369019E-01 -1.26843937595E-01
2.85500000000E+09 +4.83904292269E-01 -3.22168269981E-01 -6.30833093246E-03 +1.13256342135E-03 -6.23898605528E-03 +1.15306327149E-03 +6.49005085512E-01 -1.47253310265E-01
2.86000000000E+09 +4.59381514713E-01 -3.40225680617E-01 -6.29137212720E-03 +2.31746051155E-03 -6.24015012233E-03 +2.25678371324E-03 +6.33033105870E-01 -1.66469044710E-01
2.86500000000E+09 +4.36011311879E-01 -3.56543263817E-01 -6.39132894131E-03 +3.29234989345E-03 -6.42245619489E-03 +3.20677962389E-03 +6.16654306278E-01 -1.86959611622E-01
2.87000000000E+09 +4.13750384410E-01 -3.71615483481E-01 -6.01031502761E-03 +4.56797737232E-03 -6.02238992464E-03 +4.65743458691E-03 +5.98154679266E-01 -2.07029175848E-01
2.87500000000E+09 +3.91504197103E-01 -3.84747847229E-01 -5.35442157558E-03 +5.33490822052E-03 -5.16712112111E-03 +5.45326928893E-03 +5.77887037861E-01 -2.26373324323E-01
2.88000000000E+09 +3.68614154194E-01 -3.96340531652E-01 -4.85325865440E-03 +5.88948952826E-03 -4.49464853572E-03 +5.83608265150E-03 +5.57272099962E-01 -2.44696157512E-01
2.88500000000E+09 +3.44294087921E-01 -4.05938923868E-01 -4.60677585446E-03 +6.81844682264E-03 -4.25754764088E-03 +6.47463436086E-03 +5.35134151989E-01 -2.63015101790E-01
2.89000000000E+09 +3.18454413298E-01 -4.14781411616E-01 -3.84232656607E-03 +8.04650036483E-03 -3.69867847854E-03 +7.45976072581E-03 +5.11296845329E-01 -2.81478287637E-01
2.89500000000E+09 +2.88885425778E-01 -4.22459387855E-01 -2.48972142307E-03 +8.67273144899E-03 -2.80140790280E-03 +8.26552167079E-03 +4.84418276923E-01 -2.99645548011E-01
2.90000000000E+09 +2.57759376445E-01 -4.28861559202E-01 -1.76170454739E-03 +8.82902706945E-03 -2.08171118090E-03 +8.86370629598E-03 +4.57100899313E-01 -3.15535810018E-01
2.90500000000E+09 +2.24009507907E-01 -4.35107758740E-01 -7.49748142674E-04 +9.91710027566E-03 -8.13573051766E-04 +1.00736233683E-02 +4.28516605585E-01 -3.31591174438E-01
2.91000000000E+09 +1.88419026400E-01 -4.39012668833E-01 +8.06306627360E-04 +1.03664631401E-02 +1.10493458363E-03 +1.03143943970E-02 +3.98719082454E-01 -3.46041024648E-01
2.91500000000E+09 +1.54113633322E-01 -4.41843547628E-01 +2.81802491459E-03 +1.08824305537E-02 +2.87314774079E-03 +1.02973062391E-02 +3.67397853306E-01 -3.58586289991E-01
2.92000000000E+09 +1.18908849580E-01 -4.43815857435E-01 +4.72222810001E-03 +1.01108964825E-02 +4.31966273878E-03 +9.52934468113E-03 +3.34894903419E-01 -3.70223974648E-01
2.92500000000E+09 +8.44149834300E-02 -4.43260861283E-01 +6.17468851696E-03 +9.38086612146E-03 +5.42349073573E-03 +9.15084783163E-03 +2.99523791056E-01 -3.78552070825E-01
2.93000000000E+09 +5.11027856048E-02 -4.39809127036E-01 +7.04852943444E-03 +8.35486664768E-03 +6.46614106425E-03 +8.58723897308E-03 +2.63662398146E-01 -3.86206392682E-01
2.93500000000E+09 +1.85163874745E-02 -4.34219024663E-01 +8.13979269642E-03 +8.01943812969E-03 +7.89154261966E-03 +8.40468012863E-03 +2.25536573191E-01 -3.91596456977E-01
2.94000000000E+09 -1.40701865116E-02 -4.25574272662E-01 +9.53018093722E-03 +7.29676333380E-03 +9.38783005182E-03 +7.49645435142E-03 +1.86737219005E-01 -3.95896464664E-01
2.94500000000E+09 -4.61032882290E-02 -4.14036038844E-01 +1.15900729490E-02 +6.13271002719E-03 +1.13582882857E-02 +6.38925964883E-03 +1.46094232539E-01 -3.96029938451E-01
2.95000000000E+09 -7.89989867907E-02 -4.00820142276E-01 +1.27069772476E-02 +3.71322151508E-03 +1.25813644462E-02 +4.20311865482E-03 +1.07407216180E-01 -3.93847596666E-01
2.95500000000E+09 -1.13845917946E-01 -3.83831974429E-01 +1.28337560895E-02 +1.34799580421E-03 +1.31065491465E-02 +1.91332648233E-03 +6.82333655345E-02 -3.89990133770E-01
2.96000000000E+09 -1.47209999089E-01 -3.62851626414E-01 +1.26984683275E-02 -3.49472934361E-04 +1.32623616682E-02 -1.56068365615E-04 +2.68014315709E-02 -3.83585164702E-01
2.96500000000E+09 -1.79144824417E-01 -3.40527726694E-01 +1.25541562891E-02 -1.75508227606E-03 +1.29394046763E-02 -2.13887351146E-03 -1.45130030235E-02 -3.71884853172E-01
2.97000000000E+09 -2.09970317781E-01 -3.16663463897E-01 +1.22704967235E-02 -3.33089220802E-03 +1.21310775953E-02 -3.76051663176E-03 -5.52940366225E-02 -3.58641859569E-01
2.97500000000E+09 -2.38661070932E-01 -2.90746278476E-01 +1.25516869118E-02 -4.94334229015E-03 +1.21570137977E-02 -4.93767227779E-03 -9.57415450748E-02 -3.42079447380E-01
2.98000000000E+09 -2.65164066135E-01 -2.64352639879E-01 +1.16827413949E-02 -7.43164134921E-03 +1.15763577577E-02 -6.88351154102E-03 -1.34820967019E-01 -3.23023329075E-01
2.98500000000E+09 -2.90294117632E-01 -2.35648487245E-01 +1.06994904344E-02 -9.33850366554E-03 +1.11669547147E-02 -8.91668990542E-03 -1.72009748459E-01 -3.00491604434E-01
2.99000000000E+09 -3.12230067391E-01 -2.05480276905E-01 +8.69136022697E-03 -1.07505212340E-02 +9.30068298232E-03 -1.11542255728E-02 -2.08859148906E-01 -2.75067047500E-01
2.99500000000E+09 -3.32310850348E-01 -1.75311522951E-01 +7.06947743266E-03 -1.18734068013E-02 +7.04182292672E-03 -1.25657738088E-02 -2.41971372176E-01 -2.45894057208E-01
3.00000000000E+09 -3.52768307598E-01 -1.42629091514E-01 +5.26856389670E-03 -1.25106724697E-02 +4.59286395656E-03 -1.28343173783E-02 -2.74216892909E-01 -2.14596776727E-01
3.00500000000E+09 -3.69373510586E-01 -1.07849841981E-01 +3.55770982179E-03 -1.35002377535E-02 +2.96371258482E-03 -1.31595498323E-02 -3.03401715148E-01 -1.81851012409E-01
3.01000000000E+09 -3.83754186980E-01 -7.42812143374E-02 +1.15364846197E-03 -1.39962326589E-02 +1.12229315843E-03 -1.33302376022E-02 -3.32305848337E-01 -1.46574823050E-01
3.01500000000E+09 -3.97126179898E-01 -4.03913592582E-02 -1.09465390805E-03 -1.34568771204E-02 -7.41435128621E-04 -1.31207389932E-02 -3.56548047108E-01 -1.09469677943E-01
3.02000000000E+09 -4.07049858521E-01 -6.14554333669E-03 -2.64768959857E-03 -1.27370962842E-02 -2.38634260074E-03 -1.27713996662E-02 -3.77370666647E-01 -7.05942840589E-02
3.02500000000E+09 -4.13951224261E-01 +2.61706247113E-02 -4.16496366031E-03 -1.23413594673E-02 -4.04105530611E-03 -1.24009262018E-02 -3.94060182694E-01 -3.21129842791E-02
3.03000000000E+09 -4.18094088487E-01 +5.81331915356E-02 -5.89386635620E-03 -1.16146057087E-02 -5.75862751261E-03 -1.15347129170E-02 -4.08724957285E-01 +7.98247769735E-03
3.03500000000E+09 -4.19061824577E-01 +8.97535335727E-02 -7.77525006808E-03 -1.10542769927E-02 -7.41639006877E-03 -1.11962326551E-02 -4.19933813463E-01 +4.71346195742E-02
3.04000000000E+09 -4.16712379356E-01 +1.21518692240E-01 -9.59580623093E-03 -8.57125144495E-03 -9.48787857296E-03 -9.12508727019E-03 -4.29218908010E-01 +8.80351401574E-02
3.04500000000E+09 -4.11616442813E-01 +1.53599708359E-01 -9.58089758248E-03 -6.73235403073E-03 -1.00337425291E-02 -7.28084597121E-03 -4.34666716937E-01 +1.27778302508E-01
3.05000000000E+09 -4.03855530607E-01 +1.87122593801E-01 -9.98357652813E-03 -5.44903720834E-03 -1.07619019110E-02 -5.37046771004E-03 -4.37962404159E-01 +1.67131800488E-01
3.05500000000E+09 -3.93089780496E-01 +2.21444869409E-01 -1.01595549890E-02 -4.36196217383E-03 -1.06059605469E-02 -3.72239980787E-03 -4.39142031963E-01 +2.05526044031E-01
3.06000000000E+09 -3.80548856180E-01 +2.55167645865E-01 -1.07433347700E-02 -3.45192894213E-03 -1.04821952747E-02 -2.75089414651E-03 -4.37768287245E-01 +2.42925334496E-01
3.06500000000E+09 -3.66659748469E-01 +2.88053457099E-01 -1.16114969306E-02 -1.62120445385E-03 -1.09070498782E-02 -1.48875794139E-03 -4.35120478523E-01 +2.80511810131E-01
3.07000000000E+09 -3.52915153703E-01 +3.18803326600E-01 -1.11583090961E-02 +5.04845436140E-04 -1.08616604854E-02 -1.58356467051E-04 -4.28215101962E-01 +3.17394883759E-01
