# Hz S RI R 50
! CMT, C1220, 16058040, 17.2.0/1
! Date: 15/08/2018 10:49:31
! Data: Format (Calibration Info)
! Freq                      S11: Re/Im (F2)                       S21: Re/Im (F2)                       S12: Re/Im (F2)                       S22: Re/Im (F2)            
2.50000000000E+09 +5.81087653857E-01 +6.49174561132E-01 -1.02737253909E-03 +6.34363392463E-04 -1.15869838992E-03 +7.20287296776E-04 +5.62962956381E-01 +7.25788977143E-01
2.50500000000E+09 +5.88621590848E-01 +6.40025035006E-01 -9.60769378866E-04 +8.09333514974E-04 -9.65667702449E-04 +8.96278278564E-04 +5.68810902518E-01 +7.20293886287E-01
2.51000000000E+09 +5.97006053987E-01 +6.30523506327E-01 -8.25695677673E-04 +8.74092024766E-04 -8.46897956807E-04 +9.27927673084E-04 +5.74602051659E-01 +7.14846728331E-01
2.51500000000E+09 +6.05457606439E-01 +6.21583290793E-01 -7.44687767974E-04 +1.02181230307E-03 -6.49967565744E-04 +9.78118513752E-04 +5.79797832037E-01 +7.09246589915E-01
2.52000000000E+09 +6.13060388387E-01 +6.13188343339E-01 -5.52755356320E-04 +9.99092598864E-04 -6.14861524990E-04 +9.94708330703E-04 +5.84805151737E-01 +7.03014427984E-01
2.52500000000E+09 +6.19216632350E-01 +6.06068838194E-01 -4.79081439038E-04 +1.00358821475E-03 -5.51468125797E-04 +9.93698443100E-04 +5.90270877132E-01 +6.96601768864E-01
2.53000000000E+09 +6.24047750245E-01 +5.99843395843E-01 -4.33470836947E-04 +1.06513064749E-03 -4.39948773053E-04 +1.09985464602E-03 +5.96331741983E-01 +6.89768428723E-01
2.53500000000E+09 +6.27931252264E-01 +5.94228286482E-01 -3.88036078065E-04 +1.14263491800E-03 -4.06701888152E-04 +1.16435889795E-03 +6.02377219106E-01 +6.83259608144E-01
2.54000000000E+09 +6.30716308267E-01 +5.88474677799E-01 -2.34791861325E-04 +1.28146197026E-03 -2.91559152901E-04 +1.23305324933E-03 +6.08277968383E-01 +6.76846820827E-01
2.54500000000E+09 +6.33742602772E-01 +5.82556210777E-01 -6.90553882054E-05 +1.30983163474E-03 -1.52024863924E-04 +1.29749521727E-03 +6.14037890270E-01 +6.70671677615E-01
2.55000000000E+09 +6.37564309017E-01 +5.75481808863E-01 +1.82459474365E-04 +1.35931790952E-03 +3.84784654391E-05 +1.44951554630E-03 +6.19291860970E-01 +6.64707405456E-01
2.55500000000E+09 +6.42685634351E-01 +5.66989234967E-01 +3.35379360026E-04 +1.17257564031E-03 +3.46202746391E-04 +1.37153817672E-03 +6.24363202283E-01 +6.58351369733E-01
2.56000000000E+09 +6.49331325563E-01 +5.57885750697E-01 +3.20558643790E-04 +1.03925092230E-03 +5.34266578326E-04 +1.18264133030E-03 +6.29311176751E-01 +6.51256794852E-01
2.56500000000E+09 +6.57192564780E-01 +5.47592497498E-01 +3.42651026045E-04 +1.08329550136E-03 +5.88265222474E-04 +1.14489482848E-03 +6.34710188773E-01 +6.44090679224E-01
2.57000000000E+09 +6.65499906924E-01 +5.37179981106E-01 +4.17719438644E-04 +1.07070632009E-03 +6.40640290969E-04 +9.15789925374E-04 +6.40347718431E-01 +6.36554821451E-01
2.57500000000E+09 +6.73568663030E-01 +5.26872055358E-01 +6.00091577228E-04 +1.08215307712E-03 +6.77817974458E-04 +8.85403968074E-04 +6.46173448365E-01 +6.29025877963E-01
2.58000000000E+09 +6.80378431303E-01 +5.17930073088E-01 +7.93369208045E-04 +9.93834696150E-04 +6.69569020262E-04 +7.92029425500E-04 +6.51665997065E-01 +6.21507792970E-01
2.58500000000E+09 +6.85901881233E-01 +5.09403667266E-01 +8.67468364393E-04 +8.01379776652E-04 +6.87953528857E-04 +7.26868895484E-04 +6.56964649405E-01 +6.13733098419E-01
2.59000000000E+09 +6.89826720057E-01 +5.01907157042E-01 +8.10294095371E-04 +6.62167127744E-04 +7.11964326792E-04 +6.78628135395E-04 +6.61755419871E-01 +6.06089797146E-01
2.59500000000E+09 +6.92705913096E-01 +4.94513829577E-01 +8.37705671773E-04 +6.62881020513E-04 +8.20759422049E-04 +7.35855835331E-04 +6.66673702795E-01 +5.98137816129E-01
2.60000000000E+09 +6.94571757462E-01 +4.86348092986E-01 +9.57224700155E-04 +5.43271378519E-04 +9.69373623419E-04 +5.79044298333E-04 +6.71925688509E-01 +5.89742921612E-01
2.60500000000E+09 +6.96600757696E-01 +4.76659527139E-01 +1.00662252203E-03 +3.47852700474E-04 +1.04894162660E-03 +3.87315679070E-04 +6.77577411540E-01 +5.81172174222E-01
2.61000000000E+09 +6.98924879744E-01 +4.65036699180E-01 +9.02038773649E-04 +2.60795013290E-04 +8.88369003563E-04 +2.77350712435E-04 +6.82895668152E-01 +5.72122745545E-01
2.61500000000E+09 +7.02512170416E-01 +4.51308527701E-01 +8.72859151537E-04 +2.75203857426E-04 +8.55117422640E-04 +2.90841214289E-04 +6.87859170592E-01 +5.63259260569E-01
2.62000000000E+09 +7.06935686555E-01 +4.35392522614E-01 +8.51513191969E-04 +1.29935950374E-04 +8.62434062823E-04 +1.99085431638E-04 +6.92520083569E-01 +5.54375804457E-01
2.62500000000E+09 +7.12195558470E-01 +4.18525298227E-01 +8.18179936282E-04 +2.74744931612E-04 +9.38202820281E-04 +2.40122397578E-04 +6.97230388641E-01 +5.45614889459E-01
2.63000000000E+09 +7.17619563813E-01 +4.01434667935E-01 +9.44330964056E-04 +2.61280110318E-04 +9.64710473400E-04 +1.70604697113E-04 +7.02116659873E-01 +5.36635885543E-01
2.63500000000E+09 +7.22636909626E-01 +3.85437511015E-01 +1.06885269210E-03 +8.46642474924E-06 +1.03202744751E-03 -8.80670114266E-05 +7.06808875606E-01 +5.27375821993E-01
2.64000000000E+09 +7.26894837662E-01 +3.71121544646E-01 +9.51677966472E-04 -8.84930473774E-05 +8.03868134544E-04 -1.47756987074E-04 +7.11297378993E-01 +5.17821817827E-01
2.64500000000E+09 +7.30219903936E-01 +3.59161987517E-01 +8.51592485321E-04 -1.91026858510E-04 +7.97028306564E-04 -1.20445438625E-04 +7.15910467551E-01 +5.08159202432E-01
2.65000000000E+09 +7.32164680976E-01 +3.49140229301E-01 +7.26519732987E-04 -1.80132019775E-04 +6.95279060851E-04 -7.37880008150E-05 +7.20387749038E-01 +4.97959287063E-01
2.65500000000E+09 +7.33730667880E-01 +3.39992038496E-01 +7.28387425740E-04 -1.47144412204E-04 +7.41406755695E-04 -9.33413583080E-05 +7.24475160570E-01 +4.87356122553E-01
2.66000000000E+09 +7.34833791638E-01 +3.30997631335E-01 +7.45958413075E-04 -3.23613024582E-05 +8.27332029601E-04 -2.80638793269E-05 +7.28395013330E-01 +4.76252410713E-01
2.66500000000E+09 +7.35729109947E-01 +3.21204386388E-01 +7.77732307599E-04 -1.10137394416E-04 +7.95782624367E-04 -1.49606835107E-04 +7.32702338630E-01 +4.65174289739E-01
2.67000000000E+09 +7.36692149289E-01 +3.09134622891E-01 +8.11559298204E-04 -8.97274882557E-05 +8.00394278998E-04 -1.75140491392E-04 +7.36976258591E-01 +4.54500923179E-01
2.67500000000E+09 +7.37696865551E-01 +2.94955086261E-01 +9.87884644151E-04 -1.41644101341E-04 +9.07427382450E-04 -1.43885344092E-04 +7.41245944652E-01 +4.43550926151E-01
2.68000000000E+09 +7.38802453176E-01 +2.79145811939E-01 +9.69698777986E-04 -3.08263402782E-04 +9.16317764336E-04 -3.11359748690E-04 +7.45334471073E-01 +4.32397520448E-01
2.68500000000E+09 +7.40064995296E-01 +2.62177048841E-01 +7.76802373268E-04 -3.83504764042E-04 +7.93020624473E-04 -3.37788407274E-04 +7.48272851161E-01 +4.20801991439E-01
2.69000000000E+09 +7.41117718538E-01 +2.44832800702E-01 +7.49655198122E-04 -2.63462570673E-04 +7.72245523138E-04 -2.05582667603E-04 +7.51231984859E-01 +4.09100602265E-01
2.69500000000E+09 +7.41999930779E-01 +2.28268377716E-01 +1.00623258033E-03 -8.11581526406E-05 +9.41089970411E-04 -1.03582786769E-04 +7.54042455186E-01 +3.96412920273E-01
2.70000000000E+09 +7.42740884668E-01 +2.12887840463E-01 +1.22200826876E-03 -2.25620272972E-04 +1.20726807519E-03 -2.15450566216E-04 +7.57199399102E-01 +3.83513754751E-01
2.70500000000E+09 +7.42990616126E-01 +1.99050465956E-01 +1.42610850588E-03 -5.29674547577E-04 +1.39584294946E-03 -4.75918226325E-04 +7.60443343874E-01 +3.69959366352E-01
2.71000000000E+09 +7.43100281313E-01 +1.86196869506E-01 +1.29523400391E-03 -9.19767174363E-04 +1.39916327400E-03 -8.46965005279E-04 +7.63058420553E-01 +3.56452262824E-01
2.71500000000E+09 +7.42930905389E-01 +1.73469305894E-01 +1.13826493098E-03 -1.09176432829E-03 +1.15632417763E-03 -1.19770439150E-03 +7.65160437728E-01 +3.44164127293E-01
2.72000000000E+09 +7.42290992097E-01 +1.60736829628E-01 +9.39439425730E-04 -1.10001664844E-03 +9.88602384943E-04 -1.22107934602E-03 +7.67296409978E-01 +3.31713103332E-01
2.72500000000E+09 +7.41812181441E-01 +1.46835407093E-01 +8.83662034062E-04 -1.08575233172E-03 +8.04722900667E-04 -1.15394518568E-03 +7.68311637618E-01 +3.18264775139E-01
2.73000000000E+09 +7.40573580312E-01 +1.31206572346E-01 +1.09058658230E-03 -1.12157579575E-03 +9.32127174220E-04 -1.05827149501E-03 +7.69661783732E-01 +3.04214414672E-01
2.73500000000E+09 +7.38493301403E-01 +1.13779072514E-01 +1.12383287788E-03 -1.53452692297E-03 +8.95500267237E-04 -1.38208294038E-03 +7.70309024907E-01 +2.89528555802E-01
2.74000000000E+09 +7.35752866552E-01 +9.54368293555E-02 +8.78885342119E-04 -1.74385219459E-03 +8.74275558712E-04 -1.46203517559E-03 +7.71644338489E-01 +2.74841733574E-01
2.74500000000E+09 +7.31794308355E-01 +7.64744133548E-02 +5.80250223976E-04 -1.80569477035E-03 +7.77385576992E-04 -1.64742867694E-03 +7.73007007194E-01 +2.60160960642E-01
2.75000000000E+09 +7.26950839498E-01 +5.81149702977E-02 +6.81620502128E-04 -1.73254777036E-03 +8.75871736734E-04 -1.72515346139E-03 +7.74110190561E-01 +2.45251704363E-01
2.75500000000E+09 +7.21684352322E-01 +4.06142504272E-02 +6.69490412618E-04 -2.28907889733E-03 +8.28041662158E-04 -2.43640280318E-03 +7.74395393733E-01 +2.30433331940E-01
2.76000000000E+09 +7.16536407920E-01 +2.38275377482E-02 +1.67406543192E-04 -2.44404984714E-03 +2.34254626888E-04 -2.58666117665E-03 +7.74037974115E-01 +2.15065524557E-01
2.76500000000E+09 +7.10754720521E-01 +7.49318623982E-03 -3.43919622830E-04 -2.52520976916E-03 -3.58806830796E-04 -2.65113542051E-03 +7.73443806369E-01 +1.99197532976E-01
2.77000000000E+09 +7.05197780312E-01 -9.07664521086E-03 -7.29315058251E-04 -2.15900648040E-03 -7.77677798857E-04 -2.18444210369E-03 +7.73118587776E-01 +1.82171373081E-01
2.77500000000E+09 +6.99475384815E-01 -2.69055437698E-02 -4.97011075710E-04 -1.64988359499E-03 -5.16168301786E-04 -1.73791391117E-03 +7.71764452797E-01 +1.63908799160E-01
2.78000000000E+09 +6.93184758744E-01 -4.58074815508E-02 -1.57968408467E-04 -2.18859062974E-03 -2.72770082584E-04 -2.17114273188E-03 +7.70115489712E-01 +1.46078578818E-01
2.78500000000E+09 +6.86594026721E-01 -6.60800026156E-02 -4.38156468426E-04 -2.59300026523E-03 -6.30856959046E-04 -2.52677053198E-03 +7.67921037498E-01 +1.28374377425E-01
2.79000000000E+09 +6.79227300127E-01 -8.79582341193E-02 -9.29239955003E-04 -2.62904541343E-03 -1.04419564259E-03 -2.43913594937E-03 +7.65301581282E-01 +1.11231192126E-01
2.79500000000E+09 +6.70962443806E-01 -1.09654289204E-01 -1.16907530191E-03 -2.81564745609E-03 -1.12890701859E-03 -2.57779574474E-03 +7.61913090710E-01 +9.31274045239E-02
2.80000000000E+09 +6.62110639889E-01 -1.31078823399E-01 -1.74505342794E-03 -2.68051606547E-03 -1.57317308424E-03 -2.56837614513E-03 +7.57408127479E-01 +7.44082525652E-02
2.80500000000E+09 +6.52418665278E-01 -1.51412344256E-01 -1.73031121487E-03 -2.55254028351E-03 -1.66941547649E-03 -2.62423378776E-03 +7.51824897077E-01 +5.48142987349E-02
2.81000000000E+09 +6.41418482521E-01 -1.69354227851E-01 -2.27235535787E-03 -2.93015026947E-03 -2.29636606573E-03 -3.00644208743E-03 +7.45281989080E-01 +3.55405549863E-02
2.81500000000E+09 +6.30239327011E-01 -1.85022209076E-01 -2.94455691613E-03 -2.52503178467E-03 -3.07551961021E-03 -2.45160141727E-03 +7.39113607195E-01 +1.57095137579E-02
2.82000000000E+09 +6.18344482506E-01 -2.00018384543E-01 -3.19066975679E-03 -2.42870619662E-03 -3.28017286754E-03 -2.31570329200E-03 +7.32001156711E-01 -4.83199392726E-03
2.82500000000E+09 +6.04329123536E-01 -2.14402718370E-01 -3.80014073855E-03 -2.27879868646E-03 -3.66490071506E-03 -2.08255508092E-03 +7.23679930207E-01 -2.53271406814E-02
2.83000000000E+09 +5.88895343592E-01 -2.28795396694E-01 -4.35963161783E-03 -1.92516417030E-03 -4.12134613711E-03 -1.83850733086E-03 +7.14128377106E-01 -4.52747980433E-02
2.83500000000E+09 +5.72128539951E-01 -2.44893080637E-01 -5.01595117327E-03 -1.32454287117E-03 -4.75518433073E-03 -1.41325019257E-03 +7.03959297654E-01 -6.54935343685E-02
2.84000000000E+09 +5.52301308289E-01 -2.63086889102E-01 -5.29295249990E-03 -5.39697822582E-04 -5.23910736645E-03 -7.14136513592E-04 +6.92692251665E-01 -8.56814655777E-02
2.84500000000E+09 +5.30196644417E-01 -2.82554435007E-01 -5.34665390234E-03 +1.94892639232E-04 -5.37571129277E-03 +8.51367646197E-05 +6.80583766667E-01 -1.06505468483E-01
2.85000000000E+09 +5.06244037962E-01 -3.02944507164E-01 -5.33808992193E-03 +5.53660853890E-04 -5.33294204667E-03 +5.79761310391E-04 +6.66920947800E-01 -1.27391257693E-01
2.85500000000E+09 +4.80949354331E-01 -3.22532178271E-01 -5.90142377404E-03 +1.18391024883E-03 -5.83842153913E-03 +1.21123315778E-03 +6.51580139569E-01 -1.48231655712E-01
2.86000000000E+09 +4.56511856900E-01 -3.40718252797E-01 -5.79774912330E-03 +2.06350190101E-03 -5.70844868839E-03 +1.98883076845E-03 +6.35585212902E-01 -1.67611272297E-01
2.86500000000E+09 +4.32990739047E-01 -3.57176614909E-01 -6.00345023054E-03 +2.86222551652E-03 -5.94910800357E-03 +2.78240830364E-03 +6.19600775726E-01 -1.88064286224E-01
2.87000000000E+09 +4.10204151649E-01 -3.72262963799E-01 -5.83011548013E-03 +4.08320674929E-03 -5.82797976754E-03 +4.10892100203E-03 +6.01255431509E-01 -2.08921754917E-01
2.87500000000E+09 +3.87682639933E-01 -3.84774421906E-01 -5.21543658810E-03 +4.95801729487E-03 -5.09909087092E-03 +5.03433737623E-03 +5.80561757215E-01 -2.28879214722E-01
2.88000000000E+09 +3.65350372356E-01 -3.95897518193E-01 -4.75537792165E-03 +5.57158007279E-03 -4.48567365975E-03 +5.51433328332E-03 +5.59544317461E-01 -2.47631826226E-01
2.88500000000E+09 +3.41236448367E-01 -4.05455380226E-01 -4.36744624176E-03 +6.63108422035E-03 -4.02240846890E-03 +6.31153162812E-03 +5.36873417758E-01 -2.66251014233E-01
2.89000000000E+09 +3.15418049676E-01 -4.14238154024E-01 -3.34678009774E-03 +7.61403906625E-03 -3.37497169991E-03 +7.08359692125E-03 +5.12630163039E-01 -2.84716895616E-01
2.89500000000E+09 +2.86297470107E-01 -4.21621396151E-01 -2.15860259332E-03 +8.15293285605E-03 -2.49517871590E-03 +7.76162532521E-03 +4.85592896306E-01 -3.02915991168E-01
2.90000000000E+09 +2.55146473421E-01 -4.28080502493E-01 -1.23781427981E-03 +8.25129675293E-03 -1.51317630210E-03 +8.20682343871E-03 +4.58286697709E-01 -3.19054200867E-01
2.90500000000E+09 +2.21249257295E-01 -4.33995667985E-01 -4.21957567834E-04 +8.65473191482E-03 -4.79556602019E-04 +8.80101563953E-03 +4.29262086339E-01 -3.35469895118E-01
2.91000000000E+09 +1.85960354676E-01 -4.37630730803E-01 +4.07180994454E-04 +9.00209020306E-03 +6.23368855874E-04 +8.93378197277E-03 +3.99186011545E-01 -3.50202733791E-01
2.91500000000E+09 +1.51643970014E-01 -4.40363571594E-01 +1.77745171971E-03 +1.00588251676E-02 +1.86528911546E-03 +9.63364807936E-03 +3.67253450593E-01 -3.63174005676E-01
2.92000000000E+09 +1.16796198060E-01 -4.41490042790E-01 +4.02155758016E-03 +9.98788024659E-03 +3.70219929229E-03 +9.38268455780E-03 +3.33877134447E-01 -3.74839675282E-01
2.92500000000E+09 +8.31004098666E-02 -4.40914122924E-01 +5.72722589750E-03 +9.21626816707E-03 +4.99481294001E-03 +9.02728485480E-03 +2.97761113855E-01 -3.82994201345E-01
2.93000000000E+09 +5.01582113219E-02 -4.37658738005E-01 +7.08773950983E-03 +7.97078740857E-03 +6.52990232434E-03 +8.19394047652E-03 +2.61358739882E-01 -3.90218085286E-01
2.93500000000E+09 +1.82299974950E-02 -4.32251060920E-01 +7.94176377706E-03 +7.19581390128E-03 +7.66239014184E-03 +7.52263773417E-03 +2.22802862620E-01 -3.95367662113E-01
2.94000000000E+09 -1.43294447645E-02 -4.23991693026E-01 +8.92794145484E-03 +6.29499645659E-03 +8.84017420495E-03 +6.49755000235E-03 +1.83671029538E-01 -3.99224467171E-01
2.94500000000E+09 -4.62270882426E-02 -4.12377714524E-01 +1.03305022043E-02 +5.27338437301E-03 +1.01266639228E-02 +5.47338512038E-03 +1.42950047423E-01 -3.99511745199E-01
2.95000000000E+09 -7.87856726579E-02 -3.99388079474E-01 +1.11767008799E-02 +3.48637636886E-03 +1.10121065107E-02 +3.94250612040E-03 +1.02906454347E-01 -3.97506278259E-01
2.95500000000E+09 -1.13508992060E-01 -3.82375579546E-01 +1.16024385943E-02 +1.60790364899E-03 +1.18484002568E-02 +2.12179453248E-03 +6.26953665031E-02 -3.92364106415E-01
2.96000000000E+09 -1.46397169912E-01 -3.61556844324E-01 +1.14554627193E-02 -3.78241467992E-05 +1.20367814814E-02 +1.78408849936E-04 +2.10548779871E-02 -3.84780870277E-01
2.96500000000E+09 -1.78155872944E-01 -3.39659061813E-01 +1.14913847819E-02 -1.11606749780E-03 +1.18684854087E-02 -1.42255970156E-03 -2.01561445221E-02 -3.72498801652E-01
2.97000000000E+09 -2.08585831921E-01 -3.15785665549E-01 +1.17717355009E-02 -2.56232275848E-03 +1.16904346859E-02 -2.93708772266E-03 -6.12791335681E-02 -3.58020900082E-01
2.97500000000E+09 -2.37192822829E-01 -2.90869834247E-01 +1.19775682083E-02 -4.87483129469E-03 +1.15887346154E-02 -4.88638116301E-03 -1.01231273872E-01 -3.40508377555E-01
2.98000000000E+09 -2.64495121397E-01 -2.64690626977E-01 +1.06137463918E-02 -7.11056814088E-03 +1.04907104806E-02 -6.64405832434E-03 -1.39854448628E-01 -3.20732041763E-01
2.98500000000E+09 -2.89684945367E-01 -2.35819043099E-01 +9.38263330998E-03 -8.34254813600E-03 +9.89716270346E-03 -7.96195808713E-03 -1.76574835491E-01 -2.97630776304E-01
2.99000000000E+09 -3.11726337010E-01 -2.05465638448E-01 +7.99015090663E-03 -9.32309807108E-03 +8.54832921206E-03 -9.63451333971E-03 -2.12736854760E-01 -2.71896983986E-01
2.99500000000E+09 -3.32014904279E-01 -1.74980057556E-01 +6.90291038411E-03 -1.02993515349E-02 +6.87936329875E-03 -1.09929603809E-02 -2.45865523362E-01 -2.42145299898E-01
3.00000000000E+09 -3.51751281296E-01 -1.42298290785E-01 +5.57773057839E-03 -1.13724447365E-02 +5.01393905886E-03 -1.17524198499E-02 -2.77161918975E-01 -2.10002881927E-01
3.00500000000E+09 -3.68497613862E-01 -1.07807860478E-01 +3.87267528390E-03 -1.26653583203E-02 +3.26562993664E-03 -1.23638632112E-02 -3.05612877073E-01 -1.77118061239E-01
3.01000000000E+09 -3.82451270012E-01 -7.40061229457E-02 +1.21607910073E-03 -1.32444640354E-02 +1.22499745054E-03 -1.26196503232E-02 -3.33458470750E-01 -1.41616717005E-01
3.01500000000E+09 -3.95445207861E-01 -4.07200914603E-02 -8.47237170828E-04 -1.25683695068E-02 -5.61065403768E-04 -1.23560654560E-02 -3.57173717947E-01 -1.05035913227E-01
3.02000000000E+09 -4.05656237797E-01 -7.23747805831E-03 -2.44346519233E-03 -1.18110476951E-02 -2.16326029879E-03 -1.18387014241E-02 -3.77619767753E-01 -6.61632046038E-02
3.02500000000E+09 -4.13200806418E-01 +2.54507634643E-02 -3.81826375470E-03 -1.15293688072E-02 -3.72660581122E-03 -1.16114726781E-02 -3.93767653844E-01 -2.78748566910E-02
3.03000000000E+09 -4.16976771742E-01 +5.80041284927E-02 -5.39009431834E-03 -1.05991519654E-02 -5.20184937917E-03 -1.05106860940E-02 -4.08369732291E-01 +1.18451794047E-02
3.03500000000E+09 -4.17525394023E-01 +8.95679233520E-02 -6.73969959178E-03 -1.01472144419E-02 -6.41526233009E-03 -1.02753861177E-02 -4.19562519868E-01 +5.13911279201E-02
3.04000000000E+09 -4.14735358526E-01 +1.21028406903E-01 -8.54912441192E-03 -8.33224014984E-03 -8.34857943044E-03 -8.90796671693E-03 -4.27916754640E-01 +9.27044462792E-02
3.04500000000E+09 -4.09288356480E-01 +1.52502733925E-01 -8.84868417030E-03 -6.61747612818E-03 -9.23356101906E-03 -7.11023484961E-03 -4.32819040757E-01 +1.32274619611E-01
3.05000000000E+09 -4.01886895227E-01 +1.85250741431E-01 -9.26236851626E-03 -5.49972094353E-03 -1.00259961483E-02 -5.49337045093E-03 -4.35458825398E-01 +1.71495688882E-01
3.05500000000E+09 -3.91872629940E-01 +2.19273054222E-01 -9.81774523189E-03 -4.38926046307E-03 -1.02853600285E-02 -3.69839077928E-03 -4.35773991455E-01 +2.09374387963E-01
3.06000000000E+09 -3.79741341657E-01 +2.53274011848E-01 -1.03711568368E-02 -3.08858045800E-03 -1.01417339088E-02 -2.33035013867E-03 -4.33559913692E-01 +2.45986366993E-01
3.06500000000E+09 -3.66089460612E-01 +2.86763202870E-01 -1.06609929519E-02 -1.11965404028E-03 -9.97824905071E-03 -1.07071254061E-03 -4.31070473381E-01 +2.82710968440E-01
3.07000000000E+09 -3.51584677139E-01 +3.17989118463E-01 -1.01013685062E-02 +4.48126460250E-04 -9.73947038344E-03 -1.81455103738E-04 -4.23951166486E-01 +3.18988885946E-01
