# Hz S RI R 50
! CMT, C1220, 16058040, 17.2.0/1
! Date: 15/08/2018 10:50:20
! Data: Format (Calibration Info)
! Freq                      S11: Re/Im (F2)                       S21: Re/Im (F2)                       S12: Re/Im (F2)                       S22: Re/Im (F2)            
2.50000000000E+09 +5.80386104771E-01 +6.50286019561E-01 -1.20728627571E-03 +5.54449176778E-04 -1.33895040420E-03 +5.76627235692E-04 +5.62328884811E-01 +7.25891765968E-01
2.50500000000E+09 +5.87916924990E-01 +6.41076893178E-01 -1.18511886444E-03 +5.97764713916E-04 -1.19283489799E-03 +7.26273580980E-04 +5.67939291292E-01 +7.20336361394E-01
2.51000000000E+09 +5.96302674750E-01 +6.31736231915E-01 -1.19477352858E-03 +7.30027148735E-04 -1.17677318274E-03 +8.02296933883E-04 +5.73834383992E-01 +7.14966657138E-01
2.51500000000E+09 +6.04637604918E-01 +6.22831723989E-01 -1.13557249792E-03 +9.52691717430E-04 -1.11810425112E-03 +9.53304776724E-04 +5.79044605420E-01 +7.09265056889E-01
2.52000000000E+09 +6.12321741254E-01 +6.14483158715E-01 -9.65177959647E-04 +1.12845308496E-03 -9.88518282668E-04 +1.05962751284E-03 +5.83931243095E-01 +7.03023313468E-01
2.52500000000E+09 +6.18480719522E-01 +6.07320768698E-01 -7.95813926710E-04 +1.13325456776E-03 -8.77708429746E-04 +1.08158820303E-03 +5.89378017333E-01 +6.96711133857E-01
2.53000000000E+09 +6.23406001998E-01 +6.01129479346E-01 -7.75903621587E-04 +1.10181882584E-03 -7.80366726524E-04 +1.11208704703E-03 +5.95334847762E-01 +6.89959047766E-01
2.53500000000E+09 +6.27229927672E-01 +5.95575653426E-01 -8.34208264535E-04 +1.23379958227E-03 -7.96077536624E-04 +1.24196459334E-03 +6.01239775789E-01 +6.83441559328E-01
2.54000000000E+09 +6.30245381493E-01 +5.89819131333E-01 -6.47415196447E-04 +1.43312852641E-03 -6.87853126921E-04 +1.41186609829E-03 +6.07207345083E-01 +6.77083060626E-01
2.54500000000E+09 +6.33172069989E-01 +5.83785232056E-01 -4.81059002224E-04 +1.51744753040E-03 -5.31949495460E-04 +1.51516118041E-03 +6.12939556733E-01 +6.70995962368E-01
2.55000000000E+09 +6.36971830763E-01 +5.76750311462E-01 -1.88376527485E-04 +1.62929517245E-03 -3.42784391502E-04 +1.70565352256E-03 +6.18092094115E-01 +6.65168869296E-01
2.55500000000E+09 +6.41952898996E-01 +5.68328665513E-01 +2.04248970080E-05 +1.44836014877E-03 +2.78958012807E-07 +1.63937251647E-03 +6.23207911092E-01 +6.58919930165E-01
2.56000000000E+09 +6.48523995705E-01 +5.59330006706E-01 +1.08434559141E-05 +1.41038519024E-03 +1.60810535939E-04 +1.65027024117E-03 +6.28372903168E-01 +6.51921755861E-01
2.56500000000E+09 +6.56373922839E-01 +5.49135616742E-01 +1.01636945089E-04 +1.46708861608E-03 +3.63871998302E-04 +1.63648679188E-03 +6.33567874977E-01 +6.44791831995E-01
2.57000000000E+09 +6.64792841287E-01 +5.38670954650E-01 +3.14101809514E-04 +1.55272101041E-03 +5.60932849805E-04 +1.44784493435E-03 +6.39209622186E-01 +6.37297675814E-01
2.57500000000E+09 +6.72846598981E-01 +5.28487981346E-01 +5.19408896173E-04 +1.55659084348E-03 +6.78349511988E-04 +1.29745716926E-03 +6.45136557301E-01 +6.29881689408E-01
2.58000000000E+09 +6.79672085615E-01 +5.19516831227E-01 +7.37777258112E-04 +1.46294524402E-03 +7.08243061394E-04 +1.20316944973E-03 +6.50707832086E-01 +6.22515653554E-01
2.58500000000E+09 +6.85145015819E-01 +5.11234165946E-01 +8.56760949651E-04 +1.24224039373E-03 +6.97206899132E-04 +1.09916230875E-03 +6.56011694159E-01 +6.14757892576E-01
2.59000000000E+09 +6.89289976591E-01 +5.03916985114E-01 +8.26141275521E-04 +1.10930090226E-03 +6.92075456697E-04 +1.05665094861E-03 +6.60959179672E-01 +6.07083135915E-01
2.59500000000E+09 +6.92189920935E-01 +4.96573428002E-01 +9.09333863258E-04 +1.10928841858E-03 +7.82864798116E-04 +1.18550086643E-03 +6.66006577921E-01 +5.99257162627E-01
2.60000000000E+09 +6.94092429253E-01 +4.88565644522E-01 +1.03709851880E-03 +1.00091324584E-03 +1.01591228270E-03 +1.08241349021E-03 +6.71174187294E-01 +5.90924467275E-01
2.60500000000E+09 +6.96143487375E-01 +4.78951676977E-01 +1.14440832989E-03 +8.79274988235E-04 +1.18246085998E-03 +8.88010489779E-04 +6.77036590142E-01 +5.82278052877E-01
2.61000000000E+09 +6.98629926099E-01 +4.67299249276E-01 +1.13901946144E-03 +8.10182545015E-04 +1.12848918051E-03 +7.72714372996E-04 +6.82355569378E-01 +5.73320090167E-01
2.61500000000E+09 +7.02336340142E-01 +4.53685759681E-01 +1.18632158394E-03 +7.05313338394E-04 +1.23294108949E-03 +7.23855175075E-04 +6.87359780212E-01 +5.64417929123E-01
2.62000000000E+09 +7.06714075485E-01 +4.37913536583E-01 +1.19580223244E-03 +5.14521661718E-04 +1.27767466314E-03 +5.58130098580E-04 +6.92057031328E-01 +5.55592543389E-01
2.62500000000E+09 +7.11977571494E-01 +4.21135379096E-01 +1.12938002378E-03 +5.61031686005E-04 +1.28555110607E-03 +4.71078176597E-04 +6.97050386035E-01 +5.46947613483E-01
2.63000000000E+09 +7.17602621292E-01 +4.04341509833E-01 +1.27545755697E-03 +5.67725103512E-04 +1.31776387989E-03 +4.14970574266E-04 +7.01986281432E-01 +5.37799543413E-01
2.63500000000E+09 +7.22799264265E-01 +3.88341122719E-01 +1.44179075361E-03 +4.03303200957E-04 +1.32179980333E-03 +2.22595065148E-04 +7.06723206038E-01 +5.28561411119E-01
2.64000000000E+09 +7.27181985054E-01 +3.74004444625E-01 +1.40425811137E-03 +2.49645685472E-04 +1.23495462377E-03 +2.05070434791E-04 +7.11339513791E-01 +5.18951808975E-01
2.64500000000E+09 +7.30661625549E-01 +3.61957408997E-01 +1.44621365554E-03 +1.20227853186E-04 +1.26414337350E-03 +1.87013995107E-04 +7.16081538382E-01 +5.09242031081E-01
2.65000000000E+09 +7.32634222915E-01 +3.52052461282E-01 +1.35144714674E-03 -1.85852142247E-05 +1.29365911599E-03 +1.26930833502E-04 +7.20612543003E-01 +4.99232665713E-01
2.65500000000E+09 +7.34348863818E-01 +3.42785015428E-01 +1.28339819088E-03 -2.78844222187E-05 +1.31679099934E-03 +1.10253665720E-04 +7.24774276341E-01 +4.88386034687E-01
2.66000000000E+09 +7.35487301514E-01 +3.33841102196E-01 +1.34995796439E-03 +1.53895863970E-05 +1.49455639212E-03 +7.60185185224E-05 +7.28860464851E-01 +4.77303899456E-01
2.66500000000E+09 +7.36485410477E-01 +3.24025437620E-01 +1.39835587945E-03 -1.30047832232E-04 +1.43270144400E-03 -1.60420020015E-04 +7.33052620831E-01 +4.66265250710E-01
2.67000000000E+09 +7.37558911480E-01 +3.12030937377E-01 +1.43982470939E-03 -1.43750799055E-04 +1.35277377351E-03 -2.17178118631E-04 +7.37547579612E-01 +4.55579507992E-01
2.67500000000E+09 +7.38777892215E-01 +2.98059857316E-01 +1.49729518973E-03 -2.21115168308E-04 +1.41350832827E-03 -2.25671246933E-04 +7.42010830144E-01 +4.44397174787E-01
2.68000000000E+09 +7.39976956946E-01 +2.82170962353E-01 +1.60952272240E-03 -3.82513629900E-04 +1.52703578723E-03 -3.81251345816E-04 +7.46047963582E-01 +4.33052305514E-01
2.68500000000E+09 +7.41270777745E-01 +2.65191418875E-01 +1.42225217537E-03 -5.86090558889E-04 +1.48335832987E-03 -5.31611432065E-04 +7.49152411156E-01 +4.21412816777E-01
2.69000000000E+09 +7.42452665998E-01 +2.47807913483E-01 +1.46413761855E-03 -5.10090473315E-04 +1.50419513662E-03 -4.64058900845E-04 +7.52020167675E-01 +4.09415135006E-01
2.69500000000E+09 +7.43383818334E-01 +2.31362330170E-01 +1.68941731216E-03 -5.71271707913E-04 +1.69502721488E-03 -6.13064060539E-04 +7.54865273951E-01 +3.96794045889E-01
2.70000000000E+09 +7.44325975785E-01 +2.15847748721E-01 +1.82890630338E-03 -8.68324583963E-04 +1.77873436102E-03 -8.36143566533E-04 +7.58075617917E-01 +3.83693340839E-01
2.70500000000E+09 +7.44803056968E-01 +2.01947587364E-01 +1.81067797493E-03 -1.19771313349E-03 +1.76717381594E-03 -1.05337398316E-03 +7.61156520136E-01 +3.70093353127E-01
2.71000000000E+09 +7.44874526772E-01 +1.89020842741E-01 +1.64854106518E-03 -1.44910515089E-03 +1.74903240954E-03 -1.40770572482E-03 +7.63782575687E-01 +3.56632984898E-01
2.71500000000E+09 +7.44937386533E-01 +1.76411404775E-01 +1.49223723511E-03 -1.56817585312E-03 +1.65804681052E-03 -1.70126223918E-03 +7.65993079845E-01 +3.44232648409E-01
2.72000000000E+09 +7.44623863547E-01 +1.63679662256E-01 +1.48494405956E-03 -1.77233089652E-03 +1.43284911060E-03 -1.93512492605E-03 +7.67925091585E-01 +3.31594569527E-01
2.72500000000E+09 +7.44464215990E-01 +1.49511878507E-01 +1.25202403700E-03 -1.94377541373E-03 +1.00519273161E-03 -2.02314227309E-03 +7.69165850747E-01 +3.17961389010E-01
2.73000000000E+09 +7.43316417166E-01 +1.33676894461E-01 +1.25611633965E-03 -2.04195575967E-03 +9.53595371905E-04 -1.94184051287E-03 +7.70242437736E-01 +3.03696404352E-01
2.73500000000E+09 +7.41361015803E-01 +1.16064595356E-01 +1.11887892405E-03 -2.38930593563E-03 +1.01514744889E-03 -2.08578787940E-03 +7.70751348991E-01 +2.88796466229E-01
2.74000000000E+09 +7.38764465296E-01 +9.78588516878E-02 +8.07554448966E-04 -2.55293985108E-03 +8.59503509966E-04 -2.21572041204E-03 +7.72027330469E-01 +2.74157693743E-01
2.74500000000E+09 +7.35170991006E-01 +7.88553378998E-02 +6.17330054748E-04 -2.66138622580E-03 +8.58478518682E-04 -2.47244748504E-03 +7.73299447090E-01 +2.59404739064E-01
2.75000000000E+09 +7.30432662246E-01 +5.99994148936E-02 +5.03680944494E-04 -2.72132007021E-03 +7.82969790202E-04 -2.72361848357E-03 +7.74260221295E-01 +2.44428387456E-01
2.75500000000E+09 +7.25203686306E-01 +4.22779567367E-02 +2.50749992010E-04 -3.05987650649E-03 +4.49437764663E-04 -3.33490213684E-03 +7.74428037933E-01 +2.29667297398E-01
2.76000000000E+09 +7.20062896335E-01 +2.54251390276E-02 -2.23382122417E-04 -3.18174542372E-03 -2.17160688358E-04 -3.43051083553E-03 +7.73972712848E-01 +2.14243526853E-01
2.76500000000E+09 +7.14473016816E-01 +8.75005402737E-03 -7.53527130794E-04 -3.20226074962E-03 -8.21640414293E-04 -3.34847064134E-03 +7.73084765757E-01 +1.98308757213E-01
2.77000000000E+09 +7.08912820228E-01 -8.30526487981E-03 -1.24299547041E-03 -2.89896216286E-03 -1.29079949668E-03 -2.96987213352E-03 +7.72760275729E-01 +1.81288138760E-01
2.77500000000E+09 +7.03028402209E-01 -2.62305511330E-02 -1.15770987536E-03 -2.43017252732E-03 -1.27300323560E-03 -2.42845198964E-03 +7.71347320289E-01 +1.63121909671E-01
2.78000000000E+09 +6.96684118963E-01 -4.54573077007E-02 -9.24171119899E-04 -2.75996292063E-03 -1.08225536705E-03 -2.74303021969E-03 +7.69374428687E-01 +1.45364882802E-01
2.78500000000E+09 +6.90004117255E-01 -6.56732566537E-02 -1.33782748834E-03 -3.12174259609E-03 -1.53547400548E-03 -3.00023442448E-03 +7.67430340880E-01 +1.27701818176E-01
2.79000000000E+09 +6.82991454155E-01 -8.74814589896E-02 -1.87417820567E-03 -2.95106547539E-03 -1.92213653487E-03 -2.74223063273E-03 +7.64592886223E-01 +1.10425431138E-01
2.79500000000E+09 +6.74692502812E-01 -1.09896395744E-01 -2.06578865231E-03 -2.93640466487E-03 -1.96821229051E-03 -2.73884191179E-03 +7.61187404617E-01 +9.22896188205E-02
2.80000000000E+09 +6.65589933412E-01 -1.31481982746E-01 -2.54277903907E-03 -2.89435042055E-03 -2.30175200679E-03 -2.82916312049E-03 +7.56449310023E-01 +7.34968870882E-02
2.80500000000E+09 +6.55809718535E-01 -1.51680881309E-01 -2.61374069594E-03 -2.78187791528E-03 -2.46001165248E-03 -2.89067984463E-03 +7.50679075321E-01 +5.39695487197E-02
2.81000000000E+09 +6.45125147181E-01 -1.69843319621E-01 -3.23855844525E-03 -3.04659482109E-03 -3.29502355596E-03 -3.18637571784E-03 +7.43891079005E-01 +3.48085477890E-02
2.81500000000E+09 +6.33761972389E-01 -1.85836504978E-01 -3.92554763331E-03 -2.62065371851E-03 -4.14183728044E-03 -2.62827311401E-03 +7.37613762970E-01 +1.50798148905E-02
2.82000000000E+09 +6.21743933807E-01 -2.00986326907E-01 -4.35144175172E-03 -2.49188175734E-03 -4.48438613167E-03 -2.18894380063E-03 +7.30305103654E-01 -5.51410756941E-03
2.82500000000E+09 +6.07680758538E-01 -2.15584955194E-01 -5.03252137592E-03 -2.01794351939E-03 -4.90134952985E-03 -1.70924463223E-03 +7.21526771187E-01 -2.59468072565E-02
2.83000000000E+09 +5.92204217567E-01 -2.30212715736E-01 -5.43950383958E-03 -1.38592328498E-03 -5.18746515805E-03 -1.33558327651E-03 +7.11550218468E-01 -4.53285179520E-02
2.83500000000E+09 +5.75124198026E-01 -2.46674628380E-01 -5.99619631761E-03 -6.98344220600E-04 -5.68982889278E-03 -8.95066670216E-04 +7.01626412832E-01 -6.51106980744E-02
2.84000000000E+09 +5.55133313626E-01 -2.65205580179E-01 -6.13729828018E-03 +1.25170219198E-04 -6.10458270909E-03 -6.86578815564E-05 +6.90375669006E-01 -8.49906680081E-02
2.84500000000E+09 +5.32742195919E-01 -2.84876262324E-01 -6.13407457508E-03 +8.10124979017E-04 -6.18588861880E-03 +7.32125300293E-04 +6.78255045753E-01 -1.05571219865E-01
2.85000000000E+09 +5.08669403737E-01 -3.05289011060E-01 -6.21569088249E-03 +1.25942353431E-03 -6.25475280956E-03 +1.23917961391E-03 +6.64656842681E-01 -1.26090026515E-01
2.85500000000E+09 +4.83195035610E-01 -3.25372392648E-01 -6.85903615082E-03 +2.06585082167E-03 -6.81047062079E-03 +2.02820331206E-03 +6.49576533150E-01 -1.46652447879E-01
2.86000000000E+09 +4.58150919206E-01 -3.43681270924E-01 -6.56266815680E-03 +3.31495614076E-03 -6.51578220288E-03 +3.23280661413E-03 +6.33646568412E-01 -1.65877707971E-01
2.86500000000E+09 +4.34396276765E-01 -3.60198672348E-01 -6.50797266853E-03 +4.02911857687E-03 -6.52452286901E-03 +3.89650976787E-03 +6.17423389039E-01 -1.86249551718E-01
2.87000000000E+09 +4.11311985532E-01 -3.75181604833E-01 -6.30686652990E-03 +5.39302237171E-03 -6.28948635386E-03 +5.37224909103E-03 +5.99446123942E-01 -2.06597947512E-01
2.87500000000E+09 +3.88722324841E-01 -3.87996111097E-01 -5.55608701912E-03 +6.29587151332E-03 -5.47060732356E-03 +6.36693381372E-03 +5.79153172845E-01 -2.26235009653E-01
2.88000000000E+09 +3.65637776010E-01 -3.99305056615E-01 -4.97230560442E-03 +6.90339005036E-03 -4.61746985759E-03 +6.85697466857E-03 +5.58560203481E-01 -2.44809152986E-01
2.88500000000E+09 +3.40914161694E-01 -4.08705508252E-01 -4.54464615388E-03 +8.04433977296E-03 -4.12647315170E-03 +7.68526104087E-03 +5.36279348698E-01 -2.63415340153E-01
2.89000000000E+09 +3.14922404211E-01 -4.17063168861E-01 -3.35329961369E-03 +9.10596227828E-03 -3.39393526336E-03 +8.52597191490E-03 +5.12217909928E-01 -2.82117131685E-01
2.89500000000E+09 +2.85668649594E-01 -4.24740963042E-01 -1.94064332909E-03 +9.58516982400E-03 -2.37964231396E-03 +9.15461325086E-03 +4.85112920707E-01 -3.00245189210E-01
2.90000000000E+09 +2.54049549202E-01 -4.31405145300E-01 -1.05734058034E-03 +9.82328361277E-03 -1.43708223687E-03 +9.74578416657E-03 +4.57849387152E-01 -3.16092110580E-01
2.90500000000E+09 +2.19584929425E-01 -4.37296978049E-01 +1.67033569158E-05 +1.05764285132E-02 -7.23893383288E-05 +1.07451701817E-02 +4.29336992761E-01 -3.32190913058E-01
2.91000000000E+09 +1.83536309493E-01 -4.40723245834E-01 +1.38550178238E-03 +1.09868801563E-02 +1.66282787463E-03 +1.08642144797E-02 +3.99666633322E-01 -3.46899055297E-01
2.91500000000E+09 +1.48841910983E-01 -4.42672630301E-01 +3.34079157262E-03 +1.17899104125E-02 +3.45084585480E-03 +1.11697976634E-02 +3.68036820315E-01 -3.59604594290E-01
2.92000000000E+09 +1.14090132261E-01 -4.43891721618E-01 +5.83710682681E-03 +1.09489589078E-02 +5.36049965168E-03 +1.02972946082E-02 +3.35315674026E-01 -3.71120503082E-01
2.92500000000E+09 +7.98335109621E-02 -4.43295256278E-01 +7.32791517203E-03 +9.90602910430E-03 +6.39956923380E-03 +9.74293852719E-03 +2.99979067669E-01 -3.79675004764E-01
2.93000000000E+09 +4.62249535692E-02 -4.39706576052E-01 +8.42540276663E-03 +8.63892699581E-03 +7.78287250429E-03 +8.96896869555E-03 +2.64033165831E-01 -3.87285520879E-01
2.93500000000E+09 +1.35129548613E-02 -4.33746624984E-01 +9.48676476689E-03 +8.06977964296E-03 +9.17414330330E-03 +8.50728852886E-03 +2.25915127920E-01 -3.92869510749E-01
2.94000000000E+09 -1.94081978447E-02 -4.24816334496E-01 +1.07651737110E-02 +7.12298615953E-03 +1.05825621617E-02 +7.43333357114E-03 +1.86772108694E-01 -3.97239320209E-01
2.94500000000E+09 -5.18378085814E-02 -4.12345469683E-01 +1.27608852629E-02 +5.78762285428E-03 +1.25253669553E-02 +6.10686326955E-03 +1.46233705233E-01 -3.97381061957E-01
2.95000000000E+09 -8.45838880589E-02 -3.98238648482E-01 +1.36741345702E-02 +3.28459852667E-03 +1.35790661493E-02 +3.88211262377E-03 +1.07099657882E-01 -3.95697673724E-01
2.95500000000E+09 -1.18711063435E-01 -3.80631068883E-01 +1.39212107832E-02 +9.70109533491E-04 +1.41847457656E-02 +1.61633756113E-03 +6.72699706774E-02 -3.91629783174E-01
2.96000000000E+09 -1.51849240464E-01 -3.59536182186E-01 +1.36594396887E-02 -8.36127618781E-04 +1.43207957706E-02 -6.50753541776E-04 +2.54733570969E-02 -3.84992531699E-01
2.96500000000E+09 -1.83466697358E-01 -3.36566106157E-01 +1.35635865171E-02 -2.53665754954E-03 +1.40312633922E-02 -2.91727768564E-03 -1.57714254875E-02 -3.73065784275E-01
2.97000000000E+09 -2.13890170443E-01 -3.12312538139E-01 +1.32449546070E-02 -4.10392251966E-03 +1.30712739676E-02 -4.53696572030E-03 -5.70921834977E-02 -3.59566622815E-01
2.97500000000E+09 -2.42241984540E-01 -2.86155657183E-01 +1.36596798054E-02 -5.98657004407E-03 +1.31303962475E-02 -5.95899164675E-03 -9.73169005309E-02 -3.42344752220E-01
2.98000000000E+09 -2.68684801871E-01 -2.59177305635E-01 +1.23394198901E-02 -8.86170568209E-03 +1.23348221081E-02 -8.26649735096E-03 -1.36329340982E-01 -3.23107314577E-01
2.98500000000E+09 -2.93114561732E-01 -2.29686094857E-01 +1.09321414294E-02 -1.06815575476E-02 +1.15240703523E-02 -1.02909248981E-02 -1.73212785505E-01 -3.00622705606E-01
2.99000000000E+09 -3.14095723240E-01 -1.99192189176E-01 +8.75188848754E-03 -1.19924964052E-02 +9.23671878851E-03 -1.24549120062E-02 -2.10085553376E-01 -2.75258564231E-01
2.99500000000E+09 -3.33252054087E-01 -1.68268173469E-01 +7.20704288089E-03 -1.29243026492E-02 +7.06997412443E-03 -1.36795735103E-02 -2.43721643372E-01 -2.45770664634E-01
3.00000000000E+09 -3.52357322221E-01 -1.36439088494E-01 +5.24169132444E-03 -1.36748304700E-02 +4.50480207145E-03 -1.39648307471E-02 -2.75575816945E-01 -2.13883766257E-01
3.00500000000E+09 -3.68776193838E-01 -1.02015633992E-01 +3.58705674830E-03 -1.47915106617E-02 +2.94432918688E-03 -1.43141545093E-02 -3.04626368544E-01 -1.81218766832E-01
3.01000000000E+09 -3.82658625208E-01 -6.85232031120E-02 +5.38294367225E-04 -1.54055157250E-02 +5.47851447759E-04 -1.46783322427E-02 -3.33119669693E-01 -1.45644092988E-01
3.01500000000E+09 -3.95786704085E-01 -3.47429150104E-02 -1.85026718496E-03 -1.43596257925E-02 -1.45347982193E-03 -1.40320983352E-02 -3.57116606987E-01 -1.09000883147E-01
3.02000000000E+09 -4.05336426583E-01 -4.79716234704E-04 -3.29188265214E-03 -1.34034012258E-02 -2.94658123638E-03 -1.34802785739E-02 -3.78090652329E-01 -7.02091155401E-02
3.02500000000E+09 -4.11258888878E-01 +3.20607273795E-02 -4.88369977041E-03 -1.32523037691E-02 -4.77241657022E-03 -1.33872012623E-02 -3.95087356938E-01 -3.17032611081E-02
3.03000000000E+09 -4.14546635972E-01 +6.36150369765E-02 -6.77390378645E-03 -1.20365419597E-02 -6.60033629634E-03 -1.20100981847E-02 -4.09750089672E-01 +8.66448154025E-03
3.03500000000E+09 -4.14887178104E-01 +9.44406599442E-02 -8.45254566066E-03 -1.15673553206E-02 -8.07070020157E-03 -1.16476565098E-02 -4.21071713210E-01 +4.79992401187E-02
3.04000000000E+09 -4.12301669744E-01 +1.25530144397E-01 -1.04380701565E-02 -9.01640029386E-03 -1.03116783499E-02 -9.60353890477E-03 -4.30034522556E-01 +8.92636615954E-02
3.04500000000E+09 -4.06893567209E-01 +1.56932949344E-01 -1.04619466874E-02 -7.27679522197E-03 -1.09076295002E-02 -7.83168036323E-03 -4.35513497060E-01 +1.29052990928E-01
3.05000000000E+09 -3.99342764870E-01 +1.90079826429E-01 -1.09743413583E-02 -5.86440979596E-03 -1.17808011034E-02 -5.83492852132E-03 -4.38758678138E-01 +1.68686221029E-01
3.05500000000E+09 -3.88260999985E-01 +2.24233480264E-01 -1.13505571943E-02 -4.61856054214E-03 -1.18042122869E-02 -3.96672638161E-03 -4.39512808439E-01 +2.07146683199E-01
3.06000000000E+09 -3.75446954113E-01 +2.57458573605E-01 -1.19487041734E-02 -3.34818846484E-03 -1.16782740180E-02 -2.58839909205E-03 -4.37792657934E-01 +2.44688313428E-01
3.06500000000E+09 -3.61253269503E-01 +2.90169997254E-01 -1.24943213678E-02 -1.19525097791E-03 -1.17500737006E-02 -1.23005140921E-03 -4.34889955047E-01 +2.81982468637E-01
3.07000000000E+09 -3.46982670603E-01 +3.20057494638E-01 -1.18122251699E-02 +8.05462984422E-04 -1.15351622403E-02 +1.34793576648E-04 -4.27795511696E-01 +3.18715115156E-01
