# Hz S RI R 50
! CMT, C1220, 16058040, 17.2.0/1
! Date: 15/08/2018 10:49:19
! Data: Format (Calibration Info)
! Freq                      S11: Re/Im (F2)                       S21: Re/Im (F2)                       S12: Re/Im (F2)                       S22: Re/Im (F2)            
2.50000000000E+09 +5.81163977328E-01 +6.48373423805E-01 -1.03196249043E-03 +6.37590233916E-04 -1.07948593700E-03 +7.04022174910E-04 +5.63169560071E-01 +7.25856587514E-01
2.50500000000E+09 +5.88755519894E-01 +6.39197427486E-01 -9.28800518841E-04 +7.46979024932E-04 -9.16629183095E-04 +8.60809659132E-04 +5.68936865324E-01 +7.20210796393E-01
2.51000000000E+09 +5.97175016081E-01 +6.29668198228E-01 -8.20654184581E-04 +8.87814193720E-04 -7.68928258452E-04 +8.53945689171E-04 +5.74703426562E-01 +7.14842405071E-01
2.51500000000E+09 +6.05522070938E-01 +6.20683500296E-01 -7.64807390456E-04 +9.65200103457E-04 -7.53567539973E-04 +9.37353055317E-04 +5.79975268357E-01 +7.09098793282E-01
2.52000000000E+09 +6.13179930717E-01 +6.12238810722E-01 -5.99154952411E-04 +9.75455132134E-04 -6.57449227701E-04 +9.88309989757E-04 +5.84981389414E-01 +7.02903738281E-01
2.52500000000E+09 +6.19283868878E-01 +6.05034268729E-01 -5.48123445831E-04 +1.05474249004E-03 -5.54558999716E-04 +1.06735527236E-03 +5.90476297558E-01 +6.96498739724E-01
2.53000000000E+09 +6.24175510333E-01 +5.98826503776E-01 -4.52601788556E-04 +1.08551987919E-03 -4.67935912526E-04 +1.12519600458E-03 +5.96483333384E-01 +6.89686032609E-01
2.53500000000E+09 +6.27902556298E-01 +5.93169217243E-01 -4.26767759445E-04 +1.13333515785E-03 -4.01173468407E-04 +1.21695543406E-03 +6.02378625509E-01 +6.83079027620E-01
2.54000000000E+09 +6.30785051440E-01 +5.87533077264E-01 -2.57588270140E-04 +1.27752137408E-03 -2.56362738352E-04 +1.20655268510E-03 +6.08491942081E-01 +6.76667280960E-01
2.54500000000E+09 +6.33769003183E-01 +5.81458118190E-01 -1.02205716791E-04 +1.34547264387E-03 -1.58967926621E-04 +1.33751835935E-03 +6.14180219118E-01 +6.70425875475E-01
2.55000000000E+09 +6.37408425446E-01 +5.74371652819E-01 +1.69562638410E-04 +1.33802440214E-03 +4.10001382218E-05 +1.48896838642E-03 +6.19420934706E-01 +6.64442135382E-01
2.55500000000E+09 +6.42398477697E-01 +5.65969223148E-01 +3.78930142724E-04 +1.19269676869E-03 +3.81956793046E-04 +1.41260198709E-03 +6.24469599272E-01 +6.58086632247E-01
2.56000000000E+09 +6.48996347183E-01 +5.56817632579E-01 +3.00883985870E-04 +1.03030086889E-03 +4.88409052940E-04 +1.21608453960E-03 +6.29460597129E-01 +6.51027810201E-01
2.56500000000E+09 +6.56815360428E-01 +5.46553652735E-01 +3.77342147460E-04 +1.05330117067E-03 +6.43149634047E-04 +1.15630002239E-03 +6.34770428738E-01 +6.43847788812E-01
2.57000000000E+09 +6.64987501427E-01 +5.36226217329E-01 +4.78401703405E-04 +1.08430503531E-03 +6.80956030792E-04 +9.56382811915E-04 +6.40377491848E-01 +6.36220564892E-01
2.57500000000E+09 +6.73007919327E-01 +5.25928281414E-01 +6.48171270611E-04 +1.14215402724E-03 +7.20944024841E-04 +9.00489884541E-04 +6.46267142459E-01 +6.28705600989E-01
2.58000000000E+09 +6.79700878145E-01 +5.16846571229E-01 +8.53254763699E-04 +1.00153541259E-03 +7.44673877827E-04 +7.74242370100E-04 +6.51789533534E-01 +6.21316532193E-01
2.58500000000E+09 +6.85361662269E-01 +5.08392775993E-01 +9.11263687311E-04 +7.52331546302E-04 +7.74546792998E-04 +6.91696689829E-04 +6.57049776906E-01 +6.13505361987E-01
2.59000000000E+09 +6.89157793930E-01 +5.00951551919E-01 +8.47047779763E-04 +6.89570769308E-04 +7.95158246326E-04 +6.49557933870E-04 +6.61777201471E-01 +6.05826117706E-01
2.59500000000E+09 +6.91912752565E-01 +4.93684595300E-01 +9.41268263732E-04 +6.74129830863E-04 +8.66824169178E-04 +6.76906560136E-04 +6.66722600049E-01 +5.97866587886E-01
2.60000000000E+09 +6.93592937118E-01 +4.85565845526E-01 +1.01776824574E-03 +5.50632317486E-04 +1.05695787893E-03 +5.87054300536E-04 +6.71828042072E-01 +5.89525061894E-01
2.60500000000E+09 +6.95616815064E-01 +4.75983370157E-01 +1.07121576705E-03 +3.02157201160E-04 +1.06398664366E-03 +3.44658498728E-04 +6.77511654350E-01 +5.80922417054E-01
2.61000000000E+09 +6.98084104685E-01 +4.64331452935E-01 +9.30032644275E-04 +2.19603479025E-04 +9.51264801714E-04 +2.61057964957E-04 +6.82860383694E-01 +5.71891814932E-01
2.61500000000E+09 +7.01724615790E-01 +4.50680840649E-01 +9.13186488310E-04 +1.52998897531E-04 +9.16417175748E-04 +2.05869778070E-04 +6.87763903096E-01 +5.63017165462E-01
2.62000000000E+09 +7.06165497727E-01 +4.34792720619E-01 +8.35706735714E-04 +1.29895045440E-04 +9.05770137520E-04 +1.16034556958E-04 +6.92419670920E-01 +5.54227860496E-01
2.62500000000E+09 +7.11322740699E-01 +4.17850956075E-01 +8.60525475077E-04 +2.50061582238E-04 +9.17130128970E-04 +1.64245333729E-04 +6.97283317529E-01 +5.45466484495E-01
2.63000000000E+09 +7.16867308730E-01 +4.00850422162E-01 +1.01219060782E-03 +1.85864944199E-04 +1.00124497580E-03 +9.25154181698E-05 +7.02134543849E-01 +5.36460681098E-01
2.63500000000E+09 +7.21751416584E-01 +3.84821284144E-01 +1.16856519439E-03 -8.94139688936E-05 +1.04929087204E-03 -1.96445055552E-04 +7.06642877376E-01 +5.27154441987E-01
2.64000000000E+09 +7.26120889171E-01 +3.70648882067E-01 +9.19764107222E-04 -2.06319479130E-04 +7.90522868033E-04 -1.75568953641E-04 +7.11160818519E-01 +5.17605043542E-01
2.64500000000E+09 +7.29288695521E-01 +3.58566342359E-01 +8.71364950233E-04 -2.91197585796E-04 +7.52792824252E-04 -2.05409739769E-04 +7.15684461170E-01 +5.08002566016E-01
2.65000000000E+09 +7.31347472759E-01 +3.48746072191E-01 +7.86601254432E-04 -2.61638361349E-04 +7.81471855442E-04 -1.93489475513E-04 +7.20172248326E-01 +4.97976114156E-01
2.65500000000E+09 +7.32811666872E-01 +3.39568305397E-01 +7.36229469912E-04 -2.63508609016E-04 +7.75281456490E-04 -2.23799894765E-04 +7.24337944081E-01 +4.87295296527E-01
2.66000000000E+09 +7.33863876645E-01 +3.30595181424E-01 +7.67817736331E-04 -2.04556785561E-04 +8.17629935913E-04 -1.95459120329E-04 +7.28359490721E-01 +4.76095486808E-01
2.66500000000E+09 +7.34802273794E-01 +3.20857138406E-01 +6.98301454637E-04 -2.24003902067E-04 +7.20323894131E-04 -2.60723398895E-04 +7.32449143114E-01 +4.65190792087E-01
2.67000000000E+09 +7.35736589411E-01 +3.08826529015E-01 +7.88381779714E-04 -1.71088632227E-04 +7.24099487898E-04 -2.20420616586E-04 +7.36667480181E-01 +4.54498097850E-01
2.67500000000E+09 +7.36758050354E-01 +2.94848158575E-01 +9.14994481611E-04 -2.45104277502E-04 +8.56306732818E-04 -2.60418665585E-04 +7.41212996460E-01 +4.43601140342E-01
2.68000000000E+09 +7.37750610014E-01 +2.79040797180E-01 +8.79319449405E-04 -4.69273448917E-04 +9.25010028507E-04 -4.02908880974E-04 +7.45088060579E-01 +4.32453248750E-01
2.68500000000E+09 +7.39091056234E-01 +2.62117874387E-01 +7.28632192044E-04 -5.23594242239E-04 +7.03390310721E-04 -5.04705603588E-04 +7.48298574656E-01 +4.21006736686E-01
2.69000000000E+09 +7.40207844230E-01 +2.44757347331E-01 +5.92945863335E-04 -4.00408894159E-04 +6.30857772824E-04 -3.89829689763E-04 +7.50972495079E-01 +4.09197675499E-01
2.69500000000E+09 +7.41103338233E-01 +2.28337604557E-01 +8.38968535087E-04 -1.99889861774E-04 +7.77598454697E-04 -1.98989613739E-04 +7.53975449365E-01 +3.96648397245E-01
2.70000000000E+09 +7.41683092533E-01 +2.13085711926E-01 +1.07615668410E-03 -4.27712761072E-04 +1.03408640041E-03 -3.71196327495E-04 +7.57095411701E-01 +3.83647345889E-01
2.70500000000E+09 +7.42066834927E-01 +1.99329345773E-01 +1.22116443750E-03 -7.08265336170E-04 +1.18923821882E-03 -6.28178390215E-04 +7.60407021673E-01 +3.70223216324E-01
2.71000000000E+09 +7.42284535307E-01 +1.86509170007E-01 +1.01489632721E-03 -9.67737784066E-04 +1.08134270043E-03 -9.34679541079E-04 +7.63078876492E-01 +3.56677975505E-01
2.71500000000E+09 +7.42014260735E-01 +1.73757498756E-01 +8.35781464009E-04 -1.07623261836E-03 +9.44160586257E-04 -1.09329637090E-03 +7.65155116001E-01 +3.44494460853E-01
2.72000000000E+09 +7.41379150825E-01 +1.61253960524E-01 +7.81604681019E-04 -1.05208548300E-03 +7.66145879993E-04 -1.14720123239E-03 +7.67232025264E-01 +3.31957645419E-01
2.72500000000E+09 +7.40991774136E-01 +1.47387642282E-01 +7.30075267708E-04 -1.06263190878E-03 +5.70016598969E-04 -1.09119227756E-03 +7.68510506705E-01 +3.18589778015E-01
2.73000000000E+09 +7.39871655264E-01 +1.31767797318E-01 +8.64871131588E-04 -1.10325177453E-03 +6.99548447702E-04 -1.06718784091E-03 +7.69837331003E-01 +3.04389474066E-01
2.73500000000E+09 +7.38016851656E-01 +1.14355120302E-01 +7.63219337497E-04 -1.40321088878E-03 +6.88675956499E-04 -1.24253235674E-03 +7.70580987569E-01 +2.89766927528E-01
2.74000000000E+09 +7.35310414428E-01 +9.59889072759E-02 +5.91784349580E-04 -1.47433297940E-03 +6.08240820223E-04 -1.29923694780E-03 +7.71902286749E-01 +2.75033382468E-01
2.74500000000E+09 +7.31303489066E-01 +7.71022339598E-02 +3.90375818588E-04 -1.45872345502E-03 +4.94664835694E-04 -1.37878991763E-03 +7.73263071927E-01 +2.60325634459E-01
2.75000000000E+09 +7.26493583446E-01 +5.87888426738E-02 +6.24692700411E-04 -1.46800753647E-03 +8.33251305813E-04 -1.40942442409E-03 +7.74439717254E-01 +2.45303346062E-01
2.75500000000E+09 +7.21441058359E-01 +4.13150855037E-02 +5.27739956115E-04 -2.10979827479E-03 +6.33141982467E-04 -2.24783300954E-03 +7.74714312173E-01 +2.30605490296E-01
2.76000000000E+09 +7.16350290438E-01 +2.44452099379E-02 +4.83792165250E-05 -2.20848818172E-03 +1.18268195546E-04 -2.33776021246E-03 +7.74483845521E-01 +2.15265621082E-01
2.76500000000E+09 +7.10653712531E-01 +8.01277165298E-03 -3.78129795594E-04 -2.15555758780E-03 -4.76305699389E-04 -2.31915715826E-03 +7.73677060621E-01 +1.99280049514E-01
2.77000000000E+09 +7.05163065563E-01 -8.50950618662E-03 -7.35152362526E-04 -1.86103453194E-03 -7.18067961962E-04 -1.86772282139E-03 +7.73448115488E-01 +1.82237873943E-01
2.77500000000E+09 +6.99543727109E-01 -2.63032018379E-02 -4.49098041708E-04 -1.47585439150E-03 -4.96026974595E-04 -1.49849709327E-03 +7.72270423158E-01 +1.64025921054E-01
2.78000000000E+09 +6.93372785225E-01 -4.51495385555E-02 -1.43062120603E-04 -1.90390009882E-03 -2.93305151506E-04 -1.94000722482E-03 +7.70616519659E-01 +1.46117923884E-01
2.78500000000E+09 +6.86811833853E-01 -6.55979738088E-02 -5.30169822519E-04 -2.29645760364E-03 -6.56049849191E-04 -2.26756482643E-03 +7.68604550135E-01 +1.28434390543E-01
2.79000000000E+09 +6.79321743384E-01 -8.73448017254E-02 -9.66978247225E-04 -2.26969559873E-03 -1.04256346013E-03 -2.08176126338E-03 +7.65800274635E-01 +1.11101260963E-01
2.79500000000E+09 +6.71294963183E-01 -1.09031969077E-01 -1.11747947903E-03 -2.32703737262E-03 -1.01575539559E-03 -2.19120186333E-03 +7.62423406234E-01 +9.29951080139E-02
2.80000000000E+09 +6.62449693590E-01 -1.30550228512E-01 -1.52391038660E-03 -2.33898176241E-03 -1.41770555991E-03 -2.26455074083E-03 +7.57895621609E-01 +7.41665545427E-02
2.80500000000E+09 +6.52738204548E-01 -1.50762847988E-01 -1.58795671945E-03 -2.31475192143E-03 -1.54482629171E-03 -2.42222488979E-03 +7.52454748141E-01 +5.46113653142E-02
2.81000000000E+09 +6.42104890237E-01 -1.68786089531E-01 -2.11631657515E-03 -2.55836596236E-03 -2.15284729618E-03 -2.65452414643E-03 +7.45853973675E-01 +3.51333480649E-02
2.81500000000E+09 +6.30898280507E-01 -1.84584763135E-01 -2.66310401870E-03 -2.19013437117E-03 -2.78331263730E-03 -2.09769192243E-03 +7.39620501892E-01 +1.53209626003E-02
2.82000000000E+09 +6.19022817877E-01 -1.99547564944E-01 -2.79235555267E-03 -2.11722512224E-03 -2.85423065307E-03 -1.99484965567E-03 +7.32516781399E-01 -5.42226222942E-03
2.82500000000E+09 +6.05016055690E-01 -2.13778540352E-01 -3.40958845344E-03 -1.99675191018E-03 -3.31063144269E-03 -1.82705273494E-03 +7.24081713777E-01 -2.60061923534E-02
2.83000000000E+09 +5.89747017514E-01 -2.28091498902E-01 -3.89689657151E-03 -1.71283687781E-03 -3.65934688970E-03 -1.58042068708E-03 +7.14370247453E-01 -4.60284271251E-02
2.83500000000E+09 +5.73142157913E-01 -2.44450401177E-01 -4.48580955122E-03 -1.22180321779E-03 -4.26206246136E-03 -1.27046837756E-03 +7.04095358161E-01 -6.61440278831E-02
2.84000000000E+09 +5.53421222472E-01 -2.62684597147E-01 -4.73686958240E-03 -4.23856030642E-04 -4.68642016181E-03 -5.61461991950E-04 +6.92803602895E-01 -8.62675960143E-02
2.84500000000E+09 +5.31504413681E-01 -2.82362511734E-01 -4.69773232120E-03 +2.66046608423E-04 -4.76779735590E-03 +1.64792828886E-04 +6.80741606640E-01 -1.07101507155E-01
2.85000000000E+09 +5.07472260388E-01 -3.02645342147E-01 -4.68146565839E-03 +4.17430572669E-04 -4.65428724804E-03 +4.35408565424E-04 +6.67021364790E-01 -1.28127860811E-01
2.85500000000E+09 +4.82478645454E-01 -3.22339435248E-01 -5.26520995368E-03 +9.29843064857E-04 -5.17855226912E-03 +9.40998184207E-04 +6.51579806643E-01 -1.49014908299E-01
2.86000000000E+09 +4.58078245468E-01 -3.40869692785E-01 -5.20486927922E-03 +1.76888251706E-03 -5.18784528692E-03 +1.72148183650E-03 +6.35385770379E-01 -1.68390125501E-01
2.86500000000E+09 +4.34505826412E-01 -3.57529269895E-01 -5.40254743276E-03 +2.50033612839E-03 -5.39145294900E-03 +2.45214653937E-03 +6.19226505880E-01 -1.88896858877E-01
2.87000000000E+09 +4.11676863218E-01 -3.72480260349E-01 -5.21437850817E-03 +3.56545467741E-03 -5.26089658374E-03 +3.59167064096E-03 +6.00721377410E-01 -2.09604633100E-01
2.87500000000E+09 +3.89432616979E-01 -3.84989154210E-01 -4.90155457938E-03 +4.30245612548E-03 -4.76206675841E-03 +4.38417803931E-03 +5.80109290821E-01 -2.29553144472E-01
2.88000000000E+09 +3.67477912999E-01 -3.96321945911E-01 -4.42437995539E-03 +4.94455568440E-03 -4.15525830087E-03 +4.95976401345E-03 +5.59052152513E-01 -2.48076791047E-01
2.88500000000E+09 +3.43543195468E-01 -4.06393230529E-01 -4.13844101186E-03 +5.81514559801E-03 -3.78633768221E-03 +5.58840455426E-03 +5.36412143565E-01 -2.66681701566E-01
2.89000000000E+09 +3.17518972526E-01 -4.15452686557E-01 -3.29182300267E-03 +6.87386860173E-03 -3.19808326900E-03 +6.41880171634E-03 +5.12072288752E-01 -2.85297948194E-01
2.89500000000E+09 +2.88258587067E-01 -4.23018680882E-01 -2.18192039584E-03 +7.41366813319E-03 -2.42304585393E-03 +7.05778842745E-03 +4.84958393084E-01 -3.03442816047E-01
2.90000000000E+09 +2.57291571401E-01 -4.29541204414E-01 -1.32981728048E-03 +7.52034515195E-03 -1.65077167549E-03 +7.48933356343E-03 +4.57443879653E-01 -3.19560857073E-01
2.90500000000E+09 +2.23465604603E-01 -4.35917936878E-01 -7.44735556127E-04 +7.94312060548E-03 -7.68795145547E-04 +8.07784345087E-03 +4.28369248277E-01 -3.35827689236E-01
2.91000000000E+09 +1.88364272587E-01 -4.39973776788E-01 +1.23226356727E-04 +8.41814639795E-03 +3.09499512210E-04 +8.32895247287E-03 +3.98105163456E-01 -3.50203375504E-01
2.91500000000E+09 +1.53766322581E-01 -4.43311703521E-01 +1.44478258602E-03 +9.37028603167E-03 +1.58824116090E-03 +8.93455962542E-03 +3.66388075773E-01 -3.62957008713E-01
2.92000000000E+09 +1.18597568064E-01 -4.44654056127E-01 +3.47707871624E-03 +9.27244809518E-03 +3.17839939181E-03 +8.78775199479E-03 +3.33033204212E-01 -3.74644549750E-01
2.92500000000E+09 +8.47465616904E-02 -4.44368503558E-01 +5.18241297417E-03 +8.82575451395E-03 +4.49528556086E-03 +8.55231659827E-03 +2.97002380513E-01 -3.82624003169E-01
2.93000000000E+09 +5.14018833118E-02 -4.41599292041E-01 +6.43394267398E-03 +7.49300134831E-03 +5.87783743524E-03 +7.72916667103E-03 +2.60708519398E-01 -3.89924089478E-01
2.93500000000E+09 +1.88793217749E-02 -4.36511050572E-01 +7.26052237018E-03 +6.93665658953E-03 +6.99900769108E-03 +7.28452213971E-03 +2.22024606309E-01 -3.94941318476E-01
2.94000000000E+09 -1.40716836886E-02 -4.28305474520E-01 +8.38911568194E-03 +6.02577032031E-03 +8.21803582028E-03 +6.29126560680E-03 +1.82933291276E-01 -3.98486039968E-01
2.94500000000E+09 -4.66066444270E-02 -4.16939040712E-01 +9.77052948282E-03 +4.98927505021E-03 +9.54482039662E-03 +5.17517924170E-03 +1.42397444482E-01 -3.98694822135E-01
2.95000000000E+09 -7.98892316589E-02 -4.03719914802E-01 +1.05022365863E-02 +3.23901738948E-03 +1.03880902801E-02 +3.63068859077E-03 +1.02631562766E-01 -3.96543521050E-01
2.95500000000E+09 -1.14870105887E-01 -3.86407779389E-01 +1.06790667135E-02 +1.47047947614E-03 +1.09054966007E-02 +2.01705725304E-03 +6.25467593528E-02 -3.91406740828E-01
2.96000000000E+09 -1.48234481008E-01 -3.65783820020E-01 +1.06529751291E-02 +3.18291770637E-05 +1.11582503719E-02 +2.32630743835E-04 +2.12466166763E-02 -3.83853930343E-01
2.96500000000E+09 -1.80783810171E-01 -3.43451245198E-01 +1.07094503423E-02 -1.06215441113E-03 +1.10540416378E-02 -1.27587680144E-03 -1.99951885438E-02 -3.71782199305E-01
2.97000000000E+09 -2.11462894250E-01 -3.19205703664E-01 +1.09771195687E-02 -2.40645997960E-03 +1.08246518680E-02 -2.85181785300E-03 -6.09821930822E-02 -3.57465606511E-01
2.97500000000E+09 -2.40346671687E-01 -2.93904263778E-01 +1.09781280756E-02 -4.53617404897E-03 +1.06214149176E-02 -4.44435394383E-03 -1.01025063760E-01 -3.39950501176E-01
2.98000000000E+09 -2.68083321965E-01 -2.67147785661E-01 +9.68106096199E-03 -6.45774750784E-03 +9.62594547475E-03 -5.96599212857E-03 -1.39738593551E-01 -3.20114418066E-01
2.98500000000E+09 -2.93258672501E-01 -2.37972858638E-01 +8.74921456066E-03 -7.39673067126E-03 +9.12503415915E-03 -7.06696566281E-03 -1.76242420865E-01 -2.96907851297E-01
2.99000000000E+09 -3.15234288650E-01 -2.07364124006E-01 +7.58951304867E-03 -8.53800767013E-03 +8.03979537465E-03 -8.82296863978E-03 -2.12252496526E-01 -2.71234083352E-01
2.99500000000E+09 -3.35657762474E-01 -1.76435172286E-01 +6.50758151514E-03 -9.42339308537E-03 +6.48367767789E-03 -1.00035097341E-02 -2.45342875764E-01 -2.41771518112E-01
3.00000000000E+09 -3.55415505578E-01 -1.43551382964E-01 +5.28441353907E-03 -1.04304152275E-02 +4.67545218606E-03 -1.06335748270E-02 -2.76682718764E-01 -2.09712813103E-01
3.00500000000E+09 -3.72240537379E-01 -1.08793237136E-01 +3.82446810385E-03 -1.14903011603E-02 +3.22841471170E-03 -1.12381836172E-02 -3.05216893024E-01 -1.76839906978E-01
3.01000000000E+09 -3.86400232439E-01 -7.47718221073E-02 +1.46034348738E-03 -1.20775954439E-02 +1.41096355226E-03 -1.15354622841E-02 -3.33110750785E-01 -1.41233205957E-01
3.01500000000E+09 -3.99570647546E-01 -4.09683803362E-02 -5.57643457996E-04 -1.17470408946E-02 -2.21092510272E-04 -1.14636308880E-02 -3.56552042958E-01 -1.04558517013E-01
3.02000000000E+09 -4.09712352244E-01 -7.03320707608E-03 -2.06994223850E-03 -1.08438203151E-02 -1.85512310144E-03 -1.09011883613E-02 -3.77113801924E-01 -6.58236118758E-02
3.02500000000E+09 -4.17062455083E-01 +2.61048602267E-02 -3.10038653885E-03 -1.07100442700E-02 -2.91935588923E-03 -1.06938525641E-02 -3.93253994748E-01 -2.75073036549E-02
3.03000000000E+09 -4.20945383937E-01 +5.89203797717E-02 -4.63427869586E-03 -9.92258238232E-03 -4.52921326610E-03 -9.90204681977E-03 -4.07721700178E-01 +1.22228912371E-02
3.03500000000E+09 -4.21285769528E-01 +9.09534779711E-02 -5.84006462447E-03 -9.53461593555E-03 -5.58815651151E-03 -9.59014254998E-03 -4.18769986477E-01 +5.16270605877E-02
3.04000000000E+09 -4.18430907129E-01 +1.23001075766E-01 -7.64153838068E-03 -8.02220249877E-03 -7.45993223398E-03 -8.49522009189E-03 -4.26962671411E-01 +9.27951906925E-02
3.04500000000E+09 -4.12465295327E-01 +1.54852558767E-01 -7.93111456299E-03 -6.45247447786E-03 -8.22491902503E-03 -7.03782552234E-03 -4.31831539259E-01 +1.32100931996E-01
3.05000000000E+09 -4.04672043467E-01 +1.87844089506E-01 -8.43928240912E-03 -5.55529934373E-03 -9.12183975903E-03 -5.64428365072E-03 -4.34510058722E-01 +1.71186302344E-01
3.05500000000E+09 -3.94294251108E-01 +2.22380695582E-01 -9.02409378859E-03 -4.55029399177E-03 -9.45701235832E-03 -3.99826750803E-03 -4.34931427929E-01 +2.08987392349E-01
3.06000000000E+09 -3.81546395290E-01 +2.56624467372E-01 -9.67966363001E-03 -3.29589167837E-03 -9.42364399470E-03 -2.70445363501E-03 -4.32854433459E-01 +2.45307740969E-01
3.06500000000E+09 -3.67296940260E-01 +2.90158858018E-01 -1.00800158376E-02 -1.47419304263E-03 -9.50505037765E-03 -1.41548015999E-03 -4.30557884820E-01 +2.81809622413E-01
3.07000000000E+09 -3.52378258677E-01 +3.21225265018E-01 -9.66527427418E-03 +1.11377195789E-04 -9.38262622519E-03 -4.23436239730E-04 -4.23593505073E-01 +3.18295481681E-01
