# Hz S RI R 50
! CMT, C1220, 16058040, 17.2.0/1
! Date: 15/08/2018 10:47:26
! Data: Format (Calibration Info)
! Freq                      S11: Re/Im (F2)                       S21: Re/Im (F2)                       S12: Re/Im (F2)                       S22: Re/Im (F2)            
2.50000000000E+09 +5.81549153479E-01 +6.42754950585E-01 -1.48796086168E-03 +5.78576172342E-04 -1.60022002410E-03 +6.63118696926E-04 +5.63460417397E-01 +7.25170978432E-01
2.50500000000E+09 +5.88954104907E-01 +6.33610985122E-01 -1.37990423809E-03 +7.80698078779E-04 -1.44667090251E-03 +8.66765860571E-04 +5.69116662274E-01 +7.19630939133E-01
2.51000000000E+09 +5.97261337636E-01 +6.24115773779E-01 -1.28854732424E-03 +8.97695988456E-04 -1.25997622417E-03 +9.52207414370E-04 +5.74903550358E-01 +7.14229164433E-01
2.51500000000E+09 +6.05589467632E-01 +6.15127977681E-01 -1.25477572880E-03 +1.07628869897E-03 -1.21861192645E-03 +1.01817271299E-03 +5.80183888959E-01 +7.08510279799E-01
2.52000000000E+09 +6.13182625882E-01 +6.06797846105E-01 -1.08945501069E-03 +1.26129026158E-03 -1.11576462662E-03 +1.16486219346E-03 +5.85067909356E-01 +7.02320114584E-01
2.52500000000E+09 +6.19264160972E-01 +5.99606430667E-01 -9.43962698667E-04 +1.27775101816E-03 -1.02002059323E-03 +1.26574195755E-03 +5.90554806278E-01 +6.95872027002E-01
2.53000000000E+09 +6.24164598834E-01 +5.93330944433E-01 -9.07469925836E-04 +1.26204857708E-03 -9.18887694781E-04 +1.25305144306E-03 +5.96678990641E-01 +6.89225877329E-01
2.53500000000E+09 +6.27785766997E-01 +5.87841353925E-01 -9.05648447515E-04 +1.43417392982E-03 -9.35932848157E-04 +1.45159034763E-03 +6.02586569966E-01 +6.82521264668E-01
2.54000000000E+09 +6.30742571303E-01 +5.82075489381E-01 -7.43386683804E-04 +1.67014744782E-03 -7.42691702929E-04 +1.65021801373E-03 +6.08589654749E-01 +6.76190473748E-01
2.54500000000E+09 +6.33638738968E-01 +5.76019631869E-01 -4.98606949455E-04 +1.84663418670E-03 -6.41143472548E-04 +1.81939321307E-03 +6.14267547286E-01 +6.70143987580E-01
2.55000000000E+09 +6.37373135644E-01 +5.68978762333E-01 -1.17928904908E-04 +1.87994453813E-03 -3.15484666300E-04 +2.03317915398E-03 +6.19492213148E-01 +6.64173565368E-01
2.55500000000E+09 +6.42338378266E-01 +5.60541515095E-01 +1.01059396015E-04 +1.65904905588E-03 +1.59939918383E-06 +1.92510219666E-03 +6.24606800362E-01 +6.57933813697E-01
2.56000000000E+09 +6.48843269646E-01 +5.51431402408E-01 +6.81865787815E-05 +1.60001900469E-03 +2.04937227434E-04 +1.88598311435E-03 +6.29566587618E-01 +6.50912070935E-01
2.56500000000E+09 +6.56635151348E-01 +5.41264606957E-01 +1.56592560161E-04 +1.70004587639E-03 +4.64694908127E-04 +1.87934942181E-03 +6.34812330932E-01 +6.43590162314E-01
2.57000000000E+09 +6.64998541815E-01 +5.30810871150E-01 +3.49184486996E-04 +1.72719282848E-03 +6.98344173553E-04 +1.65262557185E-03 +6.40631001822E-01 +6.36114915788E-01
2.57500000000E+09 +6.73028213442E-01 +5.20662622162E-01 +6.03829239399E-04 +1.77464094335E-03 +7.90316102544E-04 +1.46905789782E-03 +6.46538409870E-01 +6.28613020496E-01
2.58000000000E+09 +6.79769683466E-01 +5.11587454847E-01 +8.53453032351E-04 +1.65994998770E-03 +7.76588169329E-04 +1.35037897297E-03 +6.52091228039E-01 +6.21255103873E-01
2.58500000000E+09 +6.85270329633E-01 +5.03190162782E-01 +1.01626121161E-03 +1.46622213328E-03 +8.20571962941E-04 +1.32228972345E-03 +6.57328359487E-01 +6.13459749860E-01
2.59000000000E+09 +6.89305841251E-01 +4.95728095903E-01 +1.00056697843E-03 +1.24371316244E-03 +8.89154709016E-04 +1.30208527758E-03 +6.62167792728E-01 +6.05896783174E-01
2.59500000000E+09 +6.92076134210E-01 +4.88240898254E-01 +1.04489993168E-03 +1.29857013858E-03 +9.89581279043E-04 +1.34081192174E-03 +6.67066525182E-01 +5.97820168874E-01
2.60000000000E+09 +6.93890986539E-01 +4.79987541429E-01 +1.29501155567E-03 +1.22844508012E-03 +1.22486351294E-03 +1.29408156817E-03 +6.72387618486E-01 +5.89479796926E-01
2.60500000000E+09 +6.95843645583E-01 +4.70246588023E-01 +1.39132244334E-03 +1.01566105546E-03 +1.36124574715E-03 +1.03238404296E-03 +6.78079516985E-01 +5.80745104846E-01
2.61000000000E+09 +6.98133151082E-01 +4.58469644471E-01 +1.40328816731E-03 +9.08990919346E-04 +1.35334640765E-03 +9.38983397835E-04 +6.83317193087E-01 +5.71742892939E-01
2.61500000000E+09 +7.01799917700E-01 +4.44766982730E-01 +1.48007615247E-03 +8.21499033748E-04 +1.50993654661E-03 +8.25320099053E-04 +6.88439034722E-01 +5.62849420356E-01
2.62000000000E+09 +7.06226329507E-01 +4.28795362633E-01 +1.51096702762E-03 +6.13107337408E-04 +1.57589268452E-03 +6.44744981740E-04 +6.93185030518E-01 +5.54060507394E-01
2.62500000000E+09 +7.11508326616E-01 +4.11932184666E-01 +1.48988488428E-03 +6.32205394615E-04 +1.58508815743E-03 +5.80395724957E-04 +6.97973552805E-01 +5.45468156177E-01
2.63000000000E+09 +7.17114262814E-01 +3.94944276064E-01 +1.65539796633E-03 +6.28394813087E-04 +1.65324792366E-03 +3.99766076563E-04 +7.02832714253E-01 +5.36428663970E-01
2.63500000000E+09 +7.22323806143E-01 +3.78892831074E-01 +1.79696988507E-03 +3.62119872180E-04 +1.64891245226E-03 +1.18270812506E-04 +7.07456889440E-01 +5.27005023144E-01
2.64000000000E+09 +7.26683292440E-01 +3.64465230766E-01 +1.80024157713E-03 +2.16565157445E-04 +1.45146618506E-03 +1.26199623885E-04 +7.12144506686E-01 +5.17429245108E-01
2.64500000000E+09 +7.29992951314E-01 +3.52439196657E-01 +1.78435462147E-03 +7.75540055963E-06 +1.55839232960E-03 +1.63251942854E-04 +7.16718439486E-01 +5.07722594414E-01
2.65000000000E+09 +7.32013864516E-01 +3.42299984086E-01 +1.66426297413E-03 -1.61613049510E-04 +1.69471302965E-03 +3.85422991197E-05 +7.21266265822E-01 +4.97623342873E-01
2.65500000000E+09 +7.33565965186E-01 +3.33110564906E-01 +1.58301436002E-03 -1.98045691761E-04 +1.68534067862E-03 -1.11724028862E-04 +7.25411704884E-01 +4.86847022818E-01
2.66000000000E+09 +7.34615459472E-01 +3.23783747709E-01 +1.69829404760E-03 -1.77360631607E-04 +1.80117603553E-03 -2.25192207983E-04 +7.29553198415E-01 +4.75611239189E-01
2.66500000000E+09 +7.35510064591E-01 +3.13739049469E-01 +1.74409087252E-03 -3.54409719492E-04 +1.80620016962E-03 -4.80096562944E-04 +7.33650348783E-01 +4.64631267636E-01
2.67000000000E+09 +7.36426420008E-01 +3.01581489876E-01 +1.73778423572E-03 -4.48652520665E-04 +1.66126865614E-03 -5.57999262284E-04 +7.38046900147E-01 +4.54022171688E-01
2.67500000000E+09 +7.37289865841E-01 +2.87186232944E-01 +1.82106149443E-03 -5.88242182851E-04 +1.67895337297E-03 -5.96762984727E-04 +7.42444688726E-01 +4.42973208076E-01
2.68000000000E+09 +7.38413524323E-01 +2.71117963288E-01 +1.85563148954E-03 -8.47937687024E-04 +1.78474849179E-03 -7.75799754714E-04 +7.46520767790E-01 +4.31587828455E-01
2.68500000000E+09 +7.39572128581E-01 +2.53889721999E-01 +1.61331067761E-03 -1.04330895051E-03 +1.60429583252E-03 -1.02187518944E-03 +7.49569081287E-01 +4.19891898753E-01
2.69000000000E+09 +7.40510740257E-01 +2.36454515577E-01 +1.58882886183E-03 -9.99821262965E-04 +1.59103656711E-03 -1.00188515804E-03 +7.52297492591E-01 +4.08017467241E-01
2.69500000000E+09 +7.41197716068E-01 +2.19935134271E-01 +1.77772989301E-03 -1.07827462897E-03 +1.71513854608E-03 -1.02446288319E-03 +7.55217763661E-01 +3.95282662254E-01
2.70000000000E+09 +7.41943476408E-01 +2.04675606164E-01 +1.85905333795E-03 -1.36953032954E-03 +1.81835305756E-03 -1.36037968632E-03 +7.58266926192E-01 +3.82041242264E-01
2.70500000000E+09 +7.42284410622E-01 +1.90756415376E-01 +1.75971632188E-03 -1.73592342882E-03 +1.77479466205E-03 -1.62898545226E-03 +7.61214614747E-01 +3.68727777814E-01
2.71000000000E+09 +7.42133416271E-01 +1.77906219482E-01 +1.51722750149E-03 -1.99116610422E-03 +1.68923600886E-03 -1.95555148662E-03 +7.63949530056E-01 +3.55385265916E-01
2.71500000000E+09 +7.41821290551E-01 +1.65370287061E-01 +1.27011682824E-03 -2.10183327134E-03 +1.41810305178E-03 -2.16878132520E-03 +7.66277142837E-01 +3.42828237158E-01
2.72000000000E+09 +7.41229356217E-01 +1.52781575698E-01 +1.17742361694E-03 -2.22938994893E-03 +1.10063166585E-03 -2.43498095106E-03 +7.68191169675E-01 +3.30083815002E-01
2.72500000000E+09 +7.40735111612E-01 +1.38543999033E-01 +9.61727612541E-04 -2.35662512677E-03 +7.14041235182E-04 -2.46573283648E-03 +7.69202950138E-01 +3.16473743790E-01
2.73000000000E+09 +7.39313002349E-01 +1.22571633923E-01 +8.96105444831E-04 -2.47343717409E-03 +6.48929878087E-04 -2.28945965343E-03 +7.70213544843E-01 +3.02131360672E-01
2.73500000000E+09 +7.36986164834E-01 +1.04987761582E-01 +7.49941960472E-04 -2.72602108715E-03 +6.26919482630E-04 -2.39260468806E-03 +7.70729745775E-01 +2.87472657374E-01
2.74000000000E+09 +7.33956759257E-01 +8.66572789248E-02 +3.71729861768E-04 -2.84361578734E-03 +5.65263584753E-04 -2.49859855052E-03 +7.71977617196E-01 +2.72765880514E-01
2.74500000000E+09 +7.29939033844E-01 +6.77274524085E-02 +1.21901459212E-04 -2.96241460539E-03 +5.09598625519E-04 -2.80242130200E-03 +7.73269427752E-01 +2.58267853312E-01
2.75000000000E+09 +7.24959030494E-01 +4.90179068052E-02 +2.72710521098E-05 -2.94423239665E-03 +3.67858099614E-04 -3.01513103093E-03 +7.74375020622E-01 +2.43388499978E-01
2.75500000000E+09 +7.19479828882E-01 +3.14620912251E-02 -2.83463094367E-04 -3.40425776281E-03 -1.18168572362E-04 -3.70204557085E-03 +7.74412930150E-01 +2.28368708172E-01
2.76000000000E+09 +7.13980553762E-01 +1.45053219562E-02 -9.09805161500E-04 -3.42995963964E-03 -9.26921301732E-04 -3.64219042365E-03 +7.73883118262E-01 +2.13100270884E-01
2.76500000000E+09 +7.08121643556E-01 -1.76575895110E-03 -1.51494934293E-03 -3.27882197838E-03 -1.63087840539E-03 -3.37295680079E-03 +7.72987881851E-01 +1.97261670416E-01
2.77000000000E+09 +7.02379396124E-01 -1.84859580754E-02 -1.83115996976E-03 -2.75094320072E-03 -1.97592261067E-03 -2.85457493573E-03 +7.72526210014E-01 +1.80075502167E-01
2.77500000000E+09 +6.96432917273E-01 -3.61121487306E-02 -1.71150726270E-03 -2.31794947815E-03 -1.81117105577E-03 -2.32551798211E-03 +7.71140455771E-01 +1.61937515865E-01
2.78000000000E+09 +6.89880903817E-01 -5.51333053026E-02 -1.51698348542E-03 -2.68753077011E-03 -1.63462320645E-03 -2.55346261560E-03 +7.69088207600E-01 +1.44316345497E-01
2.78500000000E+09 +6.82870365727E-01 -7.52917038080E-02 -1.96162236553E-03 -2.94575890364E-03 -2.05920885346E-03 -2.80023148414E-03 +7.67184320382E-01 +1.26956023817E-01
2.79000000000E+09 +6.75497874873E-01 -9.69772674191E-02 -2.46875999539E-03 -2.69860465013E-03 -2.54523887275E-03 -2.52273020079E-03 +7.64504556725E-01 +1.09683161549E-01
2.79500000000E+09 +6.66952103556E-01 -1.19166193164E-01 -2.76662758264E-03 -2.66432761350E-03 -2.60971337609E-03 -2.48570749387E-03 +7.61001266072E-01 +9.13712556072E-02
2.80000000000E+09 +6.57348921632E-01 -1.40922654539E-01 -3.18718136709E-03 -2.36493876169E-03 -2.98263534934E-03 -2.40673551930E-03 +7.55990331374E-01 +7.26701390996E-02
2.80500000000E+09 +6.47100977771E-01 -1.60949940360E-01 -3.22787104853E-03 -2.18949301890E-03 -3.10171306864E-03 -2.33568561373E-03 +7.50308834222E-01 +5.33205066732E-02
2.81000000000E+09 +6.35943597476E-01 -1.78784439016E-01 -3.66323684531E-03 -2.37259503211E-03 -3.73101180429E-03 -2.48550615433E-03 +7.43524469004E-01 +3.40743525761E-02
2.81500000000E+09 +6.24416124962E-01 -1.94503356077E-01 -4.26267549099E-03 -1.97416785007E-03 -4.41152991809E-03 -1.95673096808E-03 +7.37252068088E-01 +1.46363084379E-02
2.82000000000E+09 +6.12163859847E-01 -2.09330048539E-01 -4.62130212232E-03 -1.86687238985E-03 -4.67778595022E-03 -1.58197592273E-03 +7.30139958410E-01 -5.97083081441E-03
2.82500000000E+09 +5.98054201705E-01 -2.23565738401E-01 -5.29857710070E-03 -1.26301369721E-03 -5.11041613917E-03 -1.07320865960E-03 +7.21688842236E-01 -2.60609197105E-02
2.83000000000E+09 +5.82625937663E-01 -2.37966396843E-01 -5.61720647131E-03 -6.70903902866E-04 -5.34317666600E-03 -6.42920376070E-04 +7.11956929152E-01 -4.57395694478E-02
2.83500000000E+09 +5.65315206983E-01 -2.54306140515E-01 -6.07021872773E-03 +8.88600578447E-05 -5.88621983309E-03 -7.35005083074E-05 +7.01885522647E-01 -6.57181192390E-02
2.84000000000E+09 +5.44935399435E-01 -2.72292061895E-01 -6.15783263817E-03 +9.78082422130E-04 -6.09780733612E-03 +8.10054614471E-04 +6.90777316486E-01 -8.55121758459E-02
2.84500000000E+09 +5.22082375196E-01 -2.91374728078E-01 -5.86682405575E-03 +1.70051863027E-03 -5.95619001656E-03 +1.56395743829E-03 +6.78592472483E-01 -1.06274944609E-01
2.85000000000E+09 +4.97880886325E-01 -3.11136092028E-01 -5.84671520100E-03 +2.05800333635E-03 -5.91240914887E-03 +2.03894009004E-03 +6.64979802954E-01 -1.26641935651E-01
2.85500000000E+09 +4.72258458124E-01 -3.30590425390E-01 -6.40658490821E-03 +2.75319245570E-03 -6.30526472275E-03 +2.72873019584E-03 +6.50217800596E-01 -1.47299102273E-01
2.86000000000E+09 +4.47190470966E-01 -3.48341546662E-01 -6.05328127913E-03 +3.98223484087E-03 -6.02192056086E-03 +3.83731719220E-03 +6.34454127684E-01 -1.66743909404E-01
2.86500000000E+09 +4.23237801688E-01 -3.64131945765E-01 -5.98525377019E-03 +4.52609519868E-03 -5.92210786701E-03 +4.39221965145E-03 +6.18513470615E-01 -1.87572102198E-01
2.87000000000E+09 +4.00451871417E-01 -3.78390563696E-01 -5.79316101178E-03 +5.71987315969E-03 -5.83997326634E-03 +5.76984868346E-03 +5.99942024704E-01 -2.08130912538E-01
2.87500000000E+09 +3.78160627376E-01 -3.90706972031E-01 -5.20127952085E-03 +6.70324093379E-03 -5.01253943210E-03 +6.76664922096E-03 +5.79411505474E-01 -2.27577135634E-01
2.88000000000E+09 +3.55409808756E-01 -4.01484412843E-01 -4.55118186791E-03 +7.56887376284E-03 -4.12454135488E-03 +7.42757600557E-03 +5.58782085954E-01 -2.46265533896E-01
2.88500000000E+09 +3.31166875267E-01 -4.10280348284E-01 -3.67117273478E-03 +8.63029415525E-03 -3.35925547457E-03 +8.14294416921E-03 +5.36322435645E-01 -2.64828114588E-01
2.89000000000E+09 +3.05506175297E-01 -4.18281799853E-01 -2.40360374464E-03 +9.43756457748E-03 -2.43915320506E-03 +8.85081215687E-03 +5.12130345182E-01 -2.83529517861E-01
2.89500000000E+09 +2.76349939561E-01 -4.25462447619E-01 -9.99539395223E-04 +9.67645645043E-03 -1.39080332423E-03 +9.33634283918E-03 +4.85284413243E-01 -3.01406759601E-01
2.90000000000E+09 +2.45177596980E-01 -4.31345410055E-01 -2.05666292936E-04 +9.67952360521E-03 -5.63336467492E-04 +9.72197260535E-03 +4.58282326712E-01 -3.17715605309E-01
2.90500000000E+09 +2.11052117904E-01 -4.36697080614E-01 +7.29527233348E-04 +1.04363825580E-02 +7.47024453310E-04 +1.06019794174E-02 +4.29578384780E-01 -3.33785000677E-01
2.91000000000E+09 +1.75654116713E-01 -4.39569136891E-01 +2.12307711708E-03 +1.07715124268E-02 +2.39599390968E-03 +1.06385822713E-02 +4.00149066080E-01 -3.48940871187E-01
2.91500000000E+09 +1.41173388954E-01 -4.41017269318E-01 +4.05438626099E-03 +1.15834781960E-02 +4.11723461852E-03 +1.09670663940E-02 +3.68185324588E-01 -3.62059593562E-01
2.92000000000E+09 +1.07127317752E-01 -4.41524962571E-01 +6.58352092872E-03 +1.07287502525E-02 +6.09271979442E-03 +1.00975054059E-02 +3.34832832680E-01 -3.73908291314E-01
2.92500000000E+09 +7.37418029514E-02 -4.40668804075E-01 +8.07999450390E-03 +9.60783576782E-03 +7.24372161999E-03 +9.46555461770E-03 +2.98904373160E-01 -3.82229793522E-01
2.93000000000E+09 +4.08043788610E-02 -4.36932416504E-01 +9.30196128041E-03 +8.25877673183E-03 +8.63339485065E-03 +8.62547042699E-03 +2.62478473547E-01 -3.89664116624E-01
2.93500000000E+09 +8.74550445468E-03 -4.30822931962E-01 +1.02272186656E-02 +7.39305647055E-03 +9.95360892276E-03 +7.79170025694E-03 +2.24357334052E-01 -3.95196835249E-01
2.94000000000E+09 -2.36739928961E-02 -4.21439187532E-01 +1.12774879712E-02 +6.34242414796E-03 +1.11554343324E-02 +6.61863366180E-03 +1.84813611968E-01 -3.99554882612E-01
2.94500000000E+09 -5.51361640118E-02 -4.08888972808E-01 +1.30797032414E-02 +5.11108225328E-03 +1.29272014355E-02 +5.42019852966E-03 +1.43935917889E-01 -3.99875068419E-01
2.95000000000E+09 -8.72205364144E-02 -3.94532709113E-01 +1.39958767997E-02 +2.65518481665E-03 +1.38638307961E-02 +3.20548346489E-03 +1.04166437479E-01 -3.97723436755E-01
2.95500000000E+09 -1.20494861084E-01 -3.76464939480E-01 +1.42495069119E-02 +4.04184701619E-04 +1.45364795949E-02 +9.60404793593E-04 +6.38554881042E-02 -3.93248210634E-01
2.96000000000E+09 -1.52694164314E-01 -3.55204297953E-01 +1.41607099783E-02 -1.61607228396E-03 +1.48379404088E-02 -1.50363300326E-03 +2.17591719294E-02 -3.85511510509E-01
2.96500000000E+09 -1.83613240837E-01 -3.32313399764E-01 +1.38681729467E-02 -3.39016519764E-03 +1.43080968933E-02 -3.84118254772E-03 -1.93018411717E-02 -3.73211042792E-01
2.97000000000E+09 -2.12859399038E-01 -3.07969129784E-01 +1.35239624614E-02 -5.18737605717E-03 +1.33438503092E-02 -5.64119591110E-03 -6.06805623749E-02 -3.58761465495E-01
2.97500000000E+09 -2.40504564285E-01 -2.82223642149E-01 +1.35276968649E-02 -7.36083718233E-03 +1.30177615349E-02 -7.29164892951E-03 -1.00267551405E-01 -3.41574942803E-01
2.98000000000E+09 -2.66210737557E-01 -2.55357016209E-01 +1.17809769133E-02 -1.00049363498E-02 +1.17749463898E-02 -9.40218519873E-03 -1.39280563400E-01 -3.22261353026E-01
2.98500000000E+09 -2.89831904666E-01 -2.26365388826E-01 +1.02634712620E-02 -1.13879301562E-02 +1.08281343362E-02 -1.10222999554E-02 -1.76181457025E-01 -2.99458768507E-01
2.99000000000E+09 -3.10147181555E-01 -1.96479229865E-01 +8.23398533013E-03 -1.25873688468E-02 +8.85904139684E-03 -1.30403727142E-02 -2.13083452757E-01 -2.73818390912E-01
2.99500000000E+09 -3.28702635925E-01 -1.66329278215E-01 +6.64403229566E-03 -1.35386377724E-02 +6.49900462094E-03 -1.43479484305E-02 -2.46364550626E-01 -2.43552957952E-01
3.00000000000E+09 -3.47398531294E-01 -1.34952813191E-01 +4.67790999771E-03 -1.43681095204E-02 +3.94245549614E-03 -1.46012720022E-02 -2.77690139405E-01 -2.11710972651E-01
3.00500000000E+09 -3.63360880657E-01 -1.01048047140E-01 +2.78519105993E-03 -1.53121173377E-02 +2.15469018972E-03 -1.48707102965E-02 -3.07069150267E-01 -1.78689047496E-01
3.01000000000E+09 -3.76801336557E-01 -6.78899788199E-02 -2.13776655563E-04 -1.56678567989E-02 -2.18131965649E-04 -1.50086903139E-02 -3.35104750528E-01 -1.42790411486E-01
3.01500000000E+09 -3.89266182875E-01 -3.46326340710E-02 -2.64993694019E-03 -1.48254369053E-02 -2.15685420485E-03 -1.44862429991E-02 -3.58937406253E-01 -1.05827522947E-01
3.02000000000E+09 -3.98311157374E-01 -1.07569265909E-03 -4.27611677471E-03 -1.35139417837E-02 -3.97709281203E-03 -1.36110830733E-02 -3.79309766066E-01 -6.69916795960E-02
3.02500000000E+09 -4.04045823550E-01 +3.09857607635E-02 -5.70287261331E-03 -1.31651046035E-02 -5.54548960871E-03 -1.32434017290E-02 -3.96172297494E-01 -2.85718008987E-02
3.03000000000E+09 -4.07154518854E-01 +6.21230623374E-02 -7.34827536282E-03 -1.19115928139E-02 -7.21950099338E-03 -1.18648794087E-02 -4.10613361795E-01 +1.20212933523E-02
3.03500000000E+09 -4.07188906762E-01 +9.25679447930E-02 -8.94504872629E-03 -1.14502831583E-02 -8.54466337765E-03 -1.15711193024E-02 -4.21808071755E-01 +5.18494574815E-02
3.04000000000E+09 -4.04389055527E-01 +1.23230188097E-01 -1.09855695499E-02 -9.09937554043E-03 -1.07528867288E-02 -9.71823356985E-03 -4.30064426783E-01 +9.35897585603E-02
3.04500000000E+09 -3.98755032659E-01 +1.54218407833E-01 -1.11417445334E-02 -7.28544422537E-03 -1.16887369177E-02 -7.94141344879E-03 -4.34762933430E-01 +1.33448755054E-01
3.05000000000E+09 -3.90992086015E-01 +1.86612319495E-01 -1.18490970409E-02 -5.77238669281E-03 -1.27428103232E-02 -5.65572976620E-03 -4.36815893786E-01 +1.72667113717E-01
3.05500000000E+09 -3.79897336622E-01 +2.20291071542E-01 -1.22090331046E-02 -4.22524704119E-03 -1.26987714097E-02 -3.44335152241E-03 -4.37460818302E-01 +2.10475974368E-01
3.06000000000E+09 -3.66733732627E-01 +2.53227120606E-01 -1.25218066758E-02 -2.63568760015E-03 -1.21950526896E-02 -1.94796366349E-03 -4.35562997170E-01 +2.47373357140E-01
3.06500000000E+09 -3.52307404168E-01 +2.85387717586E-01 -1.29023147591E-02 -6.96569254706E-04 -1.21673149760E-02 -6.29161515032E-04 -4.32634483353E-01 +2.84577515883E-01
3.07000000000E+09 -3.37637206974E-01 +3.14764887053E-01 -1.22167304089E-02 +1.28999011652E-03 -1.19115225532E-02 +5.38041350818E-04 -4.25479697579E-01 +3.21049455490E-01
