# Hz S RI R 50
! CMT, C1220, 16058040, 17.2.0/1
! Date: 15/08/2018 10:51:49
! Data: Format (Calibration Info)
! Freq                      S11: Re/Im (F2)                       S21: Re/Im (F2)                       S12: Re/Im (F2)                       S22: Re/Im (F2)            
2.50000000000E+09 +5.80897483259E-01 +6.50963607642E-01 -9.11434777190E-04 +7.01199123879E-04 -9.99086645968E-04 +7.66470244983E-04 +5.61799003800E-01 +7.26422219696E-01
2.50500000000E+09 +5.88426539883E-01 +6.41793028912E-01 -7.50915837836E-04 +8.45869006085E-04 -7.95267693395E-04 +8.82433242621E-04 +5.67513822083E-01 +7.20754112072E-01
2.51000000000E+09 +5.96730033484E-01 +6.32289657718E-01 -6.99246864087E-04 +8.21998923484E-04 -6.50699903102E-04 +8.74596708067E-04 +5.73366243011E-01 +7.15413513127E-01
2.51500000000E+09 +6.05043777422E-01 +6.23423589528E-01 -6.49643054278E-04 +9.44020903576E-04 -5.91513822039E-04 +9.16645030499E-04 +5.78689184607E-01 +7.09849898094E-01
2.52000000000E+09 +6.12679333395E-01 +6.15019061978E-01 -4.87679254545E-04 +9.62250282984E-04 -5.20719439742E-04 +9.53791950611E-04 +5.83702992952E-01 +7.03662922603E-01
2.52500000000E+09 +6.18802183261E-01 +6.07805413667E-01 -3.89239590616E-04 +9.42693843972E-04 -4.35630096326E-04 +9.40068497024E-04 +5.89168327694E-01 +6.97259059294E-01
2.53000000000E+09 +6.23629589985E-01 +6.01775591305E-01 -3.58318102870E-04 +9.67490316865E-04 -3.77988689050E-04 +1.00033785208E-03 +5.95078950570E-01 +6.90472745152E-01
2.53500000000E+09 +6.27437743990E-01 +5.96157967099E-01 -3.44860542652E-04 +1.06565675503E-03 -3.34873708412E-04 +1.02429176191E-03 +6.00930512024E-01 +6.83908766558E-01
2.54000000000E+09 +6.30456863985E-01 +5.90464108351E-01 -1.79448602564E-04 +1.15045429278E-03 -2.04374169028E-04 +1.08856612087E-03 +6.06914438044E-01 +6.77614805833E-01
2.54500000000E+09 +6.33416850530E-01 +5.84295560857E-01 -7.81185173148E-05 +1.26030125535E-03 -1.70195378584E-04 +1.21204099422E-03 +6.12765328053E-01 +6.71588101962E-01
2.55000000000E+09 +6.37128671850E-01 +5.77289532996E-01 +1.73052309083E-04 +1.20935429365E-03 +8.78605915412E-05 +1.31378084013E-03 +6.18003601569E-01 +6.65605196553E-01
2.55500000000E+09 +6.42144709690E-01 +5.68854757759E-01 +3.08317993120E-04 +1.01986223437E-03 +3.52537078169E-04 +1.21450907236E-03 +6.23051420747E-01 +6.59325702947E-01
2.56000000000E+09 +6.48821813231E-01 +5.59770786482E-01 +2.91282976265E-04 +9.45868463310E-04 +4.81344931683E-04 +1.06362367688E-03 +6.28133347182E-01 +6.52413873861E-01
2.56500000000E+09 +6.56674708664E-01 +5.49482884675E-01 +3.51302746603E-04 +9.39153243217E-04 +5.35741004922E-04 +9.85868625880E-04 +6.33539941940E-01 +6.45180785975E-01
2.57000000000E+09 +6.65069679630E-01 +5.39057317767E-01 +3.80097396115E-04 +9.75931057891E-04 +6.05443186978E-04 +9.04688279365E-04 +6.39098056140E-01 +6.37757215801E-01
2.57500000000E+09 +6.73121248344E-01 +5.28861831083E-01 +6.09024546867E-04 +1.04425667670E-03 +7.12438999169E-04 +8.16611882410E-04 +6.45000563749E-01 +6.30324150432E-01
2.58000000000E+09 +6.79951855027E-01 +5.19765441141E-01 +7.87384807760E-04 +9.41380373527E-04 +7.44289423791E-04 +7.59220856149E-04 +6.50398811305E-01 +6.22875392635E-01
2.58500000000E+09 +6.85476892223E-01 +5.11313904069E-01 +8.98421068398E-04 +6.60444383000E-04 +7.82307597057E-04 +6.23401317390E-04 +6.55846642751E-01 +6.15212133075E-01
2.59000000000E+09 +6.89352453333E-01 +5.03966663619E-01 +8.38787420486E-04 +5.02642092776E-04 +7.33962195049E-04 +5.26426282593E-04 +6.60810862642E-01 +6.07619319225E-01
2.59500000000E+09 +6.92239219338E-01 +4.96623516947E-01 +8.17320821323E-04 +5.54803855920E-04 +7.90561670333E-04 +6.06357512822E-04 +6.65834498227E-01 +5.99590318653E-01
2.60000000000E+09 +6.94003214707E-01 +4.88561983211E-01 +9.83537126172E-04 +4.79711140882E-04 +1.00954969113E-03 +4.92814283694E-04 +6.71165356628E-01 +5.91340875728E-01
2.60500000000E+09 +6.95922597191E-01 +4.79198756520E-01 +9.95113556054E-04 +1.68693764369E-04 +1.05079603529E-03 +2.46150288337E-04 +6.76901191697E-01 +5.82738359310E-01
2.61000000000E+09 +6.98350390947E-01 +4.67625954053E-01 +8.22810905544E-04 +8.37977870132E-05 +7.91417428515E-04 +8.54664072207E-05 +6.82302049234E-01 +5.73686247723E-01
2.61500000000E+09 +7.02018361115E-01 +4.53915356223E-01 +7.95176774350E-04 +8.87619765443E-05 +8.01157836236E-04 +1.38163299386E-04 +6.87223392035E-01 +5.64862126718E-01
2.62000000000E+09 +7.06253371709E-01 +4.38158148173E-01 +7.80180904518E-04 -7.18564060034E-06 +7.63968435421E-04 +3.11751542396E-05 +6.92103738605E-01 +5.55938504389E-01
2.62500000000E+09 +7.11465758018E-01 +4.21542889411E-01 +7.21814035993E-04 +9.31220108854E-05 +7.25885482555E-04 +7.19810934875E-05 +6.96953187221E-01 +5.47361955922E-01
2.63000000000E+09 +7.16970448639E-01 +4.04757249860E-01 +8.14117762909E-04 +8.70679044173E-05 +7.51054732550E-04 +2.26579902357E-05 +7.02068205783E-01 +5.38198922552E-01
2.63500000000E+09 +7.22090640933E-01 +3.88765334015E-01 +8.70210836721E-04 -1.31431108733E-04 +7.96912210937E-04 -2.09700212797E-04 +7.06726626807E-01 +5.28799144476E-01
2.64000000000E+09 +7.26391412790E-01 +3.74474275606E-01 +6.35456449450E-04 -2.24199544260E-04 +5.21904873671E-04 -2.17836299265E-04 +7.11347088152E-01 +5.19213214046E-01
2.64500000000E+09 +7.29713020196E-01 +3.62608348454E-01 +5.75286802061E-04 -1.24927535163E-04 +5.33628810726E-04 -1.22229154109E-04 +7.15886868205E-01 +5.09532054257E-01
2.65000000000E+09 +7.31804260393E-01 +3.52776820908E-01 +5.19622211561E-04 -8.64456000893E-05 +4.73132022449E-04 -4.85477660779E-05 +7.20518949615E-01 +4.99450316734E-01
2.65500000000E+09 +7.33481611355E-01 +3.43704811404E-01 +4.99823067074E-04 -1.29211083596E-04 +5.67020307009E-04 -5.70231839296E-05 +7.24572372315E-01 +4.88730169123E-01
2.66000000000E+09 +7.34433441783E-01 +3.34856916560E-01 +5.73251330169E-04 -1.92853878942E-05 +6.08565124192E-04 -1.85806681462E-05 +7.28664100643E-01 +4.77601804240E-01
2.66500000000E+09 +7.35433081691E-01 +3.25157971910E-01 +5.24216290734E-04 -9.39514843985E-05 +5.46332465082E-04 -1.40739080489E-04 +7.32988995315E-01 +4.66459546208E-01
2.67000000000E+09 +7.36502566787E-01 +3.13311501613E-01 +5.29693763438E-04 +4.80171080968E-05 +5.54218273510E-04 +2.65643530477E-05 +7.37476244608E-01 +4.55785970761E-01
2.67500000000E+09 +7.37618494216E-01 +2.99387754697E-01 +6.95581307829E-04 +1.54719989723E-05 +6.45233900445E-04 -1.93608676500E-06 +7.41909854106E-01 +4.44578838294E-01
2.68000000000E+09 +7.38723856753E-01 +2.83648318836E-01 +7.99295452926E-04 -6.70828943520E-05 +7.99270505690E-04 -7.70173084726E-05 +7.46004984303E-01 +4.33336518724E-01
2.68500000000E+09 +7.40135797475E-01 +2.66839290909E-01 +7.30579917897E-04 -2.29884892361E-04 +7.03578860600E-04 -2.45915298697E-04 +7.49153035957E-01 +4.21683955212E-01
2.69000000000E+09 +7.41310639385E-01 +2.49492792959E-01 +5.93431563889E-04 -8.70107519311E-05 +6.41985176465E-04 -9.16013837385E-05 +7.51841249842E-01 +4.09529396979E-01
2.69500000000E+09 +7.42214145924E-01 +2.33123185458E-01 +8.67224684768E-04 +6.70393967994E-05 +8.41321183914E-04 +5.56489352836E-05 +7.54689558017E-01 +3.96957994920E-01
2.70000000000E+09 +7.43063097267E-01 +2.17853574059E-01 +1.11923644287E-03 -1.32792832569E-04 +1.08729361028E-03 -1.10885527906E-04 +7.57575058363E-01 +3.83760153246E-01
2.70500000000E+09 +7.43541638604E-01 +2.03962742799E-01 +1.20366091655E-03 -3.77951342741E-04 +1.18708800024E-03 -3.15136209991E-04 +7.60776976848E-01 +3.70335102748E-01
2.71000000000E+09 +7.43810943670E-01 +1.91146492979E-01 +1.04998675196E-03 -6.58851860834E-04 +1.09611064146E-03 -5.82122634268E-04 +7.63487593777E-01 +3.56877658022E-01
2.71500000000E+09 +7.43798813398E-01 +1.78494321736E-01 +9.31615715223E-04 -6.39923737320E-04 +9.94224179361E-04 -6.18913887495E-04 +7.65564061657E-01 +3.44270823962E-01
2.72000000000E+09 +7.43272595642E-01 +1.65785166865E-01 +1.05643288121E-03 -6.93968262779E-04 +1.06568919259E-03 -7.59311780592E-04 +7.67555126381E-01 +3.31674891594E-01
2.72500000000E+09 +7.42931415271E-01 +1.51986734620E-01 +9.99839959774E-04 -7.62749693947E-04 +8.78409805043E-04 -8.46638863178E-04 +7.68623052336E-01 +3.17986173825E-01
2.73000000000E+09 +7.41989239053E-01 +1.36489491212E-01 +1.19449474291E-03 -8.97692654646E-04 +1.02157946085E-03 -9.03189421724E-04 +7.69733238693E-01 +3.03992355922E-01
2.73500000000E+09 +7.40076039122E-01 +1.19150054237E-01 +1.14901690046E-03 -1.24507230790E-03 +9.95221623041E-04 -1.06374985341E-03 +7.70127674597E-01 +2.89314851179E-01
2.74000000000E+09 +7.37551808295E-01 +1.01028366909E-01 +9.94573543120E-04 -1.38802053707E-03 +9.68554570636E-04 -1.10891830690E-03 +7.71302099493E-01 +2.74784371185E-01
2.74500000000E+09 +7.33738390092E-01 +8.22122182423E-02 +8.30483070010E-04 -1.49514720811E-03 +9.31634531107E-04 -1.34810179295E-03 +7.72779649107E-01 +2.60220234065E-01
2.75000000000E+09 +7.29161859841E-01 +6.39737054142E-02 +9.31011915353E-04 -1.53492916871E-03 +1.18006552003E-03 -1.50613924855E-03 +7.73974128770E-01 +2.45202965470E-01
2.75500000000E+09 +7.24309077440E-01 +4.67181132862E-02 +7.44778554672E-04 -2.03481137908E-03 +8.34775137967E-04 -2.13544876985E-03 +7.74093475897E-01 +2.30213132080E-01
2.76000000000E+09 +7.19569123817E-01 +2.98642845281E-02 +3.69163027875E-04 -2.06169766312E-03 +4.76501383660E-04 -2.21282226807E-03 +7.73634164255E-01 +2.14831650175E-01
2.76500000000E+09 +7.14202281447E-01 +1.31978444144E-02 +1.31451326968E-04 -2.21540520981E-03 +7.35288242899E-05 -2.33441612838E-03 +7.72732123289E-01 +1.98802491129E-01
2.77000000000E+09 +7.08816931062E-01 -3.62543368717E-03 -2.21236168170E-04 -2.00805619727E-03 -2.59677911160E-04 -2.15203088317E-03 +7.72335817849E-01 +1.81831412113E-01
2.77500000000E+09 +7.03199183958E-01 -2.14099409628E-02 -3.19148188559E-05 -1.74677569233E-03 -1.28877121003E-04 -1.77771899201E-03 +7.71000991346E-01 +1.63805073698E-01
2.78000000000E+09 +6.97161994644E-01 -4.03074773032E-02 +1.71391797675E-04 -2.20205651576E-03 +9.47915122303E-05 -2.27646720781E-03 +7.69213710952E-01 +1.46152872265E-01
2.78500000000E+09 +6.90883429630E-01 -6.07249516375E-02 -2.22908829974E-04 -2.67123432528E-03 -4.12505947084E-04 -2.60985809551E-03 +7.67319993392E-01 +1.28329486053E-01
2.79000000000E+09 +6.83657992122E-01 -8.27357014583E-02 -6.60791308852E-04 -2.56746806867E-03 -7.92295151613E-04 -2.40956686055E-03 +7.64369769526E-01 +1.10903584585E-01
2.79500000000E+09 +6.75729205488E-01 -1.04515175778E-01 -8.81354833643E-04 -2.77741631385E-03 -8.04529047088E-04 -2.59128775995E-03 +7.60661150237E-01 +9.28477059493E-02
2.80000000000E+09 +6.67178224139E-01 -1.25975611006E-01 -1.32146796360E-03 -2.75912100126E-03 -1.16134135968E-03 -2.69253075251E-03 +7.55890396328E-01 +7.42296647168E-02
2.80500000000E+09 +6.57847476202E-01 -1.46257985302E-01 -1.35566209388E-03 -2.77575577497E-03 -1.22708040222E-03 -2.84295555511E-03 +7.50051212617E-01 +5.47308073035E-02
2.81000000000E+09 +6.47551631162E-01 -1.64566700713E-01 -2.03660609075E-03 -3.24483148523E-03 -2.06496319408E-03 -3.38714983374E-03 +7.43207653068E-01 +3.58562053373E-02
2.81500000000E+09 +6.36430303184E-01 -1.80751206916E-01 -2.69165776567E-03 -2.85960693120E-03 -2.79795431773E-03 -2.89493673875E-03 +7.37194671402E-01 +1.65681845011E-02
2.82000000000E+09 +6.24453733939E-01 -1.95904353275E-01 -3.15457629633E-03 -2.87163740605E-03 -3.27084540696E-03 -2.72144142482E-03 +7.30040486306E-01 -3.84586276459E-03
2.82500000000E+09 +6.10579941852E-01 -2.10260755579E-01 -3.85345831685E-03 -2.56225447384E-03 -3.79126427209E-03 -2.31546036160E-03 +7.21607605520E-01 -2.42453360687E-02
2.83000000000E+09 +5.95508332871E-01 -2.24517149078E-01 -4.36406880336E-03 -2.05915336242E-03 -4.11075740686E-03 -1.98242493248E-03 +7.11883089282E-01 -4.38317447174E-02
2.83500000000E+09 +5.79317833731E-01 -2.41150880846E-01 -4.97429477298E-03 -1.44928185290E-03 -4.75838814066E-03 -1.56527331442E-03 +7.01959603595E-01 -6.37628155430E-02
2.84000000000E+09 +5.59774161636E-01 -2.59624546933E-01 -5.26053726400E-03 -6.39102214597E-04 -5.18238564098E-03 -7.44118759422E-04 +6.90795349587E-01 -8.36335448056E-02
2.84500000000E+09 +5.38181222468E-01 -2.79591331966E-01 -5.15113715604E-03 +4.04258158741E-05 -5.16995181065E-03 -4.37797599256E-05 +6.78794343549E-01 -1.04269925185E-01
2.85000000000E+09 +5.14253654236E-01 -3.00594906748E-01 -5.27436418918E-03 +2.12360107768E-04 -5.25304072134E-03 +2.99924514524E-04 +6.65632547741E-01 -1.24637039826E-01
2.85500000000E+09 +4.89370864119E-01 -3.20548266748E-01 -6.00461717037E-03 +8.36920063644E-04 -5.83297884951E-03 +8.34668063842E-04 +6.50796571457E-01 -1.45362297012E-01
2.86000000000E+09 +4.65008163908E-01 -3.39484328181E-01 -6.04102897829E-03 +1.90000366979E-03 -5.96421759396E-03 +1.84791403125E-03 +6.35199961492E-01 -1.65048168216E-01
2.86500000000E+09 +4.41345650237E-01 -3.56428076921E-01 -6.17747884279E-03 +2.80810867683E-03 -6.11328156925E-03 +2.76718081037E-03 +6.18910919899E-01 -1.85827342531E-01
2.87000000000E+09 +4.18869588899E-01 -3.71859831816E-01 -5.85695612427E-03 +4.12950882106E-03 -5.88290482516E-03 +4.17548491068E-03 +6.00373055539E-01 -2.06428790222E-01
2.87500000000E+09 +3.96486822916E-01 -3.85046955245E-01 -5.22262826955E-03 +4.99641177720E-03 -5.10309987277E-03 +5.08338716308E-03 +5.79871164548E-01 -2.26110554649E-01
2.88000000000E+09 +3.74280242249E-01 -3.96802700291E-01 -4.55412130221E-03 +5.54698388200E-03 -4.23585681515E-03 +5.52075041379E-03 +5.58951117621E-01 -2.44298801417E-01
2.88500000000E+09 +3.50138750706E-01 -4.07503587267E-01 -4.37753420904E-03 +6.29250464113E-03 -4.11480474022E-03 +5.94842175680E-03 +5.36994424194E-01 -2.62553440202E-01
2.89000000000E+09 +3.23410162243E-01 -4.17017592683E-01 -3.53481513192E-03 +7.58811209973E-03 -3.48805918872E-03 +7.09009876590E-03 +5.13280200226E-01 -2.81008964957E-01
2.89500000000E+09 +2.93874981283E-01 -4.24790399769E-01 -2.25781021110E-03 +7.89558462107E-03 -2.52526484897E-03 +7.55229303913E-03 +4.86922183175E-01 -2.99476519577E-01
2.90000000000E+09 +2.62433255049E-01 -4.31757178163E-01 -1.63483469767E-03 +8.32625415792E-03 -1.96059479954E-03 +8.30552885364E-03 +4.59314634582E-01 -3.15772207794E-01
2.90500000000E+09 +2.28059514215E-01 -4.38332095601E-01 -5.72269127742E-04 +9.14548299631E-03 -6.07979888715E-04 +9.32165371819E-03 +4.30803449279E-01 -3.31884651670E-01
2.91000000000E+09 +1.92457170619E-01 -4.42337160454E-01 +8.60520296711E-04 +9.53679045674E-03 +1.15254566495E-03 +9.42377192896E-03 +4.01126168274E-01 -3.46618890862E-01
2.91500000000E+09 +1.57652127120E-01 -4.45865042335E-01 +2.60086405900E-03 +9.94100250771E-03 +2.75422683672E-03 +9.43482140775E-03 +3.70049477565E-01 -3.59539397281E-01
2.92000000000E+09 +1.22065076677E-01 -4.47755128587E-01 +4.45965899876E-03 +9.27467334523E-03 +4.12628436211E-03 +8.78623486401E-03 +3.37439201934E-01 -3.71629384712E-01
2.92500000000E+09 +8.74374838152E-02 -4.47716235042E-01 +5.85760866716E-03 +8.58428114174E-03 +5.20341246615E-03 +8.33663202801E-03 +3.01956067509E-01 -3.80538474024E-01
2.93000000000E+09 +5.36219536818E-02 -4.44786364085E-01 +6.95623242218E-03 +7.59184984424E-03 +6.39002544779E-03 +7.75997217971E-03 +2.65941160117E-01 -3.88552031564E-01
2.93500000000E+09 +2.03521546747E-02 -4.39601573629E-01 +7.91996902859E-03 +6.85561335756E-03 +7.64725600086E-03 +7.25572968983E-03 +2.27412174096E-01 -3.94427882256E-01
2.94000000000E+09 -1.30735373157E-02 -4.31077753947E-01 +8.97400650459E-03 +5.95042279924E-03 +8.85206754851E-03 +6.18735340247E-03 +1.88287408386E-01 -3.99101951133E-01
2.94500000000E+09 -4.55152067781E-02 -4.19623721802E-01 +1.04366725687E-02 +4.87947987605E-03 +1.02078606608E-02 +5.15255564650E-03 +1.46899923220E-01 -4.00081404506E-01
2.95000000000E+09 -7.91094526079E-02 -4.06698469702E-01 +1.14951442063E-02 +2.88401316375E-03 +1.13184430277E-02 +3.37175962764E-03 +1.07007703401E-01 -3.97794337340E-01
2.95500000000E+09 -1.14753695988E-01 -3.89691059759E-01 +1.15798675560E-02 +7.25162238483E-04 +1.18091291229E-02 +1.24909147870E-03 +6.67642815191E-02 -3.93322489206E-01
2.96000000000E+09 -1.48841898792E-01 -3.68982652750E-01 +1.12247159907E-02 -1.08271981248E-03 +1.18260322576E-02 -9.78098329669E-04 +2.51735325966E-02 -3.86428903435E-01
2.96500000000E+09 -1.82030144994E-01 -3.46377493568E-01 +1.08112486527E-02 -2.14766732630E-03 +1.11749006221E-02 -2.46012485541E-03 -1.65980647637E-02 -3.74404703269E-01
2.97000000000E+09 -2.13413621294E-01 -3.21705398459E-01 +1.06446253037E-02 -3.40083565378E-03 +1.04996861283E-02 -3.73621699306E-03 -5.76664047606E-02 -3.60156738917E-01
2.97500000000E+09 -2.42432544170E-01 -2.95863867364E-01 +1.07467873846E-02 -4.95060053215E-03 +1.04072401091E-02 -4.92402181630E-03 -9.77286297542E-02 -3.42961981854E-01
2.98000000000E+09 -2.70407716935E-01 -2.69210579982E-01 +9.89008416276E-03 -7.15155936202E-03 +9.84696377782E-03 -6.73039646999E-03 -1.36327798902E-01 -3.23839102007E-01
2.98500000000E+09 -2.96214262319E-01 -2.39269176813E-01 +8.61387307635E-03 -8.62686187401E-03 +9.15289556468E-03 -8.29106752197E-03 -1.73618621650E-01 -3.01331345893E-01
2.99000000000E+09 -3.18273118519E-01 -2.08025238166E-01 +6.90029042853E-03 -9.61036094993E-03 +7.40264324451E-03 -1.00350744323E-02 -2.10302937402E-01 -2.75931373466E-01
2.99500000000E+09 -3.38836118916E-01 -1.76996661735E-01 +5.58652255472E-03 -1.03169316542E-02 +5.57924534063E-03 -1.09230299171E-02 -2.43684371891E-01 -2.46888882278E-01
3.00000000000E+09 -3.59332764240E-01 -1.43565221878E-01 +4.08350387461E-03 -1.10790044230E-02 +3.57649885206E-03 -1.13485768628E-02 -2.76179359934E-01 -2.15321179614E-01
3.00500000000E+09 -3.76021950373E-01 -1.07983256934E-01 +2.48105403060E-03 -1.17751582948E-02 +2.00965460456E-03 -1.14192657183E-02 -3.05018296005E-01 -1.82329360671E-01
3.01000000000E+09 -3.90346438646E-01 -7.32959636616E-02 +3.31025369811E-04 -1.21963804396E-02 +3.13426450481E-04 -1.15928017797E-02 -3.33826410504E-01 -1.47110808461E-01
3.01500000000E+09 -4.03194101389E-01 -3.87681450404E-02 -1.72449412412E-03 -1.14442013880E-02 -1.35867163912E-03 -1.12355243816E-02 -3.58102389671E-01 -1.10471908098E-01
3.02000000000E+09 -4.13121700026E-01 -4.38182253278E-03 -3.04361644573E-03 -1.04724982497E-02 -2.82718954579E-03 -1.05504893277E-02 -3.79770890548E-01 -7.16463394704E-02
3.02500000000E+09 -4.20144666064E-01 +2.91572414439E-02 -3.74603611170E-03 -1.01710275220E-02 -3.65969240166E-03 -1.01844174234E-02 -3.97267094204E-01 -3.24494736467E-02
3.03000000000E+09 -4.23607023781E-01 +6.20421118988E-02 -5.38031816243E-03 -9.69684189923E-03 -5.26976767606E-03 -9.61460666967E-03 -4.12104550841E-01 +8.33028312398E-03
3.03500000000E+09 -4.23631846866E-01 +9.39330031091E-02 -6.96605690514E-03 -8.97532877839E-03 -6.67627769896E-03 -9.05952665082E-03 -4.23344646302E-01 +4.85731391638E-02
3.04000000000E+09 -4.21047155347E-01 +1.25949553950E-01 -8.52956378131E-03 -6.99245547173E-03 -8.42927314220E-03 -7.48780561344E-03 -4.31883181094E-01 +9.02554591178E-02
3.04500000000E+09 -4.15143488044E-01 +1.58152079816E-01 -8.42947233759E-03 -5.24130604899E-03 -8.82525668851E-03 -5.66057642960E-03 -4.36977700888E-01 +1.30352213585E-01
3.05000000000E+09 -4.07263300759E-01 +1.91662761334E-01 -8.55924745065E-03 -4.15709871832E-03 -9.24711854463E-03 -4.02852127829E-03 -4.39618474528E-01 +1.70093157458E-01
3.05500000000E+09 -3.96183800885E-01 +2.26399374543E-01 -8.62759862432E-03 -3.28351340616E-03 -9.00611084348E-03 -2.73235724419E-03 -4.40013327136E-01 +2.08548048925E-01
3.06000000000E+09 -3.82924121487E-01 +2.60348190731E-01 -9.29033979192E-03 -2.59718780849E-03 -8.94779187670E-03 -2.02746303600E-03 -4.38121990158E-01 +2.46008411685E-01
3.06500000000E+09 -3.68797564134E-01 +2.93403311936E-01 -9.79862670190E-03 -7.92680724771E-04 -9.20166541028E-03 -7.67294280707E-04 -4.34491792002E-01 +2.83449187154E-01
3.07000000000E+09 -3.54393997977E-01 +3.24421494178E-01 -9.20258291249E-03 +7.51426054861E-04 -9.00143297563E-03 +1.73344865743E-04 -4.27049674943E-01 +3.19827475669E-01
