# Hz S RI R 50
! CMT, C1220, 16058040, 17.2.0/1
! Date: 15/08/2018 10:53:26
! Data: Format (Calibration Info)
! Freq                      S11: Re/Im (F2)                       S21: Re/Im (F2)                       S12: Re/Im (F2)                       S22: Re/Im (F2)            
2.50000000000E+09 +5.79681195409E-01 +6.52052660383E-01 -1.11559969191E-03 +6.28439748980E-04 -1.23592653901E-03 +6.43308465986E-04 +5.60980578569E-01 +7.27215607559E-01
2.50500000000E+09 +5.87294349008E-01 +6.42901477655E-01 -1.04232240851E-03 +7.82665928001E-04 -1.03967322174E-03 +8.65909580138E-04 +5.66669215893E-01 +7.21590334059E-01
2.51000000000E+09 +5.95842873389E-01 +6.33408906836E-01 -8.89210581644E-04 +8.49246124008E-04 -8.66413343508E-04 +8.57107147750E-04 +5.72519570044E-01 +7.16171514330E-01
2.51500000000E+09 +6.04458170489E-01 +6.24656595117E-01 -8.53003935572E-04 +8.71826784006E-04 -7.94592872243E-04 +8.67299726264E-04 +5.77886729072E-01 +7.10404503709E-01
2.52000000000E+09 +6.12122177878E-01 +6.16446867124E-01 -7.29125985059E-04 +9.88496841697E-04 -7.37676328703E-04 +9.26133319043E-04 +5.82902833807E-01 +7.04233501353E-01
2.52500000000E+09 +6.18314055330E-01 +6.09560503696E-01 -6.44877090210E-04 +9.64560775455E-04 -6.70811883414E-04 +1.02346969653E-03 +5.88413345193E-01 +6.97842285875E-01
2.53000000000E+09 +6.23217230365E-01 +6.03511950301E-01 -6.53372012788E-04 +9.90551273834E-04 -6.68647800576E-04 +9.84609081710E-04 +5.94381538765E-01 +6.91232020172E-01
2.53500000000E+09 +6.26813546346E-01 +5.98251202618E-01 -6.53850807826E-04 +1.14723433937E-03 -7.15370565108E-04 +1.15438090663E-03 +6.00193451512E-01 +6.84661803179E-01
2.54000000000E+09 +6.29850326614E-01 +5.92698935608E-01 -4.73215640588E-04 +1.39114554699E-03 -5.02527476362E-04 +1.32758051978E-03 +6.06127959317E-01 +6.78220010888E-01
2.54500000000E+09 +6.32745851891E-01 +5.86637968957E-01 -2.94171102731E-04 +1.44467170936E-03 -3.47173903327E-04 +1.43502537897E-03 +6.11822559934E-01 +6.71997134849E-01
2.55000000000E+09 +6.36463027673E-01 +5.79475239652E-01 +4.30905967087E-05 +1.45798118041E-03 -7.42968446112E-05 +1.58357601714E-03 +6.17043010244E-01 +6.65972775821E-01
2.55500000000E+09 +6.41417385509E-01 +5.70821909782E-01 +2.04902798897E-04 +1.23528631326E-03 +1.72337069476E-04 +1.36569693927E-03 +6.22141214490E-01 +6.59713593938E-01
2.56000000000E+09 +6.48000503487E-01 +5.61612583902E-01 +1.60839006074E-04 +1.15971938509E-03 +2.29935620038E-04 +1.37339282953E-03 +6.27197906170E-01 +6.52690427518E-01
2.56500000000E+09 +6.55977377764E-01 +5.51432374094E-01 +1.72260393308E-04 +1.20792097151E-03 +4.32334774522E-04 +1.31852975858E-03 +6.32566115728E-01 +6.45562666801E-01
2.57000000000E+09 +6.64511709453E-01 +5.40894334931E-01 +3.79835498934E-04 +1.27664481734E-03 +5.69740448181E-04 +1.14978370138E-03 +6.38150925243E-01 +6.38164933228E-01
2.57500000000E+09 +6.72774654308E-01 +5.30841572877E-01 +5.31097601664E-04 +1.27842142523E-03 +6.19271127142E-04 +1.01064064049E-03 +6.43933021656E-01 +6.30733126897E-01
2.58000000000E+09 +6.79646034506E-01 +5.21935271140E-01 +6.71806709091E-04 +1.18709275231E-03 +6.35134420574E-04 +9.56655376344E-04 +6.49395396470E-01 +6.23215044181E-01
2.58500000000E+09 +6.85449315619E-01 +5.13975628242E-01 +8.16944326681E-04 +1.01898537471E-03 +6.62878596221E-04 +9.20127027547E-04 +6.54460287617E-01 +6.15472744875E-01
2.59000000000E+09 +6.89628794322E-01 +5.06806759729E-01 +8.16696772242E-04 +8.76295346107E-04 +7.31638479276E-04 +8.50157078837E-04 +6.59373632226E-01 +6.07943599167E-01
2.59500000000E+09 +6.92529681322E-01 +4.99747381668E-01 +8.81897036844E-04 +8.10480862035E-04 +8.07854075987E-04 +9.08395392614E-04 +6.64387349855E-01 +5.99972915743E-01
2.60000000000E+09 +6.94310940110E-01 +4.91887676004E-01 +9.89052052979E-04 +7.31257633821E-04 +9.51373485037E-04 +7.40648768672E-04 +6.69741357263E-01 +5.91706442059E-01
2.60500000000E+09 +6.96313508994E-01 +4.82540856642E-01 +9.74894567412E-04 +5.66729506691E-04 +9.36066158674E-04 +5.93074552815E-04 +6.75436631527E-01 +5.83106448466E-01
2.61000000000E+09 +6.98752141942E-01 +4.70891888713E-01 +8.80882943898E-04 +5.09327869429E-04 +9.25506280889E-04 +5.24834986818E-04 +6.80814140539E-01 +5.74259170302E-01
2.61500000000E+09 +7.02391274892E-01 +4.57283202910E-01 +9.60864918512E-04 +5.41283355871E-04 +9.46776675785E-04 +5.83319953582E-04 +6.85591027183E-01 +5.65510822067E-01
2.62000000000E+09 +7.06896208140E-01 +4.41412129076E-01 +9.50457062839E-04 +4.02135557534E-04 +1.04022248235E-03 +4.38630966427E-04 +6.90202381843E-01 +5.56623486265E-01
2.62500000000E+09 +7.12218129994E-01 +4.24526727223E-01 +9.84928778493E-04 +4.38193885459E-04 +1.05770970309E-03 +4.44072921301E-04 +6.94984715826E-01 +5.48074747299E-01
2.63000000000E+09 +7.18043931412E-01 +4.07614446194E-01 +1.05674863687E-03 +4.52102104553E-04 +1.13370112999E-03 +3.16297858810E-04 +6.99952217378E-01 +5.39038323938E-01
2.63500000000E+09 +7.23268522443E-01 +3.91739519985E-01 +1.17867153456E-03 +2.73798907683E-04 +1.13744461377E-03 +6.27488299890E-05 +7.04843520269E-01 +5.29794459114E-01
2.64000000000E+09 +7.27964402030E-01 +3.77593318944E-01 +1.10170767637E-03 +1.79555109803E-04 +9.81150413797E-04 +9.70826325529E-05 +7.09461312977E-01 +5.20219229038E-01
2.64500000000E+09 +7.31469554490E-01 +3.65792993969E-01 +1.11160783892E-03 +4.87158183284E-05 +9.71658737152E-04 +1.10089317134E-04 +7.14319332678E-01 +5.10600776474E-01
2.65000000000E+09 +7.33685098283E-01 +3.56101882537E-01 +1.05438985182E-03 +1.20068117378E-05 +1.03343193403E-03 +9.66380476964E-05 +7.18811406094E-01 +5.00646850579E-01
2.65500000000E+09 +7.35348072121E-01 +3.47193155711E-01 +9.29743644364E-04 -3.04897870387E-05 +1.00608929122E-03 +7.01425713496E-05 +7.22747042741E-01 +4.90054512161E-01
2.66000000000E+09 +7.36593998465E-01 +3.38288724043E-01 +1.03486415311E-03 +1.07109581829E-04 +1.11564773204E-03 +1.08701203029E-04 +7.26854092040E-01 +4.79096987718E-01
2.66500000000E+09 +7.37533533208E-01 +3.28509826631E-01 +1.20502618707E-03 +8.16838665527E-06 +1.20227759432E-03 -5.32403198186E-05 +7.30947004939E-01 +4.68058369471E-01
2.67000000000E+09 +7.38562379688E-01 +3.16618884739E-01 +1.22674077083E-03 -1.00307482070E-04 +1.20858778604E-03 -2.09707331966E-04 +7.35486946001E-01 +4.57477493924E-01
2.67500000000E+09 +7.39819188083E-01 +3.02418923418E-01 +1.25250671884E-03 -2.20466557186E-04 +1.18707006578E-03 -2.45266002174E-04 +7.40092744409E-01 +4.46439399464E-01
2.68000000000E+09 +7.40963868744E-01 +2.86504178536E-01 +1.32577718689E-03 -4.23366584941E-04 +1.23602828356E-03 -3.45701058468E-04 +7.44251608960E-01 +4.35216581983E-01
2.68500000000E+09 +7.42518854160E-01 +2.69512700145E-01 +1.13977795834E-03 -5.03685784764E-04 +1.13359156302E-03 -4.06786471277E-04 +7.47429079898E-01 +4.23569321873E-01
2.69000000000E+09 +7.43936049106E-01 +2.52172962161E-01 +1.15777140122E-03 -3.10667228161E-04 +1.14904844804E-03 -3.55682809587E-04 +7.50276790789E-01 +4.11842792739E-01
2.69500000000E+09 +7.45249059798E-01 +2.35863228337E-01 +1.39892173563E-03 -3.46322285585E-04 +1.44441810898E-03 -3.03927365123E-04 +7.53332176474E-01 +3.99405670494E-01
2.70000000000E+09 +7.46374528101E-01 +2.20547739568E-01 +1.54240007345E-03 -6.31698827760E-04 +1.53324564648E-03 -5.84942802862E-04 +7.56510937011E-01 +3.86360506184E-01
2.70500000000E+09 +7.47241768752E-01 +2.06573111069E-01 +1.59073481583E-03 -9.18255429846E-04 +1.58049044124E-03 -8.28573603222E-04 +7.59704654562E-01 +3.72775866664E-01
2.71000000000E+09 +7.47586289190E-01 +1.93735798496E-01 +1.44049884085E-03 -1.21558022215E-03 +1.52964695314E-03 -1.16724973921E-03 +7.62490870740E-01 +3.59297620419E-01
2.71500000000E+09 +7.47521211168E-01 +1.81320730851E-01 +1.27582371685E-03 -1.29183171392E-03 +1.36699338866E-03 -1.34404699351E-03 +7.64757314261E-01 +3.46797020041E-01
2.72000000000E+09 +7.47258256314E-01 +1.68561690517E-01 +1.17732974926E-03 -1.38540715245E-03 +1.18518355548E-03 -1.56995530158E-03 +7.66947609645E-01 +3.34071917143E-01
2.72500000000E+09 +7.47210805225E-01 +1.54426493314E-01 +1.05344154750E-03 -1.50971537361E-03 +8.74404750508E-04 -1.59171409559E-03 +7.68218641993E-01 +3.20631296545E-01
2.73000000000E+09 +7.46097402494E-01 +1.38478495313E-01 +1.10580814264E-03 -1.48848733480E-03 +9.40615556463E-04 -1.38429013949E-03 +7.69549788757E-01 +3.06559123968E-01
2.73500000000E+09 +7.44324968835E-01 +1.20646434190E-01 +1.14202119992E-03 -1.85098811581E-03 +1.00944402227E-03 -1.57728858816E-03 +7.70282492728E-01 +2.91737152522E-01
2.74000000000E+09 +7.41695089753E-01 +1.02017962313E-01 +9.47228222509E-04 -2.00173578587E-03 +9.61045390871E-04 -1.74768651854E-03 +7.71333883214E-01 +2.77241734811E-01
2.74500000000E+09 +7.38220498394E-01 +8.28811645143E-02 +8.05573721810E-04 -2.14737760952E-03 +1.01940485058E-03 -1.96634377005E-03 +7.72824669737E-01 +2.62512141668E-01
2.75000000000E+09 +7.33941758663E-01 +6.39305312909E-02 +7.96807968015E-04 -2.34073901705E-03 +1.07280553492E-03 -2.35482431744E-03 +7.74046518813E-01 +2.47482355965E-01
2.75500000000E+09 +7.29004161736E-01 +4.59492185424E-02 +4.54968499647E-04 -2.80932190532E-03 +6.72561046421E-04 -2.98845914793E-03 +7.74236729427E-01 +2.32474070959E-01
2.76000000000E+09 +7.24118605955E-01 +2.90623566978E-02 -3.15413811355E-05 -2.85396041673E-03 -1.01590939502E-05 -3.04301339343E-03 +7.74043490708E-01 +2.16937006922E-01
2.76500000000E+09 +7.18659022436E-01 +1.25704526650E-02 -5.12945097936E-04 -2.80213522384E-03 -5.97354519631E-04 -2.97424923472E-03 +7.73342931012E-01 +2.01040119821E-01
2.77000000000E+09 +7.13363524170E-01 -4.39489033411E-03 -7.46510724423E-04 -2.51786330998E-03 -8.30646038852E-04 -2.58291462763E-03 +7.72980261174E-01 +1.83923595355E-01
2.77500000000E+09 +7.07671960570E-01 -2.23369472650E-02 -6.58147303991E-04 -2.26439801308E-03 -7.87174747426E-04 -2.31102038085E-03 +7.71805266372E-01 +1.66007602167E-01
2.78000000000E+09 +7.01491007974E-01 -4.15259175716E-02 -4.60029272565E-04 -2.62220773142E-03 -6.42941096215E-04 -2.65615131470E-03 +7.70037207048E-01 +1.48127116587E-01
2.78500000000E+09 +6.94435712406E-01 -6.21406285486E-02 -8.28702768234E-04 -3.08673627992E-03 -1.06776264130E-03 -3.02680756042E-03 +7.68010879221E-01 +1.30457366044E-01
2.79000000000E+09 +6.87165881495E-01 -8.40271066816E-02 -1.48312484781E-03 -3.08259617756E-03 -1.55193053360E-03 -2.85795511510E-03 +7.65395830887E-01 +1.13104509454E-01
2.79500000000E+09 +6.79042095147E-01 -1.06410883311E-01 -1.84313699247E-03 -3.11535453055E-03 -1.72782363672E-03 -2.90249826765E-03 +7.62059887779E-01 +9.47649100505E-02
2.80000000000E+09 +6.69860087389E-01 -1.28313029773E-01 -2.38920467028E-03 -2.88599802910E-03 -2.21704105036E-03 -2.81440934367E-03 +7.57515758190E-01 +7.57882026253E-02
2.80500000000E+09 +6.60430280395E-01 -1.48955865438E-01 -2.51174830664E-03 -2.71852073925E-03 -2.39050439460E-03 -2.74777545457E-03 +7.51945656765E-01 +5.61247792166E-02
2.81000000000E+09 +6.49797018753E-01 -1.67466672448E-01 -2.91710945667E-03 -2.85391159744E-03 -2.93653480559E-03 -2.95964685834E-03 +7.45520173031E-01 +3.69382048511E-02
2.81500000000E+09 +6.38690065040E-01 -1.83560330451E-01 -3.54670782372E-03 -2.60493907495E-03 -3.67131010875E-03 -2.54336904506E-03 +7.39281853227E-01 +1.72351127439E-02
2.82000000000E+09 +6.26945639889E-01 -1.98915834669E-01 -3.91147307724E-03 -2.52085827988E-03 -3.98805436586E-03 -2.24448676156E-03 +7.32209812885E-01 -3.31936346086E-03
2.82500000000E+09 +6.13108653060E-01 -2.13522326044E-01 -4.64938825187E-03 -2.13886378514E-03 -4.47780526794E-03 -1.87586436662E-03 +7.23710852879E-01 -2.40648030746E-02
2.83000000000E+09 +5.97881843075E-01 -2.28307834270E-01 -5.11285192770E-03 -1.52756984089E-03 -4.84190590938E-03 -1.46686513934E-03 +7.13776986217E-01 -4.42666458598E-02
2.83500000000E+09 +5.80974334835E-01 -2.44823983898E-01 -5.59668172721E-03 -8.95431870276E-04 -5.35564177969E-03 -9.58766222784E-04 +7.03392526969E-01 -6.45093621235E-02
2.84000000000E+09 +5.61099175067E-01 -2.63329424446E-01 -5.82896805687E-03 -1.02154987464E-04 -5.71980452812E-03 -2.31711025961E-04 +6.92137167586E-01 -8.44033802206E-02
2.84500000000E+09 +5.38527951490E-01 -2.83378031515E-01 -5.79430607434E-03 +6.50991266280E-04 -5.82263682824E-03 +5.28127193221E-04 +6.80195748703E-01 -1.05420597923E-01
2.85000000000E+09 +5.14256452463E-01 -3.04085603353E-01 -5.83616227053E-03 +1.11659095456E-03 -5.83764553000E-03 +1.09843364131E-03 +6.66443740456E-01 -1.25925711323E-01
2.85500000000E+09 +4.88579126347E-01 -3.24617172214E-01 -6.34227180253E-03 +1.72314373235E-03 -6.26337885437E-03 +1.72140436570E-03 +6.51318428772E-01 -1.46310769721E-01
2.86000000000E+09 +4.63275735262E-01 -3.43545348210E-01 -6.16057243356E-03 +2.80409523965E-03 -6.07109493438E-03 +2.70570129811E-03 +6.35403398514E-01 -1.65820830538E-01
2.86500000000E+09 +4.39216466513E-01 -3.60434637339E-01 -6.20433189564E-03 +3.45205672740E-03 -6.16148062101E-03 +3.37230783213E-03 +6.19213074729E-01 -1.86540149897E-01
2.87000000000E+09 +4.16047284024E-01 -3.75729991412E-01 -6.17696241853E-03 +4.67977298406E-03 -6.23097105268E-03 +4.67790861283E-03 +6.00838767756E-01 -2.07311320405E-01
2.87500000000E+09 +3.93327526843E-01 -3.88824405946E-01 -5.71901477287E-03 +5.79275764131E-03 -5.56785042182E-03 +5.88629327336E-03 +5.79998603709E-01 -2.27303323185E-01
2.88000000000E+09 +3.70488130388E-01 -4.00306894613E-01 -4.96590512190E-03 +6.59908487797E-03 -4.61943447235E-03 +6.56059813129E-03 +5.59063428721E-01 -2.45972426370E-01
2.88500000000E+09 +3.45708101041E-01 -4.10144721779E-01 -4.31728915272E-03 +7.58941768891E-03 -3.99582100460E-03 +7.24449507940E-03 +5.36590805961E-01 -2.64313312161E-01
2.89000000000E+09 +3.19335743787E-01 -4.18745944616E-01 -3.35548219261E-03 +8.59710443916E-03 -3.30878439239E-03 +8.01704425875E-03 +5.12617984795E-01 -2.82930578224E-01
2.89500000000E+09 +2.89536879301E-01 -4.26278948716E-01 -1.98931481020E-03 +9.12088424540E-03 -2.30232318117E-03 +8.70481777562E-03 +4.85599589464E-01 -3.00942514590E-01
2.90000000000E+09 +2.57846505879E-01 -4.32828464762E-01 -1.12488424475E-03 +9.17427005468E-03 -1.43602656030E-03 +9.19203073166E-03 +4.58233648676E-01 -3.17074636889E-01
2.90500000000E+09 +2.23092244267E-01 -4.38879563305E-01 -2.42932065857E-04 +1.00734026813E-02 -2.37972970261E-04 +1.02442651578E-02 +4.29181898407E-01 -3.33493001639E-01
2.91000000000E+09 +1.86825009503E-01 -4.42839966025E-01 +1.13208162312E-03 +1.04486390849E-02 +1.48428660805E-03 +1.03692233955E-02 +3.98906469665E-01 -3.48164226216E-01
2.91500000000E+09 +1.51075757991E-01 -4.45367212519E-01 +2.95549161228E-03 +1.14676774314E-02 +3.12561902731E-03 +1.08941252656E-02 +3.67065495531E-01 -3.61021293493E-01
2.92000000000E+09 +1.15498262761E-01 -4.46435995764E-01 +5.70264937265E-03 +1.08061889648E-02 +5.24228656287E-03 +1.01752899971E-02 +3.33683460258E-01 -3.72425296009E-01
2.92500000000E+09 +8.09743760416E-02 -4.45929802569E-01 +7.29092343910E-03 +9.47260464967E-03 +6.45484273670E-03 +9.31943646364E-03 +2.98144205167E-01 -3.80336509136E-01
2.93000000000E+09 +4.69507453041E-02 -4.42579281775E-01 +8.43771961052E-03 +8.17164414803E-03 +7.82842583085E-03 +8.44258087277E-03 +2.62197951322E-01 -3.87672874501E-01
2.93500000000E+09 +1.37419668514E-02 -4.36664003201E-01 +9.35617975760E-03 +7.32805946606E-03 +9.07961345394E-03 +7.74095356102E-03 +2.24011667340E-01 -3.92789298174E-01
2.94000000000E+09 -1.92852008700E-02 -4.27799732321E-01 +1.03277331535E-02 +6.26277349714E-03 +1.02194307735E-02 +6.59185382969E-03 +1.85228225398E-01 -3.96733574705E-01
2.94500000000E+09 -5.21671128616E-02 -4.15694881707E-01 +1.21282485656E-02 +5.00869891339E-03 +1.19257251378E-02 +5.26174661931E-03 +1.44264406969E-01 -3.97260715590E-01
2.95000000000E+09 -8.56971751180E-02 -4.01253512070E-01 +1.26800010515E-02 +2.72489882005E-03 +1.25752610394E-02 +3.18574432563E-03 +1.04364663792E-01 -3.94547197084E-01
2.95500000000E+09 -1.20429213241E-01 -3.83115228145E-01 +1.30430120516E-02 +7.78536704576E-04 +1.32971003406E-02 +1.36280152599E-03 +6.49244416862E-02 -3.89904681979E-01
2.96000000000E+09 -1.54134797820E-01 -3.61498934468E-01 +1.27466494328E-02 -1.19283458179E-03 +1.33648210925E-02 -1.05724429512E-03 +2.35088055044E-02 -3.82790743048E-01
2.96500000000E+09 -1.86279821887E-01 -3.37825430576E-01 +1.25095611846E-02 -2.56647983383E-03 +1.28932515766E-02 -2.92716503024E-03 -1.73912267182E-02 -3.70603845243E-01
2.97000000000E+09 -2.16798912174E-01 -3.13037241823E-01 +1.23246307002E-02 -4.23898712880E-03 +1.21587755374E-02 -4.62962914414E-03 -5.78658104594E-02 -3.56546121483E-01
2.97500000000E+09 -2.45432761540E-01 -2.86595740893E-01 +1.22605202599E-02 -6.14686124226E-03 +1.18191146901E-02 -6.06873987989E-03 -9.73523859959E-02 -3.39433327321E-01
2.98000000000E+09 -2.72088865877E-01 -2.59338893445E-01 +1.09281272086E-02 -8.32856951652E-03 +1.08486465813E-02 -7.83946767463E-03 -1.35935097691E-01 -3.20245563059E-01
2.98500000000E+09 -2.96818370093E-01 -2.29811693482E-01 +9.79104809779E-03 -9.74390023756E-03 +1.02662555864E-02 -9.36175484174E-03 -1.72601858474E-01 -2.97506698359E-01
2.99000000000E+09 -3.18263051346E-01 -1.98730115378E-01 +7.76665505766E-03 -1.10047730325E-02 +8.37478835907E-03 -1.14469803485E-02 -2.08898907381E-01 -2.72492615620E-01
2.99500000000E+09 -3.37625990044E-01 -1.67037182903E-01 +6.48344985674E-03 -1.17309165381E-02 +6.39972914662E-03 -1.24370054220E-02 -2.42143757560E-01 -2.43145969993E-01
3.00000000000E+09 -3.56209470390E-01 -1.34241780768E-01 +4.89658824588E-03 -1.26213605512E-02 +4.23508238573E-03 -1.29407647252E-02 -2.73683299333E-01 -2.11859151413E-01
3.00500000000E+09 -3.72259347892E-01 -9.94833795129E-02 +3.26957163385E-03 -1.36731282458E-02 +2.68041307370E-03 -1.32871738065E-02 -3.02164217019E-01 -1.79336406588E-01
3.01000000000E+09 -3.85692406919E-01 -6.52814588656E-02 +5.70246270632E-04 -1.44149664680E-02 +6.32132476566E-04 -1.37579682671E-02 -3.30233169013E-01 -1.44729222285E-01
3.01500000000E+09 -3.98243851118E-01 -3.14450765972E-02 -2.06677442426E-03 -1.34741162245E-02 -1.61493500065E-03 -1.32504728906E-02 -3.54254826393E-01 -1.08238532182E-01
3.02000000000E+09 -4.07943775303E-01 +2.63517591942E-03 -3.38373577952E-03 -1.23100761994E-02 -3.11379137894E-03 -1.23719370243E-02 -3.74907525764E-01 -6.99295685739E-02
3.02500000000E+09 -4.14610108035E-01 +3.55738045595E-02 -4.72337887347E-03 -1.22573301286E-02 -4.68430179052E-03 -1.23284323138E-02 -3.92262710845E-01 -3.21576814892E-02
3.03000000000E+09 -4.18132285950E-01 +6.79400298093E-02 -6.53860580220E-03 -1.10157875892E-02 -6.42807070898E-03 -1.09582489283E-02 -4.07569777529E-01 +8.11388888883E-03
3.03500000000E+09 -4.18074375803E-01 +9.92876088689E-02 -7.82011581558E-03 -1.06177150250E-02 -7.51258243884E-03 -1.06831662212E-02 -4.18903096966E-01 +4.76449969534E-02
3.04000000000E+09 -4.15114737783E-01 +1.30414451851E-01 -9.94708842880E-03 -8.41583329246E-03 -9.88731398019E-03 -9.02651538699E-03 -4.27638861511E-01 +8.84426687750E-02
3.04500000000E+09 -4.09108064129E-01 +1.61638511404E-01 -1.00270582701E-02 -6.47072572737E-03 -1.05341578246E-02 -6.95903610201E-03 -4.33039622461E-01 +1.27782702406E-01
3.05000000000E+09 -4.01558560232E-01 +1.94026485192E-01 -1.04222546639E-02 -5.19157519021E-03 -1.12453199977E-02 -5.04954383356E-03 -4.35938221725E-01 +1.66837084128E-01
3.05500000000E+09 -3.90727476889E-01 +2.28289377718E-01 -1.07440332878E-02 -3.87023180863E-03 -1.11814363423E-02 -3.15837155205E-03 -4.36819472572E-01 +2.04652718967E-01
3.06000000000E+09 -3.77682708585E-01 +2.61549195006E-01 -1.12296314179E-02 -2.55155795679E-03 -1.08186015283E-02 -1.89408810598E-03 -4.35494716602E-01 +2.41369703272E-01
3.06500000000E+09 -3.63582303743E-01 +2.94702759005E-01 -1.15698816256E-02 -6.59971859377E-04 -1.07970518891E-02 -6.35261205276E-04 -4.33425191848E-01 +2.78848630377E-01
3.07000000000E+09 -3.48718946773E-01 +3.25095949486E-01 -1.08004385823E-02 +1.20097677178E-03 -1.05265200889E-02 +5.53888504307E-04 -4.26731879761E-01 +3.15384032496E-01
