# Hz S RI R 50
! CMT, C1220, 16058040, 17.2.0/1
! Date: 15/08/2018 10:47:38
! Data: Format (Calibration Info)
! Freq                      S11: Re/Im (F2)                       S21: Re/Im (F2)                       S12: Re/Im (F2)                       S22: Re/Im (F2)            
2.50000000000E+09 +5.81569178957E-01 +6.44020387005E-01 -1.44062109880E-03 +6.54647981820E-04 -1.52197264208E-03 +6.73627438461E-04 +5.63423138221E-01 +7.25142789133E-01
2.50500000000E+09 +5.89064926192E-01 +6.34737757263E-01 -1.35512076458E-03 +8.11788779197E-04 -1.40389387103E-03 +9.25976943400E-04 +5.69195198720E-01 +7.19495809037E-01
2.51000000000E+09 +5.97381082343E-01 +6.25308075975E-01 -1.33308721826E-03 +8.87606172981E-04 -1.26294580900E-03 +9.79369607371E-04 +5.74940367789E-01 +7.14146606570E-01
2.51500000000E+09 +6.05787634358E-01 +6.16423101913E-01 -1.24477630243E-03 +1.11905597573E-03 -1.19639857544E-03 +1.10278971771E-03 +5.80172509895E-01 +7.08456630618E-01
2.52000000000E+09 +6.13394852247E-01 +6.08063172878E-01 -1.06127121292E-03 +1.27968577619E-03 -1.07260268887E-03 +1.23431152813E-03 +5.85096281549E-01 +7.02231962086E-01
2.52500000000E+09 +6.19592628209E-01 +6.00793649018E-01 -9.01005115203E-04 +1.28406157811E-03 -9.71007494686E-04 +1.24477143452E-03 +5.90468631922E-01 +6.95872715991E-01
2.53000000000E+09 +6.24442834930E-01 +5.94597059627E-01 -9.02931518216E-04 +1.26854805882E-03 -9.15211749398E-04 +1.33199506173E-03 +5.96645412900E-01 +6.89105784586E-01
2.53500000000E+09 +6.28100089679E-01 +5.89023761371E-01 -8.79072419995E-04 +1.41519915450E-03 -8.75552345054E-04 +1.47608582019E-03 +6.02443525302E-01 +6.82598559461E-01
2.54000000000E+09 +6.30921555998E-01 +5.83279295535E-01 -7.33491599065E-04 +1.62850695709E-03 -7.04853223374E-04 +1.58137392962E-03 +6.08518834746E-01 +6.76217216827E-01
2.54500000000E+09 +6.33976197965E-01 +5.77169402366E-01 -4.73694422255E-04 +1.76856143473E-03 -6.11668712979E-04 +1.77333474226E-03 +6.14197546705E-01 +6.70062086033E-01
2.55000000000E+09 +6.37720224119E-01 +5.70247768080E-01 -1.58130853310E-04 +1.87669668861E-03 -3.51697517387E-04 +1.94719757257E-03 +6.19415954317E-01 +6.64169759861E-01
2.55500000000E+09 +6.42740335338E-01 +5.61702883568E-01 +6.00128829017E-05 +1.65761259803E-03 -4.84174297120E-05 +1.95987046647E-03 +6.24437014011E-01 +6.57985705950E-01
2.56000000000E+09 +6.49276177013E-01 +5.52697417202E-01 +4.29429833893E-05 +1.59168196389E-03 +1.99747699164E-04 +1.85925194111E-03 +6.29452942535E-01 +6.50851094836E-01
2.56500000000E+09 +6.57077641658E-01 +5.42483287731E-01 +1.18198772266E-04 +1.71563300657E-03 +4.99605572959E-04 +1.84827192123E-03 +6.34799577061E-01 +6.43629975847E-01
2.57000000000E+09 +6.65315300534E-01 +5.32026982941E-01 +3.19083858053E-04 +1.78456125554E-03 +7.09905293815E-04 +1.65845636782E-03 +6.40504643135E-01 +6.36141511005E-01
2.57500000000E+09 +6.73398891606E-01 +5.21803373135E-01 +5.73994497622E-04 +1.81247277842E-03 +7.64569527633E-04 +1.46171701457E-03 +6.46432403628E-01 +6.28669558634E-01
2.58000000000E+09 +6.80086999082E-01 +5.12558783024E-01 +8.43832995601E-04 +1.71269271086E-03 +8.04740006874E-04 +1.36797166408E-03 +6.52081527594E-01 +6.21246721653E-01
2.58500000000E+09 +6.85540252315E-01 +5.04204835165E-01 +1.02231580295E-03 +1.43295843709E-03 +8.46789447379E-04 +1.34173028736E-03 +6.57261951012E-01 +6.13515130678E-01
2.59000000000E+09 +6.89361925205E-01 +4.96698656244E-01 +1.03445541406E-03 +1.27846476384E-03 +8.67433251404E-04 +1.30597732500E-03 +6.62121910256E-01 +6.05890000407E-01
2.59500000000E+09 +6.92202907673E-01 +4.89257058077E-01 +1.11826049774E-03 +1.27134105008E-03 +9.96935771133E-04 +1.34282509411E-03 +6.67043122753E-01 +5.97829314258E-01
2.60000000000E+09 +6.93967132514E-01 +4.81015011049E-01 +1.29470165936E-03 +1.20786562069E-03 +1.27314294202E-03 +1.28325947929E-03 +6.72195639138E-01 +5.89735820981E-01
2.60500000000E+09 +6.95993263094E-01 +4.71362122030E-01 +1.40491030964E-03 +1.02884620836E-03 +1.40708704431E-03 +1.01645958265E-03 +6.77979955587E-01 +5.80801557230E-01
2.61000000000E+09 +6.98408415625E-01 +4.59517664395E-01 +1.40362343780E-03 +8.77574879657E-04 +1.38885575456E-03 +8.89990690642E-04 +6.83300889268E-01 +5.71734143997E-01
2.61500000000E+09 +7.02098801443E-01 +4.45869157382E-01 +1.49079337429E-03 +7.49915004687E-04 +1.50852616725E-03 +8.06609362932E-04 +6.88169195590E-01 +5.62947390315E-01
2.62000000000E+09 +7.06483567997E-01 +4.29929014563E-01 +1.45504115420E-03 +5.61012581144E-04 +1.56377815656E-03 +5.90823627320E-04 +6.92981145446E-01 +5.54138449098E-01
2.62500000000E+09 +7.11718060936E-01 +4.13028679619E-01 +1.41051190250E-03 +5.70990657362E-04 +1.51393343014E-03 +5.39614245022E-04 +6.97927517010E-01 +5.45455473476E-01
2.63000000000E+09 +7.17336013451E-01 +3.96147886850E-01 +1.56456155818E-03 +6.07871863906E-04 +1.58068967501E-03 +3.58052860021E-04 +7.02771016040E-01 +5.36500387172E-01
2.63500000000E+09 +7.22501510760E-01 +3.80024988809E-01 +1.75241258039E-03 +3.92484559540E-04 +1.54836787749E-03 +1.43919984219E-04 +7.07453412350E-01 +5.27247827603E-01
2.64000000000E+09 +7.26880293858E-01 +3.65562089826E-01 +1.72364601585E-03 +2.23233206858E-04 +1.46087225122E-03 +1.38022258723E-04 +7.12080141350E-01 +5.17593171325E-01
2.64500000000E+09 +7.30151691364E-01 +3.53418336826E-01 +1.68114913382E-03 +4.16755858958E-05 +1.50489216162E-03 +1.25662309423E-04 +7.16716184873E-01 +5.07952717238E-01
2.65000000000E+09 +7.32146833879E-01 +3.43367783592E-01 +1.61429665182E-03 -5.66424419886E-05 +1.50481055312E-03 +9.07900691348E-05 +7.21303495130E-01 +4.97835782365E-01
2.65500000000E+09 +7.33735181755E-01 +3.34203849049E-01 +1.54765083610E-03 -7.15326526256E-05 +1.65613988563E-03 +4.55877494384E-05 +7.25438731558E-01 +4.87021629246E-01
2.66000000000E+09 +7.34763550138E-01 +3.25011903274E-01 +1.64577866877E-03 -4.67596195554E-05 +1.80511536977E-03 -5.53401860315E-05 +7.29523465605E-01 +4.75949278854E-01
2.66500000000E+09 +7.35629836477E-01 +3.14959044444E-01 +1.69182229641E-03 -2.11416328430E-04 +1.74647782090E-03 -3.45731456515E-04 +7.33693314056E-01 +4.64903598597E-01
2.67000000000E+09 +7.36562646232E-01 +3.02777678409E-01 +1.76949366144E-03 -3.06481776589E-04 +1.66835258067E-03 -3.99987023521E-04 +7.38208484947E-01 +4.54217521442E-01
2.67500000000E+09 +7.37558510665E-01 +2.88422985633E-01 +1.84588922087E-03 -4.17826692774E-04 +1.70396714675E-03 -4.77419324658E-04 +7.42608679517E-01 +4.42962863905E-01
2.68000000000E+09 +7.38601334887E-01 +2.72355932313E-01 +1.92018905422E-03 -6.67716888458E-04 +1.84167734592E-03 -5.44616775110E-04 +7.46599974913E-01 +4.31650495956E-01
2.68500000000E+09 +7.39718534236E-01 +2.55224982701E-01 +1.79715413123E-03 -8.70741088680E-04 +1.72834788784E-03 -8.25955577978E-04 +7.49719117573E-01 +4.20093589557E-01
2.69000000000E+09 +7.40635478419E-01 +2.37809736167E-01 +1.72371076403E-03 -8.91100397245E-04 +1.70435762237E-03 -8.32907164210E-04 +7.52409274466E-01 +4.08102475261E-01
2.69500000000E+09 +7.41299566730E-01 +2.21355293396E-01 +1.92049347004E-03 -1.02052589796E-03 +1.86404577955E-03 -9.53891747170E-04 +7.55380357887E-01 +3.95552583984E-01
2.70000000000E+09 +7.41965831962E-01 +2.06089214172E-01 +2.03805427940E-03 -1.26278640387E-03 +1.99754215735E-03 -1.23465065353E-03 +7.58479884337E-01 +3.82258322385E-01
2.70500000000E+09 +7.42342301018E-01 +1.92192833305E-01 +1.90472115039E-03 -1.63646709549E-03 +1.89986513689E-03 -1.52902952681E-03 +7.61607696427E-01 +3.68927126067E-01
2.71000000000E+09 +7.42179856594E-01 +1.79309883662E-01 +1.76528220984E-03 -1.97394321785E-03 +1.80649023486E-03 -1.90013858273E-03 +7.64253948669E-01 +3.55538111267E-01
2.71500000000E+09 +7.42065205239E-01 +1.66800080623E-01 +1.48103180847E-03 -2.09284306319E-03 +1.61133678620E-03 -2.15131706853E-03 +7.66524728612E-01 +3.43019398824E-01
2.72000000000E+09 +7.41386950456E-01 +1.54249983663E-01 +1.36193873959E-03 -2.21939717257E-03 +1.31950407156E-03 -2.39846862994E-03 +7.68473952250E-01 +3.30196620324E-01
2.72500000000E+09 +7.40942009762E-01 +1.40021588619E-01 +1.18483247827E-03 -2.40214732919E-03 +8.88725379311E-04 -2.49671657658E-03 +7.69689255067E-01 +3.16621849127E-01
2.73000000000E+09 +7.39541987863E-01 +1.24097938084E-01 +1.16093727373E-03 -2.49321244088E-03 +8.36878695276E-04 -2.41573969368E-03 +7.70734647323E-01 +3.02275658187E-01
2.73500000000E+09 +7.37275525765E-01 +1.06559004870E-01 +8.99888093703E-04 -2.90734464206E-03 +7.77637588698E-04 -2.53607162031E-03 +7.71184388978E-01 +2.87566554036E-01
2.74000000000E+09 +7.34365785369E-01 +8.82364450486E-02 +5.37149935917E-04 -2.97867188017E-03 +6.49040588213E-04 -2.63455068902E-03 +7.72574809703E-01 +2.72752284947E-01
2.74500000000E+09 +7.30471401651E-01 +6.91339917483E-02 +2.17941016823E-04 -3.03646925085E-03 +6.53585646820E-04 -2.82725313699E-03 +7.73835671729E-01 +2.58032042180E-01
2.75000000000E+09 +7.25542265843E-01 +5.03202172818E-02 +2.30422377205E-04 -2.98646857164E-03 +5.72399470880E-04 -3.05576828155E-03 +7.74813420526E-01 +2.42976760935E-01
2.75500000000E+09 +7.19997625219E-01 +3.27882293204E-02 -4.94573735905E-05 -3.51384010490E-03 +1.61175894453E-04 -3.77159505021E-03 +7.74849582055E-01 +2.28112068082E-01
2.76000000000E+09 +7.14695759538E-01 +1.59175407165E-02 -6.15354943822E-04 -3.57026645033E-03 -6.56877417326E-04 -3.87587400599E-03 +7.74232721699E-01 +2.12711619366E-01
2.76500000000E+09 +7.08950090663E-01 -5.57438359152E-04 -1.29902195271E-03 -3.59254215613E-03 -1.38225613536E-03 -3.75525293224E-03 +7.73415094716E-01 +1.96699943465E-01
2.77000000000E+09 +7.03068015977E-01 -1.73079662046E-02 -1.68387923743E-03 -3.15904070883E-03 -1.85956242508E-03 -3.20183874706E-03 +7.72863992898E-01 +1.79449046685E-01
2.77500000000E+09 +6.97110781966E-01 -3.50644797290E-02 -1.56497491230E-03 -2.66014875466E-03 -1.74684536729E-03 -2.76780998291E-03 +7.71275886705E-01 +1.61288084434E-01
2.78000000000E+09 +6.90613131828E-01 -5.40923714600E-02 -1.39424078136E-03 -3.01589654945E-03 -1.58235904770E-03 -2.98378835166E-03 +7.69258369336E-01 +1.43762324624E-01
2.78500000000E+09 +6.83471098796E-01 -7.42718284583E-02 -1.95233098917E-03 -3.27936997673E-03 -2.08993394151E-03 -3.14690354261E-03 +7.67383685910E-01 +1.26217240538E-01
2.79000000000E+09 +6.76075311403E-01 -9.59978159267E-02 -2.52345166387E-03 -3.13912780916E-03 -2.53801923464E-03 -2.87973759309E-03 +7.64586892312E-01 +1.08962787350E-01
2.79500000000E+09 +6.67615388499E-01 -1.18121398767E-01 -2.78513413347E-03 -3.06185307998E-03 -2.63043275929E-03 -2.87389238533E-03 +7.60958542628E-01 +9.08519287865E-02
2.80000000000E+09 +6.58076192901E-01 -1.39788803897E-01 -3.33472750386E-03 -2.86305581266E-03 -3.07530978708E-03 -2.83211653565E-03 +7.55935850371E-01 +7.22139547381E-02
2.80500000000E+09 +6.47821246948E-01 -1.59832762487E-01 -3.47754433080E-03 -2.68340762110E-03 -3.32544780955E-03 -2.82905802801E-03 +7.50041072721E-01 +5.27464018300E-02
2.81000000000E+09 +6.36676605209E-01 -1.77639090344E-01 -4.04102267284E-03 -2.83069309376E-03 -4.13625836193E-03 -2.95643908395E-03 +7.43553870388E-01 +3.37478194561E-02
2.81500000000E+09 +6.25186880623E-01 -1.93412908079E-01 -4.69730392511E-03 -2.28580974891E-03 -4.82905727252E-03 -2.22016627464E-03 +7.37359006306E-01 +1.39643064100E-02
2.82000000000E+09 +6.12790024638E-01 -2.08164501555E-01 -5.08857493354E-03 -2.06856434919E-03 -5.08155065914E-03 -1.84732874311E-03 +7.29935010836E-01 -6.68475220924E-03
2.82500000000E+09 +5.98633518798E-01 -2.22309280305E-01 -5.75199005331E-03 -1.49055744161E-03 -5.57136038208E-03 -1.26389835997E-03 +7.21203735324E-01 -2.67589251674E-02
2.83000000000E+09 +5.82962277516E-01 -2.36581323257E-01 -6.12186180994E-03 -7.79117652131E-04 -5.79878537148E-03 -7.66145272443E-04 +7.11472963349E-01 -4.62513904461E-02
2.83500000000E+09 +5.65876406759E-01 -2.52645022191E-01 -6.55633823150E-03 -6.80804943310E-06 -6.33005344349E-03 -1.70344062377E-04 +7.01411914625E-01 -6.62411944078E-02
2.84000000000E+09 +5.45690501998E-01 -2.70622904811E-01 -6.66452786177E-03 +9.65554267673E-04 -6.64315434534E-03 +7.02838046304E-04 +6.90160026886E-01 -8.61271034812E-02
2.84500000000E+09 +5.23054964891E-01 -2.89835746629E-01 -6.48262028550E-03 +1.75645532610E-03 -6.56497584997E-03 +1.67357823501E-03 +6.77749845734E-01 -1.06791178310E-01
2.85000000000E+09 +4.98834091364E-01 -3.09807525246E-01 -6.46496863101E-03 +2.06560264562E-03 -6.46288134147E-03 +2.18472538626E-03 +6.64053528535E-01 -1.26982729692E-01
2.85500000000E+09 +4.73034668158E-01 -3.29164472976E-01 -7.02313577806E-03 +2.95154172256E-03 -6.95467328857E-03 +2.88182326590E-03 +6.49120208076E-01 -1.47533914454E-01
2.86000000000E+09 +4.48053653450E-01 -3.46728550867E-01 -6.64532215536E-03 +4.31305545624E-03 -6.57733214154E-03 +4.18901172959E-03 +6.33307110923E-01 -1.66906115669E-01
2.86500000000E+09 +4.24309800254E-01 -3.62586429655E-01 -6.44821069822E-03 +5.01152551958E-03 -6.48669217688E-03 +4.89311498489E-03 +6.17128263046E-01 -1.87276359355E-01
2.87000000000E+09 +4.01611463735E-01 -3.76984831850E-01 -6.08874155297E-03 +6.28470866150E-03 -6.08871781541E-03 +6.28860345228E-03 +5.98848049615E-01 -2.07699720908E-01
2.87500000000E+09 +3.79417633741E-01 -3.89457180582E-01 -5.41257490799E-03 +7.06084138097E-03 -5.22408640367E-03 +7.18037759839E-03 +5.78316899354E-01 -2.27060519083E-01
2.88000000000E+09 +3.56649999135E-01 -4.00255791692E-01 -4.82087084628E-03 +7.88766705791E-03 -4.42093739089E-03 +7.78401817296E-03 +5.57849499768E-01 -2.45391387260E-01
2.88500000000E+09 +3.32329903669E-01 -4.09208474495E-01 -4.11412017591E-03 +9.05333813321E-03 -3.75248264109E-03 +8.62860402468E-03 +5.35654674018E-01 -2.64016792601E-01
2.89000000000E+09 +3.06824792671E-01 -4.17338190774E-01 -2.83879887243E-03 +1.01227968589E-02 -2.87148891378E-03 +9.46238367577E-03 +5.11559562850E-01 -2.82657906582E-01
2.89500000000E+09 +2.77600359653E-01 -4.24509366985E-01 -1.20099353235E-03 +1.05339434484E-02 -1.66368123224E-03 +1.01494966215E-02 +4.84651391436E-01 -3.00435336541E-01
2.90000000000E+09 +2.46445034085E-01 -4.30408788352E-01 -2.69379871271E-04 +1.04469948357E-02 -6.46880587491E-04 +1.05135187392E-02 +4.57827373900E-01 -3.16456013699E-01
2.90500000000E+09 +2.12455376451E-01 -4.35667294624E-01 +7.86789191471E-04 +1.12784420391E-02 +7.73920722485E-04 +1.14117873715E-02 +4.29326736747E-01 -3.32700269096E-01
2.91000000000E+09 +1.76994726342E-01 -4.38614867172E-01 +2.37291451947E-03 +1.16790896795E-02 +2.66227273033E-03 +1.14769080561E-02 +3.99884314233E-01 -3.47636251895E-01
2.91500000000E+09 +1.42972679922E-01 -4.40139423762E-01 +4.44036463007E-03 +1.23145163793E-02 +4.55408546069E-03 +1.16246665095E-02 +3.68263687783E-01 -3.60656605745E-01
2.92000000000E+09 +1.08838679060E-01 -4.40949928198E-01 +6.94147267292E-03 +1.12860906998E-02 +6.37725507528E-03 +1.06384543442E-02 +3.35293259265E-01 -3.72618416494E-01
2.92500000000E+09 +7.54549250005E-02 -4.40017018618E-01 +8.46253276140E-03 +1.02057566831E-02 +7.59907563909E-03 +1.00002581133E-02 +2.99605057804E-01 -3.81171254281E-01
2.93000000000E+09 +4.26095633339E-02 -4.36358200849E-01 +9.70057419922E-03 +8.89836653455E-03 +8.96187985423E-03 +9.20771251916E-03 +2.63094103179E-01 -3.88828702355E-01
2.93500000000E+09 +1.05513381578E-02 -4.30228263559E-01 +1.08170431045E-02 +8.06633204141E-03 +1.04925707263E-02 +8.56092019969E-03 +2.24742967873E-01 -3.94405652891E-01
2.94000000000E+09 -2.15109054018E-02 -4.21065256585E-01 +1.20502321278E-02 +7.01119379007E-03 +1.18842132241E-02 +7.27522905609E-03 +1.85327949772E-01 -3.98614480258E-01
2.94500000000E+09 -5.29954583799E-02 -4.08726008242E-01 +1.41785711769E-02 +5.55546949359E-03 +1.39526768105E-02 +5.86755861012E-03 +1.44736958899E-01 -3.98642558768E-01
2.95000000000E+09 -8.49496435393E-02 -3.94724802198E-01 +1.50475406540E-02 +2.80719926129E-03 +1.49499803929E-02 +3.36814610835E-03 +1.05362627514E-01 -3.96739115580E-01
2.95500000000E+09 -1.18470053400E-01 -3.77004367782E-01 +1.51565883025E-02 +3.49052246128E-04 +1.54888411344E-02 +1.02124691075E-03 +6.52877414056E-02 -3.92577133854E-01
2.96000000000E+09 -1.50674650056E-01 -3.55945704598E-01 +1.51247537379E-02 -1.71138118033E-03 +1.57545470027E-02 -1.55569930555E-03 +2.31960352484E-02 -3.85089924323E-01
2.96500000000E+09 -1.81682159811E-01 -3.33413532679E-01 +1.46955648486E-02 -3.55361913116E-03 +1.51182376270E-02 -3.95822285346E-03 -1.77482059891E-02 -3.72810301166E-01
2.97000000000E+09 -2.11381198519E-01 -3.09296694649E-01 +1.44156079390E-02 -5.36396769373E-03 +1.42707507349E-02 -5.77609470251E-03 -5.88415913335E-02 -3.58817024991E-01
2.97500000000E+09 -2.39232282701E-01 -2.83594404028E-01 +1.45288032286E-02 -7.83629149807E-03 +1.39995933328E-02 -7.66348974527E-03 -9.86008114433E-02 -3.42160734092E-01
2.98000000000E+09 -2.65085045171E-01 -2.56910404069E-01 +1.26367182299E-02 -1.05636036547E-02 +1.26456784421E-02 -9.92200552838E-03 -1.37845516303E-01 -3.22856663234E-01
2.98500000000E+09 -2.88864222573E-01 -2.28092978825E-01 +1.10533631295E-02 -1.22205684385E-02 +1.17703185699E-02 -1.18954773451E-02 -1.74726644954E-01 -3.00392872430E-01
2.99000000000E+09 -3.09593139255E-01 -1.98241832343E-01 +8.79950121330E-03 -1.35024497077E-02 +9.54004641768E-03 -1.39783276349E-02 -2.11946460379E-01 -2.74910269740E-01
2.99500000000E+09 -3.28317714522E-01 -1.68209795949E-01 +7.06593846604E-03 -1.45930399520E-02 +6.98879871117E-03 -1.53810481334E-02 -2.45397188037E-01 -2.44788910353E-01
3.00000000000E+09 -3.47544247154E-01 -1.36831301920E-01 +4.94590448701E-03 -1.53689968979E-02 +4.10609769852E-03 -1.56551590132E-02 -2.77005326043E-01 -2.13330579475E-01
3.00500000000E+09 -3.63674122968E-01 -1.02800236032E-01 +2.87867849649E-03 -1.64211342325E-02 +2.20785675098E-03 -1.59455655515E-02 -3.06819315033E-01 -1.80228806688E-01
3.01000000000E+09 -3.77435792290E-01 -6.96049016968E-02 -3.48254672712E-04 -1.67182525920E-02 -1.86997281152E-04 -1.59168664648E-02 -3.35238368854E-01 -1.44149874424E-01
3.01500000000E+09 -3.89926849110E-01 -3.61275305588E-02 -2.73598992968E-03 -1.57189242798E-02 -2.20948007755E-03 -1.54191812386E-02 -3.59392486818E-01 -1.06927297014E-01
3.02000000000E+09 -3.98988684321E-01 -2.46619756182E-03 -4.56396302054E-03 -1.46688526648E-02 -4.24361191225E-03 -1.47562946176E-02 -3.79678465997E-01 -6.76516918717E-02
3.02500000000E+09 -4.04888876296E-01 +2.91832693875E-02 -6.25618215883E-03 -1.41556075477E-02 -6.16499032541E-03 -1.41940238762E-02 -3.96405138783E-01 -2.89927068573E-02
3.03000000000E+09 -4.08329252757E-01 +6.02863734281E-02 -8.13017153999E-03 -1.27756025876E-02 -8.03782369856E-03 -1.27222491631E-02 -4.10562965166E-01 +1.14535323031E-02
3.03500000000E+09 -4.08837512900E-01 +9.09874752580E-02 -9.93062771440E-03 -1.19373893918E-02 -9.52715369826E-03 -1.21369004789E-02 -4.21609641961E-01 +5.10458671648E-02
3.04000000000E+09 -4.06175672004E-01 +1.21888713963E-01 -1.16172509014E-02 -9.37125728177E-03 -1.15384195800E-02 -1.00357078489E-02 -4.29954724660E-01 +9.24153713006E-02
3.04500000000E+09 -4.00751047614E-01 +1.53083923356E-01 -1.18530369680E-02 -7.54550985377E-03 -1.23981018698E-02 -8.21678205625E-03 -4.35055362375E-01 +1.32373087555E-01
3.05000000000E+09 -3.92969016484E-01 +1.85740082337E-01 -1.24908203170E-02 -5.92543967308E-03 -1.34164528630E-02 -5.81944740442E-03 -4.37337768749E-01 +1.71711394987E-01
3.05500000000E+09 -3.81972537329E-01 +2.19404133715E-01 -1.28618588805E-02 -4.39486465194E-03 -1.33171227199E-02 -3.53545165396E-03 -4.38013725669E-01 +2.09609046524E-01
3.06000000000E+09 -3.69071971337E-01 +2.52403233383E-01 -1.31887135916E-02 -2.95472203878E-03 -1.28389926564E-02 -2.17405793511E-03 -4.36255760414E-01 +2.46666431965E-01
3.06500000000E+09 -3.54753739817E-01 +2.84687545557E-01 -1.38181574439E-02 -8.24102242081E-04 -1.29659358529E-02 -7.87206444193E-04 -4.33381542435E-01 +2.83704066389E-01
3.07000000000E+09 -3.40500367968E-01 +3.14388534735E-01 -1.31119511680E-02 +1.48614864669E-03 -1.27177605072E-02 +7.01836243870E-04 -4.26422626543E-01 +3.20337121728E-01
