# Hz S RI R 50
! CMT, C1220, 16058040, 17.2.0/1
! Date: 15/08/2018 10:50:10
! Data: Format (Calibration Info)
! Freq                      S11: Re/Im (F2)                       S21: Re/Im (F2)                       S12: Re/Im (F2)                       S22: Re/Im (F2)            
2.50000000000E+09 +5.80403047475E-01 +6.49949230656E-01 -1.14213684522E-03 +5.89137259810E-04 -1.23244006565E-03 +5.71465916274E-04 +5.62397284939E-01 +7.25981608061E-01
2.50500000000E+09 +5.87977219853E-01 +6.40795923054E-01 -1.08374965871E-03 +6.74178837566E-04 -1.09878635722E-03 +7.04239961954E-04 +5.68086780896E-01 +7.20342832926E-01
2.51000000000E+09 +5.96297827294E-01 +6.31397154240E-01 -1.05358923434E-03 +7.43202453494E-04 -1.06677539535E-03 +8.26531640904E-04 +5.73762371298E-01 +7.15005610320E-01
2.51500000000E+09 +6.04676234309E-01 +6.22545383136E-01 -1.02556765995E-03 +8.85402490279E-04 -9.94338752763E-04 +8.96913634026E-04 +5.79113213802E-01 +7.09309522420E-01
2.52000000000E+09 +6.12391772622E-01 +6.14175215174E-01 -8.67557413548E-04 +1.01748657720E-03 -8.80291853424E-04 +1.01595704279E-03 +5.84064351595E-01 +7.03150836989E-01
2.52500000000E+09 +6.18479545960E-01 +6.06992532614E-01 -7.64060902132E-04 +9.89030953427E-04 -7.78992654352E-04 +1.03315101897E-03 +5.89541764741E-01 +6.96801103377E-01
2.53000000000E+09 +6.23342883172E-01 +6.00820569506E-01 -7.46546603153E-04 +9.93602061824E-04 -7.90105190451E-04 +1.02942223599E-03 +5.95434333829E-01 +6.89982756402E-01
2.53500000000E+09 +6.27062866232E-01 +5.95278217167E-01 -7.49535808520E-04 +1.13683561088E-03 -7.54863285587E-04 +1.14588676544E-03 +6.01382785120E-01 +6.83485073438E-01
2.54000000000E+09 +6.30106410213E-01 +5.89593364372E-01 -6.51369569117E-04 +1.36424461671E-03 -7.05723152776E-04 +1.30449594659E-03 +6.07384721518E-01 +6.77245350934E-01
2.54500000000E+09 +6.33183144281E-01 +5.83594945762E-01 -4.72274781447E-04 +1.48860097735E-03 -5.56244690475E-04 +1.44757549114E-03 +6.13144038409E-01 +6.71117287237E-01
2.55000000000E+09 +6.36880849138E-01 +5.76590829618E-01 -1.90019593993E-04 +1.52479814638E-03 -3.17924528053E-04 +1.63634977844E-03 +6.18307595013E-01 +6.65195356249E-01
2.55500000000E+09 +6.41892968613E-01 +5.68208717325E-01 +2.46995999240E-05 +1.34682920344E-03 -8.28279859903E-05 +1.55817178269E-03 +6.23447052434E-01 +6.59053463032E-01
2.56000000000E+09 +6.48498973892E-01 +5.59124292722E-01 +3.56108611857E-06 +1.31396426806E-03 +1.23767063228E-04 +1.55406424696E-03 +6.28477243011E-01 +6.51922188515E-01
2.56500000000E+09 +6.56429345327E-01 +5.48944173692E-01 +7.36101298113E-05 +1.41820404004E-03 +3.36358456223E-04 +1.51958271975E-03 +6.33830898758E-01 +6.44717427239E-01
2.57000000000E+09 +6.64758588499E-01 +5.38486411586E-01 +2.78274807371E-04 +1.46017058638E-03 +6.21438796616E-04 +1.37454430027E-03 +6.39476552733E-01 +6.37358716325E-01
2.57500000000E+09 +6.72775975504E-01 +5.28333279240E-01 +4.75984910354E-04 +1.46104334131E-03 +6.07586579791E-04 +1.21781764057E-03 +6.45334378524E-01 +6.29802269908E-01
2.58000000000E+09 +6.79502108820E-01 +5.19370934718E-01 +6.68859084134E-04 +1.33381938288E-03 +6.50972538951E-04 +1.10054442375E-03 +6.50865935670E-01 +6.22419273268E-01
2.58500000000E+09 +6.85057043310E-01 +5.11017642217E-01 +8.01278413163E-04 +1.17918281041E-03 +6.21316318607E-04 +1.03465182004E-03 +6.56215072183E-01 +6.14683268073E-01
2.59000000000E+09 +6.89044159924E-01 +5.03626707149E-01 +7.64923058849E-04 +1.03935352521E-03 +6.42935176014E-04 +1.07238551186E-03 +6.61156096569E-01 +6.06944141051E-01
2.59500000000E+09 +6.92076617243E-01 +4.96235762571E-01 +8.45120486059E-04 +1.07939904318E-03 +8.07333365826E-04 +1.11118604991E-03 +6.66272426786E-01 +5.99172641581E-01
2.60000000000E+09 +6.93900725131E-01 +4.88264147673E-01 +1.03405190214E-03 +9.37824226763E-04 +9.71427447219E-04 +9.90098321117E-04 +6.71441953882E-01 +5.90809183240E-01
2.60500000000E+09 +6.95909172782E-01 +4.78728428664E-01 +1.07835245494E-03 +7.44961172994E-04 +1.06700781201E-03 +7.73846463624E-04 +6.77136189999E-01 +5.82126523812E-01
2.61000000000E+09 +6.98396828139E-01 +4.67122875279E-01 +9.92844909627E-04 +6.80063594722E-04 +9.65858090948E-04 +6.65996384427E-04 +6.82564304509E-01 +5.73030926809E-01
2.61500000000E+09 +7.02004116471E-01 +4.53636236698E-01 +1.01799323655E-03 +6.66550908038E-04 +1.06546517847E-03 +6.93013433710E-04 +6.87457727742E-01 +5.64295236206E-01
2.62000000000E+09 +7.06513323237E-01 +4.37847043609E-01 +1.02889591762E-03 +5.11091547840E-04 +1.08003038161E-03 +5.55342859333E-04 +6.92228258444E-01 +5.55381264805E-01
2.62500000000E+09 +7.11769567786E-01 +4.21122215905E-01 +9.76172179676E-04 +6.03866391384E-04 +1.11456804093E-03 +5.79014647786E-04 +6.97192545012E-01 +5.46792466050E-01
2.63000000000E+09 +7.17317718056E-01 +4.04295315605E-01 +1.13408177223E-03 +5.94557973095E-04 +1.18994449065E-03 +4.61574626286E-04 +7.02113260477E-01 +5.37739012053E-01
2.63500000000E+09 +7.22589371702E-01 +3.88264582387E-01 +1.28432322409E-03 +4.55946822536E-04 +1.25510991027E-03 +2.58999497621E-04 +7.06816897114E-01 +5.28373513975E-01
2.64000000000E+09 +7.26929619940E-01 +3.74014830113E-01 +1.24556848297E-03 +2.84179581563E-04 +1.04829800920E-03 +2.71365034217E-04 +7.11401564955E-01 +5.18690796737E-01
2.64500000000E+09 +7.30321381172E-01 +3.62167000713E-01 +1.26120586956E-03 +2.64894298310E-04 +1.12693847523E-03 +3.16992578354E-04 +7.16090278864E-01 +5.09195162614E-01
2.65000000000E+09 +7.32523644729E-01 +3.52120068868E-01 +1.17882829601E-03 +1.40611672986E-04 +1.15822345705E-03 +2.62543137344E-04 +7.20705534528E-01 +4.99049738334E-01
2.65500000000E+09 +7.34252625990E-01 +3.43043031611E-01 +1.15858108605E-03 +1.73289128795E-04 +1.17938066701E-03 +2.13020516259E-04 +7.24752968444E-01 +4.88289532360E-01
2.66000000000E+09 +7.35412777276E-01 +3.33899806554E-01 +1.23599881615E-03 +2.51535804478E-04 +1.31454033219E-03 +2.44145085539E-04 +7.28906286247E-01 +4.77168149545E-01
2.66500000000E+09 +7.36390441552E-01 +3.24057528706E-01 +1.36698159601E-03 +1.47878511296E-04 +1.41419221605E-03 +1.28219687254E-04 +7.33151662480E-01 +4.66021908868E-01
2.67000000000E+09 +7.37588100629E-01 +3.12140099501E-01 +1.47663464721E-03 +5.41455721041E-05 +1.41714055384E-03 -2.02176995714E-05 +7.37618557933E-01 +4.55326298630E-01
2.67500000000E+09 +7.38744463583E-01 +2.98014232790E-01 +1.59472045364E-03 -1.50788160110E-05 +1.49117054322E-03 -5.63888882229E-05 +7.42066641727E-01 +4.44134658294E-01
2.68000000000E+09 +7.39841008136E-01 +2.82156485154E-01 +1.71622925702E-03 -2.56039293949E-04 +1.60450898320E-03 -2.13279496149E-04 +7.46163676404E-01 +4.32756058884E-01
2.68500000000E+09 +7.41205471169E-01 +2.65207012073E-01 +1.54018963975E-03 -4.36007254768E-04 +1.51994415364E-03 -3.51252026965E-04 +7.49135508537E-01 +4.21178396535E-01
2.69000000000E+09 +7.42371488010E-01 +2.47790722559E-01 +1.54831239404E-03 -3.07474717103E-04 +1.56794864718E-03 -3.02240073586E-04 +7.51944698993E-01 +4.09154158661E-01
2.69500000000E+09 +7.43375008956E-01 +2.31335459540E-01 +1.85678313644E-03 -4.07556087583E-04 +1.80233485022E-03 -4.20840128670E-04 +7.54814784779E-01 +3.96517873901E-01
2.70000000000E+09 +7.44238090716E-01 +2.15956748888E-01 +1.96908237227E-03 -7.14537692094E-04 +1.93436145257E-03 -7.26902314920E-04 +7.57878608638E-01 +3.83437878431E-01
2.70500000000E+09 +7.44886546034E-01 +2.02080132396E-01 +1.96325838908E-03 -1.05557515306E-03 +2.00812731650E-03 -9.80152979044E-04 +7.60995269115E-01 +3.69859411608E-01
2.71000000000E+09 +7.44904203079E-01 +1.89091349594E-01 +1.81048658597E-03 -1.41901128958E-03 +1.93362558965E-03 -1.33296948927E-03 +7.63615777090E-01 +3.56465006104E-01
2.71500000000E+09 +7.44970758321E-01 +1.76475608157E-01 +1.69709921468E-03 -1.53677979779E-03 +1.85492153594E-03 -1.68086353943E-03 +7.65725713498E-01 +3.43970258755E-01
2.72000000000E+09 +7.44757418251E-01 +1.63727024107E-01 +1.57032488329E-03 -1.76840088708E-03 +1.55378694918E-03 -1.98165917025E-03 +7.67831610586E-01 +3.31362521545E-01
2.72500000000E+09 +7.44615625989E-01 +1.49630177523E-01 +1.33248765728E-03 -1.86899383855E-03 +1.11287148099E-03 -1.99866241071E-03 +7.68924560100E-01 +3.17788948099E-01
2.73000000000E+09 +7.43471969395E-01 +1.33894948338E-01 +1.39574180964E-03 -1.90508044343E-03 +1.10596381140E-03 -1.87188815755E-03 +7.69986097744E-01 +3.03530425261E-01
2.73500000000E+09 +7.41767802179E-01 +1.16253026463E-01 +1.37281199399E-03 -2.31103909890E-03 +1.22583808369E-03 -1.98413604259E-03 +7.70471737894E-01 +2.88867807596E-01
2.74000000000E+09 +7.38962886075E-01 +9.78365210897E-02 +1.08851195961E-03 -2.56938382327E-03 +1.17201865091E-03 -2.18287009132E-03 +7.71757156563E-01 +2.74233152904E-01
2.74500000000E+09 +7.35395716430E-01 +7.89093420213E-02 +7.94315885787E-04 -2.74069016830E-03 +1.16414166361E-03 -2.48712911627E-03 +7.73117525398E-01 +2.59349249108E-01
2.75000000000E+09 +7.30853461704E-01 +6.01544249354E-02 +7.09442043706E-04 -2.82008201781E-03 +1.00386285499E-03 -2.86488899620E-03 +7.74141504805E-01 +2.44564089952E-01
2.75500000000E+09 +7.25569818163E-01 +4.23790127858E-02 +4.27230216060E-04 -3.25699379335E-03 +6.34279238066E-04 -3.49849625101E-03 +7.74234997792E-01 +2.29600004382E-01
2.76000000000E+09 +7.20621917137E-01 +2.54494714938E-02 -6.17015572527E-05 -3.36138753485E-03 -3.89542995746E-05 -3.61724615552E-03 +7.73730796988E-01 +2.14220700121E-01
2.76500000000E+09 +7.15035364651E-01 +8.65508698437E-03 -6.43649862624E-04 -3.37664952509E-03 -6.82927366883E-04 -3.60174930609E-03 +7.72958537706E-01 +1.98381292263E-01
2.77000000000E+09 +7.09432789073E-01 -8.45519684887E-03 -1.08899964643E-03 -3.07097581381E-03 -1.20312240944E-03 -3.15779638982E-03 +7.72686284933E-01 +1.81319828376E-01
2.77500000000E+09 +7.03633779051E-01 -2.63956377188E-02 -1.04116115908E-03 -2.65337884447E-03 -1.17728139255E-03 -2.69558577895E-03 +7.71135619356E-01 +1.62946155725E-01
2.78000000000E+09 +6.97345156864E-01 -4.56965582496E-02 -7.88806348938E-04 -3.01850928435E-03 -9.85186078008E-04 -3.03884353498E-03 +7.69202998463E-01 +1.45345903373E-01
2.78500000000E+09 +6.90443923132E-01 -6.61126423687E-02 -1.24140780497E-03 -3.39995716706E-03 -1.45512808988E-03 -3.30294134510E-03 +7.67127994325E-01 +1.27749561515E-01
2.79000000000E+09 +6.83373967333E-01 -8.79089838441E-02 -1.82399720519E-03 -3.35394727399E-03 -1.91491916817E-03 -3.07178723435E-03 +7.64353847234E-01 +1.10559500216E-01
2.79500000000E+09 +6.75154431836E-01 -1.10332882994E-01 -2.14847670082E-03 -3.41329614638E-03 -2.10148394638E-03 -3.15911566564E-03 +7.60875943260E-01 +9.25697512078E-02
2.80000000000E+09 +6.65907851118E-01 -1.31963729913E-01 -2.77121143310E-03 -3.19961184545E-03 -2.55279781541E-03 -3.13327532196E-03 +7.56051973221E-01 +7.37669317450E-02
2.80500000000E+09 +6.56179463917E-01 -1.52280564909E-01 -2.92257262160E-03 -3.09661168375E-03 -2.83161918664E-03 -3.14164745495E-03 +7.50288793075E-01 +5.42914170661E-02
2.81000000000E+09 +6.45305373142E-01 -1.70352786253E-01 -3.53078647605E-03 -3.21182120528E-03 -3.54558614255E-03 -3.31591926872E-03 +7.43612202322E-01 +3.52000956368E-02
2.81500000000E+09 +6.34024178107E-01 -1.86332792880E-01 -4.19305498680E-03 -2.81779928493E-03 -4.35659443183E-03 -2.80622157638E-03 +7.37452621238E-01 +1.55780426656E-02
2.82000000000E+09 +6.22050163965E-01 -2.01538048143E-01 -4.63282021034E-03 -2.62148183562E-03 -4.74525711527E-03 -2.29902964110E-03 +7.30213974633E-01 -4.97849473605E-03
2.82500000000E+09 +6.08033581595E-01 -2.16120043276E-01 -5.34024497754E-03 -2.08107802967E-03 -5.09296622926E-03 -1.81909635371E-03 +7.21449077088E-01 -2.52040605065E-02
2.83000000000E+09 +5.92648114298E-01 -2.30865806256E-01 -5.83834142093E-03 -1.47512312040E-03 -5.49208760644E-03 -1.42369386773E-03 +7.11878016655E-01 -4.46330453718E-02
2.83500000000E+09 +5.75528423804E-01 -2.47416121487E-01 -6.27839939153E-03 -6.66072058547E-04 -6.04829521117E-03 -8.35417483445E-04 +7.01860883316E-01 -6.46408465638E-02
2.84000000000E+09 +5.55569450548E-01 -2.65941793819E-01 -6.40854220445E-03 +2.34315413003E-04 -6.33935295950E-03 -5.38488226140E-06 +6.90697381678E-01 -8.45393199732E-02
2.84500000000E+09 +5.32978382086E-01 -2.85825483439E-01 -6.38333472080E-03 +8.82125553710E-04 -6.42041002535E-03 +7.61771011197E-04 +6.78678055219E-01 -1.05288331670E-01
2.85000000000E+09 +5.08815975038E-01 -3.06240909758E-01 -6.49156647225E-03 +1.33491034900E-03 -6.53114978120E-03 +1.32352192167E-03 +6.65075854319E-01 -1.25802387528E-01
2.85500000000E+09 +4.83313247969E-01 -3.26445029304E-01 -7.15764847081E-03 +2.23346708761E-03 -7.03301653099E-03 +2.20755379025E-03 +6.50034757369E-01 -1.46301635952E-01
2.86000000000E+09 +4.58049583962E-01 -3.44717762016E-01 -6.75527560437E-03 +3.54987758742E-03 -6.77329417674E-03 +3.41407130486E-03 +6.34097623775E-01 -1.65744349371E-01
2.86500000000E+09 +4.34193969841E-01 -3.61240357621E-01 -6.67206402748E-03 +4.24175331754E-03 -6.66028960239E-03 +4.06860066446E-03 +6.18016419738E-01 -1.86117686367E-01
2.87000000000E+09 +4.11145386012E-01 -3.76229863706E-01 -6.45906279534E-03 +5.54226204527E-03 -6.51133486981E-03 +5.56823172337E-03 +5.99952378781E-01 -2.06468059312E-01
2.87500000000E+09 +3.88337877025E-01 -3.89118058097E-01 -5.78610125432E-03 +6.55640852697E-03 -5.65792376914E-03 +6.64920054434E-03 +5.79381015499E-01 -2.26138423302E-01
2.88000000000E+09 +3.65198669397E-01 -4.00391763153E-01 -5.08539658033E-03 +7.20130423624E-03 -4.78307272061E-03 +7.19948782585E-03 +5.58869486840E-01 -2.44590890952E-01
2.88500000000E+09 +3.40314438132E-01 -4.09695667725E-01 -4.59684094318E-03 +8.38284999108E-03 -4.18419765322E-03 +8.01996112068E-03 +5.36589834779E-01 -2.63139497301E-01
2.89000000000E+09 +3.14201794274E-01 -4.18097579380E-01 -3.31169630575E-03 +9.40897030655E-03 -3.36416117791E-03 +8.83291409108E-03 +5.12657814775E-01 -2.81638999022E-01
2.89500000000E+09 +2.84756533982E-01 -4.25476117068E-01 -1.96798780563E-03 +9.89489566467E-03 -2.36559429523E-03 +9.53477282182E-03 +4.85838665339E-01 -2.99742513175E-01
2.90000000000E+09 +2.53365705940E-01 -4.32017939026E-01 -1.01122616526E-03 +1.01524006483E-02 -1.38322385662E-03 +1.01840273324E-02 +4.58844126543E-01 -3.15654092287E-01
2.90500000000E+09 +2.18782908750E-01 -4.37974332304E-01 +2.12908283111E-04 +1.09250017686E-02 +2.29640227564E-04 +1.10979751137E-02 +4.30516320942E-01 -3.31926387630E-01
2.91000000000E+09 +1.82812715059E-01 -4.41378674084E-01 +1.59244077057E-03 +1.11765946150E-02 +1.91138919645E-03 +1.10460969059E-02 +4.00966744117E-01 -3.46938188424E-01
2.91500000000E+09 +1.47965455768E-01 -4.43369985000E-01 +3.48849572163E-03 +1.20502379973E-02 +3.64251791233E-03 +1.14035321931E-02 +3.69561255477E-01 -3.60023528945E-01
2.92000000000E+09 +1.13034467661E-01 -4.44364500056E-01 +6.09445663252E-03 +1.11584554339E-02 +5.63889096992E-03 +1.05056726784E-02 +3.36908424300E-01 -3.72131322223E-01
2.92500000000E+09 +7.88610618405E-02 -4.43589534094E-01 +7.51355090125E-03 +1.01442211020E-02 +6.69326079083E-03 +9.90339337128E-03 +3.01062485888E-01 -3.81031541996E-01
2.93000000000E+09 +4.54810576221E-02 -4.39963870144E-01 +8.82860104739E-03 +8.99865745639E-03 +8.11287058870E-03 +9.25267833563E-03 +2.64657212701E-01 -3.88649281062E-01
2.93500000000E+09 +1.28196053100E-02 -4.34104728602E-01 +9.97460154840E-03 +8.21338405450E-03 +9.60954967474E-03 +8.61439289873E-03 +2.26367940960E-01 -3.94291855450E-01
2.94000000000E+09 -2.00701948648E-02 -4.25320244346E-01 +1.12313166297E-02 +7.09511936517E-03 +1.10465760950E-02 +7.39211886186E-03 +1.86906051998E-01 -3.98815941771E-01
2.94500000000E+09 -5.27462742633E-02 -4.13039948594E-01 +1.31380690437E-02 +5.65578705626E-03 +1.29164599926E-02 +5.89974482273E-03 +1.46159305289E-01 -3.98993176166E-01
2.95000000000E+09 -8.56443475508E-02 -3.98726558586E-01 +1.39856187221E-02 +3.16521107618E-03 +1.38009646198E-02 +3.73179580658E-03 +1.06640842234E-01 -3.97170359678E-01
2.95500000000E+09 -1.19898236399E-01 -3.80923550477E-01 +1.42770036671E-02 +9.06973664618E-04 +1.45717285048E-02 +1.52846779910E-03 +6.66029161366E-02 -3.93015596854E-01
2.96000000000E+09 -1.53088395364E-01 -3.59664965516E-01 +1.40296999155E-02 -1.09026571842E-03 +1.46428416816E-02 -8.97340329965E-04 +2.44657365775E-02 -3.85914551056E-01
2.96500000000E+09 -1.84588597410E-01 -3.36629778420E-01 +1.38267252415E-02 -2.77872414968E-03 +1.42737214792E-02 -3.16712479702E-03 -1.67809472184E-02 -3.73718074577E-01
2.97000000000E+09 -2.14995718379E-01 -3.12204169281E-01 +1.35324222283E-02 -4.38517456104E-03 +1.33865313471E-02 -4.79233037811E-03 -5.80152377185E-02 -3.59765224873E-01
2.97500000000E+09 -2.43227081090E-01 -2.86024729072E-01 +1.39041770228E-02 -6.44529955670E-03 +1.33967801658E-02 -6.36274501736E-03 -9.79057405571E-02 -3.42659066819E-01
2.98000000000E+09 -2.69672716083E-01 -2.59160234783E-01 +1.24456697288E-02 -9.44189241103E-03 +1.23705710293E-02 -8.76613228514E-03 -1.36831385105E-01 -3.23517280103E-01
2.98500000000E+09 -2.94360688148E-01 -2.29640440120E-01 +1.07219922501E-02 -1.10736481145E-02 +1.13462499764E-02 -1.07262351000E-02 -1.73878614385E-01 -3.01152447705E-01
2.99000000000E+09 -3.15607384854E-01 -1.98872734616E-01 +8.49678256121E-03 -1.23068888266E-02 +9.21212789366E-03 -1.27073605579E-02 -2.10828357889E-01 -2.75822020619E-01
2.99500000000E+09 -3.34866046187E-01 -1.67600601138E-01 +6.93000982688E-03 -1.30767207156E-02 +6.90734141741E-03 -1.38565947382E-02 -2.44735680325E-01 -2.46126012618E-01
3.00000000000E+09 -3.53687501277E-01 -1.35321542553E-01 +5.10997230009E-03 -1.38214606125E-02 +4.43390012526E-03 -1.41130141752E-02 -2.76475680950E-01 -2.14222343510E-01
3.00500000000E+09 -3.69854849995E-01 -1.00829134648E-01 +3.43754043998E-03 -1.49202855294E-02 +2.85020366857E-03 -1.44740280245E-02 -3.05643172672E-01 -1.81523060796E-01
3.01000000000E+09 -3.83531324563E-01 -6.72835995083E-02 +3.63784725677E-04 -1.56262745359E-02 +3.73662279197E-04 -1.48504692327E-02 -3.34231390995E-01 -1.45775662942E-01
3.01500000000E+09 -3.96346647432E-01 -3.35664953495E-02 -2.06951959021E-03 -1.45250312544E-02 -1.66666716021E-03 -1.43100290942E-02 -3.58559925190E-01 -1.08951896551E-01
3.02000000000E+09 -4.05873814489E-01 +4.09180934615E-04 -3.58650554663E-03 -1.34586331382E-02 -3.26000854985E-03 -1.35760859056E-02 -3.79561449346E-01 -6.96608579434E-02
3.02500000000E+09 -4.12140408793E-01 +3.32084426706E-02 -5.10699131983E-03 -1.33350982466E-02 -5.03251409026E-03 -1.34470557967E-02 -3.96358251597E-01 -3.06542728796E-02
3.03000000000E+09 -4.15190156244E-01 +6.52642030542E-02 -7.08214066757E-03 -1.20433300036E-02 -6.91613667909E-03 -1.19881516599E-02 -4.10743387234E-01 +9.62157364525E-03
3.03500000000E+09 -4.14977628405E-01 +9.61042729446E-02 -8.61647805685E-03 -1.14199110167E-02 -8.22060925579E-03 -1.15505468873E-02 -4.21990455705E-01 +4.92263590150E-02
3.04000000000E+09 -4.12080749659E-01 +1.27045997481E-01 -1.04998923920E-02 -9.01538969083E-03 -1.04249095171E-02 -9.62940417959E-03 -4.30600840932E-01 +9.06715612037E-02
3.04500000000E+09 -4.06476013234E-01 +1.58225856817E-01 -1.06203062535E-02 -7.24327018095E-03 -1.10537124370E-02 -7.79407577661E-03 -4.35918862883E-01 +1.30626917778E-01
3.05000000000E+09 -3.98990115510E-01 +1.91157143318E-01 -1.11302911098E-02 -5.89983893876E-03 -1.19159187712E-02 -5.79495002407E-03 -4.38607319155E-01 +1.70253184826E-01
3.05500000000E+09 -3.87815385952E-01 +2.25208561269E-01 -1.14857687160E-02 -4.66496650180E-03 -1.19722522615E-02 -3.94122210967E-03 -4.38935728573E-01 +2.08545197651E-01
3.06000000000E+09 -3.75053602628E-01 +2.58283791987E-01 -1.21387843756E-02 -3.34397433413E-03 -1.18374800929E-02 -2.55380888314E-03 -4.37096810337E-01 +2.45828319921E-01
3.06500000000E+09 -3.61041915575E-01 +2.91183048357E-01 -1.27535319466E-02 -1.08752989955E-03 -1.19120709482E-02 -1.07434989647E-03 -4.34032953504E-01 +2.82801630421E-01
3.07000000000E+09 -3.46572668187E-01 +3.21223527053E-01 -1.20780682024E-02 +9.92913607505E-04 -1.16684226833E-02 +2.81207692402E-04 -4.26831315840E-01 +3.19230029844E-01
