# Hz S RI R 50
! CMT, C1220, 16058040, 17.2.0/1
! Date: 15/08/2018 10:49:51
! Data: Format (Calibration Info)
! Freq                      S11: Re/Im (F2)                       S21: Re/Im (F2)                       S12: Re/Im (F2)                       S22: Re/Im (F2)            
2.50000000000E+09 +5.80537106455E-01 +6.49737685052E-01 -1.05860609414E-03 +5.95430062962E-04 -1.15417970518E-03 +6.28111039106E-04 +5.62551780812E-01 +7.25996832583E-01
2.50500000000E+09 +5.88024462805E-01 +6.40618877849E-01 -1.00837552700E-03 +7.10842898148E-04 -1.04287467095E-03 +8.60684924920E-04 +5.68443571623E-01 +7.20420287762E-01
2.51000000000E+09 +5.96358551133E-01 +6.31199528770E-01 -9.33330099203E-04 +8.07859487264E-04 -8.79261415655E-04 +9.08299717312E-04 +5.74208283990E-01 +7.14928833780E-01
2.51500000000E+09 +6.04768026050E-01 +6.22302318877E-01 -8.51604892099E-04 +9.29180136719E-04 -8.19277226257E-04 +9.49038059971E-04 +5.79472374590E-01 +7.09355504083E-01
2.52000000000E+09 +6.12389052352E-01 +6.13953260379E-01 -6.49334339253E-04 +1.04285510588E-03 -7.00629377685E-04 +9.98572985239E-04 +5.84439665909E-01 +7.03027247839E-01
2.52500000000E+09 +6.18452238723E-01 +6.06780438410E-01 -5.61281915763E-04 +1.00185753833E-03 -6.37818409383E-04 +1.05042350256E-03 +5.89998404160E-01 +6.96745677933E-01
2.53000000000E+09 +6.23425049830E-01 +6.00617890460E-01 -5.24580115222E-04 +1.01156703623E-03 -5.64343697090E-04 +1.05552664623E-03 +5.95959877003E-01 +6.89933809446E-01
2.53500000000E+09 +6.27131408692E-01 +5.95147470499E-01 -5.97525245805E-04 +1.13282583035E-03 -5.96268649741E-04 +1.11759887783E-03 +6.01890998960E-01 +6.83461938338E-01
2.54000000000E+09 +6.30172768114E-01 +5.89515246710E-01 -3.73704459685E-04 +1.27974700776E-03 -3.82118582569E-04 +1.29548929407E-03 +6.07867145867E-01 +6.77094514919E-01
2.54500000000E+09 +6.33281129785E-01 +5.83542194827E-01 -2.05141570833E-04 +1.36981795902E-03 -2.79820249705E-04 +1.37266328213E-03 +6.13608102952E-01 +6.71030791714E-01
2.55000000000E+09 +6.37093435538E-01 +5.76547491554E-01 +6.77028952105E-05 +1.40783180824E-03 -7.74074927258E-05 +1.53667549960E-03 +6.18825001569E-01 +6.64982623889E-01
2.55500000000E+09 +6.42156226436E-01 +5.68117236301E-01 +2.18136446261E-04 +1.16850313949E-03 +2.16265269325E-04 +1.37921300575E-03 +6.24071803106E-01 +6.58619675220E-01
2.56000000000E+09 +6.48832699193E-01 +5.59029341811E-01 +2.30710079907E-04 +1.09733726176E-03 +3.33181038034E-04 +1.29568294407E-03 +6.29130463178E-01 +6.51622680595E-01
2.56500000000E+09 +6.56652578297E-01 +5.48782187029E-01 +2.40627514074E-04 +1.17359763990E-03 +4.68587131243E-04 +1.20208344251E-03 +6.34402029220E-01 +6.44554608656E-01
2.57000000000E+09 +6.65021267317E-01 +5.38331431311E-01 +3.79705943811E-04 +1.15209094479E-03 +5.95976642441E-04 +1.04613005998E-03 +6.40075067341E-01 +6.36889403790E-01
2.57500000000E+09 +6.73084960171E-01 +5.28175202375E-01 +5.29960723003E-04 +1.13055441059E-03 +6.11581182844E-04 +9.38096668717E-04 +6.45940636378E-01 +6.29443820482E-01
2.58000000000E+09 +6.79970570234E-01 +5.19274483622E-01 +6.59574300458E-04 +1.08981906300E-03 +6.18581863436E-04 +8.96726372975E-04 +6.51488549078E-01 +6.21969239900E-01
2.58500000000E+09 +6.85670671501E-01 +5.10906692283E-01 +7.69796949594E-04 +8.81607397153E-04 +6.19300372720E-04 +8.13398109576E-04 +6.56732674230E-01 +6.14136951312E-01
2.59000000000E+09 +6.89543656104E-01 +5.03388518362E-01 +7.80006112197E-04 +7.86682156373E-04 +6.43865505774E-04 +8.23012204943E-04 +6.61521308150E-01 +6.06483561715E-01
2.59500000000E+09 +6.92452664536E-01 +4.96008295709E-01 +8.07953554227E-04 +8.14391187223E-04 +7.72723796446E-04 +8.83535916329E-04 +6.66625144747E-01 +5.98574061394E-01
2.60000000000E+09 +6.94360703119E-01 +4.88010200567E-01 +9.36081382530E-04 +7.10761849848E-04 +9.37501347599E-04 +7.35905530491E-04 +6.71868838590E-01 +5.90231324119E-01
2.60500000000E+09 +6.96384865392E-01 +4.78338433044E-01 +9.68002301971E-04 +5.27360429094E-04 +9.48751036021E-04 +4.96666029914E-04 +6.77649049280E-01 +5.81632794054E-01
2.61000000000E+09 +6.98812184406E-01 +4.66764699179E-01 +7.96320945946E-04 +4.50253989806E-04 +8.34389596735E-04 +4.58458285710E-04 +6.82948933866E-01 +5.72519180234E-01
2.61500000000E+09 +7.02612375448E-01 +4.53020116008E-01 +8.50484326238E-04 +4.48840691903E-04 +8.82255700167E-04 +4.68411269654E-04 +6.87820918193E-01 +5.63655179188E-01
2.62000000000E+09 +7.07022686157E-01 +4.37298621354E-01 +8.18849688194E-04 +3.69107914711E-04 +9.26566939995E-04 +3.73149952254E-04 +6.92625818712E-01 +5.54749557686E-01
2.62500000000E+09 +7.12317891683E-01 +4.20458540176E-01 +8.23372248572E-04 +4.37875342083E-04 +9.00966657185E-04 +3.94119290385E-04 +6.97457345750E-01 +5.46061383275E-01
2.63000000000E+09 +7.17902065953E-01 +4.03555532436E-01 +9.34287368742E-04 +4.41517438803E-04 +1.01579676042E-03 +3.49766781958E-04 +7.02299077545E-01 +5.37081856743E-01
2.63500000000E+09 +7.23103422902E-01 +3.87499439161E-01 +1.12300592514E-03 +2.41520811748E-04 +1.02937032109E-03 +1.44169707078E-04 +7.07084416160E-01 +5.27697785780E-01
2.64000000000E+09 +7.27436184636E-01 +3.73114028122E-01 +9.89719511069E-04 +1.75499662268E-04 +8.57594457342E-04 +1.11175337219E-04 +7.11628834939E-01 +5.17995702268E-01
2.64500000000E+09 +7.30803646932E-01 +3.61145218062E-01 +9.88938519601E-04 +7.57478437479E-05 +8.57829769173E-04 +1.39849080097E-04 +7.16177528518E-01 +5.08454445451E-01
2.65000000000E+09 +7.32901548958E-01 +3.51044393671E-01 +8.95887606373E-04 +4.65351706461E-05 +8.39143579559E-04 +1.30880285724E-04 +7.20791212297E-01 +4.98233852175E-01
2.65500000000E+09 +7.34431606929E-01 +3.41979660165E-01 +8.41706106622E-04 +1.14037813540E-04 +8.57720015675E-04 +1.76583157871E-04 +7.24749730024E-01 +4.87559671686E-01
2.66000000000E+09 +7.35579055346E-01 +3.32916690351E-01 +9.20418708362E-04 +2.28704390354E-04 +9.77852555882E-04 +2.19516861900E-04 +7.28809394013E-01 +4.76303087898E-01
2.66500000000E+09 +7.36571151410E-01 +3.23013435908E-01 +9.62011783244E-04 +1.86922893530E-04 +1.05591415499E-03 +1.35735069615E-04 +7.32930486648E-01 +4.65261523893E-01
2.67000000000E+09 +7.37548760006E-01 +3.10940182582E-01 +1.15682887662E-03 +1.31308820359E-04 +1.09610462352E-03 +4.56334432849E-05 +7.37362666092E-01 +4.54590932784E-01
2.67500000000E+09 +7.38604327311E-01 +2.96845040390E-01 +1.31743550844E-03 +8.63637742797E-05 +1.23982901258E-03 -1.97931216689E-05 +7.41709679259E-01 +4.43586749717E-01
2.68000000000E+09 +7.39628491076E-01 +2.81137142976E-01 +1.37609064514E-03 -2.48665310006E-04 +1.27932171508E-03 -1.57447450937E-04 +7.45669580073E-01 +4.32210125515E-01
2.68500000000E+09 +7.41033760505E-01 +2.64175324286E-01 +1.18424302681E-03 -3.33312027876E-04 +1.19968926308E-03 -2.65885166324E-04 +7.48715172965E-01 +4.20590804633E-01
2.69000000000E+09 +7.42261247426E-01 +2.46781919404E-01 +1.14070632320E-03 -1.81859514120E-04 +1.11594555988E-03 -2.14647059983E-04 +7.51425062439E-01 +4.08788872082E-01
2.69500000000E+09 +7.43251468419E-01 +2.30287618302E-01 +1.35839014411E-03 -1.45900968634E-04 +1.41783518129E-03 -1.24701072900E-04 +7.54351077038E-01 +3.96185119139E-01
2.70000000000E+09 +7.44091423024E-01 +2.14864698115E-01 +1.63923613462E-03 -3.54110971817E-04 +1.51898861589E-03 -3.00801168359E-04 +7.57379308395E-01 +3.83223985756E-01
2.70500000000E+09 +7.44547674017E-01 +2.00924394742E-01 +1.74709594852E-03 -6.57017659925E-04 +1.74637684462E-03 -5.54811245922E-04 +7.60469694436E-01 +3.69529119000E-01
2.71000000000E+09 +7.44676355335E-01 +1.88044222749E-01 +1.67201925860E-03 -1.05038799563E-03 +1.77949004967E-03 -9.56435492588E-04 +7.63128213830E-01 +3.56225795542E-01
2.71500000000E+09 +7.44866968902E-01 +1.75417919532E-01 +1.52817166579E-03 -1.22040055036E-03 +1.66338000808E-03 -1.30033184509E-03 +7.65154635771E-01 +3.43916614454E-01
2.72000000000E+09 +7.44380076467E-01 +1.62525993800E-01 +1.29971575621E-03 -1.38524298518E-03 +1.33784635796E-03 -1.50955712459E-03 +7.67290135845E-01 +3.31298625199E-01
2.72500000000E+09 +7.44028552177E-01 +1.48425262294E-01 +1.18803434137E-03 -1.36671419788E-03 +1.04539702803E-03 -1.41770778586E-03 +7.68277838488E-01 +3.17899566498E-01
2.73000000000E+09 +7.42939880262E-01 +1.32632733263E-01 +1.40780927859E-03 -1.31125733046E-03 +1.16511930959E-03 -1.28397226847E-03 +7.69557006626E-01 +3.03641722800E-01
2.73500000000E+09 +7.40976281744E-01 +1.14960840755E-01 +1.44293249380E-03 -1.73926233024E-03 +1.29287144677E-03 -1.53951043302E-03 +7.70099602900E-01 +2.89023351474E-01
2.74000000000E+09 +7.38086526870E-01 +9.67301460516E-02 +1.27791006964E-03 -2.07739198935E-03 +1.24674078357E-03 -1.71619765465E-03 +7.71379313366E-01 +2.74380844411E-01
2.74500000000E+09 +7.34371558947E-01 +7.76745154556E-02 +1.00001856061E-03 -2.27001132185E-03 +1.19596262978E-03 -2.06128546165E-03 +7.72571062541E-01 +2.59677750167E-01
2.75000000000E+09 +7.29588324130E-01 +5.89433558630E-02 +9.06932194294E-04 -2.34877408504E-03 +1.20348457770E-03 -2.28979155720E-03 +7.73737343198E-01 +2.44875671334E-01
2.75500000000E+09 +7.24215684590E-01 +4.13369988493E-02 +7.96702706128E-04 -2.79590273883E-03 +9.63576031621E-04 -2.93660130891E-03 +7.73855533130E-01 +2.30066329414E-01
2.76000000000E+09 +7.19144654335E-01 +2.45696590555E-02 +3.12476555381E-04 -2.93828145450E-03 +4.08897603220E-04 -3.15829763084E-03 +7.73545790455E-01 +2.14805336815E-01
2.76500000000E+09 +7.13387191806E-01 +7.98023233028E-03 -1.45374850609E-04 -3.06891852077E-03 -1.87449641455E-04 -3.25402011769E-03 +7.72759129721E-01 +1.98923040293E-01
2.77000000000E+09 +7.07752422432E-01 -8.85032899126E-03 -6.15052578180E-04 -2.88452529865E-03 -7.58334599334E-04 -2.97079991678E-03 +7.72572727603E-01 +1.81850418134E-01
2.77500000000E+09 +7.01981585633E-01 -2.67205087501E-02 -6.18095358338E-04 -2.45891185300E-03 -6.52586248333E-04 -2.49855623638E-03 +7.71127957260E-01 +1.63730623829E-01
2.78000000000E+09 +6.95713098222E-01 -4.57387306537E-02 -4.00217906905E-04 -2.86878451479E-03 -5.51466976547E-04 -2.89574522260E-03 +7.69348457948E-01 +1.46007557663E-01
2.78500000000E+09 +6.88916344862E-01 -6.60149448392E-02 -7.66500607025E-04 -3.22265955944E-03 -9.83265181229E-04 -3.13138931581E-03 +7.67303543272E-01 +1.28495275169E-01
2.79000000000E+09 +6.81832215834E-01 -8.77715505063E-02 -1.29442758755E-03 -3.27321632047E-03 -1.32851937214E-03 -3.05644668929E-03 +7.64698188015E-01 +1.11361426879E-01
2.79500000000E+09 +6.73661119199E-01 -1.09985909515E-01 -1.65455998970E-03 -3.40942956995E-03 -1.55612852508E-03 -3.21853433021E-03 +7.61299709260E-01 +9.30547089249E-02
2.80000000000E+09 +6.64579763118E-01 -1.31411533978E-01 -2.36267804887E-03 -3.25525467697E-03 -2.10281528043E-03 -3.21900564385E-03 +7.56610556024E-01 +7.44060628447E-02
2.80500000000E+09 +6.55190488707E-01 -1.51774345674E-01 -2.42601625696E-03 -3.12040333791E-03 -2.34773860162E-03 -3.17481209448E-03 +7.50982382603E-01 +5.48959878117E-02
2.81000000000E+09 +6.44340805951E-01 -1.70014788206E-01 -3.01490205795E-03 -3.32780200428E-03 -3.02427292607E-03 -3.46809630578E-03 +7.44310171051E-01 +3.57170824614E-02
2.81500000000E+09 +6.33103356386E-01 -1.85992687407E-01 -3.65286369369E-03 -3.00379515161E-03 -3.85976767549E-03 -2.90374261860E-03 +7.38010389100E-01 +1.61661682543E-02
2.82000000000E+09 +6.21117163503E-01 -2.01101670537E-01 -4.09142579074E-03 -2.79816304318E-03 -4.13398890525E-03 -2.59603245908E-03 +7.30928985653E-01 -4.37403335526E-03
2.82500000000E+09 +6.07219345694E-01 -2.15759537155E-01 -4.75013563116E-03 -2.53959271405E-03 -4.59180789072E-03 -2.23779204545E-03 +7.22571458867E-01 -2.45917889606E-02
2.83000000000E+09 +5.91794913261E-01 -2.30532919998E-01 -5.37137916650E-03 -1.91094536296E-03 -5.08012263260E-03 -1.85926232819E-03 +7.13168202800E-01 -4.43010228074E-02
2.83500000000E+09 +5.74811198582E-01 -2.47077893697E-01 -5.93479404013E-03 -1.15033955940E-03 -5.66934346807E-03 -1.34385440600E-03 +7.03162456103E-01 -6.44160985573E-02
2.84000000000E+09 +5.54783968616E-01 -2.65578051394E-01 -6.10829908546E-03 -3.57641852400E-04 -6.03341465560E-03 -6.17649105832E-04 +6.92014486550E-01 -8.44817140291E-02
2.84500000000E+09 +5.32276929409E-01 -2.85399261610E-01 -6.23725006857E-03 +3.40582177559E-04 -6.30088794449E-03 +2.29119344898E-04 +6.80050952108E-01 -1.05309832832E-01
2.85000000000E+09 +5.08106189271E-01 -3.05824485667E-01 -6.34599627699E-03 +8.59485573913E-04 -6.37961254033E-03 +8.59612706926E-04 +6.66477953847E-01 -1.26076196387E-01
2.85500000000E+09 +4.82609576858E-01 -3.25857850719E-01 -6.95669487204E-03 +1.67927272486E-03 -6.85874661977E-03 +1.64021799469E-03 +6.51347761700E-01 -1.46695205971E-01
2.86000000000E+09 +4.57535321261E-01 -3.44181846699E-01 -6.72496608555E-03 +2.81228640257E-03 -6.60597617323E-03 +2.69486718767E-03 +6.35617355750E-01 -1.66088245302E-01
2.86500000000E+09 +4.33568982616E-01 -3.60665605270E-01 -6.81116934501E-03 +3.53845583628E-03 -6.81645636812E-03 +3.41728948133E-03 +6.19577383290E-01 -1.86553811255E-01
2.87000000000E+09 +4.10531075857E-01 -3.75630336025E-01 -6.70457039424E-03 +4.92149492274E-03 -6.71604852256E-03 +4.93730915025E-03 +6.01650422151E-01 -2.07457352056E-01
2.87500000000E+09 +3.87855588702E-01 -3.88370960550E-01 -6.13998081056E-03 +6.00631904744E-03 -5.97412191946E-03 +6.11166301485E-03 +5.80971695071E-01 -2.27446998166E-01
2.88000000000E+09 +3.65012011535E-01 -3.99671307969E-01 -5.45989505132E-03 +6.81782650694E-03 -5.09175134974E-03 +6.79095461237E-03 +5.60144099564E-01 -2.46195612687E-01
2.88500000000E+09 +3.40182134545E-01 -4.09132589066E-01 -4.89910865216E-03 +8.07204296499E-03 -4.51020013763E-03 +7.63241854260E-03 +5.37655668476E-01 -2.64791709544E-01
2.89000000000E+09 +3.13959276876E-01 -4.17685838638E-01 -3.60539622230E-03 +9.11616160576E-03 -3.63143656412E-03 +8.53934408468E-03 +5.13519436672E-01 -2.83461093799E-01
2.89500000000E+09 +2.84400222395E-01 -4.24911372832E-01 -2.28781183146E-03 +9.62264242377E-03 -2.67367291568E-03 +9.28873598946E-03 +4.86529891609E-01 -3.01570121162E-01
2.90000000000E+09 +2.53119329351E-01 -4.31334067059E-01 -1.19883050924E-03 +9.94773366317E-03 -1.57658090731E-03 +9.98124474083E-03 +4.59501532998E-01 -3.17697486813E-01
2.90500000000E+09 +2.18626617590E-01 -4.37424267112E-01 +4.69174653085E-05 +1.04964574451E-02 +5.09656089370E-05 +1.06718267741E-02 +4.30822066527E-01 -3.34354692842E-01
2.91000000000E+09 +1.82704337619E-01 -4.40980713186E-01 +1.32117837512E-03 +1.06279413377E-02 +1.55414668107E-03 +1.05807009807E-02 +4.01058952701E-01 -3.49444277392E-01
2.91500000000E+09 +1.47666918012E-01 -4.43104022886E-01 +2.90287906406E-03 +1.15075038398E-02 +3.02796962686E-03 +1.09846645775E-02 +3.69128287166E-01 -3.62593036796E-01
2.92000000000E+09 +1.12434336306E-01 -4.43776488092E-01 +5.37270336998E-03 +1.11303084285E-02 +4.94661554560E-03 +1.03788067646E-02 +3.35944536695E-01 -3.74551654631E-01
2.92500000000E+09 +7.83930657287E-02 -4.42831912221E-01 +6.98303083797E-03 +1.01281199097E-02 +6.17678370656E-03 +9.98683033253E-03 +2.99795806258E-01 -3.83063498276E-01
2.93000000000E+09 +4.50187709586E-02 -4.39168042457E-01 +8.53254424065E-03 +8.96298820709E-03 +7.85744167180E-03 +9.23442190928E-03 +2.63309490776E-01 -3.90458533273E-01
2.93500000000E+09 +1.24796563303E-02 -4.33060351693E-01 +9.77553750947E-03 +7.93504379615E-03 +9.44851515200E-03 +8.36343013752E-03 +2.24828898281E-01 -3.96021965913E-01
2.94000000000E+09 -2.03669902402E-02 -4.24199363589E-01 +1.07748402971E-02 +6.68758774176E-03 +1.06131920226E-02 +7.00505175031E-03 +1.85371601176E-01 -4.00205741005E-01
2.94500000000E+09 -5.27736844786E-02 -4.11726445852E-01 +1.22725869824E-02 +5.25594679006E-03 +1.20769695141E-02 +5.48052599808E-03 +1.44464115404E-01 -4.00583061510E-01
2.95000000000E+09 -8.52968148960E-02 -3.97414361525E-01 +1.30142466831E-02 +3.19971097104E-03 +1.28528713116E-02 +3.69260516301E-03 +1.04404096336E-01 -3.98649330009E-01
2.95500000000E+09 -1.19639450821E-01 -3.79828904089E-01 +1.34265625056E-02 +1.07572048002E-03 +1.36897450093E-02 +1.69189103618E-03 +6.40395055079E-02 -3.93825988042E-01
2.96000000000E+09 -1.52701653723E-01 -3.58088983066E-01 +1.31636772722E-02 -7.88288818038E-04 +1.37459696118E-02 -5.77526962805E-04 +2.20472185456E-02 -3.86402955716E-01
2.96500000000E+09 -1.83796944867E-01 -3.34834717035E-01 +1.30321917830E-02 -2.19591189955E-03 +1.35203104982E-02 -2.55783434307E-03 -1.92608058786E-02 -3.74111052749E-01
2.97000000000E+09 -2.13552903931E-01 -3.10532170538E-01 +1.29054830373E-02 -3.71735808636E-03 +1.27666586641E-02 -4.17457114617E-03 -6.07278751703E-02 -3.59625390919E-01
2.97500000000E+09 -2.41286292130E-01 -2.84939809473E-01 +1.33621629446E-02 -5.92190470838E-03 +1.28608301555E-02 -5.87523370374E-03 -1.00558075976E-01 -3.42166624191E-01
2.98000000000E+09 -2.67790029031E-01 -2.58590046740E-01 +1.17820285460E-02 -8.71559341338E-03 +1.17471255665E-02 -8.15200181954E-03 -1.39466946158E-01 -3.22649172442E-01
2.98500000000E+09 -2.92567177502E-01 -2.29373562691E-01 +1.01843826373E-02 -1.01366313459E-02 +1.07574919231E-02 -9.78619701832E-03 -1.76472220837E-01 -2.99664985595E-01
2.99000000000E+09 -3.13782082891E-01 -1.98655497658E-01 +8.30095685936E-03 -1.11160791684E-02 +8.90533402489E-03 -1.15152821100E-02 -2.12986213589E-01 -2.73857264813E-01
2.99500000000E+09 -3.33130803545E-01 -1.67738188741E-01 +7.07439868793E-03 -1.20319608885E-02 +7.03708920616E-03 -1.27680667117E-02 -2.46407608769E-01 -2.43975581680E-01
3.00000000000E+09 -3.51900674069E-01 -1.35371055147E-01 +5.53741899866E-03 -1.30005998489E-02 +4.83312396537E-03 -1.32976490926E-02 -2.77727085704E-01 -2.11778392253E-01
3.00500000000E+09 -3.68150346403E-01 -1.01168969959E-01 +3.70653581403E-03 -1.43647803221E-02 +3.08608993307E-03 -1.39968573063E-02 -3.06509478080E-01 -1.78984825084E-01
3.01000000000E+09 -3.81798252975E-01 -6.74681563624E-02 +7.10284298760E-04 -1.49640654412E-02 +7.25273627739E-04 -1.42524218034E-02 -3.34742005734E-01 -1.43251092926E-01
3.01500000000E+09 -3.94181094884E-01 -3.42351803211E-02 -1.62404676273E-03 -1.40297214696E-02 -1.29118733149E-03 -1.36848879527E-02 -3.58605386683E-01 -1.06343337532E-01
3.02000000000E+09 -4.03902981339E-01 -6.41447402920E-04 -3.18007649668E-03 -1.30888899346E-02 -2.86788005535E-03 -1.31442861671E-02 -3.79185104731E-01 -6.71648490073E-02
3.02500000000E+09 -4.10643611602E-01 +3.18629121662E-02 -4.77357260088E-03 -1.29694438759E-02 -4.61165385886E-03 -1.30016733404E-02 -3.95416782992E-01 -2.87687675850E-02
3.03000000000E+09 -4.13883719292E-01 +6.41434303702E-02 -6.62962068173E-03 -1.15499274129E-02 -6.46640030418E-03 -1.14884903155E-02 -4.09862520764E-01 +1.12049184680E-02
3.03500000000E+09 -4.13708633131E-01 +9.51224678393E-02 -8.05547143685E-03 -1.11678381073E-02 -7.72418173469E-03 -1.12915116040E-02 -4.21169246070E-01 +5.08223705861E-02
3.04000000000E+09 -4.10559939192E-01 +1.25984778985E-01 -1.00327153040E-02 -8.91727870555E-03 -9.91069855397E-03 -9.44206983732E-03 -4.29657041937E-01 +9.22612964681E-02
3.04500000000E+09 -4.04789272792E-01 +1.56723591876E-01 -1.02991564528E-02 -7.01840806731E-03 -1.07877013647E-02 -7.63558204507E-03 -4.34672654512E-01 +1.32093448914E-01
3.05000000000E+09 -3.97429947742E-01 +1.89280649085E-01 -1.06967757619E-02 -5.60424691299E-03 -1.15243354849E-02 -5.59720410709E-03 -4.37290829921E-01 +1.71768728674E-01
3.05500000000E+09 -3.86539481193E-01 +2.22840521829E-01 -1.12049563714E-02 -4.41624275103E-03 -1.16209558555E-02 -3.70188653307E-03 -4.37496859064E-01 +2.09861253067E-01
3.06000000000E+09 -3.74449742816E-01 +2.55804285577E-01 -1.17117828353E-02 -2.94080825478E-03 -1.14403746932E-02 -2.20745270698E-03 -4.35264623161E-01 +2.46701793744E-01
3.06500000000E+09 -3.60727945357E-01 +2.88881210648E-01 -1.21540719404E-02 -7.15926345782E-04 -1.13463400244E-02 -6.86713398046E-04 -4.32402058629E-01 +2.83536179587E-01
3.07000000000E+09 -3.46447311511E-01 +3.19222038052E-01 -1.11550269814E-02 +1.14808424238E-03 -1.07948474673E-02 +5.05180517806E-04 -4.25152094796E-01 +3.19949576147E-01
