# Hz S RI R 50
! CMT, C1220, 16058040, 17.2.0/1
! Date: 15/08/2018 10:53:44
! Data: Format (Calibration Info)
! Freq                      S11: Re/Im (F2)                       S21: Re/Im (F2)                       S12: Re/Im (F2)                       S22: Re/Im (F2)            
2.50000000000E+09 +5.79677859888E-01 +6.52807854348E-01 -1.33866952538E-03 +6.02078153753E-04 -1.44599134745E-03 +6.10645515550E-04 +5.60907913418E-01 +7.27263683192E-01
2.50500000000E+09 +5.87314052390E-01 +6.43499864224E-01 -1.27741689216E-03 +7.40404952178E-04 -1.30388673140E-03 +8.60813820559E-04 +5.66735950053E-01 +7.21594578296E-01
2.51000000000E+09 +5.95855439347E-01 +6.34150352974E-01 -1.23074397827E-03 +8.35428685489E-04 -1.16110597329E-03 +8.65198012093E-04 +5.72507366850E-01 +7.16181371103E-01
2.51500000000E+09 +6.04365848888E-01 +6.25500722879E-01 -1.16628537175E-03 +1.00154811347E-03 -1.14706638814E-03 +9.56575301073E-04 +5.77909227796E-01 +7.10467201539E-01
2.52000000000E+09 +6.12132136725E-01 +6.17315546142E-01 -1.00164546397E-03 +1.11146713300E-03 -1.06100320006E-03 +1.07138540687E-03 +5.82995830089E-01 +7.04363171801E-01
2.52500000000E+09 +6.18474280728E-01 +6.10287549680E-01 -8.48437238722E-04 +1.11180959368E-03 -9.24288487877E-04 +1.10611744772E-03 +5.88414552857E-01 +6.98138047102E-01
2.53000000000E+09 +6.23401602614E-01 +6.04312483125E-01 -8.62518592596E-04 +1.15586448776E-03 -8.41580005245E-04 +1.16926590204E-03 +5.94492383310E-01 +6.91372706378E-01
2.53500000000E+09 +6.27163832135E-01 +5.99042220126E-01 -8.47350152393E-04 +1.29086048666E-03 -8.51055178846E-04 +1.32714842027E-03 +6.00312061127E-01 +6.84766707072E-01
2.54000000000E+09 +6.30025534451E-01 +5.93342643592E-01 -6.75170686777E-04 +1.53921467217E-03 -7.02806201738E-04 +1.52413783610E-03 +6.06203660517E-01 +6.78445079493E-01
2.54500000000E+09 +6.32992089046E-01 +5.87303208556E-01 -4.47192036238E-04 +1.72195121059E-03 -5.77737068266E-04 +1.68556107363E-03 +6.11841761187E-01 +6.72302073542E-01
2.55000000000E+09 +6.36717227635E-01 +5.80212749196E-01 -1.43490780110E-04 +1.74953907897E-03 -3.10120120382E-04 +1.89341697683E-03 +6.17251480680E-01 +6.66293666812E-01
2.55500000000E+09 +6.41708340354E-01 +5.71552993183E-01 +6.95818756721E-05 +1.52567002552E-03 +3.89408706848E-05 +1.74368820386E-03 +6.22475728006E-01 +6.59965672252E-01
2.56000000000E+09 +6.48364236406E-01 +5.62294640796E-01 +3.53666498653E-05 +1.51505347853E-03 +2.19396721867E-04 +1.73549175327E-03 +6.27563440457E-01 +6.52904984765E-01
2.56500000000E+09 +6.56337616853E-01 +5.52001649088E-01 +9.65661625221E-05 +1.56723885703E-03 +4.17482396259E-04 +1.70266368328E-03 +6.33029886185E-01 +6.45872634932E-01
2.57000000000E+09 +6.64952165826E-01 +5.41470043874E-01 +2.73224084785E-04 +1.64366060655E-03 +6.06190633916E-04 +1.59873470375E-03 +6.38631008969E-01 +6.38392989427E-01
2.57500000000E+09 +6.73127456395E-01 +5.31243370069E-01 +5.05336376680E-04 +1.64765270107E-03 +7.09844925062E-04 +1.38108788583E-03 +6.44406490428E-01 +6.30960122565E-01
2.58000000000E+09 +6.80075796858E-01 +5.22350563801E-01 +7.77923263458E-04 +1.57835890634E-03 +7.38145363518E-04 +1.27770913758E-03 +6.49829419862E-01 +6.23406773168E-01
2.58500000000E+09 +6.85680195780E-01 +5.14382987635E-01 +9.28266763907E-04 +1.36350912556E-03 +7.86314424783E-04 +1.23353843124E-03 +6.55033037141E-01 +6.15747896681E-01
2.59000000000E+09 +6.89772872417E-01 +5.07324856745E-01 +9.44961062160E-04 +1.23558048328E-03 +8.27662099256E-04 +1.18966088228E-03 +6.60030719275E-01 +6.07986379604E-01
2.59500000000E+09 +6.92782612156E-01 +5.00187396131E-01 +1.01335915401E-03 +1.24964994580E-03 +9.48204611182E-04 +1.30697489817E-03 +6.64944947173E-01 +5.99996479817E-01
2.60000000000E+09 +6.94549202767E-01 +4.92389938280E-01 +1.17654238695E-03 +1.12917216782E-03 +1.16314320906E-03 +1.14766876140E-03 +6.70415059677E-01 +5.91827141675E-01
2.60500000000E+09 +6.96590217521E-01 +4.82957341927E-01 +1.26634357333E-03 +9.48521916099E-04 +1.27212031056E-03 +9.20646717875E-04 +6.76211889873E-01 +5.83091048909E-01
2.61000000000E+09 +6.98932811690E-01 +4.71426683045E-01 +1.26614219425E-03 +8.32308557470E-04 +1.19060274494E-03 +8.57929849131E-04 +6.81447627974E-01 +5.74093345230E-01
2.61500000000E+09 +7.02631807642E-01 +4.57824130582E-01 +1.38096791303E-03 +7.95674031091E-04 +1.36238692877E-03 +8.26154518529E-04 +6.86327101780E-01 +5.65289939432E-01
2.62000000000E+09 +7.07172907304E-01 +4.41957650442E-01 +1.41240259851E-03 +6.13565057399E-04 +1.43075225127E-03 +6.35523192018E-04 +6.91041779772E-01 +5.56506039627E-01
2.62500000000E+09 +7.12520914468E-01 +4.25152990454E-01 +1.34482878327E-03 +6.44427188071E-04 +1.43111803015E-03 +5.61782522265E-04 +6.95871192838E-01 +5.47755975172E-01
2.63000000000E+09 +7.18278823952E-01 +4.08278709805E-01 +1.51574459883E-03 +6.00474312452E-04 +1.51628154427E-03 +4.19716019330E-04 +7.00815834329E-01 +5.38685995292E-01
2.63500000000E+09 +7.23650697520E-01 +3.92315940429E-01 +1.68055389080E-03 +3.75055861660E-04 +1.53327448754E-03 +1.87386431921E-04 +7.05599127404E-01 +5.29356582983E-01
2.64000000000E+09 +7.28225020320E-01 +3.78144118953E-01 +1.62845326593E-03 +1.84462605789E-04 +1.42530248031E-03 +1.35744303971E-04 +7.10310697078E-01 +5.19754727198E-01
2.64500000000E+09 +7.31806099787E-01 +3.66367834673E-01 +1.67457709362E-03 +5.13859954857E-05 +1.45177809913E-03 +1.53326622726E-04 +7.14959136721E-01 +5.10132572844E-01
2.65000000000E+09 +7.34057056380E-01 +3.56651685118E-01 +1.53565092570E-03 -1.24094633402E-04 +1.53958542288E-03 +1.12272044300E-04 +7.19491644886E-01 +5.00086450393E-01
2.65500000000E+09 +7.35715582058E-01 +3.47671670129E-01 +1.44698937637E-03 -1.46188680799E-04 +1.56247323701E-03 -1.44349906254E-05 +7.23427127699E-01 +4.89366609610E-01
2.66000000000E+09 +7.36903101804E-01 +3.38761189123E-01 +1.58434451480E-03 -7.22111343274E-05 +1.68595295765E-03 -5.56847010412E-05 +7.27403035912E-01 +4.78290921568E-01
2.66500000000E+09 +7.37962523126E-01 +3.28951198020E-01 +1.64415634235E-03 -2.32502155541E-04 +1.72201830070E-03 -4.24650312955E-04 +7.31566633459E-01 +4.67261264125E-01
2.67000000000E+09 +7.39048684676E-01 +3.17075925760E-01 +1.69676436481E-03 -4.01754283515E-04 +1.62906405278E-03 -5.35406831414E-04 +7.36070751577E-01 +4.56660431668E-01
2.67500000000E+09 +7.40297867263E-01 +3.02791809204E-01 +1.72271535383E-03 -5.77070935800E-04 +1.55495928484E-03 -5.54196477792E-04 +7.40593949818E-01 +4.45538389309E-01
2.68000000000E+09 +7.41562985902E-01 +2.86817205972E-01 +1.65460273280E-03 -7.76293498708E-04 +1.65977857428E-03 -6.84786474868E-04 +7.44756970751E-01 +4.34160416324E-01
2.68500000000E+09 +7.42968310084E-01 +2.69748466295E-01 +1.53071739813E-03 -9.04718792485E-04 +1.47054488590E-03 -8.31093759487E-04 +7.47911010621E-01 +4.22562316951E-01
2.69000000000E+09 +7.44318705544E-01 +2.52365733014E-01 +1.48212699094E-03 -8.67499381633E-04 +1.47899795772E-03 -8.03235154759E-04 +7.50676220905E-01 +4.10764304105E-01
2.69500000000E+09 +7.45452969325E-01 +2.35888204774E-01 +1.66710082529E-03 -8.87020508389E-04 +1.65179637841E-03 -8.69431105184E-04 +7.53557397724E-01 +3.98254259316E-01
2.70000000000E+09 +7.46547017222E-01 +2.20614678213E-01 +1.81668526284E-03 -1.19181205336E-03 +1.76553830863E-03 -1.12800105682E-03 +7.56498801512E-01 +3.85179599790E-01
2.70500000000E+09 +7.47429659211E-01 +2.06776136069E-01 +1.78631365009E-03 -1.56687014135E-03 +1.71695386042E-03 -1.47315625145E-03 +7.59617649510E-01 +3.71719297177E-01
2.71000000000E+09 +7.47771791825E-01 +1.93773631985E-01 +1.52941361652E-03 -1.87870887874E-03 +1.60178681029E-03 -1.81105552918E-03 +7.62438115584E-01 +3.58300404699E-01
2.71500000000E+09 +7.47630028717E-01 +1.81260663188E-01 +1.28142660733E-03 -1.98602915406E-03 +1.33734779668E-03 -2.09805415887E-03 +7.64691211756E-01 +3.45746922140E-01
2.72000000000E+09 +7.47255027421E-01 +1.68572953230E-01 +1.10790538828E-03 -2.04637426724E-03 +1.11475509215E-03 -2.23555418128E-03 +7.66775527115E-01 +3.32936167703E-01
2.72500000000E+09 +7.47106011591E-01 +1.54457788865E-01 +9.18002847823E-04 -2.14944386122E-03 +7.35766690961E-04 -2.24146686558E-03 +7.67793453749E-01 +3.19375986836E-01
2.73000000000E+09 +7.46026262527E-01 +1.38628846431E-01 +9.74345675191E-04 -2.19650910040E-03 +7.20071935289E-04 -2.10918767844E-03 +7.68884336680E-01 +3.05251960878E-01
2.73500000000E+09 +7.44268456454E-01 +1.20887161162E-01 +8.41967610860E-04 -2.58022475836E-03 +7.55113111999E-04 -2.26904865279E-03 +7.69364498368E-01 +2.90833204053E-01
2.74000000000E+09 +7.41734124851E-01 +1.02288069302E-01 +5.01675604571E-04 -2.72765766032E-03 +6.58204236884E-04 -2.39753925617E-03 +7.70407376519E-01 +2.76350388264E-01
2.74500000000E+09 +7.38330199082E-01 +8.32442657239E-02 +2.41047835499E-04 -2.78994037440E-03 +5.44698465687E-04 -2.65004131479E-03 +7.71798668348E-01 +2.61845340305E-01
2.75000000000E+09 +7.33957851006E-01 +6.41172858726E-02 +1.41552631435E-04 -2.84372132397E-03 +4.47638170979E-04 -2.94519776060E-03 +7.73051372097E-01 +2.46971285006E-01
2.75500000000E+09 +7.29050499585E-01 +4.63591228313E-02 -1.67619207535E-04 -3.22828200025E-03 -5.74954013598E-06 -3.52307303270E-03 +7.73246810388E-01 +2.31907154694E-01
2.76000000000E+09 +7.24142615161E-01 +2.93170371016E-02 -7.05173126888E-04 -3.35514743725E-03 -7.35913034036E-04 -3.52951505611E-03 +7.72798055933E-01 +2.16522188795E-01
2.76500000000E+09 +7.18720068545E-01 +1.28274214455E-02 -1.38705126904E-03 -3.20230649745E-03 -1.47214663023E-03 -3.39985398423E-03 +7.72017665372E-01 +2.00741269472E-01
2.77000000000E+09 +7.13305437701E-01 -4.14508161161E-03 -1.74735103968E-03 -2.68446931032E-03 -1.87562904918E-03 -2.77312370106E-03 +7.71815886105E-01 +1.83906302857E-01
2.77500000000E+09 +7.07596442991E-01 -2.20840142565E-02 -1.50862483574E-03 -2.19379063931E-03 -1.68435889535E-03 -2.26143091075E-03 +7.70363540391E-01 +1.65964817902E-01
2.78000000000E+09 +7.01287966019E-01 -4.13950768328E-02 -1.28975714407E-03 -2.54833148102E-03 -1.44526877733E-03 -2.53688300191E-03 +7.68727803856E-01 +1.48578410252E-01
2.78500000000E+09 +6.94333154727E-01 -6.18685410674E-02 -1.68045185608E-03 -2.95869174162E-03 -1.82864923414E-03 -2.81774734584E-03 +7.66881464708E-01 +1.31035947454E-01
2.79000000000E+09 +6.87021360953E-01 -8.37936622744E-02 -2.27786732359E-03 -2.80191747833E-03 -2.30257429881E-03 -2.60852065729E-03 +7.64392445604E-01 +1.13628866978E-01
2.79500000000E+09 +6.78804250919E-01 -1.06418074925E-01 -2.55088404640E-03 -2.71207467926E-03 -2.48729655266E-03 -2.56985056035E-03 +7.61067731505E-01 +9.52547461399E-02
2.80000000000E+09 +6.69567274987E-01 -1.28294574374E-01 -3.08479033897E-03 -2.38086517742E-03 -2.85692720158E-03 -2.37078089849E-03 +7.56433635426E-01 +7.63848103294E-02
2.80500000000E+09 +6.59859329630E-01 -1.48746618987E-01 -3.06399000206E-03 -2.16123631890E-03 -3.01355149950E-03 -2.24843327095E-03 +7.50931362143E-01 +5.70171545366E-02
2.81000000000E+09 +6.49225293492E-01 -1.67248292749E-01 -3.38296666933E-03 -2.34091607883E-03 -3.47041529623E-03 -2.42778817476E-03 +7.44434527652E-01 +3.79475514062E-02
2.81500000000E+09 +6.37999633269E-01 -1.83346268749E-01 -3.95991125723E-03 -2.01290598406E-03 -4.11809096834E-03 -1.97495501606E-03 +7.38348536848E-01 +1.84114613635E-02
2.82000000000E+09 +6.26248499818E-01 -1.98475966422E-01 -4.33585608068E-03 -1.90743947613E-03 -4.36462990329E-03 -1.67746336710E-03 +7.31356666052E-01 -2.02813433069E-03
2.82500000000E+09 +6.12376807509E-01 -2.13176079518E-01 -5.04401386037E-03 -1.54759959049E-03 -4.85735984400E-03 -1.26923106429E-03 +7.22954505045E-01 -2.23324561286E-02
2.83000000000E+09 +5.97041414805E-01 -2.27823721416E-01 -5.48365245156E-03 -8.51252967710E-04 -5.17216462341E-03 -8.13480818487E-04 +7.13334599940E-01 -4.22212108031E-02
2.83500000000E+09 +5.80005230294E-01 -2.44161751990E-01 -5.90031893519E-03 -3.24109174294E-06 -5.62603233785E-03 -1.99103144874E-04 +7.03432229027E-01 -6.24292228667E-02
2.84000000000E+09 +5.59923807302E-01 -2.62649322755E-01 -5.86570877296E-03 +8.08294709185E-04 -5.82451003585E-03 +6.39632134066E-04 +6.92503090094E-01 -8.24441895862E-02
2.84500000000E+09 +5.37444393586E-01 -2.82337790337E-01 -5.66741364280E-03 +1.43341033420E-03 -5.69755529336E-03 +1.32689963927E-03 +6.80698765117E-01 -1.03217008836E-01
2.85000000000E+09 +5.13133841603E-01 -3.02781713475E-01 -5.77352094472E-03 +1.73899965183E-03 -5.75313460477E-03 +1.74725210525E-03 +6.67268619055E-01 -1.23755984941E-01
2.85500000000E+09 +4.87656034840E-01 -3.23117252039E-01 -6.29313539901E-03 +2.35439535733E-03 -6.24172718550E-03 +2.36771199747E-03 +6.52556083337E-01 -1.44362022192E-01
2.86000000000E+09 +4.62463076924E-01 -3.41909531932E-01 -6.05603772685E-03 +3.61635536520E-03 -6.01623855381E-03 +3.47705499952E-03 +6.37064737770E-01 -1.63961782768E-01
2.86500000000E+09 +4.38486514817E-01 -3.58645239029E-01 -5.93733320820E-03 +4.16078052900E-03 -5.94157875487E-03 +4.04441740063E-03 +6.21251708640E-01 -1.84871227104E-01
2.87000000000E+09 +4.15448803129E-01 -3.73833774669E-01 -5.87518384747E-03 +5.47381560202E-03 -5.88920494436E-03 +5.47168039174E-03 +6.03003374145E-01 -2.06003313447E-01
2.87500000000E+09 +3.93003790172E-01 -3.86842750786E-01 -5.27382362130E-03 +6.39859366433E-03 -5.06995056620E-03 +6.51277568118E-03 +5.82500963116E-01 -2.26149362973E-01
2.88000000000E+09 +3.70041177016E-01 -3.98350536430E-01 -4.52303898269E-03 +7.21882067641E-03 -4.16801896643E-03 +7.15275214310E-03 +5.61790827505E-01 -2.45265211949E-01
2.88500000000E+09 +3.45309425554E-01 -4.07838596760E-01 -3.82211712367E-03 +8.28051766115E-03 -3.43550966698E-03 +7.89718723118E-03 +5.39391800504E-01 -2.64200164836E-01
2.89000000000E+09 +3.19280292460E-01 -4.16316528030E-01 -2.62264684948E-03 +9.08337871752E-03 -2.64459300572E-03 +8.51626973907E-03 +5.15172461219E-01 -2.83012848813E-01
2.89500000000E+09 +2.89687006227E-01 -4.23921502205E-01 -1.26718970190E-03 +9.50777314892E-03 -1.66363789197E-03 +9.11033105408E-03 +4.88156340140E-01 -3.01159421215E-01
2.90000000000E+09 +2.58076789679E-01 -4.30542488185E-01 -3.61333766451E-04 +9.50644141559E-03 -7.44145680564E-04 +9.58479651485E-03 +4.61025333525E-01 -3.17575861425E-01
2.90500000000E+09 +2.23303329709E-01 -4.36498288514E-01 +5.63351244379E-04 +1.02353541169E-02 +5.38208233872E-04 +1.04173010894E-02 +4.31994930010E-01 -3.34087829647E-01
2.91000000000E+09 +1.87192619697E-01 -4.40317080304E-01 +1.87534683252E-03 +1.05622354573E-02 +2.09608629177E-03 +1.04404275798E-02 +4.01900187448E-01 -3.49447210374E-01
2.91500000000E+09 +1.51714507134E-01 -4.42414517161E-01 +3.74895818596E-03 +1.15980438371E-02 +3.84568489698E-03 +1.09896198864E-02 +3.69689926182E-01 -3.62803635929E-01
2.92000000000E+09 +1.16665068927E-01 -4.43524073887E-01 +6.51357607126E-03 +1.06567145696E-02 +6.01535707406E-03 +1.00874701738E-02 +3.36170354853E-01 -3.74618860825E-01
2.92500000000E+09 +8.24675323389E-02 -4.43189896844E-01 +7.90533154711E-03 +9.36889563390E-03 +7.12768154237E-03 +9.20859245047E-03 +3.00164771395E-01 -3.82760071598E-01
2.93000000000E+09 +4.86375860653E-02 -4.39898909161E-01 +9.04469101176E-03 +7.99803515575E-03 +8.42124658510E-03 +8.28725433245E-03 +2.64163886424E-01 -3.90075380328E-01
2.93500000000E+09 +1.57914187099E-02 -4.34274116747E-01 +9.91246257776E-03 +7.11253103128E-03 +9.60478771493E-03 +7.55561856149E-03 +2.25930972366E-01 -3.95706145565E-01
2.94000000000E+09 -1.71622127239E-02 -4.25288240962E-01 +1.08519653789E-02 +6.08342420752E-03 +1.06900940395E-02 +6.33904380798E-03 +1.86565189836E-01 -4.00042011852E-01
2.94500000000E+09 -4.96329245805E-02 -4.13172852081E-01 +1.26419589041E-02 +4.94342390747E-03 +1.24379819917E-02 +5.23445106521E-03 +1.45387883557E-01 -4.00714554079E-01
2.95000000000E+09 -8.27612898177E-02 -3.99108412203E-01 +1.34374177335E-02 +2.57070938294E-03 +1.32683114267E-02 +3.10869311971E-03 +1.05065486635E-01 -3.98594764206E-01
2.95500000000E+09 -1.17223918855E-01 -3.81242920440E-01 +1.37555863261E-02 +5.15741052369E-04 +1.40769238362E-02 +1.03423136855E-03 +6.46509373496E-02 -3.94287365151E-01
2.96000000000E+09 -1.50541280061E-01 -3.59982438411E-01 +1.35539921491E-02 -1.54469667285E-03 +1.41498400246E-02 -1.41175940441E-03 +2.24364275699E-02 -3.86808487528E-01
2.96500000000E+09 -1.82494988398E-01 -3.36973389932E-01 +1.32150983997E-02 -3.12402640838E-03 +1.36374398043E-02 -3.53538269548E-03 -1.89401374955E-02 -3.74463480440E-01
2.97000000000E+09 -2.12930398633E-01 -3.12562378446E-01 +1.29426752094E-02 -4.76317017568E-03 +1.26915515617E-02 -5.16395567161E-03 -6.02985035945E-02 -3.59973760711E-01
2.97500000000E+09 -2.41722538233E-01 -2.86720058499E-01 +1.29539655097E-02 -6.81291630129E-03 +1.24946279903E-02 -6.72678955217E-03 -9.99080941446E-02 -3.42385147268E-01
2.98000000000E+09 -2.68551878340E-01 -2.59601847197E-01 +1.13973058185E-02 -9.29382989251E-03 +1.13137533538E-02 -8.72696250660E-03 -1.38877251591E-01 -3.22948187306E-01
2.98500000000E+09 -2.93162678387E-01 -2.30259654697E-01 +1.00019424568E-02 -1.06629673932E-02 +1.06155294831E-02 -1.02938994676E-02 -1.76125125295E-01 -3.00092584811E-01
2.99000000000E+09 -3.14306175105E-01 -1.99801393858E-01 +8.09336116871E-03 -1.19514049256E-02 +8.75462477699E-03 -1.23611554753E-02 -2.13119749866E-01 -2.74128250040E-01
2.99500000000E+09 -3.33690082298E-01 -1.68699036943E-01 +6.57851162019E-03 -1.28450744570E-02 +6.57562436892E-03 -1.36599892994E-02 -2.46511598451E-01 -2.43735059692E-01
3.00000000000E+09 -3.52798698732E-01 -1.36709267041E-01 +4.83667479983E-03 -1.37137651503E-02 +4.11815306615E-03 -1.40161324504E-02 -2.77562585947E-01 -2.11783457376E-01
3.00500000000E+09 -3.69367181371E-01 -1.02201700160E-01 +3.05493998807E-03 -1.46944075222E-02 +2.40787864132E-03 -1.43077879746E-02 -3.06125107594E-01 -1.78932868494E-01
3.01000000000E+09 -3.83505948466E-01 -6.83013066858E-02 +1.09467912223E-04 -1.53219760422E-02 +1.73321934097E-04 -1.46113355949E-02 -3.33667459334E-01 -1.43418193317E-01
3.01500000000E+09 -3.96543798636E-01 -3.45054200910E-02 -2.46667322365E-03 -1.44342136465E-02 -2.02262786048E-03 -1.41652712586E-02 -3.57323337966E-01 -1.06891047435E-01
3.02000000000E+09 -4.06510008851E-01 -3.33632577556E-04 -4.03656654160E-03 -1.31176864211E-02 -3.76694044150E-03 -1.32514176708E-02 -3.77724504036E-01 -6.83519593956E-02
3.02500000000E+09 -4.13213918094E-01 +3.24661157697E-02 -5.44773349556E-03 -1.27822149477E-02 -5.37963921031E-03 -1.28855729867E-02 -3.94928597061E-01 -3.01530743357E-02
3.03000000000E+09 -4.17015509987E-01 +6.44852174051E-02 -7.14586065256E-03 -1.15300344621E-02 -7.00363586205E-03 -1.14356306094E-02 -4.09796522414E-01 +1.01562678117E-02
3.03500000000E+09 -4.17699910967E-01 +9.56158780827E-02 -8.56762270958E-03 -1.10604050720E-02 -8.19493277352E-03 -1.11448918105E-02 -4.21167114649E-01 +4.99195311137E-02
3.04000000000E+09 -4.15255294472E-01 +1.26838652720E-01 -1.05490522174E-02 -8.91728791300E-03 -1.03781260512E-02 -9.51728078035E-03 -4.29559497870E-01 +9.12799685431E-02
3.04500000000E+09 -4.09987294076E-01 +1.58317206657E-01 -1.08257153503E-02 -7.03586344690E-03 -1.12553650002E-02 -7.61675730789E-03 -4.34347071031E-01 +1.30788657368E-01
3.05000000000E+09 -4.02731200935E-01 +1.91117910654E-01 -1.14290365879E-02 -5.50849112638E-03 -1.23494446993E-02 -5.45464243293E-03 -4.36922210512E-01 +1.69944648041E-01
3.05500000000E+09 -3.92049550869E-01 +2.25643250835E-01 -1.17655826546E-02 -3.92642653411E-03 -1.21950629165E-02 -3.21661301185E-03 -4.37475864370E-01 +2.07815026768E-01
3.06000000000E+09 -3.79177861209E-01 +2.59305121629E-01 -1.19584487438E-02 -2.59187124037E-03 -1.15613463613E-02 -1.81610099448E-03 -4.35733583676E-01 +2.44737308394E-01
3.06500000000E+09 -3.65012296652E-01 +2.92396775199E-01 -1.23115614169E-02 -6.89271730322E-04 -1.15185310597E-02 -6.21176965631E-04 -4.33036931174E-01 +2.82188705106E-01
3.07000000000E+09 -3.50410583394E-01 +3.22731154804E-01 -1.16190344796E-02 +1.23459563093E-03 -1.12530816021E-02 +5.57528304395E-04 -4.25888521357E-01 +3.18795807994E-01
