# Hz S RI R 50
! CMT, C1220, 16058040, 17.2.0/1
! Date: 15/08/2018 10:49:07
! Data: Format (Calibration Info)
! Freq                      S11: Re/Im (F2)                       S21: Re/Im (F2)                       S12: Re/Im (F2)                       S22: Re/Im (F2)            
2.50000000000E+09 +5.81025692237E-01 +6.47689607477E-01 -1.06835587499E-03 +7.12401939208E-04 -1.16472748560E-03 +7.22346220452E-04 +5.63344399253E-01 +7.25686578866E-01
2.50500000000E+09 +5.88631625693E-01 +6.38390059673E-01 -9.60666789891E-04 +8.05341121767E-04 -9.18958040166E-04 +9.21059898996E-04 +5.69133290001E-01 +7.20050095576E-01
2.51000000000E+09 +5.96926598083E-01 +6.28935161734E-01 -8.84361130513E-04 +9.05388479600E-04 -8.57019938432E-04 +9.40028760277E-04 +5.74905333212E-01 +7.14689290140E-01
2.51500000000E+09 +6.05203546872E-01 +6.20020049038E-01 -7.78396895709E-04 +1.00469268575E-03 -7.65426737326E-04 +9.88571762499E-04 +5.80224511566E-01 +7.09013791692E-01
2.52000000000E+09 +6.12695895407E-01 +6.11603631476E-01 -6.34479250760E-04 +1.13821603533E-03 -6.64766351187E-04 +1.11373505938E-03 +5.85190106622E-01 +7.02794543832E-01
2.52500000000E+09 +6.18753141618E-01 +6.04633982610E-01 -4.75969682157E-04 +1.12447026211E-03 -5.53939897613E-04 +1.11498290218E-03 +5.90653064119E-01 +6.96263553239E-01
2.53000000000E+09 +6.23686325960E-01 +5.98320003454E-01 -4.40039236626E-04 +1.11388674554E-03 -4.29386368305E-04 +1.16044039561E-03 +5.96694798137E-01 +6.89477845149E-01
2.53500000000E+09 +6.27366141573E-01 +5.92691821156E-01 -3.54514817439E-04 +1.19937518277E-03 -3.91254966775E-04 +1.21341548304E-03 +6.02627762379E-01 +6.82931862553E-01
2.54000000000E+09 +6.30288674376E-01 +5.87062394051E-01 -2.16147396128E-04 +1.32134926571E-03 -2.22178190363E-04 +1.31619755240E-03 +6.08636560737E-01 +6.76520328955E-01
2.54500000000E+09 +6.33178549752E-01 +5.81157830410E-01 -1.25188870447E-05 +1.33487014131E-03 -1.10681053181E-04 +1.33350873528E-03 +6.14339107122E-01 +6.70355862308E-01
2.55000000000E+09 +6.36953796910E-01 +5.74046142823E-01 +1.87744192406E-04 +1.36045545773E-03 +1.09968204407E-04 +1.51310891918E-03 +6.19495094624E-01 +6.64259543720E-01
2.55500000000E+09 +6.41867359864E-01 +5.65793171608E-01 +4.20653210795E-04 +1.14497055363E-03 +4.39405506958E-04 +1.35899206418E-03 +6.24658178223E-01 +6.57981254106E-01
2.56000000000E+09 +6.48521085427E-01 +5.56570145647E-01 +3.62575107633E-04 +1.06272801380E-03 +5.30568006674E-04 +1.23788633567E-03 +6.29546508816E-01 +6.50816168391E-01
2.56500000000E+09 +6.56227012162E-01 +5.46401042681E-01 +3.76993805136E-04 +1.06433564825E-03 +6.63422430525E-04 +1.16182345844E-03 +6.34920387356E-01 +6.43685612544E-01
2.57000000000E+09 +6.64484660862E-01 +5.36028559567E-01 +4.77219993588E-04 +1.16912326529E-03 +6.91554966608E-04 +1.05796718732E-03 +6.40536363189E-01 +6.36041981270E-01
2.57500000000E+09 +6.72429720287E-01 +5.25877885233E-01 +7.44657659310E-04 +1.18758935437E-03 +7.94614163899E-04 +9.02740081500E-04 +6.46301991088E-01 +6.28559000228E-01
2.58000000000E+09 +6.79235950070E-01 +5.16783151397E-01 +9.18073888509E-04 +9.67244271521E-04 +8.08824982114E-04 +7.75909426343E-04 +6.51795818784E-01 +6.21011457832E-01
2.58500000000E+09 +6.84693751073E-01 +5.08407066964E-01 +9.72277582940E-04 +7.99224678271E-04 +8.14893192280E-04 +7.38747048841E-04 +6.57047739617E-01 +6.13297792374E-01
2.59000000000E+09 +6.88505058980E-01 +5.00902844281E-01 +9.19642238812E-04 +6.97231771721E-04 +7.75107966627E-04 +7.18349024512E-04 +6.61899015157E-01 +6.05605095347E-01
2.59500000000E+09 +6.91231946431E-01 +4.93561863013E-01 +9.79218319181E-04 +6.82095244431E-04 +9.63645759178E-04 +7.37673903710E-04 +6.66805974242E-01 +5.97688391346E-01
2.60000000000E+09 +6.92937822379E-01 +4.85562710492E-01 +1.20433315957E-03 +5.99275895009E-04 +1.13199245119E-03 +5.94150963212E-04 +6.71893490359E-01 +5.89186186068E-01
2.60500000000E+09 +6.94896337141E-01 +4.76035015788E-01 +1.21277773530E-03 +3.02211267426E-04 +1.21310839364E-03 +3.04256187648E-04 +6.77490845766E-01 +5.80702753983E-01
2.61000000000E+09 +6.97394054260E-01 +4.64371714517E-01 +1.01369616990E-03 +1.79655193693E-04 +1.03168018034E-03 +2.18158967560E-04 +6.82823149031E-01 +5.71642683400E-01
2.61500000000E+09 +7.00823619150E-01 +4.50719519460E-01 +9.98725469034E-04 +1.83061485515E-04 +1.06119725414E-03 +1.87148993682E-04 +6.87732089658E-01 +5.62737827775E-01
2.62000000000E+09 +7.05231168969E-01 +4.35009398802E-01 +1.01232716943E-03 +8.79595472614E-05 +1.06279443620E-03 +1.21248680250E-04 +6.92355706363E-01 +5.53920980466E-01
2.62500000000E+09 +7.10479336938E-01 +4.18169418290E-01 +9.79465960192E-04 +9.36599653434E-05 +1.05971414662E-03 +2.75367767544E-05 +6.97143955008E-01 +5.45244858353E-01
2.63000000000E+09 +7.16055488239E-01 +4.01339947394E-01 +1.16766061863E-03 +6.78172646223E-05 +1.10899532638E-03 -7.35355319578E-05 +7.01930290457E-01 +5.36279157902E-01
2.63500000000E+09 +7.21004708631E-01 +3.85339651795E-01 +1.18807969832E-03 -2.31486365199E-04 +1.02078699576E-03 -3.58687813673E-04 +7.06533563508E-01 +5.26969015062E-01
2.64000000000E+09 +7.25418714028E-01 +3.71200724944E-01 +9.39314757341E-04 -3.37976530732E-04 +8.06597711648E-04 -3.33989800575E-04 +7.11082419105E-01 +5.17330282519E-01
2.64500000000E+09 +7.28667253030E-01 +3.59266154520E-01 +9.45000193078E-04 -3.74884818950E-04 +8.29038043614E-04 -2.98287570874E-04 +7.15617580436E-01 +5.07785608471E-01
2.65000000000E+09 +7.30700640028E-01 +3.49460493391E-01 +7.90308917636E-04 -4.34440682621E-04 +8.03559289993E-04 -3.39882435294E-04 +7.20037533999E-01 +4.97715433864E-01
2.65500000000E+09 +7.32328864684E-01 +3.40432502281E-01 +6.95155847171E-04 -4.58991180252E-04 +7.70798272573E-04 -3.86582035534E-04 +7.24169668746E-01 +4.87153117842E-01
2.66000000000E+09 +7.33466258185E-01 +3.31508101978E-01 +6.60666801042E-04 -3.22709488901E-04 +6.72935225538E-04 -3.39940036063E-04 +7.28233296648E-01 +4.76068819639E-01
2.66500000000E+09 +7.34501202674E-01 +3.21673076841E-01 +6.06807936778E-04 -3.78611826106E-04 +5.29518852440E-04 -4.27344466956E-04 +7.32268334780E-01 +4.65073927140E-01
2.67000000000E+09 +7.35443337006E-01 +3.09664704673E-01 +6.58314028728E-04 -3.00804766559E-04 +6.29388791861E-04 -3.12473986339E-04 +7.36582814272E-01 +4.54459394067E-01
2.67500000000E+09 +7.36497057952E-01 +2.95732458894E-01 +7.91807678776E-04 -3.47557550940E-04 +7.59483518132E-04 -3.51728757093E-04 +7.40794794184E-01 +4.43529758105E-01
2.68000000000E+09 +7.37700072666E-01 +2.79954782877E-01 +8.08866678782E-04 -4.86437487667E-04 +7.47850184319E-04 -4.66524420189E-04 +7.44855343601E-01 +4.32517909938E-01
2.68500000000E+09 +7.39100087336E-01 +2.62960889962E-01 +5.83081642560E-04 -6.04810084486E-04 +5.52576953603E-04 -5.04749592602E-04 +7.47995589632E-01 +4.21117501526E-01
2.69000000000E+09 +7.40095997060E-01 +2.45603034629E-01 +4.88867756858E-04 -3.81431286079E-04 +4.95742851244E-04 -3.85367900495E-04 +7.50942709412E-01 +4.09323370842E-01
2.69500000000E+09 +7.40957381623E-01 +2.29313769294E-01 +7.71628812910E-04 -2.43059390539E-04 +7.68312912045E-04 -2.45191952346E-04 +7.53840647771E-01 +3.96911388900E-01
2.70000000000E+09 +7.41572860020E-01 +2.14066419800E-01 +1.00992219318E-03 -4.81379485592E-04 +9.60710702519E-04 -4.69860051134E-04 +7.57150425972E-01 +3.83898953273E-01
2.70500000000E+09 +7.42171028844E-01 +2.00433530663E-01 +1.02811821452E-03 -7.40747232017E-04 +9.90641480256E-04 -7.29124174514E-04 +7.60414285581E-01 +3.70422551018E-01
2.71000000000E+09 +7.42386840891E-01 +1.87496882571E-01 +7.68368037051E-04 -9.60836003301E-04 +8.68672891695E-04 -8.94374795882E-04 +7.63153741626E-01 +3.57043486391E-01
2.71500000000E+09 +7.42116504324E-01 +1.74880245400E-01 +6.65591398170E-04 -9.43662237262E-04 +7.71687079532E-04 -9.79205548486E-04 +7.65244414802E-01 +3.44638626073E-01
2.72000000000E+09 +7.41534030780E-01 +1.62505805002E-01 +6.54490836939E-04 -1.01404857817E-03 +6.96468565055E-04 -1.10219031343E-03 +7.67349728991E-01 +3.32160306634E-01
2.72500000000E+09 +7.41359557392E-01 +1.48886883576E-01 +6.11337426515E-04 -1.07680378041E-03 +5.36154509503E-04 -1.11241348256E-03 +7.68646529530E-01 +3.18898551285E-01
2.73000000000E+09 +7.40508757272E-01 +1.33150088852E-01 +6.43144696638E-04 -1.12992421808E-03 +5.17807456661E-04 -1.07734303033E-03 +7.70028433863E-01 +3.04750065896E-01
2.73500000000E+09 +7.38680275991E-01 +1.15711283565E-01 +5.09517470921E-04 -1.31044364328E-03 +4.67975101680E-04 -1.14718289293E-03 +7.70887076344E-01 +2.89907922909E-01
2.74000000000E+09 +7.36197847558E-01 +9.72907057710E-02 +4.03567480177E-04 -1.35064162911E-03 +4.45734028509E-04 -1.17118306370E-03 +7.72211361590E-01 +2.75131555814E-01
2.74500000000E+09 +7.32352727773E-01 +7.84242407160E-02 +2.57877986880E-04 -1.28998310604E-03 +3.94766348526E-04 -1.17139178472E-03 +7.73683754077E-01 +2.60454499361E-01
2.75000000000E+09 +7.27782322836E-01 +6.00661916424E-02 +5.21446946364E-04 -1.34852536084E-03 +7.02496455897E-04 -1.32439474863E-03 +7.74762645263E-01 +2.45559148507E-01
2.75500000000E+09 +7.22930313990E-01 +4.23601732533E-02 +3.24470738723E-04 -1.88910552141E-03 +4.91133019563E-04 -2.01169770429E-03 +7.74998009947E-01 +2.30707002264E-01
2.76000000000E+09 +7.17923418683E-01 +2.54677255865E-02 -6.63460274282E-05 -1.82989933359E-03 -9.01802885288E-05 -2.04717170186E-03 +7.74738267522E-01 +2.15221937577E-01
2.76500000000E+09 +7.12335735631E-01 +8.83041673956E-03 -4.02053711686E-04 -1.85833212873E-03 -4.85475248210E-04 -2.02499556603E-03 +7.74080283859E-01 +1.99204556299E-01
2.77000000000E+09 +7.07009037429E-01 -7.79893315483E-03 -6.39173938707E-04 -1.57272612753E-03 -7.16182130503E-04 -1.56641512490E-03 +7.73858237652E-01 +1.82143744367E-01
2.77500000000E+09 +7.01431372727E-01 -2.57595956901E-02 -3.90959526215E-04 -1.23553133801E-03 -4.58918655551E-04 -1.26544801247E-03 +7.72695948829E-01 +1.64001431111E-01
2.78000000000E+09 +6.95501281133E-01 -4.47534591845E-02 -1.46731782015E-04 -1.66571590301E-03 -2.71727401946E-04 -1.72701954459E-03 +7.71131926056E-01 +1.46072626471E-01
2.78500000000E+09 +6.88944757779E-01 -6.55801993388E-02 -4.43470209919E-04 -1.91980868992E-03 -5.65795226963E-04 -1.90064497606E-03 +7.69234896437E-01 +1.28257575369E-01
2.79000000000E+09 +6.81497791894E-01 -8.73835949298E-02 -7.09555251440E-04 -1.87646939721E-03 -8.13001493436E-04 -1.72670954075E-03 +7.66350178149E-01 +1.10827582229E-01
2.79500000000E+09 +6.73546456171E-01 -1.09277253819E-01 -7.71448380144E-04 -2.10025011121E-03 -7.43790581868E-04 -1.98054715406E-03 +7.63004758728E-01 +9.26322692785E-02
2.80000000000E+09 +6.64723061728E-01 -1.31078231751E-01 -1.20339868877E-03 -2.19362779800E-03 -1.03657516508E-03 -2.13912522724E-03 +7.58491517338E-01 +7.36663778857E-02
2.80500000000E+09 +6.55050500497E-01 -1.51542715659E-01 -1.30643357343E-03 -2.27905812670E-03 -1.22456217838E-03 -2.35488783175E-03 +7.52888449425E-01 +5.40732123539E-02
2.81000000000E+09 +6.44328452469E-01 -1.69687301628E-01 -1.85748887621E-03 -2.45748561589E-03 -1.90701005275E-03 -2.53786736267E-03 +7.46345228486E-01 +3.44685502722E-02
2.81500000000E+09 +6.32936082123E-01 -1.85852055717E-01 -2.27836548548E-03 -2.13010076964E-03 -2.40638880544E-03 -2.12484340391E-03 +7.40145228330E-01 +1.46240285897E-02
2.82000000000E+09 +6.20904381582E-01 -2.00755126793E-01 -2.52861597849E-03 -2.18593343711E-03 -2.63998535884E-03 -2.02362558740E-03 +7.32928727915E-01 -6.24775477982E-03
2.82500000000E+09 +6.06888101412E-01 -2.15094387811E-01 -3.10408732892E-03 -2.11729273770E-03 -3.01829700910E-03 -1.92141681338E-03 +7.24272124373E-01 -2.70325052622E-02
2.83000000000E+09 +5.91795893606E-01 -2.29623423383E-01 -3.72622022325E-03 -1.76862046293E-03 -3.51483194376E-03 -1.72269734868E-03 +7.14259066556E-01 -4.70220881043E-02
2.83500000000E+09 +5.75016077671E-01 -2.46116659604E-01 -4.27854663593E-03 -1.22375659553E-03 -4.04126369752E-03 -1.28571560313E-03 +7.03866910392E-01 -6.71641544371E-02
2.84000000000E+09 +5.55283378790E-01 -2.64431149526E-01 -4.46303092443E-03 -5.52893343472E-04 -4.37340922372E-03 -6.51903742752E-04 +6.92403795304E-01 -8.70247380864E-02
2.84500000000E+09 +5.33258180930E-01 -2.84427372094E-01 -4.40105504714E-03 +5.08674136906E-05 -4.43947706135E-03 -2.12124656313E-05 +6.80328929437E-01 -1.07809801119E-01
2.85000000000E+09 +5.09114601543E-01 -3.04844256259E-01 -4.50402452991E-03 +1.47770550464E-04 -4.47781716995E-03 +1.88590548938E-04 +6.66661230092E-01 -1.28715527853E-01
2.85500000000E+09 +4.84079887542E-01 -3.24804114071E-01 -5.16830444703E-03 +7.05934891810E-04 -5.07912185041E-03 +7.15368948867E-04 +6.51238309026E-01 -1.49569045167E-01
2.86000000000E+09 +4.59296251636E-01 -3.43691592400E-01 -5.17726569275E-03 +1.63046415222E-03 -5.12086459398E-03 +1.57607103058E-03 +6.34995620997E-01 -1.68999140778E-01
2.86500000000E+09 +4.35561599392E-01 -3.60318227824E-01 -5.18835069870E-03 +2.33909071121E-03 -5.20504086832E-03 +2.27956390024E-03 +6.18701555296E-01 -1.89475258770E-01
2.87000000000E+09 +4.12576135951E-01 -3.75387782789E-01 -5.10203617010E-03 +3.22424994960E-03 -5.11973185949E-03 +3.24327540239E-03 +6.00226772241E-01 -2.10143228705E-01
2.87500000000E+09 +3.90324785425E-01 -3.88255266783E-01 -4.79592916046E-03 +4.02330816490E-03 -4.71862110138E-03 +4.11781314460E-03 +5.79549420285E-01 -2.29919675869E-01
2.88000000000E+09 +3.68038782361E-01 -3.99947560944E-01 -4.29649700228E-03 +4.63185514409E-03 -4.08663060453E-03 +4.62913740131E-03 +5.58485893640E-01 -2.48462018692E-01
2.88500000000E+09 +3.43578957465E-01 -4.10407559051E-01 -4.20186144596E-03 +5.55067461566E-03 -3.88551713672E-03 +5.22379628430E-03 +5.35927923088E-01 -2.67166322124E-01
2.89000000000E+09 +3.16991053015E-01 -4.19324299737E-01 -3.35188675103E-03 +6.54066038003E-03 -3.30018200666E-03 +6.09974739105E-03 +5.11546634941E-01 -2.85787317205E-01
2.89500000000E+09 +2.87439624543E-01 -4.26994097963E-01 -2.30884828422E-03 +7.03866858277E-03 -2.52956973485E-03 +6.67415179569E-03 +4.84059926791E-01 -3.04062918706E-01
2.90000000000E+09 +2.56111287575E-01 -4.33599404191E-01 -1.64721059099E-03 +7.26182690749E-03 -1.93573164381E-03 +7.19480539027E-03 +4.56252356855E-01 -3.19932366591E-01
2.90500000000E+09 +2.21809519888E-01 -4.39804450439E-01 -1.01198887782E-03 +7.86586738710E-03 -1.03634210790E-03 +7.99032870855E-03 +4.26929097643E-01 -3.35867329509E-01
2.91000000000E+09 +1.86399470048E-01 -4.43807421013E-01 +4.71590893592E-05 +8.31882868124E-03 +2.68281474722E-04 +8.27493854872E-03 +3.96784064854E-01 -3.49875361640E-01
2.91500000000E+09 +1.51278801923E-01 -4.46963328919E-01 +1.27466288912E-03 +9.13215082063E-03 +1.49321605981E-03 +8.69714964853E-03 +3.65269381190E-01 -3.62328077812E-01
2.92000000000E+09 +1.15724793938E-01 -4.48234523021E-01 +3.28525951109E-03 +9.11638958763E-03 +2.92581211107E-03 +8.57365020521E-03 +3.32118850884E-01 -3.73841455991E-01
2.92500000000E+09 +8.14147977003E-02 -4.47778095916E-01 +4.86405657043E-03 +8.56920797492E-03 +4.29607367792E-03 +8.33653702495E-03 +2.96147023975E-01 -3.81678989846E-01
2.93000000000E+09 +4.77206417327E-02 -4.44556058582E-01 +6.11324712647E-03 +7.43233877430E-03 +5.55255999938E-03 +7.66556490866E-03 +2.60143822622E-01 -3.88716462011E-01
2.93500000000E+09 +1.48505439881E-02 -4.39150813557E-01 +7.00418481909E-03 +6.99970891652E-03 +6.77355619843E-03 +7.33312541392E-03 +2.21728043294E-01 -3.93649806367E-01
2.94000000000E+09 -1.83030908827E-02 -4.30542935734E-01 +8.01855127193E-03 +6.00781401053E-03 +7.95473967985E-03 +6.20751611941E-03 +1.82946361535E-01 -3.97222717958E-01
2.94500000000E+09 -5.12368456473E-02 -4.18867586284E-01 +9.39995197884E-03 +5.10798523917E-03 +9.24202165729E-03 +5.30787297377E-03 +1.42504036395E-01 -3.97649771784E-01
2.95000000000E+09 -8.47794965401E-02 -4.04956207411E-01 +1.03554751780E-02 +3.37540407382E-03 +1.01263036541E-02 +3.73260170275E-03 +1.02927810220E-01 -3.95608427943E-01
2.95500000000E+09 -1.19612997691E-01 -3.87277678726E-01 +1.05038517668E-02 +1.68776981260E-03 +1.06967648050E-02 +2.17557629483E-03 +6.31022084424E-02 -3.90536305206E-01
2.96000000000E+09 -1.53332004850E-01 -3.66360949488E-01 +1.05648661372E-02 +1.63093814973E-04 +1.10430670034E-02 +3.33848122519E-04 +2.17715240618E-02 -3.83285299903E-01
2.96500000000E+09 -1.86122586931E-01 -3.43182220670E-01 +1.05711629422E-02 -9.74498953552E-04 +1.10065301951E-02 -1.25816874659E-03 -1.94020991606E-02 -3.71179260985E-01
2.97000000000E+09 -2.16675191286E-01 -3.18326280729E-01 +1.06087065332E-02 -2.39068241730E-03 +1.04649823549E-02 -2.77491711031E-03 -6.03369031327E-02 -3.57005632030E-01
2.97500000000E+09 -2.45655141140E-01 -2.92383547036E-01 +1.08734762155E-02 -4.06991983137E-03 +1.04660134496E-02 -4.03355155789E-03 -1.00684873589E-01 -3.39775109168E-01
2.98000000000E+09 -2.73053863563E-01 -2.64906576909E-01 +9.70516593001E-03 -6.21412096911E-03 +9.62299886330E-03 -5.74467273074E-03 -1.39284192882E-01 -3.19703068470E-01
2.98500000000E+09 -2.97868904428E-01 -2.35143628897E-01 +8.85396750265E-03 -7.25599486788E-03 +9.23220201609E-03 -6.90395328853E-03 -1.75925359615E-01 -2.96520243809E-01
2.99000000000E+09 -3.19466865846E-01 -2.04340460791E-01 +7.58604914869E-03 -8.53702513815E-03 +8.08912273158E-03 -8.85959969662E-03 -2.11815645175E-01 -2.70759614458E-01
2.99500000000E+09 -3.39766509008E-01 -1.72908609834E-01 +6.39560175848E-03 -9.41208888941E-03 +6.37917076995E-03 -1.00046353796E-02 -2.44533934109E-01 -2.41231630581E-01
3.00000000000E+09 -3.59085189635E-01 -1.39659980064E-01 +5.04244073742E-03 -1.03382417324E-02 +4.53808297751E-03 -1.05556224541E-02 -2.76018762279E-01 -2.09434111964E-01
3.00500000000E+09 -3.75385109280E-01 -1.04490882360E-01 +3.74780616681E-03 -1.12909616198E-02 +3.18129072285E-03 -1.09962722292E-02 -3.04256722026E-01 -1.76455613614E-01
3.01000000000E+09 -3.89278623036E-01 -7.00722442438E-02 +1.51602404958E-03 -1.19576624708E-02 +1.45397429187E-03 -1.14138352778E-02 -3.31987718952E-01 -1.41201339325E-01
3.01500000000E+09 -4.01815038211E-01 -3.59425372471E-02 -6.31032579365E-04 -1.17051428518E-02 -3.21102803288E-04 -1.14153451846E-02 -3.55490919920E-01 -1.04714131586E-01
3.02000000000E+09 -4.11513286459E-01 -1.80456151683E-03 -2.19410315787E-03 -1.06383885461E-02 -1.89254827395E-03 -1.06278902425E-02 -3.76019167744E-01 -6.63012226317E-02
3.02500000000E+09 -4.17977738507E-01 +3.16500889676E-02 -2.94239269858E-03 -1.05669409923E-02 -2.86682985655E-03 -1.05934576534E-02 -3.92350145499E-01 -2.82691241824E-02
3.03000000000E+09 -4.21153746970E-01 +6.42942229780E-02 -4.78005967277E-03 -9.94223296165E-03 -4.64121764908E-03 -9.83045263108E-03 -4.07038384392E-01 +1.13060783320E-02
3.03500000000E+09 -4.20984223023E-01 +9.60443911128E-02 -5.95506769689E-03 -9.35213161150E-03 -5.64252437848E-03 -9.48768650095E-03 -4.18325484361E-01 +5.07461830036E-02
3.04000000000E+09 -4.17709366616E-01 +1.28055158024E-01 -7.74528192476E-03 -7.70862214873E-03 -7.60016179852E-03 -8.18648814794E-03 -4.26879876114E-01 +9.18876745198E-02
3.04500000000E+09 -4.11177336843E-01 +1.59874269919E-01 -7.75248008861E-03 -6.18668386909E-03 -8.15995738902E-03 -6.68603352740E-03 -4.31739328210E-01 +1.31321564304E-01
3.05000000000E+09 -4.03004234004E-01 +1.92705933423E-01 -8.32342791015E-03 -5.36246296296E-03 -9.05663054488E-03 -5.37683652053E-03 -4.34640350352E-01 +1.70301033583E-01
3.05500000000E+09 -3.91943938185E-01 +2.27057961808E-01 -8.77175697461E-03 -4.34834947300E-03 -9.26541692343E-03 -3.79138103480E-03 -4.35335380812E-01 +2.08402812442E-01
3.06000000000E+09 -3.78465409899E-01 +2.60811442962E-01 -9.53621591819E-03 -3.17727473612E-03 -9.29232575071E-03 -2.57698243253E-03 -4.33241804007E-01 +2.45049243515E-01
3.06500000000E+09 -3.63998460059E-01 +2.93699826571E-01 -9.94301979295E-03 -1.34050464671E-03 -9.24969686915E-03 -1.33633776480E-03 -4.30748690374E-01 +2.81644790317E-01
3.07000000000E+09 -3.48710865694E-01 +3.24284302103E-01 -9.46689625133E-03 +2.14743168093E-04 -9.15706847616E-03 -3.13057408244E-04 -4.23755752372E-01 +3.18220553329E-01
