# Hz S RI R 50
! CMT, C1220, 16058040, 17.2.0/1
! Date: 15/08/2018 10:53:54
! Data: Format (Calibration Info)
! Freq                      S11: Re/Im (F2)                       S21: Re/Im (F2)                       S12: Re/Im (F2)                       S22: Re/Im (F2)            
2.50000000000E+09 +5.79659379668E-01 +6.53026689754E-01 -1.43749732020E-03 +5.96084625081E-04 -1.59645500056E-03 +6.14284639842E-04 +5.60779040597E-01 +7.27230526690E-01
2.50500000000E+09 +5.87374510947E-01 +6.43808487695E-01 -1.42003848124E-03 +7.89912944378E-04 -1.43826406382E-03 +8.31911154050E-04 +5.66547623287E-01 +7.21579386987E-01
2.51000000000E+09 +5.95963579811E-01 +6.34469367461E-01 -1.33207160656E-03 +9.05358384377E-04 -1.29571418096E-03 +9.95871747495E-04 +5.72414304944E-01 +7.16155051478E-01
2.51500000000E+09 +6.04402775850E-01 +6.25644549265E-01 -1.24057834325E-03 +1.05273795145E-03 -1.19802169193E-03 +1.03572463611E-03 +5.77736242609E-01 +7.10520684108E-01
2.52000000000E+09 +6.12234451787E-01 +6.17491178508E-01 -1.07635374985E-03 +1.25969380827E-03 -1.13465336717E-03 +1.15553594325E-03 +5.82794154625E-01 +7.04346737492E-01
2.52500000000E+09 +6.18458277538E-01 +6.10514436995E-01 -9.58820379725E-04 +1.27042913817E-03 -9.95450882367E-04 +1.20894991056E-03 +5.88309382428E-01 +6.98086281833E-01
2.53000000000E+09 +6.23338959770E-01 +6.04544453062E-01 -8.82695504713E-04 +1.27654629767E-03 -9.62168753533E-04 +1.35744298707E-03 +5.94351749169E-01 +6.91394603634E-01
2.53500000000E+09 +6.27102956932E-01 +5.99220478134E-01 -9.32470470076E-04 +1.44370015413E-03 -9.49747812056E-04 +1.43160318426E-03 +6.00001824535E-01 +6.84789256766E-01
2.54000000000E+09 +6.30030070111E-01 +5.93590578036E-01 -7.60199533962E-04 +1.66883276221E-03 -7.50563745244E-04 +1.69741838819E-03 +6.06005112186E-01 +6.78447122588E-01
2.54500000000E+09 +6.33018879783E-01 +5.87570669231E-01 -5.32114318133E-04 +1.83807168473E-03 -5.98744232235E-04 +1.83077248359E-03 +6.11744110491E-01 +6.72331579258E-01
2.55000000000E+09 +6.36676716859E-01 +5.80424069365E-01 -1.35196019241E-04 +1.89098658260E-03 -2.90964746445E-04 +2.04071199594E-03 +6.16983315032E-01 +6.66254221655E-01
2.55500000000E+09 +6.41682080695E-01 +5.71857237905E-01 +1.10223374183E-04 +1.68800410860E-03 +2.97326244654E-05 +1.93527975195E-03 +6.22269487519E-01 +6.59948052446E-01
2.56000000000E+09 +6.48338949733E-01 +5.62546146779E-01 +8.08829964262E-05 +1.59833904452E-03 +2.38006266205E-04 +1.90772811004E-03 +6.27329340774E-01 +6.53054909839E-01
2.56500000000E+09 +6.56371765634E-01 +5.52253370866E-01 +1.49954431755E-04 +1.70247739367E-03 +4.95681387893E-04 +1.82959743018E-03 +6.32662679971E-01 +6.46016982484E-01
2.57000000000E+09 +6.64990024715E-01 +5.41773838739E-01 +3.27489403495E-04 +1.79974470500E-03 +7.06873260129E-04 +1.62951998076E-03 +6.38333916586E-01 +6.38532525959E-01
2.57500000000E+09 +6.73126094647E-01 +5.31587509913E-01 +6.18980154744E-04 +1.78762425096E-03 +7.65457243042E-04 +1.43918709386E-03 +6.44184027017E-01 +6.31048443491E-01
2.58000000000E+09 +6.80052998176E-01 +5.22752565176E-01 +8.57519443041E-04 +1.64383153595E-03 +7.97000312109E-04 +1.34664014544E-03 +6.49578900953E-01 +6.23637942716E-01
2.58500000000E+09 +6.85832240344E-01 +5.14568090744E-01 +1.04128599901E-03 +1.42536411220E-03 +8.42150619268E-04 +1.29415557470E-03 +6.54993163824E-01 +6.15813383886E-01
2.59000000000E+09 +6.89945730300E-01 +5.07516875680E-01 +9.91285702585E-04 +1.29112328156E-03 +8.10808854704E-04 +1.29867108684E-03 +6.59863075677E-01 +6.08190381056E-01
2.59500000000E+09 +6.93010866986E-01 +5.00467673472E-01 +1.06523955012E-03 +1.25302210563E-03 +9.57210836551E-04 +1.35898929725E-03 +6.64955578518E-01 +6.00210093722E-01
2.60000000000E+09 +6.94820382526E-01 +4.92577894343E-01 +1.27891214715E-03 +1.24690576609E-03 +1.18541464067E-03 +1.27797998663E-03 +6.70370719725E-01 +5.91922045980E-01
2.60500000000E+09 +6.96869083752E-01 +4.83198913655E-01 +1.37138700052E-03 +1.07328325329E-03 +1.35436502349E-03 +1.05506793080E-03 +6.76199776637E-01 +5.83321124428E-01
2.61000000000E+09 +6.99253912384E-01 +4.71554931680E-01 +1.37650774427E-03 +9.50996297704E-04 +1.39001825634E-03 +9.36253717514E-04 +6.81299045988E-01 +5.74334423331E-01
2.61500000000E+09 +7.02968456426E-01 +4.57929121422E-01 +1.51687573942E-03 +8.60717580269E-04 +1.50063251610E-03 +8.51774653665E-04 +6.86300556486E-01 +5.65599168187E-01
2.62000000000E+09 +7.07431859823E-01 +4.42104616533E-01 +1.48754481173E-03 +6.63780487743E-04 +1.59767652930E-03 +6.67733943931E-04 +6.90987745185E-01 +5.56730940162E-01
2.62500000000E+09 +7.12827948633E-01 +4.25324340917E-01 +1.49975645265E-03 +6.42783982657E-04 +1.60068638653E-03 +5.34567483497E-04 +6.95826729160E-01 +5.47980107220E-01
2.63000000000E+09 +7.18712999590E-01 +4.08412746327E-01 +1.64133174131E-03 +6.54247780440E-04 +1.68973586236E-03 +4.04813233743E-04 +7.00769517720E-01 +5.39005913618E-01
2.63500000000E+09 +7.24039954772E-01 +3.92520222744E-01 +1.84272243999E-03 +3.52235613782E-04 +1.67652695632E-03 +1.85092380738E-04 +7.05583753064E-01 +5.29655578422E-01
2.64000000000E+09 +7.28577304483E-01 +3.78324552530E-01 +1.81412232069E-03 +1.81530876513E-04 +1.58689874333E-03 +1.18073227659E-04 +7.10277926315E-01 +5.20077947580E-01
2.64500000000E+09 +7.32092333526E-01 +3.66478643235E-01 +1.82309969185E-03 -1.68530519209E-05 +1.57267282350E-03 +1.27760685971E-04 +7.15032533807E-01 +5.10333098121E-01
2.65000000000E+09 +7.34337964457E-01 +3.56722688841E-01 +1.68410160488E-03 -1.37129909273E-04 +1.59039351498E-03 +6.59415829621E-05 +7.19563773947E-01 +5.00368558216E-01
2.65500000000E+09 +7.35983692491E-01 +3.47702811248E-01 +1.62040962040E-03 -1.53797955375E-04 +1.64656365170E-03 -4.39418287128E-05 +7.23563184030E-01 +4.89800151745E-01
2.66000000000E+09 +7.37165519110E-01 +3.38767596251E-01 +1.68239933557E-03 -1.85609149428E-04 +1.83870557938E-03 -1.42373069624E-04 +7.27606919884E-01 +4.78524813079E-01
2.66500000000E+09 +7.38215677487E-01 +3.28895060117E-01 +1.77484475750E-03 -3.19505339963E-04 +1.80326197071E-03 -4.62331018062E-04 +7.31689465690E-01 +4.67532349484E-01
2.67000000000E+09 +7.39228498325E-01 +3.16968542491E-01 +1.79016818205E-03 -4.39756976156E-04 +1.69429685403E-03 -6.02148928519E-04 +7.36350127257E-01 +4.56875155441E-01
2.67500000000E+09 +7.40459377373E-01 +3.02782546370E-01 +1.78155592379E-03 -5.46664841130E-04 +1.63670652050E-03 -6.08533704072E-04 +7.40796380969E-01 +4.45627323103E-01
2.68000000000E+09 +7.41813219776E-01 +2.86826509265E-01 +1.80040118564E-03 -8.13082738672E-04 +1.75489658726E-03 -7.53370346261E-04 +7.45031851707E-01 +4.34351552070E-01
2.68500000000E+09 +7.43202447579E-01 +2.69783030455E-01 +1.59274447210E-03 -1.00935834123E-03 +1.64582437351E-03 -9.12092547510E-04 +7.48127804194E-01 +4.22748185550E-01
2.69000000000E+09 +7.44643999600E-01 +2.52343191523E-01 +1.60872670097E-03 -9.73786327580E-04 +1.62722615170E-03 -8.82613503954E-04 +7.50900238946E-01 +4.10906532801E-01
2.69500000000E+09 +7.45749769710E-01 +2.35836869646E-01 +1.75137051746E-03 -9.80456330650E-04 +1.74315022286E-03 -1.01356203809E-03 +7.53878200662E-01 +3.98343518408E-01
2.70000000000E+09 +7.46874101132E-01 +2.20557114629E-01 +1.88366464247E-03 -1.29433942633E-03 +1.81785217509E-03 -1.24024898692E-03 +7.56774025254E-01 +3.85194660127E-01
2.70500000000E+09 +7.47717465077E-01 +2.06582577645E-01 +1.83593990314E-03 -1.66392613539E-03 +1.76376333191E-03 -1.48738153831E-03 +7.59853395730E-01 +3.71761071275E-01
2.71000000000E+09 +7.47906869390E-01 +1.93571032785E-01 +1.61464131922E-03 -1.99152056101E-03 +1.79649791195E-03 -1.91251608128E-03 +7.62601418378E-01 +3.58325220876E-01
2.71500000000E+09 +7.48007691805E-01 +1.80948804076E-01 +1.37956925591E-03 -2.11247124137E-03 +1.45442571990E-03 -2.24743665799E-03 +7.64994602257E-01 +3.45807331767E-01
2.72000000000E+09 +7.47593694389E-01 +1.68263959944E-01 +1.23747152861E-03 -2.23645808487E-03 +1.19789325923E-03 -2.43217011529E-03 +7.67180182056E-01 +3.32919368658E-01
2.72500000000E+09 +7.47362952681E-01 +1.54096061669E-01 +9.71812292940E-04 -2.40674072657E-03 +7.50548745211E-04 -2.45529538133E-03 +7.68396047376E-01 +3.19342734778E-01
2.73000000000E+09 +7.46279357325E-01 +1.38135747499E-01 +9.55380214263E-04 -2.46281081406E-03 +6.74385558379E-04 -2.27195389162E-03 +7.69305049830E-01 +3.05141476677E-01
2.73500000000E+09 +7.44379917146E-01 +1.20354119119E-01 +7.56885545937E-04 -2.81544004872E-03 +6.27818692967E-04 -2.44688162548E-03 +7.69806563333E-01 +2.90760639271E-01
2.74000000000E+09 +7.41702942969E-01 +1.01889797002E-01 +3.53072811255E-04 -2.85620928672E-03 +5.89590927839E-04 -2.52515802993E-03 +7.70961955071E-01 +2.76118471381E-01
2.74500000000E+09 +7.38263447990E-01 +8.26443584578E-02 +1.94680275808E-04 -2.94742398908E-03 +5.04519658792E-04 -2.77647202273E-03 +7.72332242648E-01 +2.61562873662E-01
2.75000000000E+09 +7.33806779778E-01 +6.38131097564E-02 +3.45418642200E-05 -2.94045741435E-03 +3.67141186849E-04 -3.05581470695E-03 +7.73499063128E-01 +2.46470422954E-01
2.75500000000E+09 +7.28757232359E-01 +4.59966363907E-02 -2.73794712651E-04 -3.39872625246E-03 -5.91320567291E-05 -3.72120946785E-03 +7.73611139579E-01 +2.31411802522E-01
2.76000000000E+09 +7.23958899660E-01 +2.90066376144E-02 -8.16746735919E-04 -3.42983016647E-03 -8.46279294725E-04 -3.65740500291E-03 +7.73220925981E-01 +2.15931356918E-01
2.76500000000E+09 +7.18379430917E-01 +1.23764612595E-02 -1.38657960795E-03 -3.32412398355E-03 -1.56579602677E-03 -3.47459114785E-03 +7.72481205171E-01 +2.00161067997E-01
2.77000000000E+09 +7.12940608193E-01 -4.46787471620E-03 -1.78599411087E-03 -2.81978304410E-03 -1.96726747212E-03 -2.95075790687E-03 +7.72084569079E-01 +1.83022487739E-01
2.77500000000E+09 +7.07123438574E-01 -2.23587628737E-02 -1.61995363309E-03 -2.41809975186E-03 -1.80623439355E-03 -2.41974123271E-03 +7.70644199590E-01 +1.65100402184E-01
2.78000000000E+09 +7.00682532590E-01 -4.15590593369E-02 -1.46448252886E-03 -2.74825492767E-03 -1.64891084382E-03 -2.69319867139E-03 +7.68603096261E-01 +1.47628455344E-01
2.78500000000E+09 +6.93696631678E-01 -6.18840396918E-02 -1.89266217746E-03 -3.04302337387E-03 -2.07591028915E-03 -2.84777483998E-03 +7.66773022985E-01 +1.30089114221E-01
2.79000000000E+09 +6.86476635625E-01 -8.37694101744E-02 -2.48616935729E-03 -2.83303588513E-03 -2.54401574342E-03 -2.62257167556E-03 +7.64147106636E-01 +1.12828186220E-01
2.79500000000E+09 +6.78194147740E-01 -1.06249697767E-01 -2.75861664612E-03 -2.79493262401E-03 -2.62449704288E-03 -2.62522126703E-03 +7.60772191755E-01 +9.43523248130E-02
2.80000000000E+09 +6.69040130078E-01 -1.28214331652E-01 -3.24707071311E-03 -2.42471604958E-03 -3.03070277316E-03 -2.45845724840E-03 +7.55914765071E-01 +7.56450763226E-02
2.80500000000E+09 +6.59253947676E-01 -1.48619777723E-01 -3.25148095522E-03 -2.27851316121E-03 -3.13918416549E-03 -2.39439038753E-03 +7.50489680111E-01 +5.62607968258E-02
2.81000000000E+09 +6.48553647589E-01 -1.67031659542E-01 -3.67042103013E-03 -2.43778190489E-03 -3.72840945696E-03 -2.54825821817E-03 +7.43937285096E-01 +3.71725994144E-02
2.81500000000E+09 +6.37474659292E-01 -1.83053498555E-01 -4.27600219517E-03 -2.10238635093E-03 -4.46792229001E-03 -2.01969727752E-03 +7.37740374361E-01 +1.76614615903E-02
2.82000000000E+09 +6.25621859444E-01 -1.98276451162E-01 -4.66352504503E-03 -1.87444958245E-03 -4.71893269688E-03 -1.67274217354E-03 +7.30477152092E-01 -2.81574296828E-03
2.82500000000E+09 +6.11829983004E-01 -2.12882852157E-01 -5.34963016023E-03 -1.35272709278E-03 -5.16187502559E-03 -1.13087504640E-03 +7.21916448829E-01 -2.29834110776E-02
2.83000000000E+09 +5.96319489967E-01 -2.27521770668E-01 -5.76520667364E-03 -7.29546412675E-04 -5.38381032821E-03 -6.74687892172E-04 +7.12370551028E-01 -4.25818576394E-02
2.83500000000E+09 +5.79388059243E-01 -2.43816285572E-01 -6.20746420886E-03 -3.02155460301E-06 -5.88983968329E-03 -1.50149622588E-04 +7.02436592016E-01 -6.28061018958E-02
2.84000000000E+09 +5.59338610625E-01 -2.62230924793E-01 -6.32475843250E-03 +9.51464352004E-04 -6.16796203616E-03 +7.52852458273E-04 +6.91377318596E-01 -8.29686409292E-02
2.84500000000E+09 +5.36798169858E-01 -2.81959419719E-01 -6.00603905780E-03 +1.66265628001E-03 -5.98093728890E-03 +1.54805634308E-03 +6.79391687059E-01 -1.03730279811E-01
2.85000000000E+09 +5.12633508296E-01 -3.02410637651E-01 -5.99605232578E-03 +1.96470228675E-03 -5.97519641145E-03 +2.00674307747E-03 +6.65874097687E-01 -1.23977579261E-01
2.85500000000E+09 +4.86936008871E-01 -3.22555144617E-01 -6.55787688935E-03 +2.72255259193E-03 -6.45007249191E-03 +2.71260167554E-03 +6.51031490835E-01 -1.44465363003E-01
2.86000000000E+09 +4.61786271202E-01 -3.41033590081E-01 -6.16948709691E-03 +3.92442481889E-03 -6.10935843429E-03 +3.83238365218E-03 +6.35470578050E-01 -1.63795340244E-01
2.86500000000E+09 +4.37932117113E-01 -3.57670730450E-01 -6.11717671340E-03 +4.47556778912E-03 -6.13169625045E-03 +4.37607015419E-03 +6.19429017740E-01 -1.84352239736E-01
2.87000000000E+09 +4.14993726673E-01 -3.72640621676E-01 -5.95948519364E-03 +5.76185275078E-03 -5.96395988536E-03 +5.77070872475E-03 +6.01220757552E-01 -2.05373988137E-01
2.87500000000E+09 +3.92659313487E-01 -3.85682176490E-01 -5.32441383138E-03 +6.72267451598E-03 -5.13949336344E-03 +6.83072132447E-03 +5.80760230499E-01 -2.24959826202E-01
2.88000000000E+09 +3.69734630666E-01 -3.97132443015E-01 -4.65240715075E-03 +7.58216466738E-03 -4.29869674464E-03 +7.51078562930E-03 +5.60377961974E-01 -2.43764228389E-01
2.88500000000E+09 +3.45258181785E-01 -4.06406976548E-01 -3.88735929918E-03 +8.70016090029E-03 -3.58880467711E-03 +8.27307760412E-03 +5.38143440319E-01 -2.62433605104E-01
2.89000000000E+09 +3.19491734298E-01 -4.15065387654E-01 -2.58526925069E-03 +9.51775433677E-03 -2.63056153032E-03 +8.91588767222E-03 +5.14270160341E-01 -2.81287093569E-01
2.89500000000E+09 +2.89838617961E-01 -4.22674274726E-01 -1.21250665778E-03 +9.87251497008E-03 -1.62524342600E-03 +9.53445892656E-03 +4.87414145717E-01 -2.99169085568E-01
2.90000000000E+09 +2.58295739098E-01 -4.29229923540E-01 -4.04611607959E-04 +9.89201294462E-03 -7.86940109211E-04 +9.92407583014E-03 +4.60443370583E-01 -3.15453376651E-01
2.90500000000E+09 +2.23664261095E-01 -4.35236493083E-01 +6.05880877144E-04 +1.07392977382E-02 +5.99923378829E-04 +1.09417520587E-02 +4.31787036773E-01 -3.31901397133E-01
2.91000000000E+09 +1.87499464262E-01 -4.38966650560E-01 +2.08220495954E-03 +1.11421245572E-02 +2.34031925533E-03 +1.10214788287E-02 +4.02287516365E-01 -3.47149135470E-01
2.91500000000E+09 +1.52286884637E-01 -4.41171574116E-01 +4.12468106878E-03 +1.19395633842E-02 +4.25409393488E-03 +1.13413903505E-02 +3.70292005235E-01 -3.60588807876E-01
2.92000000000E+09 +1.17369077143E-01 -4.42441001520E-01 +6.70380332916E-03 +1.10228308797E-02 +6.19757083441E-03 +1.03572047426E-02 +3.37261458491E-01 -3.72493720634E-01
2.92500000000E+09 +8.30316433418E-02 -4.42293312612E-01 +8.24435460061E-03 +9.80333889804E-03 +7.39470465330E-03 +9.63278362273E-03 +3.01660734705E-01 -3.81073658868E-01
2.93000000000E+09 +4.92010962212E-02 -4.39106423842E-01 +9.39543138635E-03 +8.38099250040E-03 +8.72869205971E-03 +8.71361999045E-03 +2.65465873889E-01 -3.88813755486E-01
2.93500000000E+09 +1.62261989272E-02 -4.33231444949E-01 +1.04068068294E-02 +7.60260098184E-03 +1.01438756564E-02 +8.04961370530E-03 +2.27288060613E-01 -3.94438030438E-01
2.94000000000E+09 -1.66893177441E-02 -4.24310474995E-01 +1.15569778455E-02 +6.45494782358E-03 +1.13962289721E-02 +6.75688807020E-03 +1.87866224348E-01 -3.98782395282E-01
2.94500000000E+09 -4.89779552533E-02 -4.11971451846E-01 +1.33381592708E-02 +5.12798503708E-03 +1.31374890208E-02 +5.40297875164E-03 +1.47025651707E-01 -3.99210588216E-01
2.95000000000E+09 -8.18410257621E-02 -3.97954946611E-01 +1.41290281035E-02 +2.67220078684E-03 +1.40715374858E-02 +3.20843941559E-03 +1.07393314211E-01 -3.97548392995E-01
2.95500000000E+09 -1.16097149304E-01 -3.80174189763E-01 +1.44305218181E-02 +3.59315195008E-04 +1.47531259477E-02 +9.62957752217E-04 +6.70306452638E-02 -3.93721947923E-01
2.96000000000E+09 -1.49261019002E-01 -3.58948150990E-01 +1.41882760698E-02 -1.62687196040E-03 +1.48587866802E-02 -1.48763323839E-03 +2.46924140029E-02 -3.86529238064E-01
2.96500000000E+09 -1.81067531844E-01 -3.36112352423E-01 +1.38595957999E-02 -3.29467457611E-03 +1.43094348166E-02 -3.71093953489E-03 -1.65287788333E-02 -3.74573589844E-01
2.97000000000E+09 -2.11459954114E-01 -3.11887251991E-01 +1.36309750886E-02 -4.95360118342E-03 +1.34263375192E-02 -5.40507007115E-03 -5.78855609717E-02 -3.60352004208E-01
2.97500000000E+09 -2.40128738342E-01 -2.86134871834E-01 +1.37260445457E-02 -7.16669646963E-03 +1.32345413314E-02 -7.13950133489E-03 -9.76076141109E-02 -3.43220345920E-01
2.98000000000E+09 -2.66730608812E-01 -2.59171095431E-01 +1.20487089572E-02 -9.90367912521E-03 +1.20487868226E-02 -9.31799126377E-03 -1.36804325210E-01 -3.23924706839E-01
2.98500000000E+09 -2.91098055197E-01 -2.29935354091E-01 +1.05364915479E-02 -1.14096958437E-02 +1.11743652479E-02 -1.10335586842E-02 -1.73836047110E-01 -3.01511885830E-01
2.99000000000E+09 -3.12224104114E-01 -1.99805072762E-01 +8.47428546212E-03 -1.26096677728E-02 +9.14996621493E-03 -1.30305640944E-02 -2.11167312513E-01 -2.76051162905E-01
2.99500000000E+09 -3.31499001358E-01 -1.69279910380E-01 +6.95679428132E-03 -1.36210915627E-02 +6.87435254522E-03 -1.43730808086E-02 -2.44964959888E-01 -2.45980229447E-01
3.00000000000E+09 -3.50869614030E-01 -1.37619354250E-01 +5.02064091489E-03 -1.44677821159E-02 +4.32684098352E-03 -1.47746367676E-02 -2.76373894070E-01 -2.14357993800E-01
3.00500000000E+09 -3.67568564214E-01 -1.03180480709E-01 +3.13651031884E-03 -1.56296981709E-02 +2.44091170408E-03 -1.51699067041E-02 -3.05627798346E-01 -1.81664451184E-01
3.01000000000E+09 -3.81931028075E-01 -6.95531291180E-02 +1.82641402813E-05 -1.60913970580E-02 +6.08523387125E-05 -1.53545901543E-02 -3.33761540015E-01 -1.45990929306E-01
3.01500000000E+09 -3.95184842542E-01 -3.56894049203E-02 -2.52879303127E-03 -1.51961904940E-02 -2.03623327098E-03 -1.48745651851E-02 -3.57658600206E-01 -1.09156679057E-01
3.02000000000E+09 -4.05204747294E-01 -1.37092967852E-03 -4.21642016616E-03 -1.39656583384E-02 -3.91476695148E-03 -1.40677644940E-02 -3.78395342825E-01 -7.04597955261E-02
3.02500000000E+09 -4.11840136161E-01 +3.11387093456E-02 -5.79628564187E-03 -1.35471612982E-02 -5.71451945901E-03 -1.36502154208E-02 -3.95719351194E-01 -3.20453171035E-02
3.03000000000E+09 -4.15865669564E-01 +6.28533977857E-02 -7.63187991318E-03 -1.22856566575E-02 -7.35442576991E-03 -1.22583417209E-02 -4.10716372895E-01 +8.50051323346E-03
3.03500000000E+09 -4.16927249434E-01 +9.38442535288E-02 -9.22424966494E-03 -1.16600109442E-02 -8.89021990157E-03 -1.18496475226E-02 -4.22322530494E-01 +4.83356046120E-02
3.04000000000E+09 -4.14829408141E-01 +1.25117836137E-01 -1.12101234870E-02 -9.22805623156E-03 -1.10724912363E-02 -9.94689383038E-03 -4.30783932185E-01 +8.97872392248E-02
3.04500000000E+09 -4.09822257037E-01 +1.56531144915E-01 -1.14349630387E-02 -7.42323531659E-03 -1.19273568560E-02 -8.01802656731E-03 -4.35916873607E-01 +1.29546620964E-01
3.05000000000E+09 -4.02638198211E-01 +1.89622217168E-01 -1.20630556927E-02 -5.77440313360E-03 -1.29792558989E-02 -5.62951103955E-03 -4.38359015158E-01 +1.69016777192E-01
3.05500000000E+09 -3.92145034245E-01 +2.23932039126E-01 -1.23716594345E-02 -4.18765975150E-03 -1.28830837156E-02 -3.40001994914E-03 -4.38924077743E-01 +2.07120933150E-01
3.06000000000E+09 -3.79424986415E-01 +2.57703507355E-01 -1.26915448191E-02 -2.77568118293E-03 -1.22865452585E-02 -1.97453657088E-03 -4.37144219776E-01 +2.44172417197E-01
3.06500000000E+09 -3.65342842433E-01 +2.90761729388E-01 -1.30749243099E-02 -7.49506954048E-04 -1.22430161312E-02 -6.69543808367E-04 -4.34449927423E-01 +2.81526153813E-01
3.07000000000E+09 -3.50986877135E-01 +3.21115084217E-01 -1.23767004978E-02 +1.29698222105E-03 -1.20605204089E-02 +5.67146791964E-04 -4.27583928787E-01 +3.18178620888E-01
