# Hz S RI R 50
! CMT, C1220, 16058040, 17.2.0/1
! Date: 15/08/2018 10:48:00
! Data: Format (Calibration Info)
! Freq                      S11: Re/Im (F2)                       S21: Re/Im (F2)                       S12: Re/Im (F2)                       S22: Re/Im (F2)            
2.50000000000E+09 +5.81628794082E-01 +6.45789918231E-01 -1.37892621157E-03 +6.46104316259E-04 -1.48669703223E-03 +7.03263882898E-04 +5.63178362745E-01 +7.25190571077E-01
2.50500000000E+09 +5.89125963453E-01 +6.36613270836E-01 -1.30216878520E-03 +8.25165699421E-04 -1.32753443704E-03 +8.99270582525E-04 +5.69024812480E-01 +7.19559187433E-01
2.51000000000E+09 +5.97462228665E-01 +6.27153823158E-01 -1.27707464445E-03 +9.39719504287E-04 -1.24029509913E-03 +1.02600237412E-03 +5.74661674586E-01 +7.14267236577E-01
2.51500000000E+09 +6.05824020598E-01 +6.18222516534E-01 -1.17070682353E-03 +1.17488820831E-03 -1.14240065718E-03 +1.13376842089E-03 +5.79890892663E-01 +7.08668387246E-01
2.52000000000E+09 +6.13478357360E-01 +6.09834595488E-01 -9.72323188357E-04 +1.26677960155E-03 -1.00756000768E-03 +1.27878129623E-03 +5.85003819827E-01 +7.02412542405E-01
2.52500000000E+09 +6.19624323807E-01 +6.02634249324E-01 -8.08913017534E-04 +1.30141508063E-03 -9.04295256762E-04 +1.32951821352E-03 +5.90377074277E-01 +6.95989151653E-01
2.53000000000E+09 +6.24414191404E-01 +5.96314220109E-01 -7.83232085365E-04 +1.32316927769E-03 -7.74381591759E-04 +1.36044109867E-03 +5.96477092004E-01 +6.89102380370E-01
2.53500000000E+09 +6.28134272472E-01 +5.90732159199E-01 -7.24659084501E-04 +1.42848924517E-03 -7.73662854957E-04 +1.41517466245E-03 +6.02258777754E-01 +6.82545274159E-01
2.54000000000E+09 +6.31090920018E-01 +5.85058729713E-01 -5.60088200022E-04 +1.59512006497E-03 -5.99837764374E-04 +1.57107457615E-03 +6.08269981420E-01 +6.76286581684E-01
2.54500000000E+09 +6.33960260850E-01 +5.78983698338E-01 -3.74847096226E-04 +1.73340936262E-03 -4.89746325774E-04 +1.71331646044E-03 +6.13984539551E-01 +6.70212126730E-01
2.55000000000E+09 +6.37783706625E-01 +5.72031363805E-01 -7.69254352365E-05 +1.74384595149E-03 -2.35825519540E-04 +1.90615961189E-03 +6.19245111375E-01 +6.64322754140E-01
2.55500000000E+09 +6.42831470596E-01 +5.63519148450E-01 +1.40798821110E-04 +1.58840686516E-03 +1.29080728015E-04 +1.81234794360E-03 +6.24160356618E-01 +6.58066269468E-01
2.56000000000E+09 +6.49389572187E-01 +5.54394013965E-01 +1.36334533193E-04 +1.52408538989E-03 +2.84764444836E-04 +1.78448899594E-03 +6.29289973212E-01 +6.51035918589E-01
2.56500000000E+09 +6.57214007966E-01 +5.44206136341E-01 +1.91010646420E-04 +1.60138655094E-03 +5.63374926223E-04 +1.71137984471E-03 +6.34590874980E-01 +6.43885506992E-01
2.57000000000E+09 +6.65495558167E-01 +5.33624162423E-01 +3.93687124172E-04 +1.66297198844E-03 +7.10175340466E-04 +1.50481800268E-03 +6.40243654051E-01 +6.36273021802E-01
2.57500000000E+09 +6.73410691361E-01 +5.23350872940E-01 +6.29617635382E-04 +1.68983301548E-03 +7.87303440516E-04 +1.36936828620E-03 +6.46196519032E-01 +6.28903681561E-01
2.58000000000E+09 +6.80186421885E-01 +5.14225739642E-01 +9.40975767720E-04 +1.57641651182E-03 +8.32630499355E-04 +1.28271163158E-03 +6.51782061328E-01 +6.21482318925E-01
2.58500000000E+09 +6.85604896744E-01 +5.05783211896E-01 +1.02327917619E-03 +1.28953560282E-03 +8.74059644047E-04 +1.16093044158E-03 +6.57086277442E-01 +6.13732073968E-01
2.59000000000E+09 +6.89407854962E-01 +4.98293744714E-01 +1.01058299664E-03 +1.12808600870E-03 +8.77889409435E-04 +1.14447543413E-03 +6.61950649042E-01 +6.06164281796E-01
2.59500000000E+09 +6.92206157990E-01 +4.90843653067E-01 +1.04315961329E-03 +1.12997913575E-03 +9.93853490208E-04 +1.23231967543E-03 +6.66936944809E-01 +5.98141084791E-01
2.60000000000E+09 +6.93919056299E-01 +4.82751931061E-01 +1.27604934740E-03 +1.13079208906E-03 +1.23419127589E-03 +1.14281918461E-03 +6.72140178340E-01 +5.89801150548E-01
2.60500000000E+09 +6.95984228565E-01 +4.72962240159E-01 +1.43274411448E-03 +8.85532863224E-04 +1.45444110539E-03 +8.27376659193E-04 +6.77847513972E-01 +5.80957913309E-01
2.61000000000E+09 +6.98321741619E-01 +4.61204977079E-01 +1.32740956969E-03 +6.87351413383E-04 +1.33795951231E-03 +6.90979463055E-04 +6.83190044331E-01 +5.71987754482E-01
2.61500000000E+09 +7.01856317357E-01 +4.47399133343E-01 +1.38344404643E-03 +5.93560169871E-04 +1.42481262981E-03 +6.20623053161E-04 +6.88072131857E-01 +5.63170905598E-01
2.62000000000E+09 +7.06196429209E-01 +4.31593306552E-01 +1.33083152394E-03 +4.14251904455E-04 +1.41073360318E-03 +4.63702758295E-04 +6.92910716593E-01 +5.54408155390E-01
2.62500000000E+09 +7.11408983012E-01 +4.14736125494E-01 +1.26139378952E-03 +4.57828019554E-04 +1.33868454097E-03 +4.40556295305E-04 +6.97873286526E-01 +5.45810539632E-01
2.63000000000E+09 +7.16959151557E-01 +3.97779025975E-01 +1.37590661050E-03 +5.16237333392E-04 +1.43132705598E-03 +3.15771381923E-04 +7.02632370960E-01 +5.36804924303E-01
2.63500000000E+09 +7.22178394594E-01 +3.81637472357E-01 +1.61694249015E-03 +3.26594658528E-04 +1.46144238922E-03 +8.17891975295E-05 +7.07376198944E-01 +5.27338210062E-01
2.64000000000E+09 +7.26422311775E-01 +3.67296131215E-01 +1.50918516068E-03 +6.80490658413E-05 +1.32777739423E-03 +3.59318062195E-05 +7.11866690752E-01 +5.17813346143E-01
2.64500000000E+09 +7.29633407749E-01 +3.55258460936E-01 +1.46899274559E-03 -5.72794976116E-05 +1.29028352396E-03 +7.10512485900E-05 +7.16549070250E-01 +5.08137526556E-01
2.65000000000E+09 +7.31518757474E-01 +3.45241849641E-01 +1.34905877117E-03 -9.15080877008E-05 +1.26895629389E-03 +6.42695207913E-05 +7.21124533325E-01 +4.97979772348E-01
2.65500000000E+09 +7.33180024965E-01 +3.36115764080E-01 +1.31194505630E-03 -1.30867625056E-04 +1.37777212231E-03 +3.41902467021E-05 +7.25234548123E-01 +4.87285563979E-01
2.66000000000E+09 +7.34123487203E-01 +3.26898098168E-01 +1.33856507322E-03 -9.97799243573E-05 +1.49115151753E-03 -1.00441489218E-04 +7.29355565211E-01 +4.76133667207E-01
2.66500000000E+09 +7.34960619078E-01 +3.17055833276E-01 +1.37461530947E-03 -1.88736926831E-04 +1.41768279097E-03 -2.99317998025E-04 +7.33616800907E-01 +4.65207261423E-01
2.67000000000E+09 +7.35844573231E-01 +3.04914777244E-01 +1.38113438949E-03 -1.81359950556E-04 +1.30607715725E-03 -3.01525644961E-04 +7.38160087503E-01 +4.54523741164E-01
2.67500000000E+09 +7.36886837542E-01 +2.90695908999E-01 +1.51773330942E-03 -2.12682465565E-04 +1.44038511644E-03 -2.53538085314E-04 +7.42555252494E-01 +4.43378142670E-01
2.68000000000E+09 +7.37913959244E-01 +2.74762708311E-01 +1.67143373455E-03 -4.79957101150E-04 +1.61963760535E-03 -3.52763022490E-04 +7.46574424146E-01 +4.31912482287E-01
2.68500000000E+09 +7.39009619591E-01 +2.57703837594E-01 +1.56207856867E-03 -6.71396365166E-04 +1.55894090653E-03 -5.77971204164E-04 +7.49570734651E-01 +4.20338439648E-01
2.69000000000E+09 +7.39967617816E-01 +2.40245291824E-01 +1.49076764857E-03 -6.16910682758E-04 +1.45242892985E-03 -5.85866399705E-04 +7.52304439106E-01 +4.08337896815E-01
2.69500000000E+09 +7.40624519142E-01 +2.23836722548E-01 +1.63167229611E-03 -5.98813373289E-04 +1.64879140695E-03 -6.21268514575E-04 +7.55161253736E-01 +3.95731434814E-01
2.70000000000E+09 +7.41163264327E-01 +2.08671965082E-01 +1.86100757939E-03 -8.70544833202E-04 +1.82403597640E-03 -8.29770724663E-04 +7.58361779166E-01 +3.82576356634E-01
2.70500000000E+09 +7.41608542721E-01 +1.94927276880E-01 +1.84352016391E-03 -1.15078400386E-03 +1.84221014708E-03 -1.11200221787E-03 +7.61411005479E-01 +3.69088008626E-01
2.71000000000E+09 +7.41550182501E-01 +1.82187074469E-01 +1.76616268221E-03 -1.52177073058E-03 +1.87596665341E-03 -1.49956097644E-03 +7.64244146869E-01 +3.55869559162E-01
2.71500000000E+09 +7.41406374481E-01 +1.69606810353E-01 +1.57560752144E-03 -1.66405548376E-03 +1.67163386423E-03 -1.68470513732E-03 +7.66431913735E-01 +3.43312230245E-01
2.72000000000E+09 +7.40898570259E-01 +1.56821287266E-01 +1.56487585146E-03 -1.81967024921E-03 +1.50566852261E-03 -1.98757500814E-03 +7.68483410879E-01 +3.30668722176E-01
2.72500000000E+09 +7.40282135281E-01 +1.42786302968E-01 +1.32983702999E-03 -2.02980370723E-03 +1.15537262732E-03 -2.09820272357E-03 +7.69563835925E-01 +3.17007875883E-01
2.73000000000E+09 +7.38809322787E-01 +1.27041218499E-01 +1.39158264682E-03 -2.20638648741E-03 +1.10086912335E-03 -2.12157724145E-03 +7.70736441777E-01 +3.02717337627E-01
2.73500000000E+09 +7.36563792987E-01 +1.09678978274E-01 +1.17823700983E-03 -2.63731901174E-03 +1.00260437633E-03 -2.26915369185E-03 +7.71223670196E-01 +2.88088593156E-01
2.74000000000E+09 +7.33801548953E-01 +9.14333877961E-02 +7.52153319580E-04 -2.70244558430E-03 +8.57701853270E-04 -2.31568384688E-03 +7.72677031984E-01 +2.73377831471E-01
2.74500000000E+09 +7.29846189884E-01 +7.23510245981E-02 +6.19161179457E-04 -2.75201820479E-03 +8.77342947782E-04 -2.53209491346E-03 +7.74089642208E-01 +2.58473214073E-01
2.75000000000E+09 +7.24714696882E-01 +5.38779693175E-02 +6.20180084914E-04 -2.75859677173E-03 +9.33063923496E-04 -2.76623534607E-03 +7.75105989770E-01 +2.43340305686E-01
2.75500000000E+09 +7.19463709373E-01 +3.65778694725E-02 +3.75443477572E-04 -3.32624574331E-03 +6.18371415155E-04 -3.53508700006E-03 +7.74988878146E-01 +2.28402947838E-01
2.76000000000E+09 +7.14365486476E-01 +1.99542803015E-02 -1.30901285386E-04 -3.47007949186E-03 -1.58267947998E-04 -3.70248059236E-03 +7.74508658281E-01 +2.13113228163E-01
2.76500000000E+09 +7.08663486506E-01 +3.51968565189E-03 -7.29266341288E-04 -3.56065569376E-03 -8.21058944399E-04 -3.68644204258E-03 +7.73828398084E-01 +1.97134110798E-01
2.77000000000E+09 +7.02840940280E-01 -1.32353829571E-02 -1.23772957956E-03 -3.19536902808E-03 -1.41074124203E-03 -3.29251201288E-03 +7.73265990292E-01 +1.79845789343E-01
2.77500000000E+09 +6.96918331062E-01 -3.07420404109E-02 -1.19119960397E-03 -2.72131629105E-03 -1.31058562020E-03 -2.82476334901E-03 +7.71861227005E-01 +1.61647524128E-01
2.78000000000E+09 +6.90555481661E-01 -4.94509568525E-02 -1.00860411344E-03 -3.10671592397E-03 -1.19692215594E-03 -3.08968176448E-03 +7.69872415442E-01 +1.43896837301E-01
2.78500000000E+09 +6.83881329150E-01 -6.95249050047E-02 -1.51715472446E-03 -3.42652990943E-03 -1.64780702535E-03 -3.28740670625E-03 +7.67855843477E-01 +1.26202837495E-01
2.79000000000E+09 +6.76778832108E-01 -9.13510739441E-02 -1.95951413570E-03 -3.27674515434E-03 -2.10156102869E-03 -2.96693572956E-03 +7.65007611877E-01 +1.08809640152E-01
2.79500000000E+09 +6.68353709039E-01 -1.13535838711E-01 -2.23243674714E-03 -3.38597368734E-03 -2.04320106499E-03 -3.15997075055E-03 +7.61239248723E-01 +9.06585990264E-02
2.80000000000E+09 +6.59003481301E-01 -1.35021584762E-01 -2.80872166104E-03 -3.35566617437E-03 -2.57925205193E-03 -3.20990377590E-03 +7.56216664584E-01 +7.19829638089E-02
2.80500000000E+09 +6.49038710574E-01 -1.54783662356E-01 -3.01255885272E-03 -3.24468552267E-03 -2.85815021053E-03 -3.33111419390E-03 +7.50323264302E-01 +5.25332239758E-02
2.81000000000E+09 +6.38237134876E-01 -1.72773311717E-01 -3.82953660231E-03 -3.44627877637E-03 -3.87157469564E-03 -3.59703586147E-03 +7.43717089002E-01 +3.36264576428E-02
2.81500000000E+09 +6.26860910250E-01 -1.88438288779E-01 -4.51705342127E-03 -2.78917948126E-03 -4.67113497053E-03 -2.65677999169E-03 +7.37645508538E-01 +1.37854771765E-02
2.82000000000E+09 +6.14837892081E-01 -2.03158446181E-01 -4.79677464004E-03 -2.70873097018E-03 -4.91886211339E-03 -2.44410049473E-03 +7.30320487671E-01 -7.14067350798E-03
2.82500000000E+09 +6.00882303697E-01 -2.17344337807E-01 -5.67412163634E-03 -2.11721739927E-03 -5.50225413413E-03 -1.87242676306E-03 +7.21209867082E-01 -2.71538096994E-02
2.83000000000E+09 +5.85468839572E-01 -2.31399886287E-01 -6.02590991760E-03 -1.45426976197E-03 -5.72005581206E-03 -1.43085619583E-03 +7.11437588801E-01 -4.65862564881E-02
2.83500000000E+09 +5.68883844886E-01 -2.47713369815E-01 -6.57414489198E-03 -8.46574504831E-04 -6.32003250593E-03 -1.00400210824E-03 +7.01596787995E-01 -6.64538476619E-02
2.84000000000E+09 +5.48909736177E-01 -2.66129458005E-01 -6.92412244827E-03 +1.55238863679E-04 -6.88523671412E-03 -1.22561724384E-04 +6.90133078531E-01 -8.66249649373E-02
2.84500000000E+09 +5.26484944699E-01 -2.85450539326E-01 -6.91515368124E-03 +9.72982280685E-04 -6.97842424554E-03 +8.87513388664E-04 +6.77728902529E-01 -1.07350558043E-01
2.85000000000E+09 +5.02278716624E-01 -3.05518111601E-01 -7.01884334704E-03 +1.42802741349E-03 -6.99863168836E-03 +1.45322656086E-03 +6.63797847980E-01 -1.27565295307E-01
2.85500000000E+09 +4.76810685218E-01 -3.24715258220E-01 -7.76338586065E-03 +2.40017304010E-03 -7.63532507341E-03 +2.38474493064E-03 +6.48893385575E-01 -1.47937836332E-01
2.86000000000E+09 +4.52479829859E-01 -3.42388050122E-01 -7.52657222067E-03 +3.88376932629E-03 -7.38103362467E-03 +3.77882063263E-03 +6.33109278035E-01 -1.67316977872E-01
2.86500000000E+09 +4.29266277391E-01 -3.58844572591E-01 -7.25043028551E-03 +4.89020589281E-03 -7.30724741552E-03 +4.70240574379E-03 +6.16628181737E-01 -1.87810318821E-01
2.87000000000E+09 +4.06775864734E-01 -3.73758616281E-01 -6.84001775839E-03 +6.21953878029E-03 -6.84878971997E-03 +6.21027695821E-03 +5.98172953516E-01 -2.08171969355E-01
2.87500000000E+09 +3.84587867103E-01 -3.86639310394E-01 -6.12237029783E-03 +7.03297375938E-03 -5.90055390996E-03 +7.07925538522E-03 +5.77494046825E-01 -2.27449224394E-01
2.88000000000E+09 +3.61711998421E-01 -3.97687592136E-01 -5.53883372851E-03 +7.84954316745E-03 -5.14194435192E-03 +7.74171263499E-03 +5.56820662393E-01 -2.45619763435E-01
2.88500000000E+09 +3.37704807666E-01 -4.06797839117E-01 -4.98291572073E-03 +9.16531346053E-03 -4.62337730373E-03 +8.69268006644E-03 +5.34539217563E-01 -2.63915385329E-01
2.89000000000E+09 +3.12353204713E-01 -4.15333452229E-01 -3.63641600137E-03 +1.05210377368E-02 -3.68832997131E-03 +9.79514075286E-03 +5.10515793805E-01 -2.82308182840E-01
2.89500000000E+09 +2.83347168918E-01 -4.22981783751E-01 -1.86445144226E-03 +1.10886193926E-02 -2.22342781841E-03 +1.06099683893E-02 +4.83731969663E-01 -3.00087167711E-01
2.90000000000E+09 +2.52502154038E-01 -4.29402420699E-01 -8.60010276202E-04 +1.10818522997E-02 -1.24572706162E-03 +1.10950783055E-02 +4.56822745603E-01 -3.15985393750E-01
2.90500000000E+09 +2.18586752157E-01 -4.35516003514E-01 +4.67651743423E-04 +1.20624260512E-02 +4.30796429672E-04 +1.22629917956E-02 +4.28281897617E-01 -3.31960753664E-01
2.91000000000E+09 +1.83083092349E-01 -4.39009246458E-01 +2.24526531126E-03 +1.23513773329E-02 +2.53826017938E-03 +1.22781580660E-02 +3.98849590641E-01 -3.46511145142E-01
2.91500000000E+09 +1.48980157982E-01 -4.41489838841E-01 +4.50313035414E-03 +1.28164094435E-02 +4.59520305264E-03 +1.21067786188E-02 +3.67579941561E-01 -3.59227090802E-01
2.92000000000E+09 +1.14175187378E-01 -4.42993525192E-01 +6.83638570750E-03 +1.18375066525E-02 +6.28344539120E-03 +1.11321560682E-02 +3.34985883140E-01 -3.71010296191E-01
2.92500000000E+09 +8.02726888830E-02 -4.42234641392E-01 +8.52213754661E-03 +1.06698096658E-02 +7.62108317753E-03 +1.04679479143E-02 +2.99633031892E-01 -3.79599572855E-01
2.93000000000E+09 +4.75255495780E-02 -4.38970260516E-01 +9.61517034281E-03 +9.36524235195E-03 +8.91155777164E-03 +9.73636644998E-03 +2.63390799335E-01 -3.87586612886E-01
2.93500000000E+09 +1.51169997267E-02 -4.33507827183E-01 +1.09321704593E-02 +8.65273579365E-03 +1.05716804788E-02 +9.10819597281E-03 +2.24973144071E-01 -3.92998218261E-01
2.94000000000E+09 -1.74713692034E-02 -4.24930739133E-01 +1.22521107375E-02 +7.62246809880E-03 +1.20559962177E-02 +7.92774680385E-03 +1.85764461552E-01 -3.97195047562E-01
2.94500000000E+09 -4.94619368275E-02 -4.13231311775E-01 +1.44937361395E-02 +6.01355813608E-03 +1.42660131422E-02 +6.42501474085E-03 +1.45475699456E-01 -3.97208390382E-01
2.95000000000E+09 -8.23354568837E-02 -3.99537164299E-01 +1.54591637935E-02 +3.09424802607E-03 +1.53514154729E-02 +3.66877295800E-03 +1.06292203087E-01 -3.95524618395E-01
2.95500000000E+09 -1.16606420265E-01 -3.82081264812E-01 +1.53842787411E-02 +5.29662544983E-04 +1.56915584200E-02 +1.12205393699E-03 +6.65630954029E-02 -3.91363443344E-01
2.96000000000E+09 -1.49469733429E-01 -3.61056239904E-01 +1.53105689046E-02 -1.45858776005E-03 +1.60094868055E-02 -1.30857234924E-03 +2.47418279271E-02 -3.84353938519E-01
2.96500000000E+09 -1.81073003470E-01 -3.38721249492E-01 +1.48443229828E-02 -3.22844758308E-03 +1.52761432631E-02 -3.67780437497E-03 -1.65369967837E-02 -3.72322511802E-01
2.97000000000E+09 -2.11635246904E-01 -3.14629963529E-01 +1.46920577456E-02 -4.94738025554E-03 +1.44754488167E-02 -5.42210273187E-03 -5.75838155110E-02 -3.58332719769E-01
2.97500000000E+09 -2.40036079303E-01 -2.88782685835E-01 +1.49723430721E-02 -7.30927643628E-03 +1.44259271590E-02 -7.20129632259E-03 -9.72499385038E-02 -3.41394946210E-01
2.98000000000E+09 -2.66421329641E-01 -2.62226280111E-01 +1.33482032090E-02 -1.02383783690E-02 +1.32854694191E-02 -9.57488427163E-03 -1.36168518352E-01 -3.22517082613E-01
2.98500000000E+09 -2.91092013269E-01 -2.33119363483E-01 +1.16855856914E-02 -1.22067871371E-02 +1.23888157998E-02 -1.18295662991E-02 -1.73051742649E-01 -3.00079733255E-01
2.99000000000E+09 -3.12362726787E-01 -2.03039543242E-01 +9.35788660986E-03 -1.36108721728E-02 +1.00479950932E-02 -1.41291839106E-02 -2.09775111068E-01 -2.74916465623E-01
2.99500000000E+09 -3.31934487849E-01 -1.72911498895E-01 +7.58337868197E-03 -1.46598905193E-02 +7.45542525106E-03 -1.54454716904E-02 -2.43473399313E-01 -2.45690130235E-01
3.00000000000E+09 -3.51842283772E-01 -1.40727013415E-01 +5.47617761772E-03 -1.55979505648E-02 +4.68440839537E-03 -1.58405408033E-02 -2.75346055373E-01 -2.14106100142E-01
3.00500000000E+09 -3.68232881321E-01 -1.06276553588E-01 +3.26383286190E-03 -1.67663586879E-02 +2.52711421632E-03 -1.62756786532E-02 -3.04951353002E-01 -1.81413571226E-01
3.01000000000E+09 -3.82642174506E-01 -7.26342612990E-02 +7.05809688254E-05 -1.69518347940E-02 +9.85728265219E-05 -1.61864804452E-02 -3.33660720841E-01 -1.45675720525E-01
3.01500000000E+09 -3.95416035587E-01 -3.84593646408E-02 -2.48697393563E-03 -1.60813689040E-02 -1.97516956268E-03 -1.57722697894E-02 -3.57975873134E-01 -1.09001218692E-01
3.02000000000E+09 -4.04494394668E-01 -4.56671976335E-03 -4.39882880846E-03 -1.51112041412E-02 -4.04290302718E-03 -1.51534896504E-02 -3.78886001597E-01 -6.98161783720E-02
3.02500000000E+09 -4.11093358715E-01 +2.73680431778E-02 -6.14164253883E-03 -1.44381263788E-02 -6.04481873529E-03 -1.45226225760E-02 -3.96054572207E-01 -3.12410118651E-02
3.03000000000E+09 -4.15052631326E-01 +5.93443780213E-02 -8.09221872609E-03 -1.33732578710E-02 -7.87835616452E-03 -1.32748181756E-02 -4.10583720687E-01 +9.35832032884E-03
3.03500000000E+09 -4.15489141011E-01 +9.07371698132E-02 -1.02146737486E-02 -1.22645495227E-02 -9.76972474901E-03 -1.24378956435E-02 -4.22136508208E-01 +4.90337828321E-02
3.04000000000E+09 -4.13003562444E-01 +1.22094755148E-01 -1.19336387858E-02 -9.51636659904E-03 -1.18281844617E-02 -1.01412647592E-02 -4.30614710853E-01 +9.06712595098E-02
3.04500000000E+09 -4.07596115479E-01 +1.54175007564E-01 -1.19150946340E-02 -7.48826129603E-03 -1.24941240607E-02 -8.14459357662E-03 -4.35874395804E-01 +1.30484842818E-01
3.05000000000E+09 -3.99223848812E-01 +1.87343272492E-01 -1.24477159249E-02 -5.84832114513E-03 -1.33874976568E-02 -5.81053871849E-03 -4.38761274832E-01 +1.70209573848E-01
3.05500000000E+09 -3.88249600787E-01 +2.21208116713E-01 -1.26130036960E-02 -4.47503479179E-03 -1.31155098598E-02 -3.65473051966E-03 -4.39543337936E-01 +2.08518614633E-01
3.06000000000E+09 -3.75430614536E-01 +2.54717874010E-01 -1.31340693268E-02 -3.32785622960E-03 -1.28049868706E-02 -2.51641482058E-03 -4.37809846647E-01 +2.46034127391E-01
3.06500000000E+09 -3.61208012685E-01 +2.87335745033E-01 -1.39948228017E-02 -1.04926222194E-03 -1.31506797846E-02 -9.62385881087E-04 -4.34486242294E-01 +2.83584098119E-01
3.07000000000E+09 -3.46912902757E-01 +3.17768713100E-01 -1.32800163615E-02 +1.48416748620E-03 -1.28901858633E-02 +6.09076663390E-04 -4.27220367003E-01 +3.20141113563E-01
