# Hz S RI R 50
! CMT, C1220, 16058040, 17.2.0/1
! Date: 15/08/2018 10:51:35
! Data: Format (Calibration Info)
! Freq                      S11: Re/Im (F2)                       S21: Re/Im (F2)                       S12: Re/Im (F2)                       S22: Re/Im (F2)            
2.50000000000E+09 +5.80766632531E-01 +6.50446944523E-01 -9.04176105961E-04 +7.37053112437E-04 -1.03294157153E-03 +7.83215697820E-04 +5.61744588018E-01 +7.26242950522E-01
2.50500000000E+09 +5.88249220321E-01 +6.41296641189E-01 -7.86017213098E-04 +8.15398184699E-04 -8.00393591692E-04 +9.37063529641E-04 +5.67528558062E-01 +7.20761206714E-01
2.51000000000E+09 +5.96508235394E-01 +6.31863411985E-01 -7.73485671772E-04 +8.20719946026E-04 -6.81941063878E-04 +8.75418770689E-04 +5.73303878389E-01 +7.15372422602E-01
2.51500000000E+09 +6.04912337563E-01 +6.23011860351E-01 -6.30396678649E-04 +8.97154960883E-04 -6.09307815944E-04 +8.94477310128E-04 +5.78603456824E-01 +7.09702495750E-01
2.52000000000E+09 +6.12525713235E-01 +6.14689210979E-01 -5.61247792052E-04 +9.96173891001E-04 -5.61982867273E-04 +9.28097941639E-04 +5.83661869282E-01 +7.03441015499E-01
2.52500000000E+09 +6.18656329404E-01 +6.07486677552E-01 -4.58137899581E-04 +1.01328734096E-03 -4.82757168960E-04 +9.83723185783E-04 +5.88995260047E-01 +6.97151330138E-01
2.53000000000E+09 +6.23414602768E-01 +6.01325462506E-01 -4.03353602643E-04 +1.01559023830E-03 -4.55139741947E-04 +1.04636720391E-03 +5.95009501099E-01 +6.90292665400E-01
2.53500000000E+09 +6.27319781954E-01 +5.95749150544E-01 -3.85777907610E-04 +1.09140955949E-03 -3.81759565762E-04 +1.10761474635E-03 +6.00911664251E-01 +6.83876634372E-01
2.54000000000E+09 +6.30336838921E-01 +5.90023791290E-01 -2.19006636785E-04 +1.20104397623E-03 -2.24507545755E-04 +1.14137686067E-03 +6.06808593645E-01 +6.77600212894E-01
2.54500000000E+09 +6.33294627393E-01 +5.84059985418E-01 -8.45036766557E-05 +1.27180613032E-03 -1.64864921109E-04 +1.25014715405E-03 +6.12599933762E-01 +6.71514751851E-01
2.55000000000E+09 +6.36978679125E-01 +5.76968973513E-01 +1.74463555301E-04 +1.28126783757E-03 +3.81362516607E-05 +1.40006416398E-03 +6.17796286294E-01 +6.65580498816E-01
2.55500000000E+09 +6.41877559927E-01 +5.68494196720E-01 +3.21682935396E-04 +1.08746107643E-03 +3.22544225479E-04 +1.28569159412E-03 +6.22986271404E-01 +6.59326517376E-01
2.56000000000E+09 +6.48624453756E-01 +5.59400524470E-01 +3.32503884534E-04 +9.88509350862E-04 +4.85458581648E-04 +1.14451862542E-03 +6.28119521979E-01 +6.52331076858E-01
2.56500000000E+09 +6.56495260789E-01 +5.49123665404E-01 +3.04612768592E-04 +1.01748926530E-03 +5.11478750310E-04 +1.03569636510E-03 +6.33388131815E-01 +6.45348662007E-01
2.57000000000E+09 +6.64813649238E-01 +5.38639935012E-01 +4.27641748843E-04 +1.07353479478E-03 +6.41153534140E-04 +9.77796150393E-04 +6.39099998742E-01 +6.37696348872E-01
2.57500000000E+09 +6.72852275510E-01 +5.28540851541E-01 +6.07655080560E-04 +1.11353396462E-03 +7.25209078459E-04 +8.83658530208E-04 +6.44838478916E-01 +6.30298575454E-01
2.58000000000E+09 +6.79639958893E-01 +5.19403431625E-01 +8.45574681170E-04 +9.52176912100E-04 +7.59821169476E-04 +7.82662146297E-04 +6.50475564199E-01 +6.22839336922E-01
2.58500000000E+09 +6.85186922885E-01 +5.11026759166E-01 +9.62508446065E-04 +6.93700470029E-04 +8.45235922889E-04 +7.08092715447E-04 +6.55713160440E-01 +6.15230195343E-01
2.59000000000E+09 +6.89030708180E-01 +5.03614736333E-01 +8.77298828796E-04 +5.35102417797E-04 +7.90407481312E-04 +5.59752778963E-04 +6.60602950329E-01 +6.07616947892E-01
2.59500000000E+09 +6.91862424218E-01 +4.96363138945E-01 +8.70943839218E-04 +5.90293146056E-04 +8.15748009679E-04 +6.23786108427E-04 +6.65736309244E-01 +5.99649188288E-01
2.60000000000E+09 +6.93606532285E-01 +4.88375692840E-01 +1.01697912122E-03 +4.83718856276E-04 +1.03068713289E-03 +4.83893128088E-04 +6.71068834620E-01 +5.91431047773E-01
2.60500000000E+09 +6.95556592767E-01 +4.78853890678E-01 +1.07916736019E-03 +1.84518389837E-04 +1.10016717936E-03 +2.00120429834E-04 +6.76697721071E-01 +5.82618308904E-01
2.61000000000E+09 +6.98027434148E-01 +4.67295163635E-01 +8.25355123721E-04 +6.89126829364E-05 +8.67170856296E-04 +8.65078925890E-05 +6.82051404363E-01 +5.73721982703E-01
2.61500000000E+09 +7.01714998170E-01 +4.53685067617E-01 +8.13089974612E-04 +7.67347281142E-05 +8.39139627175E-04 +8.56551543722E-05 +6.87035953446E-01 +5.64843850019E-01
2.62000000000E+09 +7.05969154651E-01 +4.37892515845E-01 +7.68124169079E-04 +3.35083278851E-06 +8.28396675417E-04 -1.01116914257E-05 +6.91865066393E-01 +5.56069564618E-01
2.62500000000E+09 +7.11038949062E-01 +4.21273765862E-01 +7.33758891380E-04 +5.98947486446E-05 +7.97956672524E-04 +1.83509254017E-05 +6.96768042295E-01 +5.47571222785E-01
2.63000000000E+09 +7.16809881305E-01 +4.04482517956E-01 +8.41006812237E-04 +4.69981435825E-05 +8.12752555683E-04 -1.63103837612E-05 +7.01797288578E-01 +5.38443494815E-01
2.63500000000E+09 +7.21859294852E-01 +3.88548283956E-01 +8.99187716806E-04 -1.72132545409E-04 +7.85647243916E-04 -2.62893315305E-04 +7.06573536722E-01 +5.29063999928E-01
2.64000000000E+09 +7.26218860427E-01 +3.74260459847E-01 +5.97310583972E-04 -2.47775050578E-04 +5.30783192475E-04 -2.09366224126E-04 +7.11263495100E-01 +5.19454447439E-01
2.64500000000E+09 +7.29541127138E-01 +3.62376871761E-01 +5.55517756588E-04 -2.06641988300E-04 +5.02719604085E-04 -1.31457502966E-04 +7.15903269453E-01 +5.09798191240E-01
2.65000000000E+09 +7.31597861584E-01 +3.52379818690E-01 +5.39633112765E-04 -1.03903754545E-04 +4.96602456967E-04 -1.94589995009E-05 +7.20577180983E-01 +4.99620860261E-01
2.65500000000E+09 +7.33198248708E-01 +3.43377452155E-01 +5.13734539539E-04 -7.63388088636E-05 +5.68159216441E-04 -3.80311761281E-05 +7.24648696561E-01 +4.88854562924E-01
2.66000000000E+09 +7.34337197701E-01 +3.34455494629E-01 +5.60949492752E-04 -5.69625971797E-05 +6.42424126526E-04 -9.40001203320E-05 +7.28733765904E-01 +4.77620660296E-01
2.66500000000E+09 +7.35157832987E-01 +3.24704189898E-01 +5.35803334079E-04 -1.28573047587E-04 +5.48434785785E-04 -1.89825067292E-04 +7.32896119096E-01 +4.66602217112E-01
2.67000000000E+09 +7.36227142813E-01 +3.12774739042E-01 +4.88300977438E-04 -3.04355587748E-05 +5.06681105813E-04 -5.89551379152E-05 +7.37375609064E-01 +4.55818632260E-01
2.67500000000E+09 +7.37282255711E-01 +2.98914204858E-01 +6.75056004315E-04 +4.37154611595E-05 +6.54560877810E-04 +4.15175783648E-05 +7.41817643108E-01 +4.44797015001E-01
2.68000000000E+09 +7.38408175162E-01 +2.83258939883E-01 +8.07064287358E-04 -5.07912153920E-05 +7.74113390194E-04 -7.81030861852E-05 +7.45929769626E-01 +4.33396757134E-01
2.68500000000E+09 +7.39825962994E-01 +2.66309815996E-01 +7.71536369781E-04 -2.17857706612E-04 +6.99672472609E-04 -2.04636481463E-04 +7.49018638473E-01 +4.21720767134E-01
2.69000000000E+09 +7.40854106586E-01 +2.49113362511E-01 +6.75064912296E-04 -1.12578398902E-04 +6.70223428964E-04 -8.93706072030E-05 +7.51802919881E-01 +4.09718638687E-01
2.69500000000E+09 +7.41932399667E-01 +2.32752741581E-01 +9.62265977153E-04 -1.39970856296E-05 +8.94710671801E-04 -3.98446728524E-05 +7.54582688414E-01 +3.97114705080E-01
2.70000000000E+09 +7.42664085392E-01 +2.17443105108E-01 +1.13542256474E-03 -2.35322446623E-04 +1.09620658273E-03 -1.94241596148E-04 +7.57667898696E-01 +3.84000663709E-01
2.70500000000E+09 +7.43231269447E-01 +2.03584252676E-01 +1.16347118105E-03 -4.67399093748E-04 +1.15593245815E-03 -3.98659837972E-04 +7.60804806675E-01 +3.70688624823E-01
2.71000000000E+09 +7.43511540988E-01 +1.90784126887E-01 +1.01877664212E-03 -6.96288763418E-04 +1.06069469045E-03 -6.66238004128E-04 +7.63625565596E-01 +3.57153397717E-01
2.71500000000E+09 +7.43518066501E-01 +1.78243349363E-01 +8.86565485977E-04 -6.97429698641E-04 +9.97095962149E-04 -7.09467878480E-04 +7.65736962438E-01 +3.44502849103E-01
2.72000000000E+09 +7.43195692550E-01 +1.65601393944E-01 +9.61225705723E-04 -7.41048905286E-04 +1.05410504113E-03 -8.66005730724E-04 +7.67742745462E-01 +3.31816247750E-01
2.72500000000E+09 +7.42804116560E-01 +1.51816535427E-01 +9.34511746375E-04 -7.61348389190E-04 +8.63267734560E-04 -8.75294276190E-04 +7.68814293690E-01 +3.18369057931E-01
2.73000000000E+09 +7.41869418628E-01 +1.36147671194E-01 +1.09546891088E-03 -9.04692524752E-04 +9.51441469941E-04 -8.85863753178E-04 +7.70012959063E-01 +3.04172389986E-01
2.73500000000E+09 +7.39997557903E-01 +1.18723715218E-01 +1.02759947760E-03 -1.22420882261E-03 +8.66724094610E-04 -1.07778528681E-03 +7.70501184497E-01 +2.89344475794E-01
2.74000000000E+09 +7.37546821537E-01 +1.00632165222E-01 +8.57575806779E-04 -1.31435953437E-03 +8.64733297556E-04 -1.15116061963E-03 +7.71664349657E-01 +2.74832795824E-01
2.74500000000E+09 +7.33796893318E-01 +8.17160276209E-02 +7.48966595501E-04 -1.38469654272E-03 +8.52450492873E-04 -1.23168179168E-03 +7.73097647876E-01 +2.60140596431E-01
2.75000000000E+09 +7.29128000473E-01 +6.34339547426E-02 +9.25936801074E-04 -1.43980208740E-03 +1.12559841808E-03 -1.35432942786E-03 +7.74250698045E-01 +2.45058701937E-01
2.75500000000E+09 +7.24205522130E-01 +4.59546656647E-02 +7.59180925688E-04 -1.92479501108E-03 +9.26266566675E-04 -2.00750848559E-03 +7.74404565803E-01 +2.30080763320E-01
2.76000000000E+09 +7.19465419704E-01 +2.91761977592E-02 +4.97682246776E-04 -1.95114106735E-03 +5.60610165505E-04 -2.08929350080E-03 +7.73877230091E-01 +2.14590059459E-01
2.76500000000E+09 +7.13977545015E-01 +1.25624228792E-02 +2.17130691894E-04 -2.12076559377E-03 +2.34324753024E-04 -2.22860652017E-03 +7.72963742066E-01 +1.98714667392E-01
2.77000000000E+09 +7.08579678231E-01 -4.33249384881E-03 -5.25192386008E-05 -2.00018502354E-03 -1.04332577362E-04 -2.05937290387E-03 +7.72491754963E-01 +1.81731496625E-01
2.77500000000E+09 +7.02876244932E-01 -2.21923117649E-02 +7.23970645560E-05 -1.67495993547E-03 -2.24737512017E-05 -1.80324862582E-03 +7.71058999183E-01 +1.63631089218E-01
2.78000000000E+09 +6.96827389048E-01 -4.09621102761E-02 +2.82136926474E-04 -2.23836161035E-03 +2.42978491996E-04 -2.26038259403E-03 +7.69317151879E-01 +1.46041507420E-01
2.78500000000E+09 +6.90455452469E-01 -6.13309198573E-02 -1.37887506404E-04 -2.73930795526E-03 -3.30798125489E-04 -2.60389572248E-03 +7.67340763128E-01 +1.28358009854E-01
2.79000000000E+09 +6.83364801682E-01 -8.32105873079E-02 -5.86073027002E-04 -2.62260627641E-03 -7.02212253035E-04 -2.43875731447E-03 +7.64545452760E-01 +1.10973749162E-01
2.79500000000E+09 +6.75466998850E-01 -1.05082684844E-01 -7.18086266649E-04 -2.85868788643E-03 -6.88961762619E-04 -2.67763426389E-03 +7.60932674372E-01 +9.28927242476E-02
2.80000000000E+09 +6.66868340197E-01 -1.26644862467E-01 -1.27214453869E-03 -2.88820437579E-03 -1.09016926428E-03 -2.79443325426E-03 +7.56285484594E-01 +7.41636776144E-02
2.80500000000E+09 +6.57592381637E-01 -1.46895260486E-01 -1.29782789393E-03 -2.96466397381E-03 -1.18125636378E-03 -2.96680338633E-03 +7.50429040733E-01 +5.45912326722E-02
2.81000000000E+09 +6.47197042955E-01 -1.65242619246E-01 -2.00881701103E-03 -3.37145493967E-03 -2.02934046917E-03 -3.51588864730E-03 +7.43681384741E-01 +3.56235962932E-02
2.81500000000E+09 +6.36081523518E-01 -1.81430319682E-01 -2.66963468651E-03 -2.98383779344E-03 -2.82769720972E-03 -3.02354650560E-03 +7.37664510286E-01 +1.61794435933E-02
2.82000000000E+09 +6.24021360753E-01 -1.96583540658E-01 -3.24200495597E-03 -3.01924313560E-03 -3.31559199266E-03 -2.92253941440E-03 +7.30438219651E-01 -4.57496330659E-03
2.82500000000E+09 +6.10259549754E-01 -2.10856497433E-01 -3.91977095926E-03 -2.59393543093E-03 -3.85810846843E-03 -2.45514830616E-03 +7.21901045467E-01 -2.49703904514E-02
2.83000000000E+09 +5.95175501750E-01 -2.25264409736E-01 -4.44562951837E-03 -2.12718685908E-03 -4.21668462628E-03 -2.01564978635E-03 +7.11920873243E-01 -4.46879158208E-02
2.83500000000E+09 +5.79032581084E-01 -2.41847855415E-01 -5.06312112844E-03 -1.54600577773E-03 -4.80559586779E-03 -1.57653488589E-03 +7.01868928817E-01 -6.45296446646E-02
2.84000000000E+09 +5.59306074657E-01 -2.60516095309E-01 -5.33632452806E-03 -6.90593167550E-04 -5.21383600413E-03 -8.58828913235E-04 +6.90549516384E-01 -8.44388182376E-02
2.84500000000E+09 +5.37640138060E-01 -2.80497497746E-01 -5.24859677122E-03 -2.91774785469E-07 -5.22346290626E-03 -1.09533635178E-04 +6.78418482759E-01 -1.04946551748E-01
2.85000000000E+09 +5.13644414823E-01 -3.01440361644E-01 -5.30290697629E-03 +1.38564124364E-04 -5.34010031668E-03 +1.73099228700E-04 +6.64982230637E-01 -1.25297962424E-01
2.85500000000E+09 +4.88614363801E-01 -3.21400769971E-01 -6.03677714368E-03 +7.41484575055E-04 -5.98220945408E-03 +7.63128264468E-04 +6.50040381870E-01 -1.45821514380E-01
2.86000000000E+09 +4.64265697183E-01 -3.40298852048E-01 -6.16548376479E-03 +1.79545570031E-03 -6.03832631294E-03 +1.71949307872E-03 +6.34400270959E-01 -1.65301883173E-01
2.86500000000E+09 +4.40484676877E-01 -3.57065571117E-01 -6.20835831902E-03 +2.79643160465E-03 -6.18996841510E-03 +2.70814288728E-03 +6.18168502137E-01 -1.85983901315E-01
2.87000000000E+09 +4.18067678017E-01 -3.72546639049E-01 -5.99530390143E-03 +3.98470952812E-03 -6.01306424948E-03 +4.02784879888E-03 +5.99711524801E-01 -2.06377014319E-01
2.87500000000E+09 +3.95744716254E-01 -3.85783555091E-01 -5.42567677477E-03 +4.86057521359E-03 -5.26492899408E-03 +4.92502027903E-03 +5.79271002840E-01 -2.25919526605E-01
2.88000000000E+09 +3.73212433167E-01 -3.97544939082E-01 -4.82831132416E-03 +5.37442008594E-03 -4.50589514691E-03 +5.33002618943E-03 +5.58457240574E-01 -2.44303301742E-01
2.88500000000E+09 +3.49134474255E-01 -4.08078219643E-01 -4.64623914429E-03 +6.23284043312E-03 -4.35654309896E-03 +5.94699505590E-03 +5.36400420236E-01 -2.62482575609E-01
2.89000000000E+09 +3.22295385993E-01 -4.17566575970E-01 -3.83657603330E-03 +7.56367900810E-03 -3.75039758304E-03 +7.01218010870E-03 +5.12688769380E-01 -2.81001942558E-01
2.89500000000E+09 +2.92664204554E-01 -4.25095705238E-01 -2.57722756594E-03 +7.89471520638E-03 -2.84470553493E-03 +7.54180893429E-03 +4.86306306242E-01 -2.99317900348E-01
2.90000000000E+09 +2.61438453431E-01 -4.31934884032E-01 -2.04336272034E-03 +8.28040573415E-03 -2.33821036906E-03 +8.18814097664E-03 +4.59007825579E-01 -3.15608468247E-01
2.90500000000E+09 +2.27162541901E-01 -4.38531633935E-01 -1.08507324586E-03 +9.28691806414E-03 -1.10080641072E-03 +9.45916257985E-03 +4.30482331241E-01 -3.31839322795E-01
2.91000000000E+09 +1.91609419774E-01 -4.42519948817E-01 +4.74570374768E-04 +9.82087907286E-03 +7.41609011007E-04 +9.69351684312E-03 +4.00759301490E-01 -3.46623639357E-01
2.91500000000E+09 +1.56835371285E-01 -4.46069373487E-01 +2.19409435808E-03 +1.02530733400E-02 +2.31780853721E-03 +9.78673317774E-03 +3.69444114678E-01 -3.59798018946E-01
2.92000000000E+09 +1.21200182838E-01 -4.48027693173E-01 +4.08166137424E-03 +9.84341379207E-03 +3.79811440165E-03 +9.16901290628E-03 +3.36367271422E-01 -3.71607294005E-01
2.92500000000E+09 +8.64355352337E-02 -4.47728737238E-01 +5.60799700155E-03 +9.03569408869E-03 +4.87332728992E-03 +8.74853691453E-03 +3.00815739334E-01 -3.80096822622E-01
2.93000000000E+09 +5.28173252546E-02 -4.44679187350E-01 +6.73018558770E-03 +8.15161452891E-03 +6.08843078712E-03 +8.35475753490E-03 +2.64771819183E-01 -3.87889000973E-01
2.93500000000E+09 +1.95414753020E-02 -4.39579391910E-01 +7.88871875364E-03 +7.59078402255E-03 +7.57491938436E-03 +7.95775331934E-03 +2.26453868168E-01 -3.93410543786E-01
2.94000000000E+09 -1.37840572041E-02 -4.30886950630E-01 +9.08915005632E-03 +6.71733344116E-03 +8.87316662868E-03 +6.89307132397E-03 +1.87494184012E-01 -3.97864503920E-01
2.94500000000E+09 -4.59834102087E-02 -4.19454506438E-01 +1.07077840917E-02 +5.62067555661E-03 +1.04828448408E-02 +5.90695838381E-03 +1.46356384449E-01 -3.98626666360E-01
2.95000000000E+09 -7.94948917313E-02 -4.06638101153E-01 +1.19514376592E-02 +3.48664736495E-03 +1.17855205172E-02 +3.93787777983E-03 +1.06769182359E-01 -3.96180911250E-01
2.95500000000E+09 -1.15183406679E-01 -3.89727246128E-01 +1.20949547341E-02 +1.19558812167E-03 +1.23225221625E-02 +1.80885331392E-03 +6.71139973379E-02 -3.91736742375E-01
2.96000000000E+09 -1.49318265860E-01 -3.68973226368E-01 +1.19055991276E-02 -7.00168245244E-04 +1.24877526332E-02 -4.91367313259E-04 +2.58254213835E-02 -3.84926285473E-01
2.96500000000E+09 -1.82540557508E-01 -3.46361351122E-01 +1.15766240630E-02 -1.94485178874E-03 +1.18862294513E-02 -2.27024083821E-03 -1.55726096229E-02 -3.73106508467E-01
2.97000000000E+09 -2.13929960317E-01 -3.21672242616E-01 +1.12681996203E-02 -3.39485564913E-03 +1.11882943901E-02 -3.75559675132E-03 -5.63562913119E-02 -3.59594574428E-01
2.97500000000E+09 -2.42935937401E-01 -2.95693945305E-01 +1.12913447842E-02 -4.85478367772E-03 +1.09906876811E-02 -4.82613030637E-03 -9.67896961881E-02 -3.42814718283E-01
2.98000000000E+09 -2.70795119498E-01 -2.68962191316E-01 +1.04999797325E-02 -7.13074653158E-03 +1.04788403617E-02 -6.70391624041E-03 -1.35561863387E-01 -3.23666495051E-01
2.98500000000E+09 -2.96572471156E-01 -2.39164554116E-01 +9.22581802177E-03 -8.82530113887E-03 +9.73195375017E-03 -8.54534087393E-03 -1.72941139953E-01 -3.01225954528E-01
2.99000000000E+09 -3.18784372719E-01 -2.07935127023E-01 +7.40470923882E-03 -9.89929350235E-03 +8.06192787291E-03 -1.02636884720E-02 -2.09751025588E-01 -2.75839562869E-01
2.99500000000E+09 -3.39399460343E-01 -1.76852169478E-01 +6.06888820635E-03 -1.06852002944E-02 +6.05063343436E-03 -1.14161930349E-02 -2.43142154549E-01 -2.46729393650E-01
3.00000000000E+09 -3.59739072165E-01 -1.43141154772E-01 +4.46811393605E-03 -1.15257435577E-02 +3.91826498081E-03 -1.17651030418E-02 -2.75766696768E-01 -2.15209661257E-01
3.00500000000E+09 -3.76339587396E-01 -1.07481535669E-01 +2.80124696731E-03 -1.20970668950E-02 +2.20860390162E-03 -1.17789313221E-02 -3.04622697431E-01 -1.82027404226E-01
3.01000000000E+09 -3.90480999474E-01 -7.27468915767E-02 +6.79604723905E-04 -1.24610218236E-02 +6.27533143896E-04 -1.19431986652E-02 -3.33383965387E-01 -1.46800470169E-01
3.01500000000E+09 -4.03258827763E-01 -3.82519135227E-02 -1.32021516242E-03 -1.18994236339E-02 -1.06769196212E-03 -1.16646365365E-02 -3.57474473662E-01 -1.09885559941E-01
3.02000000000E+09 -4.12973227205E-01 -3.66359169132E-03 -2.75463553278E-03 -1.09594233544E-02 -2.52126106809E-03 -1.10235301440E-02 -3.78694475178E-01 -7.11616723453E-02
3.02500000000E+09 -4.19512229732E-01 +2.96113039803E-02 -3.57749036013E-03 -1.06589696834E-02 -3.53097652274E-03 -1.07385111983E-02 -3.95925996839E-01 -3.23220926280E-02
3.03000000000E+09 -4.23009187191E-01 +6.21635234667E-02 -5.19955724538E-03 -1.02269821807E-02 -5.15127886515E-03 -1.01222689133E-02 -4.10685596942E-01 +8.18569016482E-03
3.03500000000E+09 -4.23074839002E-01 +9.39869045654E-02 -6.77420481250E-03 -9.75379263933E-03 -6.52054631085E-03 -9.82310949597E-03 -4.21836153495E-01 +4.78830458735E-02
3.04000000000E+09 -4.20416360529E-01 +1.25946384403E-01 -8.73734197942E-03 -7.78068984775E-03 -8.51966446786E-03 -8.22342651932E-03 -4.30829934247E-01 +8.91821164139E-02
3.04500000000E+09 -4.14545893036E-01 +1.58062226494E-01 -8.72891132667E-03 -5.86309665058E-03 -9.07963679947E-03 -6.28386878160E-03 -4.35976956978E-01 +1.29204898071E-01
3.05000000000E+09 -4.06637486927E-01 +1.91475260034E-01 -8.87263635264E-03 -4.70197786769E-03 -9.56710410467E-03 -4.65690100471E-03 -4.38946014323E-01 +1.68674235040E-01
3.05500000000E+09 -3.95640293952E-01 +2.26108930779E-01 -9.05075925436E-03 -3.80638891000E-03 -9.38470591986E-03 -3.15611348195E-03 -4.39736038799E-01 +2.06968738535E-01
3.06000000000E+09 -3.82404339404E-01 +2.60056467529E-01 -9.62315241980E-03 -3.09091192310E-03 -9.30061030973E-03 -2.39872141110E-03 -4.38179883756E-01 +2.44392221112E-01
3.06500000000E+09 -3.68302617686E-01 +2.92992931340E-01 -1.03515493215E-02 -1.24283327964E-03 -9.66753533922E-03 -1.23228081016E-03 -4.35235855991E-01 +2.82028257480E-01
3.07000000000E+09 -3.54025156428E-01 +3.24011068369E-01 -9.92248143927E-03 +5.51079754303E-04 -9.55068912442E-03 -2.55440829152E-05 -4.27760281897E-01 +3.18752055120E-01
