# Hz S RI R 50
! CMT, C1220, 16058040, 17.2.0/1
! Date: 15/08/2018 10:51:10
! Data: Format (Calibration Info)
! Freq                      S11: Re/Im (F2)                       S21: Re/Im (F2)                       S12: Re/Im (F2)                       S22: Re/Im (F2)            
2.50000000000E+09 +5.80738659384E-01 +6.50528034880E-01 -1.05713610804E-03 +6.09372603707E-04 -1.14323466171E-03 +6.86421437456E-04 +5.62046748813E-01 +7.26064701148E-01
2.50500000000E+09 +5.88234942534E-01 +6.41351090110E-01 -9.75912085618E-04 +7.16921906844E-04 -1.01754327960E-03 +7.75138269220E-04 +5.67749834450E-01 +7.20494662239E-01
2.51000000000E+09 +5.96534037026E-01 +6.31898085802E-01 -9.11421508414E-04 +7.83440631788E-04 -9.04480762165E-04 +7.96004303542E-04 +5.73516547944E-01 +7.15126229362E-01
2.51500000000E+09 +6.04919521674E-01 +6.23083487489E-01 -9.17194653466E-04 +9.30449646069E-04 -8.63915715903E-04 +9.36447092542E-04 +5.78761867988E-01 +7.09487093274E-01
2.52000000000E+09 +6.12644755191E-01 +6.14686048398E-01 -7.38685118149E-04 +1.03180451226E-03 -7.91336807985E-04 +1.00694313106E-03 +5.83787056782E-01 +7.03331118066E-01
2.52500000000E+09 +6.18848033779E-01 +6.07532623438E-01 -6.13470317799E-04 +1.14224152357E-03 -6.41139029047E-04 +1.06398507635E-03 +5.89274136092E-01 +6.96825849570E-01
2.53000000000E+09 +6.23712898047E-01 +6.01448486959E-01 -5.64789568858E-04 +1.11777286698E-03 -5.98235066963E-04 +1.08623441544E-03 +5.95228866242E-01 +6.90105422417E-01
2.53500000000E+09 +6.27530662453E-01 +5.95733368579E-01 -5.62896085441E-04 +1.18377187881E-03 -5.37174654462E-04 +1.20241833760E-03 +6.01022731840E-01 +6.83466031858E-01
2.54000000000E+09 +6.30484957213E-01 +5.89957850671E-01 -4.13693493860E-04 +1.28899008739E-03 -4.09322832961E-04 +1.30689426287E-03 +6.06951200634E-01 +6.77302885438E-01
2.54500000000E+09 +6.33487145570E-01 +5.83885295860E-01 -1.98920830079E-04 +1.45782039883E-03 -2.99433071459E-04 +1.40837312096E-03 +6.12660544610E-01 +6.71226108527E-01
2.55000000000E+09 +6.37190470661E-01 +5.76783730628E-01 +9.58943622310E-05 +1.45070938492E-03 -3.18923659173E-05 +1.60360995463E-03 +6.17959554543E-01 +6.65312705241E-01
2.55500000000E+09 +6.42176597160E-01 +5.68350590878E-01 +2.63303103874E-04 +1.28526798602E-03 +2.33114905745E-04 +1.46650371953E-03 +6.22943132343E-01 +6.59058249306E-01
2.56000000000E+09 +6.48816562384E-01 +5.59226226944E-01 +2.55605278178E-04 +1.19978033776E-03 +4.25314766097E-04 +1.40898513460E-03 +6.28115411592E-01 +6.52116890407E-01
2.56500000000E+09 +6.56686331945E-01 +5.48937102018E-01 +3.16076083279E-04 +1.21665089905E-03 +5.69955672174E-04 +1.22839362092E-03 +6.33470765849E-01 +6.44941904786E-01
2.57000000000E+09 +6.64999581682E-01 +5.38518857341E-01 +4.20892748701E-04 +1.29278511216E-03 +7.27608596016E-04 +1.17246193809E-03 +6.38987806735E-01 +6.37338411979E-01
2.57500000000E+09 +6.73038621451E-01 +5.28259428545E-01 +6.43529112675E-04 +1.32781562079E-03 +7.68994993599E-04 +1.03993624925E-03 +6.44901889475E-01 +6.30009383958E-01
2.58000000000E+09 +6.79746013662E-01 +5.19114724243E-01 +8.76089261653E-04 +1.15142316753E-03 +7.45034058136E-04 +9.34619959874E-04 +6.50419291643E-01 +6.22592737025E-01
2.58500000000E+09 +6.85311474644E-01 +5.10843223009E-01 +1.03433333109E-03 +9.22569117884E-04 +8.45362668517E-04 +8.41983877348E-04 +6.55711350403E-01 +6.14865717734E-01
2.59000000000E+09 +6.89253227213E-01 +5.03513892240E-01 +9.24167697183E-04 +6.73728833556E-04 +7.98362253937E-04 +7.26568688935E-04 +6.60590683933E-01 +6.07416693768E-01
2.59500000000E+09 +6.92045611833E-01 +4.96154167534E-01 +9.02408306744E-04 +7.46761026384E-04 +8.78868554853E-04 +7.97293784292E-04 +6.65586004164E-01 +5.99333104148E-01
2.60000000000E+09 +6.93844997253E-01 +4.88138206813E-01 +1.08197855270E-03 +6.46003213764E-04 +1.10270726848E-03 +6.93218469490E-04 +6.70912191066E-01 +5.90941439070E-01
2.60500000000E+09 +6.95980026671E-01 +4.78672863481E-01 +1.15123435939E-03 +4.39217777593E-04 +1.14597455912E-03 +4.04943561212E-04 +6.76581382752E-01 +5.82355376022E-01
2.61000000000E+09 +6.98345090847E-01 +4.67072490699E-01 +9.99883483027E-04 +2.75266987874E-04 +9.74588058339E-04 +2.68721920673E-04 +6.81948368023E-01 +5.73403240674E-01
2.61500000000E+09 +7.01921104798E-01 +4.53404176194E-01 +9.71628644024E-04 +2.42637320037E-04 +1.02749513729E-03 +3.02931273381E-04 +6.86829923620E-01 +5.64619371713E-01
2.62000000000E+09 +7.06169973606E-01 +4.37617178784E-01 +9.12216046469E-04 +1.22176900976E-04 +1.00516592217E-03 +1.41843004386E-04 +6.91646268250E-01 +5.55757428071E-01
2.62500000000E+09 +7.11346553852E-01 +4.20830420524E-01 +8.79546924094E-04 +2.15602891338E-04 +9.54231712360E-04 +1.70059214212E-04 +6.96351020691E-01 +5.47251379789E-01
2.63000000000E+09 +7.17051305129E-01 +4.04094694632E-01 +1.06579867158E-03 +2.13039833177E-04 +9.53597946535E-04 +1.02361802690E-04 +7.01516647782E-01 +5.38265131781E-01
2.63500000000E+09 +7.22130819273E-01 +3.88113155729E-01 +1.08924942519E-03 +5.58199090940E-05 +9.60300282766E-04 -6.84577199285E-05 +7.06245035546E-01 +5.29059262396E-01
2.64000000000E+09 +7.26531598941E-01 +3.73697317253E-01 +9.41149050476E-04 -1.52496497315E-04 +7.74106867769E-04 -9.25882420966E-05 +7.10995150178E-01 +5.19479064570E-01
2.64500000000E+09 +7.29669621464E-01 +3.61718104160E-01 +9.03645035913E-04 -1.12697905057E-04 +7.82862304098E-04 -4.10430837833E-05 +7.15660642176E-01 +5.09784994923E-01
2.65000000000E+09 +7.31658261477E-01 +3.51904467651E-01 +8.20424079837E-04 -1.05598829259E-04 +8.25925990890E-04 +1.99585201798E-05 +7.20350205403E-01 +4.99744911598E-01
2.65500000000E+09 +7.33256633166E-01 +3.42934471473E-01 +8.23773658710E-04 -8.69049181866E-05 +9.11714464726E-04 +2.13177005961E-05 +7.24487983304E-01 +4.89002253365E-01
2.66000000000E+09 +7.34431702343E-01 +3.33971509274E-01 +9.19578272043E-04 -8.84018191635E-05 +1.06429863983E-03 -1.47439247496E-04 +7.28463016651E-01 +4.77781716104E-01
2.66500000000E+09 +7.35360437947E-01 +3.24163797306E-01 +8.90643412362E-04 -2.04768399966E-04 +8.99210629240E-04 -3.11734992008E-04 +7.32814694143E-01 +4.66825961343E-01
2.67000000000E+09 +7.36329072207E-01 +3.12211221962E-01 +8.24314558962E-04 -1.86575760904E-04 +7.78126729586E-04 -1.98490552303E-04 +7.37315818808E-01 +4.56201331847E-01
2.67500000000E+09 +7.37380105528E-01 +2.98401032097E-01 +9.85635631451E-04 -1.72008341773E-04 +9.25415681214E-04 -2.06091194586E-04 +7.41849823643E-01 +4.45094043696E-01
2.68000000000E+09 +7.38555053993E-01 +2.82806915855E-01 +1.03301537766E-03 -2.41097967089E-04 +9.95326405444E-04 -2.46028241230E-04 +7.45928281578E-01 +4.33756758295E-01
2.68500000000E+09 +7.39980444748E-01 +2.65760094579E-01 +9.57284970360E-04 -4.58304574646E-04 +9.40949706999E-04 -4.34759739334E-04 +7.49055972645E-01 +4.22067363088E-01
2.69000000000E+09 +7.41074680467E-01 +2.48437526037E-01 +8.23077695664E-04 -4.10055642489E-04 +8.69294159890E-04 -3.64061664445E-04 +7.51832108599E-01 +4.10097466209E-01
2.69500000000E+09 +7.42085703626E-01 +2.32142887793E-01 +1.05302209132E-03 -2.76783903826E-04 +1.05717845447E-03 -2.98488172598E-04 +7.54804698722E-01 +3.97395612281E-01
2.70000000000E+09 +7.42942770521E-01 +2.16701075932E-01 +1.25461628639E-03 -5.41321770090E-04 +1.14728384796E-03 -5.28396850544E-04 +7.57824835976E-01 +3.84365467852E-01
2.70500000000E+09 +7.43401841125E-01 +2.02897531760E-01 +1.20113223182E-03 -7.14787262754E-04 +1.20195496814E-03 -7.12840815761E-04 +7.61081698553E-01 +3.70832810655E-01
2.71000000000E+09 +7.43626478336E-01 +1.90054675865E-01 +1.04860890351E-03 -9.55861680490E-04 +1.12407882180E-03 -9.32169578217E-04 +7.63893306721E-01 +3.57411605336E-01
2.71500000000E+09 +7.43600324713E-01 +1.77438541872E-01 +9.63597258462E-04 -9.29102642355E-04 +1.01931029169E-03 -9.27178683841E-04 +7.66197880826E-01 +3.44858042231E-01
2.72000000000E+09 +7.43344044973E-01 +1.64691863615E-01 +1.00727648855E-03 -9.80606619024E-04 +1.00705364279E-03 -1.15122602162E-03 +7.68224965189E-01 +3.32131374944E-01
2.72500000000E+09 +7.42968153254E-01 +1.50779266767E-01 +9.40140138193E-04 -1.07636358370E-03 +8.04730458300E-04 -1.19780325743E-03 +7.69240176815E-01 +3.18726042547E-01
2.73000000000E+09 +7.41884204839E-01 +1.35115488183E-01 +1.06087453792E-03 -1.21393983446E-03 +8.80729302953E-04 -1.17849503639E-03 +7.70582595740E-01 +3.04543436757E-01
2.73500000000E+09 +7.39975949175E-01 +1.17780881984E-01 +9.44630490509E-04 -1.52352494432E-03 +8.72591243865E-04 -1.32883169443E-03 +7.71198116110E-01 +2.89628268906E-01
2.74000000000E+09 +7.37519771111E-01 +9.96422573868E-02 +7.48282592098E-04 -1.61892781980E-03 +7.81255833403E-04 -1.37177226377E-03 +7.72420976608E-01 +2.75001404609E-01
2.74500000000E+09 +7.33822979307E-01 +8.05847595937E-02 +7.09114140279E-04 -1.69027342165E-03 +8.48478476435E-04 -1.52997926022E-03 +7.74033794110E-01 +2.60119649741E-01
2.75000000000E+09 +7.29049141450E-01 +6.20667766787E-02 +8.15435109783E-04 -1.68119033428E-03 +1.03416567340E-03 -1.67883257400E-03 +7.75139313764E-01 +2.44947100626E-01
2.75500000000E+09 +7.23852533598E-01 +4.46699887302E-02 +6.61305609166E-04 -2.22182059043E-03 +8.38093707384E-04 -2.38260823850E-03 +7.75247576542E-01 +2.29847847697E-01
2.76000000000E+09 +7.18945853583E-01 +2.79430530678E-02 +3.60209508230E-04 -2.35790556901E-03 +3.61466959482E-04 -2.48188957275E-03 +7.74719603722E-01 +2.14356229187E-01
2.76500000000E+09 +7.13722811947E-01 +1.12982580075E-02 -7.93858712498E-05 -2.39854310468E-03 -1.32984714681E-04 -2.61406156150E-03 +7.73919272465E-01 +1.98345190311E-01
2.77000000000E+09 +7.08149933480E-01 -5.75724600854E-03 -4.21055931119E-04 -2.29703027120E-03 -5.30594394554E-04 -2.37192649868E-03 +7.73347297985E-01 +1.81139736783E-01
2.77500000000E+09 +7.02231636498E-01 -2.35652676634E-02 -3.80725839179E-04 -1.92279133867E-03 -4.18894783893E-04 -2.03134226582E-03 +7.71883654511E-01 +1.62903008422E-01
2.78000000000E+09 +6.95942544799E-01 -4.24131278507E-02 -1.05361909483E-04 -2.40746740806E-03 -2.77029731732E-04 -2.41987779041E-03 +7.70020049445E-01 +1.45067654752E-01
2.78500000000E+09 +6.89468799502E-01 -6.24753170682E-02 -5.98456228208E-04 -2.84325426512E-03 -7.97825275408E-04 -2.75405924945E-03 +7.67964433884E-01 +1.27415222394E-01
2.79000000000E+09 +6.82562595958E-01 -8.43879337181E-02 -1.13028051913E-03 -2.61182375976E-03 -1.21214534990E-03 -2.45725006628E-03 +7.65073511440E-01 +1.09968764249E-01
2.79500000000E+09 +6.74531298929E-01 -1.06510758421E-01 -1.18547527726E-03 -2.70794019114E-03 -1.20257519397E-03 -2.50700628933E-03 +7.61275777042E-01 +9.19007246652E-02
2.80000000000E+09 +6.65611918343E-01 -1.27995270082E-01 -1.62873508039E-03 -2.63147534208E-03 -1.51179560298E-03 -2.59518031861E-03 +7.56457432308E-01 +7.32010900076E-02
2.80500000000E+09 +6.56168640874E-01 -1.48071818139E-01 -1.60152767996E-03 -2.73066115748E-03 -1.46881619473E-03 -2.80424975851E-03 +7.50765359949E-01 +5.36386040127E-02
2.81000000000E+09 +6.45819143713E-01 -1.66290998371E-01 -2.35568076983E-03 -3.22196568474E-03 -2.32712725456E-03 -3.29921286969E-03 +7.43988408718E-01 +3.46463625001E-02
2.81500000000E+09 +6.34430470337E-01 -1.82369600694E-01 -3.00623412695E-03 -2.69898563840E-03 -3.19988838706E-03 -2.72411741811E-03 +7.37771079672E-01 +1.50601598496E-02
2.82000000000E+09 +6.22409610541E-01 -1.97341786753E-01 -3.42319389804E-03 -2.65802452352E-03 -3.45967237840E-03 -2.47403118259E-03 +7.30648820859E-01 -5.57911481600E-03
2.82500000000E+09 +6.08558352575E-01 -2.11622979079E-01 -4.07824280345E-03 -2.24300963413E-03 -3.92471383406E-03 -2.04306828076E-03 +7.21889158628E-01 -2.62846885482E-02
2.83000000000E+09 +5.93457927695E-01 -2.25704652971E-01 -4.46535611419E-03 -1.78026710745E-03 -4.16097379216E-03 -1.69697956201E-03 +7.11842978470E-01 -4.59256833434E-02
2.83500000000E+09 +5.77492100115E-01 -2.42353417373E-01 -4.91866132052E-03 -1.24215500498E-03 -4.73522946959E-03 -1.35875071087E-03 +7.01596867932E-01 -6.56655660446E-02
2.84000000000E+09 +5.57738208171E-01 -2.61133568743E-01 -5.16593124211E-03 -5.23677481729E-04 -5.04921301183E-03 -7.59370256489E-04 +6.90445668617E-01 -8.57119626066E-02
2.84500000000E+09 +5.35729978324E-01 -2.81031463071E-01 -5.12353812759E-03 -2.16074106318E-05 -5.14127323905E-03 -1.25396159367E-04 +6.78000191296E-01 -1.06383289054E-01
2.85000000000E+09 +5.11622816211E-01 -3.01880229106E-01 -5.33694239577E-03 +8.48009495904E-05 -5.33970146419E-03 +6.15489878296E-05 +6.64492585907E-01 -1.26808362495E-01
2.85500000000E+09 +4.86241160007E-01 -3.21510952001E-01 -6.21271203839E-03 +6.54998952761E-04 -6.05158409902E-03 +7.44416508772E-04 +6.49086272953E-01 -1.47193745492E-01
2.86000000000E+09 +4.61880599124E-01 -3.39890481506E-01 -6.35246267115E-03 +1.87532910113E-03 -6.24809670564E-03 +1.84256437791E-03 +6.33128919974E-01 -1.66560385269E-01
2.86500000000E+09 +4.38424673588E-01 -3.56498495031E-01 -6.39859682321E-03 +2.94138495786E-03 -6.42419253886E-03 +2.79461170562E-03 +6.16773947750E-01 -1.86972047190E-01
2.87000000000E+09 +4.16183678460E-01 -3.71850439335E-01 -6.04301594161E-03 +4.21090593617E-03 -6.09915214557E-03 +4.20769077931E-03 +5.98253902904E-01 -2.07153778182E-01
2.87500000000E+09 +3.93817483385E-01 -3.85203701076E-01 -5.49667121278E-03 +4.87626635642E-03 -5.37496718210E-03 +5.01396347233E-03 +5.77747058280E-01 -2.26525367353E-01
2.88000000000E+09 +3.71157219785E-01 -3.96824225459E-01 -5.06865451851E-03 +5.40840553376E-03 -4.80466470955E-03 +5.41437574555E-03 +5.56996486414E-01 -2.44724099024E-01
2.88500000000E+09 +3.46714589715E-01 -4.06784833018E-01 -4.97753943411E-03 +6.46826309719E-03 -4.66675023172E-03 +6.16155809514E-03 +5.34717769761E-01 -2.62964069276E-01
2.89000000000E+09 +3.20541320638E-01 -4.15867214935E-01 -4.12528847352E-03 +7.84512349358E-03 -4.11261658830E-03 +7.35774162885E-03 +5.10913060109E-01 -2.81060989164E-01
2.89500000000E+09 +2.91147587429E-01 -4.23558899028E-01 -2.68872255201E-03 +8.44998870474E-03 -3.07579756160E-03 +8.11367557752E-03 +4.84326635809E-01 -2.99147942762E-01
2.90000000000E+09 +2.59903892655E-01 -4.30177510033E-01 -2.06169488165E-03 +8.75354649886E-03 -2.34102067252E-03 +8.73806551787E-03 +4.57064085353E-01 -3.15117194210E-01
2.90500000000E+09 +2.25962493768E-01 -4.36541112411E-01 -1.04597484062E-03 +9.80026654336E-03 -1.02975367253E-03 +1.00189770238E-02 +4.28694608085E-01 -3.31014084237E-01
2.91000000000E+09 +1.90563862294E-01 -4.40561539248E-01 +5.12845363970E-04 +1.03486170379E-02 +8.19665717894E-04 +1.02889709881E-02 +3.99040203778E-01 -3.45618904760E-01
2.91500000000E+09 +1.56094831194E-01 -4.44034345121E-01 +2.51798700121E-03 +1.08818881364E-02 +2.63972611593E-03 +1.03323045204E-02 +3.67882870463E-01 -3.58294841482E-01
2.92000000000E+09 +1.20556361234E-01 -4.46213611557E-01 +4.51352557274E-03 +1.01646176550E-02 +4.21354293899E-03 +9.55556878788E-03 +3.35178456490E-01 -3.70031130111E-01
2.92500000000E+09 +8.56660850686E-02 -4.45712045796E-01 +6.05577352718E-03 +9.26632136221E-03 +5.32088585121E-03 +8.99878620489E-03 +2.99905358538E-01 -3.78454966516E-01
2.93000000000E+09 +5.23239547865E-02 -4.42311299151E-01 +6.93261465372E-03 +8.40105236256E-03 +6.25985794804E-03 +8.53226256601E-03 +2.64037363571E-01 -3.86169709332E-01
2.93500000000E+09 +1.96112052709E-02 -4.37002978691E-01 +8.11650121764E-03 +7.91745357916E-03 +7.73269846110E-03 +8.18504110730E-03 +2.25887212858E-01 -3.91764859574E-01
2.94000000000E+09 -1.33303053954E-02 -4.28594945016E-01 +9.27514244417E-03 +7.03861560702E-03 +9.08971315821E-03 +7.24435585710E-03 +1.87097438957E-01 -3.96053831186E-01
2.94500000000E+09 -4.56108948904E-02 -4.17208702987E-01 +1.12099072032E-02 +6.10102597729E-03 +1.10115174685E-02 +6.33955000784E-03 +1.46169146168E-01 -3.96463824023E-01
2.95000000000E+09 -7.88614640056E-02 -4.04165352859E-01 +1.23591805794E-02 +3.68061970285E-03 +1.22309163522E-02 +4.15548197925E-03 +1.07079413687E-01 -3.94029301751E-01
2.95500000000E+09 -1.14161819082E-01 -3.87337815419E-01 +1.24698513379E-02 +1.37545953958E-03 +1.26744411740E-02 +1.97798027165E-03 +6.76517552368E-02 -3.89770792700E-01
2.96000000000E+09 -1.47935506412E-01 -3.66376925662E-01 +1.23008902203E-02 -3.17508469591E-04 +1.29220456953E-02 -1.43503446824E-04 +2.64920766265E-02 -3.83038821828E-01
2.96500000000E+09 -1.80434007749E-01 -3.44079357182E-01 +1.20922075507E-02 -1.64666430489E-03 +1.24793405163E-02 -2.07333670048E-03 -1.45686815655E-02 -3.71191841241E-01
2.97000000000E+09 -2.11818168405E-01 -3.19892694435E-01 +1.18435157841E-02 -3.12182576571E-03 +1.17138770888E-02 -3.46369293245E-03 -5.51367869144E-02 -3.57726361676E-01
2.97500000000E+09 -2.40747109847E-01 -2.93724333038E-01 +1.21032269837E-02 -4.67977955568E-03 +1.17539031447E-02 -4.68237805629E-03 -9.51193761326E-02 -3.41117026798E-01
2.98000000000E+09 -2.67639118157E-01 -2.67334523531E-01 +1.13558406421E-02 -7.01296526972E-03 +1.13035980783E-02 -6.47382441194E-03 -1.33675584033E-01 -3.22343093352E-01
2.98500000000E+09 -2.93253684048E-01 -2.38139608578E-01 +1.04055397650E-02 -8.95396596254E-03 +1.08693404042E-02 -8.58586803335E-03 -1.70748445896E-01 -3.00239935699E-01
2.99000000000E+09 -3.15416342140E-01 -2.07504944718E-01 +8.40542693825E-03 -1.03656341782E-02 +9.03676730197E-03 -1.06585712571E-02 -2.07342080952E-01 -2.75211397633E-01
2.99500000000E+09 -3.35945337691E-01 -1.76914179805E-01 +6.88829471161E-03 -1.12648068916E-02 +6.88229234311E-03 -1.19557995972E-02 -2.40674161288E-01 -2.46400348782E-01
3.00000000000E+09 -3.56482878601E-01 -1.43556119311E-01 +5.35618443293E-03 -1.19721423703E-02 +4.72623222756E-03 -1.23098457208E-02 -2.72950264103E-01 -2.15426915502E-01
3.00500000000E+09 -3.72954764368E-01 -1.08344135368E-01 +3.70430621014E-03 -1.30658838333E-02 +3.08310443785E-03 -1.27179896917E-02 -3.02298915824E-01 -1.83069677650E-01
3.01000000000E+09 -3.87312058935E-01 -7.43400327724E-02 +1.30732066360E-03 -1.35571713170E-02 +1.22998019612E-03 -1.29202693534E-02 -3.31557070279E-01 -1.48203726085E-01
3.01500000000E+09 -4.00581699505E-01 -4.00700395717E-02 -9.10156985280E-04 -1.31044031339E-02 -5.65862973528E-04 -1.27844223804E-02 -3.56297460958E-01 -1.11317263973E-01
3.02000000000E+09 -4.10335768432E-01 -5.60173871056E-03 -2.50225306961E-03 -1.24079932978E-02 -2.25014773222E-03 -1.24338514471E-02 -3.77761939579E-01 -7.22438952390E-02
3.02500000000E+09 -4.17101511345E-01 +2.71229574213E-02 -3.82253101541E-03 -1.20556570062E-02 -3.77158293605E-03 -1.20741382695E-02 -3.94889624569E-01 -3.34746701409E-02
3.03000000000E+09 -4.21167575349E-01 +5.95179337496E-02 -5.62742300841E-03 -1.14062494085E-02 -5.44212386862E-03 -1.13326422962E-02 -4.09731945955E-01 +6.97216506083E-03
3.03500000000E+09 -4.21797009971E-01 +9.14331309244E-02 -7.54519276199E-03 -1.07816906312E-02 -7.21323453563E-03 -1.08186893565E-02 -4.21068646367E-01 +4.64967913347E-02
3.04000000000E+09 -4.19213027785E-01 +1.23367023136E-01 -9.31142930943E-03 -8.36404119346E-03 -9.16128511870E-03 -8.88915885619E-03 -4.30120433115E-01 +8.76291757574E-02
3.04500000000E+09 -4.13808637064E-01 +1.55500368612E-01 -9.36889958521E-03 -6.54898069172E-03 -9.76399456559E-03 -7.11291573993E-03 -4.35667080487E-01 +1.27644475980E-01
3.05000000000E+09 -4.05855999398E-01 +1.89127229015E-01 -9.68835461603E-03 -5.16792356761E-03 -1.04519300354E-02 -5.22227199956E-03 -4.38818149256E-01 +1.67116595887E-01
3.05500000000E+09 -3.94966391827E-01 +2.23626017570E-01 -9.84073094778E-03 -4.22034821232E-03 -1.02296986716E-02 -3.61870711599E-03 -4.39760059270E-01 +2.05447921121E-01
3.06000000000E+09 -3.82156715819E-01 +2.57356219202E-01 -1.03660120350E-02 -3.35915503818E-03 -1.01444959275E-02 -2.59459578169E-03 -4.38379520881E-01 +2.43015752003E-01
3.06500000000E+09 -3.68230957023E-01 +2.90399647744E-01 -1.11385879906E-02 -1.48615464564E-03 -1.04322829838E-02 -1.42905403779E-03 -4.35590293082E-01 +2.80509983874E-01
3.07000000000E+09 -3.54380495972E-01 +3.21313589453E-01 -1.07550049652E-02 +3.95604077182E-04 -1.04183101518E-02 -1.63694467540E-04 -4.28489961725E-01 +3.17271042908E-01
