# Hz S RI R 50
! CMT, C1220, 16058040, 17.2.0/1
! Date: 15/08/2018 10:52:09
! Data: Format (Calibration Info)
! Freq                      S11: Re/Im (F2)                       S21: Re/Im (F2)                       S12: Re/Im (F2)                       S22: Re/Im (F2)            
2.50000000000E+09 +5.80864410097E-01 +6.52093989842E-01 -9.82904154531E-04 +6.03640468453E-04 -1.06601959260E-03 +6.59800595307E-04 +5.61708109258E-01 +7.26532602242E-01
2.50500000000E+09 +5.88379212451E-01 +6.42929597066E-01 -8.86190073902E-04 +7.07256424904E-04 -9.31384943948E-04 +7.84512392830E-04 +5.67542622962E-01 +7.20994223096E-01
2.51000000000E+09 +5.96794342133E-01 +6.33441943744E-01 -8.66004290763E-04 +8.13413555652E-04 -7.74258753359E-04 +7.97830739097E-04 +5.73377499653E-01 +7.15581252176E-01
2.51500000000E+09 +6.05115587026E-01 +6.24522873506E-01 -7.78273616980E-04 +9.25638226715E-04 -7.29764505764E-04 +8.64146426932E-04 +5.78669480357E-01 +7.10041791403E-01
2.52000000000E+09 +6.12720434503E-01 +6.16141768634E-01 -6.32814224113E-04 +9.70881185644E-04 -6.65458236656E-04 +9.58629540905E-04 +5.83796643561E-01 +7.03797837096E-01
2.52500000000E+09 +6.18872197542E-01 +6.09000902475E-01 -4.86270429038E-04 +1.00127317938E-03 -5.51737565248E-04 +1.00074161905E-03 +5.89223724078E-01 +6.97419307503E-01
2.53000000000E+09 +6.23820510917E-01 +6.02762001288E-01 -4.06808831422E-04 +1.06271364220E-03 -5.29305063849E-04 +1.08390092380E-03 +5.95090178506E-01 +6.90585895764E-01
2.53500000000E+09 +6.27580349829E-01 +5.97267306547E-01 -3.99878809849E-04 +1.14653813123E-03 -4.17709669290E-04 +1.18706725554E-03 +6.01038032911E-01 +6.84149191506E-01
2.54000000000E+09 +6.30554686631E-01 +5.91486059026E-01 -2.00824964823E-04 +1.25446807247E-03 -2.52763028345E-04 +1.26289113483E-03 +6.07021862820E-01 +6.77772187924E-01
2.54500000000E+09 +6.33603825245E-01 +5.85458200060E-01 -3.20084744320E-05 +1.34190599766E-03 -1.22418105750E-04 +1.34775960677E-03 +6.12798879987E-01 +6.71655759361E-01
2.55000000000E+09 +6.37378446688E-01 +5.78285739525E-01 +2.08722983166E-04 +1.33302536714E-03 +1.01362728757E-04 +1.42676004217E-03 +6.18040858626E-01 +6.65625388561E-01
2.55500000000E+09 +6.42429496994E-01 +5.69837626544E-01 +3.68814737561E-04 +1.08024881689E-03 +3.86557964112E-04 +1.32869448569E-03 +6.23207573466E-01 +6.59350972754E-01
2.56000000000E+09 +6.48982179061E-01 +5.60701722562E-01 +4.00390787289E-04 +1.00779588500E-03 +5.38389194606E-04 +1.14311030455E-03 +6.28171933232E-01 +6.52329525961E-01
2.56500000000E+09 +6.56940206785E-01 +5.50522897272E-01 +3.43591844111E-04 +1.02328471830E-03 +6.55731188604E-04 +1.04396396993E-03 +6.33630619699E-01 +6.45172502763E-01
2.57000000000E+09 +6.65273033412E-01 +5.39980071821E-01 +5.03929561656E-04 +9.80357520791E-04 +7.00657811305E-04 +9.01205251008E-04 +6.39326137637E-01 +6.37647926773E-01
2.57500000000E+09 +6.73434220227E-01 +5.29757821896E-01 +6.28454571646E-04 +1.09541327896E-03 +7.23338972484E-04 +8.10990069605E-04 +6.45115366847E-01 +6.30211977366E-01
2.58000000000E+09 +6.80273419191E-01 +5.20770959906E-01 +8.43672582288E-04 +9.06575933488E-04 +7.66860942661E-04 +7.46539224553E-04 +6.50559061779E-01 +6.22897061353E-01
2.58500000000E+09 +6.85969899141E-01 +5.12311705902E-01 +9.66043890733E-04 +6.79548476749E-04 +7.68810979776E-04 +5.91562365447E-04 +6.55990948733E-01 +6.15020913903E-01
2.59000000000E+09 +6.89976510622E-01 +5.04928275101E-01 +8.24878621392E-04 +5.23758363038E-04 +7.61427952284E-04 +5.45683628282E-04 +6.60903690560E-01 +6.07492933871E-01
2.59500000000E+09 +6.92864463772E-01 +4.97637863979E-01 +8.80006104447E-04 +5.75794265756E-04 +8.67525831820E-04 +5.82231898361E-04 +6.66036895657E-01 +5.99317675097E-01
2.60000000000E+09 +6.94635114825E-01 +4.89507825084E-01 +1.00390152735E-03 +4.82667020187E-04 +9.78288445041E-04 +4.79806630226E-04 +6.71161361543E-01 +5.91097782039E-01
2.60500000000E+09 +6.96754297089E-01 +4.80073144053E-01 +1.03176759903E-03 +2.33565492774E-04 +1.00712660066E-03 +2.30194583162E-04 +6.76833380028E-01 +5.82420755062E-01
2.61000000000E+09 +6.99169724571E-01 +4.68493993647E-01 +8.52014728283E-04 +1.55605640461E-04 +8.78484239760E-04 +2.05706530400E-04 +6.82298511308E-01 +5.73405797281E-01
2.61500000000E+09 +7.02864248298E-01 +4.54832434276E-01 +8.84066410254E-04 +1.84816242118E-04 +8.93301821486E-04 +1.78874183987E-04 +6.87180524691E-01 +5.64566862212E-01
2.62000000000E+09 +7.07262279700E-01 +4.39050710787E-01 +8.72417187645E-04 +1.02586032094E-04 +8.93606520612E-04 +1.04537565132E-04 +6.92083244442E-01 +5.55610254770E-01
2.62500000000E+09 +7.12409785465E-01 +4.22240582106E-01 +8.00924224638E-04 +1.45774607516E-04 +8.24349836482E-04 +4.37000858074E-05 +6.96759647375E-01 +5.46878244413E-01
2.63000000000E+09 +7.17921124755E-01 +4.05417270905E-01 +9.06286327642E-04 +1.32714369709E-04 +9.21449462615E-04 +4.85285927255E-05 +7.01790987253E-01 +5.37844331784E-01
2.63500000000E+09 +7.22913656650E-01 +3.89304279295E-01 +1.04097766891E-03 -8.17801808331E-05 +9.55573646314E-04 -2.21499052262E-04 +7.06459216916E-01 +5.28523066738E-01
2.64000000000E+09 +7.27256480772E-01 +3.75178681143E-01 +8.65081913311E-04 -3.19562159778E-04 +7.17868566064E-04 -3.00243771887E-04 +7.11050606727E-01 +5.18748967632E-01
2.64500000000E+09 +7.30581020181E-01 +3.63271805521E-01 +7.07628568825E-04 -3.10803332692E-04 +6.57706701385E-04 -2.07835750113E-04 +7.15610940910E-01 +5.09162004761E-01
2.65000000000E+09 +7.32652619779E-01 +3.53406735093E-01 +6.39244681036E-04 -3.10115756856E-04 +6.22460579219E-04 -1.72888806089E-04 +7.20189274793E-01 +4.99133051420E-01
2.65500000000E+09 +7.34298142594E-01 +3.44267410397E-01 +6.05381542960E-04 -2.47210774745E-04 +6.66497551676E-04 -1.96100598173E-04 +7.24256629691E-01 +4.88351035533E-01
2.66000000000E+09 +7.35315025470E-01 +3.35174035419E-01 +6.49847450598E-04 -1.78441727803E-04 +6.90384478003E-04 -2.12736916064E-04 +7.28186427380E-01 +4.77239484554E-01
2.66500000000E+09 +7.36282733121E-01 +3.25578310288E-01 +6.51239631705E-04 -3.66387034067E-04 +6.55004194627E-04 -3.31562316631E-04 +7.32458057699E-01 +4.66053358859E-01
2.67000000000E+09 +7.37312214433E-01 +3.13672331494E-01 +5.66777813747E-04 -2.42663661352E-04 +5.16832244234E-04 -2.89942899449E-04 +7.36716635142E-01 +4.55299803086E-01
2.67500000000E+09 +7.38342798864E-01 +2.99627451992E-01 +7.08882159065E-04 -2.27705439941E-04 +6.62890869462E-04 -2.13002950775E-04 +7.40980295813E-01 +4.44386569361E-01
2.68000000000E+09 +7.39537912744E-01 +2.83919399125E-01 +7.13281097766E-04 -3.53612056326E-04 +6.82053898411E-04 -3.21439915106E-04 +7.45121599692E-01 +4.33247975622E-01
2.68500000000E+09 +7.40990069036E-01 +2.67040059588E-01 +6.57268551126E-04 -4.11923275045E-04 +6.08341789517E-04 -4.08699204580E-04 +7.48391489577E-01 +4.21607989004E-01
2.69000000000E+09 +7.42153252002E-01 +2.49737387502E-01 +5.16799602908E-04 -3.10263661912E-04 +5.23082548824E-04 -3.28979128815E-04 +7.51016431272E-01 +4.09665273662E-01
2.69500000000E+09 +7.43198243478E-01 +2.33239866882E-01 +7.13369572024E-04 -1.65053213056E-04 +6.90299198462E-04 -1.71833173715E-04 +7.53868604158E-01 +3.97072192795E-01
2.70000000000E+09 +7.44080163949E-01 +2.17785434570E-01 +9.39432518688E-04 -2.80927259036E-04 +9.12429629524E-04 -3.18105578472E-04 +7.56876453880E-01 +3.84085101282E-01
2.70500000000E+09 +7.44442476099E-01 +2.03880624924E-01 +1.08885988509E-03 -5.78717633601E-04 +1.07730892277E-03 -5.04454869406E-04 +7.60030942962E-01 +3.70608013180E-01
2.71000000000E+09 +7.44635783799E-01 +1.90995339017E-01 +8.64983292962E-04 -8.46889043573E-04 +9.20454754266E-04 -8.12633099142E-04 +7.62739646262E-01 +3.57167318104E-01
2.71500000000E+09 +7.44710310094E-01 +1.78226387895E-01 +7.41874690037E-04 -7.88477307740E-04 +7.76847924125E-04 -8.33236941917E-04 +7.64869610196E-01 +3.44686558682E-01
2.72000000000E+09 +7.44187119905E-01 +1.65475070644E-01 +6.80124467932E-04 -8.57878326984E-04 +7.13847603779E-04 -9.72198309186E-04 +7.66946037305E-01 +3.32202910014E-01
2.72500000000E+09 +7.43750235452E-01 +1.51683535430E-01 +6.18795255614E-04 -8.84702112089E-04 +5.66729014707E-04 -9.86935166734E-04 +7.67926515845E-01 +3.18713084015E-01
2.73000000000E+09 +7.42736254063E-01 +1.36025876366E-01 +7.25144099774E-04 -8.48664644864E-04 +6.71022853989E-04 -8.59499050346E-04 +7.69116195834E-01 +3.04616755834E-01
2.73500000000E+09 +7.40847620363E-01 +1.18652207379E-01 +7.54568448844E-04 -1.23395843298E-03 +6.26630428339E-04 -1.07915073260E-03 +7.69496550513E-01 +2.89890031282E-01
2.74000000000E+09 +7.38230383571E-01 +1.00420559373E-01 +5.72648020008E-04 -1.30241713151E-03 +6.19190707170E-04 -1.11169874110E-03 +7.70687210637E-01 +2.75497479168E-01
2.74500000000E+09 +7.34468957392E-01 +8.14943398661E-02 +3.85285207712E-04 -1.37198111717E-03 +5.47413290013E-04 -1.26717082589E-03 +7.72257472018E-01 +2.60930922037E-01
2.75000000000E+09 +7.29693833265E-01 +6.31992153741E-02 +5.19383651357E-04 -1.30171701265E-03 +6.96262597324E-04 -1.29863117786E-03 +7.73433419466E-01 +2.45872250272E-01
2.75500000000E+09 +7.24648345873E-01 +4.58325301030E-02 +3.89307007214E-04 -1.76160587659E-03 +5.64185998737E-04 -1.96422338957E-03 +7.73582215438E-01 +2.30976255417E-01
2.76000000000E+09 +7.19753019965E-01 +2.90224668832E-02 +8.57140203245E-05 -1.74274658714E-03 +7.01600264238E-05 -1.89143837368E-03 +7.73142781533E-01 +2.15548859443E-01
2.76500000000E+09 +7.14202292684E-01 +1.24158819684E-02 -1.87681849567E-04 -1.86594858972E-03 -2.12863180197E-04 -1.97156413831E-03 +7.72230948534E-01 +1.99712727594E-01
2.77000000000E+09 +7.08732293739E-01 -4.28075012177E-03 -5.19757293445E-04 -1.68089039151E-03 -5.73075759367E-04 -1.75810219001E-03 +7.71866768668E-01 +1.82939219388E-01
2.77500000000E+09 +7.03128583676E-01 -2.21598158095E-02 -3.44866072730E-04 -1.21817083383E-03 -4.26282641906E-04 -1.27573548602E-03 +7.70567465715E-01 +1.65113339399E-01
2.78000000000E+09 +6.96960068343E-01 -4.10162862326E-02 +4.59249960553E-06 -1.65200397136E-03 -3.84889332346E-05 -1.72872641577E-03 +7.69202118116E-01 +1.47532181927E-01
2.78500000000E+09 +6.90501304781E-01 -6.14032155939E-02 -3.18358077256E-04 -2.05551575023E-03 -4.07015796149E-04 -2.01732229922E-03 +7.67239200255E-01 +1.29609054950E-01
2.79000000000E+09 +6.83305619762E-01 -8.32814169090E-02 -7.23505049706E-04 -1.98082701696E-03 -7.64359785681E-04 -1.94080705269E-03 +7.64375432158E-01 +1.12471194370E-01
2.79500000000E+09 +6.75303209074E-01 -1.04989788263E-01 -8.08360984903E-04 -2.16217095991E-03 -7.88209098056E-04 -2.06036369998E-03 +7.60906369289E-01 +9.44517588382E-02
2.80000000000E+09 +6.66761808393E-01 -1.26481338043E-01 -1.22532926790E-03 -2.12483721438E-03 -1.13984178473E-03 -2.07777530576E-03 +7.56509644554E-01 +7.56658353489E-02
2.80500000000E+09 +6.57380003740E-01 -1.46945865987E-01 -1.20741384645E-03 -2.06665821672E-03 -1.11585935732E-03 -2.08182248751E-03 +7.50870521532E-01 +5.62085397920E-02
2.81000000000E+09 +6.46817024000E-01 -1.65110222624E-01 -1.63037238064E-03 -2.58172361532E-03 -1.64929237504E-03 -2.61008000585E-03 +7.44304795974E-01 +3.73474854247E-02
2.81500000000E+09 +6.35607892856E-01 -1.81224908102E-01 -2.30588684499E-03 -2.31088177340E-03 -2.41382658901E-03 -2.25560293225E-03 +7.38580288418E-01 +1.75404200518E-02
2.82000000000E+09 +6.23682178299E-01 -1.96410665028E-01 -2.61544407494E-03 -2.14430049188E-03 -2.66269047030E-03 -2.04250779280E-03 +7.31576588198E-01 -3.14923218521E-03
2.82500000000E+09 +6.09809155639E-01 -2.10953989120E-01 -3.09527831141E-03 -1.98285710799E-03 -2.99690488539E-03 -1.73171889790E-03 +7.23240004786E-01 -2.35715698722E-02
2.83000000000E+09 +5.94362690629E-01 -2.25355681633E-01 -3.49834327085E-03 -1.70411251707E-03 -3.31053569255E-03 -1.60692885382E-03 +7.13299219525E-01 -4.35698397584E-02
2.83500000000E+09 +5.77851614885E-01 -2.41808811476E-01 -4.11916728864E-03 -1.23500708271E-03 -3.85644243114E-03 -1.33759931308E-03 +7.03297369624E-01 -6.34576532993E-02
2.84000000000E+09 +5.58055636258E-01 -2.60217508954E-01 -4.33212156632E-03 -5.35408103347E-04 -4.21430737910E-03 -6.55864512924E-04 +6.92288447957E-01 -8.35303809300E-02
2.84500000000E+09 +5.36141006603E-01 -2.79807338372E-01 -4.24930276827E-03 +2.49813517712E-06 -4.28992035192E-03 -1.00215592490E-04 +6.80201708210E-01 -1.03971347986E-01
2.85000000000E+09 +5.12346095060E-01 -3.00389788770E-01 -4.34944645444E-03 +5.79533647007E-05 -4.30191315535E-03 +1.24899289989E-04 +6.67234158626E-01 -1.24597172139E-01
2.85500000000E+09 +4.87448054258E-01 -3.20297255038E-01 -4.97477610968E-03 +5.86165184519E-04 -4.96203255276E-03 +5.74406761019E-04 +6.52452189657E-01 -1.45619786445E-01
2.86000000000E+09 +4.63073559955E-01 -3.38953473564E-01 -5.03691076106E-03 +1.40694618027E-03 -4.91602177075E-03 +1.34733091307E-03 +6.36611685873E-01 -1.65468393888E-01
2.86500000000E+09 +4.39400352441E-01 -3.55729364898E-01 -5.35275817714E-03 +2.18689200750E-03 -5.33833986926E-03 +2.06762390492E-03 +6.20238190913E-01 -1.86224602075E-01
2.87000000000E+09 +4.16756847883E-01 -3.70986655257E-01 -5.15928589891E-03 +3.34552016118E-03 -5.19330995291E-03 +3.33587870738E-03 +6.01879060411E-01 -2.06809468759E-01
2.87500000000E+09 +3.94302021746E-01 -3.83782078473E-01 -4.64553244240E-03 +4.15143543174E-03 -4.48936248305E-03 +4.27453802994E-03 +5.81474834361E-01 -2.26465846423E-01
2.88000000000E+09 +3.72078434112E-01 -3.95127110279E-01 -4.11610403951E-03 +4.60529768271E-03 -3.81422274553E-03 +4.56116115341E-03 +5.60999636065E-01 -2.44998675342E-01
2.88500000000E+09 +3.48096505314E-01 -4.05345714758E-01 -3.91357666289E-03 +5.26503031060E-03 -3.68047190544E-03 +5.00013675989E-03 +5.39260055732E-01 -2.64043412759E-01
2.89000000000E+09 +3.21696778831E-01 -4.14715555570E-01 -3.22757266438E-03 +6.41107772862E-03 -3.21356754006E-03 +5.97232858870E-03 +5.15181757395E-01 -2.83146294776E-01
2.89500000000E+09 +2.92136332619E-01 -4.22300858708E-01 -2.16952625633E-03 +6.71998372136E-03 -2.43383265365E-03 +6.42154849682E-03 +4.88238347868E-01 -3.02125318001E-01
2.90000000000E+09 +2.60850550796E-01 -4.28979966041E-01 -1.69529580840E-03 +7.13038606107E-03 -1.98199008980E-03 +7.06694580558E-03 +4.60197352629E-01 -3.18559266616E-01
2.90500000000E+09 +2.26665390577E-01 -4.35310496349E-01 -7.31857529368E-04 +7.88935410686E-03 -7.73474016756E-04 +7.98097833330E-03 +4.31099068913E-01 -3.34667777397E-01
2.91000000000E+09 +1.91175391511E-01 -4.39191411693E-01 +3.80537116028E-04 +8.11845119985E-03 +5.75141907779E-04 +8.04006585903E-03 +4.01261157319E-01 -3.49408059754E-01
2.91500000000E+09 +1.56529716768E-01 -4.42319752971E-01 +1.69161047767E-03 +8.67676026691E-03 +1.85816016241E-03 +8.24170513417E-03 +3.69594810923E-01 -3.62680665065E-01
2.92000000000E+09 +1.21273384705E-01 -4.43945807329E-01 +3.34496812212E-03 +8.40257824446E-03 +2.98012114287E-03 +7.90073542203E-03 +3.36181209327E-01 -3.74848045292E-01
2.92500000000E+09 +8.69911638587E-02 -4.43644522582E-01 +4.68511168679E-03 +8.04395311481E-03 +4.06030626305E-03 +7.83124394867E-03 +3.00164467180E-01 -3.83199435314E-01
2.93000000000E+09 +5.34137735482E-02 -4.40552413789E-01 +5.87805543940E-03 +7.04523008219E-03 +5.40145270414E-03 +7.26422061963E-03 +2.63756571572E-01 -3.90782389792E-01
2.93500000000E+09 +2.08951719887E-02 -4.35116124968E-01 +6.82978163322E-03 +6.50559486499E-03 +6.58098947873E-03 +6.80767105448E-03 +2.24949300878E-01 -3.96248697414E-01
2.94000000000E+09 -1.20003587671E-02 -4.26852449420E-01 +7.80811728555E-03 +5.66929344141E-03 +7.73233243158E-03 +5.94368042391E-03 +1.85696452919E-01 -4.00192000223E-01
2.94500000000E+09 -4.41184804211E-02 -4.15361272771E-01 +9.03860405361E-03 +4.53115496524E-03 +8.89267204690E-03 +4.79358630638E-03 +1.44485250911E-01 -4.00972778306E-01
2.95000000000E+09 -7.72601268904E-02 -4.02321687228E-01 +9.85826954995E-03 +3.15210532179E-03 +9.76341254592E-03 +3.49621360086E-03 +1.04515276974E-01 -3.98456922788E-01
2.95500000000E+09 -1.12231504318E-01 -3.85467744697E-01 +1.02394537807E-02 +1.26210841315E-03 +1.04484047219E-02 +1.71067969269E-03 +6.43002795817E-02 -3.93648814092E-01
2.96000000000E+09 -1.45704025482E-01 -3.64776769686E-01 +9.94031176086E-03 -3.47981532638E-04 +1.04267799533E-02 -2.26106182158E-04 +2.29008146194E-02 -3.86524067906E-01
2.96500000000E+09 -1.78023448420E-01 -3.42703974362E-01 +9.78203737982E-03 -1.14256736193E-03 +1.01238569317E-02 -1.45480333086E-03 -1.88454428840E-02 -3.74677328489E-01
2.97000000000E+09 -2.08827335764E-01 -3.18737872396E-01 +9.95909459706E-03 -2.31153912548E-03 +9.82500972230E-03 -2.64797505504E-03 -6.02082121888E-02 -3.60303218543E-01
2.97500000000E+09 -2.37637350564E-01 -2.93516166485E-01 +1.02271946974E-02 -3.99089178956E-03 +9.87203109622E-03 -4.03067892719E-03 -1.00570909069E-01 -3.42857610417E-01
2.98000000000E+09 -2.65090398292E-01 -2.67538253437E-01 +9.27151502903E-03 -6.07187560485E-03 +9.19567736926E-03 -5.66149801289E-03 -1.39368542802E-01 -3.23241870105E-01
2.98500000000E+09 -2.90865747525E-01 -2.38594178889E-01 +8.19507183256E-03 -7.27759792421E-03 +8.55961424895E-03 -7.06060499396E-03 -1.76719107314E-01 -3.00177418234E-01
2.99000000000E+09 -3.13237800124E-01 -2.07798566567E-01 +6.84357230968E-03 -8.16027499416E-03 +7.27415649001E-03 -8.40431383423E-03 -2.13382212430E-01 -2.74336636115E-01
2.99500000000E+09 -3.33701457154E-01 -1.77108674409E-01 +5.78616966657E-03 -9.00632975105E-03 +5.71159275445E-03 -9.59055579585E-03 -2.46790887863E-01 -2.44508151641E-01
3.00000000000E+09 -3.54057911245E-01 -1.44360473897E-01 +4.60306621536E-03 -9.67956412869E-03 +4.07736268363E-03 -9.96233740615E-03 -2.78926463375E-01 -2.11961311776E-01
3.00500000000E+09 -3.71135862730E-01 -1.09505652226E-01 +3.36877987328E-03 -1.07492746514E-02 +2.85805282539E-03 -1.04625022452E-02 -3.06870177558E-01 -1.78459889493E-01
3.01000000000E+09 -3.85610111131E-01 -7.51666603001E-02 +1.05964899951E-03 -1.15381613377E-02 +1.02724348412E-03 -1.09367225568E-02 -3.34715393321E-01 -1.43043519577E-01
3.01500000000E+09 -3.98894848936E-01 -4.14076945397E-02 -9.64945505745E-04 -1.08616249185E-02 -5.89891800419E-04 -1.05981351263E-02 -3.58259614984E-01 -1.06331589798E-01
3.02000000000E+09 -4.09478955268E-01 -7.30911781071E-03 -2.16840950616E-03 -1.00931648260E-02 -1.88860549942E-03 -1.01031425646E-02 -3.79216063724E-01 -6.75458241693E-02
3.02500000000E+09 -4.17051928549E-01 +2.59137946798E-02 -3.19597745240E-03 -9.90312436511E-03 -3.13581374510E-03 -9.91263161956E-03 -3.95887049083E-01 -2.85598356248E-02
3.03000000000E+09 -4.20944717642E-01 +5.87409394310E-02 -4.69810417249E-03 -9.18130091018E-03 -4.54331761706E-03 -9.15800123592E-03 -4.10136797198E-01 +1.17355132808E-02
3.03500000000E+09 -4.21413814417E-01 +9.05286256075E-02 -6.07799422251E-03 -8.83702746559E-03 -5.73123971997E-03 -8.94788755140E-03 -4.20862720768E-01 +5.14394045668E-02
3.04000000000E+09 -4.19160212315E-01 +1.22438559943E-01 -7.73666667784E-03 -7.01267570598E-03 -7.57619867627E-03 -7.46348041738E-03 -4.29138825004E-01 +9.23972078109E-02
3.04500000000E+09 -4.13478347466E-01 +1.54423672414E-01 -7.66873376381E-03 -5.37861046477E-03 -7.99015485417E-03 -5.85700422382E-03 -4.33968941870E-01 +1.32037814411E-01
3.05000000000E+09 -4.06185343061E-01 +1.87682986045E-01 -7.94775698497E-03 -4.44687143585E-03 -8.66901806858E-03 -4.45107098426E-03 -4.36631414531E-01 +1.71055075798E-01
3.05500000000E+09 -3.95803193137E-01 +2.22209942327E-01 -8.27112557243E-03 -3.58353930648E-03 -8.67212677477E-03 -3.03973976538E-03 -4.37055015913E-01 +2.09228664968E-01
3.06000000000E+09 -3.83402834854E-01 +2.56335356593E-01 -8.98412472925E-03 -2.68377996820E-03 -8.77469711507E-03 -2.13459039462E-03 -4.35107152642E-01 +2.46112159013E-01
3.06500000000E+09 -3.69645689088E-01 +2.89964449474E-01 -9.33703101626E-03 -6.02009276360E-04 -8.76301067170E-03 -6.00424085075E-04 -4.32035936545E-01 +2.82967177332E-01
3.07000000000E+09 -3.55242529586E-01 +3.21195881201E-01 -8.47493477600E-03 +7.16694104775E-04 -8.26483716665E-03 +2.12918181459E-04 -4.24773106886E-01 +3.19487021157E-01
