# Hz S RI R 50
! CMT, C1220, 16058040, 17.2.0/1
! Date: 15/08/2018 10:50:39
! Data: Format (Calibration Info)
! Freq                      S11: Re/Im (F2)                       S21: Re/Im (F2)                       S12: Re/Im (F2)                       S22: Re/Im (F2)            
2.50000000000E+09 +5.80503383613E-01 +6.50584142260E-01 -1.18140824433E-03 +6.20169212691E-04 -1.35208592657E-03 +6.90478438810E-04 +5.62214816465E-01 +7.25859606984E-01
2.50500000000E+09 +5.87941047962E-01 +6.41426032812E-01 -1.10362838378E-03 +7.21963315810E-04 -1.14106168539E-03 +8.18443559144E-04 +5.67862518450E-01 +7.20348419571E-01
2.51000000000E+09 +5.96369730943E-01 +6.32026817518E-01 -1.10030604231E-03 +8.01317152626E-04 -1.05937341666E-03 +8.34921180857E-04 +5.73652379909E-01 +7.14985970897E-01
2.51500000000E+09 +6.04705382740E-01 +6.23239660161E-01 -1.07203667826E-03 +9.50186408283E-04 -1.01655396666E-03 +9.17657938744E-04 +5.78989950795E-01 +7.09243731473E-01
2.52000000000E+09 +6.12338940162E-01 +6.14864232193E-01 -8.92851839066E-04 +1.10655465082E-03 -9.06875855376E-04 +1.12213636732E-03 +5.83955307114E-01 +7.03139087128E-01
2.52500000000E+09 +6.18567947622E-01 +6.07644685596E-01 -7.43351152478E-04 +1.14106489807E-03 -7.77644637923E-04 +1.12668551622E-03 +5.89370607434E-01 +6.96727602351E-01
2.53000000000E+09 +6.23396665300E-01 +6.01435385881E-01 -6.51995524311E-04 +1.17191468650E-03 -6.81354093314E-04 +1.20816882580E-03 +5.95435403866E-01 +6.89808402537E-01
2.53500000000E+09 +6.27225867766E-01 +5.95815617070E-01 -6.48198412412E-04 +1.26510184849E-03 -6.31979120868E-04 +1.29442269007E-03 +6.01198143891E-01 +6.83403537565E-01
2.54000000000E+09 +6.30193705498E-01 +5.90134463340E-01 -4.71449279432E-04 +1.38534047029E-03 -5.40377986060E-04 +1.33643684479E-03 +6.07130519150E-01 +6.77065733877E-01
2.54500000000E+09 +6.33268567793E-01 +5.84097406746E-01 -3.54208917698E-04 +1.52380414515E-03 -3.82206712134E-04 +1.48421098438E-03 +6.12799618084E-01 +6.70999650090E-01
2.55000000000E+09 +6.36935004582E-01 +5.77107402843E-01 -6.71538987434E-05 +1.55391265938E-03 -1.68675600455E-04 +1.66339145354E-03 +6.17966976515E-01 +6.65077637446E-01
2.55500000000E+09 +6.42023077816E-01 +5.68710316693E-01 +8.19552366260E-05 +1.38941491557E-03 +5.68129557515E-05 +1.59862046599E-03 +6.23076737647E-01 +6.58869609251E-01
2.56000000000E+09 +6.48711964690E-01 +5.59593899915E-01 +1.24840220477E-04 +1.32056400377E-03 +2.31375471731E-04 +1.57348454398E-03 +6.28199345347E-01 +6.51752959390E-01
2.56500000000E+09 +6.56592510374E-01 +5.49386661449E-01 +1.35692883915E-04 +1.44172384935E-03 +4.59992405300E-04 +1.51571406768E-03 +6.33488637660E-01 +6.44734533895E-01
2.57000000000E+09 +6.65157019048E-01 +5.38852277491E-01 +3.39294721283E-04 +1.44284919618E-03 +6.88709278883E-04 +1.38238234237E-03 +6.39104910425E-01 +6.37271612997E-01
2.57500000000E+09 +6.73024614018E-01 +5.28705989751E-01 +5.58806555546E-04 +1.48056910085E-03 +6.94624953340E-04 +1.19749111950E-03 +6.44957765259E-01 +6.29812486810E-01
2.58000000000E+09 +6.79875931693E-01 +5.19536961188E-01 +8.84034793140E-04 +1.38892204759E-03 +7.59169520839E-04 +1.14160606562E-03 +6.50525109259E-01 +6.22421192894E-01
2.58500000000E+09 +6.85493473673E-01 +5.11225183678E-01 +9.56306069493E-04 +1.12769575697E-03 +7.75895183318E-04 +1.02696536295E-03 +6.55849235527E-01 +6.14773631831E-01
2.59000000000E+09 +6.89473023509E-01 +5.03847133389E-01 +9.34038597822E-04 +9.73337690407E-04 +7.62367514610E-04 +9.90403710125E-04 +6.60787996944E-01 +6.07188178314E-01
2.59500000000E+09 +6.92279116569E-01 +4.96479335115E-01 +1.01476258209E-03 +1.00103838263E-03 +9.24373374947E-04 +1.04091960673E-03 +6.65929534179E-01 +5.99183451081E-01
2.60000000000E+09 +6.94131514333E-01 +4.88425456824E-01 +1.12683975243E-03 +9.30588437284E-04 +1.14690097143E-03 +9.43875875694E-04 +6.71072568469E-01 +5.90926184204E-01
2.60500000000E+09 +6.96284300302E-01 +4.78957513419E-01 +1.26331819035E-03 +7.47178284393E-04 +1.24203330809E-03 +7.55290231403E-04 +6.76736179176E-01 +5.82281214938E-01
2.61000000000E+09 +6.98654144075E-01 +4.67317407562E-01 +1.22493115292E-03 +5.50444886610E-04 +1.16994115442E-03 +5.93494505126E-04 +6.82040640916E-01 +5.73266783432E-01
2.61500000000E+09 +7.02445293162E-01 +4.53681788850E-01 +1.23127335403E-03 +4.57008691448E-04 +1.22598716204E-03 +5.08240067351E-04 +6.86962758739E-01 +5.64464710937E-01
2.62000000000E+09 +7.06766870870E-01 +4.37880213171E-01 +1.25711491732E-03 +2.93964067786E-04 +1.26438751732E-03 +2.69318620596E-04 +6.91738925418E-01 +5.55666714744E-01
2.62500000000E+09 +7.11981901139E-01 +4.21139320386E-01 +1.11468033530E-03 +3.25596256172E-04 +1.22342427348E-03 +2.90054658831E-04 +6.96704217029E-01 +5.47172646564E-01
2.63000000000E+09 +7.17641504571E-01 +4.04322026958E-01 +1.20788176787E-03 +3.74434641041E-04 +1.23802613812E-03 +1.59385663582E-04 +7.01714958406E-01 +5.38161946877E-01
2.63500000000E+09 +7.22764779697E-01 +3.88422782534E-01 +1.32474772207E-03 +1.50546048771E-04 +1.21605078178E-03 -5.70026236561E-06 +7.06400291510E-01 +5.28835409268E-01
2.64000000000E+09 +7.27153646607E-01 +3.73953261518E-01 +1.27140024599E-03 -3.85151054689E-05 +1.05527031323E-03 -9.16217511538E-06 +7.11099448416E-01 +5.19229650465E-01
2.64500000000E+09 +7.30535249815E-01 +3.62061200119E-01 +1.18777486872E-03 -1.22547002331E-04 +1.01781287911E-03 -1.84531557763E-05 +7.15795009552E-01 +5.09646166945E-01
2.65000000000E+09 +7.32630556434E-01 +3.52178056028E-01 +1.07881680237E-03 -9.97336094636E-05 +1.02065289088E-03 +2.02407204388E-05 +7.20420355228E-01 +4.99548095351E-01
2.65500000000E+09 +7.34248833618E-01 +3.42967844282E-01 +1.03455341369E-03 -8.95354637884E-05 +1.08189282914E-03 -2.01401083590E-06 +7.24508870783E-01 +4.88844772280E-01
2.66000000000E+09 +7.35302981627E-01 +3.33925530368E-01 +1.16418475508E-03 -3.93058036516E-05 +1.25749628045E-03 -1.12295478224E-04 +7.28629514471E-01 +4.77703742521E-01
2.66500000000E+09 +7.36259961079E-01 +3.24125207154E-01 +1.10693217760E-03 -2.21116656699E-04 +1.18300390416E-03 -3.29728758568E-04 +7.33001892938E-01 +4.66717030374E-01
2.67000000000E+09 +7.37358112385E-01 +3.12156110283E-01 +1.08246885783E-03 -1.32591382728E-04 +1.01050227875E-03 -2.38544241186E-04 +7.37533487041E-01 +4.56041462671E-01
2.67500000000E+09 +7.38462543254E-01 +2.98021492001E-01 +1.21178760343E-03 -1.43235454165E-04 +1.15090607425E-03 -1.77981464031E-04 +7.42048393449E-01 +4.44868085084E-01
2.68000000000E+09 +7.39626084942E-01 +2.82241753399E-01 +1.34561427728E-03 -2.95441108891E-04 +1.25248130697E-03 -2.60564685135E-04 +7.46129092792E-01 +4.33492200952E-01
2.68500000000E+09 +7.41052554154E-01 +2.65206008526E-01 +1.26007814647E-03 -5.27532518945E-04 +1.25163948372E-03 -4.16264984104E-04 +7.49186739072E-01 +4.21835135432E-01
2.69000000000E+09 +7.42080334802E-01 +2.47701657019E-01 +1.22931060967E-03 -4.60012879770E-04 +1.27196631754E-03 -4.14183879216E-04 +7.52067341764E-01 +4.09903209426E-01
2.69500000000E+09 +7.43051745385E-01 +2.31299070335E-01 +1.46850730701E-03 -5.03461389979E-04 +1.43449733321E-03 -5.10191404040E-04 +7.54980390360E-01 +3.97191666756E-01
2.70000000000E+09 +7.43915314096E-01 +2.16000094546E-01 +1.55957691145E-03 -7.79732768361E-04 +1.50219441244E-03 -7.76159868772E-04 +7.58132000584E-01 +3.84022393362E-01
2.70500000000E+09 +7.44380640758E-01 +2.01965184292E-01 +1.57260363766E-03 -1.01944389478E-03 +1.49787955963E-03 -1.00662588754E-03 +7.61273955969E-01 +3.70558730706E-01
2.71000000000E+09 +7.44533440164E-01 +1.88947284892E-01 +1.42309258016E-03 -1.31743313474E-03 +1.43187907718E-03 -1.26556654822E-03 +7.63998449528E-01 +3.57279705503E-01
2.71500000000E+09 +7.44532582255E-01 +1.76314302151E-01 +1.22791208964E-03 -1.44055104233E-03 +1.32451452108E-03 -1.43672988104E-03 +7.66392215012E-01 +3.44524464075E-01
2.72000000000E+09 +7.44203423464E-01 +1.63577791451E-01 +1.21883127565E-03 -1.50024683338E-03 +1.20680758337E-03 -1.72860250333E-03 +7.68424334834E-01 +3.31789841673E-01
2.72500000000E+09 +7.43945248024E-01 +1.49467461854E-01 +1.01797325576E-03 -1.66831081966E-03 +8.81890005307E-04 -1.77918467599E-03 +7.69461248513E-01 +3.18241971999E-01
2.73000000000E+09 +7.42848940173E-01 +1.33700583786E-01 +1.07968897190E-03 -1.74939310766E-03 +8.33275329917E-04 -1.67078226977E-03 +7.70728394952E-01 +3.03982926943E-01
2.73500000000E+09 +7.40842103507E-01 +1.16176006439E-01 +8.74827352291E-04 -2.04880027568E-03 +7.34595271098E-04 -1.83955133784E-03 +7.71187486806E-01 +2.89145228721E-01
2.74000000000E+09 +7.38279353855E-01 +9.80394599905E-02 +5.81168235697E-04 -2.15429757667E-03 +6.52098892038E-04 -1.83408637676E-03 +7.72597537517E-01 +2.74512562323E-01
2.74500000000E+09 +7.34595412731E-01 +7.88616568997E-02 +4.21038387552E-04 -2.18334825611E-03 +6.19998563666E-04 -1.99798656975E-03 +7.74010903761E-01 +2.59650765696E-01
2.75000000000E+09 +7.29810012986E-01 +6.03541766588E-02 +4.92627648192E-04 -2.11427197608E-03 +7.31686243382E-04 -2.09966656469E-03 +7.74899261477E-01 +2.44446750055E-01
2.75500000000E+09 +7.24649948121E-01 +4.28214893766E-02 +3.41258134350E-04 -2.55615852775E-03 +5.07454285249E-04 -2.73907069869E-03 +7.75152664176E-01 +2.29403333492E-01
2.76000000000E+09 +7.19587113082E-01 +2.59318283260E-02 +4.10852106609E-07 -2.63039316290E-03 +2.79596052522E-05 -2.80510624640E-03 +7.74350529111E-01 +2.14049254538E-01
2.76500000000E+09 +7.14076649042E-01 +9.20984961847E-03 -4.65321533495E-04 -2.77097140728E-03 -5.21897243154E-04 -2.86457422171E-03 +7.73587065514E-01 +1.98051211983E-01
2.77000000000E+09 +7.08415735984E-01 -7.95287854070E-03 -8.77230158755E-04 -2.55938439641E-03 -9.80866885582E-04 -2.59500601987E-03 +7.73134174774E-01 +1.80926313329E-01
2.77500000000E+09 +7.02426774682E-01 -2.58995412480E-02 -7.93320887972E-04 -2.10054399278E-03 -8.72764113616E-04 -2.13842318529E-03 +7.71772927876E-01 +1.62707096611E-01
2.78000000000E+09 +6.95966183896E-01 -4.49782721530E-02 -5.12024779851E-04 -2.44811480154E-03 -6.83702463779E-04 -2.50424878211E-03 +7.69820109637E-01 +1.45054804317E-01
2.78500000000E+09 +6.89138007800E-01 -6.51278178566E-02 -9.27268029410E-04 -2.89146691740E-03 -1.12112000784E-03 -2.82685850830E-03 +7.67736491346E-01 +1.27351255452E-01
2.79000000000E+09 +6.82095778401E-01 -8.67536920382E-02 -1.46894488560E-03 -2.75738554689E-03 -1.56930576328E-03 -2.54402295734E-03 +7.64921201026E-01 +1.09956489985E-01
2.79500000000E+09 +6.74018093725E-01 -1.09060784356E-01 -1.61410099368E-03 -2.83719224108E-03 -1.53687870606E-03 -2.61437045400E-03 +7.61275458832E-01 +9.18304245672E-02
2.80000000000E+09 +6.64834670616E-01 -1.30837999970E-01 -2.08756956755E-03 -2.71230884819E-03 -1.90764960459E-03 -2.69653981125E-03 +7.56499527895E-01 +7.30690339235E-02
2.80500000000E+09 +6.55017887924E-01 -1.50992358783E-01 -2.14410852088E-03 -2.73585364403E-03 -1.96848649077E-03 -2.74839527045E-03 +7.50714242536E-01 +5.35075570661E-02
2.81000000000E+09 +6.44179686439E-01 -1.69047087501E-01 -2.69288259948E-03 -3.15692171463E-03 -2.72204735657E-03 -3.26856446101E-03 +7.44072468882E-01 +3.43898646266E-02
2.81500000000E+09 +6.32686383097E-01 -1.85040376275E-01 -3.58047989306E-03 -2.72337352221E-03 -3.71704580815E-03 -2.72449146202E-03 +7.37785905517E-01 +1.46655062155E-02
2.82000000000E+09 +6.20540469280E-01 -1.99880969024E-01 -3.97249835807E-03 -2.58576098596E-03 -4.04055370566E-03 -2.38432247636E-03 +7.30513168899E-01 -6.09364060409E-03
2.82500000000E+09 +6.06510732221E-01 -2.14338456045E-01 -4.71047106948E-03 -2.08154492367E-03 -4.50001013510E-03 -1.80338866402E-03 +7.21544603826E-01 -2.65042650668E-02
2.83000000000E+09 +5.90954481505E-01 -2.28573115875E-01 -4.97925557326E-03 -1.49485215475E-03 -4.70120768574E-03 -1.40396926250E-03 +7.11473463155E-01 -4.60507050511E-02
2.83500000000E+09 +5.74451281180E-01 -2.44760734798E-01 -5.44755940895E-03 -8.82944402987E-04 -5.21369445111E-03 -1.00088489709E-03 +7.01305980945E-01 -6.57788609380E-02
2.84000000000E+09 +5.54660584350E-01 -2.63328297949E-01 -5.67453488903E-03 -7.27419855676E-05 -5.62325278936E-03 -2.99930028622E-04 +6.90085184678E-01 -8.55864938522E-02
2.84500000000E+09 +5.32408853565E-01 -2.83040185334E-01 -5.60526698406E-03 +5.33534316473E-04 -5.64346583107E-03 +4.31799568864E-04 +6.77866892652E-01 -1.06254851079E-01
2.85000000000E+09 +5.08346367490E-01 -3.03533765908E-01 -5.71013507542E-03 +7.70600635606E-04 -5.74481882160E-03 +7.50504405851E-04 +6.64123335641E-01 -1.26586388885E-01
2.85500000000E+09 +4.82751011453E-01 -3.23298512082E-01 -6.42992976790E-03 +1.45790335491E-03 -6.34449726980E-03 +1.40039830636E-03 +6.49100284764E-01 -1.47085909714E-01
2.86000000000E+09 +4.58028038097E-01 -3.41141163068E-01 -6.35939572425E-03 +2.61903780461E-03 -6.28645779730E-03 +2.55202832757E-03 +6.33261251149E-01 -1.66456420185E-01
2.86500000000E+09 +4.34504788382E-01 -3.57423975545E-01 -6.39568030388E-03 +3.49839648304E-03 -6.40683663826E-03 +3.40874003403E-03 +6.16828524878E-01 -1.86994328870E-01
2.87000000000E+09 +4.12079388299E-01 -3.72319368326E-01 -5.99729852911E-03 +4.80199826554E-03 -6.04679799813E-03 +4.79984330540E-03 +5.98343839144E-01 -2.07179813401E-01
2.87500000000E+09 +3.89830036394E-01 -3.85189555587E-01 -5.32013196428E-03 +5.48667303870E-03 -5.21270197456E-03 +5.61642927454E-03 +5.77936122291E-01 -2.26535461535E-01
2.88000000000E+09 +3.67111165218E-01 -3.96801857694E-01 -4.91663113405E-03 +5.99079859103E-03 -4.59500508431E-03 +5.97091105834E-03 +5.57254085453E-01 -2.44880745459E-01
2.88500000000E+09 +3.42393288596E-01 -4.06321408838E-01 -4.72454725964E-03 +7.04277571227E-03 -4.32226630488E-03 +6.74519717655E-03 +5.34945766409E-01 -2.63243374210E-01
2.89000000000E+09 +3.16387132436E-01 -4.14845469315E-01 -3.84693893642E-03 +8.23893351410E-03 -3.74604995513E-03 +7.73521781740E-03 +5.11026071224E-01 -2.81646960900E-01
2.89500000000E+09 +2.86971411870E-01 -4.22296015139E-01 -2.47128048892E-03 +8.94593026280E-03 -2.83233909228E-03 +8.48324859827E-03 +4.84045018112E-01 -2.99643565584E-01
2.90000000000E+09 +2.55685171256E-01 -4.28578559086E-01 -1.71755635109E-03 +9.13162913040E-03 -2.01908027297E-03 +9.11201532037E-03 +4.56846813350E-01 -3.15454384271E-01
2.90500000000E+09 +2.21739310296E-01 -4.34532982649E-01 -6.91855129943E-04 +1.01556275113E-02 -7.72780019747E-04 +1.03576658801E-02 +4.28262803661E-01 -3.31216321085E-01
2.91000000000E+09 +1.86151590056E-01 -4.38123180297E-01 +9.31965991480E-04 +1.06867308736E-02 +1.19442093668E-03 +1.05639833571E-02 +3.98770779632E-01 -3.45614834518E-01
2.91500000000E+09 +1.51949872405E-01 -4.40583654642E-01 +2.87981650124E-03 +1.12358015180E-02 +2.99128334029E-03 +1.06447661789E-02 +3.67612403567E-01 -3.58352001334E-01
2.92000000000E+09 +1.16991590078E-01 -4.42398659473E-01 +4.96598432919E-03 +1.05119455269E-02 +4.59218584497E-03 +9.86877008484E-03 +3.35118765125E-01 -3.69895451125E-01
2.92500000000E+09 +8.25432854720E-02 -4.41707106364E-01 +6.42887973641E-03 +9.69098350037E-03 +5.68277524882E-03 +9.39624912911E-03 +2.99987716291E-01 -3.78479739163E-01
2.93000000000E+09 +4.92031821000E-02 -4.38040056240E-01 +7.45134716379E-03 +8.60345442626E-03 +6.80388469239E-03 +8.82607732449E-03 +2.64113261563E-01 -3.86329169085E-01
2.93500000000E+09 +1.68665198645E-02 -4.32316110545E-01 +8.60362399712E-03 +8.23426386636E-03 +8.32542426955E-03 +8.59914595134E-03 +2.25771428891E-01 -3.91840627284E-01
2.94000000000E+09 -1.56403406961E-02 -4.23648052341E-01 +9.92313972824E-03 +7.43610955919E-03 +9.78520190607E-03 +7.67827327679E-03 +1.86934167039E-01 -3.96075965632E-01
2.94500000000E+09 -4.74867245073E-02 -4.11870065831E-01 +1.20809956330E-02 +6.26668802920E-03 +1.18616604896E-02 +6.49968063816E-03 +1.46304889297E-01 -3.96316325583E-01
2.95000000000E+09 -8.01812345687E-02 -3.98418335367E-01 +1.32526871078E-02 +3.77043083892E-03 +1.30752149067E-02 +4.22345549767E-03 +1.07483728107E-01 -3.94369634291E-01
2.95500000000E+09 -1.14514312642E-01 -3.81408032188E-01 +1.33551950782E-02 +1.26888250451E-03 +1.36288200919E-02 +1.84985389848E-03 +6.79273764004E-02 -3.90542330153E-01
2.96000000000E+09 -1.47856394753E-01 -3.60558527219E-01 +1.30542376840E-02 -4.59741864841E-04 +1.36878642753E-02 -2.76600058742E-04 +2.62334280926E-02 -3.83966934005E-01
2.96500000000E+09 -1.79428262200E-01 -3.38061430398E-01 +1.29307041128E-02 -1.89772989298E-03 +1.33842573082E-02 -2.22565400897E-03 -1.50929810765E-02 -3.72006065887E-01
2.97000000000E+09 -2.09958864617E-01 -3.14264315667E-01 +1.27647358507E-02 -3.43239009109E-03 +1.26500636664E-02 -3.83318023124E-03 -5.58804832184E-02 -3.58394489939E-01
2.97500000000E+09 -2.38544516310E-01 -2.88451782493E-01 +1.32241814270E-02 -5.32430326567E-03 +1.27314887379E-02 -5.25148793142E-03 -9.59953506421E-02 -3.41638316470E-01
2.98000000000E+09 -2.64752352952E-01 -2.61809357698E-01 +1.21240160615E-02 -8.02977358648E-03 +1.20102178507E-02 -7.43017486558E-03 -1.34960027325E-01 -3.22658655875E-01
2.98500000000E+09 -2.89346796561E-01 -2.33136520452E-01 +1.08774010167E-02 -9.92754444334E-03 +1.14246656345E-02 -9.56329907426E-03 -1.71976615801E-01 -3.00237200181E-01
2.99000000000E+09 -3.11071157481E-01 -2.03155024498E-01 +8.77459022559E-03 -1.12681722414E-02 +9.39315569926E-03 -1.16616221883E-02 -2.08641943962E-01 -2.75010775506E-01
2.99500000000E+09 -3.30755875636E-01 -1.72754500038E-01 +7.11411762641E-03 -1.22882173015E-02 +7.15403263498E-03 -1.30481563190E-02 -2.41981568891E-01 -2.45909134777E-01
3.00000000000E+09 -3.50909893202E-01 -1.40634069914E-01 +5.27850044420E-03 -1.29371552059E-02 +4.58936418396E-03 -1.32977115191E-02 -2.74073781678E-01 -2.14502237406E-01
3.00500000000E+09 -3.67314029148E-01 -1.06030482695E-01 +3.63392813114E-03 -1.40091025491E-02 +2.98498601375E-03 -1.36197656701E-02 -3.03222279239E-01 -1.82059254633E-01
3.01000000000E+09 -3.81610600203E-01 -7.26608083295E-02 +9.55859280824E-04 -1.44870518633E-02 +9.41708022886E-04 -1.38419760163E-02 -3.32196353878E-01 -1.46784980854E-01
3.01500000000E+09 -3.94988522110E-01 -3.88407514625E-02 -1.30662931179E-03 -1.37261752092E-02 -8.55021537295E-04 -1.34195659232E-02 -3.56457048205E-01 -1.09981189728E-01
3.02000000000E+09 -4.04628843336E-01 -4.71191330956E-03 -2.73726070670E-03 -1.30452677753E-02 -2.40887154388E-03 -1.31277859559E-02 -3.77667698738E-01 -7.11458836525E-02
3.02500000000E+09 -4.11091049278E-01 +2.72870080227E-02 -4.37597565371E-03 -1.28351431599E-02 -4.26980017869E-03 -1.28845179324E-02 -3.94757141709E-01 -3.25347065307E-02
3.03000000000E+09 -4.15385541076E-01 +5.88247490608E-02 -6.19596039588E-03 -1.18359809386E-02 -5.98811096059E-03 -1.17687854571E-02 -4.09467915206E-01 +7.98482297781E-03
3.03500000000E+09 -4.16338602611E-01 +9.02484602113E-02 -8.03609354971E-03 -1.12662518327E-02 -7.73452303663E-03 -1.13658987669E-02 -4.20663497718E-01 +4.73053618554E-02
3.04000000000E+09 -4.13897924564E-01 +1.21723398392E-01 -9.80430762193E-03 -8.65481373607E-03 -9.65343570652E-03 -9.19718929493E-03 -4.29847620214E-01 +8.84574648966E-02
3.04500000000E+09 -4.08914432238E-01 +1.53360229892E-01 -9.68806276918E-03 -7.02860457736E-03 -1.02081823457E-02 -7.58433675262E-03 -4.35321502552E-01 +1.28411411132E-01
3.05000000000E+09 -4.01429052549E-01 +1.86645353592E-01 -1.02385413232E-02 -5.78632065462E-03 -1.10111353846E-02 -5.72897022570E-03 -4.38331826690E-01 +1.68066484526E-01
3.05500000000E+09 -3.90856444878E-01 +2.20816016212E-01 -1.05342108868E-02 -4.68393956160E-03 -1.10186138855E-02 -3.97382205984E-03 -4.39072117832E-01 +2.06320024883E-01
3.06000000000E+09 -3.78428113838E-01 +2.54312312720E-01 -1.11537989276E-02 -3.67505034372E-03 -1.08763394313E-02 -2.91608740503E-03 -4.37520821394E-01 +2.43418202534E-01
3.06500000000E+09 -3.64630459212E-01 +2.87198160279E-01 -1.19458766374E-02 -1.75452782543E-03 -1.11654219039E-02 -1.55782008483E-03 -4.34723771308E-01 +2.80897920623E-01
3.07000000000E+09 -3.50935855064E-01 +3.17567551171E-01 -1.16080581980E-02 +3.53603082870E-04 -1.12266677924E-02 -2.96728999554E-04 -4.27757546494E-01 +3.17589256041E-01
