# Hz S RI R 50
! CMT, C1220, 16058040, 17.2.0/1
! Date: 15/08/2018 10:48:28
! Data: Format (Calibration Info)
! Freq                      S11: Re/Im (F2)                       S21: Re/Im (F2)                       S12: Re/Im (F2)                       S22: Re/Im (F2)            
2.50000000000E+09 +5.81153998651E-01 +6.46506995593E-01 -1.13446317880E-03 +7.08090247327E-04 -1.28070489210E-03 +7.47091649249E-04 +5.63244390418E-01 +7.25467151386E-01
2.50500000000E+09 +5.88563026708E-01 +6.37349146454E-01 -1.07465750171E-03 +7.74414437114E-04 -1.02937272916E-03 +8.69230260097E-04 +5.68943450066E-01 +7.19960640735E-01
2.51000000000E+09 +5.96903388529E-01 +6.27764190429E-01 -9.89801134022E-04 +8.83577696705E-04 -9.48120024375E-04 +9.73055345989E-04 +5.74733070180E-01 +7.14641469267E-01
2.51500000000E+09 +6.05245258961E-01 +6.18930331535E-01 -9.12922087951E-04 +1.04596399892E-03 -8.59502951714E-04 +9.94341104742E-04 +5.80008258693E-01 +7.09006817473E-01
2.52000000000E+09 +6.12930178922E-01 +6.10582057786E-01 -7.22632072045E-04 +1.17020791620E-03 -7.86501397369E-04 +1.12740473709E-03 +5.85021985571E-01 +7.02744903553E-01
2.52500000000E+09 +6.18961725396E-01 +6.03330064954E-01 -5.87795784095E-04 +1.15433119393E-03 -6.36835490151E-04 +1.15650563197E-03 +5.90482538541E-01 +6.96306415930E-01
2.53000000000E+09 +6.23785433759E-01 +5.97190631920E-01 -5.68511381577E-04 +1.15347686204E-03 -6.02292365260E-04 +1.19259079449E-03 +5.96470652534E-01 +6.89583124084E-01
2.53500000000E+09 +6.27410266038E-01 +5.91480104363E-01 -5.39425700121E-04 +1.28949298134E-03 -4.93738413804E-04 +1.28659557728E-03 +6.02371072328E-01 +6.82953201741E-01
2.54000000000E+09 +6.30331190127E-01 +5.85915911133E-01 -3.79105083635E-04 +1.43255277639E-03 -4.12637526465E-04 +1.37435117354E-03 +6.08469277136E-01 +6.76668181992E-01
2.54500000000E+09 +6.33235343491E-01 +5.79934385580E-01 -1.23981668557E-04 +1.50658963709E-03 -2.73503616350E-04 +1.48051708218E-03 +6.14227317405E-01 +6.70509130690E-01
2.55000000000E+09 +6.36973119761E-01 +5.73063312451E-01 +1.90462241654E-04 +1.47275462143E-03 +4.44751798050E-05 +1.62656454910E-03 +6.19532903098E-01 +6.64501577650E-01
2.55500000000E+09 +6.41974522738E-01 +5.64659615166E-01 +3.53133928249E-04 +1.26713782510E-03 +3.27751885569E-04 +1.46918346980E-03 +6.24568590280E-01 +6.58218453268E-01
2.56000000000E+09 +6.48514117467E-01 +5.55490251961E-01 +3.29874908579E-04 +1.17734778146E-03 +4.57546966417E-04 +1.32758505242E-03 +6.29608628516E-01 +6.51194195906E-01
2.56500000000E+09 +6.56272490118E-01 +5.45335334636E-01 +2.92827175010E-04 +1.22868074909E-03 +6.02618120372E-04 +1.26990993361E-03 +6.34924257507E-01 +6.43876967582E-01
2.57000000000E+09 +6.64464370326E-01 +5.34861789144E-01 +4.52984731238E-04 +1.27198658438E-03 +7.07984842497E-04 +1.11004710473E-03 +6.40602797395E-01 +6.36414229773E-01
2.57500000000E+09 +6.72387376952E-01 +5.24711170100E-01 +6.64134100387E-04 +1.32835156952E-03 +7.35417912396E-04 +1.02389598581E-03 +6.46450496462E-01 +6.28900964315E-01
2.58000000000E+09 +6.78991629071E-01 +5.15671391074E-01 +8.88721619872E-04 +1.16303207425E-03 +7.79464505440E-04 +9.59492324053E-04 +6.51841612600E-01 +6.21384791877E-01
2.58500000000E+09 +6.84522931016E-01 +5.07547114019E-01 +9.96335275868E-04 +8.93693735852E-04 +8.64595150507E-04 +8.37946126204E-04 +6.57203853170E-01 +6.13680934778E-01
2.59000000000E+09 +6.88461284111E-01 +5.00053377055E-01 +9.00206918795E-04 +7.26313256167E-04 +7.79063637141E-04 +7.97657140941E-04 +6.62144084936E-01 +6.06117974767E-01
2.59500000000E+09 +6.91288892104E-01 +4.92672285255E-01 +9.21959389745E-04 +8.54400500803E-04 +8.67903317988E-04 +8.63077268299E-04 +6.67078796440E-01 +5.98128124840E-01
2.60000000000E+09 +6.93140601317E-01 +4.84495286931E-01 +1.13288720935E-03 +7.22165953029E-04 +1.14843683655E-03 +7.27067249509E-04 +6.72359161481E-01 +5.89750606327E-01
2.60500000000E+09 +6.95039502668E-01 +4.74904674063E-01 +1.18924725438E-03 +4.96499398925E-04 +1.15362707106E-03 +4.76576624181E-04 +6.78015796188E-01 +5.81091478891E-01
2.61000000000E+09 +6.97507832276E-01 +4.63120342438E-01 +1.03613876051E-03 +3.18208755958E-04 +1.01028547253E-03 +3.38129971834E-04 +6.83457356748E-01 +5.71977792762E-01
2.61500000000E+09 +7.01077245984E-01 +4.49398773293E-01 +1.05222065687E-03 +2.75467617501E-04 +1.07654575884E-03 +3.10224449317E-04 +6.88372078025E-01 +5.63211290583E-01
2.62000000000E+09 +7.05273988088E-01 +4.33634486796E-01 +1.00595535184E-03 +1.50143863558E-04 +1.07731658746E-03 +1.60360452628E-04 +6.93244755106E-01 +5.54261362039E-01
2.62500000000E+09 +7.10576196598E-01 +4.16941440217E-01 +9.40560746326E-04 +2.36049501795E-04 +1.01813691853E-03 +1.61926139232E-04 +6.98043364010E-01 +5.45610899221E-01
2.63000000000E+09 +7.16194635339E-01 +4.00066882229E-01 +1.07211927689E-03 +2.14320555848E-04 +1.09333790902E-03 +1.21610761723E-04 +7.02941071604E-01 +5.36406444784E-01
2.63500000000E+09 +7.21435449984E-01 +3.84062103615E-01 +1.21194226015E-03 +1.85362658837E-05 +1.11753843384E-03 -6.46108303845E-05 +7.07531714674E-01 +5.26968963236E-01
2.64000000000E+09 +7.25555178560E-01 +3.69655414496E-01 +1.08404526487E-03 -1.46530150384E-04 +9.31122576543E-04 -1.60283942350E-04 +7.12108875018E-01 +5.17373765753E-01
2.64500000000E+09 +7.28904696696E-01 +3.57749480072E-01 +9.30154944751E-04 -2.31014478222E-04 +8.70516288217E-04 -1.89960138258E-04 +7.16617685258E-01 +5.07672839775E-01
2.65000000000E+09 +7.30966093060E-01 +3.47746120116E-01 +8.50390619526E-04 -2.05278623233E-04 +8.67687820732E-04 -8.27165517909E-05 +7.21157364454E-01 +4.97577514066E-01
2.65500000000E+09 +7.32428985905E-01 +3.38683176617E-01 +8.78051125033E-04 -2.63555885553E-04 +8.76839792282E-04 -1.58194488574E-04 +7.25220417293E-01 +4.86872251655E-01
2.66000000000E+09 +7.33520019771E-01 +3.29702464988E-01 +8.00864435425E-04 -2.08962128945E-04 +8.86826507440E-04 -2.05640619000E-04 +7.29269147993E-01 +4.75792049311E-01
2.66500000000E+09 +7.34463714650E-01 +3.19948846830E-01 +8.19568047325E-04 -2.54552529465E-04 +7.63079557174E-04 -2.67238189324E-04 +7.33449599759E-01 +4.64705796083E-01
2.67000000000E+09 +7.35512572949E-01 +3.07984084814E-01 +8.07513099522E-04 -9.89134910662E-05 +7.55236610787E-04 -1.39811621989E-04 +7.37847309614E-01 +4.53849042665E-01
2.67500000000E+09 +7.36604181724E-01 +2.93868047830E-01 +1.03082510001E-03 -1.12093580915E-04 +9.17232068463E-04 -1.60080598471E-04 +7.42161056972E-01 +4.42786957474E-01
2.68000000000E+09 +7.37766599478E-01 +2.77975931636E-01 +1.16911643298E-03 -3.68407447914E-04 +1.08393171666E-03 -3.09218771642E-04 +7.46103734923E-01 +4.31460514321E-01
2.68500000000E+09 +7.38894648142E-01 +2.60898983618E-01 +9.08576269409E-04 -5.41934817126E-04 +9.23644884773E-04 -5.02397147980E-04 +7.49203194083E-01 +4.19859488985E-01
2.69000000000E+09 +7.39939041343E-01 +2.43670699482E-01 +8.23825062554E-04 -3.56674703455E-04 +8.64533498375E-04 -3.41256052023E-04 +7.51929750394E-01 +4.07979524482E-01
2.69500000000E+09 +7.40825112194E-01 +2.27400683950E-01 +1.05593378694E-03 -2.78737265472E-04 +1.00934809092E-03 -2.83056587192E-04 +7.54723685673E-01 +3.95373204436E-01
2.70000000000E+09 +7.41458261344E-01 +2.12259490776E-01 +1.21511490076E-03 -4.34560385489E-04 +1.15218055407E-03 -3.81867478854E-04 +7.57720594655E-01 +3.82091374910E-01
2.70500000000E+09 +7.42081004939E-01 +1.98459701492E-01 +1.30713829216E-03 -6.92039160979E-04 +1.28024076968E-03 -6.04238728636E-04 +7.60795666883E-01 +3.68841912003E-01
2.71000000000E+09 +7.42142393348E-01 +1.85673267527E-01 +1.18886142605E-03 -9.43436078701E-04 +1.27708054203E-03 -8.77661503494E-04 +7.63369067475E-01 +3.55286530697E-01
2.71500000000E+09 +7.42209698309E-01 +1.73056291214E-01 +1.10428615990E-03 -9.87038216283E-04 +1.19457431577E-03 -9.97969007386E-04 +7.65392887268E-01 +3.42850882551E-01
2.72000000000E+09 +7.41633110549E-01 +1.60163036594E-01 +1.14471009725E-03 -1.09764372522E-03 +1.16043193503E-03 -1.26302369439E-03 +7.67396717499E-01 +3.30415850255E-01
2.72500000000E+09 +7.41070820192E-01 +1.46220085394E-01 +9.98100238733E-04 -1.21538455312E-03 +8.84207779727E-04 -1.33081045326E-03 +7.68372562295E-01 +3.16953013879E-01
2.73000000000E+09 +7.39838839280E-01 +1.30648109912E-01 +1.10725727716E-03 -1.33204377824E-03 +8.65202711874E-04 -1.25527674499E-03 +7.69480729231E-01 +3.02704200280E-01
2.73500000000E+09 +7.37774205813E-01 +1.13121266383E-01 +1.09271020484E-03 -1.60129075818E-03 +9.17677355784E-04 -1.42855018959E-03 +7.69987195779E-01 +2.88091407526E-01
2.74000000000E+09 +7.35293429578E-01 +9.50384252599E-02 +8.24917133911E-04 -1.75932869954E-03 +8.07608869377E-04 -1.52100613464E-03 +7.71198513181E-01 +2.73717256219E-01
2.74500000000E+09 +7.31407919172E-01 +7.60008308406E-02 +7.02997314177E-04 -1.79074297720E-03 +8.44145624091E-04 -1.64132128000E-03 +7.72581586527E-01 +2.59195652590E-01
2.75000000000E+09 +7.26663900147E-01 +5.76029782838E-02 +8.37633831370E-04 -1.85770576748E-03 +1.07368067010E-03 -1.86371935364E-03 +7.73776237862E-01 +2.44147104420E-01
2.75500000000E+09 +7.21606238806E-01 +4.00964741359E-02 +6.73937989984E-04 -2.38528563241E-03 +8.15961789536E-04 -2.53277865925E-03 +7.73936194357E-01 +2.29325264994E-01
2.76000000000E+09 +7.16661608745E-01 +2.31846920272E-02 +2.74045587715E-04 -2.53434230561E-03 +2.63722471012E-04 -2.71798152173E-03 +7.73367943494E-01 +2.13971912982E-01
2.76500000000E+09 +7.10982081300E-01 +6.55661942832E-03 -1.81037263991E-04 -2.66088544743E-03 -2.31464494281E-04 -2.76608819119E-03 +7.72635844763E-01 +1.98205556882E-01
2.77000000000E+09 +7.05281485330E-01 -1.00841128299E-02 -5.01600755455E-04 -2.40712382743E-03 -6.31527090038E-04 -2.51008997964E-03 +7.72155790643E-01 +1.81149708012E-01
2.77500000000E+09 +6.99597628201E-01 -2.75096222476E-02 -4.35467419905E-04 -2.16114897836E-03 -5.50130940364E-04 -2.21054857362E-03 +7.70742255912E-01 +1.63232488973E-01
2.78000000000E+09 +6.93601253230E-01 -4.63513264284E-02 -3.65219204134E-04 -2.50129186087E-03 -5.04026132665E-04 -2.51133299076E-03 +7.69095806214E-01 +1.45689314853E-01
2.78500000000E+09 +6.87387474679E-01 -6.66997228247E-02 -7.87979584078E-04 -2.75575007547E-03 -9.04299850960E-04 -2.71448870691E-03 +7.67391929275E-01 +1.28006325998E-01
2.79000000000E+09 +6.80354154366E-01 -8.87181201924E-02 -1.08718581898E-03 -2.69393293875E-03 -1.13060696727E-03 -2.46316145028E-03 +7.64528005716E-01 +1.10651784961E-01
2.79500000000E+09 +6.72161878957E-01 -1.11082708818E-01 -1.27407568969E-03 -2.95534725524E-03 -1.18370067038E-03 -2.75244357704E-03 +7.61011448427E-01 +9.26705980550E-02
2.80000000000E+09 +6.63057911145E-01 -1.32737522917E-01 -1.82421969469E-03 -2.98774559822E-03 -1.64889981729E-03 -2.89214492618E-03 +7.56142946118E-01 +7.40224624842E-02
2.80500000000E+09 +6.53319979489E-01 -1.52976636360E-01 -1.94564934107E-03 -2.95973704480E-03 -1.90530648831E-03 -3.07441336387E-03 +7.50454994983E-01 +5.47425522636E-02
2.81000000000E+09 +6.42655042577E-01 -1.71073735060E-01 -2.69300051144E-03 -3.22832886224E-03 -2.68713784623E-03 -3.36117581084E-03 +7.44251905123E-01 +3.57942195012E-02
2.81500000000E+09 +6.31283640872E-01 -1.87036662191E-01 -3.33177513254E-03 -2.81874496164E-03 -3.47279353826E-03 -2.77658389249E-03 +7.38244624278E-01 +1.61121135666E-02
2.82000000000E+09 +6.19370081992E-01 -2.01978460643E-01 -3.77846054784E-03 -2.73353144596E-03 -3.84554242986E-03 -2.54847252851E-03 +7.31276967164E-01 -4.60305569653E-03
2.82500000000E+09 +6.05665700919E-01 -2.16416583702E-01 -4.43544910870E-03 -2.35029628532E-03 -4.31142198503E-03 -2.08828037115E-03 +7.22842671467E-01 -2.50577581865E-02
2.83000000000E+09 +5.90669536744E-01 -2.31054890233E-01 -4.91060540636E-03 -1.90785799995E-03 -4.64082466358E-03 -1.75509885117E-03 +7.13108985537E-01 -4.48115883941E-02
2.83500000000E+09 +5.73782991315E-01 -2.48052199366E-01 -5.47569066649E-03 -1.21423247777E-03 -5.20024387344E-03 -1.29710727415E-03 +7.03121932652E-01 -6.47880211626E-02
2.84000000000E+09 +5.53600132702E-01 -2.66553937717E-01 -5.62330229136E-03 -4.81057708655E-04 -5.56158138399E-03 -6.61648126355E-04 +6.92118509217E-01 -8.49509373516E-02
2.84500000000E+09 +5.31111998532E-01 -2.86358374893E-01 -5.88534154941E-03 +1.46520699903E-04 -5.88618647965E-03 +1.76798288820E-05 +6.79743041009E-01 -1.05569970392E-01
2.85000000000E+09 +5.06574219026E-01 -3.06593256681E-01 -6.11535619891E-03 +5.83785378957E-04 -6.05884056564E-03 +5.80942952543E-04 +6.66466973599E-01 -1.26026779172E-01
2.85500000000E+09 +4.81404887669E-01 -3.26166372254E-01 -6.84279273503E-03 +1.42332409326E-03 -6.67577692020E-03 +1.45676858494E-03 +6.51701783801E-01 -1.46896323853E-01
2.86000000000E+09 +4.56837000863E-01 -3.44540717696E-01 -6.71615532923E-03 +2.87989247891E-03 -6.62422547778E-03 +2.75956384849E-03 +6.36089810498E-01 -1.66674054598E-01
2.86500000000E+09 +4.33499664730E-01 -3.61321640328E-01 -6.39240839608E-03 +3.82062451783E-03 -6.39844712054E-03 +3.70827767757E-03 +6.19881820741E-01 -1.87582367217E-01
2.87000000000E+09 +4.10616901646E-01 -3.77031116528E-01 -6.02171845696E-03 +4.86440101946E-03 -6.05485194472E-03 +4.87304446942E-03 +6.01366889224E-01 -2.08291922472E-01
2.87500000000E+09 +3.87587501798E-01 -3.89934343143E-01 -5.47416324270E-03 +5.67439164592E-03 -5.31296602599E-03 +5.80613707382E-03 +5.80534042770E-01 -2.27970690909E-01
2.88000000000E+09 +3.64795907800E-01 -4.01030688841E-01 -5.01439179365E-03 +6.32835935059E-03 -4.63490515359E-03 +6.26502088621E-03 +5.59889696730E-01 -2.46162021942E-01
2.88500000000E+09 +3.40463023277E-01 -4.10643664320E-01 -4.66644327925E-03 +7.50498785734E-03 -4.37234774891E-03 +7.13216664680E-03 +5.38134528296E-01 -2.64825316050E-01
2.89000000000E+09 +3.14262495371E-01 -4.19336182468E-01 -3.51273155561E-03 +8.71597615302E-03 -3.50381520649E-03 +8.16364494650E-03 +5.14195018994E-01 -2.83924319083E-01
2.89500000000E+09 +2.85223423177E-01 -4.26851814572E-01 -2.17852721718E-03 +9.29536440665E-03 -2.50528387316E-03 +8.88116072693E-03 +4.87212441672E-01 -3.02717911532E-01
2.90000000000E+09 +2.54202030285E-01 -4.33732307006E-01 -1.24645834269E-03 +9.51872997179E-03 -1.60905160950E-03 +9.53642248268E-03 +4.59401111502E-01 -3.19302904464E-01
2.90500000000E+09 +2.19882153887E-01 -4.40369753998E-01 +1.21481449795E-04 +1.03441259007E-02 +1.32667870014E-04 +1.05468204358E-02 +4.30295547499E-01 -3.35519103725E-01
2.91000000000E+09 +1.83994734120E-01 -4.44321365058E-01 +1.81331419604E-03 +1.04013694008E-02 +2.12422254338E-03 +1.02843118275E-02 +4.00294422630E-01 -3.50157198181E-01
2.91500000000E+09 +1.48651393609E-01 -4.47317272096E-01 +3.38866851988E-03 +1.06932025574E-02 +3.44159439430E-03 +1.01611250733E-02 +3.68560001449E-01 -3.63193201713E-01
2.92000000000E+09 +1.12671459923E-01 -4.48287132066E-01 +5.39741732893E-03 +1.01876238630E-02 +5.01552570200E-03 +9.55397634823E-03 +3.35428731196E-01 -3.75010049621E-01
2.92500000000E+09 +7.84335417736E-02 -4.47158353666E-01 +6.71144817016E-03 +9.25153773433E-03 +5.99999142500E-03 +9.00761684865E-03 +2.99477768586E-01 -3.83562492586E-01
2.93000000000E+09 +4.51466481266E-02 -4.43628938130E-01 +8.13779646305E-03 +8.35869744631E-03 +7.47810664782E-03 +8.69834525106E-03 +2.62920332672E-01 -3.91243541356E-01
2.93500000000E+09 +1.25762049881E-02 -4.37801084153E-01 +9.33531411998E-03 +7.49008829779E-03 +9.00578211740E-03 +7.92062733616E-03 +2.24244939463E-01 -3.96839430412E-01
2.94000000000E+09 -2.02584123310E-02 -4.29326742232E-01 +1.05009817368E-02 +6.37088362473E-03 +1.04199084328E-02 +6.66715765223E-03 +1.84524071000E-01 -4.00988697823E-01
2.94500000000E+09 -5.30890252617E-02 -4.17860440856E-01 +1.22826556330E-02 +4.97875859469E-03 +1.21285047948E-02 +5.23667240517E-03 +1.43215644943E-01 -4.01216882939E-01
2.95000000000E+09 -8.70041065061E-02 -4.04013746788E-01 +1.30329477015E-02 +2.42836699361E-03 +1.29034624917E-02 +2.93428033138E-03 +1.03337649163E-01 -3.98730000760E-01
2.95500000000E+09 -1.22402811330E-01 -3.85641683836E-01 +1.29795238854E-02 +2.26270648387E-04 +1.32670070266E-02 +8.11481049276E-04 +6.30202087299E-02 -3.93826014915E-01
2.96000000000E+09 -1.55779041500E-01 -3.63614663596E-01 +1.25469139932E-02 -1.69702845348E-03 +1.31654961068E-02 -1.61001884323E-03 +2.14948290580E-02 -3.86463604206E-01
2.96500000000E+09 -1.87518031055E-01 -3.40084314134E-01 +1.20048822965E-02 -2.84704460400E-03 +1.24200203528E-02 -3.22055910735E-03 -2.00170069415E-02 -3.74361365534E-01
2.97000000000E+09 -2.17837764099E-01 -3.15340023148E-01 +1.17649689448E-02 -4.14537199960E-03 +1.16133043621E-02 -4.50398798194E-03 -6.16084093063E-02 -3.59994103971E-01
2.97500000000E+09 -2.46016161341E-01 -2.89085838011E-01 +1.21578187970E-02 -5.82210475414E-03 +1.16591748061E-02 -5.77997121791E-03 -1.02012875730E-01 -3.42387449371E-01
2.98000000000E+09 -2.72855122185E-01 -2.62320439640E-01 +1.10334736994E-02 -8.53574386443E-03 +1.10098845919E-02 -7.99176746392E-03 -1.40676429832E-01 -3.22404800969E-01
2.98500000000E+09 -2.97929596108E-01 -2.32531556375E-01 +9.29457284928E-03 -1.02452249341E-02 +9.93926641298E-03 -9.97022668991E-03 -1.77613936151E-01 -2.99234280974E-01
2.99000000000E+09 -3.19323226157E-01 -2.01273301068E-01 +7.34087152261E-03 -1.12431986690E-02 +7.86552910716E-03 -1.16708971076E-02 -2.13986524292E-01 -2.73397515713E-01
2.99500000000E+09 -3.39143735275E-01 -1.69874638720E-01 +5.71610256413E-03 -1.18529290562E-02 +5.57857893932E-03 -1.25187608400E-02 -2.47282506132E-01 -2.43736939343E-01
3.00000000000E+09 -3.57696072931E-01 -1.36356182462E-01 +4.21650698909E-03 -1.23750262377E-02 +3.63271888687E-03 -1.26322897460E-02 -2.79341867851E-01 -2.11365774258E-01
3.00500000000E+09 -3.73290557695E-01 -1.01874069129E-01 +2.64273501588E-03 -1.32511777623E-02 +2.04842140442E-03 -1.29034576761E-02 -3.07690265265E-01 -1.77752576547E-01
3.01000000000E+09 -3.86992401867E-01 -6.80310777699E-02 +1.68818562946E-04 -1.38681944800E-02 +1.72900679062E-04 -1.31930537960E-02 -3.35701228227E-01 -1.41861455627E-01
3.01500000000E+09 -3.99369110383E-01 -3.40430631228E-02 -2.27964500589E-03 -1.30920167382E-02 -1.87688079450E-03 -1.27717541588E-02 -3.59084755060E-01 -1.05219512246E-01
3.02000000000E+09 -4.08603192059E-01 -5.00303657873E-05 -3.76217703349E-03 -1.19255329295E-02 -3.45008326160E-03 -1.19883669334E-02 -3.79875564163E-01 -6.63340582521E-02
3.02500000000E+09 -4.15012274767E-01 +3.27050429792E-02 -4.81399652999E-03 -1.16192831799E-02 -4.65584742766E-03 -1.16894374629E-02 -3.96423668020E-01 -2.75977993089E-02
3.03000000000E+09 -4.18148499097E-01 +6.50895722706E-02 -6.77763310314E-03 -1.08108478685E-02 -6.61901989137E-03 -1.07415254491E-02 -4.10676613987E-01 +1.29696763498E-02
3.03500000000E+09 -4.17692683078E-01 +9.67869016231E-02 -8.37870914700E-03 -9.69483355268E-03 -7.97569206245E-03 -9.84808684956E-03 -4.21468145696E-01 +5.27041078523E-02
3.04000000000E+09 -4.14218276200E-01 +1.28103403816E-01 -9.82350857424E-03 -7.42661463670E-03 -9.77575236000E-03 -7.97268780012E-03 -4.29629860772E-01 +9.39849855334E-02
3.04500000000E+09 -4.08045240926E-01 +1.59707789183E-01 -9.50835637527E-03 -5.61638774260E-03 -9.97258978474E-03 -6.09230177796E-03 -4.34422375657E-01 +1.33830555913E-01
3.05000000000E+09 -3.99460779255E-01 +1.92316865423E-01 -9.65346718220E-03 -4.62748184882E-03 -1.04406663364E-02 -4.58621791638E-03 -4.36978539797E-01 +1.72967179204E-01
3.05500000000E+09 -3.88387164255E-01 +2.26022521197E-01 -1.00212872497E-02 -3.75804750960E-03 -1.03993612792E-02 -3.08746313806E-03 -4.37422877887E-01 +2.11407250038E-01
3.06000000000E+09 -3.75007205205E-01 +2.59280787114E-01 -1.06903187540E-02 -2.72589960954E-03 -1.03931632350E-02 -2.02549178404E-03 -4.35003090569E-01 +2.48409111809E-01
3.06500000000E+09 -3.61277322463E-01 +2.91963743153E-01 -1.15155061679E-02 -6.42989338041E-04 -1.07313274122E-02 -6.20510890270E-04 -4.31542761155E-01 +2.85320348623E-01
3.07000000000E+09 -3.46378273944E-01 +3.23029231458E-01 -1.06225980525E-02 +1.47572257688E-03 -1.03629716566E-02 +8.08802683384E-04 -4.24206298055E-01 +3.21545957079E-01
