# Hz S RI R 50
! CMT, C1220, 16058040, 17.2.0/1
! Date: 15/08/2018 10:53:06
! Data: Format (Calibration Info)
! Freq                      S11: Re/Im (F2)                       S21: Re/Im (F2)                       S12: Re/Im (F2)                       S22: Re/Im (F2)            
2.50000000000E+09 +5.80000893888E-01 +6.51443378773E-01 -9.78284238048E-04 +6.35283348678E-04 -1.08298901341E-03 +7.13847276133E-04 +5.60799240970E-01 +7.26980781952E-01
2.50500000000E+09 +5.87589367889E-01 +6.42201770052E-01 -8.97066870239E-04 +8.01342019036E-04 -9.10732817564E-04 +8.32274323313E-04 +5.66673857101E-01 +7.21298473863E-01
2.51000000000E+09 +5.96221096731E-01 +6.32785621040E-01 -7.77663957751E-04 +8.04712127876E-04 -6.99369274860E-04 +8.51326248408E-04 +5.72461880133E-01 +7.15944266049E-01
2.51500000000E+09 +6.04782907414E-01 +6.23946724701E-01 -7.19382410656E-04 +9.03697183900E-04 -6.70941266878E-04 +9.03132942096E-04 +5.77774438675E-01 +7.10217537847E-01
2.52000000000E+09 +6.12414078195E-01 +6.15753649542E-01 -5.52312294525E-04 +9.76584426833E-04 -6.13627771882E-04 +9.35698370432E-04 +5.82933948004E-01 +7.03975350940E-01
2.52500000000E+09 +6.18724367000E-01 +6.08798336734E-01 -4.55969863866E-04 +9.43977229564E-04 -4.66410496054E-04 +9.34920876339E-04 +5.88277240545E-01 +6.97609345609E-01
2.53000000000E+09 +6.23502676767E-01 +6.02863100239E-01 -4.31759124328E-04 +9.99015483063E-04 -4.42213717078E-04 +1.00162513826E-03 +5.94197647787E-01 +6.90915344769E-01
2.53500000000E+09 +6.27059312238E-01 +5.97565049167E-01 -4.32224220339E-04 +1.05395897088E-03 -4.16888808767E-04 +1.10532199743E-03 +5.99881852111E-01 +6.84444579279E-01
2.54000000000E+09 +6.30056600331E-01 +5.92122848971E-01 -2.39234452634E-04 +1.26112251418E-03 -2.12980455527E-04 +1.19216470609E-03 +6.05840361176E-01 +6.77990682212E-01
2.54500000000E+09 +6.32954536035E-01 +5.86099236607E-01 -7.85312697633E-05 +1.27523672253E-03 -1.51864462616E-04 +1.22886309177E-03 +6.11477675741E-01 +6.71883221732E-01
2.55000000000E+09 +6.36701860142E-01 +5.78884968392E-01 +1.78496339853E-04 +1.21982163798E-03 +3.89939244054E-05 +1.30911617185E-03 +6.16690645658E-01 +6.65680218487E-01
2.55500000000E+09 +6.41678350243E-01 +5.70308910897E-01 +2.90849356630E-04 +1.03690981263E-03 +3.07023449442E-04 +1.22985714406E-03 +6.21756408112E-01 +6.59511941404E-01
2.56000000000E+09 +6.48255148813E-01 +5.61065309975E-01 +2.35770960137E-04 +9.45911109318E-04 +3.74271381153E-04 +1.15810872743E-03 +6.26813801427E-01 +6.52663979101E-01
2.56500000000E+09 +6.56333985790E-01 +5.50760290647E-01 +2.32568207640E-04 +1.02249658213E-03 +4.79166410730E-04 +1.10252140730E-03 +6.32221784712E-01 +6.45524223239E-01
2.57000000000E+09 +6.64838921781E-01 +5.40256925867E-01 +4.17955976631E-04 +1.01470882297E-03 +6.66201400407E-04 +8.99438968604E-04 +6.37718411791E-01 +6.38088844252E-01
2.57500000000E+09 +6.73095342573E-01 +5.30058215330E-01 +5.70234084569E-04 +9.82787028082E-04 +6.34574119090E-04 +7.79262948039E-04 +6.43439682178E-01 +6.30647985915E-01
2.58000000000E+09 +6.80118930901E-01 +5.21267581477E-01 +7.13173002557E-04 +9.06586968913E-04 +6.42144251685E-04 +7.25574785459E-04 +6.48863383760E-01 +6.23306221433E-01
2.58500000000E+09 +6.85759422808E-01 +5.13275534623E-01 +7.99317652760E-04 +7.86195962358E-04 +6.73265538335E-04 +7.09234374921E-04 +6.54103718448E-01 +6.15667888447E-01
2.59000000000E+09 +6.90023477806E-01 +5.06171224914E-01 +7.28121628843E-04 +6.28825045748E-04 +6.62434894339E-04 +6.38608890731E-04 +6.59025949480E-01 +6.08139514862E-01
2.59500000000E+09 +6.92857303446E-01 +4.99059058948E-01 +7.84635787797E-04 +6.08997714757E-04 +8.00793908026E-04 +6.64268468772E-04 +6.64030091152E-01 +6.00152522323E-01
2.60000000000E+09 +6.94681665550E-01 +4.91185298494E-01 +8.76066804318E-04 +4.94891217886E-04 +9.05738176555E-04 +5.11033329513E-04 +6.69418510951E-01 +5.91987978591E-01
2.60500000000E+09 +6.96773334048E-01 +4.81667824529E-01 +8.45576760582E-04 +3.14365439042E-04 +8.98002448177E-04 +3.48196549803E-04 +6.75146898540E-01 +5.83414905194E-01
2.61000000000E+09 +6.99096650692E-01 +4.70044198555E-01 +7.28418206757E-04 +2.69483823668E-04 +7.41569822581E-04 +3.11142692444E-04 +6.80458091383E-01 +5.74542402614E-01
2.61500000000E+09 +7.02718171293E-01 +4.56384268361E-01 +7.98414986245E-04 +3.11721085407E-04 +7.86379599790E-04 +3.32782998893E-04 +6.85263464451E-01 +5.65774670245E-01
2.62000000000E+09 +7.07232184105E-01 +4.40539475957E-01 +8.13593335903E-04 +1.98205676518E-04 +8.48947720996E-04 +1.72872581026E-04 +6.90012602248E-01 +5.57035680233E-01
2.62500000000E+09 +7.12611761592E-01 +4.23509238118E-01 +8.06363660431E-04 +2.33935187544E-04 +8.40974241056E-04 +2.02476597906E-04 +6.94944355772E-01 +5.48465466293E-01
2.63000000000E+09 +7.18309185086E-01 +4.06603273775E-01 +9.12411055601E-04 +2.59141241034E-04 +9.10123350397E-04 +1.53330454559E-04 +6.99824900657E-01 +5.39411534293E-01
2.63500000000E+09 +7.23592090721E-01 +3.90672155743E-01 +9.73615493667E-04 +4.35874398975E-05 +8.67637982325E-04 -4.74396158344E-05 +7.04590083316E-01 +5.30205509671E-01
2.64000000000E+09 +7.28208356166E-01 +3.76472320564E-01 +8.58157678515E-04 -5.57979101597E-05 +7.17726719884E-04 -7.97545056600E-05 +7.09308794680E-01 +5.20658835715E-01
2.64500000000E+09 +7.31703240459E-01 +3.64721604193E-01 +7.88669370747E-04 -1.13310867337E-04 +7.29298639461E-04 -3.95618372252E-05 +7.13980864899E-01 +5.11105822795E-01
2.65000000000E+09 +7.33944125818E-01 +3.55080732752E-01 +7.39376372717E-04 -1.23569421788E-04 +7.25596869542E-04 -2.66085082447E-05 +7.18621722906E-01 +5.01178218290E-01
2.65500000000E+09 +7.35600323591E-01 +3.46222476042E-01 +5.78257966980E-04 -6.93601057572E-05 +6.77037739259E-04 -7.41171150929E-05 +7.22686584557E-01 +4.90677714639E-01
2.66000000000E+09 +7.36757495810E-01 +3.37228572622E-01 +6.30236308670E-04 +1.54458391038E-05 +7.31356719942E-04 +1.66550514564E-06 +7.26696732612E-01 +4.79573502593E-01
2.66500000000E+09 +7.37642798484E-01 +3.27445873785E-01 +6.95230308744E-04 -4.37258551975E-05 +7.65846347298E-04 -1.56268178426E-05 +7.31024652683E-01 +4.68678156369E-01
2.67000000000E+09 +7.38688582247E-01 +3.15461955739E-01 +7.69319214304E-04 -1.51443036429E-05 +7.66220767528E-04 -4.02416868670E-05 +7.35533948761E-01 +4.58157375230E-01
2.67500000000E+09 +7.39790597620E-01 +3.01268144013E-01 +8.05689130250E-04 -8.03000812164E-05 +8.41053360661E-04 -5.75858759474E-05 +7.40160951553E-01 +4.47132328294E-01
2.68000000000E+09 +7.40933160598E-01 +2.85216550301E-01 +9.38928137940E-04 -2.25868602119E-04 +8.48218963644E-04 -1.41936277144E-04 +7.44453243975E-01 +4.35905735761E-01
2.68500000000E+09 +7.42334429162E-01 +2.68352010807E-01 +7.75293846976E-04 -2.74291122825E-04 +7.62266360965E-04 -2.00218982971E-04 +7.47819319064E-01 +4.24402525548E-01
2.69000000000E+09 +7.43826487450E-01 +2.51080030930E-01 +7.78257253733E-04 -9.01708770897E-05 +7.65950396311E-04 -4.53483585261E-05 +7.50877150279E-01 +4.12397691777E-01
2.69500000000E+09 +7.45106088570E-01 +2.34682565112E-01 +1.03920930839E-03 -1.74958664439E-06 +1.02313946640E-03 -2.18207507129E-05 +7.53751007070E-01 +3.99865679921E-01
2.70000000000E+09 +7.46368474882E-01 +2.19400957561E-01 +1.20354442606E-03 -2.12725600716E-04 +1.13760584272E-03 -2.41226835189E-04 +7.56918421481E-01 +3.86902084497E-01
2.70500000000E+09 +7.47117495898E-01 +2.05569196538E-01 +1.31325922797E-03 -4.17772835112E-04 +1.30286761914E-03 -3.27428056450E-04 +7.60285358411E-01 +3.73326732405E-01
2.71000000000E+09 +7.47307991010E-01 +1.92751559677E-01 +1.29000267952E-03 -6.90697945417E-04 +1.37422494353E-03 -6.48865357519E-04 +7.63063050009E-01 +3.59762512997E-01
2.71500000000E+09 +7.47503464084E-01 +1.80381628645E-01 +1.21769233920E-03 -8.33269829839E-04 +1.30389467355E-03 -8.81878545394E-04 +7.65517698441E-01 +3.47279237055E-01
2.72000000000E+09 +7.47226246092E-01 +1.67528355291E-01 +1.14249814876E-03 -1.01893051482E-03 +1.19701353972E-03 -1.07194987685E-03 +7.67756567354E-01 +3.34489673519E-01
2.72500000000E+09 +7.46947014657E-01 +1.53367199530E-01 +1.00784566929E-03 -1.09746567732E-03 +8.54707909055E-04 -1.18253525300E-03 +7.69088150621E-01 +3.20898203555E-01
2.73000000000E+09 +7.45802303569E-01 +1.37514451497E-01 +1.03409945881E-03 -1.00820491518E-03 +8.49761330414E-04 -1.01926186643E-03 +7.70542880864E-01 +3.06840358710E-01
2.73500000000E+09 +7.44083148615E-01 +1.19623770432E-01 +1.14635968984E-03 -1.29467003407E-03 +1.04212348847E-03 -1.09484492489E-03 +7.71259062857E-01 +2.91776776156E-01
2.74000000000E+09 +7.41361371724E-01 +1.01009076491E-01 +1.05556067744E-03 -1.48940603474E-03 +1.03918329269E-03 -1.29271258606E-03 +7.72433626690E-01 +2.77150983961E-01
2.74500000000E+09 +7.37887347777E-01 +8.18149582635E-02 +9.54989638181E-04 -1.61751827029E-03 +1.10240318523E-03 -1.50278110973E-03 +7.73891329896E-01 +2.62368454728E-01
2.75000000000E+09 +7.33479959223E-01 +6.27879956356E-02 +9.76166011678E-04 -1.87620069872E-03 +1.20511348148E-03 -1.81297176538E-03 +7.74975960249E-01 +2.47054350564E-01
2.75500000000E+09 +7.28458439618E-01 +4.47893410727E-02 +7.50897059071E-04 -2.35437239815E-03 +9.20288724271E-04 -2.47127223932E-03 +7.75355387704E-01 +2.32115042034E-01
2.76000000000E+09 +7.23413333153E-01 +2.80591973916E-02 +3.10545325613E-04 -2.41471900304E-03 +3.51176084325E-04 -2.58637668531E-03 +7.75125136094E-01 +2.16362012443E-01
2.76500000000E+09 +7.18082496917E-01 +1.15550989941E-02 -7.16871174843E-05 -2.41711012594E-03 -8.78478374498E-05 -2.52783116880E-03 +7.74343500128E-01 +2.00171736562E-01
2.77000000000E+09 +7.12681100504E-01 -5.13201061857E-03 -4.02835836368E-04 -2.27938092156E-03 -4.92150810380E-04 -2.35076438754E-03 +7.73961775713E-01 +1.82991072098E-01
2.77500000000E+09 +7.07142077610E-01 -2.29445010761E-02 -4.03162240663E-04 -1.91862950444E-03 -4.74266784183E-04 -2.00663479083E-03 +7.72687409025E-01 +1.64892190162E-01
2.78000000000E+09 +7.00895208747E-01 -4.19494433411E-02 -9.68748487482E-05 -2.21299469703E-03 -2.02242147460E-04 -2.28188520431E-03 +7.70861522465E-01 +1.46870175538E-01
2.78500000000E+09 +6.93970108834E-01 -6.26018380406E-02 -3.46110705484E-04 -2.65213584293E-03 -4.97793265093E-04 -2.59573324255E-03 +7.68628833758E-01 +1.28992632701E-01
2.79000000000E+09 +6.86775438618E-01 -8.45163623962E-02 -7.80304707227E-04 -2.74977825193E-03 -8.63954707286E-04 -2.59138855717E-03 +7.65800236620E-01 +1.11694773861E-01
2.79500000000E+09 +6.78513664098E-01 -1.06925758362E-01 -1.09811188946E-03 -2.91652172404E-03 -1.07577074407E-03 -2.76121483571E-03 +7.62241025360E-01 +9.32366308455E-02
2.80000000000E+09 +6.69417337550E-01 -1.28843156913E-01 -1.69205900154E-03 -2.89050761771E-03 -1.48511985041E-03 -2.78131954893E-03 +7.57473534914E-01 +7.42001097091E-02
2.80500000000E+09 +6.59973860588E-01 -1.49415580084E-01 -1.82725231840E-03 -2.75632968282E-03 -1.76108837468E-03 -2.76835833115E-03 +7.51983099374E-01 +5.45038720284E-02
2.81000000000E+09 +6.49381693615E-01 -1.68011399284E-01 -2.20351911070E-03 -2.89746087810E-03 -2.20355060624E-03 -3.06630377505E-03 +7.45120415899E-01 +3.50827705077E-02
2.81500000000E+09 +6.38345495358E-01 -1.84208006521E-01 -2.70227053502E-03 -2.78866018416E-03 -2.87442765347E-03 -2.78514396373E-03 +7.38694015756E-01 +1.53932598531E-02
2.82000000000E+09 +6.26692968769E-01 -1.99520197557E-01 -3.14438662833E-03 -2.76755672032E-03 -3.24007923330E-03 -2.63439498071E-03 +7.31175849959E-01 -5.29847133589E-03
2.82500000000E+09 +6.13059735211E-01 -2.14415886649E-01 -3.88530639065E-03 -2.53676553667E-03 -3.80966713312E-03 -2.31861925155E-03 +7.22321531034E-01 -2.57421682465E-02
2.83000000000E+09 +5.97716746843E-01 -2.29281697751E-01 -4.49535632925E-03 -2.12728705671E-03 -4.23543836109E-03 -2.05356872836E-03 +7.12214305150E-01 -4.56378334119E-02
2.83500000000E+09 +5.80654191635E-01 -2.45766592145E-01 -5.14255120513E-03 -1.49444543811E-03 -4.91134273227E-03 -1.55076181320E-03 +7.01798933170E-01 -6.57386064323E-02
2.84000000000E+09 +5.60798422183E-01 -2.64212532835E-01 -5.37209074659E-03 -6.86292779308E-04 -5.26257918289E-03 -8.98604244747E-04 +6.90318914707E-01 -8.56069442576E-02
2.84500000000E+09 +5.38117963082E-01 -2.84319776191E-01 -5.48871420791E-03 -3.39741565639E-05 -5.45393787026E-03 -1.33437160286E-04 +6.78127453860E-01 -1.06188206710E-01
2.85000000000E+09 +5.13769208348E-01 -3.05002420554E-01 -5.59048008405E-03 +3.54329858976E-04 -5.59958915414E-03 +3.84109354085E-04 +6.64395004043E-01 -1.26675731103E-01
2.85500000000E+09 +4.88161622785E-01 -3.25471072851E-01 -6.15186093611E-03 +1.03275016504E-03 -6.07292945733E-03 +1.07689377613E-03 +6.48935134117E-01 -1.47008415580E-01
2.86000000000E+09 +4.62647945968E-01 -3.44540479856E-01 -6.05739368490E-03 +2.12216243470E-03 -5.91734121145E-03 +2.04015094998E-03 +6.32821960475E-01 -1.66075999131E-01
2.86500000000E+09 +4.38360883021E-01 -3.61492689465E-01 -6.07776399023E-03 +2.75983983481E-03 -6.08498408546E-03 +2.64052923839E-03 +6.16482171039E-01 -1.86321045901E-01
2.87000000000E+09 +4.15059963581E-01 -3.76782814822E-01 -6.20288715801E-03 +3.93873533748E-03 -6.27298526926E-03 +3.98204608935E-03 +5.98196860608E-01 -2.06514839778E-01
2.87500000000E+09 +3.92183337155E-01 -3.89788276043E-01 -5.68200987217E-03 +5.13208059644E-03 -5.49423273855E-03 +5.24061492142E-03 +5.77625801424E-01 -2.26286896464E-01
2.88000000000E+09 +3.69338475043E-01 -4.01285038619E-01 -5.00300302016E-03 +5.77724956969E-03 -4.65783295557E-03 +5.75742366301E-03 +5.56775272943E-01 -2.44581458231E-01
2.88500000000E+09 +3.44574281607E-01 -4.10972253593E-01 -4.48019414645E-03 +6.85742618717E-03 -4.12054586056E-03 +6.48291585536E-03 +5.34444394739E-01 -2.62899351268E-01
2.89000000000E+09 +3.18167134442E-01 -4.19575024686E-01 -3.43953340614E-03 +7.80491254459E-03 -3.40669197672E-03 +7.25267078487E-03 +5.10469893754E-01 -2.81085821507E-01
2.89500000000E+09 +2.88193820995E-01 -4.27120024903E-01 -2.18852882622E-03 +8.14911458696E-03 -2.45942953508E-03 +7.72710498254E-03 +4.83535899716E-01 -2.98819836276E-01
2.90000000000E+09 +2.56357060147E-01 -4.33329586425E-01 -1.60309928481E-03 +8.22887529995E-03 -1.87323368941E-03 +8.20443217306E-03 +4.56169053362E-01 -3.14425174469E-01
2.90500000000E+09 +2.21588967132E-01 -4.39303265545E-01 -6.99573706150E-04 +9.04074047117E-03 -7.55067005714E-04 +9.17714809533E-03 +4.27643041490E-01 -3.30012330767E-01
2.91000000000E+09 +1.85285449350E-01 -4.43054592480E-01 +4.19541326320E-04 +9.34505149892E-03 +6.00740421154E-04 +9.32538541141E-03 +3.98314626240E-01 -3.44367030445E-01
2.91500000000E+09 +1.49406704271E-01 -4.45469749157E-01 +1.86286736261E-03 +1.05571015413E-02 +2.04361661149E-03 +1.00757511129E-02 +3.67069819459E-01 -3.57165727515E-01
2.92000000000E+09 +1.13667202966E-01 -4.46185994507E-01 +4.49850067643E-03 +1.01458885497E-02 +4.11888015138E-03 +9.51683102855E-03 +3.34549287173E-01 -3.68791532363E-01
2.92500000000E+09 +7.91195094996E-02 -4.45501082637E-01 +5.90072092473E-03 +9.00134466262E-03 +5.15748346579E-03 +8.75824936508E-03 +2.99451347660E-01 -3.77184443063E-01
2.93000000000E+09 +4.50695026447E-02 -4.41709700271E-01 +6.90846341341E-03 +8.01573165631E-03 +6.34867620779E-03 +8.20237172780E-03 +2.63696029477E-01 -3.84685138761E-01
2.93500000000E+09 +1.21172559906E-02 -4.35661617369E-01 +7.96803068355E-03 +7.42579412676E-03 +7.65813807397E-03 +7.78573452245E-03 +2.25791095532E-01 -3.89782661057E-01
2.94000000000E+09 -2.09169682074E-02 -4.26541324397E-01 +8.87875169693E-03 +6.45940283575E-03 +8.74859904249E-03 +6.74921748034E-03 +1.87564301918E-01 -3.94017381722E-01
2.94500000000E+09 -5.35599552249E-02 -4.14018743858E-01 +1.06424154973E-02 +5.48627505825E-03 +1.03929668955E-02 +5.70660817250E-03 +1.47077427531E-01 -3.94707974889E-01
2.95000000000E+09 -8.66994599271E-02 -3.99502934051E-01 +1.13784630580E-02 +3.53117047392E-03 +1.12221079990E-02 +3.96094002171E-03 +1.07744653288E-01 -3.92801096868E-01
2.95500000000E+09 -1.21185779205E-01 -3.81228043691E-01 +1.19134655819E-02 +1.73580887082E-03 +1.21074439343E-02 +2.31511966268E-03 +6.83056170489E-02 -3.88434848267E-01
2.96000000000E+09 -1.54743458743E-01 -3.59268092572E-01 +1.17947202842E-02 -1.04407238195E-04 +1.23455049613E-02 +3.64149967937E-05 +2.73678960702E-02 -3.82046412630E-01
2.96500000000E+09 -1.86293963973E-01 -3.35492494125E-01 +1.17177548051E-02 -1.32150020353E-03 +1.21708946085E-02 -1.62284732096E-03 -1.36269602383E-02 -3.70492750466E-01
2.97000000000E+09 -2.16493671426E-01 -3.10612522088E-01 +1.17395872214E-02 -2.83668516488E-03 +1.16195146363E-02 -3.23459403933E-03 -5.41448609525E-02 -3.57118449061E-01
2.97500000000E+09 -2.44478643997E-01 -2.84276293886E-01 +1.20004394330E-02 -4.62547624188E-03 +1.15959900013E-02 -4.61027662821E-03 -9.42106183875E-02 -3.40498103393E-01
2.98000000000E+09 -2.70691908655E-01 -2.57473791160E-01 +1.11164588685E-02 -7.09487557297E-03 +1.09930556982E-02 -6.52909165197E-03 -1.32830835641E-01 -3.21208656638E-01
2.98500000000E+09 -2.95310370781E-01 -2.28345882515E-01 +1.00520567561E-02 -8.83046635066E-03 +1.05505857093E-02 -8.47988029465E-03 -1.69334609109E-01 -2.99083190640E-01
2.99000000000E+09 -3.16844238423E-01 -1.97475266056E-01 +7.92073415203E-03 -1.00406229889E-02 +8.53129449720E-03 -1.04690989185E-02 -2.06005646348E-01 -2.74456192204E-01
2.99500000000E+09 -3.36119221861E-01 -1.66144335138E-01 +6.75333132065E-03 -1.08105838099E-02 +6.70617921163E-03 -1.14925903570E-02 -2.39364935942E-01 -2.45832352424E-01
3.00000000000E+09 -3.54801831627E-01 -1.33455368981E-01 +5.16064409457E-03 -1.17413584957E-02 +4.54614207120E-03 -1.20917537285E-02 -2.71392285650E-01 -2.15004325982E-01
3.00500000000E+09 -3.70753921899E-01 -9.87162900190E-02 +3.50628291128E-03 -1.28562488661E-02 +2.92012720264E-03 -1.24840557006E-02 -3.00579067377E-01 -1.82798914939E-01
3.01000000000E+09 -3.84133114868E-01 -6.46122813471E-02 +8.62548067684E-04 -1.35147035952E-02 +8.57397592803E-04 -1.28849374217E-02 -3.29255100168E-01 -1.48144786088E-01
3.01500000000E+09 -3.96483648555E-01 -3.09581925208E-02 -1.51664114929E-03 -1.24977766119E-02 -1.11058847989E-03 -1.22491654267E-02 -3.53930906355E-01 -1.11956100576E-01
3.02000000000E+09 -4.06193127077E-01 +2.80228594318E-03 -2.64536121550E-03 -1.15509802399E-02 -2.40390988960E-03 -1.15940231494E-02 -3.75382705344E-01 -7.32814737041E-02
3.02500000000E+09 -4.13025964661E-01 +3.55235834713E-02 -3.91140928875E-03 -1.15732853910E-02 -3.84261060341E-03 -1.16503280788E-02 -3.92688636741E-01 -3.50276539648E-02
3.03000000000E+09 -4.16628727524E-01 +6.80254619733E-02 -5.88136846583E-03 -1.03893215797E-02 -5.70212701003E-03 -1.03584044840E-02 -4.08183786002E-01 +4.83469052225E-03
3.03500000000E+09 -4.16470140596E-01 +9.93479689412E-02 -6.92296734371E-03 -9.92179810143E-03 -6.54936612890E-03 -1.00373084511E-02 -4.19972032844E-01 +4.45052112591E-02
3.04000000000E+09 -4.13264843462E-01 +1.30400437894E-01 -8.83665748944E-03 -8.02866965673E-03 -8.79293080015E-03 -8.52862395260E-03 -4.29196458062E-01 +8.52737796013E-02
3.04500000000E+09 -4.07242132100E-01 +1.61163198593E-01 -9.01598110989E-03 -6.25626943638E-03 -9.42132716948E-03 -6.74342171480E-03 -4.35233408624E-01 +1.24892493245E-01
3.05000000000E+09 -3.99830389615E-01 +1.93365775371E-01 -9.34315557205E-03 -5.00741450605E-03 -1.00383138759E-02 -4.96410857728E-03 -4.38678092531E-01 +1.64537570657E-01
3.05500000000E+09 -3.88894104411E-01 +2.27467560071E-01 -9.65201980211E-03 -3.97569757081E-03 -1.00382613447E-02 -3.35583527744E-03 -4.39706459503E-01 +2.03054908394E-01
3.06000000000E+09 -3.76091913836E-01 +2.60471901373E-01 -1.00654054407E-02 -2.93294607310E-03 -9.86082836527E-03 -2.26812694178E-03 -4.38511879791E-01 +2.40399628507E-01
3.06500000000E+09 -3.62228199382E-01 +2.93552379929E-01 -1.06457642974E-02 -1.05036804724E-03 -9.99205282968E-03 -1.02066730416E-03 -4.36306949656E-01 +2.77931760516E-01
3.07000000000E+09 -3.47629248430E-01 +3.24014075369E-01 -1.00644711734E-02 +7.87290850990E-04 -9.82832845306E-03 +1.90415301395E-04 -4.29619218633E-01 +3.15093826850E-01
