# Hz S RI R 50
! CMT, C1220, 16058040, 17.2.0/1
! Date: 15/08/2018 10:48:56
! Data: Format (Calibration Info)
! Freq                      S11: Re/Im (F2)                       S21: Re/Im (F2)                       S12: Re/Im (F2)                       S22: Re/Im (F2)            
2.50000000000E+09 +5.80656813280E-01 +6.47235273157E-01 -1.06256020055E-03 +7.72344484350E-04 -1.14350670226E-03 +8.18461970224E-04 +5.63541934682E-01 +7.25455171343E-01
2.50500000000E+09 +5.88282315697E-01 +6.37954473464E-01 -9.41310198756E-04 +8.41475897114E-04 -9.56489815613E-04 +8.89414264298E-04 +5.69298511108E-01 +7.19935804213E-01
2.51000000000E+09 +5.96478863050E-01 +6.28433598475E-01 -9.21391995713E-04 +8.86507258800E-04 -8.78555283976E-04 +9.09349668305E-04 +5.75060525901E-01 +7.14485945003E-01
2.51500000000E+09 +6.04679012050E-01 +6.19703755336E-01 -8.37550286529E-04 +1.02694148329E-03 -8.05183953162E-04 +1.01976699855E-03 +5.80279249655E-01 +7.08837883376E-01
2.52000000000E+09 +6.12319348475E-01 +6.11326465662E-01 -6.59840322916E-04 +1.13154722416E-03 -6.84818971831E-04 +1.11318179752E-03 +5.85409078627E-01 +7.02639572130E-01
2.52500000000E+09 +6.18360646700E-01 +6.04295705464E-01 -5.08775935913E-04 +1.15123764568E-03 -5.91350258665E-04 +1.16829243994E-03 +5.90909017164E-01 +6.96119236884E-01
2.53000000000E+09 +6.23248077019E-01 +5.98064042501E-01 -4.82127827598E-04 +1.14071069565E-03 -4.41386007704E-04 +1.20679356451E-03 +5.96870950144E-01 +6.89260515547E-01
2.53500000000E+09 +6.27005749975E-01 +5.92433766041E-01 -4.47847406380E-04 +1.23459354307E-03 -4.30564482835E-04 +1.27372551458E-03 +6.02768577720E-01 +6.82707082597E-01
2.54000000000E+09 +6.29821709057E-01 +5.86860046590E-01 -3.15946659691E-04 +1.33007716768E-03 -2.72118307671E-04 +1.35798193008E-03 +6.08791295649E-01 +6.76311723252E-01
2.54500000000E+09 +6.32708260969E-01 +5.80895206298E-01 -6.75453646700E-05 +1.45191959258E-03 -1.83411874993E-04 +1.45841849769E-03 +6.14485361366E-01 +6.70079587299E-01
2.55000000000E+09 +6.36362921396E-01 +5.74037091963E-01 +2.28803250349E-04 +1.45479148352E-03 +9.43948256064E-05 +1.54899044823E-03 +6.19743255226E-01 +6.64129640625E-01
2.55500000000E+09 +6.41454252244E-01 +5.65542468462E-01 +3.58736106570E-04 +1.22408739806E-03 +4.03585395760E-04 +1.46295116443E-03 +6.24663680220E-01 +6.57735591674E-01
2.56000000000E+09 +6.47976387213E-01 +5.56540940880E-01 +2.94148087348E-04 +1.13752967432E-03 +4.60512137815E-04 +1.31501273150E-03 +6.29665073367E-01 +6.50661883810E-01
2.56500000000E+09 +6.55700186831E-01 +5.46248987721E-01 +3.12986066156E-04 +1.21155963620E-03 +5.72295237612E-04 +1.21691437854E-03 +6.35010940103E-01 +6.43414238284E-01
2.57000000000E+09 +6.63907264380E-01 +5.36017121521E-01 +5.02375415995E-04 +1.29511946798E-03 +7.12228932905E-04 +1.17810385242E-03 +6.40612039689E-01 +6.35854708660E-01
2.57500000000E+09 +6.71907088999E-01 +5.25909224254E-01 +7.88588426639E-04 +1.29684846400E-03 +8.92827464276E-04 +1.00222561631E-03 +6.46429207592E-01 +6.28288868074E-01
2.58000000000E+09 +6.78714847090E-01 +5.16823992024E-01 +9.75244868504E-04 +1.03539785054E-03 +9.03007991572E-04 +8.44859352083E-04 +6.51856029410E-01 +6.20829025213E-01
2.58500000000E+09 +6.83983774921E-01 +5.08411663707E-01 +1.05597974953E-03 +8.68849304949E-04 +9.10509529041E-04 +8.03479163745E-04 +6.57110640999E-01 +6.13155246757E-01
2.59000000000E+09 +6.87813136384E-01 +5.01078196046E-01 +1.00416832318E-03 +7.04806467384E-04 +9.13022437246E-04 +8.03683666931E-04 +6.62005383470E-01 +6.05496416741E-01
2.59500000000E+09 +6.90513893275E-01 +4.93833477809E-01 +1.01684695283E-03 +7.90310692334E-04 +1.00582528382E-03 +7.91450237632E-04 +6.66813332238E-01 +5.97605296351E-01
2.60000000000E+09 +6.92273060852E-01 +4.85990940088E-01 +1.27565919788E-03 +6.11058228374E-04 +1.27429719518E-03 +6.42842981763E-04 +6.72081464770E-01 +5.89255377017E-01
2.60500000000E+09 +6.94305806345E-01 +4.76482633728E-01 +1.29086940775E-03 +2.57234072618E-04 +1.27017487008E-03 +2.98735558262E-04 +6.77655729194E-01 +5.80498892257E-01
2.61000000000E+09 +6.96705152317E-01 +4.64879215819E-01 +1.14950900143E-03 +1.62733575416E-04 +1.11369295946E-03 +1.87741494091E-04 +6.82961892809E-01 +5.71556870852E-01
2.61500000000E+09 +7.00402788096E-01 +4.51326768504E-01 +1.15737150157E-03 +1.74749661077E-04 +1.17132659207E-03 +1.82175906708E-04 +6.87865076467E-01 +5.62572053780E-01
2.62000000000E+09 +7.04848471373E-01 +4.35647407142E-01 +1.11045138108E-03 -8.79530292674E-06 +1.16285324037E-03 -1.85235921538E-05 +6.92543575350E-01 +5.53806408059E-01
2.62500000000E+09 +7.10106872570E-01 +4.18820363758E-01 +1.08627632814E-03 -7.61911228622E-06 +1.09118011754E-03 -6.62793087013E-05 +6.97410974219E-01 +5.45137898229E-01
2.63000000000E+09 +7.15799960858E-01 +4.02141158081E-01 +1.14319078349E-03 +2.25044137249E-05 +1.10672673193E-03 -1.36308859556E-04 +7.02149228919E-01 +5.36055589372E-01
2.63500000000E+09 +7.21045766656E-01 +3.86136493807E-01 +1.21326399845E-03 -2.75141892462E-04 +1.00921972098E-03 -3.49705004361E-04 +7.06735327700E-01 +5.26706822130E-01
2.64000000000E+09 +7.25307383346E-01 +3.71800918403E-01 +1.01174481167E-03 -2.94661057092E-04 +8.80584154598E-04 -2.76033861603E-04 +7.11233038105E-01 +5.17220561690E-01
2.64500000000E+09 +7.28646820323E-01 +3.60078226944E-01 +1.04340407551E-03 -3.62668959466E-04 +8.98815226729E-04 -2.52948046274E-04 +7.15660369035E-01 +5.07616668233E-01
2.65000000000E+09 +7.30899980083E-01 +3.50259513590E-01 +9.08007033691E-04 -4.66775776265E-04 +9.26527301180E-04 -3.49834763093E-04 +7.20181186595E-01 +4.97628811319E-01
2.65500000000E+09 +7.32675433320E-01 +3.41105555848E-01 +7.71689723867E-04 -5.27075582921E-04 +8.42152148487E-04 -4.84745666615E-04 +7.24242227272E-01 +4.86913237644E-01
2.66000000000E+09 +7.33778668470E-01 +3.32143117084E-01 +7.46927202881E-04 -4.33547261317E-04 +7.73938641949E-04 -4.47168080888E-04 +7.28177818544E-01 +4.75799388576E-01
2.66500000000E+09 +7.34871367729E-01 +3.22325403125E-01 +6.45689825039E-04 -4.67124718813E-04 +6.39329811208E-04 -5.24997497474E-04 +7.32370632018E-01 +4.64918973711E-01
2.67000000000E+09 +7.35841912823E-01 +3.10396404807E-01 +7.44181819033E-04 -4.45882202745E-04 +7.03632809586E-04 -4.14420365629E-04 +7.36717304260E-01 +4.54292356645E-01
2.67500000000E+09 +7.37034319641E-01 +2.96425942406E-01 +8.25787335903E-04 -4.58897492907E-04 +7.77148431833E-04 -5.14176121962E-04 +7.40895169375E-01 +4.43418508690E-01
2.68000000000E+09 +7.38312647004E-01 +2.80605981564E-01 +7.99292129633E-04 -6.86177661649E-04 +7.06631932762E-04 -5.99947600317E-04 +7.44868638849E-01 +4.32408512954E-01
2.68500000000E+09 +7.39631441668E-01 +2.63665038660E-01 +4.88111461880E-04 -7.22232413933E-04 +5.02291952065E-04 -6.54779785308E-04 +7.48138995042E-01 +4.20996570497E-01
2.69000000000E+09 +7.40752777501E-01 +2.46436849183E-01 +5.17983782291E-04 -4.49791272471E-04 +5.23423438426E-04 -4.60827657063E-04 +7.51004392601E-01 +4.09058732808E-01
2.69500000000E+09 +7.41724351017E-01 +2.30020642042E-01 +7.28583092240E-04 -4.24136298278E-04 +7.08722230858E-04 -4.51325992415E-04 +7.53854503662E-01 +3.96654801978E-01
2.70000000000E+09 +7.42644372282E-01 +2.14905670119E-01 +7.67929595423E-04 -6.79876836162E-04 +8.12472187197E-04 -6.38703510788E-04 +7.57085678268E-01 +3.83725578733E-01
2.70500000000E+09 +7.43239865884E-01 +2.01051763782E-01 +7.94498902863E-04 -8.16319073672E-04 +7.84423581988E-04 -8.03450726704E-04 +7.60353092968E-01 +3.70206981558E-01
2.71000000000E+09 +7.43553985136E-01 +1.88084043153E-01 +5.76833285311E-04 -9.46858286946E-04 +6.80886977602E-04 -9.43776948267E-04 +7.63104928457E-01 +3.56865642504E-01
2.71500000000E+09 +7.43434070180E-01 +1.75398410326E-01 +5.61294659463E-04 -8.48225202643E-04 +6.47897367476E-04 -8.99196537628E-04 +7.65169764694E-01 +3.44562344639E-01
2.72000000000E+09 +7.42965161621E-01 +1.62881544405E-01 +6.54724368600E-04 -9.65215966888E-04 +6.05929731769E-04 -1.08114527834E-03 +7.67277900177E-01 +3.32195276195E-01
2.72500000000E+09 +7.42892151340E-01 +1.48963526260E-01 +5.76595671635E-04 -1.15539135359E-03 +4.18244256968E-04 -1.18728194979E-03 +7.68569291316E-01 +3.18673288944E-01
2.73000000000E+09 +7.41881034263E-01 +1.33272130353E-01 +4.94435433499E-04 -1.12243711888E-03 +3.60044309122E-04 -1.07673984599E-03 +7.69998348359E-01 +3.04709500439E-01
2.73500000000E+09 +7.40323822413E-01 +1.15539072384E-01 +4.32886185487E-04 -1.17204858992E-03 +3.64714026955E-04 -1.09517525564E-03 +7.70752117651E-01 +2.89920400524E-01
2.74000000000E+09 +7.37723940880E-01 +9.70767251314E-02 +2.66045491452E-04 -1.27645624763E-03 +3.83028644899E-04 -1.15815662967E-03 +7.72059725774E-01 +2.75213233290E-01
2.74500000000E+09 +7.33963530933E-01 +7.80958468481E-02 +2.44506412110E-04 -1.24914339513E-03 +3.86673090950E-04 -1.13641563943E-03 +7.73718334071E-01 +2.60639983879E-01
2.75000000000E+09 +7.29506585856E-01 +5.94949144089E-02 +4.10512981732E-04 -1.38070428474E-03 +6.40497188630E-04 -1.34613499134E-03 +7.74946452472E-01 +2.45661293132E-01
2.75500000000E+09 +7.24560265856E-01 +4.16129515247E-02 +1.99822678514E-04 -1.81780283750E-03 +3.10648498530E-04 -1.94692849793E-03 +7.75205065774E-01 +2.30837209540E-01
2.76000000000E+09 +7.19522770595E-01 +2.46194166486E-02 -1.18640818552E-04 -1.76286499904E-03 -8.70997842912E-05 -1.92264884329E-03 +7.75068290974E-01 +2.15387233117E-01
2.76500000000E+09 +7.13909487293E-01 +7.91440646785E-03 -4.07603671719E-04 -1.81248570567E-03 -4.48938123446E-04 -1.91701597376E-03 +7.74378618527E-01 +1.99299018060E-01
2.77000000000E+09 +7.08548459903E-01 -8.93659448945E-03 -6.99412905945E-04 -1.55988325296E-03 -7.43306869928E-04 -1.60367381778E-03 +7.74047364336E-01 +1.82207609991E-01
2.77500000000E+09 +7.02986316085E-01 -2.70075406260E-02 -4.97231453978E-04 -1.24817667206E-03 -5.89685730493E-04 -1.26622523363E-03 +7.72944561492E-01 +1.64103149095E-01
2.78000000000E+09 +6.97036352530E-01 -4.61149221845E-02 -3.15523162275E-04 -1.51964208548E-03 -3.74776142873E-04 -1.54894257403E-03 +7.71412649339E-01 +1.46149564562E-01
2.78500000000E+09 +6.90435751501E-01 -6.69607914424E-02 -5.16574732695E-04 -1.77606057909E-03 -6.26108115293E-04 -1.69892695743E-03 +7.69608842598E-01 +1.28164022940E-01
2.79000000000E+09 +6.82974296468E-01 -8.89531497051E-02 -6.90528393619E-04 -1.70654373541E-03 -7.75845493739E-04 -1.66874940818E-03 +7.66857259487E-01 +1.10745578240E-01
2.79500000000E+09 +6.74954057291E-01 -1.11047743481E-01 -8.35748072737E-04 -1.99763283329E-03 -8.20242650201E-04 -1.85873418582E-03 +7.63412782780E-01 +9.24537374972E-02
2.80000000000E+09 +6.66026381050E-01 -1.33016302517E-01 -1.20947087093E-03 -1.98271591889E-03 -1.09832656971E-03 -1.92316627649E-03 +7.58729579628E-01 +7.34872331403E-02
2.80500000000E+09 +6.56330356467E-01 -1.53471825149E-01 -1.33294143753E-03 -2.03080075324E-03 -1.25301625123E-03 -2.07162504497E-03 +7.53235370255E-01 +5.38616202366E-02
2.81000000000E+09 +6.45650905484E-01 -1.71890058444E-01 -1.78619822202E-03 -2.19894066176E-03 -1.76499805057E-03 -2.30633044139E-03 +7.46822645037E-01 +3.43552559878E-02
2.81500000000E+09 +6.34026137179E-01 -1.88212371452E-01 -2.05241864197E-03 -2.03494644576E-03 -2.22772201541E-03 -2.01933531061E-03 +7.40600554491E-01 +1.43130529643E-02
2.82000000000E+09 +6.21738158945E-01 -2.03256429630E-01 -2.48446835423E-03 -2.15701009522E-03 -2.56969380223E-03 -2.01237480259E-03 +7.33342883431E-01 -6.67119827283E-03
2.82500000000E+09 +6.07715492581E-01 -2.17880107922E-01 -3.09173649080E-03 -1.92711389457E-03 -3.02321570857E-03 -1.74467331751E-03 +7.24669958843E-01 -2.74519928780E-02
2.83000000000E+09 +5.92306464518E-01 -2.32466042510E-01 -3.53933173175E-03 -1.55443396120E-03 -3.35685635845E-03 -1.52298276816E-03 +7.14611259022E-01 -4.74664317378E-02
2.83500000000E+09 +5.75476976576E-01 -2.49238994032E-01 -3.96460895636E-03 -1.07038536397E-03 -3.76242730752E-03 -1.19181519317E-03 +7.04204482272E-01 -6.74997605333E-02
2.84000000000E+09 +5.55406503194E-01 -2.67888798919E-01 -4.15061782283E-03 -4.83193443065E-04 -4.09470910729E-03 -6.38065709295E-04 +6.92747197392E-01 -8.76602273250E-02
2.84500000000E+09 +5.32948176096E-01 -2.88007871958E-01 -4.17755383856E-03 -1.56896092072E-04 -4.24820224462E-03 -1.68938094147E-04 +6.80502731879E-01 -1.08401988018E-01
2.85000000000E+09 +5.08253949382E-01 -3.08388878449E-01 -4.40591946416E-03 +1.17621590616E-04 -4.35840963810E-03 +9.27716625869E-05 +6.66913678586E-01 -1.29412440635E-01
2.85500000000E+09 +4.83068330421E-01 -3.28392241235E-01 -4.94363627123E-03 +6.02132774377E-04 -4.89279949348E-03 +6.18514372225E-04 +6.51544066257E-01 -1.50359216670E-01
2.86000000000E+09 +4.57733676973E-01 -3.47148465419E-01 -5.04555281734E-03 +1.53934938444E-03 -4.98764395437E-03 +1.48062509427E-03 +6.35088802316E-01 -1.69866330811E-01
2.86500000000E+09 +4.33546727478E-01 -3.63671007383E-01 -5.09190401591E-03 +2.15043585339E-03 -5.12105615899E-03 +2.05804705877E-03 +6.18688903028E-01 -1.90433066435E-01
2.87000000000E+09 +4.10498158559E-01 -3.78661796298E-01 -5.15130195702E-03 +3.05151624483E-03 -5.12054963147E-03 +3.07745270021E-03 +5.99976217076E-01 -2.11002790344E-01
2.87500000000E+09 +3.87938476488E-01 -3.91424052326E-01 -4.82934433564E-03 +4.03944847928E-03 -4.70884609672E-03 +4.11827753528E-03 +5.79068268430E-01 -2.30740091785E-01
2.88000000000E+09 +3.65464012094E-01 -4.03163063041E-01 -4.30531187978E-03 +4.57949756099E-03 -3.98000638497E-03 +4.52120148208E-03 +5.57980851865E-01 -2.49156556890E-01
2.88500000000E+09 +3.40503347600E-01 -4.13589932596E-01 -4.20036672536E-03 +5.47025934304E-03 -3.92475115347E-03 +5.16668306985E-03 +5.35430943171E-01 -2.67722277553E-01
2.89000000000E+09 +3.13343051087E-01 -4.22203483458E-01 -3.30355442984E-03 +6.56389996742E-03 -3.24190256043E-03 +6.10227235138E-03 +5.10974849913E-01 -2.86388924861E-01
2.89500000000E+09 +2.83591170713E-01 -4.29561432527E-01 -2.32355585221E-03 +6.90693228489E-03 -2.59239492798E-03 +6.55524800938E-03 +4.83509214924E-01 -3.04707890552E-01
2.90000000000E+09 +2.51860912802E-01 -4.35912455219E-01 -1.71296908918E-03 +7.24225589205E-03 -1.94744744138E-03 +7.24658755940E-03 +4.55311343250E-01 -3.20438315167E-01
2.90500000000E+09 +2.17333057734E-01 -4.41574294082E-01 -8.52502424979E-04 +8.05131677553E-03 -8.81181058567E-04 +8.11304211221E-03 +4.26025532465E-01 -3.36130075827E-01
2.91000000000E+09 +1.81733712555E-01 -4.45411224594E-01 +3.20382666572E-04 +8.19647068172E-03 +5.09786466972E-04 +8.19084333304E-03 +3.95861163978E-01 -3.50043144539E-01
2.91500000000E+09 +1.46195380564E-01 -4.48136377127E-01 +1.41111888737E-03 +8.94520089303E-03 +1.54094132534E-03 +8.48897460836E-03 +3.64314457436E-01 -3.62422061276E-01
2.92000000000E+09 +1.10527477691E-01 -4.48921945065E-01 +3.42513751552E-03 +8.97858233817E-03 +3.09478670135E-03 +8.49408101670E-03 +3.31104466142E-01 -3.73731788902E-01
2.92500000000E+09 +7.59544378087E-02 -4.47921198666E-01 +4.94652905014E-03 +8.25005353507E-03 +4.33251272987E-03 +8.03038125064E-03 +2.95365239269E-01 -3.81536741651E-01
2.93000000000E+09 +4.20270015732E-02 -4.44138623124E-01 +6.12892535105E-03 +7.16487716223E-03 +5.55639170084E-03 +7.37239783237E-03 +2.59218308288E-01 -3.88590581108E-01
2.93500000000E+09 +8.96572781481E-03 -4.37765046021E-01 +6.91343964037E-03 +6.61161453279E-03 +6.65192463905E-03 +6.97204692314E-03 +2.20715937445E-01 -3.93462843308E-01
2.94000000000E+09 -2.39723917103E-02 -4.28327368039E-01 +7.73365386455E-03 +5.73846977763E-03 +7.66512310061E-03 +5.98897585263E-03 +1.81855833113E-01 -3.96840528842E-01
2.94500000000E+09 -5.67415568525E-02 -4.15931253302E-01 +9.18557259737E-03 +5.09685251092E-03 +9.05529146369E-03 +5.27508777872E-03 +1.41474092438E-01 -3.96939710849E-01
2.95000000000E+09 -8.97130563439E-02 -4.01229258957E-01 +1.01860622955E-02 +3.19701393659E-03 +1.00685993207E-02 +3.54941627248E-03 +1.02166424903E-01 -3.94656941804E-01
2.95500000000E+09 -1.24182369017E-01 -3.83285122881E-01 +1.03205574324E-02 +1.54101479168E-03 +1.05535510198E-02 +2.04059991824E-03 +6.24708684103E-02 -3.89448831055E-01
2.96000000000E+09 -1.57887109581E-01 -3.61856730449E-01 +1.02864313064E-02 -8.63552793128E-05 +1.07933861949E-02 +5.19611055758E-05 +2.14461605275E-02 -3.81957931246E-01
2.96500000000E+09 -1.90063770398E-01 -3.37655105182E-01 +1.00872886702E-02 -1.17952615743E-03 +1.04696796054E-02 -1.39447035085E-03 -1.95331456857E-02 -3.69930922115E-01
2.97000000000E+09 -2.20027390150E-01 -3.12502275166E-01 +1.00961783867E-02 -2.20987547266E-03 +1.00192453262E-02 -2.57951765892E-03 -6.01241742403E-02 -3.55768291147E-01
2.97500000000E+09 -2.48223480172E-01 -2.85768765291E-01 +1.05667105816E-02 -3.55813320469E-03 +1.01517774951E-02 -3.64509788072E-03 -1.00207039938E-01 -3.38555299182E-01
2.98000000000E+09 -2.74413859922E-01 -2.58109046101E-01 +9.75376431256E-03 -5.97277592349E-03 +9.60100036421E-03 -5.61443285896E-03 -1.38484355683E-01 -3.18762450737E-01
2.98500000000E+09 -2.98372477802E-01 -2.28283484648E-01 +8.78711548604E-03 -7.16523993662E-03 +9.16217403721E-03 -6.85832474256E-03 -1.75002097555E-01 -2.95946785966E-01
2.99000000000E+09 -3.19010149984E-01 -1.97753600591E-01 +7.33944639584E-03 -8.32661649211E-03 +7.81610199789E-03 -8.64360898366E-03 -2.11015353249E-01 -2.70402548304E-01
2.99500000000E+09 -3.38756128511E-01 -1.66578552250E-01 +6.46960962289E-03 -9.03205121773E-03 +6.43850561110E-03 -9.59252590831E-03 -2.43828443730E-01 -2.40901309295E-01
3.00000000000E+09 -3.57471203149E-01 -1.33444372864E-01 +5.16414707102E-03 -1.01403728897E-02 +4.56707634566E-03 -1.04395219083E-02 -2.75266207956E-01 -2.09127400284E-01
3.00500000000E+09 -3.73127085597E-01 -9.86530615242E-02 +3.77764961728E-03 -1.11762451082E-02 +3.24425519028E-03 -1.08237739834E-02 -3.03650150754E-01 -1.76198817547E-01
3.01000000000E+09 -3.86264125111E-01 -6.45927067130E-02 +1.52413078058E-03 -1.18933628243E-02 +1.54488603349E-03 -1.13547467896E-02 -3.31269335108E-01 -1.40975648378E-01
3.01500000000E+09 -3.98387839169E-01 -3.08448116041E-02 -6.37469042473E-04 -1.14580409587E-02 -3.32509986166E-04 -1.11263324498E-02 -3.54665037412E-01 -1.04784923362E-01
3.02000000000E+09 -4.07379332533E-01 +3.12088568080E-03 -1.91160759603E-03 -1.03711357605E-02 -1.57451196547E-03 -1.03536226532E-02 -3.75558117067E-01 -6.64556998351E-02
3.02500000000E+09 -4.13173609758E-01 +3.56566140877E-02 -2.60465495277E-03 -1.08345438019E-02 -2.51347566296E-03 -1.08536176195E-02 -3.91818758574E-01 -2.81966389128E-02
3.03000000000E+09 -4.16152958796E-01 +6.76700851145E-02 -4.86130575913E-03 -1.01517881734E-02 -4.69478928184E-03 -9.99795591626E-03 -4.06319349671E-01 +1.13670807659E-02
3.03500000000E+09 -4.15802617110E-01 +9.87012662367E-02 -6.08152409150E-03 -9.43090601657E-03 -5.73331292932E-03 -9.61201951720E-03 -4.17544845614E-01 +5.06304146137E-02
3.04000000000E+09 -4.12648332265E-01 +1.30184380508E-01 -7.79961843075E-03 -7.58065705217E-03 -7.65814977079E-03 -8.11951650836E-03 -4.26130375046E-01 +9.14532256077E-02
3.04500000000E+09 -4.05881129277E-01 +1.61733416628E-01 -7.87331686220E-03 -6.19220257635E-03 -8.10438437651E-03 -6.72003144543E-03 -4.31049009860E-01 +1.30909774884E-01
3.05000000000E+09 -3.97459005289E-01 +1.93921977368E-01 -8.38997988275E-03 -5.16217794247E-03 -9.00309940127E-03 -5.25263817330E-03 -4.34065102055E-01 +1.69717250153E-01
3.05500000000E+09 -3.86026707259E-01 +2.27923455148E-01 -8.88752148494E-03 -4.26267326833E-03 -9.31791455112E-03 -3.76122980943E-03 -4.35055312153E-01 +2.07604123894E-01
3.06000000000E+09 -3.72518482239E-01 +2.60402800230E-01 -9.52074312383E-03 -3.02657155532E-03 -9.29498375256E-03 -2.43710905817E-03 -4.33096536738E-01 +2.44317175753E-01
3.06500000000E+09 -3.58506460742E-01 +2.92816768306E-01 -9.91898051052E-03 -1.24199893622E-03 -9.29158706606E-03 -1.20359569070E-03 -4.30704878765E-01 +2.80778028111E-01
3.07000000000E+09 -3.43529951574E-01 +3.22887040824E-01 -9.34635519305E-03 +3.32522114355E-04 -9.12477233038E-03 -2.08128629009E-04 -4.24154754201E-01 +3.17567908082E-01
