# Hz S RI R 50
! CMT, C1220, 16058040, 17.2.0/1
! Date: 15/08/2018 10:52:32
! Data: Format (Calibration Info)
! Freq                      S11: Re/Im (F2)                       S21: Re/Im (F2)                       S12: Re/Im (F2)                       S22: Re/Im (F2)            
2.50000000000E+09 +5.80181679280E-01 +6.52350877731E-01 -9.24875274154E-04 +6.70203669247E-04 -1.03779648186E-03 +7.22795277785E-04 +5.61457712621E-01 +7.26834461764E-01
2.50500000000E+09 +5.87749970816E-01 +6.43341838149E-01 -8.65043742493E-04 +7.92788137944E-04 -8.71775657602E-04 +8.50928174975E-04 +5.67385755005E-01 +7.21388139737E-01
2.51000000000E+09 +5.96125617860E-01 +6.33938473828E-01 -7.65762555495E-04 +8.48145956074E-04 -7.27242722656E-04 +8.62248982364E-04 +5.73215785770E-01 +7.16007563068E-01
2.51500000000E+09 +6.04533870885E-01 +6.25053719609E-01 -6.92409867158E-04 +9.59589714582E-04 -6.58041031381E-04 +9.33346268894E-04 +5.78585138297E-01 +7.10304018586E-01
2.52000000000E+09 +6.12178655187E-01 +6.16664744088E-01 -5.30964151320E-04 +9.79837681610E-04 -5.62566928160E-04 +9.41911808029E-04 +5.83653650504E-01 +7.04024694913E-01
2.52500000000E+09 +6.18310445590E-01 +6.09706936063E-01 -4.26991196285E-04 +9.80901847878E-04 -4.78333318334E-04 +1.00065616052E-03 +5.89008324684E-01 +6.97595350225E-01
2.53000000000E+09 +6.23203204005E-01 +6.03438853933E-01 -4.29859263684E-04 +1.04844756250E-03 -4.23297805660E-04 +1.07969632536E-03 +5.94972768924E-01 +6.90778928430E-01
2.53500000000E+09 +6.27039683465E-01 +5.97951944515E-01 -3.44654856877E-04 +1.15483749365E-03 -3.26408088897E-04 +1.12863978364E-03 +6.00957432641E-01 +6.84323465474E-01
2.54000000000E+09 +6.30107284705E-01 +5.92313727016E-01 -1.53843121130E-04 +1.22614608446E-03 -1.84892566437E-04 +1.25227015223E-03 +6.06831774794E-01 +6.77949431473E-01
2.54500000000E+09 +6.33152840808E-01 +5.86297108763E-01 +3.02819718948E-05 +1.28714163399E-03 -6.24772557756E-05 +1.27715245163E-03 +6.12634103033E-01 +6.71779189084E-01
2.55000000000E+09 +6.36978671988E-01 +5.79321372614E-01 +2.45093838549E-04 +1.21094554494E-03 +1.62262772212E-04 +1.32094533736E-03 +6.17894187413E-01 +6.65725351350E-01
2.55500000000E+09 +6.42040720489E-01 +5.70787224814E-01 +3.85041188075E-04 +1.04786481863E-03 +3.73586030006E-04 +1.26538391234E-03 +6.23021254144E-01 +6.59346178565E-01
2.56000000000E+09 +6.48626388088E-01 +5.61726817792E-01 +3.19498695525E-04 +9.99933707937E-04 +4.79828168754E-04 +1.10627335514E-03 +6.28085720876E-01 +6.52321418763E-01
2.56500000000E+09 +6.56588781864E-01 +5.51456478820E-01 +3.64921850810E-04 +1.04054070140E-03 +6.50352829750E-04 +1.07664416366E-03 +6.33514788811E-01 +6.45214377628E-01
2.57000000000E+09 +6.64960208602E-01 +5.40993993923E-01 +5.14776628439E-04 +1.01397909668E-03 +7.01280960313E-04 +8.64303469090E-04 +6.38987901389E-01 +6.37781122745E-01
2.57500000000E+09 +6.73108718140E-01 +5.30905096438E-01 +6.31871124770E-04 +1.01492115621E-03 +7.12855935517E-04 +7.56537611931E-04 +6.44815055300E-01 +6.30222090147E-01
2.58000000000E+09 +6.80091209472E-01 +5.21851220584E-01 +7.95220150835E-04 +8.77347758023E-04 +7.68041341541E-04 +7.15476088674E-04 +6.50188307428E-01 +6.22775881572E-01
2.58500000000E+09 +6.85719792108E-01 +5.13576118219E-01 +9.32101292728E-04 +6.93270571720E-04 +7.93037122435E-04 +6.13084730401E-04 +6.55605958313E-01 +6.15065008531E-01
2.59000000000E+09 +6.89988094221E-01 +5.06218639940E-01 +8.67563959198E-04 +5.64863270228E-04 +7.31627393139E-04 +5.96936503634E-04 +6.60442838994E-01 +6.07371735252E-01
2.59500000000E+09 +6.92751943609E-01 +4.98841300025E-01 +8.60927579726E-04 +5.91262764571E-04 +8.82244759395E-04 +6.11385516767E-04 +6.65472569116E-01 +5.99360847036E-01
2.60000000000E+09 +6.94737952351E-01 +4.90822832296E-01 +1.00021995890E-03 +4.62828644162E-04 +1.04216485452E-03 +4.54804407905E-04 +6.70805095883E-01 +5.90990766202E-01
2.60500000000E+09 +6.96841009414E-01 +4.81358465463E-01 +9.97619835760E-04 +2.04739156465E-04 +1.02543658692E-03 +2.89948069479E-04 +6.76404695178E-01 +5.82393181657E-01
2.61000000000E+09 +6.99265991286E-01 +4.69782555401E-01 +9.45174128950E-04 +1.63247236817E-04 +8.78557480806E-04 +1.51572475620E-04 +6.81756677646E-01 +5.73308345823E-01
2.61500000000E+09 +7.03062121654E-01 +4.56210240905E-01 +9.12877473425E-04 +1.53067746078E-04 +9.23845629049E-04 +1.52103968202E-04 +6.86659764882E-01 +5.64516024424E-01
2.62000000000E+09 +7.07511487952E-01 +4.40507277138E-01 +9.16443925030E-04 -9.37784037226E-06 +9.51091175168E-04 -2.96463867601E-05 +6.91314688381E-01 +5.55606316710E-01
2.62500000000E+09 +7.12785856843E-01 +4.23669257021E-01 +8.17271450537E-04 +3.04909760493E-05 +8.48182979981E-04 +1.64358156266E-06 +6.96151653115E-01 +5.46988513634E-01
2.63000000000E+09 +7.18357766532E-01 +4.06802361510E-01 +8.90926860367E-04 +4.89030552500E-05 +8.97195463237E-04 -3.26067909521E-05 +7.00943515829E-01 +5.37864658813E-01
2.63500000000E+09 +7.23540169474E-01 +3.90812637426E-01 +1.03120168472E-03 -2.48084206744E-04 +9.00181069969E-04 -2.46601493593E-04 +7.05597708564E-01 +5.28562358095E-01
2.64000000000E+09 +7.27918992085E-01 +3.76629210224E-01 +8.51627666154E-04 -3.72164592651E-04 +7.40638220494E-04 -3.21992400442E-04 +7.10171142492E-01 +5.18925271453E-01
2.64500000000E+09 +7.31417731830E-01 +3.64700549946E-01 +6.54191851609E-04 -4.24949649165E-04 +6.33065815333E-04 -3.16207232108E-04 +7.14686072786E-01 +5.09447800165E-01
2.65000000000E+09 +7.33653225269E-01 +3.54706346921E-01 +5.69084672160E-04 -3.59299866927E-04 +5.51792158439E-04 -2.51565013355E-04 +7.19187984170E-01 +4.99581103038E-01
2.65500000000E+09 +7.35283016158E-01 +3.45616682618E-01 +4.61026867530E-04 -3.05964154732E-04 +5.55060953500E-04 -2.26380944090E-04 +7.23299717858E-01 +4.88896834468E-01
2.66000000000E+09 +7.36528358441E-01 +3.36608040494E-01 +5.08873087116E-04 -2.11438482704E-04 +5.76791445271E-04 -2.34154949906E-04 +7.27280131768E-01 +4.77780099716E-01
2.66500000000E+09 +7.37638674197E-01 +3.26872790751E-01 +5.37358942020E-04 -3.06107227231E-04 +5.12005227503E-04 -2.62392490432E-04 +7.31365987445E-01 +4.66835065850E-01
2.67000000000E+09 +7.38799299599E-01 +3.14864645541E-01 +5.33651377269E-04 -1.80264463758E-04 +4.60361108979E-04 -2.10140663163E-04 +7.35810258249E-01 +4.56133418286E-01
2.67500000000E+09 +7.39888327947E-01 +3.00782401151E-01 +6.09313419900E-04 -1.68968698682E-04 +5.70801719503E-04 -2.17570577299E-04 +7.40145512505E-01 +4.45204754142E-01
2.68000000000E+09 +7.41040690781E-01 +2.84917000723E-01 +6.48161649108E-04 -3.39810201551E-04 +6.35057038228E-04 -2.45388615918E-04 +7.44258079500E-01 +4.34172437171E-01
2.68500000000E+09 +7.42479578090E-01 +2.68109972260E-01 +5.05440551479E-04 -3.55282524139E-04 +5.22875781629E-04 -3.50920636973E-04 +7.47608434817E-01 +4.22586576611E-01
2.69000000000E+09 +7.43786216684E-01 +2.50674080804E-01 +5.25267941608E-04 -2.36623342845E-04 +5.09535507115E-04 -2.42339084444E-04 +7.50380814078E-01 +4.10720324253E-01
2.69500000000E+09 +7.44875007276E-01 +2.34175629553E-01 +6.68808859955E-04 -1.20263186621E-04 +6.57629786074E-04 -1.17186837860E-04 +7.53277205542E-01 +3.98272560001E-01
2.70000000000E+09 +7.45992834394E-01 +2.18644529429E-01 +8.72618368285E-04 -2.13917828186E-04 +8.26257379717E-04 -2.37196162430E-04 +7.56257878371E-01 +3.85253061185E-01
2.70500000000E+09 +7.46432362634E-01 +2.04586394320E-01 +1.00770990686E-03 -4.32964996845E-04 +9.89086735807E-04 -3.93335146272E-04 +7.59524504520E-01 +3.71796910512E-01
2.71000000000E+09 +7.46705578845E-01 +1.91543432979E-01 +8.86030718226E-04 -7.45242127613E-04 +9.07252633945E-04 -6.74635711581E-04 +7.62232130674E-01 +3.58370202723E-01
2.71500000000E+09 +7.46896272134E-01 +1.78729071986E-01 +8.58926768810E-04 -7.85456933516E-04 +9.03654661934E-04 -8.02492871186E-04 +7.64493415865E-01 +3.46100259246E-01
2.72000000000E+09 +7.46479842414E-01 +1.65761893634E-01 +7.65655556679E-04 -9.59191537524E-04 +8.06292580052E-04 -1.07784532773E-03 +7.66749217830E-01 +3.33541903951E-01
2.72500000000E+09 +7.46089574229E-01 +1.51813173787E-01 +5.65319807373E-04 -9.35769070172E-04 +4.91146347103E-04 -9.69970559296E-04 +7.67863192364E-01 +3.20076149959E-01
2.73000000000E+09 +7.45012609344E-01 +1.36099074433E-01 +6.99495415069E-04 -8.39626985720E-04 +5.60346902112E-04 -8.20623383473E-04 +7.69272981673E-01 +3.06030307248E-01
2.73500000000E+09 +7.43315139235E-01 +1.18399061989E-01 +6.97000571232E-04 -1.08524537793E-03 +6.40857567140E-04 -9.93389968336E-04 +7.69841481455E-01 +2.91342000017E-01
2.74000000000E+09 +7.40753133028E-01 +1.00037592714E-01 +5.87238073199E-04 -1.22898097146E-03 +6.18693055472E-04 -1.10490598774E-03 +7.71269211290E-01 +2.76897744173E-01
2.74500000000E+09 +7.37157129726E-01 +8.08043358891E-02 +3.78550634132E-04 -1.33031131214E-03 +5.55154990770E-04 -1.25161461681E-03 +7.72805655075E-01 +2.62203700801E-01
2.75000000000E+09 +7.32279972734E-01 +6.21571579483E-02 +4.95327194645E-04 -1.26939400112E-03 +6.11917140031E-04 -1.23108365250E-03 +7.74144209196E-01 +2.47084539451E-01
2.75500000000E+09 +7.26998833976E-01 +4.44791955293E-02 +3.86374937982E-04 -1.62213442463E-03 +5.33887860512E-04 -1.76562583854E-03 +7.74456428939E-01 +2.32091024703E-01
2.76000000000E+09 +7.21930864436E-01 +2.73860505044E-02 +1.06840861378E-04 -1.65847480958E-03 +1.44059055017E-04 -1.84746568431E-03 +7.74203186139E-01 +2.16593875641E-01
2.76500000000E+09 +7.16347511962E-01 +1.07809316079E-02 -1.50217336165E-04 -1.83888905873E-03 -2.37963926462E-04 -1.88479731847E-03 +7.73395574555E-01 +2.00552508515E-01
2.77000000000E+09 +7.10760750196E-01 -6.23987830901E-03 -4.98561585364E-04 -1.60036421579E-03 -5.24472299737E-04 -1.64229102823E-03 +7.73004956607E-01 +1.83673913848E-01
2.77500000000E+09 +7.04853451962E-01 -2.42708689439E-02 -3.89804232047E-04 -1.16707673095E-03 -4.35774625105E-04 -1.14887682599E-03 +7.71838489009E-01 +1.65670917203E-01
2.78000000000E+09 +6.98658340710E-01 -4.33858854371E-02 +8.94383986286E-05 -1.41891005834E-03 +9.49643049542E-07 -1.47143115200E-03 +7.70480817564E-01 +1.47759940424E-01
2.78500000000E+09 +6.91817154084E-01 -6.37961857977E-02 -9.83688966638E-05 -1.84808652522E-03 -2.20684777605E-04 -1.83594628746E-03 +7.68429886008E-01 +1.29734486824E-01
2.79000000000E+09 +6.84656668614E-01 -8.57142994446E-02 -4.56581565398E-04 -2.02740086603E-03 -4.99009584191E-04 -1.87336881905E-03 +7.65453337995E-01 +1.12454255222E-01
2.79500000000E+09 +6.76288093580E-01 -1.07736810396E-01 -5.62361210424E-04 -2.20023138366E-03 -5.63602820950E-04 -2.05552243922E-03 +7.62151251860E-01 +9.44383187774E-02
2.80000000000E+09 +6.67515355883E-01 -1.29239107247E-01 -9.96952545500E-04 -2.24735364424E-03 -9.74009131539E-04 -2.16723948143E-03 +7.57702867850E-01 +7.54832429486E-02
2.80500000000E+09 +6.57987446075E-01 -1.49738081669E-01 -1.11845413437E-03 -2.14668427201E-03 -9.87916796724E-04 -2.14134135142E-03 +7.52242059596E-01 +5.58493469080E-02
2.81000000000E+09 +6.46988602454E-01 -1.68025859252E-01 -1.42321047213E-03 -2.54816757498E-03 -1.44385685771E-03 -2.64925045736E-03 +7.45629231843E-01 +3.64761297910E-02
2.81500000000E+09 +6.35683605282E-01 -1.84054376351E-01 -2.06136058612E-03 -2.43339352768E-03 -2.15975063864E-03 -2.42553368288E-03 +7.39424120079E-01 +1.66922562277E-02
2.82000000000E+09 +6.23689697006E-01 -1.99312280655E-01 -2.43164546375E-03 -2.30508531430E-03 -2.48251717021E-03 -2.17531888493E-03 +7.32264493512E-01 -3.95239928596E-03
2.82500000000E+09 +6.09511067498E-01 -2.13998713286E-01 -2.90176683429E-03 -2.14287458290E-03 -2.84113203839E-03 -1.95589585228E-03 +7.23796230918E-01 -2.45538312730E-02
2.83000000000E+09 +5.93779068862E-01 -2.28647659250E-01 -3.36340352784E-03 -1.97204364763E-03 -3.11794082095E-03 -1.83290098378E-03 +7.13959893562E-01 -4.45500814970E-02
2.83500000000E+09 +5.76754063979E-01 -2.44851029907E-01 -3.97112138796E-03 -1.51383484126E-03 -3.74207787018E-03 -1.57167289025E-03 +7.03805637352E-01 -6.47904620438E-02
2.84000000000E+09 +5.56840820747E-01 -2.63252949996E-01 -4.25484294749E-03 -8.87525872961E-04 -4.17730308424E-03 -1.10256768802E-03 +6.92468911577E-01 -8.49813951921E-02
2.84500000000E+09 +5.34420061868E-01 -2.82758167978E-01 -4.38371726993E-03 -3.64049898539E-04 -4.42436173704E-03 -4.72956392720E-04 +6.80344126806E-01 -1.05551475769E-01
2.85000000000E+09 +5.10493080529E-01 -3.03272684967E-01 -4.51235411602E-03 -1.30157096516E-04 -4.49089982250E-03 -1.67357908974E-04 +6.66920172453E-01 -1.26391949313E-01
2.85500000000E+09 +4.85060704143E-01 -3.23287667905E-01 -5.14262737612E-03 +4.21432830828E-04 -5.12167347138E-03 +4.84456788531E-04 +6.51760043922E-01 -1.47237623357E-01
2.86000000000E+09 +4.60211429909E-01 -3.41547751824E-01 -4.99512388087E-03 +1.30990369106E-03 -4.94638267031E-03 +1.29940658542E-03 +6.35598921608E-01 -1.66910776337E-01
2.86500000000E+09 +4.36320971036E-01 -3.58044998558E-01 -5.25822592956E-03 +1.85202685106E-03 -5.32485644199E-03 +1.74172153536E-03 +6.19132693823E-01 -1.87477047223E-01
2.87000000000E+09 +4.13500980654E-01 -3.73044507734E-01 -5.31889933861E-03 +3.02709543656E-03 -5.32902191202E-03 +3.01343710926E-03 +6.00604376002E-01 -2.07916810330E-01
2.87500000000E+09 +3.90736745396E-01 -3.85749304512E-01 -4.92398974202E-03 +3.90326826751E-03 -4.81428339493E-03 +3.99058044814E-03 +5.80071430983E-01 -2.27501960122E-01
2.88000000000E+09 +3.68138698090E-01 -3.96859741408E-01 -4.44718350104E-03 +4.39803662149E-03 -4.17326791149E-03 +4.42923001929E-03 +5.59456508693E-01 -2.46048023610E-01
2.88500000000E+09 +3.43666701835E-01 -4.06534043890E-01 -4.26917941299E-03 +5.27422982744E-03 -3.94569897232E-03 +5.05236235355E-03 +5.37348812835E-01 -2.64922754815E-01
2.89000000000E+09 +3.17373976691E-01 -4.15391797608E-01 -3.49387728835E-03 +6.34973906139E-03 -3.38228542887E-03 +5.91605194543E-03 +5.12931203271E-01 -2.83826080542E-01
2.89500000000E+09 +2.87579312435E-01 -4.22633945870E-01 -2.45078255477E-03 +6.61256297477E-03 -2.66585481428E-03 +6.29290306702E-03 +4.85896731217E-01 -3.02191212782E-01
2.90000000000E+09 +2.56291028686E-01 -4.28927547059E-01 -2.04189937579E-03 +7.02873846515E-03 -2.26346861589E-03 +7.03854798135E-03 +4.57796836889E-01 -3.18027866584E-01
2.90500000000E+09 +2.21995667911E-01 -4.34828887333E-01 -1.02685727940E-03 +7.79155399697E-03 -1.10996164219E-03 +7.90274626827E-03 +4.29030170556E-01 -3.33808377824E-01
2.91000000000E+09 +1.86223528382E-01 -4.38297769409E-01 -1.30239943605E-04 +7.98250809591E-03 +9.53928583322E-05 +7.93631697187E-03 +3.99249892192E-01 -3.48642298722E-01
2.91500000000E+09 +1.51426875557E-01 -4.40729464463E-01 +1.07349402200E-03 +8.89822078081E-03 +1.18696050615E-03 +8.51848532499E-03 +3.67544094569E-01 -3.61584755392E-01
2.92000000000E+09 +1.16319433406E-01 -4.41620835854E-01 +2.97310090024E-03 +8.81792417997E-03 +2.72234310296E-03 +8.26894450516E-03 +3.34313979123E-01 -3.73345284399E-01
2.92500000000E+09 +8.22652468968E-02 -4.40853083508E-01 +4.29872461514E-03 +8.30568965669E-03 +3.67236164264E-03 +8.08141500247E-03 +2.98514847585E-01 -3.81598141660E-01
2.93000000000E+09 +4.91597726422E-02 -4.37108754153E-01 +5.60987265862E-03 +7.49915191862E-03 +5.07911426575E-03 +7.61846292933E-03 +2.62414720509E-01 -3.88888181000E-01
2.93500000000E+09 +1.69000199372E-02 -4.31311194558E-01 +6.64938255868E-03 +6.90383256823E-03 +6.35503854775E-03 +7.27573475830E-03 +2.23863472462E-01 -3.94235256454E-01
2.94000000000E+09 -1.57286043966E-02 -4.22664335883E-01 +7.61855736201E-03 +6.13644116138E-03 +7.46756372553E-03 +6.33162416671E-03 +1.84655479941E-01 -3.98021606267E-01
2.94500000000E+09 -4.76489024194E-02 -4.10628813061E-01 +8.98937117299E-03 +5.06593912673E-03 +8.80119650902E-03 +5.33095653390E-03 +1.43872480174E-01 -3.98390307964E-01
2.95000000000E+09 -8.02493837386E-02 -3.96994508382E-01 +9.68620028019E-03 +3.62544895553E-03 +9.58307048056E-03 +3.99874677452E-03 +1.04312549914E-01 -3.96154634323E-01
2.95500000000E+09 -1.14429389551E-01 -3.79908382163E-01 +1.03605671032E-02 +1.97440371252E-03 +1.05020396887E-02 +2.42131304023E-03 +6.43642095578E-02 -3.91458760351E-01
2.96000000000E+09 -1.47681711055E-01 -3.58758138230E-01 +1.01881902324E-02 +3.11125384946E-04 +1.06237511029E-02 +4.83572384086E-04 +2.30339826927E-02 -3.84514281970E-01
2.96500000000E+09 -1.78935626403E-01 -3.36237867450E-01 +1.01046153804E-02 -5.53996587525E-04 +1.04892626457E-02 -8.28626549444E-04 -1.89120575419E-02 -3.72512132098E-01
2.97000000000E+09 -2.09036583661E-01 -3.12354482565E-01 +1.04137398836E-02 -1.72562335035E-03 +1.03134399682E-02 -2.00888371459E-03 -5.98042181673E-02 -3.57749299755E-01
2.97500000000E+09 -2.37017737902E-01 -2.87234333199E-01 +1.09289128069E-02 -3.64433526257E-03 +1.05326019342E-02 -3.57178060681E-03 -9.94607538220E-02 -3.40296124840E-01
2.98000000000E+09 -2.63905713338E-01 -2.61404642824E-01 +9.85688623799E-03 -5.89756936726E-03 +9.79056050489E-03 -5.47600062275E-03 -1.37744219203E-01 -3.20898093095E-01
2.98500000000E+09 -2.89053327076E-01 -2.32741791915E-01 +8.71362259338E-03 -7.27306435410E-03 +9.08521502188E-03 -7.00633172539E-03 -1.74744572896E-01 -2.98417018485E-01
2.99000000000E+09 -3.11090519210E-01 -2.02355799919E-01 +7.27067880765E-03 -8.04819386066E-03 +7.69834973080E-03 -8.25440840453E-03 -2.11581283402E-01 -2.72778523030E-01
2.99500000000E+09 -3.30903737755E-01 -1.71699591608E-01 +6.38948655606E-03 -8.88719210060E-03 +6.44416673704E-03 -9.47193230872E-03 -2.44671682710E-01 -2.42999029715E-01
3.00000000000E+09 -3.50712491014E-01 -1.39423850310E-01 +5.22459973178E-03 -9.72531336101E-03 +4.75529399439E-03 -1.00490804254E-02 -2.76198529300E-01 -2.11073711540E-01
3.00500000000E+09 -3.67554673418E-01 -1.04950684792E-01 +4.02447457665E-03 -1.10859054129E-02 +3.48357861002E-03 -1.07868408918E-02 -3.04322249205E-01 -1.78167161096E-01
3.01000000000E+09 -3.81671024678E-01 -7.09191576034E-02 +1.46527557795E-03 -1.20094089869E-02 +1.47876083811E-03 -1.14746937318E-02 -3.32205126529E-01 -1.43283599108E-01
3.01500000000E+09 -3.94273135611E-01 -3.75356880913E-02 -6.76731026554E-04 -1.11718786374E-02 -3.68960982217E-04 -1.09258557589E-02 -3.56312515447E-01 -1.06965198089E-01
3.02000000000E+09 -4.04434386203E-01 -4.19514689341E-03 -1.78861016939E-03 -1.03917826658E-02 -1.55351097415E-03 -1.04352079934E-02 -3.77548907658E-01 -6.80015743387E-02
3.02500000000E+09 -4.11933906061E-01 +2.81585162450E-02 -2.92887505414E-03 -1.04942924072E-02 -2.87442332562E-03 -1.04990850900E-02 -3.93907555596E-01 -2.92375542549E-02
3.03000000000E+09 -4.16008677224E-01 +6.05687189966E-02 -4.57268607889E-03 -9.44753240865E-03 -4.52479202729E-03 -9.38408606565E-03 -4.08414228327E-01 +1.08053410647E-02
3.03500000000E+09 -4.16465642627E-01 +9.21768715605E-02 -5.73563767674E-03 -9.22691760346E-03 -5.39190688942E-03 -9.33730090117E-03 -4.19274915048E-01 +5.04311808435E-02
3.04000000000E+09 -4.13709172296E-01 +1.23524671418E-01 -7.51006514764E-03 -7.48498407558E-03 -7.38239944226E-03 -7.95639797194E-03 -4.27639606022E-01 +9.10738568273E-02
3.04500000000E+09 -4.08260230701E-01 +1.54701199088E-01 -7.58902384008E-03 -5.99850433616E-03 -7.90971052726E-03 -6.47877770167E-03 -4.32741936169E-01 +1.30568110405E-01
3.05000000000E+09 -4.01137239425E-01 +1.87385160176E-01 -8.09548974462E-03 -5.05061627365E-03 -8.75367280373E-03 -5.01027088639E-03 -4.35488866287E-01 +1.69549463088E-01
3.05500000000E+09 -3.90809073850E-01 +2.21450081249E-01 -8.53330861035E-03 -4.15099603290E-03 -8.83958912714E-03 -3.62036975896E-03 -4.35992503755E-01 +2.07395294912E-01
3.06000000000E+09 -3.78866890682E-01 +2.54880688079E-01 -9.26202792641E-03 -3.08250166637E-03 -9.02424077721E-03 -2.50834446275E-03 -4.34142951201E-01 +2.44057720563E-01
3.06500000000E+09 -3.65635020226E-01 +2.88296620786E-01 -9.69045570854E-03 -1.06305602963E-03 -9.11857063492E-03 -9.73340000517E-04 -4.31654023920E-01 +2.80689976551E-01
3.07000000000E+09 -3.51568697937E-01 +3.19224035399E-01 -8.85228298048E-03 +4.34642878857E-04 -8.58101411933E-03 -6.68437912350E-05 -4.24864295883E-01 +3.17307642800E-01
