# Hz S RI R 50
! CMT, C1220, 16058040, 17.2.0/1
! Date: 15/08/2018 10:48:38
! Data: Format (Calibration Info)
! Freq                      S11: Re/Im (F2)                       S21: Re/Im (F2)                       S12: Re/Im (F2)                       S22: Re/Im (F2)            
2.50000000000E+09 +5.80941841478E-01 +6.46911618032E-01 -1.08609178516E-03 +6.97470472215E-04 -1.17771814642E-03 +7.67858928199E-04 +5.63384159500E-01 +7.25516496331E-01
2.50500000000E+09 +5.88312085583E-01 +6.37851949971E-01 -9.69694573446E-04 +8.01212691052E-04 -9.76086074324E-04 +8.86680213156E-04 +5.69152031303E-01 +7.19980342991E-01
2.51000000000E+09 +5.96658585444E-01 +6.28335321563E-01 -9.71495626118E-04 +8.46702742860E-04 -9.45882476544E-04 +9.01212742609E-04 +5.74970666228E-01 +7.14662731452E-01
2.51500000000E+09 +6.04941681900E-01 +6.19537678370E-01 -8.81050146365E-04 +9.86445007492E-04 -8.40996187730E-04 +9.99334576128E-04 +5.80186514113E-01 +7.08963102067E-01
2.52000000000E+09 +6.12394391127E-01 +6.10935742466E-01 -6.85270556774E-04 +1.11698230021E-03 -7.06126487731E-04 +1.03714821602E-03 +5.85288292286E-01 +7.02785896486E-01
2.52500000000E+09 +6.18479745688E-01 +6.03815688332E-01 -5.98327143365E-04 +1.06252011660E-03 -6.14609239375E-04 +1.07399396375E-03 +5.90664897957E-01 +6.96276245060E-01
2.53000000000E+09 +6.23353672461E-01 +5.97738109130E-01 -5.06711211592E-04 +1.13562308398E-03 -6.16642296402E-04 +1.13677380888E-03 +5.96626373539E-01 +6.89396559362E-01
2.53500000000E+09 +6.27006642370E-01 +5.92236003401E-01 -5.18895686522E-04 +1.23153183515E-03 -4.97603275298E-04 +1.22386727299E-03 +6.02668149248E-01 +6.82921423895E-01
2.54000000000E+09 +6.29850140859E-01 +5.86412928632E-01 -4.27101097643E-04 +1.36357547166E-03 -4.47491991598E-04 +1.35951285223E-03 +6.08590692020E-01 +6.76594808871E-01
2.54500000000E+09 +6.32735216597E-01 +5.80473494907E-01 -1.41724230696E-04 +1.52488212284E-03 -2.52016569563E-04 +1.50083365096E-03 +6.14428171389E-01 +6.70436730099E-01
2.55000000000E+09 +6.36531938051E-01 +5.73612660297E-01 +1.66291092815E-04 +1.44213720225E-03 +2.27795145747E-05 +1.56777985179E-03 +6.19689220980E-01 +6.64400846516E-01
2.55500000000E+09 +6.41583772070E-01 +5.65158722211E-01 +2.77415538717E-04 +1.21687945960E-03 +2.67702721016E-04 +1.43052163957E-03 +6.24784699488E-01 +6.58174549037E-01
2.56000000000E+09 +6.48194951574E-01 +5.56046483761E-01 +2.44764366766E-04 +1.13164102349E-03 +3.89179486992E-04 +1.31352013582E-03 +6.29729319013E-01 +6.50928534864E-01
2.56500000000E+09 +6.55997542427E-01 +5.45770613215E-01 +2.49982352659E-04 +1.22873492963E-03 +5.57201530509E-04 +1.30398687752E-03 +6.34948711781E-01 +6.43873091278E-01
2.57000000000E+09 +6.64228556975E-01 +5.35436098520E-01 +4.52951234235E-04 +1.30772882704E-03 +7.04613124068E-04 +1.18295550397E-03 +6.40727105625E-01 +6.36272879164E-01
2.57500000000E+09 +6.72199905607E-01 +5.25238670392E-01 +6.84311222875E-04 +1.30744953134E-03 +8.16776200063E-04 +1.01767352134E-03 +6.46518389323E-01 +6.28790933247E-01
2.58000000000E+09 +6.78873378482E-01 +5.16131262718E-01 +9.39941181044E-04 +1.17714291818E-03 +8.08881026336E-04 +8.98453788648E-04 +6.51932261528E-01 +6.21232466099E-01
2.58500000000E+09 +6.84365581649E-01 +5.07994612973E-01 +9.93004463653E-04 +9.08472312039E-04 +8.54415300607E-04 +8.23869050332E-04 +6.57340966971E-01 +6.13583183502E-01
2.59000000000E+09 +6.88231087809E-01 +5.00587389523E-01 +9.67755844436E-04 +7.23121285808E-04 +8.35978752182E-04 +8.07265755234E-04 +6.62163786858E-01 +6.05893100430E-01
2.59500000000E+09 +6.90970955405E-01 +4.93268327575E-01 +1.00622305668E-03 +8.28642525810E-04 +9.55270126185E-04 +8.60958754796E-04 +6.67105452579E-01 +5.97871942124E-01
2.60000000000E+09 +6.92786925551E-01 +4.85163561079E-01 +1.20079551219E-03 +6.76817271674E-04 +1.20960864576E-03 +6.63727130946E-04 +6.72371598164E-01 +5.89467638635E-01
2.60500000000E+09 +6.94757000570E-01 +4.75596254054E-01 +1.22701880452E-03 +4.07146766408E-04 +1.22068415185E-03 +3.56169980994E-04 +6.78002333820E-01 +5.80750826321E-01
2.61000000000E+09 +6.97163028659E-01 +4.64017609096E-01 +1.07365470818E-03 +2.34017945813E-04 +1.08177194827E-03 +2.93855795398E-04 +6.83371357052E-01 +5.71741826853E-01
2.61500000000E+09 +7.00784295623E-01 +4.50240040061E-01 +1.09301799586E-03 +2.27597158868E-04 +1.07850138064E-03 +2.79021871480E-04 +6.88382306905E-01 +5.62854045784E-01
2.62000000000E+09 +7.04968426590E-01 +4.34672428955E-01 +1.06164363804E-03 +9.74713702147E-05 +1.15836066607E-03 +6.53822360971E-05 +6.92992849108E-01 +5.53885642418E-01
2.62500000000E+09 +7.10318747565E-01 +4.17928936867E-01 +9.32465907071E-04 +1.09624151555E-04 +1.03571875062E-03 +5.50456909884E-06 +6.97827149478E-01 +5.45261186420E-01
2.63000000000E+09 +7.16031459615E-01 +4.01236568032E-01 +1.05853414873E-03 +1.27863665714E-04 +1.03471640058E-03 -1.34426366127E-05 +7.02687797522E-01 +5.36302948648E-01
2.63500000000E+09 +7.21180925604E-01 +3.85269388104E-01 +1.15071238247E-03 -1.13601183076E-04 +1.03943225272E-03 -1.97070694301E-04 +7.07301684491E-01 +5.26829717826E-01
2.64000000000E+09 +7.25488944600E-01 +3.70846248075E-01 +9.70817833264E-04 -1.58997374362E-04 +8.26479245027E-04 -1.67971876146E-04 +7.11838740266E-01 +5.17179205956E-01
2.64500000000E+09 +7.28938350188E-01 +3.59066197900E-01 +9.14992312770E-04 -2.76436024297E-04 +8.79045772473E-04 -2.12348737119E-04 +7.16294637652E-01 +5.07502647390E-01
2.65000000000E+09 +7.30956427939E-01 +3.49020088143E-01 +8.30917239689E-04 -2.34399557164E-04 +8.32159701154E-04 -1.36182969529E-04 +7.20860363028E-01 +4.97470324483E-01
2.65500000000E+09 +7.32610580532E-01 +3.40040160336E-01 +8.39217714867E-04 -2.71101577811E-04 +8.65858263084E-04 -1.96647646359E-04 +7.24929884386E-01 +4.86772736604E-01
2.66000000000E+09 +7.33656954011E-01 +3.31005791031E-01 +7.96638763466E-04 -2.04434773041E-04 +8.61186532605E-04 -2.50421329084E-04 +7.28983805751E-01 +4.75518825507E-01
2.66500000000E+09 +7.34751827047E-01 +3.21075678183E-01 +7.57919664984E-04 -2.09084382435E-04 +8.10119866541E-04 -3.07962169957E-04 +7.33147376945E-01 +4.64506156445E-01
2.67000000000E+09 +7.35744500437E-01 +3.09174216174E-01 +8.17917402490E-04 -1.61232057444E-04 +8.09035182325E-04 -1.82126103308E-04 +7.37424183365E-01 +4.53829871866E-01
2.67500000000E+09 +7.36936048109E-01 +2.95062518833E-01 +1.00846309385E-03 -2.48864630613E-04 +9.67635322079E-04 -1.80949106415E-04 +7.41508061016E-01 +4.42822201892E-01
2.68000000000E+09 +7.38166906009E-01 +2.79178974103E-01 +1.11393603162E-03 -4.01771978204E-04 +1.02621850165E-03 -3.92284276672E-04 +7.45562388358E-01 +4.31585851192E-01
2.68500000000E+09 +7.39407579725E-01 +2.62030490689E-01 +8.26816010276E-04 -5.52105690965E-04 +8.49094450810E-04 -5.36533007288E-04 +7.48589422663E-01 +4.20129127764E-01
2.69000000000E+09 +7.40399195078E-01 +2.44735311314E-01 +7.80831159662E-04 -3.92038244874E-04 +8.12424146616E-04 -3.87309078059E-04 +7.51435621746E-01 +4.08202241435E-01
2.69500000000E+09 +7.41263918165E-01 +2.28384556229E-01 +1.04366032300E-03 -4.08152640775E-04 +1.03056358334E-03 -4.27093694052E-04 +7.54188524760E-01 +3.95649766252E-01
2.70000000000E+09 +7.42034938705E-01 +2.13165685390E-01 +1.12960074891E-03 -6.57813123875E-04 +1.07182110239E-03 -6.44631843137E-04 +7.57186516734E-01 +3.82550058095E-01
2.70500000000E+09 +7.42589305459E-01 +1.99305241324E-01 +1.13082355469E-03 -8.47233035624E-04 +1.09982738938E-03 -7.71335532222E-04 +7.60300034634E-01 +3.69252266265E-01
2.71000000000E+09 +7.42833170465E-01 +1.86534033796E-01 +9.64658838802E-04 -1.05523505443E-03 +9.98273575651E-04 -9.76666341051E-04 +7.62966418279E-01 +3.55814843984E-01
2.71500000000E+09 +7.42821920109E-01 +1.73887163809E-01 +8.47899985776E-04 -1.00660171834E-03 +8.75206255833E-04 -1.03471997005E-03 +7.65035965771E-01 +3.43492932006E-01
2.72000000000E+09 +7.42417256914E-01 +1.61160605944E-01 +8.70276197515E-04 -1.12496616378E-03 +8.88340831417E-04 -1.24545474790E-03 +7.67111415962E-01 +3.31030998677E-01
2.72500000000E+09 +7.42120108073E-01 +1.47291377189E-01 +7.20597499705E-04 -1.23513582492E-03 +6.52294662153E-04 -1.29523729200E-03 +7.68250172713E-01 +3.17569146925E-01
2.73000000000E+09 +7.40926180455E-01 +1.31546549505E-01 +7.61405127343E-04 -1.20936792600E-03 +5.89669313329E-04 -1.20835086456E-03 +7.69342884851E-01 +3.03576173485E-01
2.73500000000E+09 +7.39014946207E-01 +1.14141145551E-01 +7.82057214933E-04 -1.45741838015E-03 +6.89577542446E-04 -1.21544333868E-03 +7.70011185931E-01 +2.88805941592E-01
2.74000000000E+09 +7.36340831586E-01 +9.58369102861E-02 +5.24502985668E-04 -1.57221665900E-03 +5.74064064418E-04 -1.35167339407E-03 +7.71273469003E-01 +2.74358562739E-01
2.74500000000E+09 +7.32625498235E-01 +7.69361828526E-02 +4.80123675125E-04 -1.52759326018E-03 +6.47950952186E-04 -1.40564949488E-03 +7.72790506862E-01 +2.59830971446E-01
2.75000000000E+09 +7.28166426643E-01 +5.84403299321E-02 +6.52385048841E-04 -1.63195720152E-03 +8.58845834828E-04 -1.58256173854E-03 +7.73876688792E-01 +2.44774898529E-01
2.75500000000E+09 +7.23200063663E-01 +4.08757509149E-02 +5.09357546013E-04 -2.04168827822E-03 +6.39835668011E-04 -2.18247680962E-03 +7.74103478373E-01 +2.29981081235E-01
2.76000000000E+09 +7.18166054755E-01 +2.37642072389E-02 +1.12389718589E-04 -2.12849122816E-03 +2.25070233404E-04 -2.36287244092E-03 +7.73530761965E-01 +2.14779727324E-01
2.76500000000E+09 +7.12636197016E-01 +7.02326480968E-03 -2.28870992689E-04 -2.30476434234E-03 -2.67245416507E-04 -2.43486180611E-03 +7.72895154618E-01 +1.98792841858E-01
2.77000000000E+09 +7.07012565216E-01 -9.80340192793E-03 -5.27162183825E-04 -2.11106530479E-03 -5.90885960908E-04 -2.14140867076E-03 +7.72537749404E-01 +1.81946068295E-01
2.77500000000E+09 +7.01345671487E-01 -2.76247842965E-02 -4.08006378941E-04 -1.89427787820E-03 -4.98236005287E-04 -1.87566119705E-03 +7.71158629168E-01 +1.64022293422E-01
2.78000000000E+09 +6.95251670946E-01 -4.65618339985E-02 -3.18824342753E-04 -2.14973361936E-03 -4.27969199707E-04 -2.19132384037E-03 +7.69806584314E-01 +1.46423529059E-01
2.78500000000E+09 +6.88773567275E-01 -6.71690223658E-02 -6.05609861645E-04 -2.42424271615E-03 -7.52760668651E-04 -2.40312995411E-03 +7.68040726082E-01 +1.28605012923E-01
2.79000000000E+09 +6.81507990750E-01 -8.92568054504E-02 -9.51994408092E-04 -2.45157382359E-03 -9.92880081151E-04 -2.28992241789E-03 +7.65076328603E-01 +1.11260122800E-01
2.79500000000E+09 +6.73369702922E-01 -1.11459838548E-01 -1.11011836970E-03 -2.63589410344E-03 -1.09427995449E-03 -2.46519820842E-03 +7.61789266339E-01 +9.32538279869E-02
2.80000000000E+09 +6.64190674531E-01 -1.33249816325E-01 -1.62755484983E-03 -2.70507738522E-03 -1.48509665549E-03 -2.59218932195E-03 +7.57232298218E-01 +7.45093151295E-02
2.80500000000E+09 +6.54324325326E-01 -1.53611978740E-01 -1.84954405361E-03 -2.71154240690E-03 -1.69596202089E-03 -2.74148539538E-03 +7.51711333975E-01 +5.50891646940E-02
2.81000000000E+09 +6.43534763928E-01 -1.71898386020E-01 -2.39793305439E-03 -2.86518368147E-03 -2.42850507737E-03 -2.99000308459E-03 +7.45316903128E-01 +3.60274716237E-02
2.81500000000E+09 +6.32095153477E-01 -1.87886045860E-01 -3.01197823216E-03 -2.59728702320E-03 -3.17319254964E-03 -2.55459726186E-03 +7.39395497069E-01 +1.59989141421E-02
2.82000000000E+09 +6.20067078713E-01 -2.02832031296E-01 -3.50867544307E-03 -2.45905215767E-03 -3.57545967383E-03 -2.24714823625E-03 +7.32292070659E-01 -4.75135617958E-03
2.82500000000E+09 +6.06233270149E-01 -2.17286414047E-01 -4.11163364134E-03 -1.98340278604E-03 -3.98491394536E-03 -1.79478097618E-03 +7.24014329288E-01 -2.54672373684E-02
2.83000000000E+09 +5.91218886745E-01 -2.31867886855E-01 -4.44727446684E-03 -1.55147323408E-03 -4.20679416911E-03 -1.49004100082E-03 +7.14129555220E-01 -4.53502322223E-02
2.83500000000E+09 +5.74393696928E-01 -2.48841877960E-01 -4.89363958845E-03 -8.94857709804E-04 -4.70457710867E-03 -9.78202250366E-04 +7.04083756865E-01 -6.53193571866E-02
2.84000000000E+09 +5.54314784856E-01 -2.67406686007E-01 -4.98192502119E-03 -2.94117861947E-04 -4.90074509457E-03 -4.62286399427E-04 +6.92979955241E-01 -8.55476446708E-02
2.84500000000E+09 +5.31818037154E-01 -2.87517038595E-01 -5.12295973261E-03 +1.32525724229E-04 -5.13350388942E-03 +5.78191617551E-05 +6.80638157030E-01 -1.06148276259E-01
2.85000000000E+09 +5.07385579503E-01 -3.07874305885E-01 -5.31035127647E-03 +5.92581223296E-04 -5.30102067295E-03 +5.53273335188E-04 +6.67408737936E-01 -1.26841351090E-01
2.85500000000E+09 +4.82078423056E-01 -3.27869949951E-01 -6.00868006711E-03 +1.21165301873E-03 -5.88241266552E-03 +1.26429083448E-03 +6.52619097703E-01 -1.47908710629E-01
2.86000000000E+09 +4.57197492595E-01 -3.46291230832E-01 -5.92038080228E-03 +2.46711261943E-03 -5.83470954131E-03 +2.39270212233E-03 +6.36731329176E-01 -1.67781284017E-01
2.86500000000E+09 +4.33477329265E-01 -3.62900191955E-01 -5.67987275635E-03 +3.27490536428E-03 -5.64673265449E-03 +3.23361904243E-03 +6.20311742444E-01 -1.88662944483E-01
2.87000000000E+09 +4.10538274642E-01 -3.78549365769E-01 -5.48212767831E-03 +4.16332439204E-03 -5.47584746373E-03 +4.20015361296E-03 +6.01729250932E-01 -2.09483941409E-01
2.87500000000E+09 +3.87492938387E-01 -3.91578994441E-01 -4.97212541531E-03 +4.95354610959E-03 -4.81512596331E-03 +5.09918371449E-03 +5.80902577909E-01 -2.29099191526E-01
2.88000000000E+09 +3.64508417618E-01 -4.02805029135E-01 -4.55417312374E-03 +5.46003348493E-03 -4.27257985688E-03 +5.48836895324E-03 +5.60047562894E-01 -2.47475791540E-01
2.88500000000E+09 +3.39635434244E-01 -4.12805997559E-01 -4.30548390908E-03 +6.56431873085E-03 -4.02071023884E-03 +6.23147143035E-03 +5.38103354242E-01 -2.66323952739E-01
2.89000000000E+09 +3.12830460807E-01 -4.21190221823E-01 -3.31207793779E-03 +7.68680128843E-03 -3.27600769344E-03 +7.16411037736E-03 +5.13897116967E-01 -2.85483586476E-01
2.89500000000E+09 +2.83387474801E-01 -4.28269816713E-01 -2.21082061520E-03 +8.08992304563E-03 -2.53998890129E-03 +7.74863406817E-03 +4.86727942915E-01 -3.04267360791E-01
2.90000000000E+09 +2.51967451303E-01 -4.34794580909E-01 -1.51035300340E-03 +8.64157706882E-03 -1.86329431006E-03 +8.55527582860E-03 +4.58652403543E-01 -3.20608869274E-01
2.90500000000E+09 +2.17524817872E-01 -4.40836770761E-01 -1.90448290628E-04 +9.44892280911E-03 -2.22252909083E-04 +9.64337909728E-03 +4.29365605894E-01 -3.36795373747E-01
2.91000000000E+09 +1.81837269294E-01 -4.44494436973E-01 +1.35544617238E-03 +9.47338681264E-03 +1.58750656940E-03 +9.35536212317E-03 +3.99232869233E-01 -3.51356585996E-01
2.91500000000E+09 +1.46324734055E-01 -4.47418824286E-01 +2.68116158366E-03 +9.91633893434E-03 +2.77764700681E-03 +9.34266782473E-03 +3.67303211686E-01 -3.64185494574E-01
2.92000000000E+09 +1.10392036543E-01 -4.48284108249E-01 +4.59450137327E-03 +9.50317598914E-03 +4.24873431974E-03 +8.96196073544E-03 +3.33987911668E-01 -3.75926027159E-01
2.92500000000E+09 +7.60934931062E-02 -4.46816833643E-01 +5.85982938350E-03 +8.74096449029E-03 +5.16454469429E-03 +8.53718571009E-03 +2.97759991944E-01 -3.84270473624E-01
2.93000000000E+09 +4.26006965105E-02 -4.42931242602E-01 +7.30527648248E-03 +7.94057715130E-03 +6.69313978859E-03 +8.23360316983E-03 +2.61244762224E-01 -3.91752306201E-01
2.93500000000E+09 +1.00159689275E-02 -4.36702276617E-01 +8.43206857537E-03 +7.10859274582E-03 +8.12406453384E-03 +7.46396126736E-03 +2.22122969757E-01 -3.97004383802E-01
2.94000000000E+09 -2.25466501800E-02 -4.27944199817E-01 +9.48440884470E-03 +6.03131290949E-03 +9.31020587058E-03 +6.28700829178E-03 +1.82746132097E-01 -4.00724444931E-01
2.94500000000E+09 -5.50729396901E-02 -4.16284343304E-01 +1.11431413023E-02 +4.99157208275E-03 +1.09772380304E-02 +5.22308658590E-03 +1.41524735008E-01 -4.00741445181E-01
2.95000000000E+09 -8.86258366648E-02 -4.02324295058E-01 +1.19681555988E-02 +2.58912292355E-03 +1.18643309018E-02 +3.06503569914E-03 +1.01699887171E-01 -3.98163811840E-01
2.95500000000E+09 -1.23893726100E-01 -3.84169316051E-01 +1.19818840991E-02 +6.13688967886E-04 +1.22666582115E-02 +1.10936677931E-03 +6.14902525553E-02 -3.92898449821E-01
2.96000000000E+09 -1.57595414147E-01 -3.62111911267E-01 +1.16086011965E-02 -1.37285131944E-03 +1.21811639044E-02 -1.20042868751E-03 +2.01259589327E-02 -3.85247518878E-01
2.96500000000E+09 -1.89382916544E-01 -3.38100548356E-01 +1.11326658864E-02 -2.36763877670E-03 +1.14544392156E-02 -2.70712257113E-03 -2.11437120210E-02 -3.73024784059E-01
2.97000000000E+09 -2.19463999081E-01 -3.12918753647E-01 +1.09664418885E-02 -3.57584625807E-03 +1.07965472649E-02 -3.93284976647E-03 -6.24842372442E-02 -3.58641036757E-01
2.97500000000E+09 -2.47292040147E-01 -2.86360332300E-01 +1.12800645847E-02 -5.09144623562E-03 +1.09182327085E-02 -5.06652471562E-03 -1.02858070044E-01 -3.40870737927E-01
2.98000000000E+09 -2.73706614983E-01 -2.59359218056E-01 +1.03322681891E-02 -7.68241320987E-03 +1.02142814324E-02 -7.17921630873E-03 -1.41329196319E-01 -3.20752257259E-01
2.98500000000E+09 -2.98205479519E-01 -2.29535143191E-01 +8.78152397454E-03 -9.16886805237E-03 +9.26255887285E-03 -8.84839294195E-03 -1.78038232384E-01 -2.97523665584E-01
2.99000000000E+09 -3.19150522812E-01 -1.98413463980E-01 +6.96282373161E-03 -9.90971890352E-03 +7.50856822802E-03 -1.03055248883E-02 -2.14343250380E-01 -2.71652360421E-01
2.99500000000E+09 -3.38893150583E-01 -1.66998657417E-01 +5.83547526356E-03 -1.06736415910E-02 +5.80764413942E-03 -1.12759130572E-02 -2.47220400050E-01 -2.41718915854E-01
3.00000000000E+09 -3.57044142909E-01 -1.33346249902E-01 +4.32030670269E-03 -1.14475363337E-02 +3.72944744824E-03 -1.17008971137E-02 -2.79023404549E-01 -2.09386396178E-01
3.00500000000E+09 -3.72174076058E-01 -9.87464811437E-02 +2.81058979466E-03 -1.21615403085E-02 +2.29943492900E-03 -1.18555461805E-02 -3.07047411588E-01 -1.75836461260E-01
3.01000000000E+09 -3.85143243722E-01 -6.50309912626E-02 +5.34353403385E-04 -1.28155493372E-02 +5.58742844110E-04 -1.22287997694E-02 -3.34770033075E-01 -1.40224808510E-01
3.01500000000E+09 -3.97170486521E-01 -3.16003085610E-02 -1.68722334910E-03 -1.20673466763E-02 -1.32730807378E-03 -1.17845671847E-02 -3.57923943929E-01 -1.03529939220E-01
3.02000000000E+09 -4.06164948197E-01 +2.00341063140E-03 -2.90328931998E-03 -1.09899646012E-02 -2.61048612165E-03 -1.10705233341E-02 -3.78441861469E-01 -6.49703926965E-02
3.02500000000E+09 -4.12426447791E-01 +3.42776006648E-02 -3.77561794365E-03 -1.11070529621E-02 -3.69008520872E-03 -1.11826483232E-02 -3.94757233682E-01 -2.62354310051E-02
3.03000000000E+09 -4.15585766576E-01 +6.62878207106E-02 -5.98031497086E-03 -1.03580574661E-02 -5.81110658216E-03 -1.03095217777E-02 -4.08775547875E-01 +1.40819507079E-02
3.03500000000E+09 -4.15465902775E-01 +9.75246701153E-02 -7.35544687957E-03 -9.46717305241E-03 -7.06165686161E-03 -9.56897420884E-03 -4.19479929850E-01 +5.32917173618E-02
3.04000000000E+09 -4.12051308203E-01 +1.28904683396E-01 -8.93398863593E-03 -7.40592080500E-03 -8.76379784157E-03 -7.87199766373E-03 -4.27600348884E-01 +9.44722764996E-02
3.04500000000E+09 -4.05586434844E-01 +1.60213970961E-01 -8.66960654897E-03 -5.64132442269E-03 -9.12090052896E-03 -6.15721158157E-03 -4.32251423956E-01 +1.33969847965E-01
3.05000000000E+09 -3.97452055911E-01 +1.92400903202E-01 -8.91634713713E-03 -4.85754578939E-03 -9.64498681997E-03 -4.80634401004E-03 -4.34844861510E-01 +1.72751375307E-01
3.05500000000E+09 -3.86221006564E-01 +2.26194425757E-01 -9.48704583857E-03 -4.08028817207E-03 -9.87159859171E-03 -3.48406286199E-03 -4.35335391600E-01 +2.10707721987E-01
3.06000000000E+09 -3.73197346071E-01 +2.58748437273E-01 -1.01118498758E-02 -2.87557158770E-03 -9.86590700970E-03 -2.27583034130E-03 -4.32958971567E-01 +2.47428130120E-01
3.06500000000E+09 -3.59703765232E-01 +2.91462892657E-01 -1.09028247643E-02 -8.66264249793E-04 -1.01886561238E-02 -8.52163594234E-04 -4.29945479799E-01 +2.83835278970E-01
3.07000000000E+09 -3.44875064167E-01 +3.22347103346E-01 -1.01111626406E-02 +1.00736899652E-03 -9.89370934387E-03 +3.92935815484E-04 -4.23020145940E-01 +3.20219958461E-01
