# Hz S RI R 50
! CMT, C1220, 16058040, 17.2.0/1
! Date: 15/08/2018 09:48:16
! Data: Format (Calibration Info)
! Freq                      S11: Re/Im (F2)                       S21: Re/Im (F2)                       S12: Re/Im (F2)                       S22: Re/Im (F2)            
2.50000000000E+09 +5.76878153960E-01 +6.67945284915E-01 +8.90345319339E-05 -1.72184755432E-03 +1.09337277818E-04 -1.82896897488E-03 +5.75096135960E-01 +7.18081421370E-01
2.50500000000E+09 +5.83786510301E-01 +6.60338013720E-01 -1.40059205925E-04 -1.80454672871E-03 -1.78740432983E-04 -1.83983311374E-03 +5.80700432750E-01 +7.12608399738E-01
2.51000000000E+09 +5.90863874224E-01 +6.52243252260E-01 -3.19737880316E-04 -1.81424245892E-03 -4.26143007177E-04 -1.77939170652E-03 +5.86238471332E-01 +7.07422782152E-01
2.51500000000E+09 +5.98112804486E-01 +6.44135247940E-01 -5.91450909679E-04 -1.80199580955E-03 -5.97251320486E-04 -1.73863028927E-03 +5.91422189585E-01 +7.01859764200E-01
2.52000000000E+09 +6.05088918193E-01 +6.35346016831E-01 -8.35810557759E-04 -1.68861525034E-03 -7.56739616668E-04 -1.69747713680E-03 +5.96784676226E-01 +6.95741413124E-01
2.52500000000E+09 +6.11138315307E-01 +6.26815118201E-01 -9.38704733180E-04 -1.55235399546E-03 -9.63652031664E-04 -1.58925499945E-03 +6.02721237197E-01 +6.89031154471E-01
2.53000000000E+09 +6.16898519801E-01 +6.18597634281E-01 -1.06712587442E-03 -1.44290691034E-03 -1.08991698372E-03 -1.51218776422E-03 +6.09050125243E-01 +6.81958152414E-01
2.53500000000E+09 +6.21925946466E-01 +6.10326476513E-01 -1.19238852213E-03 -1.35015509094E-03 -1.22140626732E-03 -1.34920534021E-03 +6.14807027274E-01 +6.75159090234E-01
2.54000000000E+09 +6.26402525091E-01 +6.02374442603E-01 -1.30323615568E-03 -1.25960855936E-03 -1.22475261326E-03 -1.25312162757E-03 +6.20522547491E-01 +6.68614669559E-01
2.54500000000E+09 +6.30720745201E-01 +5.95277996081E-01 -1.40794588374E-03 -1.25193272943E-03 -1.36613230879E-03 -1.38011269706E-03 +6.26215652645E-01 +6.62250499670E-01
2.55000000000E+09 +6.35594953715E-01 +5.88052096480E-01 -1.61472650409E-03 -1.06409923681E-03 -1.65331690522E-03 -1.25820528527E-03 +6.31248332385E-01 +6.55727569125E-01
2.55500000000E+09 +6.41173139584E-01 +5.80302708109E-01 -1.71894245256E-03 -9.00898533409E-04 -2.00719527328E-03 -1.10620581491E-03 +6.36490084482E-01 +6.48962470568E-01
2.56000000000E+09 +6.47448748959E-01 +5.72716931207E-01 -1.76019678640E-03 -6.53553991093E-04 -2.12400032419E-03 -6.84294306460E-04 +6.41978638860E-01 +6.41719889435E-01
2.56500000000E+09 +6.54246313802E-01 +5.63963011960E-01 -1.66590148852E-03 -6.26650388915E-04 -1.97849148794E-03 -3.74284354771E-04 +6.47600916099E-01 +6.34098554411E-01
2.57000000000E+09 +6.61218811175E-01 +5.55040086368E-01 -1.79335667808E-03 -6.41437982072E-04 -1.91979525018E-03 -2.23010531682E-04 +6.52943092013E-01 +6.26510482933E-01
2.57500000000E+09 +6.68419967425E-01 +5.45385984245E-01 -2.00058831532E-03 -5.56931078919E-04 -1.78899895802E-03 -1.73401660618E-04 +6.58274491584E-01 +6.19282846915E-01
2.58000000000E+09 +6.74925325161E-01 +5.35576678687E-01 -2.19674879239E-03 -3.40423112146E-04 -1.88645310385E-03 -1.40835484649E-04 +6.63083707561E-01 +6.11863790850E-01
2.58500000000E+09 +6.80587518836E-01 +5.25596935465E-01 -2.19430633882E-03 +1.35446911085E-04 -1.91018967476E-03 +3.83191517298E-05 +6.67694561675E-01 +6.04250709583E-01
2.59000000000E+09 +6.85781656666E-01 +5.16128591999E-01 -1.91892789440E-03 +1.72393305885E-04 -1.83828719952E-03 +6.55085057498E-05 +6.72713350085E-01 +5.96375070596E-01
2.59500000000E+09 +6.90574880180E-01 +5.06323833380E-01 -2.06718995453E-03 +5.40309477980E-05 -2.06180348225E-03 -5.25907448154E-05 +6.77869911854E-01 +5.87798891280E-01
2.60000000000E+09 +6.94421789295E-01 +4.96882272939E-01 -2.28361513985E-03 +2.19204976170E-04 -2.28915102980E-03 +1.94135821189E-04 +6.82761590531E-01 +5.79313925587E-01
2.60500000000E+09 +6.98699545338E-01 +4.87226859663E-01 -2.58189338275E-03 +4.97199416304E-04 -2.59212384746E-03 +5.01947684553E-04 +6.88086212499E-01 +5.70887307490E-01
2.61000000000E+09 +7.02792135308E-01 +4.76978263757E-01 -2.68717440102E-03 +1.04942072946E-03 -2.68984170640E-03 +9.80152960706E-04 +6.92918948516E-01 +5.62247575125E-01
2.61500000000E+09 +7.07439671428E-01 +4.66432236682E-01 -2.28367152382E-03 +1.66764636490E-03 -2.34935788933E-03 +1.63972671595E-03 +6.97321844757E-01 +5.53955091016E-01
2.62000000000E+09 +7.12201688879E-01 +4.54589351248E-01 -1.84805872275E-03 +1.58687948743E-03 -1.99014448693E-03 +1.70141862159E-03 +7.02045970879E-01 +5.45141313284E-01
2.62500000000E+09 +7.17053687978E-01 +4.41641439537E-01 -1.84099788054E-03 +1.47978340003E-03 -1.85825543935E-03 +1.69634885276E-03 +7.06955088587E-01 +5.35629677096E-01
2.63000000000E+09 +7.21535395974E-01 +4.28257338182E-01 -1.93190996597E-03 +1.80229590801E-03 -1.71019596609E-03 +1.94107619318E-03 +7.11658506574E-01 +5.26235580710E-01
2.63500000000E+09 +7.25618111654E-01 +4.14393180312E-01 -1.97084681787E-03 +1.96153434768E-03 -1.55525357064E-03 +1.94159195628E-03 +7.16735754107E-01 +5.16885848643E-01
2.64000000000E+09 +7.29136510079E-01 +4.00733186290E-01 -1.93903000269E-03 +2.52200112945E-03 -1.63038009245E-03 +2.19553242553E-03 +7.21624822571E-01 +5.07252846482E-01
2.64500000000E+09 +7.32253087876E-01 +3.87745996926E-01 -1.29489814026E-03 +3.02731707079E-03 -1.33041159116E-03 +2.57077024171E-03 +7.26010435048E-01 +4.97848093573E-01
2.65000000000E+09 +7.35047077837E-01 +3.75417260706E-01 -7.66877960690E-04 +2.82263639971E-03 -1.06546677219E-03 +2.60842506170E-03 +7.30105258939E-01 +4.88421469026E-01
2.65500000000E+09 +7.37873142429E-01 +3.63337755581E-01 -6.27915037123E-04 +2.65313500775E-03 -9.27440573399E-04 +2.73085372865E-03 +7.34004904348E-01 +4.77925282778E-01
2.66000000000E+09 +7.40718009799E-01 +3.51403418609E-01 -6.63427851239E-04 +2.78389636612E-03 -7.31464368140E-04 +2.96287413065E-03 +7.38065389735E-01 +4.66833373965E-01
2.66500000000E+09 +7.43611863750E-01 +3.39480363325E-01 -4.35215881151E-04 +3.02347308592E-03 -2.42723801079E-04 +3.17425984434E-03 +7.42770895787E-01 +4.55500067402E-01
2.67000000000E+09 +7.46347500702E-01 +3.26619509509E-01 +7.33741801018E-05 +3.12224735986E-03 +2.79642474868E-04 +3.03490479031E-03 +7.47169922854E-01 +4.44242810697E-01
2.67500000000E+09 +7.48528097804E-01 +3.13123740893E-01 +4.28302636735E-04 +2.96286139059E-03 +4.38268363435E-04 +2.72082654423E-03 +7.51149222594E-01 +4.33155804591E-01
2.68000000000E+09 +7.50663096082E-01 +2.98588099485E-01 +4.52341285632E-04 +2.84343099765E-03 +4.11805715951E-04 +2.74409840245E-03 +7.54839056060E-01 +4.22689488911E-01
2.68500000000E+09 +7.51841005014E-01 +2.83182148419E-01 +5.15847211497E-04 +2.89631030063E-03 +4.26380834794E-04 +2.88790181013E-03 +7.58169934518E-01 +4.11301892450E-01
2.69000000000E+09 +7.52158371315E-01 +2.67633845427E-01 +7.49837834096E-04 +3.18119733758E-03 +7.65670038955E-04 +3.19412249777E-03 +7.60644221287E-01 +3.99265622961E-01
2.69500000000E+09 +7.52591510421E-01 +2.52150816822E-01 +1.33618674965E-03 +3.20071953035E-03 +1.31990693709E-03 +3.11699829375E-03 +7.63715214749E-01 +3.86426165906E-01
2.70000000000E+09 +7.52800407250E-01 +2.36406129685E-01 +1.82683554056E-03 +3.04293266606E-03 +1.71195519158E-03 +2.96815198836E-03 +7.66747939781E-01 +3.72936462381E-01
2.70500000000E+09 +7.52582865899E-01 +2.21351659008E-01 +2.12211026728E-03 +2.55391992687E-03 +1.92098814053E-03 +2.58730647864E-03 +7.70081853267E-01 +3.59153512376E-01
2.71000000000E+09 +7.52954897517E-01 +2.06481958078E-01 +2.06066021139E-03 +2.33544946250E-03 +1.96655605048E-03 +2.48250658988E-03 +7.72758220007E-01 +3.46369993192E-01
2.71500000000E+09 +7.53796663274E-01 +1.91622532125E-01 +1.93816962698E-03 +2.38473735144E-03 +1.99538832184E-03 +2.54206754571E-03 +7.75567437298E-01 +3.33837214780E-01
2.72000000000E+09 +7.54407352652E-01 +1.76648581538E-01 +2.15069479816E-03 +2.68919215217E-03 +2.47577343531E-03 +2.70672732477E-03 +7.77828060136E-01 +3.20683846919E-01
2.72500000000E+09 +7.55087062203E-01 +1.61118528800E-01 +2.87171336840E-03 +2.56215438079E-03 +3.06414385585E-03 +2.28231316384E-03 +7.78775945624E-01 +3.06637819410E-01
2.73000000000E+09 +7.54950525264E-01 +1.45094467586E-01 +3.04835754406E-03 +2.29614461314E-03 +2.91271973410E-03 +1.83724941559E-03 +7.79981417601E-01 +2.92243399287E-01
2.73500000000E+09 +7.53963650720E-01 +1.28373737111E-01 +3.26258239115E-03 +2.25304269057E-03 +2.84284859596E-03 +1.92820701102E-03 +7.80976196608E-01 +2.77237394631E-01
2.74000000000E+09 +7.51969083310E-01 +1.11365579855E-01 +3.99404507599E-03 +2.06257283813E-03 +3.36063343611E-03 +2.16402094862E-03 +7.82782728356E-01 +2.62462361542E-01
2.74500000000E+09 +7.48509463524E-01 +9.33938984321E-02 +4.10318476014E-03 +1.51270805875E-03 +3.72935241578E-03 +1.90365717795E-03 +7.83840329405E-01 +2.47108631165E-01
2.75000000000E+09 +7.43586743783E-01 +7.56954972125E-02 +4.39613555906E-03 +1.27881210668E-03 +4.39813095930E-03 +1.77192399512E-03 +7.84029418067E-01 +2.32044804965E-01
2.75500000000E+09 +7.37784016606E-01 +5.80401062872E-02 +4.66516303592E-03 +8.16208046577E-04 +5.00014146047E-03 +1.19322727683E-03 +7.83325566830E-01 +2.16994334208E-01
2.76000000000E+09 +7.31887783989E-01 +4.07102696715E-02 +4.91425248050E-03 +5.22717398082E-04 +5.24348055492E-03 +6.63127725025E-04 +7.82823854511E-01 +2.01574049551E-01
2.76500000000E+09 +7.26135219026E-01 +2.35537796966E-02 +5.25858815944E-03 +1.43054864128E-04 +5.50791643095E-03 +6.32078748634E-05 +7.81684664752E-01 +1.84311286259E-01
2.77000000000E+09 +7.21265977847E-01 +5.57374586712E-03 +5.76767822733E-03 -5.86309120665E-04 +5.97601357235E-03 -7.44394328366E-04 +7.80746795036E-01 +1.66638715477E-01
2.77500000000E+09 +7.16555910451E-01 -1.34572827606E-02 +5.76374977353E-03 -1.85113422902E-03 +5.95487606729E-03 -2.12432003831E-03 +7.78997402534E-01 +1.48716251437E-01
2.78000000000E+09 +7.11829934119E-01 -3.31282616002E-02 +5.09168922650E-03 -2.44558444715E-03 +5.12456537403E-03 -2.80278737327E-03 +7.76918565512E-01 +1.31488790203E-01
2.78500000000E+09 +7.06995966448E-01 -5.37176729240E-02 +4.83808058381E-03 -2.66255469589E-03 +4.66225225632E-03 -2.95627454829E-03 +7.74789524950E-01 +1.14414188370E-01
2.79000000000E+09 +7.01271182508E-01 -7.52275911885E-02 +5.00393226546E-03 -3.08367228196E-03 +4.63515368494E-03 -3.17224539296E-03 +7.71656788792E-01 +9.66978034279E-02
2.79500000000E+09 +6.93888296953E-01 -9.63695576496E-02 +4.95467645166E-03 -3.64643549219E-03 +4.61850358368E-03 -3.54219651757E-03 +7.67396105609E-01 +7.81740980152E-02
2.80000000000E+09 +6.85304809542E-01 -1.16781239651E-01 +4.98172554967E-03 -4.63399182651E-03 +4.91632544301E-03 -4.32942317335E-03 +7.62028691760E-01 +5.87922074546E-02
2.80500000000E+09 +6.75854867677E-01 -1.36312215526E-01 +4.14510587742E-03 -5.90838507380E-03 +4.43107234789E-03 -5.73569829794E-03 +7.56299093840E-01 +3.99666500227E-02
2.81000000000E+09 +6.65138880303E-01 -1.54943955202E-01 +3.02660194437E-03 -5.96498350258E-03 +3.15040106513E-03 -6.09635879839E-03 +7.50927807828E-01 +2.08571575896E-02
2.81500000000E+09 +6.53626818888E-01 -1.72764933728E-01 +2.62695593067E-03 -6.08361497220E-03 +2.53553092221E-03 -6.25735514806E-03 +7.44126520539E-01 +1.27606434462E-03
2.82000000000E+09 +6.41046436447E-01 -1.90449619967E-01 +2.36031100189E-03 -6.50701026558E-03 +2.03383114375E-03 -6.54462882037E-03 +7.36499429200E-01 -1.83921316955E-02
2.82500000000E+09 +6.27487341826E-01 -2.08254438257E-01 +1.50016159844E-03 -7.03072887811E-03 +1.22549843538E-03 -6.76501579960E-03 +7.27108893162E-01 -3.84845447139E-02
2.83000000000E+09 +6.12009894583E-01 -2.26962759229E-01 +8.00433149042E-04 -7.23643820439E-03 +7.68238133060E-04 -6.87542335956E-03 +7.16879831327E-01 -5.84717115419E-02
2.83500000000E+09 +5.95394076378E-01 -2.45598986704E-01 -1.24722291268E-04 -7.27417142563E-03 +1.01456162339E-04 -6.94447226701E-03 +7.06551499009E-01 -7.86269762826E-02
2.84000000000E+09 +5.76776075044E-01 -2.64424168442E-01 -4.67290231218E-04 -7.03354307053E-03 -2.21894095874E-04 -6.92098727227E-03 +6.95898904646E-01 -9.98121576877E-02
2.84500000000E+09 +5.56755076830E-01 -2.83781306088E-01 -6.02304267516E-04 -7.70616334262E-03 -4.49658330087E-04 -7.69319809154E-03 +6.83833183287E-01 -1.21144502740E-01
2.85000000000E+09 +5.34985924269E-01 -3.03005424486E-01 -1.69493281065E-03 -8.55140308676E-03 -1.72816076868E-03 -8.55957866440E-03 +6.69700715761E-01 -1.42360584118E-01
2.85500000000E+09 +5.12349763036E-01 -3.21540005424E-01 -3.35574740165E-03 -8.85433825250E-03 -3.40236389702E-03 -8.75428654960E-03 +6.54166847861E-01 -1.62094332227E-01
2.86000000000E+09 +4.88571984504E-01 -3.40076857937E-01 -5.16962681952E-03 -8.42594328493E-03 -5.04905389387E-03 -8.34451281893E-03 +6.38215021410E-01 -1.82285758365E-01
2.86500000000E+09 +4.63881125249E-01 -3.57160795358E-01 -6.88616950426E-03 -7.24764246536E-03 -6.81011794525E-03 -7.35525538551E-03 +6.20746257627E-01 -2.03802465747E-01
2.87000000000E+09 +4.38456076181E-01 -3.73297013200E-01 -7.25995067148E-03 -5.44994442078E-03 -7.39909133769E-03 -5.48139483032E-03 +6.00473408391E-01 -2.25042710604E-01
2.87500000000E+09 +4.12640477439E-01 -3.87633951727E-01 -6.89687566696E-03 -4.83388700340E-03 -7.03765874333E-03 -4.69687659190E-03 +5.79890338938E-01 -2.44461591465E-01
2.88000000000E+09 +3.86688095468E-01 -4.00825813946E-01 -7.27542647615E-03 -5.13585552386E-03 -7.25519122309E-03 -4.75885036430E-03 +5.58505413311E-01 -2.63757843285E-01
2.88500000000E+09 +3.60422068205E-01 -4.12751250460E-01 -9.01198026080E-03 -4.60727275778E-03 -8.54488945370E-03 -4.21451323975E-03 +5.35650802353E-01 -2.81944093727E-01
2.89000000000E+09 +3.33582252795E-01 -4.24629167445E-01 -9.81390927440E-03 -2.89577936293E-03 -9.14959737759E-03 -2.94500850710E-03 +5.10284196087E-01 -3.00240454635E-01
2.89500000000E+09 +3.04501436012E-01 -4.35843140806E-01 -9.91393814722E-03 -1.60427521714E-03 -9.53500077368E-03 -1.97623585070E-03 +4.82028826729E-01 -3.17687814954E-01
2.90000000000E+09 +2.73035487873E-01 -4.45446331662E-01 -1.01311804746E-02 -3.25342338277E-04 -1.01533588350E-02 -7.08164651069E-04 +4.51857055366E-01 -3.32732495703E-01
2.90500000000E+09 +2.39005683711E-01 -4.52700826409E-01 -9.74614030153E-03 +6.97798926722E-04 -9.96575061820E-03 +7.06118875674E-04 +4.23223392731E-01 -3.47643878016E-01
2.91000000000E+09 +2.04083186640E-01 -4.56779919419E-01 -9.95822510873E-03 +1.37648514034E-03 -9.93225999986E-03 +1.68220757718E-03 +3.91892873318E-01 -3.63021752335E-01
2.91500000000E+09 +1.68308249989E-01 -4.58709969509E-01 -1.03605892314E-02 +2.91779686836E-03 -9.81549990041E-03 +3.04811201492E-03 +3.58584420781E-01 -3.75457489286E-01
2.92000000000E+09 +1.32292270935E-01 -4.57879916688E-01 -9.28600762636E-03 +4.67858291474E-03 -8.73144672760E-03 +4.37656996539E-03 +3.23634228683E-01 -3.84741355618E-01
2.92500000000E+09 +9.70387493054E-02 -4.55383888376E-01 -8.39992133793E-03 +4.58715199060E-03 -8.15202842987E-03 +4.06141853750E-03 +2.87769928643E-01 -3.91321094450E-01
2.93000000000E+09 +6.19950505389E-02 -4.51580256416E-01 -8.99679680313E-03 +5.31831903129E-03 -9.02665708419E-03 +4.72483688503E-03 +2.51291084175E-01 -3.96127896143E-01
2.93500000000E+09 +2.67383082483E-02 -4.46618160854E-01 -8.75530190746E-03 +7.04468898994E-03 -9.02182825155E-03 +6.68314729684E-03 +2.14030690112E-01 -4.00972894992E-01
2.94000000000E+09 -8.97718006470E-03 -4.39886271227E-01 -7.75094767720E-03 +8.38813448132E-03 -7.97834845615E-03 +8.25487430416E-03 +1.73810502559E-01 -4.04729208711E-01
2.94500000000E+09 -4.49510340004E-02 -4.30594640084E-01 -6.73684621466E-03 +9.84242119559E-03 -6.91403832780E-03 +9.63554980087E-03 +1.32572946532E-01 -4.04128050465E-01
2.95000000000E+09 -8.07992051105E-02 -4.17143182119E-01 -4.64362456763E-03 +1.05083856060E-02 -5.04416090196E-03 +1.03748615761E-02 +9.24636510573E-02 -3.99046870323E-01
2.95500000000E+09 -1.14485025454E-01 -4.00600070570E-01 -3.32713719566E-03 +1.01209881532E-02 -3.87032590606E-03 +1.01867092122E-02 +5.41099618172E-02 -3.92072734635E-01
2.96000000000E+09 -1.46403360194E-01 -3.82289352673E-01 -3.03531836781E-03 +1.03217113393E-02 -3.28863170685E-03 +1.07731728204E-02 +1.36952468370E-02 -3.83334038725E-01
2.96500000000E+09 -1.78275881645E-01 -3.61663890519E-01 -2.27944669848E-03 +1.11683718284E-02 -2.05294889185E-03 +1.16169550298E-02 -2.77962894787E-02 -3.70928681914E-01
2.97000000000E+09 -2.09177611443E-01 -3.37500575082E-01 -7.61273695265E-04 +1.18804937548E-02 -2.88366022639E-04 +1.18336242411E-02 -6.81174521098E-02 -3.55101124803E-01
2.97500000000E+09 -2.38167608245E-01 -3.11078477627E-01 +4.38143851826E-04 +1.23449266364E-02 +5.97866776080E-04 +1.19896534972E-02 -1.07294144873E-01 -3.37351086672E-01
2.98000000000E+09 -2.66245699325E-01 -2.82904182824E-01 +3.12667249232E-03 +1.24804396429E-02 +2.72619065107E-03 +1.22617154387E-02 -1.44869108368E-01 -3.16429058049E-01
2.98500000000E+09 -2.93467064314E-01 -2.52605848507E-01 +4.60800447984E-03 +1.09878119640E-02 +4.13045143652E-03 +1.12675900984E-02 -1.81352462134E-01 -2.93063631354E-01
2.99000000000E+09 -3.18808959433E-01 -2.20594325125E-01 +4.91844151499E-03 +1.01547781638E-02 +5.00431610478E-03 +1.07533817908E-02 -2.16383154892E-01 -2.65907983940E-01
2.99500000000E+09 -3.42725594215E-01 -1.86821644894E-01 +5.63501936212E-03 +1.08178548064E-02 +6.23226400435E-03 +1.11386439238E-02 -2.49454798477E-01 -2.35963237547E-01
3.00000000000E+09 -3.63037866496E-01 -1.52539393087E-01 +8.16296201712E-03 +1.02851940411E-02 +8.76306863523E-03 +9.91835087111E-03 -2.79937933505E-01 -2.03672231171E-01
3.00500000000E+09 -3.81554979682E-01 -1.19149285918E-01 +9.32158370147E-03 +8.76087473395E-03 +9.33726871084E-03 +8.07757648165E-03 -3.08193841401E-01 -1.70569669251E-01
3.01000000000E+09 -3.98434368086E-01 -8.55724023661E-02 +1.04609671555E-02 +7.38350180300E-03 +1.00157892917E-02 +7.02192020754E-03 -3.34059462211E-01 -1.35850934563E-01
3.01500000000E+09 -4.13183975553E-01 -5.09964054356E-02 +1.10537805030E-02 +6.16321091331E-03 +1.05732081843E-02 +6.25591970078E-03 -3.57812591233E-01 -9.98036813125E-02
3.02000000000E+09 -4.24365832031E-01 -1.56252375406E-02 +1.17390964356E-02 +4.99139686301E-03 +1.15779922003E-02 +5.21275361531E-03 -3.78099343390E-01 -5.99879526519E-02
3.02500000000E+09 -4.31879130233E-01 +2.02406016932E-02 +1.26435432095E-02 +3.82883000241E-03 +1.25857625545E-02 +3.91936103458E-03 -3.93274889096E-01 -1.97159399402E-02
3.03000000000E+09 -4.35632695560E-01 +5.57559930175E-02 +1.33785506169E-02 +1.58539708686E-03 +1.33370972228E-02 +1.61209183237E-03 -4.06246013639E-01 +2.00094536465E-02
3.03500000000E+09 -4.36165255586E-01 +9.11988303494E-02 +1.29552203158E-02 -1.88287857606E-04 +1.29179244229E-02 +1.30658038160E-04 -4.17275749800E-01 +5.94912262788E-02
3.04000000000E+09 -4.34138989313E-01 +1.25883953247E-01 +1.29351340710E-02 -1.92084782589E-03 +1.32635110825E-02 -1.47427937347E-03 -4.26136294213E-01 +1.00034642378E-01
3.04500000000E+09 -4.30104813243E-01 +1.60729925070E-01 +1.22371478602E-02 -3.38442019551E-03 +1.30553083092E-02 -3.46606440145E-03 -4.31453023738E-01 +1.41000277055E-01
3.05000000000E+09 -4.23762025719E-01 +1.95523310107E-01 +1.16805405856E-02 -4.72392108579E-03 +1.21567223107E-02 -5.50055800657E-03 -4.32250133030E-01 +1.81186682549E-01
3.05500000000E+09 -4.15734379635E-01 +2.29318668307E-01 +1.10350475685E-02 -5.89905819069E-03 +1.07716703586E-02 -6.75427926717E-03 -4.31008020331E-01 +2.18995963910E-01
3.06000000000E+09 -4.06107257845E-01 +2.63241727740E-01 +1.06361654525E-02 -7.47054941166E-03 +9.73269326200E-03 -7.73035689509E-03 -4.28842980325E-01 +2.57371806633E-01
3.06500000000E+09 -3.93976923009E-01 +2.95861039901E-01 +9.40623653405E-03 -9.38625184391E-03 +8.73492669980E-03 -8.74538943652E-03 -4.23345616773E-01 +2.94937794248E-01
3.07000000000E+09 -3.81018167821E-01 +3.25624532153E-01 +7.19155810190E-03 -1.05730363302E-02 +7.53070492233E-03 -9.81398511638E-03 -4.15922679229E-01 +3.30171037246E-01
