# Hz S RI R 50
! CMT, C1220, 16058040, 17.2.0/1
! Date: 15/08/2018 09:51:11
! Data: Format (Calibration Info)
! Freq                      S11: Re/Im (F2)                       S21: Re/Im (F2)                       S12: Re/Im (F2)                       S22: Re/Im (F2)            
2.50000000000E+09 +5.75143277888E-01 +6.72098700659E-01 -1.89834737580E-04 -1.65833763444E-03 -1.91472233642E-04 -1.84782619351E-03 +5.75120970095E-01 +7.18039288122E-01
2.50500000000E+09 +5.81963140664E-01 +6.64552277961E-01 -3.20729234843E-04 -1.74288298402E-03 -3.79493731114E-04 -1.83521680184E-03 +5.80503967945E-01 +7.12426137436E-01
2.51000000000E+09 +5.89141815244E-01 +6.56694861395E-01 -4.99776029263E-04 -1.76320293118E-03 -5.72506812377E-04 -1.75315238279E-03 +5.86015550581E-01 +7.07295144391E-01
2.51500000000E+09 +5.96377327491E-01 +6.48378022261E-01 -6.92708672477E-04 -1.78163463668E-03 -7.33367687939E-04 -1.75410659659E-03 +5.91183523779E-01 +7.01713494499E-01
2.52000000000E+09 +6.03401614982E-01 +6.39756428797E-01 -9.80915150907E-04 -1.72210863947E-03 -9.35115501014E-04 -1.71404295203E-03 +5.96609044345E-01 +6.95527196050E-01
2.52500000000E+09 +6.09430801460E-01 +6.31347437071E-01 -1.18569314581E-03 -1.56310166514E-03 -1.12113373322E-03 -1.61998705983E-03 +6.02553153697E-01 +6.89055144272E-01
2.53000000000E+09 +6.15238035581E-01 +6.23052374865E-01 -1.23798169874E-03 -1.45602132882E-03 -1.30044685914E-03 -1.48262925916E-03 +6.08704155755E-01 +6.81917225887E-01
2.53500000000E+09 +6.20429846278E-01 +6.14978013878E-01 -1.40361861711E-03 -1.34697096056E-03 -1.37153248909E-03 -1.38925074033E-03 +6.14611590487E-01 +6.75255000174E-01
2.54000000000E+09 +6.25001008708E-01 +6.07226517701E-01 -1.49729024032E-03 -1.30357483457E-03 -1.50211849339E-03 -1.31870300119E-03 +6.20333491489E-01 +6.68742684073E-01
2.54500000000E+09 +6.29587740986E-01 +5.99874818549E-01 -1.80676050260E-03 -1.18937858689E-03 -1.61091284748E-03 -1.33078925062E-03 +6.26031989491E-01 +6.62408922928E-01
2.55000000000E+09 +6.34477639223E-01 +5.92786385720E-01 -1.94162517151E-03 -9.54703885940E-04 -1.96067112188E-03 -1.20402573453E-03 +6.30979675111E-01 +6.55688885638E-01
2.55500000000E+09 +6.40170091516E-01 +5.84992056669E-01 -1.99829420803E-03 -6.71371694571E-04 -2.28130250183E-03 -8.86295913698E-04 +6.36295591079E-01 +6.49061512935E-01
2.56000000000E+09 +6.46516160027E-01 +5.77130046547E-01 -1.88614189557E-03 -4.75828126245E-04 -2.33899542409E-03 -3.90471669804E-04 +6.41800312217E-01 +6.41599945120E-01
2.56500000000E+09 +6.53400065355E-01 +5.68286218394E-01 -1.88249773870E-03 -5.09082168428E-04 -2.18255424518E-03 -1.27759393695E-04 +6.47519811119E-01 +6.34156556148E-01
2.57000000000E+09 +6.60415274434E-01 +5.59197065748E-01 -2.02830486199E-03 -4.15434124547E-04 -2.03855689508E-03 +4.04876315639E-05 +6.52869223903E-01 +6.26502562842E-01
2.57500000000E+09 +6.67784026817E-01 +5.49429290892E-01 -2.20280028928E-03 -2.73426921387E-04 -1.94367852656E-03 +9.73916257084E-05 +6.58039412355E-01 +6.19234406975E-01
2.58000000000E+09 +6.74231607954E-01 +5.39341047244E-01 -2.39896086855E-03 +4.78963081801E-05 -2.00901391704E-03 +1.26508591102E-04 +6.62818335201E-01 +6.11910962752E-01
2.58500000000E+09 +6.80183715144E-01 +5.29368181759E-01 -2.27003468665E-03 +5.43745960728E-04 -1.99505752142E-03 +3.66184870790E-04 +6.67284409802E-01 +6.04323857366E-01
2.59000000000E+09 +6.85654811777E-01 +5.19819714966E-01 -1.89713368973E-03 +5.26887938561E-04 -1.84590370268E-03 +3.36857520645E-04 +6.72472868146E-01 +5.96465984386E-01
2.59500000000E+09 +6.90577585803E-01 +5.10103953937E-01 -2.01130515717E-03 +3.32809149027E-04 -2.08778394499E-03 +1.85354476912E-04 +6.77422268853E-01 +5.87581672798E-01
2.60000000000E+09 +6.94664613305E-01 +5.00638582141E-01 -2.31946148832E-03 +4.41201696258E-04 -2.36241182819E-03 +4.44260509917E-04 +6.82389214982E-01 +5.79211815251E-01
2.60500000000E+09 +6.98933028529E-01 +4.91237062315E-01 -2.55438708308E-03 +8.77166495966E-04 -2.56024574082E-03 +8.51716784659E-04 +6.87680217135E-01 +5.70855758622E-01
2.61000000000E+09 +7.03158816505E-01 +4.81054496468E-01 -2.57731194191E-03 +1.36812061865E-03 -2.58036444686E-03 +1.30989847484E-03 +6.92518846066E-01 +5.62319231701E-01
2.61500000000E+09 +7.07659749433E-01 +4.70528377828E-01 -2.17975978973E-03 +1.93080083806E-03 -2.22730722025E-03 +1.93023163677E-03 +6.96948445825E-01 +5.54187712998E-01
2.62000000000E+09 +7.12469411605E-01 +4.58898732496E-01 -1.73626058231E-03 +1.88325715670E-03 -1.80879438950E-03 +1.98274641997E-03 +7.01657359133E-01 +5.45316324970E-01
2.62500000000E+09 +7.17242911696E-01 +4.46051490243E-01 -1.78897151284E-03 +1.76786810912E-03 -1.75140406011E-03 +1.94337385987E-03 +7.06586536661E-01 +5.35971424176E-01
2.63000000000E+09 +7.21633692159E-01 +4.32739437789E-01 -1.82065342285E-03 +2.05816857870E-03 -1.53782482934E-03 +2.22964151735E-03 +7.11180289564E-01 +5.26665608291E-01
2.63500000000E+09 +7.25557166014E-01 +4.18961884697E-01 -1.78383584006E-03 +2.36886510885E-03 -1.29909885432E-03 +2.28074731538E-03 +7.16379772595E-01 +5.17302767189E-01
2.64000000000E+09 +7.29255239128E-01 +4.05283424580E-01 -1.55729045384E-03 +2.79700199131E-03 -1.29813788325E-03 +2.35378472304E-03 +7.21314552022E-01 +5.07737745057E-01
2.64500000000E+09 +7.32491233723E-01 +3.92247820157E-01 -1.06416302701E-03 +3.13832704574E-03 -1.13296482414E-03 +2.64257866692E-03 +7.25746650143E-01 +4.98317100487E-01
2.65000000000E+09 +7.35300225765E-01 +3.79889569105E-01 -5.40991439295E-04 +3.00342466492E-03 -9.06262402175E-04 +2.76065060183E-03 +7.29952851474E-01 +4.88871458770E-01
2.65500000000E+09 +7.38219018810E-01 +3.67454418914E-01 -3.53928403086E-04 +2.86300899250E-03 -6.78184563526E-04 +2.89616563853E-03 +7.33909799460E-01 +4.78465279509E-01
2.66000000000E+09 +7.41133457661E-01 +3.55609056414E-01 -3.17007203233E-04 +2.97523112416E-03 -3.79729144960E-04 +3.17896385199E-03 +7.37862291408E-01 +4.67472274188E-01
2.66500000000E+09 +7.44161300418E-01 +3.43686733070E-01 -4.18878110587E-05 +3.11799645087E-03 +1.46144292607E-04 +3.26875801226E-03 +7.42636263282E-01 +4.56104884211E-01
2.67000000000E+09 +7.46873659876E-01 +3.30721841392E-01 +4.26670851638E-04 +3.22256899543E-03 +6.62887510720E-04 +3.05818550418E-03 +7.47292877649E-01 +4.44691463982E-01
2.67500000000E+09 +7.49087816418E-01 +3.17146415077E-01 +7.49436908704E-04 +2.97749491195E-03 +7.68803508465E-04 +2.75614576606E-03 +7.51122852835E-01 +4.33452889396E-01
2.68000000000E+09 +7.51063916970E-01 +3.02610008949E-01 +8.14239514819E-04 +2.80459580946E-03 +7.50828507949E-04 +2.67616953132E-03 +7.54791932289E-01 +4.22993090478E-01
2.68500000000E+09 +7.52164481325E-01 +2.87181065039E-01 +8.15975834786E-04 +2.91763418268E-03 +7.08977353133E-04 +2.90412171850E-03 +7.58025942594E-01 +4.11714027564E-01
2.69000000000E+09 +7.52491745798E-01 +2.71573217484E-01 +1.05742163862E-03 +3.19677234630E-03 +1.01218772938E-03 +3.19880453329E-03 +7.60597666206E-01 +3.99737549417E-01
2.69500000000E+09 +7.52646094370E-01 +2.55956286448E-01 +1.64268015485E-03 +3.23526185102E-03 +1.66120524213E-03 +3.13550555334E-03 +7.63705441483E-01 +3.86910332465E-01
2.70000000000E+09 +7.52999795963E-01 +2.40194813843E-01 +2.12878536669E-03 +3.07314444603E-03 +2.08729356995E-03 +2.95422279710E-03 +7.66780767987E-01 +3.73414534503E-01
2.70500000000E+09 +7.52948998174E-01 +2.24769031479E-01 +2.50104514743E-03 +2.53707841918E-03 +2.36314089121E-03 +2.54692929110E-03 +7.70000063767E-01 +3.59799858731E-01
2.71000000000E+09 +7.53207483724E-01 +2.09707994590E-01 +2.48600047468E-03 +2.21859957748E-03 +2.48407104764E-03 +2.35096245092E-03 +7.72852774355E-01 +3.47097946310E-01
2.71500000000E+09 +7.53943548183E-01 +1.94450576345E-01 +2.32719830614E-03 +2.15301874597E-03 +2.41617618164E-03 +2.26880508056E-03 +7.75746448599E-01 +3.34564845456E-01
2.72000000000E+09 +7.54466998797E-01 +1.79355144406E-01 +2.52422401611E-03 +2.39436810531E-03 +2.85003937767E-03 +2.42785777545E-03 +7.77976538884E-01 +3.21455970105E-01
2.72500000000E+09 +7.54893031004E-01 +1.63760070042E-01 +3.21936020765E-03 +2.34838605635E-03 +3.39330649424E-03 +1.97850940825E-03 +7.78914679517E-01 +3.07386316238E-01
2.73000000000E+09 +7.54708180824E-01 +1.47795465675E-01 +3.40847945907E-03 +2.00494762047E-03 +3.29956005356E-03 +1.57908206148E-03 +7.80362200991E-01 +2.93092424563E-01
2.73500000000E+09 +7.53681174926E-01 +1.31150527100E-01 +3.63123716962E-03 +1.89316922249E-03 +3.16942553810E-03 +1.62730158201E-03 +7.81587686336E-01 +2.78046493871E-01
2.74000000000E+09 +7.51487209768E-01 +1.14436666801E-01 +4.29875403896E-03 +1.67203334312E-03 +3.68698152863E-03 +1.79561984697E-03 +7.83307583552E-01 +2.63135541399E-01
2.74500000000E+09 +7.48155487093E-01 +9.69609877052E-02 +4.38503639573E-03 +9.50645121488E-04 +4.08186955129E-03 +1.42977417337E-03 +7.84489164380E-01 +2.47579227851E-01
2.75000000000E+09 +7.43218480686E-01 +7.94280855860E-02 +4.47996607053E-03 +7.61740985525E-04 +4.52429163168E-03 +1.26400180021E-03 +7.84703965260E-01 +2.32434408509E-01
2.75500000000E+09 +7.37606660194E-01 +6.20246083812E-02 +4.75866988429E-03 +5.33014787066E-04 +5.05884943027E-03 +8.16054658317E-04 +7.83925569426E-01 +2.17456894471E-01
2.76000000000E+09 +7.31892994263E-01 +4.48275080665E-02 +5.02303168361E-03 +8.52537422913E-05 +5.41728567263E-03 +1.26301143931E-04 +7.83543442197E-01 +2.01845623848E-01
2.76500000000E+09 +7.26185671888E-01 +2.73837787322E-02 +5.44955771012E-03 -3.33718776691E-04 +5.67836516642E-03 -4.01205567671E-04 +7.82511272658E-01 +1.84456269464E-01
2.77000000000E+09 +7.21138586638E-01 +9.39770730259E-03 +5.98026624130E-03 -1.21890568440E-03 +6.21823923922E-03 -1.38939436073E-03 +7.81631291921E-01 +1.66730314747E-01
2.77500000000E+09 +7.16247239771E-01 -9.26288039855E-03 +5.74587130746E-03 -2.58740924297E-03 +5.86671213596E-03 -2.79548037628E-03 +7.79736004572E-01 +1.48579456066E-01
2.78000000000E+09 +7.11468097707E-01 -2.88480739012E-02 +4.97713409097E-03 -3.01819580577E-03 +4.91263456516E-03 -3.32208513604E-03 +7.77635643500E-01 +1.31463992010E-01
2.78500000000E+09 +7.06611547064E-01 -4.91601857849E-02 +4.79326202224E-03 -3.20293510356E-03 +4.51052920555E-03 -3.44856276021E-03 +7.75525327674E-01 +1.14331124102E-01
2.79000000000E+09 +7.00911774700E-01 -7.06160586806E-02 +4.91669111194E-03 -3.68999606093E-03 +4.52537842774E-03 -3.79173645345E-03 +7.72303103653E-01 +9.63582052498E-02
2.79500000000E+09 +6.93444117575E-01 -9.17562933090E-02 +4.66116886522E-03 -4.30985356949E-03 +4.37237735675E-03 -4.06365863774E-03 +7.67758108731E-01 +7.79044956000E-02
2.80000000000E+09 +6.84218433699E-01 -1.12031373113E-01 +4.72397550955E-03 -5.23481686854E-03 +4.65563762635E-03 -4.82693084115E-03 +7.62455531074E-01 +5.86014992355E-02
2.80500000000E+09 +6.74608250797E-01 -1.31084119123E-01 +3.81794716454E-03 -6.45239515899E-03 +4.07907943268E-03 -6.31467722694E-03 +7.56714995856E-01 +3.98126038832E-02
2.81000000000E+09 +6.64026045661E-01 -1.49292550124E-01 +2.61272284627E-03 -6.57727275282E-03 +2.80998494629E-03 -6.70904685814E-03 +7.51239956250E-01 +2.02664629557E-02
2.81500000000E+09 +6.52688124756E-01 -1.66932735430E-01 +2.25151439930E-03 -6.68915713738E-03 +2.15175528031E-03 -6.97168676315E-03 +7.44311274682E-01 +9.02846851786E-04
2.82000000000E+09 +6.40398710756E-01 -1.84709458120E-01 +1.63414282967E-03 -7.23340572993E-03 +1.33440948160E-03 -7.24225444861E-03 +7.36615497380E-01 -1.87049066455E-02
2.82500000000E+09 +6.26858684057E-01 -2.02514794184E-01 +6.43141033341E-04 -7.54744618631E-03 +3.25430261406E-04 -7.27669773831E-03 +7.27136283990E-01 -3.85942280584E-02
2.83000000000E+09 +6.11444546882E-01 -2.21165237848E-01 -5.74795810820E-05 -7.62651872065E-03 -9.83724025320E-05 -7.18668166539E-03 +7.16776605543E-01 -5.85657234381E-02
2.83500000000E+09 +5.94969658220E-01 -2.39371706609E-01 -1.03033211366E-03 -7.57714100427E-03 -7.53955529028E-04 -7.36155974949E-03 +7.06461122321E-01 -7.86010868516E-02
2.84000000000E+09 +5.77083759500E-01 -2.58082281314E-01 -1.55610973509E-03 -7.07106580062E-03 -1.34405217155E-03 -7.11154144479E-03 +6.96120963998E-01 -1.00011782262E-01
2.84500000000E+09 +5.57649407654E-01 -2.77518183927E-01 -1.47730238889E-03 -7.61992639056E-03 -1.39946401273E-03 -7.72261021792E-03 +6.83813090261E-01 -1.21423533647E-01
2.85000000000E+09 +5.36260320511E-01 -2.96625996326E-01 -2.63302329064E-03 -8.63170587263E-03 -2.63602491059E-03 -8.68956600827E-03 +6.69548870630E-01 -1.42279915254E-01
2.85500000000E+09 +5.14002163661E-01 -3.14939745812E-01 -4.66258281735E-03 -8.82214352386E-03 -4.59596715224E-03 -8.71844101455E-03 +6.54150761722E-01 -1.61830337481E-01
2.86000000000E+09 +4.90790814581E-01 -3.33267890445E-01 -6.42073204223E-03 -8.00689873334E-03 -6.31160136375E-03 -7.88533299532E-03 +6.38464584971E-01 -1.81992936584E-01
2.86500000000E+09 +4.66585344168E-01 -3.50091730317E-01 -7.93378632346E-03 -6.50641606894E-03 -7.88343993364E-03 -6.56435238920E-03 +6.21080788607E-01 -2.03617180264E-01
2.87000000000E+09 +4.41639915125E-01 -3.66306575993E-01 -8.14328270850E-03 -4.70808463428E-03 -8.22988022224E-03 -4.74843361792E-03 +6.00737339509E-01 -2.25160638492E-01
2.87500000000E+09 +4.15765891234E-01 -3.80743349685E-01 -7.68819560983E-03 -4.10722914546E-03 -7.76938375124E-03 -3.83584071279E-03 +5.79997061167E-01 -2.44548143164E-01
2.88000000000E+09 +3.89923764185E-01 -3.93548718954E-01 -8.02458903675E-03 -4.35034523925E-03 -7.92066764523E-03 -3.91677655357E-03 +5.58539574704E-01 -2.63927839827E-01
2.88500000000E+09 +3.64532445872E-01 -4.05190433248E-01 -9.88884361969E-03 -3.48290389613E-03 -9.39739535722E-03 -3.14226678302E-03 +5.35391033249E-01 -2.82083479103E-01
2.89000000000E+09 +3.38069516896E-01 -4.17238348846E-01 -1.00549991392E-02 -1.62620665200E-03 -9.45635229494E-03 -1.76084213511E-03 +5.09892486574E-01 -3.00462841745E-01
2.89500000000E+09 +3.09838558324E-01 -4.28400227546E-01 -1.01254611414E-02 -6.54561093573E-04 -9.80066861915E-03 -1.06746566800E-03 +4.81395303114E-01 -3.17351985976E-01
2.90000000000E+09 +2.78978571820E-01 -4.38626908713E-01 -1.04930464105E-02 +7.08226871281E-04 -1.06086487336E-02 +2.78070666339E-04 +4.51737869179E-01 -3.32286915971E-01
2.90500000000E+09 +2.45083369568E-01 -4.46193393227E-01 -1.00464513568E-02 +1.99420194835E-03 -1.02551821939E-02 +2.07186548998E-03 +4.22796180191E-01 -3.47117315763E-01
2.91000000000E+09 +2.10443673127E-01 -4.50001183351E-01 -9.88023568614E-03 +2.72244213179E-03 -9.77671536603E-03 +2.99101527358E-03 +3.91606893440E-01 -3.62331202474E-01
2.91500000000E+09 +1.75578616674E-01 -4.51812815005E-01 -1.00322351364E-02 +4.19997380238E-03 -9.48513443039E-03 +4.22942123270E-03 +3.58285103261E-01 -3.74596061588E-01
2.92000000000E+09 +1.40312313789E-01 -4.51619959016E-01 -9.05863025262E-03 +5.67971021357E-03 -8.50516116845E-03 +5.29698897803E-03 +3.23391792865E-01 -3.83606269292E-01
2.92500000000E+09 +1.05343151478E-01 -4.49558093485E-01 -8.18477558832E-03 +5.84034994388E-03 -7.96485567633E-03 +5.20125966346E-03 +2.87856000743E-01 -3.89851180264E-01
2.93000000000E+09 +7.04209537238E-02 -4.46416336739E-01 -8.50242255143E-03 +6.55318904739E-03 -8.68017009160E-03 +5.96656218837E-03 +2.51849116356E-01 -3.94797259386E-01
2.93500000000E+09 +3.48802849452E-02 -4.42042591608E-01 -8.10203864404E-03 +8.36113960815E-03 -8.45988909391E-03 +8.05638700399E-03 +2.14694653147E-01 -3.99795610256E-01
2.94000000000E+09 -6.80132672553E-04 -4.35185126333E-01 -6.87700915500E-03 +9.64744534704E-03 -7.04751436738E-03 +9.54773865087E-03 +1.74765324926E-01 -4.03298064024E-01
2.94500000000E+09 -3.59385023693E-02 -4.27047550744E-01 -5.57306189349E-03 +1.10702851318E-02 -5.85409598905E-03 +1.08143031771E-02 +1.34114316087E-01 -4.02857155277E-01
2.95000000000E+09 -7.19200462856E-02 -4.14976455148E-01 -3.26867176658E-03 +1.15305942254E-02 -3.68319320981E-03 +1.13578420750E-02 +9.39924961086E-02 -3.98103876387E-01
2.95500000000E+09 -1.05702380361E-01 -3.99338388629E-01 -1.76671792552E-03 +1.09365234686E-02 -2.24006728829E-03 +1.11263882525E-02 +5.58207447655E-02 -3.91257914390E-01
2.96000000000E+09 -1.37493674673E-01 -3.81977116390E-01 -1.42300372406E-03 +1.07894948828E-02 -1.70412606896E-03 +1.12975358139E-02 +1.54852348493E-02 -3.82524171961E-01
2.96500000000E+09 -1.69078597004E-01 -3.62649182399E-01 -7.06855875210E-04 +1.15359992464E-02 -4.28805123095E-04 +1.20016361385E-02 -2.56898661226E-02 -3.70612171695E-01
2.97000000000E+09 -1.99763735028E-01 -3.39731926174E-01 +9.34657537245E-04 +1.21028553495E-02 +1.42963890044E-03 +1.21111766260E-02 -6.61363664462E-02 -3.55353327543E-01
2.97500000000E+09 -2.28794513361E-01 -3.14912776583E-01 +2.64974095015E-03 +1.22772178371E-02 +2.71014796089E-03 +1.18393996679E-02 -1.05397397012E-01 -3.37660074755E-01
2.98000000000E+09 -2.57759411195E-01 -2.87906270815E-01 +4.96585563391E-03 +1.15033176674E-02 +4.52989453232E-03 +1.13012456273E-02 -1.42926810872E-01 -3.16988202107E-01
2.98500000000E+09 -2.85589712477E-01 -2.57907634109E-01 +5.78249868009E-03 +1.01348401888E-02 +5.43234876666E-03 +1.05035922222E-02 -1.79534653541E-01 -2.93682228714E-01
2.99000000000E+09 -3.11147371413E-01 -2.26169771951E-01 +6.10406058098E-03 +9.49033188061E-03 +6.31969282708E-03 +1.00919795130E-02 -2.14561607179E-01 -2.66495948278E-01
2.99500000000E+09 -3.35017838572E-01 -1.93473438130E-01 +7.21715282093E-03 +9.90913204839E-03 +7.85270682779E-03 +1.01385222244E-02 -2.47949123798E-01 -2.36934604124E-01
3.00000000000E+09 -3.56357651684E-01 -1.60294360296E-01 +9.41560650840E-03 +8.79760049002E-03 +9.98790041199E-03 +8.30755592512E-03 -2.78434044452E-01 -2.04195792386E-01
3.00500000000E+09 -3.76309676235E-01 -1.27462596385E-01 +9.96967655763E-03 +7.21777201473E-03 +9.84360549373E-03 +6.53442244049E-03 -3.06324865421E-01 -1.71419856869E-01
3.01000000000E+09 -3.94567540999E-01 -9.40501382867E-02 +1.09390604892E-02 +6.27078221066E-03 +1.03770411144E-02 +5.84184846115E-03 -3.32173144294E-01 -1.37008325098E-01
3.01500000000E+09 -4.10241234338E-01 -5.93776538293E-02 +1.16778482681E-02 +4.82199978764E-03 +1.12634906640E-02 +4.95009604695E-03 -3.55925357251E-01 -1.01203938572E-01
3.02000000000E+09 -4.21972524131E-01 -2.43788421908E-02 +1.22065475554E-02 +3.48045603492E-03 +1.20967657602E-02 +3.68897872695E-03 -3.75942307859E-01 -6.16818063776E-02
3.02500000000E+09 -4.30750114636E-01 +1.06467368401E-02 +1.27113543303E-02 +2.16921372497E-03 +1.25995283863E-02 +2.24260207243E-03 -3.91308771777E-01 -2.21383945451E-02
3.03000000000E+09 -4.35966548529E-01 +4.62475219783E-02 +1.31324960954E-02 +3.27715954393E-04 +1.29579624212E-02 +4.60616458592E-04 -4.04862094176E-01 +1.74385175818E-02
3.03500000000E+09 -4.37447152118E-01 +8.19749056323E-02 +1.30241099904E-02 -1.32296147698E-03 +1.29132784073E-02 -9.30668798552E-04 -4.16173457028E-01 +5.68571871328E-02
3.04000000000E+09 -4.36042724883E-01 +1.16845926981E-01 +1.28908468176E-02 -3.30852089781E-03 +1.32372805580E-02 -2.88201194058E-03 -4.25458518820E-01 +9.69861830839E-02
3.04500000000E+09 -4.32754146174E-01 +1.51554399747E-01 +1.18770194162E-02 -5.03321921754E-03 +1.26365518750E-02 -5.11337031496E-03 -4.31202019860E-01 +1.37913803862E-01
3.05000000000E+09 -4.27474008181E-01 +1.86563031309E-01 +1.09481321222E-02 -6.10222934358E-03 +1.12985909954E-02 -6.92352434621E-03 -4.32425569911E-01 +1.77788657323E-01
3.05500000000E+09 -4.20633719284E-01 +2.20994024454E-01 +1.02003375452E-02 -7.04127945892E-03 +9.82853012957E-03 -7.85377846475E-03 -4.32087972708E-01 +2.15746557947E-01
3.06000000000E+09 -4.11705052786E-01 +2.55881775735E-01 +9.68562655423E-03 -8.47611017382E-03 +8.78628985641E-03 -8.62457789208E-03 -4.30199258076E-01 +2.54740206188E-01
3.06500000000E+09 -4.00165327779E-01 +2.89303005228E-01 +8.36103921675E-03 -1.02034273439E-02 +7.87036530853E-03 -9.53256230646E-03 -4.24862155716E-01 +2.92552823048E-01
3.07000000000E+09 -3.87381418817E-01 +3.19758111119E-01 +6.12637128041E-03 -1.14719221381E-02 +6.53410578523E-03 -1.07180682302E-02 -4.17852026751E-01 +3.28064553355E-01
