# Hz S RI R 50
! CMT, C1220, 16058040, 17.2.0/1
! Date: 15/08/2018 09:49:40
! Data: Format (Calibration Info)
! Freq                      S11: Re/Im (F2)                       S21: Re/Im (F2)                       S12: Re/Im (F2)                       S22: Re/Im (F2)            
2.50000000000E+09 +5.76158085196E-01 +6.69631131798E-01 +5.66500422834E-05 -1.60435907652E-03 +1.29150070547E-04 -1.70991980993E-03 +5.74886703200E-01 +7.17970345333E-01
2.50500000000E+09 +5.82918140022E-01 +6.62191197860E-01 -5.73337941429E-06 -1.67444853821E-03 -1.07745003988E-04 -1.71770238164E-03 +5.80306650775E-01 +7.12555563399E-01
2.51000000000E+09 +5.90133280730E-01 +6.54200621998E-01 -2.38877716794E-04 -1.75974204504E-03 -3.33958955069E-04 -1.71582717051E-03 +5.85850460529E-01 +7.07342069152E-01
2.51500000000E+09 +5.97383216341E-01 +6.46098309260E-01 -4.61838866683E-04 -1.74200740320E-03 -4.68631912536E-04 -1.66240578392E-03 +5.91047276607E-01 +7.01873716401E-01
2.52000000000E+09 +6.04316246915E-01 +6.37460757571E-01 -7.23348303864E-04 -1.65755283817E-03 -6.56028955753E-04 -1.70212553362E-03 +5.96293053749E-01 +6.95726864508E-01
2.52500000000E+09 +6.10523770263E-01 +6.29123160354E-01 -8.67879478958E-04 -1.48551616406E-03 -8.00623379956E-04 -1.56460694496E-03 +6.02249466194E-01 +6.89238235031E-01
2.53000000000E+09 +6.16193707796E-01 +6.20795251738E-01 -9.44709619827E-04 -1.46671005633E-03 -9.38313550486E-04 -1.52799904405E-03 +6.08596742901E-01 +6.82107043967E-01
2.53500000000E+09 +6.21331210187E-01 +6.12640144329E-01 -1.06640848253E-03 -1.44165309702E-03 -1.08559849534E-03 -1.47323245117E-03 +6.14513350330E-01 +6.75482662567E-01
2.54000000000E+09 +6.25907357553E-01 +6.04701172727E-01 -1.29980999941E-03 -1.40930412848E-03 -1.19739799289E-03 -1.41105295836E-03 +6.20222647090E-01 +6.68899931521E-01
2.54500000000E+09 +6.30431754739E-01 +5.97354714471E-01 -1.44389406450E-03 -1.31281107149E-03 -1.39267581892E-03 -1.40377983917E-03 +6.25794832538E-01 +6.62641892597E-01
2.55000000000E+09 +6.35412612122E-01 +5.90083975128E-01 -1.63545385556E-03 -1.04176984692E-03 -1.65230696786E-03 -1.27613722031E-03 +6.30959030413E-01 +6.56085671284E-01
2.55500000000E+09 +6.41050985224E-01 +5.82316169231E-01 -1.70127220749E-03 -8.39276063871E-04 -1.91408024606E-03 -1.03687706778E-03 +6.36171016178E-01 +6.49483986211E-01
2.56000000000E+09 +6.47538086162E-01 +5.74430901821E-01 -1.60782643629E-03 -6.67441379303E-04 -1.99951986158E-03 -6.86237381097E-04 +6.41851550481E-01 +6.42070797287E-01
2.56500000000E+09 +6.54426248861E-01 +5.65574733835E-01 -1.59848870593E-03 -6.88850910383E-04 -1.96425029691E-03 -4.54022913274E-04 +6.47591765425E-01 +6.34462304641E-01
2.57000000000E+09 +6.61364514357E-01 +5.56515663643E-01 -1.77910379104E-03 -6.97370272803E-04 -1.87708215854E-03 -2.90846274573E-04 +6.52839334937E-01 +6.26976984791E-01
2.57500000000E+09 +6.68523940574E-01 +5.46835370428E-01 -1.97813050898E-03 -5.19688845334E-04 -1.80398587677E-03 -1.81881029527E-04 +6.58236363848E-01 +6.19731198661E-01
2.58000000000E+09 +6.74914404296E-01 +5.37086893864E-01 -2.17202940375E-03 -2.74122069275E-04 -1.81015990314E-03 -1.80856262786E-04 +6.63048982996E-01 +6.12308534510E-01
2.58500000000E+09 +6.80897653258E-01 +5.27146039568E-01 -2.06540474166E-03 +1.30191173466E-04 -1.84877812345E-03 -1.85665691772E-05 +6.67678658690E-01 +6.04687196239E-01
2.59000000000E+09 +6.86171019700E-01 +5.17641284227E-01 -1.83240355600E-03 +1.84560516067E-04 -1.72209980696E-03 +2.05394150132E-05 +6.72664375727E-01 +5.96827431214E-01
2.59500000000E+09 +6.90961787415E-01 +5.07784979426E-01 -1.92702691221E-03 -2.73890504363E-05 -1.94811219601E-03 -8.35851610261E-05 +6.77768167116E-01 +5.88238203371E-01
2.60000000000E+09 +6.94847422330E-01 +4.98406293824E-01 -2.21536688866E-03 +8.54723667218E-05 -2.24029897535E-03 +9.33157235617E-05 +6.82826163313E-01 +5.79671586427E-01
2.60500000000E+09 +6.99071405276E-01 +4.88825492583E-01 -2.46023348946E-03 +4.27104446365E-04 -2.40779801483E-03 +4.36965660802E-04 +6.88268434220E-01 +5.71398529986E-01
2.61000000000E+09 +7.03370944952E-01 +4.78797631616E-01 -2.56748900727E-03 +8.64946018642E-04 -2.54821831146E-03 +7.89050346660E-04 +6.93328278410E-01 +5.62782686348E-01
2.61500000000E+09 +7.08195357497E-01 +4.68109739429E-01 -2.32428801462E-03 +1.46682263663E-03 -2.40676987616E-03 +1.45249034226E-03 +6.97751651737E-01 +5.54425538330E-01
2.62000000000E+09 +7.12963285936E-01 +4.56430810862E-01 -1.85333343577E-03 +1.49400798589E-03 -1.97755091304E-03 +1.59442504151E-03 +7.02308026666E-01 +5.45516370292E-01
2.62500000000E+09 +7.17824977580E-01 +4.43603119260E-01 -1.90840516597E-03 +1.39496277129E-03 -1.92072896123E-03 +1.64041673213E-03 +7.07226459819E-01 +5.36124656260E-01
2.63000000000E+09 +7.22342237011E-01 +4.30067582506E-01 -1.91324580635E-03 +1.68050136315E-03 -1.67754576565E-03 +1.93346660228E-03 +7.11981223474E-01 +5.26708743018E-01
2.63500000000E+09 +7.26388309692E-01 +4.16460071708E-01 -1.87652804321E-03 +1.87543849549E-03 -1.52179413119E-03 +1.86496157749E-03 +7.17188823734E-01 +5.17247293132E-01
2.64000000000E+09 +7.30011885932E-01 +4.02690059622E-01 -1.88319103934E-03 +2.27262463608E-03 -1.57451994826E-03 +1.99778233625E-03 +7.22132420505E-01 +5.07662630234E-01
2.64500000000E+09 +7.33102758896E-01 +3.89583022252E-01 -1.40693739091E-03 +2.76315142513E-03 -1.44208218584E-03 +2.32850148001E-03 +7.26690915399E-01 +4.98231736412E-01
2.65000000000E+09 +7.35718983799E-01 +3.77116899556E-01 -8.51456204852E-04 +2.77497140743E-03 -1.20317525750E-03 +2.49318980930E-03 +7.30859187490E-01 +4.88605140094E-01
2.65500000000E+09 +7.38482246843E-01 +3.64714059545E-01 -7.03790289797E-04 +2.52061511155E-03 -9.76053404839E-04 +2.60183780971E-03 +7.34749953515E-01 +4.77949799874E-01
2.66000000000E+09 +7.41348206680E-01 +3.52770890121E-01 -6.66688996898E-04 +2.60442627212E-03 -8.28316667173E-04 +2.80628032203E-03 +7.38746804494E-01 +4.66811598601E-01
2.66500000000E+09 +7.44465789880E-01 +3.40661679729E-01 -5.79451072880E-04 +2.85181135505E-03 -3.81966557909E-04 +3.01338404392E-03 +7.43248780555E-01 +4.55391626675E-01
2.67000000000E+09 +7.47171045106E-01 +3.27461947270E-01 -9.97744419871E-05 +3.02043997848E-03 +1.51918048233E-04 +2.93717859718E-03 +7.47785884653E-01 +4.44243524815E-01
2.67500000000E+09 +7.49328151008E-01 +3.13596188713E-01 +3.06832971376E-04 +2.87874415772E-03 +3.38440238177E-04 +2.70930742914E-03 +7.51666077672E-01 +4.33018365012E-01
2.68000000000E+09 +7.51118954336E-01 +2.99138178792E-01 +3.64710209297E-04 +2.68993873362E-03 +3.04357397811E-04 +2.53903208800E-03 +7.55529701664E-01 +4.22453678219E-01
2.68500000000E+09 +7.52337456588E-01 +2.83857969953E-01 +2.46154059354E-04 +2.72339498799E-03 +2.01142933805E-04 +2.73077322236E-03 +7.58770188933E-01 +4.10865368800E-01
2.69000000000E+09 +7.52845875827E-01 +2.68346701077E-01 +4.47239078524E-04 +3.11433633340E-03 +3.93732748130E-04 +3.17507615965E-03 +7.61286649257E-01 +3.98778996706E-01
2.69500000000E+09 +7.53150908419E-01 +2.52892014598E-01 +1.05490736139E-03 +3.36299193652E-03 +1.07548869256E-03 +3.32038000642E-03 +7.64050533853E-01 +3.85975215167E-01
2.70000000000E+09 +7.53438581633E-01 +2.37187177631E-01 +1.57656697588E-03 +3.19900420992E-03 +1.52046214264E-03 +3.12562682987E-03 +7.67154716014E-01 +3.72310549346E-01
2.70500000000E+09 +7.53289296100E-01 +2.21988641763E-01 +2.03792679562E-03 +2.72051142817E-03 +1.85566973939E-03 +2.75796927796E-03 +7.70135388999E-01 +3.58678996578E-01
2.71000000000E+09 +7.53264552315E-01 +2.07099528660E-01 +2.06372230352E-03 +2.39631856479E-03 +2.03694062287E-03 +2.59082511247E-03 +7.72740125305E-01 +3.45926822251E-01
2.71500000000E+09 +7.53991825280E-01 +1.92000572889E-01 +1.90306131402E-03 +2.27467270098E-03 +1.97676864506E-03 +2.46395396768E-03 +7.75654675854E-01 +3.33472129058E-01
2.72000000000E+09 +7.54405663813E-01 +1.76924805243E-01 +2.00272130667E-03 +2.58955703408E-03 +2.30019275271E-03 +2.61880408053E-03 +7.77824980712E-01 +3.20430757217E-01
2.72500000000E+09 +7.54857581171E-01 +1.61442076893E-01 +2.60661997626E-03 +2.59386523242E-03 +2.81735189217E-03 +2.25231024223E-03 +7.78820528862E-01 +3.06413017559E-01
2.73000000000E+09 +7.54756375046E-01 +1.45433945360E-01 +2.80999761031E-03 +2.38471817700E-03 +2.72627340037E-03 +1.95690121040E-03 +7.80095564031E-01 +2.91922525132E-01
2.73500000000E+09 +7.53709927601E-01 +1.28608550688E-01 +3.13958134555E-03 +2.43610069857E-03 +2.72235501303E-03 +2.11186926519E-03 +7.80951369296E-01 +2.76858304681E-01
2.74000000000E+09 +7.51796980596E-01 +1.11474073574E-01 +3.90837240525E-03 +2.24149806135E-03 +3.29417662859E-03 +2.26415436169E-03 +7.82504788871E-01 +2.62195989775E-01
2.74500000000E+09 +7.48403852558E-01 +9.35706187133E-02 +4.11506968158E-03 +1.57428709231E-03 +3.73004497119E-03 +1.92907637359E-03 +7.83728944822E-01 +2.47006800837E-01
2.75000000000E+09 +7.43369128360E-01 +7.58521477599E-02 +4.23998525210E-03 +1.21894328938E-03 +4.24954742772E-03 +1.73685121290E-03 +7.84233258118E-01 +2.31819826957E-01
2.75500000000E+09 +7.37578899330E-01 +5.83522529254E-02 +4.40176214629E-03 +8.92765547072E-04 +4.63632528801E-03 +1.23239147934E-03 +7.83282515238E-01 +2.16448348261E-01
2.76000000000E+09 +7.31740572859E-01 +4.10756238553E-02 +4.63535442138E-03 +6.65945705930E-04 +4.94971540939E-03 +7.58760673216E-04 +7.82538838636E-01 +2.01152005239E-01
2.76500000000E+09 +7.25948782024E-01 +2.38696356201E-02 +5.07218643942E-03 +3.92761601425E-04 +5.34069224637E-03 +3.26280882069E-04 +7.81409279109E-01 +1.83871352066E-01
2.77000000000E+09 +7.20732458693E-01 +5.83763210713E-03 +5.56769625678E-03 -3.43513927855E-04 +5.80951771732E-03 -4.71189404985E-04 +7.80576255527E-01 +1.66445138326E-01
2.77500000000E+09 +7.15732318124E-01 -1.30400949855E-02 +5.58610730755E-03 -1.39325797336E-03 +5.74041924808E-03 -1.65475111864E-03 +7.78682172330E-01 +1.48440300662E-01
2.78000000000E+09 +7.10897194213E-01 -3.25306827852E-02 +5.18468008610E-03 -2.01957201669E-03 +5.19039521652E-03 -2.34217022812E-03 +7.76573343595E-01 +1.31162866882E-01
2.78500000000E+09 +7.05717947795E-01 -5.30646124072E-02 +5.04199646664E-03 -2.36217146115E-03 +4.82760277431E-03 -2.67535709923E-03 +7.74341126362E-01 +1.14183447256E-01
2.79000000000E+09 +6.99696661919E-01 -7.45716279273E-02 +5.03063768249E-03 -2.95152619937E-03 +4.67532060519E-03 -3.05384894465E-03 +7.70925363910E-01 +9.65149247181E-02
2.79500000000E+09 +6.92129590067E-01 -9.57209637333E-02 +4.83177813936E-03 -3.31702353428E-03 +4.54598027428E-03 -3.18179537162E-03 +7.66708497030E-01 +7.81433940295E-02
2.80000000000E+09 +6.83067380462E-01 -1.15903559386E-01 +5.13407254686E-03 -4.10188760846E-03 +5.01879785096E-03 -3.80911941386E-03 +7.61463409825E-01 +5.89477923635E-02
2.80500000000E+09 +6.73478787721E-01 -1.35054568181E-01 +4.46446619320E-03 -5.41934325603E-03 +4.66906932361E-03 -5.25117675918E-03 +7.55495353993E-01 +4.01796943086E-02
2.81000000000E+09 +6.62758358268E-01 -1.53272897664E-01 +3.37512604133E-03 -5.56838408362E-03 +3.53814035588E-03 -5.71654016431E-03 +7.49963201926E-01 +2.11887239339E-02
2.81500000000E+09 +6.51447229934E-01 -1.71083172453E-01 +3.19298808611E-03 -5.86177379482E-03 +3.18498274747E-03 -6.10066754531E-03 +7.43344676822E-01 +1.94298918719E-03
2.82000000000E+09 +6.38760585400E-01 -1.88766968442E-01 +2.73316353912E-03 -6.58201417815E-03 +2.43275032275E-03 -6.67092374690E-03 +7.36011284577E-01 -1.76450038255E-02
2.82500000000E+09 +6.24877697498E-01 -2.06354792284E-01 +1.74790420142E-03 -7.04698012619E-03 +1.50176891879E-03 -6.77907234924E-03 +7.26751130859E-01 -3.76749019188E-02
2.83000000000E+09 +6.09292002993E-01 -2.24306882316E-01 +1.13935193296E-03 -7.31576984032E-03 +1.08123037400E-03 -6.92184068715E-03 +7.16456068041E-01 -5.76653326284E-02
2.83500000000E+09 +5.93109236799E-01 -2.42453927689E-01 +5.01105331664E-05 -7.42151527348E-03 +3.02922153003E-04 -7.15065314249E-03 +7.05889338722E-01 -7.78149936226E-02
2.84000000000E+09 +5.75209406198E-01 -2.61334208529E-01 -5.44182085002E-04 -6.94792389344E-03 -3.33296474752E-04 -6.89256037785E-03 +6.95310281432E-01 -9.87768482438E-02
2.84500000000E+09 +5.55209266197E-01 -2.80996998287E-01 -2.61482052700E-04 -7.46494219360E-03 -1.75241821680E-04 -7.52412407086E-03 +6.83509150196E-01 -1.19703611850E-01
2.85000000000E+09 +5.33480805075E-01 -3.00035978472E-01 -1.38183851874E-03 -8.61217539506E-03 -1.41357979972E-03 -8.61485109070E-03 +6.70030395103E-01 -1.40647825769E-01
2.85500000000E+09 +5.10757072684E-01 -3.18212596650E-01 -3.21256532339E-03 -8.85522601713E-03 -3.17396532610E-03 -8.76792742498E-03 +6.54743126503E-01 -1.60867914084E-01
2.86000000000E+09 +4.87361857638E-01 -3.36267483859E-01 -4.87538922384E-03 -8.25492651278E-03 -4.75087230535E-03 -8.20082472381E-03 +6.38806573717E-01 -1.81153974199E-01
2.86500000000E+09 +4.62952823231E-01 -3.53284404940E-01 -6.47842918200E-03 -7.32539345540E-03 -6.37239678797E-03 -7.36928083983E-03 +6.21467981133E-01 -2.02727145349E-01
2.87000000000E+09 +4.37645461349E-01 -3.69389660411E-01 -7.07251562404E-03 -5.60488447687E-03 -7.13614269767E-03 -5.61496165292E-03 +6.01222349511E-01 -2.24051613435E-01
2.87500000000E+09 +4.11652832458E-01 -3.83413321050E-01 -6.55706440545E-03 -4.92791117884E-03 -6.72524541479E-03 -4.77731129808E-03 +5.80675932764E-01 -2.43449739949E-01
2.88000000000E+09 +3.86155572596E-01 -3.95857730859E-01 -7.05739529887E-03 -5.19721162334E-03 -7.02499199526E-03 -4.87349329663E-03 +5.59442010352E-01 -2.62823829500E-01
2.88500000000E+09 +3.60283132827E-01 -4.07830160902E-01 -8.77049213238E-03 -4.52869343995E-03 -8.34801843056E-03 -4.11886088190E-03 +5.36597364494E-01 -2.80940986612E-01
2.89000000000E+09 +3.33414069184E-01 -4.19498039783E-01 -8.99594111398E-03 -2.82084886966E-03 -8.45294946592E-03 -2.82998045776E-03 +5.11547555045E-01 -2.99404539016E-01
2.89500000000E+09 +3.04663728977E-01 -4.30271514654E-01 -9.10705779768E-03 -2.26212342871E-03 -8.74326968621E-03 -2.61177812083E-03 +4.83500884566E-01 -3.17189660739E-01
2.90000000000E+09 +2.73640808573E-01 -4.39801377103E-01 -9.91857206390E-03 -1.20319436604E-03 -9.89972990306E-03 -1.56200519106E-03 +4.53407961780E-01 -3.32613782549E-01
2.90500000000E+09 +2.39639801544E-01 -4.46643633043E-01 -9.74285650668E-03 +8.96056421938E-05 -9.95748427782E-03 +1.17148743074E-04 +4.23986301506E-01 -3.47582362888E-01
2.91000000000E+09 +2.05591667184E-01 -4.50210794000E-01 -9.98796079693E-03 +9.46492269449E-04 -9.95830810188E-03 +1.18840530597E-03 +3.92587931012E-01 -3.62639149715E-01
2.91500000000E+09 +1.70715884992E-01 -4.52333668697E-01 -1.02470413182E-02 +2.56362922145E-03 -9.72533778662E-03 +2.73492821308E-03 +3.59451825391E-01 -3.74524242484E-01
2.92000000000E+09 +1.35230423103E-01 -4.51952833643E-01 -9.14770298622E-03 +4.06865406041E-03 -8.59524901778E-03 +3.75451705617E-03 +3.25316757927E-01 -3.84019723069E-01
2.92500000000E+09 +1.00240901634E-01 -4.49517689350E-01 -8.51573409808E-03 +4.00007225819E-03 -8.24640063853E-03 +3.51864883971E-03 +2.89562402050E-01 -3.90792073896E-01
2.93000000000E+09 +6.56862852859E-02 -4.45975346257E-01 -9.01649476648E-03 +4.86150861060E-03 -9.05887936607E-03 +4.32019603613E-03 +2.53254787006E-01 -3.96357863313E-01
2.93500000000E+09 +3.06639902357E-02 -4.40869588181E-01 -8.84996614869E-03 +6.29568639977E-03 -9.13061321743E-03 +5.98533449927E-03 +2.15510397781E-01 -4.01396498883E-01
2.94000000000E+09 -3.93015944362E-03 -4.33940210934E-01 -8.25021575069E-03 +7.80371973615E-03 -8.41083871503E-03 +7.60006713992E-03 +1.75302213534E-01 -4.04870333521E-01
2.94500000000E+09 -3.91275663283E-02 -4.26050436772E-01 -7.20191393584E-03 +9.39156521081E-03 -7.36991736825E-03 +9.15290858194E-03 +1.34542514116E-01 -4.04198466952E-01
2.95000000000E+09 -7.52762862958E-02 -4.13473716557E-01 -5.12212626352E-03 +1.00584846182E-02 -5.46333933150E-03 +9.91520935971E-03 +9.43725896564E-02 -3.99474034004E-01
2.95500000000E+09 -1.08920495441E-01 -3.96910143633E-01 -3.92035551239E-03 +9.87031027169E-03 -4.44617240883E-03 +1.00030822206E-02 +5.60954456133E-02 -3.92933680657E-01
2.96000000000E+09 -1.40124910918E-01 -3.79161502576E-01 -3.42116597990E-03 +1.01286057555E-02 -3.76896602466E-03 +1.06468831557E-02 +1.56547157770E-02 -3.84319531781E-01
2.96500000000E+09 -1.71713306079E-01 -3.59380587726E-01 -2.68309890792E-03 +1.08663627034E-02 -2.52773733127E-03 +1.13200624198E-02 -2.55019800302E-02 -3.72481078741E-01
2.97000000000E+09 -2.02114689308E-01 -3.36227403175E-01 -1.34509808791E-03 +1.15546714013E-02 -9.35969548401E-04 +1.15910321821E-02 -6.65462225260E-02 -3.57540095098E-01
2.97500000000E+09 -2.31381454076E-01 -3.11337147839E-01 -1.49014884316E-04 +1.20727320191E-02 -2.12234199740E-05 +1.17143524623E-02 -1.06287850916E-01 -3.39645203219E-01
2.98000000000E+09 -2.60292633270E-01 -2.83589212872E-01 +2.08389917051E-03 +1.22130713587E-02 +1.72947959226E-03 +1.19423815383E-02 -1.44347668149E-01 -3.18767155965E-01
2.98500000000E+09 -2.87113543351E-01 -2.53332406394E-01 +3.40402665390E-03 +1.12370031820E-02 +3.02917068025E-03 +1.15306651161E-02 -1.80964168270E-01 -2.95192147201E-01
2.99000000000E+09 -3.12117404293E-01 -2.22162167074E-01 +4.08254819373E-03 +1.09575131386E-02 +4.14424201912E-03 +1.15391312736E-02 -2.16389811014E-01 -2.67937191966E-01
2.99500000000E+09 -3.36293934740E-01 -1.89637391080E-01 +5.33907000556E-03 +1.14090689628E-02 +5.97399513704E-03 +1.18198199509E-02 -2.49773078222E-01 -2.37934426307E-01
3.00000000000E+09 -3.57243274500E-01 -1.55954584364E-01 +7.85981461836E-03 +1.06034839827E-02 +8.54087411496E-03 +1.02112229257E-02 -2.80703277499E-01 -2.05379808062E-01
3.00500000000E+09 -3.76369138482E-01 -1.22878238796E-01 +8.68040155320E-03 +9.11985582628E-03 +8.66729700303E-03 +8.41300462455E-03 -3.09011270870E-01 -1.71735900105E-01
3.01000000000E+09 -3.93682469913E-01 -8.94402333169E-02 +9.95726936120E-03 +8.22241267142E-03 +9.47204899031E-03 +7.78089800071E-03 -3.34620793127E-01 -1.36685813615E-01
3.01500000000E+09 -4.08453153071E-01 -5.54479584661E-02 +1.09541547499E-02 +6.98926613979E-03 +1.05218151762E-02 +7.00264291993E-03 -3.57872028374E-01 -1.00638758252E-01
3.02000000000E+09 -4.20165041416E-01 -2.08189359966E-02 +1.17638474215E-02 +5.43719002469E-03 +1.16199708637E-02 +5.63584319339E-03 -3.77996333896E-01 -6.11683022981E-02
3.02500000000E+09 -4.29009054847E-01 +1.43463981913E-02 +1.21196686184E-02 +4.27485665082E-03 +1.20748881591E-02 +4.30698302193E-03 -3.93513821042E-01 -2.13218761008E-02
3.03000000000E+09 -4.33744519517E-01 +5.04208169966E-02 +1.30481254711E-02 +2.79909137318E-03 +1.28752385118E-02 +2.86167168327E-03 -4.06890115031E-01 +1.88478650095E-02
3.03500000000E+09 -4.34255879215E-01 +8.60771095400E-02 +1.35457685010E-02 +9.58708931646E-04 +1.34262757980E-02 +1.32713491588E-03 -4.17870945779E-01 +5.82666359076E-02
3.04000000000E+09 -4.32368047056E-01 +1.19939971562E-01 +1.36524789858E-02 -1.37194221544E-03 +1.39908349506E-02 -8.40594727351E-04 -4.26973916882E-01 +9.90361958409E-02
3.04500000000E+09 -4.29423330105E-01 +1.54279038782E-01 +1.28550887604E-02 -3.31184912686E-03 +1.36531008228E-02 -3.30959899507E-03 -4.32038520271E-01 +1.40025053471E-01
3.05000000000E+09 -4.24412641773E-01 +1.89115848680E-01 +1.18953714504E-02 -4.62988969299E-03 +1.23734262853E-02 -5.37900050709E-03 -4.32761913815E-01 +1.79698109040E-01
3.05500000000E+09 -4.17016647050E-01 +2.23817590122E-01 +1.11150942532E-02 -5.44396488477E-03 +1.08338201607E-02 -6.22087555683E-03 -4.32256511433E-01 +2.17544456028E-01
3.06000000000E+09 -4.07752817531E-01 +2.58075895265E-01 +1.09666108008E-02 -6.76487447179E-03 +1.01063707075E-02 -7.01318961801E-03 -4.30488450299E-01 +2.56274569594E-01
3.06500000000E+09 -3.96048900642E-01 +2.90944292354E-01 +1.01118816870E-02 -8.82191559590E-03 +9.48311016038E-03 -8.29906153966E-03 -4.25257871760E-01 +2.94272377844E-01
3.07000000000E+09 -3.83626906565E-01 +3.20605208767E-01 +8.06261798445E-03 -1.04739386608E-02 +8.35235247201E-03 -9.62830107548E-03 -4.18015216850E-01 +3.30306677764E-01
