# Hz S RI R 50
! CMT, C1220, 16058040, 17.2.0/1
! Date: 15/08/2018 09:49:14
! Data: Format (Calibration Info)
! Freq                      S11: Re/Im (F2)                       S21: Re/Im (F2)                       S12: Re/Im (F2)                       S22: Re/Im (F2)            
2.50000000000E+09 +5.75742740455E-01 +6.69533131782E-01 -3.26947468991E-04 -1.84439623391E-03 -3.16485292254E-04 -1.96497336477E-03 +5.75218172336E-01 +7.17909259902E-01
2.50500000000E+09 +5.82512390706E-01 +6.62061648653E-01 -4.27890928607E-04 -1.84916948609E-03 -5.67816813652E-04 -1.91719805902E-03 +5.80621189352E-01 +7.12253881623E-01
2.51000000000E+09 +5.89779713676E-01 +6.54188869280E-01 -6.74402580334E-04 -1.80143679814E-03 -7.47783220482E-04 -1.78641956964E-03 +5.86066127266E-01 +7.07094065444E-01
2.51500000000E+09 +5.97206339330E-01 +6.46093101611E-01 -9.17193405760E-04 -1.79411811946E-03 -9.06403436287E-04 -1.69307425580E-03 +5.91306972345E-01 +7.01534298891E-01
2.52000000000E+09 +6.04138228284E-01 +6.37353081562E-01 -1.13894578458E-03 -1.62986473075E-03 -1.05018795738E-03 -1.68264586382E-03 +5.96605193043E-01 +6.95427391111E-01
2.52500000000E+09 +6.10336549194E-01 +6.28778671963E-01 -1.25204645342E-03 -1.48279488021E-03 -1.19485492663E-03 -1.54085874610E-03 +6.02429250378E-01 +6.88778541685E-01
2.53000000000E+09 +6.16043740706E-01 +6.20419310446E-01 -1.33374721455E-03 -1.40626636453E-03 -1.34284997206E-03 -1.46915446739E-03 +6.08559379678E-01 +6.81738179020E-01
2.53500000000E+09 +6.21101607037E-01 +6.12280155567E-01 -1.46485673399E-03 -1.36571813564E-03 -1.47434104403E-03 -1.36939062634E-03 +6.14379510092E-01 +6.75092971940E-01
2.54000000000E+09 +6.25588146063E-01 +6.04471979174E-01 -1.67561073306E-03 -1.30021892358E-03 -1.60160995427E-03 -1.36983418398E-03 +6.20124185741E-01 +6.68509496529E-01
2.54500000000E+09 +6.30299293196E-01 +5.97141132585E-01 -1.89829962679E-03 -1.19204212421E-03 -1.84634863785E-03 -1.35848610258E-03 +6.25694019079E-01 +6.62187605166E-01
2.55000000000E+09 +6.35097740146E-01 +5.89846820184E-01 -2.09671544308E-03 -8.47748212219E-04 -2.13509583519E-03 -1.07485951694E-03 +6.30671449903E-01 +6.55612404856E-01
2.55500000000E+09 +6.40756725038E-01 +5.82216196932E-01 -2.09736241098E-03 -6.07946195630E-04 -2.44599314089E-03 -7.73263472572E-04 +6.35889015988E-01 +6.49045678499E-01
2.56000000000E+09 +6.47097022615E-01 +5.74478434768E-01 -1.99840849406E-03 -3.92581982624E-04 -2.36863447362E-03 -2.85074099722E-04 +6.41497537034E-01 +6.41731836396E-01
2.56500000000E+09 +6.53924416580E-01 +5.65655096256E-01 -1.99410088804E-03 -4.34858422880E-04 -2.32981927030E-03 -6.19781475497E-05 +6.47131405649E-01 +6.34138338616E-01
2.57000000000E+09 +6.60847239155E-01 +5.56837167945E-01 -2.19124882355E-03 -3.51750701099E-04 -2.22056961578E-03 +1.19193125084E-04 +6.52488312493E-01 +6.26652730752E-01
2.57500000000E+09 +6.68118067236E-01 +5.47137132989E-01 -2.41870588477E-03 -1.08919962820E-04 -2.09931857774E-03 +2.25508335380E-04 +6.57829900646E-01 +6.19372963008E-01
2.58000000000E+09 +6.74351575371E-01 +5.37280906453E-01 -2.55826900494E-03 +2.64012171804E-04 -2.13632244428E-03 +3.48275631636E-04 +6.62614632857E-01 +6.12116776694E-01
2.58500000000E+09 +6.80265446170E-01 +5.27422071006E-01 -2.35838189937E-03 +7.48747005190E-04 -2.12196673232E-03 +5.44568718747E-04 +6.67184698832E-01 +6.04623457607E-01
2.59000000000E+09 +6.85648351350E-01 +5.17939964651E-01 -2.01725047013E-03 +7.31846045496E-04 -1.97891498022E-03 +6.22455573135E-04 +6.72332067735E-01 +5.96610838800E-01
2.59500000000E+09 +6.90566804779E-01 +5.08229100080E-01 -2.14831038689E-03 +6.91114898379E-04 -2.13515975907E-03 +5.23565261069E-04 +6.77335738770E-01 +5.88024580499E-01
2.60000000000E+09 +6.94641699864E-01 +4.98616380016E-01 -2.31908905118E-03 +7.64306102068E-04 -2.34871093594E-03 +7.86899982731E-04 +6.82448230148E-01 +5.79596854964E-01
2.60500000000E+09 +6.98808381382E-01 +4.88938677711E-01 -2.54242396562E-03 +1.15166915242E-03 -2.53523463700E-03 +1.14552406066E-03 +6.87687135997E-01 +5.71108533376E-01
2.61000000000E+09 +7.03077070701E-01 +4.78965512209E-01 -2.51151124038E-03 +1.70709512816E-03 -2.52456974508E-03 +1.65247162425E-03 +6.92558908583E-01 +5.62673735536E-01
2.61500000000E+09 +7.07825163069E-01 +4.68332907546E-01 -2.03855814139E-03 +2.26947884831E-03 -2.15724676940E-03 +2.20204915873E-03 +6.97025977918E-01 +5.54422140433E-01
2.62000000000E+09 +7.12690538539E-01 +4.56719480778E-01 -1.62430165603E-03 +2.21174447305E-03 -1.67921353904E-03 +2.30312936821E-03 +7.01692283826E-01 +5.45523140842E-01
2.62500000000E+09 +7.17617958171E-01 +4.43724273773E-01 -1.58800937071E-03 +2.06602461795E-03 -1.49040467986E-03 +2.31354275083E-03 +7.06599154821E-01 +5.36137681008E-01
2.63000000000E+09 +7.22108404903E-01 +4.30266435939E-01 -1.56357697639E-03 +2.38622742173E-03 -1.24490522750E-03 +2.50171981390E-03 +7.11227817216E-01 +5.26869801356E-01
2.63500000000E+09 +7.26222731171E-01 +4.16403398530E-01 -1.43167183597E-03 +2.60803822727E-03 -9.95460926304E-04 +2.49039072260E-03 +7.16335375509E-01 +5.17559682971E-01
2.64000000000E+09 +7.29756149900E-01 +4.02512440076E-01 -1.23272176860E-03 +2.98574710422E-03 -9.51015641962E-04 +2.58624497962E-03 +7.21294789928E-01 +5.08202084622E-01
2.64500000000E+09 +7.32885498394E-01 +3.89338200103E-01 -6.11267705406E-04 +3.18587033779E-03 -8.07113986518E-04 +2.77120954024E-03 +7.25822395846E-01 +4.98760823032E-01
2.65000000000E+09 +7.35509116493E-01 +3.76985346047E-01 -2.46551878051E-04 +3.02085097359E-03 -5.61004510440E-04 +2.87855906100E-03 +7.30243746097E-01 +4.89193808092E-01
2.65500000000E+09 +7.38231949947E-01 +3.64754259288E-01 -8.21345348831E-05 +2.86156485509E-03 -3.05142539591E-04 +3.01860554685E-03 +7.34163647360E-01 +4.78776613325E-01
2.66000000000E+09 +7.41070785549E-01 +3.52857974261E-01 -5.11055060223E-05 +3.01370855828E-03 -1.91426582278E-05 +3.30901152869E-03 +7.38051866188E-01 +4.67795082107E-01
2.66500000000E+09 +7.44161198046E-01 +3.40836142023E-01 +2.85916363440E-04 +3.23036530927E-03 +4.56351375426E-04 +3.33830341413E-03 +7.42943036526E-01 +4.56380734748E-01
2.67000000000E+09 +7.46970642955E-01 +3.27859230966E-01 +8.29280993221E-04 +3.26387552054E-03 +1.00248923383E-03 +3.06917284954E-03 +7.47556416339E-01 +4.45089082691E-01
2.67500000000E+09 +7.49186786877E-01 +3.14081822565E-01 +1.20482396219E-03 +2.96473048740E-03 +1.16771893128E-03 +2.74802233011E-03 +7.51521094013E-01 +4.33880055353E-01
2.68000000000E+09 +7.50964119103E-01 +2.99642326854E-01 +1.18866245134E-03 +2.60652404973E-03 +1.06655463808E-03 +2.51321458888E-03 +7.55424406391E-01 +4.23342066686E-01
2.68500000000E+09 +7.52085272041E-01 +2.84283324313E-01 +1.09788978908E-03 +2.75107634737E-03 +1.01339255881E-03 +2.74369507435E-03 +7.58663633576E-01 +4.11967747249E-01
2.69000000000E+09 +7.52556564606E-01 +2.68738062980E-01 +1.34223716543E-03 +2.98264151163E-03 +1.28605298258E-03 +3.06887893236E-03 +7.61577253663E-01 +3.99922800287E-01
2.69500000000E+09 +7.52857988959E-01 +2.53250176554E-01 +1.91714735744E-03 +3.08160070094E-03 +1.92169514825E-03 +3.04342109390E-03 +7.64517220488E-01 +3.86904559420E-01
2.70000000000E+09 +7.53362278620E-01 +2.37756115774E-01 +2.47921908521E-03 +2.99212182620E-03 +2.36397593246E-03 +2.93506401930E-03 +7.67645152614E-01 +3.73213617755E-01
2.70500000000E+09 +7.53298988335E-01 +2.22322575537E-01 +2.87385545948E-03 +2.44012361853E-03 +2.76240227123E-03 +2.48543046279E-03 +7.70664263067E-01 +3.59497699107E-01
2.71000000000E+09 +7.53621442213E-01 +2.07383525656E-01 +2.99631710617E-03 +2.02221103474E-03 +2.98976244049E-03 +2.23613418024E-03 +7.73459927577E-01 +3.46768335284E-01
2.71500000000E+09 +7.54322535880E-01 +1.92332873673E-01 +2.87692205471E-03 +1.81657244283E-03 +3.09208309066E-03 +1.99011987519E-03 +7.76396669251E-01 +3.34193056030E-01
2.72000000000E+09 +7.54749818285E-01 +1.77220950588E-01 +3.07873013169E-03 +1.89521700150E-03 +3.34999785590E-03 +1.84471190452E-03 +7.78733204873E-01 +3.20940079873E-01
2.72500000000E+09 +7.55136020831E-01 +1.61851059289E-01 +3.61022152331E-03 +1.69383491740E-03 +3.72676864247E-03 +1.31993472069E-03 +7.79766517500E-01 +3.06860535613E-01
2.73000000000E+09 +7.55133238058E-01 +1.45990453222E-01 +3.62122377796E-03 +1.35467811749E-03 +3.43602267244E-03 +9.57393362394E-04 +7.81107359556E-01 +2.92343566648E-01
2.73500000000E+09 +7.54271621006E-01 +1.29178340066E-01 +3.77193528482E-03 +1.27553685870E-03 +3.27930442478E-03 +1.04645410926E-03 +7.82079754933E-01 +2.77128675774E-01
2.74000000000E+09 +7.52342330985E-01 +1.11984420433E-01 +4.36127073925E-03 +1.02781696560E-03 +3.78743420642E-03 +1.27617301069E-03 +7.83552099080E-01 +2.62255478280E-01
2.74500000000E+09 +7.48858151018E-01 +9.40792667598E-02 +4.58384245176E-03 +3.51264934258E-04 +4.31902670046E-03 +9.10534050435E-04 +7.84608421725E-01 +2.46968812293E-01
2.75000000000E+09 +7.43989543677E-01 +7.61675709021E-02 +4.61073505998E-03 -4.85099263021E-05 +4.81874515965E-03 +4.94793263221E-04 +7.85154552241E-01 +2.31852492834E-01
2.75500000000E+09 +7.38201125202E-01 +5.85152227980E-02 +4.69273260569E-03 -5.15288125778E-04 +5.08696256948E-03 -2.86813516395E-04 +7.84454547526E-01 +2.16518390546E-01
2.76000000000E+09 +7.32241076352E-01 +4.10112256712E-02 +4.71801133673E-03 -8.01163231836E-04 +5.00583333576E-03 -8.60592523593E-04 +7.83655633903E-01 +2.00871025991E-01
2.76500000000E+09 +7.26403979459E-01 +2.36605493493E-02 +4.89932659493E-03 -1.19741929532E-03 +5.15164555487E-03 -1.33851056409E-03 +7.82497749206E-01 +1.83486242650E-01
2.77000000000E+09 +7.21222308990E-01 +5.63571111250E-03 +5.29069562158E-03 -1.84792195782E-03 +5.47596647700E-03 -2.08170732384E-03 +7.81610039446E-01 +1.65850823451E-01
2.77500000000E+09 +7.16453296731E-01 -1.30581473397E-02 +5.03870657722E-03 -3.00550563916E-03 +5.13203251841E-03 -3.34243594140E-03 +7.79737686997E-01 +1.47848090958E-01
2.78000000000E+09 +7.11829548893E-01 -3.27317045652E-02 +4.40684945077E-03 -3.41420693716E-03 +4.31849241791E-03 -3.78549085949E-03 +7.77666766399E-01 +1.30412424592E-01
2.78500000000E+09 +7.06889577883E-01 -5.33944315192E-02 +4.22421879339E-03 -3.72479759954E-03 +3.90390473220E-03 -3.92485737810E-03 +7.75273550496E-01 +1.13157594509E-01
2.79000000000E+09 +7.01008364377E-01 -7.49874434599E-02 +4.07450344702E-03 -4.28144135804E-03 +3.69380794339E-03 -4.25016143532E-03 +7.72082079344E-01 +9.54028119480E-02
2.79500000000E+09 +6.93453748398E-01 -9.62957888673E-02 +3.60683186689E-03 -4.66518466921E-03 +3.40810286501E-03 -4.41573611826E-03 +7.67688608735E-01 +7.66324881039E-02
2.80000000000E+09 +6.84325970909E-01 -1.16614227379E-01 +3.68379382527E-03 -5.32835149194E-03 +3.66086084489E-03 -5.00778091911E-03 +7.62065452175E-01 +5.73443241757E-02
2.80500000000E+09 +6.74796404461E-01 -1.35736108733E-01 +2.79329985034E-03 -6.44246795485E-03 +3.10886800468E-03 -6.24128689793E-03 +7.56035015015E-01 +3.85437774559E-02
2.81000000000E+09 +6.63961519264E-01 -1.54160937642E-01 +1.62528796389E-03 -6.33808936590E-03 +1.83131338360E-03 -6.49064093324E-03 +7.50397940742E-01 +1.92963336749E-02
2.81500000000E+09 +6.52525830189E-01 -1.71974597775E-01 +1.40873787616E-03 -6.47843070082E-03 +1.26534958554E-03 -6.66571102186E-03 +7.43540058675E-01 -6.60797106807E-05
2.82000000000E+09 +6.40034887982E-01 -1.89668136792E-01 +8.32258511133E-04 -6.96326459496E-03 +5.03001468053E-04 -6.95266608273E-03 +7.35789279677E-01 -1.98122284070E-02
2.82500000000E+09 +6.26362163502E-01 -2.07768987813E-01 -2.09698557621E-04 -7.20917746545E-03 -4.63032548655E-04 -6.92907091921E-03 +7.25993391012E-01 -3.99144009690E-02
2.83000000000E+09 +6.10352897070E-01 -2.26516672180E-01 -9.94836178808E-04 -7.20659515519E-03 -8.88984273214E-04 -6.79936394397E-03 +7.15304963265E-01 -5.97503898164E-02
2.83500000000E+09 +5.93303690771E-01 -2.44651687786E-01 -1.94038829072E-03 -7.00664576895E-03 -1.66455345433E-03 -6.78586869521E-03 +7.04817374253E-01 -7.95641143490E-02
2.84000000000E+09 +5.74939013082E-01 -2.63140008371E-01 -2.38266330887E-03 -6.37061344092E-03 -2.12614602761E-03 -6.34408057466E-03 +6.93981300720E-01 -1.00775702667E-01
2.84500000000E+09 +5.55058125198E-01 -2.82236873420E-01 -2.15909690550E-03 -6.70673118384E-03 -2.07898969829E-03 -6.78365974921E-03 +6.81359688574E-01 -1.21639651236E-01
2.85000000000E+09 +5.33602830634E-01 -3.01129743814E-01 -3.20217021516E-03 -7.74133223051E-03 -3.23966806459E-03 -7.77369781371E-03 +6.67386936863E-01 -1.41885581798E-01
2.85500000000E+09 +5.11104913935E-01 -3.19602355771E-01 -5.11801027603E-03 -7.75113288771E-03 -5.11488356450E-03 -7.60237028149E-03 +6.52291208362E-01 -1.61419612210E-01
2.86000000000E+09 +4.87512223862E-01 -3.38067503111E-01 -6.58254553982E-03 -6.80328603152E-03 -6.41839603879E-03 -6.80811463699E-03 +6.36485324596E-01 -1.81529204162E-01
2.86500000000E+09 +4.62998673610E-01 -3.54805378583E-01 -7.91280225231E-03 -5.52861786562E-03 -7.78685630323E-03 -5.64480684081E-03 +6.19232838260E-01 -2.02944813097E-01
2.87000000000E+09 +4.37597453028E-01 -3.70888339167E-01 -8.35126154981E-03 -3.85095688356E-03 -8.39663433255E-03 -3.89904287364E-03 +5.98760825562E-01 -2.24197591215E-01
2.87500000000E+09 +4.11590451169E-01 -3.85020513448E-01 -7.82414922008E-03 -3.00039163108E-03 -7.88290314923E-03 -2.80071064277E-03 +5.77950303904E-01 -2.42917635434E-01
2.88000000000E+09 +3.85739854725E-01 -3.97519741731E-01 -7.90571178113E-03 -3.11404086147E-03 -7.88397613541E-03 -2.77711693055E-03 +5.57060340308E-01 -2.61722202405E-01
2.88500000000E+09 +3.59984685946E-01 -4.09312786510E-01 -9.55794347839E-03 -2.31659909121E-03 -9.15624210641E-03 -2.07037604405E-03 +5.34618245746E-01 -2.80012699735E-01
2.89000000000E+09 +3.33070477550E-01 -4.21137220521E-01 -9.67206011931E-03 -4.49483935310E-04 -9.09161478156E-03 -6.30511568034E-04 +5.09497321776E-01 -2.98204786910E-01
2.89500000000E+09 +3.04579080146E-01 -4.31935336573E-01 -9.57324267810E-03 +4.18253489515E-04 -9.27283445395E-03 -3.56683671599E-05 +4.81545907382E-01 -3.15545490586E-01
2.90000000000E+09 +2.73540944401E-01 -4.42095419990E-01 -9.88380949772E-03 +1.73679738951E-03 -1.00113698807E-02 +1.37097086181E-03 +4.51781916893E-01 -3.30845083654E-01
2.90500000000E+09 +2.39225587946E-01 -4.49426635291E-01 -9.30065088989E-03 +3.06475853288E-03 -9.41127921796E-03 +3.15168566073E-03 +4.22545802050E-01 -3.45927579811E-01
2.91000000000E+09 +2.04048670953E-01 -4.53049990957E-01 -8.96043268286E-03 +3.63679876187E-03 -8.81334200008E-03 +3.92187426570E-03 +3.91494952023E-01 -3.60773906382E-01
2.91500000000E+09 +1.68980825355E-01 -4.54428933996E-01 -8.98444608287E-03 +5.10419111789E-03 -8.46607876024E-03 +5.11472321376E-03 +3.58027705809E-01 -3.72920403701E-01
2.92000000000E+09 +1.33757940227E-01 -4.53670610322E-01 -7.63314581876E-03 +6.48978140860E-03 -7.14379167270E-03 +6.02830618390E-03 +3.23674392929E-01 -3.81474609664E-01
2.92500000000E+09 +9.89623601737E-02 -4.51309480452E-01 -6.57948692626E-03 +6.28581227454E-03 -6.43866292081E-03 +5.71606750017E-03 +2.88746723415E-01 -3.87774436310E-01
2.93000000000E+09 +6.44252942115E-02 -4.48057202902E-01 -6.90922887633E-03 +6.75122902177E-03 -7.09069729758E-03 +6.23262336434E-03 +2.53162023959E-01 -3.93328463403E-01
2.93500000000E+09 +2.87140575214E-02 -4.43542244935E-01 -6.45938865032E-03 +8.12171725625E-03 -6.78133929743E-03 +7.94570688653E-03 +2.15622394479E-01 -3.98544353703E-01
2.94000000000E+09 -6.79919125296E-03 -4.36228801976E-01 -5.50408895082E-03 +9.22200260657E-03 -5.66031507951E-03 +9.11562362547E-03 +1.75740059272E-01 -4.02108748931E-01
2.94500000000E+09 -4.20828647461E-02 -4.27160701754E-01 -4.27828345070E-03 +1.05119259443E-02 -4.45455977107E-03 +1.03209247663E-02 +1.35094558735E-01 -4.01329733220E-01
2.95000000000E+09 -7.77182227664E-02 -4.14005697447E-01 -2.01979003243E-03 +1.08500508305E-02 -2.41095871906E-03 +1.07317438119E-02 +9.54982205043E-02 -3.96418999317E-01
2.95500000000E+09 -1.11115912321E-01 -3.97778513522E-01 -7.52131886760E-04 +9.90905393969E-03 -1.17807680370E-03 +1.00979279086E-02 +5.80796003877E-02 -3.90073305864E-01
2.96000000000E+09 -1.42750186859E-01 -3.79719194619E-01 -6.16990248654E-04 +9.84801346291E-03 -8.16010177990E-04 +1.02644259793E-02 +1.80149883786E-02 -3.81880468033E-01
2.96500000000E+09 -1.74318884386E-01 -3.59679121541E-01 +1.58983474538E-04 +1.04422927849E-02 +4.14726626529E-04 +1.08049330184E-02 -2.28698856824E-02 -3.70333300242E-01
2.97000000000E+09 -2.04950155821E-01 -3.36023230120E-01 +1.46113909930E-03 +1.08884052933E-02 +1.86139195094E-03 +1.08009772030E-02 -6.33391522884E-02 -3.55854832152E-01
2.97500000000E+09 -2.33825636220E-01 -3.10502929330E-01 +2.83675947648E-03 +1.11102917096E-02 +2.91172096265E-03 +1.06846984618E-02 -1.02708191215E-01 -3.38572569555E-01
2.98000000000E+09 -2.62572592909E-01 -2.82856024482E-01 +5.03920422986E-03 +1.05466039216E-02 +4.59787248216E-03 +1.03669540059E-02 -1.40535110569E-01 -3.18478365092E-01
2.98500000000E+09 -2.89887324026E-01 -2.52358658260E-01 +5.97322509614E-03 +9.19596308340E-03 +5.61742806942E-03 +9.50178689451E-03 -1.77277057017E-01 -2.95651873836E-01
2.99000000000E+09 -3.15101402990E-01 -2.20300714315E-01 +6.11209671153E-03 +8.64185799133E-03 +6.27636213405E-03 +9.14040810297E-03 -2.12893074556E-01 -2.69271259679E-01
2.99500000000E+09 -3.38199372662E-01 -1.87100844961E-01 +7.27223810601E-03 +9.06245006046E-03 +7.89593855229E-03 +9.26544897306E-03 -2.46857719281E-01 -2.39729317580E-01
3.00000000000E+09 -3.58376244620E-01 -1.53931365065E-01 +9.39043107708E-03 +7.78211439800E-03 +9.89108937323E-03 +7.27579070756E-03 -2.78061976779E-01 -2.07683096992E-01
3.00500000000E+09 -3.77378261096E-01 -1.21334884703E-01 +9.84877390813E-03 +6.34897015319E-03 +9.66930413749E-03 +5.72694554016E-03 -3.07277237558E-01 -1.74521407586E-01
3.01000000000E+09 -3.94849537820E-01 -8.82391105794E-02 +1.08136076214E-02 +5.24288734207E-03 +1.03244905732E-02 +5.03774154604E-03 -3.33508294533E-01 -1.39461140133E-01
3.01500000000E+09 -4.10150380418E-01 -5.37846379771E-02 +1.12750859921E-02 +3.84871807600E-03 +1.09417638040E-02 +3.97644907941E-03 -3.57422521176E-01 -1.03158327422E-01
3.02000000000E+09 -4.21322670458E-01 -1.85425445035E-02 +1.16635792462E-02 +2.61278135340E-03 +1.16091781274E-02 +2.84696273232E-03 -3.77586122686E-01 -6.34094027192E-02
3.02500000000E+09 -4.29118201890E-01 +1.65626401720E-02 +1.22122418209E-02 +1.54002337385E-03 +1.21988763476E-02 +1.51687566590E-03 -3.93254879683E-01 -2.37615408500E-02
3.03000000000E+09 -4.33377597644E-01 +5.18844009064E-02 +1.27101838971E-02 -5.25079947081E-04 +1.25366327351E-02 -3.83966864319E-04 -4.07056399644E-01 +1.61056842363E-02
3.03500000000E+09 -4.34411822086E-01 +8.72541527207E-02 +1.23234603903E-02 -2.15648819856E-03 +1.22516477101E-02 -1.82351196607E-03 -4.18852449866E-01 +5.59692552344E-02
3.04000000000E+09 -4.32603405411E-01 +1.21714086055E-01 +1.20660469715E-02 -3.93676836879E-03 +1.25142640232E-02 -3.57990017215E-03 -4.28226196135E-01 +9.72892179315E-02
3.04500000000E+09 -4.29154304034E-01 +1.55938918131E-01 +1.11337335509E-02 -5.55455252683E-03 +1.19119006830E-02 -5.75298853322E-03 -4.33105130965E-01 +1.38685502540E-01
3.05000000000E+09 -4.23591459665E-01 +1.90451482862E-01 +1.01766345857E-02 -6.79000552989E-03 +1.04642405371E-02 -7.60464332826E-03 -4.33965751157E-01 +1.78426769085E-01
3.05500000000E+09 -4.16662875568E-01 +2.24645152862E-01 +9.14288276619E-03 -7.66140628686E-03 +8.70481554611E-03 -8.38559731617E-03 -4.33360240824E-01 +2.16503688130E-01
3.06000000000E+09 -4.07728152283E-01 +2.59086343362E-01 +8.49450143774E-03 -8.94769732170E-03 +7.59389796615E-03 -8.94971383947E-03 -4.31457027584E-01 +2.55081763889E-01
3.06500000000E+09 -3.95985952901E-01 +2.92263968114E-01 +7.05650629416E-03 -1.03790954790E-02 +6.58965607938E-03 -9.71886186805E-03 -4.26644170870E-01 +2.93119823868E-01
3.07000000000E+09 -3.82901366189E-01 +3.22210472226E-01 +4.76918770770E-03 -1.11768617818E-02 +5.21326396266E-03 -1.04986383760E-02 -4.19648762962E-01 +3.29204112810E-01
