# Hz S RI R 50
! CMT, C1220, 16058040, 17.2.0/1
! Date: 15/08/2018 09:47:49
! Data: Format (Calibration Info)
! Freq                      S11: Re/Im (F2)                       S21: Re/Im (F2)                       S12: Re/Im (F2)                       S22: Re/Im (F2)            
2.50000000000E+09 +5.78127062806E-01 +6.66427919670E-01 +2.17974005447E-04 -1.56174012952E-03 +2.29137701375E-04 -1.72332921576E-03 +5.75520195942E-01 +7.17943519696E-01
2.50500000000E+09 +5.84911647894E-01 +6.58797143521E-01 +8.48913635426E-05 -1.59376635539E-03 -1.02212295291E-05 -1.66872535316E-03 +5.81235523615E-01 +7.12374849579E-01
2.51000000000E+09 +5.92052312090E-01 +6.50615777113E-01 -1.07356456541E-04 -1.65786737725E-03 -1.78371518127E-04 -1.63346343593E-03 +5.86714392595E-01 +7.07092508765E-01
2.51500000000E+09 +5.99363082053E-01 +6.42419634650E-01 -2.61203695657E-04 -1.63460420357E-03 -2.72979944909E-04 -1.62132282899E-03 +5.91827293300E-01 +7.01487113729E-01
2.52000000000E+09 +6.06326869356E-01 +6.33699111186E-01 -4.69211418964E-04 -1.69811742778E-03 -4.06182670722E-04 -1.66613609984E-03 +5.97105098618E-01 +6.95386372996E-01
2.52500000000E+09 +6.12285730841E-01 +6.25055027494E-01 -6.38836295947E-04 -1.60953882714E-03 -6.44410169650E-04 -1.67533575260E-03 +6.03110232692E-01 +6.88795807914E-01
2.53000000000E+09 +6.17916767808E-01 +6.16805256910E-01 -7.87576583162E-04 -1.55853570152E-03 -7.96595915707E-04 -1.58604413345E-03 +6.09212664639E-01 +6.81533050592E-01
2.53500000000E+09 +6.23121201234E-01 +6.08385576162E-01 -9.97000591876E-04 -1.51425189525E-03 -9.82142626031E-04 -1.49056592389E-03 +6.15028539292E-01 +6.74721468566E-01
2.54000000000E+09 +6.27346622498E-01 +6.00519694369E-01 -1.09402239560E-03 -1.44728932258E-03 -9.84762103919E-04 -1.46446783747E-03 +6.20637047289E-01 +6.68239997705E-01
2.54500000000E+09 +6.31754792627E-01 +5.93290576989E-01 -1.20040397219E-03 -1.44267375934E-03 -1.12318838876E-03 -1.56577669469E-03 +6.26174423152E-01 +6.61975516598E-01
2.55000000000E+09 +6.36554756238E-01 +5.86150597673E-01 -1.48207071865E-03 -1.30210844691E-03 -1.45916838008E-03 -1.54066282951E-03 +6.31305632076E-01 +6.55419942205E-01
2.55500000000E+09 +6.42106018804E-01 +5.78454076337E-01 -1.65862020602E-03 -1.13340188728E-03 -1.86092959285E-03 -1.41854468804E-03 +6.36549381879E-01 +6.48813395346E-01
2.56000000000E+09 +6.48406803252E-01 +5.70783251996E-01 -1.70738707517E-03 -8.81377317190E-04 -2.08929465288E-03 -8.18646679091E-04 +6.42090603094E-01 +6.41457488524E-01
2.56500000000E+09 +6.55179085893E-01 +5.61911163513E-01 -1.68134908107E-03 -8.36720485135E-04 -2.01013443754E-03 -5.79857254820E-04 +6.47690022777E-01 +6.33866827655E-01
2.57000000000E+09 +6.62191014746E-01 +5.53008754124E-01 -1.80491216784E-03 -7.85435628790E-04 -1.90623822657E-03 -3.70244936239E-04 +6.53123244432E-01 +6.26351705923E-01
2.57500000000E+09 +6.69450451991E-01 +5.43409701517E-01 -1.96182119641E-03 -7.18481539477E-04 -1.82528559879E-03 -2.99796920636E-04 +6.58475457991E-01 +6.19035938478E-01
2.58000000000E+09 +6.75933798098E-01 +5.33466678928E-01 -2.22827894939E-03 -4.65485318166E-04 -1.89767899080E-03 -2.57449184779E-04 +6.63417712630E-01 +6.11614483345E-01
2.58500000000E+09 +6.81767261177E-01 +5.23507041538E-01 -2.12720476183E-03 +1.03381980264E-04 -1.87140463510E-03 -6.01664554016E-05 +6.67997963199E-01 +6.04067199297E-01
2.59000000000E+09 +6.86970465810E-01 +5.13887733494E-01 -1.85457285717E-03 +4.92673679946E-05 -1.75510763566E-03 -1.04019375197E-04 +6.73119211154E-01 +5.96174231554E-01
2.59500000000E+09 +6.91672481093E-01 +5.04095413263E-01 -1.93698671094E-03 -5.83780859450E-05 -1.94505119567E-03 -1.50482577117E-04 +6.78199038885E-01 +5.87510607932E-01
2.60000000000E+09 +6.95586456846E-01 +4.94656574703E-01 -2.11349573241E-03 +5.79390026484E-05 -2.16426084307E-03 +1.60181618841E-05 +6.83123411227E-01 +5.78861761548E-01
2.60500000000E+09 +6.99816701321E-01 +4.85116626792E-01 -2.39573643562E-03 +3.06130056154E-04 -2.38738344079E-03 +2.68002454955E-04 +6.88390006245E-01 +5.70354955983E-01
2.61000000000E+09 +7.04146835049E-01 +4.74857299425E-01 -2.57837187900E-03 +7.51351479853E-04 -2.60096103836E-03 +6.70655130926E-04 +6.93215631379E-01 +5.61591082777E-01
2.61500000000E+09 +7.08706947672E-01 +4.63998393462E-01 -2.27721886389E-03 +1.39004390399E-03 -2.33067762105E-03 +1.33074773636E-03 +6.97424566241E-01 +5.53338212518E-01
2.62000000000E+09 +7.13262839999E-01 +4.52171653080E-01 -1.79102522092E-03 +1.33962685997E-03 -1.87255075228E-03 +1.45321289216E-03 +7.02077707741E-01 +5.44495083357E-01
2.62500000000E+09 +7.18009556834E-01 +4.39105652830E-01 -1.79512596794E-03 +1.13140266507E-03 -1.78141281452E-03 +1.32748284921E-03 +7.06997968093E-01 +5.35181317152E-01
2.63000000000E+09 +7.22466281905E-01 +4.25590038560E-01 -1.92145667232E-03 +1.33869531582E-03 -1.74771908731E-03 +1.56657261952E-03 +7.11665281790E-01 +5.25701857239E-01
2.63500000000E+09 +7.26368373370E-01 +4.11679377925E-01 -2.03522146091E-03 +1.48925545379E-03 -1.64121775148E-03 +1.54513959431E-03 +7.16661862904E-01 +5.16421437709E-01
2.64000000000E+09 +7.29830756232E-01 +3.97823782197E-01 -2.15007336696E-03 +2.09317753723E-03 -1.75791983787E-03 +1.81141356722E-03 +7.21488609032E-01 +5.06957703245E-01
2.64500000000E+09 +7.32718389769E-01 +3.84690649451E-01 -1.54832335376E-03 +2.61065904358E-03 -1.51683593680E-03 +2.14814462147E-03 +7.25977822686E-01 +4.97542453637E-01
2.65000000000E+09 +7.35199198478E-01 +3.72266656905E-01 -1.03244643988E-03 +2.45791302616E-03 -1.27565779218E-03 +2.21913633698E-03 +7.30087816388E-01 +4.88049413903E-01
2.65500000000E+09 +7.37910535215E-01 +3.60070315578E-01 -1.00089784139E-03 +2.29603035155E-03 -1.24382498947E-03 +2.30003832091E-03 +7.33946556681E-01 +4.77687948921E-01
2.66000000000E+09 +7.40829370156E-01 +3.48301126536E-01 -1.04691358457E-03 +2.48429195696E-03 -1.15974675624E-03 +2.69466611196E-03 +7.37945150732E-01 +4.66584790142E-01
2.66500000000E+09 +7.43787443069E-01 +3.36219775763E-01 -8.27903440808E-04 +2.78841708218E-03 -6.47683487494E-04 +2.95001022362E-03 +7.42724592779E-01 +4.55462829522E-01
2.67000000000E+09 +7.46390669051E-01 +3.23166670476E-01 -3.84190832129E-04 +2.93096634398E-03 -1.82948550251E-04 +2.83233669075E-03 +7.47193538797E-01 +4.44214463870E-01
2.67500000000E+09 +7.48432559872E-01 +3.09707485010E-01 -8.62242502951E-05 +2.76292398298E-03 -5.26941325766E-05 +2.59871774214E-03 +7.51295232898E-01 +4.33013505954E-01
2.68000000000E+09 +7.50407723816E-01 +2.95234240114E-01 -7.43202285677E-05 +2.71299732921E-03 -1.15621267101E-04 +2.55583814092E-03 +7.55025397552E-01 +4.22536949970E-01
2.68500000000E+09 +7.51493648116E-01 +2.80006244380E-01 -1.07213786820E-04 +2.86038040889E-03 -1.25025109953E-04 +2.76549307793E-03 +7.58189447660E-01 +4.11032164405E-01
2.69000000000E+09 +7.51777810897E-01 +2.64500986731E-01 +2.36181546395E-04 +3.29467412737E-03 +1.54424018432E-04 +3.23898387377E-03 +7.60638496694E-01 +3.99044955525E-01
2.69500000000E+09 +7.52072651716E-01 +2.49000246507E-01 +8.21723338677E-04 +3.31690300806E-03 +8.50930209324E-04 +3.22165438217E-03 +7.63666203160E-01 +3.86286015343E-01
2.70000000000E+09 +7.52078306531E-01 +2.33632192715E-01 +1.18703544430E-03 +3.19595261707E-03 +1.10097571725E-03 +3.02173322905E-03 +7.66927237148E-01 +3.72637841770E-01
2.70500000000E+09 +7.51875135740E-01 +2.18664523613E-01 +1.46692040956E-03 +2.84535767978E-03 +1.30788172692E-03 +2.80939683423E-03 +7.70137563955E-01 +3.58999003379E-01
2.71000000000E+09 +7.52029375176E-01 +2.04024750299E-01 +1.59481891823E-03 +2.71874253607E-03 +1.46693149859E-03 +2.87263288690E-03 +7.72845403600E-01 +3.46174430295E-01
2.71500000000E+09 +7.52782089959E-01 +1.89206752448E-01 +1.52848589914E-03 +2.73013957338E-03 +1.57421776901E-03 +2.96765541209E-03 +7.75804833235E-01 +3.33542545477E-01
2.72000000000E+09 +7.53332881939E-01 +1.74277616294E-01 +1.86132215786E-03 +3.05786886846E-03 +2.20990124162E-03 +3.09986562151E-03 +7.77885287686E-01 +3.20491326817E-01
2.72500000000E+09 +7.53761063151E-01 +1.58920713384E-01 +2.48264637699E-03 +2.83831546194E-03 +2.77447740835E-03 +2.55630638919E-03 +7.78861583380E-01 +3.06489792641E-01
2.73000000000E+09 +7.53681552310E-01 +1.42905719230E-01 +2.60404841234E-03 +2.63302280926E-03 +2.60355522904E-03 +2.17722095413E-03 +7.80077300939E-01 +2.92096616970E-01
2.73500000000E+09 +7.52688288460E-01 +1.26011364867E-01 +2.83673104372E-03 +2.74981567654E-03 +2.51040835841E-03 +2.40658057834E-03 +7.80871470645E-01 +2.77040104658E-01
2.74000000000E+09 +7.50529800738E-01 +1.08794991283E-01 +3.65698199866E-03 +2.61112590739E-03 +3.07831375708E-03 +2.62893596471E-03 +7.82701212459E-01 +2.62496844742E-01
2.74500000000E+09 +7.46898342604E-01 +9.09992548671E-02 +3.97404652609E-03 +2.05066232906E-03 +3.52992191611E-03 +2.41447662994E-03 +7.84118035374E-01 +2.47004133996E-01
2.75000000000E+09 +7.41991579457E-01 +7.33967530134E-02 +4.18166023326E-03 +1.71557310292E-03 +4.12448387967E-03 +2.25813201962E-03 +7.84420848695E-01 +2.31845204155E-01
2.75500000000E+09 +7.36194923355E-01 +5.59195194941E-02 +4.37586081584E-03 +1.40554070960E-03 +4.63891361945E-03 +1.76808404650E-03 +7.83446044260E-01 +2.16651794990E-01
2.76000000000E+09 +7.30498998826E-01 +3.85669403419E-02 +4.63502859485E-03 +1.25137221394E-03 +4.91621486088E-03 +1.31988764074E-03 +7.82926716590E-01 +2.01387644284E-01
2.76500000000E+09 +7.24725679400E-01 +2.14303458313E-02 +5.14601757472E-03 +9.74539235356E-04 +5.44979590143E-03 +8.82821962738E-04 +7.81902302235E-01 +1.84200958978E-01
2.77000000000E+09 +7.19566123032E-01 +3.61426738555E-03 +5.79869594269E-03 +2.55762713059E-04 +6.04401684258E-03 +9.75570366877E-05 +7.81050694643E-01 +1.66640835604E-01
2.77500000000E+09 +7.14757074407E-01 -1.49585520440E-02 +5.90527086089E-03 -9.32060806226E-04 +6.13096598654E-03 -1.20905004612E-03 +7.79306910216E-01 +1.48568902579E-01
2.78000000000E+09 +7.10268097942E-01 -3.45658620660E-02 +5.39385137837E-03 -1.58519127153E-03 +5.47984749120E-03 -1.91371011770E-03 +7.77199928002E-01 +1.31323285103E-01
2.78500000000E+09 +7.05146147490E-01 -5.49570848903E-02 +5.25041590951E-03 -1.84922577433E-03 +5.06394674793E-03 -2.17255382040E-03 +7.75287976303E-01 +1.14173848306E-01
2.79000000000E+09 +6.99377002790E-01 -7.63009327638E-02 +5.44405329038E-03 -2.22235213145E-03 +5.06883458838E-03 -2.39198453540E-03 +7.72221558552E-01 +9.63342719525E-02
2.79500000000E+09 +6.91953881763E-01 -9.72506503668E-02 +5.54513049404E-03 -2.85947285995E-03 +5.18744083556E-03 -2.73551904092E-03 +7.67855784950E-01 +7.77443875130E-02
2.80000000000E+09 +6.83303855301E-01 -1.17678648462E-01 +5.76515556335E-03 -3.91015763831E-03 +5.60965109222E-03 -3.52738847196E-03 +7.62517993116E-01 +5.84143453339E-02
2.80500000000E+09 +6.73749842887E-01 -1.37064315954E-01 +4.98721886390E-03 -5.27950412384E-03 +5.19339732398E-03 -5.07266313819E-03 +7.56802089912E-01 +3.97150988828E-02
2.81000000000E+09 +6.62964448906E-01 -1.55688731841E-01 +3.90512581672E-03 -5.51263715594E-03 +4.12526564205E-03 -5.58206440306E-03 +7.51344872971E-01 +2.03874977467E-02
2.81500000000E+09 +6.51357116822E-01 -1.73342671175E-01 +3.67588947926E-03 -5.77225229545E-03 +3.65683296591E-03 -6.02045295233E-03 +7.44691015509E-01 +7.74859842504E-04
2.82000000000E+09 +6.38773842257E-01 -1.90822931411E-01 +3.29755281680E-03 -6.26177558317E-03 +3.00803726129E-03 -6.40485002750E-03 +7.37143669044E-01 -1.91039357190E-02
2.82500000000E+09 +6.25385388276E-01 -2.08270224550E-01 +2.57817571424E-03 -6.99612499906E-03 +2.24133355203E-03 -6.77944174984E-03 +7.27681141281E-01 -3.94122292689E-02
2.83000000000E+09 +6.10102728680E-01 -2.26869598818E-01 +1.73505096530E-03 -7.41523954803E-03 +1.62436237855E-03 -7.04519435465E-03 +7.17425304059E-01 -5.97576097717E-02
2.83500000000E+09 +5.93464181569E-01 -2.45374383835E-01 +6.02286649345E-04 -7.38069837663E-03 +7.50775557285E-04 -7.16004810861E-03 +7.06499988242E-01 -7.97720140225E-02
2.84000000000E+09 +5.75152852565E-01 -2.63966251635E-01 +2.23004538446E-04 -6.94125235870E-03 +4.98590974549E-04 -6.87772792155E-03 +6.95878424363E-01 -1.00941950004E-01
2.84500000000E+09 +5.55175236662E-01 -2.83094902517E-01 +4.21556243125E-04 -7.63066662456E-03 +4.71724014564E-04 -7.68049373144E-03 +6.83648141308E-01 -1.22261561163E-01
2.85000000000E+09 +5.33852127787E-01 -3.02167864276E-01 -6.65144142608E-04 -8.77451052575E-03 -6.97323368650E-04 -8.72384289377E-03 +6.69482027384E-01 -1.43219821157E-01
2.85500000000E+09 +5.11133910254E-01 -3.20644610719E-01 -2.41581766614E-03 -9.21357224449E-03 -2.40285087409E-03 -9.14417699416E-03 +6.53827472931E-01 -1.63169266112E-01
2.86000000000E+09 +4.87211440813E-01 -3.38944592323E-01 -4.15083446417E-03 -8.74042594700E-03 -4.02908366610E-03 -8.72754403720E-03 +6.37773115553E-01 -1.83480299889E-01
2.86500000000E+09 +4.62659014900E-01 -3.55593251198E-01 -5.85437615307E-03 -7.75945241593E-03 -5.73737363914E-03 -7.81402812696E-03 +6.20113017498E-01 -2.04793989731E-01
2.87000000000E+09 +4.37617523533E-01 -3.71519300255E-01 -6.13606228267E-03 -6.21233376465E-03 -6.22837961637E-03 -6.21897484210E-03 +5.99782798311E-01 -2.25834818463E-01
2.87500000000E+09 +4.12276642444E-01 -3.85777124354E-01 -5.90578864043E-03 -5.79885366997E-03 -6.06620465579E-03 -5.59711724561E-03 +5.79195470434E-01 -2.45304155338E-01
2.88000000000E+09 +3.86594100817E-01 -3.99359503447E-01 -6.36897194068E-03 -6.24749240896E-03 -6.39319229395E-03 -5.82611442791E-03 +5.57752600473E-01 -2.64472282492E-01
2.88500000000E+09 +3.60305822485E-01 -4.11441656864E-01 -8.25588883635E-03 -5.77186588912E-03 -7.92587657925E-03 -5.28525727052E-03 +5.34709782034E-01 -2.82505318464E-01
2.89000000000E+09 +3.33240488993E-01 -4.23046719350E-01 -8.87000775423E-03 -4.20700643085E-03 -8.26283719521E-03 -4.12738634824E-03 +5.09547242082E-01 -3.00749824857E-01
2.89500000000E+09 +3.04754330699E-01 -4.33628291273E-01 -9.35370797751E-03 -3.54187599387E-03 -8.94169002382E-03 -3.87365356229E-03 +4.81180347481E-01 -3.18318282763E-01
2.90000000000E+09 +2.74052314008E-01 -4.43416984809E-01 -1.00994131012E-02 -2.20323995867E-03 -1.00270933833E-02 -2.56937800380E-03 +4.51051396300E-01 -3.33262130630E-01
2.90500000000E+09 +2.40626132354E-01 -4.50828690229E-01 -1.01006135895E-02 -1.03771656762E-03 -1.02869243120E-02 -1.05729277089E-03 +4.21988470407E-01 -3.48266211870E-01
2.91000000000E+09 +2.05847158398E-01 -4.55535960552E-01 -1.02831076360E-02 -2.89306218376E-04 -1.02112653006E-02 +7.10735582042E-05 +3.90689946121E-01 -3.63255674905E-01
2.91500000000E+09 +1.70226135188E-01 -4.57310584760E-01 -1.08044451082E-02 +1.27707973550E-03 -1.03434218825E-02 +1.45955194726E-03 +3.57406957842E-01 -3.75516914959E-01
2.92000000000E+09 +1.34845667105E-01 -4.56877144736E-01 -1.02172648373E-02 +2.90915385828E-03 -9.57636087977E-03 +2.62980172293E-03 +3.22619193623E-01 -3.85056107075E-01
2.92500000000E+09 +9.97582224713E-02 -4.54730747433E-01 -9.74497230374E-03 +3.06598456042E-03 -9.37553308596E-03 +2.48408376467E-03 +2.86368671450E-01 -3.91295779529E-01
2.93000000000E+09 +6.48338856058E-02 -4.51384279044E-01 -1.03780851999E-02 +4.14887255993E-03 -1.04039848157E-02 +3.52894667196E-03 +2.49851563440E-01 -3.96051681227E-01
2.93500000000E+09 +2.95127548171E-02 -4.46897636350E-01 -1.02349462271E-02 +6.02333586094E-03 -1.05571304764E-02 +5.63355285183E-03 +2.12120508983E-01 -4.00614751779E-01
2.94000000000E+09 -6.16729535073E-03 -4.40412565961E-01 -9.33230869606E-03 +7.51820258088E-03 -9.47203046637E-03 +7.32679733436E-03 +1.71984188266E-01 -4.03565821584E-01
2.94500000000E+09 -4.19202492434E-02 -4.31205957843E-01 -8.52206043248E-03 +9.13956731349E-03 -8.69749678342E-03 +8.85266623913E-03 +1.31684059803E-01 -4.02545255758E-01
2.95000000000E+09 -7.73647205283E-02 -4.18586881481E-01 -6.65750367765E-03 +1.00852059175E-02 -7.02024714479E-03 +9.79539134264E-03 +9.17678658369E-02 -3.98056959661E-01
2.95500000000E+09 -1.11223903449E-01 -4.02901134489E-01 -5.39866299188E-03 +1.02189200889E-02 -5.99681002021E-03 +1.02474707943E-02 +5.32602229142E-02 -3.90890358703E-01
2.96000000000E+09 -1.43931328857E-01 -3.84967393270E-01 -4.77935245251E-03 +1.04855472052E-02 -5.15930770967E-03 +1.09339452147E-02 +1.30170312729E-02 -3.81757506834E-01
2.96500000000E+09 -1.76080681515E-01 -3.64074389622E-01 -4.22079249216E-03 +1.15519181026E-02 -4.09509216948E-03 +1.21130813192E-02 -2.79564425656E-02 -3.69183718713E-01
2.97000000000E+09 -2.07075546400E-01 -3.39920576626E-01 -2.62759025095E-03 +1.27639263020E-02 -2.09174789953E-03 +1.28433133951E-02 -6.82023962178E-02 -3.53655368147E-01
2.97500000000E+09 -2.36151338402E-01 -3.13391448900E-01 -8.13592185405E-04 +1.36237353348E-02 -6.11994241968E-04 +1.32117465807E-02 -1.06923015577E-01 -3.35590356601E-01
2.98000000000E+09 -2.64218647371E-01 -2.85369743846E-01 +2.11957234543E-03 +1.33906647173E-02 +1.71690964600E-03 +1.31323735827E-02 -1.44017693915E-01 -3.15056214332E-01
2.98500000000E+09 -2.91682710587E-01 -2.55642242270E-01 +3.33219987831E-03 +1.19873653266E-02 +2.82222144008E-03 +1.23423052030E-02 -1.80455964568E-01 -2.92170237461E-01
2.99000000000E+09 -3.18008302425E-01 -2.23573283704E-01 +3.82619044570E-03 +1.15863487064E-02 +3.85084359182E-03 +1.22550918626E-02 -2.15447485316E-01 -2.65097326446E-01
2.99500000000E+09 -3.41888571481E-01 -1.89699903110E-01 +4.87822775894E-03 +1.22647543349E-02 +5.58362476261E-03 +1.26643939692E-02 -2.48546519057E-01 -2.35712494908E-01
3.00000000000E+09 -3.62400170508E-01 -1.55664327238E-01 +7.47853425171E-03 +1.18301904050E-02 +8.13650296085E-03 +1.14138761981E-02 -2.79629784160E-01 -2.03283800400E-01
3.00500000000E+09 -3.81439151035E-01 -1.22490723329E-01 +8.90017450955E-03 +1.05213522101E-02 +8.99137966862E-03 +9.87673299369E-03 -3.07723910660E-01 -1.69655914177E-01
3.01000000000E+09 -3.98830240204E-01 -8.89049176018E-02 +1.04965813650E-02 +9.09024872794E-03 +1.00540794362E-02 +8.70920885464E-03 -3.33178861918E-01 -1.35018071054E-01
3.01500000000E+09 -4.14118539382E-01 -5.43788136180E-02 +1.12935794952E-02 +7.70913812030E-03 +1.08381965891E-02 +7.70363697445E-03 -3.56561865952E-01 -9.92780696480E-02
3.02000000000E+09 -4.25731794001E-01 -1.85146494616E-02 +1.21048838215E-02 +6.34550717515E-03 +1.19818515235E-02 +6.54114959938E-03 -3.76800323004E-01 -6.00275116227E-02
3.02500000000E+09 -4.33074864227E-01 +1.75627769026E-02 +1.29974190518E-02 +4.95637862067E-03 +1.29345255808E-02 +5.09014320354E-03 -3.92093636996E-01 -2.04212328195E-02
3.03000000000E+09 -4.37047463320E-01 +5.31768674209E-02 +1.37270582801E-02 +2.88160715014E-03 +1.36206964000E-02 +2.99802718621E-03 -4.05740120870E-01 +1.93038834098E-02
3.03500000000E+09 -4.37927110168E-01 +8.85759402566E-02 +1.36227664962E-02 +1.24037457046E-03 +1.35799398927E-02 +1.53634739016E-03 -4.17097814919E-01 +5.90267402866E-02
3.04000000000E+09 -4.36465948008E-01 +1.23868429157E-01 +1.39513051154E-02 -6.30270265195E-04 +1.42985150337E-02 -1.32288937984E-04 -4.25723186514E-01 +9.96506007799E-02
3.04500000000E+09 -4.32568041203E-01 +1.59363271787E-01 +1.34701146572E-02 -2.45006737239E-03 +1.42564661804E-02 -2.42490958721E-03 -4.31317075243E-01 +1.40574804035E-01
3.05000000000E+09 -4.25945629518E-01 +1.94614046252E-01 +1.30551082777E-02 -4.03661837229E-03 +1.36114714441E-02 -4.84016346373E-03 -4.31983106951E-01 +1.80882943381E-01
3.05500000000E+09 -4.17657410177E-01 +2.28662878766E-01 +1.24144121399E-02 -5.57591122309E-03 +1.20893090870E-02 -6.59365704393E-03 -4.31058754326E-01 +2.18906140870E-01
3.06000000000E+09 -4.08295842352E-01 +2.62579953092E-01 +1.17190585697E-02 -7.20243096642E-03 +1.07749552662E-02 -7.55149009295E-03 -4.28773273827E-01 +2.57142328859E-01
3.06500000000E+09 -3.96452359214E-01 +2.95355087564E-01 +1.04770377099E-02 -9.25372550467E-03 +9.76300839427E-03 -8.58192023933E-03 -4.23432125262E-01 +2.94598755509E-01
3.07000000000E+09 -3.83552693144E-01 +3.26040491806E-01 +8.15239718773E-03 -1.05960634552E-02 +8.44562776766E-03 -9.72417533665E-03 -4.16355818792E-01 +3.30008703224E-01
