# Hz S RI R 50
! CMT, C1220, 16058040, 17.2.0/1
! Date: 15/08/2018 09:51:02
! Data: Format (Calibration Info)
! Freq                      S11: Re/Im (F2)                       S21: Re/Im (F2)                       S12: Re/Im (F2)                       S22: Re/Im (F2)            
2.50000000000E+09 +5.75482767851E-01 +6.71505587027E-01 -1.40756403069E-04 -1.73489936449E-03 -1.34833852377E-04 -1.88526027861E-03 +5.75289814238E-01 +7.18120539848E-01
2.50500000000E+09 +5.82300832619E-01 +6.63836770673E-01 -3.23159335836E-04 -1.73421068667E-03 -4.00752202106E-04 -1.78932263484E-03 +5.80677455575E-01 +7.12453533814E-01
2.51000000000E+09 +5.89505807578E-01 +6.55871463819E-01 -4.85455554727E-04 -1.74730681836E-03 -5.13165812073E-04 -1.78598066053E-03 +5.86153106892E-01 +7.07237578934E-01
2.51500000000E+09 +5.96767099581E-01 +6.47695614719E-01 -7.15925025947E-04 -1.77553056591E-03 -6.82376223830E-04 -1.74615935894E-03 +5.91330318100E-01 +7.01699382166E-01
2.52000000000E+09 +6.03670662977E-01 +6.39054811259E-01 -9.54836456336E-04 -1.69147494608E-03 -8.68152526811E-04 -1.70584340780E-03 +5.96692590239E-01 +6.95604323047E-01
2.52500000000E+09 +6.09815626476E-01 +6.30654236326E-01 -1.10466094882E-03 -1.51324250706E-03 -1.04692512515E-03 -1.59557156737E-03 +6.02719901184E-01 +6.88924641065E-01
2.53000000000E+09 +6.15543836192E-01 +6.22405249945E-01 -1.15626076310E-03 -1.41677806454E-03 -1.17738499846E-03 -1.47532448247E-03 +6.08860219816E-01 +6.81723043596E-01
2.53500000000E+09 +6.20717006747E-01 +6.14444368653E-01 -1.22330619466E-03 -1.39966852862E-03 -1.29713257982E-03 -1.39890088339E-03 +6.14697746386E-01 +6.75160532964E-01
2.54000000000E+09 +6.25225302475E-01 +6.06629673244E-01 -1.42000060505E-03 -1.31521150083E-03 -1.40593549433E-03 -1.37689991203E-03 +6.20398077574E-01 +6.68564415278E-01
2.54500000000E+09 +6.29896329021E-01 +5.99328603908E-01 -1.63573629621E-03 -1.29278265674E-03 -1.56778476547E-03 -1.44164824587E-03 +6.25906386385E-01 +6.62253163528E-01
2.55000000000E+09 +6.34857319759E-01 +5.92070636550E-01 -1.83878524045E-03 -1.06231131590E-03 -1.92544107119E-03 -1.38044146756E-03 +6.30979048006E-01 +6.55713789792E-01
2.55500000000E+09 +6.40476344947E-01 +5.84206886775E-01 -1.95161975393E-03 -8.45786702020E-04 -2.25855351247E-03 -1.06968482824E-03 +6.36256496082E-01 +6.49079343186E-01
2.56000000000E+09 +6.46847850218E-01 +5.76415050391E-01 -1.88915997070E-03 -6.30862247179E-04 -2.32882340210E-03 -5.76621538014E-04 +6.41807054822E-01 +6.41783686187E-01
2.56500000000E+09 +6.53781459004E-01 +5.67471839564E-01 -1.87643858704E-03 -6.11929729910E-04 -2.21333962763E-03 -2.85641443493E-04 +6.47533573241E-01 +6.34127404088E-01
2.57000000000E+09 +6.60825313760E-01 +5.58390785769E-01 -2.09846843805E-03 -5.04737817503E-04 -2.10204593680E-03 -5.55923774029E-05 +6.52888994367E-01 +6.26640833799E-01
2.57500000000E+09 +6.68089105078E-01 +5.48544439538E-01 -2.24089270799E-03 -3.34344933626E-04 -1.99589400731E-03 +7.04902860498E-06 +6.58250572148E-01 +6.19355142892E-01
2.58000000000E+09 +6.74498186954E-01 +5.38594618611E-01 -2.41526896086E-03 -3.58132677600E-05 -2.01149161961E-03 +6.54195501386E-05 +6.62893093069E-01 +6.12006056855E-01
2.58500000000E+09 +6.80412847974E-01 +5.28545279414E-01 -2.32029297243E-03 +3.73864054035E-04 -2.02482661207E-03 +2.60380197337E-04 +6.67530407771E-01 +6.04437977114E-01
2.59000000000E+09 +6.85760687708E-01 +5.19003749692E-01 -2.06121831985E-03 +4.07068310647E-04 -1.95420824888E-03 +2.54047660254E-04 +6.72555462874E-01 +5.96487869683E-01
2.59500000000E+09 +6.90658879419E-01 +5.09318717223E-01 -2.17523519811E-03 +2.70953561025E-04 -2.16179746281E-03 +2.22821936464E-04 +6.77729677204E-01 +5.87846777964E-01
2.60000000000E+09 +6.94680443481E-01 +4.99838672459E-01 -2.41224232741E-03 +4.72850675977E-04 -2.42355228686E-03 +4.30310525326E-04 +6.82717944352E-01 +5.79241538538E-01
2.60500000000E+09 +6.98976532150E-01 +4.90301460453E-01 -2.59840014491E-03 +8.04523806540E-04 -2.61388410272E-03 +7.96808415112E-04 +6.88008072887E-01 +5.70779559631E-01
2.61000000000E+09 +7.03164046126E-01 +4.80247672827E-01 -2.69308028951E-03 +1.36341400900E-03 -2.66610357550E-03 +1.28165390734E-03 +6.92772262297E-01 +5.62182294369E-01
2.61500000000E+09 +7.07805031121E-01 +4.69666131270E-01 -2.27864340292E-03 +1.93693093577E-03 -2.35017580801E-03 +1.84653758646E-03 +6.97188940697E-01 +5.53977256914E-01
2.62000000000E+09 +7.12440098503E-01 +4.58053846072E-01 -1.83703809269E-03 +1.90305605439E-03 -1.87822667827E-03 +2.07236357582E-03 +7.01839618432E-01 +5.45143871471E-01
2.62500000000E+09 +7.17076441105E-01 +4.45211836446E-01 -1.84370763932E-03 +1.79838622772E-03 -1.77781099759E-03 +2.05498417954E-03 +7.06715667978E-01 +5.35736242919E-01
2.63000000000E+09 +7.21387442656E-01 +4.31878611314E-01 -1.92845728555E-03 +2.06846907827E-03 -1.57621794701E-03 +2.28939822666E-03 +7.11416225944E-01 +5.26326610991E-01
2.63500000000E+09 +7.25494830663E-01 +4.18162102409E-01 -1.77278387721E-03 +2.32473727886E-03 -1.38998825002E-03 +2.25907965562E-03 +7.16446917395E-01 +5.16931279835E-01
2.64000000000E+09 +7.29010205622E-01 +4.04642897020E-01 -1.73520751335E-03 +2.79551409736E-03 -1.39824512240E-03 +2.42120895793E-03 +7.21391776575E-01 +5.07537791952E-01
2.64500000000E+09 +7.32159304433E-01 +3.91396799563E-01 -1.12423591503E-03 +3.24775375879E-03 -1.23723951199E-03 +2.73754041379E-03 +7.25789511226E-01 +4.98124615871E-01
2.65000000000E+09 +7.34998931887E-01 +3.79096833615E-01 -5.79117347455E-04 +3.10064801516E-03 -8.75275241543E-04 +2.92500058666E-03 +7.29928830842E-01 +4.88598075319E-01
2.65500000000E+09 +7.37791534138E-01 +3.66863341752E-01 -3.83433484140E-04 +2.90041473803E-03 -6.03499821564E-04 +3.04212018008E-03 +7.33840615908E-01 +4.78274157041E-01
2.66000000000E+09 +7.40776671806E-01 +3.54964091819E-01 -2.84647941253E-04 +2.96980669114E-03 -3.13666874703E-04 +3.20290133266E-03 +7.37793151598E-01 +4.67222321301E-01
2.66500000000E+09 +7.43771541394E-01 +3.43003731582E-01 -8.22659636436E-05 +3.13011259219E-03 +1.13906354307E-04 +3.27711763033E-03 +7.42579002615E-01 +4.55918673727E-01
2.67000000000E+09 +7.46622335674E-01 +3.30010103981E-01 +3.75379605897E-04 +3.22496279938E-03 +6.10428779636E-04 +3.06447685888E-03 +7.47267832063E-01 +4.44672626743E-01
2.67500000000E+09 +7.48798425320E-01 +3.16414756276E-01 +7.56049967323E-04 +2.99763630345E-03 +7.73539885351E-04 +2.71245355515E-03 +7.51220550616E-01 +4.33427602726E-01
2.68000000000E+09 +7.50592236974E-01 +3.01826392997E-01 +7.97186429211E-04 +2.78703072802E-03 +6.86199231072E-04 +2.64505521525E-03 +7.54888280058E-01 +4.22866899827E-01
2.68500000000E+09 +7.51789832853E-01 +2.86423813608E-01 +7.63371819824E-04 +2.89031191962E-03 +6.51680556987E-04 +2.85635362234E-03 +7.58069840639E-01 +4.11517838748E-01
2.69000000000E+09 +7.52170845557E-01 +2.70846057251E-01 +1.04383820053E-03 +3.19511096719E-03 +9.97656079266E-04 +3.16507882242E-03 +7.60625013363E-01 +3.99573442247E-01
2.69500000000E+09 +7.52334177987E-01 +2.55286798018E-01 +1.58225295953E-03 +3.20325053394E-03 +1.57669211131E-03 +3.12737144456E-03 +7.63691601962E-01 +3.86741678844E-01
2.70000000000E+09 +7.52559221469E-01 +2.39654426482E-01 +2.03494730330E-03 +3.03851572053E-03 +1.98329238800E-03 +2.96171050740E-03 +7.66794249185E-01 +3.73374724567E-01
2.70500000000E+09 +7.52412687677E-01 +2.24341388535E-01 +2.35417491361E-03 +2.57556703367E-03 +2.21797879631E-03 +2.60496690021E-03 +7.69981956802E-01 +3.59549504850E-01
2.71000000000E+09 +7.52596203880E-01 +2.09364572483E-01 +2.36732589468E-03 +2.32466997304E-03 +2.32256821550E-03 +2.48382555972E-03 +7.72854952891E-01 +3.46850949163E-01
2.71500000000E+09 +7.53361458295E-01 +1.94321965563E-01 +2.24946743247E-03 +2.30290566319E-03 +2.42031378173E-03 +2.48496267106E-03 +7.75728008766E-01 +3.34230405253E-01
2.72000000000E+09 +7.53851213432E-01 +1.79065757552E-01 +2.53885963637E-03 +2.57601443301E-03 +2.85575881078E-03 +2.59712364416E-03 +7.77892208902E-01 +3.21099048484E-01
2.72500000000E+09 +7.54337797670E-01 +1.63687040833E-01 +3.21702389129E-03 +2.48227293492E-03 +3.41181186241E-03 +2.10668320324E-03 +7.78841976290E-01 +3.07196357714E-01
2.73000000000E+09 +7.54222140792E-01 +1.47790674960E-01 +3.42938403580E-03 +2.12865351107E-03 +3.32537331803E-03 +1.67859444254E-03 +7.80203030043E-01 +2.92909632915E-01
2.73500000000E+09 +7.53205706835E-01 +1.31215521404E-01 +3.71314961044E-03 +2.01034337468E-03 +3.23956239986E-03 +1.73044188960E-03 +7.81403712481E-01 +2.77869786076E-01
2.74000000000E+09 +7.51153884254E-01 +1.14375423641E-01 +4.41574790802E-03 +1.76222607790E-03 +3.75815477591E-03 +1.85847561498E-03 +7.83158030441E-01 +2.62987805900E-01
2.74500000000E+09 +7.47748791079E-01 +9.67969103819E-02 +4.57210303563E-03 +1.02999288574E-03 +4.20029125813E-03 +1.54594183580E-03 +7.84421158974E-01 +2.47442455349E-01
2.75000000000E+09 +7.42944810722E-01 +7.92836901776E-02 +4.62479694334E-03 +7.74568397834E-04 +4.68519636497E-03 +1.30492007215E-03 +7.84651898688E-01 +2.32243721280E-01
2.75500000000E+09 +7.37417283222E-01 +6.19355560019E-02 +4.89332412218E-03 +3.99271558187E-04 +5.23246855713E-03 +6.65080184114E-04 +7.83782757233E-01 +2.17213634001E-01
2.76000000000E+09 +7.31612473923E-01 +4.46567846170E-02 +5.08704113625E-03 +1.47577007019E-05 +5.44331171470E-03 +4.77230619011E-05 +7.83199084637E-01 +2.01751997418E-01
2.76500000000E+09 +7.25846918739E-01 +2.73125716589E-02 +5.40620618059E-03 -3.97879780450E-04 +5.68206857164E-03 -5.68599308462E-04 +7.82222293993E-01 +1.84467119137E-01
2.77000000000E+09 +7.20784498674E-01 +9.39524999020E-03 +5.89253162620E-03 -1.29136749441E-03 +6.05377258748E-03 -1.40674997612E-03 +7.81407225373E-01 +1.66678543748E-01
2.77500000000E+09 +7.15884780412E-01 -9.21658544761E-03 +5.68764582852E-03 -2.53370271786E-03 +5.75996172277E-03 -2.76387695030E-03 +7.79446217031E-01 +1.48615500978E-01
2.78000000000E+09 +7.11193268339E-01 -2.88050611835E-02 +4.97400244156E-03 -2.95933034261E-03 +4.88096593266E-03 -3.28152512964E-03 +7.77444046889E-01 +1.31562652271E-01
2.78500000000E+09 +7.06405669556E-01 -4.91840977981E-02 +4.83912465653E-03 -3.08896638870E-03 +4.55259275334E-03 -3.33810778739E-03 +7.75272078491E-01 +1.14429514473E-01
2.79000000000E+09 +7.00684491341E-01 -7.06671456021E-02 +4.86313663780E-03 -3.64980091537E-03 +4.44985591775E-03 -3.66070696942E-03 +7.72015263879E-01 +9.66472617480E-02
2.79500000000E+09 +6.93063406665E-01 -9.19589304750E-02 +4.60226290021E-03 -4.16116976727E-03 +4.29831105855E-03 -3.94207792590E-03 +7.67694160175E-01 +7.81406730670E-02
2.80000000000E+09 +6.83871458239E-01 -1.12081422118E-01 +4.75906334578E-03 -5.03178674014E-03 +4.71316970801E-03 -4.71186171348E-03 +7.62445308442E-01 +5.89014476851E-02
2.80500000000E+09 +6.74304449384E-01 -1.31055640931E-01 +3.94990396119E-03 -6.30940539946E-03 +4.21798891132E-03 -6.11670621378E-03 +7.56812764994E-01 +4.00852750652E-02
2.81000000000E+09 +6.63636410318E-01 -1.49078063740E-01 +2.79085622990E-03 -6.41027461690E-03 +3.03018143124E-03 -6.57374587513E-03 +7.51551641966E-01 +2.07382996428E-02
2.81500000000E+09 +6.52462240698E-01 -1.66629423607E-01 +2.42228462408E-03 -6.69507129219E-03 +2.30231387149E-03 -6.95332564085E-03 +7.44650739702E-01 +9.13916342272E-04
2.82000000000E+09 +6.40241279201E-01 -1.84364107565E-01 +1.80603097053E-03 -7.22913816018E-03 +1.50678337804E-03 -7.22503991754E-03 +7.37018255048E-01 -1.87141066740E-02
2.82500000000E+09 +6.26946551630E-01 -2.02211909124E-01 +8.54414455107E-04 -7.53636126376E-03 +5.62586373295E-04 -7.23903500181E-03 +7.27389384350E-01 -3.88074278621E-02
2.83000000000E+09 +6.11651720804E-01 -2.20798722944E-01 +1.59723220203E-04 -7.69707258808E-03 +1.67699181892E-04 -7.28701641413E-03 +7.16959671336E-01 -5.87803624798E-02
2.83500000000E+09 +5.95269355706E-01 -2.39184347088E-01 -8.93613788267E-04 -7.69656341862E-03 -6.23474410335E-04 -7.44150287662E-03 +7.06500875784E-01 -7.86311276920E-02
2.84000000000E+09 +5.77344120139E-01 -2.57949452417E-01 -1.35387279953E-03 -7.33436639028E-03 -1.12753790772E-03 -7.29487077573E-03 +6.96060995524E-01 -1.00058158894E-01
2.84500000000E+09 +5.57822989775E-01 -2.77295989707E-01 -1.45391286829E-03 -7.87879200563E-03 -1.34551890575E-03 -7.97892306719E-03 +6.83796631902E-01 -1.21637827656E-01
2.85000000000E+09 +5.36662440479E-01 -2.96365734625E-01 -2.68651769020E-03 -8.80927882573E-03 -2.75885726982E-03 -8.84509264294E-03 +6.69455505802E-01 -1.42404790679E-01
2.85500000000E+09 +5.14412917939E-01 -3.14694813034E-01 -4.70661609138E-03 -8.81608743260E-03 -4.68544291124E-03 -8.73982566835E-03 +6.53934681164E-01 -1.61928235279E-01
2.86000000000E+09 +4.91143582423E-01 -3.33057113915E-01 -6.32273387493E-03 -8.05633099783E-03 -6.21691995935E-03 -7.94892331749E-03 +6.38099678241E-01 -1.81931754761E-01
2.86500000000E+09 +4.67206211477E-01 -3.49936480130E-01 -7.85002447857E-03 -6.56469701146E-03 -7.81485889441E-03 -6.70613469174E-03 +6.20795128348E-01 -2.03255363837E-01
2.87000000000E+09 +4.42069663071E-01 -3.66416567536E-01 -8.06757778976E-03 -4.89347107846E-03 -8.17179250498E-03 -4.84941375211E-03 +6.00582833551E-01 -2.24533419009E-01
2.87500000000E+09 +4.16178088136E-01 -3.80842913735E-01 -7.67529790017E-03 -4.27021290469E-03 -7.80171853953E-03 -4.03114669039E-03 +5.80080150165E-01 -2.43846809150E-01
2.88000000000E+09 +3.90360228293E-01 -3.93609893463E-01 -8.08447520201E-03 -4.53229423396E-03 -7.97393874140E-03 -4.11770872454E-03 +5.58923311837E-01 -2.63211506975E-01
2.88500000000E+09 +3.64763564823E-01 -4.05301265534E-01 -1.00067627574E-02 -3.70850762205E-03 -9.44431505545E-03 -3.27495670979E-03 +5.36169918969E-01 -2.81501881537E-01
2.89000000000E+09 +3.38285716538E-01 -4.17139939889E-01 -1.02411734042E-02 -1.81037885233E-03 -9.60121599761E-03 -1.94811523299E-03 +5.10892367960E-01 -3.00041035587E-01
2.89500000000E+09 +3.10260424887E-01 -4.28235057606E-01 -1.03307842613E-02 -6.97141785888E-04 -1.00035920122E-02 -1.15589835292E-03 +4.82617549934E-01 -3.17488398056E-01
2.90000000000E+09 +2.79541381498E-01 -4.38563475599E-01 -1.06415094638E-02 +7.16521360508E-04 -1.07397907074E-02 +2.71159608672E-04 +4.52784682885E-01 -3.32562355690E-01
2.90500000000E+09 +2.45562916292E-01 -4.46293864697E-01 -1.01015457049E-02 +2.02742185293E-03 -1.03293142616E-02 +2.09641234538E-03 +4.23661706985E-01 -3.47801363377E-01
2.91000000000E+09 +2.11105168488E-01 -4.50073065403E-01 -9.89105686194E-03 +2.63704621114E-03 -9.77851214997E-03 +2.93803439891E-03 +3.92421708660E-01 -3.63073795354E-01
2.91500000000E+09 +1.76340971118E-01 -4.52100034532E-01 -1.01099974961E-02 +4.11540850187E-03 -9.54129660160E-03 +4.17587286398E-03 +3.58815445978E-01 -3.75673877929E-01
2.92000000000E+09 +1.41092177186E-01 -4.51852063424E-01 -9.16181295272E-03 +5.65314187463E-03 -8.68437677510E-03 +5.20022409275E-03 +3.23701712062E-01 -3.84787088381E-01
2.92500000000E+09 +1.06170053248E-01 -4.49936194667E-01 -8.25448272616E-03 +5.83280807712E-03 -8.06876101702E-03 +5.21349245358E-03 +2.87762328451E-01 -3.91072508807E-01
2.93000000000E+09 +7.13715727330E-02 -4.47096419918E-01 -8.57208000648E-03 +6.54826795020E-03 -8.78901511668E-03 +5.97622199727E-03 +2.51674516101E-01 -3.95720910158E-01
2.93500000000E+09 +3.57197990959E-02 -4.42713823526E-01 -8.14630417787E-03 +8.38327618286E-03 -8.41634762788E-03 +8.07608137387E-03 +2.14192637231E-01 -4.00663420767E-01
2.94000000000E+09 +3.66473581822E-04 -4.36219668286E-01 -6.78130601655E-03 +9.53967499260E-03 -6.99595566009E-03 +9.39202130582E-03 +1.74026233803E-01 -4.03871866902E-01
2.94500000000E+09 -3.51242256746E-02 -4.28333661272E-01 -5.72865633276E-03 +1.08121269044E-02 -5.94812441422E-03 +1.06260247620E-02 +1.33585502140E-01 -4.03215018491E-01
2.95000000000E+09 -7.13085215638E-02 -4.16411242836E-01 -3.54863338170E-03 +1.14181324767E-02 -3.94267622185E-03 +1.12872894190E-02 +9.33477985252E-02 -3.98513681826E-01
2.95500000000E+09 -1.05333218432E-01 -4.00973932528E-01 -2.07410496764E-03 +1.08796961621E-02 -2.48595903955E-03 +1.10791239889E-02 +5.51190939421E-02 -3.91398800653E-01
2.96000000000E+09 -1.37394694433E-01 -3.83681465005E-01 -1.71094539686E-03 +1.08082721850E-02 -1.87031642566E-03 +1.13447967723E-02 +1.50697433803E-02 -3.82536794583E-01
2.96500000000E+09 -1.69409728917E-01 -3.64317501796E-01 -8.87446765406E-04 +1.16028480084E-02 -5.91958203824E-04 +1.20409812478E-02 -2.60882553468E-02 -3.70525934269E-01
2.97000000000E+09 -2.00368591445E-01 -3.41392369597E-01 +8.03386771926E-04 +1.22095071828E-02 +1.27978151898E-03 +1.21038691767E-02 -6.62999361745E-02 -3.55281933177E-01
2.97500000000E+09 -2.29685172869E-01 -3.16267523599E-01 +2.36254400480E-03 +1.23381407496E-02 +2.48515159887E-03 +1.18894329158E-02 -1.05330639870E-01 -3.37758908648E-01
2.98000000000E+09 -2.58773368955E-01 -2.89035530914E-01 +4.72723324477E-03 +1.17297930238E-02 +4.34545490795E-03 +1.15115318655E-02 -1.43112304224E-01 -3.17302953889E-01
2.98500000000E+09 -2.86533109989E-01 -2.58769430086E-01 +5.76923050365E-03 +1.03737356171E-02 +5.35394395147E-03 +1.07468271162E-02 -1.79827542691E-01 -2.94050740494E-01
2.99000000000E+09 -3.12125106366E-01 -2.26951644241E-01 +6.18411251228E-03 +9.72941093039E-03 +6.29549552925E-03 +1.02670469060E-02 -2.15200919609E-01 -2.66830763996E-01
2.99500000000E+09 -3.36190775873E-01 -1.94137102980E-01 +7.14537758219E-03 +1.00404461863E-02 +7.85896834683E-03 +1.02347370423E-02 -2.48577150425E-01 -2.37112433591E-01
3.00000000000E+09 -3.57706528045E-01 -1.60545877463E-01 +9.33051448483E-03 +8.96951714133E-03 +9.82287876474E-03 +8.45478472660E-03 -2.79158067975E-01 -2.04244362882E-01
3.00500000000E+09 -3.77428752594E-01 -1.27241787377E-01 +9.99922442828E-03 +7.53064374493E-03 +9.93961503214E-03 +6.86516434117E-03 -3.06930456205E-01 -1.71380975079E-01
3.01000000000E+09 -3.95387925760E-01 -9.36742153851E-02 +1.11369842641E-02 +6.42516951520E-03 +1.06031656768E-02 +6.09453077224E-03 -3.32776153377E-01 -1.37058948648E-01
3.01500000000E+09 -4.10905919854E-01 -5.91289304222E-02 +1.19146363328E-02 +4.90861332305E-03 +1.14570925062E-02 +5.05440701340E-03 -3.56814875324E-01 -1.01183497954E-01
3.02000000000E+09 -4.22580931748E-01 -2.41321618327E-02 +1.23502427519E-02 +3.44362605283E-03 +1.22132308111E-02 +3.61029867297E-03 -3.77043794284E-01 -6.13366352695E-02
3.02500000000E+09 -4.31467911903E-01 +1.08597440026E-02 +1.26084472454E-02 +2.11058571306E-03 +1.26008469754E-02 +2.20018580719E-03 -3.92302633569E-01 -2.14664231824E-02
3.03000000000E+09 -4.36693359115E-01 +4.66306924416E-02 +1.31175586323E-02 +4.44989383977E-04 +1.29131315662E-02 +5.96128628373E-04 -4.05782867824E-01 +1.83250955144E-02
3.03500000000E+09 -4.37995479332E-01 +8.23859813393E-02 +1.32061775016E-02 -1.23829763538E-03 +1.31044420494E-02 -8.21077771221E-04 -4.16810492625E-01 +5.81106630190E-02
3.04000000000E+09 -4.36448297384E-01 +1.17121777302E-01 +1.30402474526E-02 -3.47084354704E-03 +1.34368120758E-02 -2.99661781867E-03 -4.25591825684E-01 +9.83809903099E-02
3.04500000000E+09 -4.33240139747E-01 +1.51759017129E-01 +1.18930626160E-02 -5.08931237235E-03 +1.26815021433E-02 -5.21586952873E-03 -4.31133682040E-01 +1.39286636647E-01
3.05000000000E+09 -4.28002293181E-01 +1.86785048269E-01 +1.08986276090E-02 -6.15769790080E-03 +1.13561841169E-02 -6.96430065928E-03 -4.31952731512E-01 +1.79238257134E-01
3.05500000000E+09 -4.21014372608E-01 +2.21401274897E-01 +1.02326048584E-02 -7.14150811525E-03 +9.85031061348E-03 -7.99096669653E-03 -4.31049835155E-01 +2.17047627002E-01
3.06000000000E+09 -4.12110948927E-01 +2.56254005149E-01 +9.54099825799E-03 -8.60429997988E-03 +8.61302132046E-03 -8.71579173731E-03 -4.29017965698E-01 +2.55491678791E-01
3.06500000000E+09 -4.00456549010E-01 +2.89725083512E-01 +8.24807140841E-03 -1.01886325911E-02 +7.72433177716E-03 -9.48848745105E-03 -4.23731276911E-01 +2.92806500973E-01
3.07000000000E+09 -3.87770308256E-01 +3.20186029249E-01 +5.90762252089E-03 -1.13912042274E-02 +6.35566658353E-03 -1.06757085078E-02 -4.16937471948E-01 +3.28224566956E-01
