# Hz S RI R 50
! CMT, C1220, 16058040, 17.2.0/1
! Date: 15/08/2018 09:46:59
! Data: Format (Calibration Info)
! Freq                      S11: Re/Im (F2)                       S21: Re/Im (F2)                       S12: Re/Im (F2)                       S22: Re/Im (F2)            
2.50000000000E+09 +5.78055041644E-01 +6.66343262891E-01 +2.00021924109E-04 -1.48976320141E-03 +2.49514736490E-04 -1.55605016706E-03 +5.75371866678E-01 +7.17364026121E-01
2.50500000000E+09 +5.84880699273E-01 +6.58710197057E-01 +6.95342204685E-05 -1.53521406663E-03 -9.56970091338E-06 -1.62575603544E-03 +5.80838970550E-01 +7.11861928728E-01
2.51000000000E+09 +5.92278100230E-01 +6.50686428660E-01 -9.27348486301E-05 -1.60640779974E-03 -1.96371225376E-04 -1.62511415102E-03 +5.86253502769E-01 +7.06674524453E-01
2.51500000000E+09 +5.99784983086E-01 +6.42480648297E-01 -3.09175632419E-04 -1.64427659220E-03 -3.23757301759E-04 -1.56214017381E-03 +5.91368522974E-01 +7.01315120554E-01
2.52000000000E+09 +6.06738703768E-01 +6.33656379169E-01 -5.34617173515E-04 -1.55555835822E-03 -4.51669262296E-04 -1.55099384985E-03 +5.96676012333E-01 +6.95172575811E-01
2.52500000000E+09 +6.12830405481E-01 +6.25144512781E-01 -6.75827241683E-04 -1.41270665540E-03 -5.94319030035E-04 -1.48245202610E-03 +6.02603506893E-01 +6.88610840351E-01
2.53000000000E+09 +6.18455275857E-01 +6.16734079826E-01 -7.30799166979E-04 -1.41514596502E-03 -7.22770842166E-04 -1.39382828858E-03 +6.08919986946E-01 +6.81371376192E-01
2.53500000000E+09 +6.23483206805E-01 +6.08591523632E-01 -8.49711644375E-04 -1.33699679939E-03 -8.45889720699E-04 -1.39195612904E-03 +6.14769904166E-01 +6.74654206398E-01
2.54000000000E+09 +6.27890733607E-01 +6.00619476877E-01 -1.00667866883E-03 -1.33005923661E-03 -9.18875652640E-04 -1.32486682437E-03 +6.20437960114E-01 +6.68108518562E-01
2.54500000000E+09 +6.32179700050E-01 +5.93306737451E-01 -1.13572538662E-03 -1.25876291183E-03 -1.06949804580E-03 -1.37111620338E-03 +6.26109483835E-01 +6.61761188164E-01
2.55000000000E+09 +6.37054639875E-01 +5.86179706580E-01 -1.31120365281E-03 -1.04192172616E-03 -1.29172390597E-03 -1.21425958718E-03 +6.31074221292E-01 +6.55290532235E-01
2.55500000000E+09 +6.42704946571E-01 +5.78544306194E-01 -1.34627913432E-03 -9.67031026854E-04 -1.58276191000E-03 -1.14600852507E-03 +6.36367872088E-01 +6.48665591514E-01
2.56000000000E+09 +6.49022652633E-01 +5.70763374710E-01 -1.35398914694E-03 -7.68864905812E-04 -1.67277906676E-03 -8.19940258836E-04 +6.41853590854E-01 +6.41290110005E-01
2.56500000000E+09 +6.55914827047E-01 +5.62028170708E-01 -1.34571182201E-03 -7.97925477631E-04 -1.64269220343E-03 -6.11135590984E-04 +6.47496799872E-01 +6.33754053268E-01
2.57000000000E+09 +6.63038773330E-01 +5.52996712037E-01 -1.46485871311E-03 -8.03986102804E-04 -1.60001182547E-03 -4.82520832993E-04 +6.52757735143E-01 +6.26074182208E-01
2.57500000000E+09 +6.70183785563E-01 +5.43294358370E-01 -1.66058124831E-03 -7.11637059468E-04 -1.52683112662E-03 -4.28991100856E-04 +6.58072119723E-01 +6.18850679162E-01
2.58000000000E+09 +6.76524255124E-01 +5.33492403869E-01 -1.88572351136E-03 -5.33439436168E-04 -1.61799249144E-03 -3.71500480447E-04 +6.62840719154E-01 +6.11519280406E-01
2.58500000000E+09 +6.82469270186E-01 +5.23635615427E-01 -1.86622855384E-03 -1.96116930851E-04 -1.61687350680E-03 -2.29142907781E-04 +6.67450975192E-01 +6.03890090586E-01
2.59000000000E+09 +6.87673408172E-01 +5.13926430380E-01 -1.59710393332E-03 -1.08953765501E-04 -1.60342207763E-03 -2.68955136508E-04 +6.72386170392E-01 +5.96097894981E-01
2.59500000000E+09 +6.92441147394E-01 +5.04250420126E-01 -1.73056309293E-03 -2.84830911088E-04 -1.72728089785E-03 -4.17730404658E-04 +6.77508472653E-01 +5.87697153684E-01
2.60000000000E+09 +6.96307609686E-01 +4.94651747811E-01 -2.03182373067E-03 -2.23974030182E-04 -2.04760854601E-03 -2.51677649884E-04 +6.82581492085E-01 +5.79259679702E-01
2.60500000000E+09 +7.00435243491E-01 +4.84948557609E-01 -2.26274475281E-03 +6.57183276497E-05 -2.28850328578E-03 +1.00508351018E-04 +6.87929678553E-01 +5.70862226609E-01
2.61000000000E+09 +7.04789602488E-01 +4.74799661890E-01 -2.48349213047E-03 +4.65399623733E-04 -2.45844731614E-03 +4.42121933149E-04 +6.92717407027E-01 +5.62182759289E-01
2.61500000000E+09 +7.09540909078E-01 +4.63920235562E-01 -2.30810923860E-03 +1.06409996758E-03 -2.37076934515E-03 +1.04370107171E-03 +6.97133725807E-01 +5.53974757829E-01
2.62000000000E+09 +7.14374042066E-01 +4.51931192882E-01 -1.86672494236E-03 +1.11930621060E-03 -1.97953276083E-03 +1.21639789400E-03 +7.01973387464E-01 +5.45262837379E-01
2.62500000000E+09 +7.19371313396E-01 +4.38798591376E-01 -1.82264951869E-03 +1.04746788826E-03 -1.87723028909E-03 +1.23332738603E-03 +7.06960497174E-01 +5.35934656108E-01
2.63000000000E+09 +7.23990756846E-01 +4.24959595161E-01 -1.89659425175E-03 +1.22485561795E-03 -1.69586938433E-03 +1.48137070402E-03 +7.11822207578E-01 +5.26516597199E-01
2.63500000000E+09 +7.27932261360E-01 +4.10962985536E-01 -1.92943645942E-03 +1.38821798315E-03 -1.59038520436E-03 +1.44329464609E-03 +7.16856366456E-01 +5.17167509622E-01
2.64000000000E+09 +7.31537930205E-01 +3.97142965875E-01 -1.97969463130E-03 +1.80122704285E-03 -1.67252833412E-03 +1.58927446178E-03 +7.21754686918E-01 +5.07642432216E-01
2.64500000000E+09 +7.34700710838E-01 +3.83998395721E-01 -1.55458621984E-03 +2.25161361689E-03 -1.55444129567E-03 +1.86300253127E-03 +7.26276168160E-01 +4.98263582865E-01
2.65000000000E+09 +7.37207048486E-01 +3.71323408505E-01 -1.10316049652E-03 +2.23541634936E-03 -1.32582092824E-03 +2.02658127672E-03 +7.30653229993E-01 +4.88803540685E-01
2.65500000000E+09 +7.39856616610E-01 +3.59041642167E-01 -9.85355212680E-04 +2.10056999225E-03 -1.22488076507E-03 +2.07968970609E-03 +7.34589420161E-01 +4.78115584076E-01
2.66000000000E+09 +7.42568430224E-01 +3.47058403066E-01 -1.01452051201E-03 +2.20435458913E-03 -1.11119929332E-03 +2.39716148163E-03 +7.38569100226E-01 +4.66997384721E-01
2.66500000000E+09 +7.45603827310E-01 +3.35032218372E-01 -9.02579752325E-04 +2.45765173515E-03 -8.19909164437E-04 +2.60910180295E-03 +7.43236205648E-01 +4.55685374464E-01
2.67000000000E+09 +7.48299097732E-01 +3.21792873603E-01 -5.67953627067E-04 +2.60860707799E-03 -3.60524621669E-04 +2.51775551119E-03 +7.47774073860E-01 +4.44522855523E-01
2.67500000000E+09 +7.50213869265E-01 +3.07842149995E-01 -2.99364104839E-04 +2.53560840962E-03 -2.29968370758E-04 +2.34898502182E-03 +7.51889024468E-01 +4.33392657460E-01
2.68000000000E+09 +7.51889906140E-01 +2.93354544269E-01 -1.84336678094E-04 +2.46768709151E-03 -2.62603482763E-04 +2.30954457718E-03 +7.55800261327E-01 +4.22751915582E-01
2.68500000000E+09 +7.52924672351E-01 +2.77912732154E-01 -2.57680848920E-04 +2.56950741387E-03 -3.50797976388E-04 +2.52989948071E-03 +7.58962840091E-01 +4.11157427467E-01
2.69000000000E+09 +7.53188413503E-01 +2.62259551511E-01 -1.27133348845E-04 +2.95933699908E-03 -1.74773210668E-04 +3.03602287163E-03 +7.61513496011E-01 +3.99145267403E-01
2.69500000000E+09 +7.53491083880E-01 +2.46678556342E-01 +5.01334551083E-04 +3.21147268658E-03 +4.62720567023E-04 +3.19426301760E-03 +7.64471776350E-01 +3.86313544858E-01
2.70000000000E+09 +7.53539607412E-01 +2.30897007951E-01 +9.38213853464E-04 +3.11335456086E-03 +8.85955374201E-04 +3.02343418283E-03 +7.67827904232E-01 +3.72726020524E-01
2.70500000000E+09 +7.53151286284E-01 +2.15665989245E-01 +1.31444438558E-03 +2.77094114140E-03 +1.16684752480E-03 +2.72954266874E-03 +7.71054339313E-01 +3.58825299355E-01
2.71000000000E+09 +7.53161888217E-01 +2.00826086824E-01 +1.40775901853E-03 +2.46742049778E-03 +1.27355430787E-03 +2.58800732098E-03 +7.73667344367E-01 +3.45918050452E-01
2.71500000000E+09 +7.53776917950E-01 +1.85957041334E-01 +1.21678041358E-03 +2.46527974889E-03 +1.21011283330E-03 +2.67598889022E-03 +7.76529355697E-01 +3.33515608245E-01
2.72000000000E+09 +7.54158125906E-01 +1.70974703319E-01 +1.32729892871E-03 +2.79890088716E-03 +1.61106611424E-03 +2.91531518675E-03 +7.78814583690E-01 +3.20483601432E-01
2.72500000000E+09 +7.54696618774E-01 +1.55535446205E-01 +1.88664061734E-03 +2.81795831885E-03 +2.17324541406E-03 +2.63545012745E-03 +7.79962905845E-01 +3.06420861083E-01
2.73000000000E+09 +7.54597543373E-01 +1.39459222330E-01 +2.01928271068E-03 +2.72902152326E-03 +2.04031104635E-03 +2.33329519755E-03 +7.81430585018E-01 +2.91690101700E-01
2.73500000000E+09 +7.53501541389E-01 +1.22382063375E-01 +2.28714421956E-03 +3.02731196900E-03 +2.02249561473E-03 +2.60597921759E-03 +7.82247885491E-01 +2.76309028520E-01
2.74000000000E+09 +7.51176775886E-01 +1.05183585868E-01 +3.26264827772E-03 +2.95420347147E-03 +2.66863369007E-03 +2.89518125020E-03 +7.83895457632E-01 +2.61566835603E-01
2.74500000000E+09 +7.47458452442E-01 +8.72066099671E-02 +3.58277926791E-03 +2.32742202983E-03 +3.15264024870E-03 +2.66485329657E-03 +7.85152742105E-01 +2.45972793505E-01
2.75000000000E+09 +7.42169603188E-01 +6.94239855602E-02 +3.84977793713E-03 +2.01670753510E-03 +3.71247956810E-03 +2.50462577550E-03 +7.85406483386E-01 +2.30639567328E-01
2.75500000000E+09 +7.36186272549E-01 +5.19225209282E-02 +4.02282016837E-03 +1.66592896507E-03 +4.16960410625E-03 +2.03569280564E-03 +7.84400089932E-01 +2.15359715366E-01
2.76000000000E+09 +7.30166590039E-01 +3.47332947418E-02 +4.19298857433E-03 +1.55722096479E-03 +4.50172950049E-03 +1.70591581085E-03 +7.83687234833E-01 +1.99910333368E-01
2.76500000000E+09 +7.24295476920E-01 +1.73954700188E-02 +4.74029845906E-03 +1.46688692674E-03 +4.96372936599E-03 +1.49369369932E-03 +7.82472957343E-01 +1.82672464819E-01
2.77000000000E+09 +7.18937372850E-01 -5.63742863295E-04 +5.54804225721E-03 +8.63406362597E-04 +5.75764843137E-03 +7.44582500009E-04 +7.81571106103E-01 +1.64870176640E-01
2.77500000000E+09 +7.13769325635E-01 -1.94918723981E-02 +5.74558529514E-03 -3.13304513789E-04 +5.91433217811E-03 -5.23289049703E-04 +7.79701445948E-01 +1.46651418138E-01
2.78000000000E+09 +7.08681819638E-01 -3.90258968929E-02 +5.44359295453E-03 -9.27279145995E-04 +5.48539661351E-03 -1.19131454456E-03 +7.77355209879E-01 +1.29152535872E-01
2.78500000000E+09 +7.03266818307E-01 -5.94444591795E-02 +5.43723613202E-03 -1.38426856494E-03 +5.31512653777E-03 -1.70953799771E-03 +7.74869319000E-01 +1.11917165998E-01
2.79000000000E+09 +6.97080821853E-01 -8.06593150244E-02 +5.51772169984E-03 -1.93832323722E-03 +5.16743062178E-03 -2.16905650075E-03 +7.71235059722E-01 +9.41399798580E-02
2.79500000000E+09 +6.89459879590E-01 -1.01561901860E-01 +5.43378142029E-03 -2.49871901205E-03 +5.06531681200E-03 -2.42325991251E-03 +7.66790619391E-01 +7.58639867954E-02
2.80000000000E+09 +6.80471961441E-01 -1.21760408167E-01 +5.69638613925E-03 -3.30031074569E-03 +5.45232062071E-03 -3.00667474213E-03 +7.61576547447E-01 +5.68220505315E-02
2.80500000000E+09 +6.70837009009E-01 -1.40957587222E-01 +5.16186727625E-03 -4.61598507393E-03 +5.26112744264E-03 -4.41964997132E-03 +7.55666427127E-01 +3.79402821010E-02
2.81000000000E+09 +6.59811611152E-01 -1.59234961233E-01 +4.13329767947E-03 -4.85901388572E-03 +4.25629525818E-03 -4.97506346064E-03 +7.49972784765E-01 +1.87776576409E-02
2.81500000000E+09 +6.48161009738E-01 -1.76875168882E-01 +3.98900451922E-03 -5.11280414310E-03 +3.88111848186E-03 -5.29809628603E-03 +7.42932787956E-01 -8.19876496927E-04
2.82000000000E+09 +6.35221086238E-01 -1.94300601686E-01 +3.77667399839E-03 -5.81512547240E-03 +3.45553638032E-03 -5.93874124330E-03 +7.34991916807E-01 -2.03502340723E-02
2.82500000000E+09 +6.21144681370E-01 -2.11568545464E-01 +2.92926445997E-03 -6.44164266884E-03 +2.57146060557E-03 -6.25332687828E-03 +7.25446440246E-01 -4.02742878324E-02
2.83000000000E+09 +6.05506788602E-01 -2.29231934279E-01 +2.35940164089E-03 -6.94245044939E-03 +2.15650778351E-03 -6.57772590826E-03 +7.15116275716E-01 -6.01643794464E-02
2.83500000000E+09 +5.89247032124E-01 -2.47241164082E-01 +1.15783612781E-03 -7.21337701090E-03 +1.30831049137E-03 -6.94054533073E-03 +7.04309181730E-01 -8.01144320562E-02
2.84000000000E+09 +5.70988999710E-01 -2.66098509877E-01 +6.04966130249E-04 -6.65759521587E-03 +7.85186910927E-04 -6.55889369378E-03 +6.93736287576E-01 -1.00755144762E-01
2.84500000000E+09 +5.50693170346E-01 -2.85594900335E-01 +9.87173528435E-04 -7.13056315117E-03 +1.05955818745E-03 -7.14121118290E-03 +6.81911203589E-01 -1.22008358041E-01
2.85000000000E+09 +5.28497776428E-01 -3.04613809715E-01 +1.70430587524E-04 -8.44005784813E-03 +1.12351140743E-04 -8.49831413027E-03 +6.67804405302E-01 -1.43114211698E-01
2.85500000000E+09 +5.05237519651E-01 -3.22415315052E-01 -1.55264519421E-03 -9.11688919935E-03 -1.56685521980E-03 -8.99380918889E-03 +6.51860781218E-01 -1.63006709511E-01
2.86000000000E+09 +4.81332031267E-01 -3.40083031301E-01 -3.30446383720E-03 -8.83629188605E-03 -3.23080345447E-03 -8.74990476234E-03 +6.35687539469E-01 -1.82973908122E-01
2.86500000000E+09 +4.57013738660E-01 -3.56390667865E-01 -5.09956323704E-03 -7.99820875301E-03 -4.96184625763E-03 -8.01962793422E-03 +6.17969283963E-01 -2.03968064237E-01
2.87000000000E+09 +4.31912551903E-01 -3.72024863715E-01 -5.68886160689E-03 -6.38157841921E-03 -5.79484191842E-03 -6.39934223603E-03 +5.97829788586E-01 -2.24958018258E-01
2.87500000000E+09 +4.06328198592E-01 -3.85979340924E-01 -5.27647419979E-03 -5.91201897900E-03 -5.43453914243E-03 -5.74822924387E-03 +5.77304524004E-01 -2.44054911558E-01
2.88000000000E+09 +3.80892264561E-01 -3.98618297242E-01 -5.90253080839E-03 -6.41804121653E-03 -5.93198860345E-03 -6.09953151119E-03 +5.55828899423E-01 -2.63055843348E-01
2.88500000000E+09 +3.54906203757E-01 -4.10415615655E-01 -7.66594866139E-03 -5.74256936352E-03 -7.36578734823E-03 -5.34046674285E-03 +5.32755473296E-01 -2.80728605208E-01
2.89000000000E+09 +3.27924645495E-01 -4.21813505315E-01 -8.14806743164E-03 -4.32176150061E-03 -7.61110070650E-03 -4.18406870487E-03 +5.07950686732E-01 -2.98533068676E-01
2.89500000000E+09 +2.99125114609E-01 -4.32067972900E-01 -8.28998838427E-03 -3.74187684861E-03 -7.90336201992E-03 -4.09766581549E-03 +4.80010327869E-01 -3.15984813971E-01
2.90000000000E+09 +2.68329732281E-01 -4.41030896222E-01 -9.27024196652E-03 -2.88010267590E-03 -9.23721809532E-03 -3.22514393801E-03 +4.49886336844E-01 -3.31051876895E-01
2.90500000000E+09 +2.34961524239E-01 -4.47512316941E-01 -9.32520785374E-03 -1.70599201566E-03 -9.53467115064E-03 -1.73318700282E-03 +4.20753677001E-01 -3.45329526935E-01
2.91000000000E+09 +2.01087324306E-01 -4.51103469268E-01 -9.84373593730E-03 -1.04774026800E-03 -9.85619514331E-03 -7.64265936617E-04 +3.90067203548E-01 -3.60113162003E-01
2.91500000000E+09 +1.66354663055E-01 -4.53090707411E-01 -1.04527888896E-02 +5.44537041203E-04 -9.97224971973E-03 +7.57223552943E-04 +3.57249973329E-01 -3.72036567371E-01
2.92000000000E+09 +1.30906437020E-01 -4.52554932130E-01 -9.64914048661E-03 +2.21822017420E-03 -9.11000582195E-03 +2.06667585373E-03 +3.23206871588E-01 -3.81277709553E-01
2.92500000000E+09 +9.59821901043E-02 -4.49769456244E-01 -9.13958947370E-03 +2.27044442563E-03 -8.74766334626E-03 +1.89035260824E-03 +2.87822987365E-01 -3.87803872372E-01
2.93000000000E+09 +6.15375240638E-02 -4.45736921139E-01 -9.77823884245E-03 +3.24271040232E-03 -9.72880517187E-03 +2.66870144042E-03 +2.51868169780E-01 -3.92846734492E-01
2.93500000000E+09 +2.68909752502E-02 -4.40359143898E-01 -9.70451350530E-03 +4.74473891839E-03 -9.82538868420E-03 +4.37777916106E-03 +2.14806910177E-01 -3.97589341546E-01
2.94000000000E+09 -7.23115980059E-03 -4.33012549297E-01 -9.28700887654E-03 +6.05867676304E-03 -9.39313237904E-03 +5.79154356301E-03 +1.75442231029E-01 -4.01422896984E-01
2.94500000000E+09 -4.17246028907E-02 -4.24857486798E-01 -8.65191823759E-03 +7.77568859146E-03 -8.70556371236E-03 +7.50368167479E-03 +1.34963848798E-01 -4.01491127070E-01
2.95000000000E+09 -7.72964354840E-02 -4.12366141199E-01 -6.94657605547E-03 +8.62570982984E-03 -7.21452699571E-03 +8.43612932940E-03 +9.48499565108E-02 -3.96878166228E-01
2.95500000000E+09 -1.11149956729E-01 -3.96013226996E-01 -5.91745462819E-03 +8.83930051550E-03 -6.46041812354E-03 +8.84356819944E-03 +5.67280231836E-02 -3.90223841390E-01
2.96000000000E+09 -1.42307661661E-01 -3.77690642631E-01 -5.53410557368E-03 +9.39411860500E-03 -5.92683617777E-03 +9.71431406940E-03 +1.66434616036E-02 -3.81574916586E-01
2.96500000000E+09 -1.73461131361E-01 -3.57318680229E-01 -4.74885981517E-03 +1.04192631408E-02 -4.66692192134E-03 +1.09028309274E-02 -2.42814536563E-02 -3.69781121631E-01
2.97000000000E+09 -2.03433391192E-01 -3.33937120304E-01 -3.50707477821E-03 +1.13748449076E-02 -3.06044098737E-03 +1.14459096745E-02 -6.46780983552E-02 -3.54996505702E-01
2.97500000000E+09 -2.32283918381E-01 -3.08838826042E-01 -2.18913527148E-03 +1.21899177124E-02 -1.93146209348E-03 +1.18558865949E-02 -1.03790244901E-01 -3.37593014661E-01
2.98000000000E+09 -2.60747870855E-01 -2.81220570578E-01 +1.50150339450E-04 +1.23332787108E-02 -1.24989116647E-04 +1.20734027398E-02 -1.41798459594E-01 -3.17648785493E-01
2.98500000000E+09 -2.87558938581E-01 -2.51187305717E-01 +1.20851261655E-03 +1.15203505281E-02 +7.56618145781E-04 +1.17160212789E-02 -1.78636816669E-01 -2.94495705823E-01
2.99000000000E+09 -3.12595924294E-01 -2.19927529251E-01 +1.75947883728E-03 +1.18001864239E-02 +1.70085311992E-03 +1.23708518690E-02 -2.14055168142E-01 -2.67679865544E-01
2.99500000000E+09 -3.36609337517E-01 -1.87430963759E-01 +3.27378879698E-03 +1.27858905752E-02 +3.81656413362E-03 +1.31910716506E-02 -2.47494297482E-01 -2.38080829055E-01
3.00000000000E+09 -3.57567694070E-01 -1.53703851038E-01 +6.15497777634E-03 +1.23661285147E-02 +6.85688141932E-03 +1.20630414465E-02 -2.78559272872E-01 -2.05639067180E-01
3.00500000000E+09 -3.76604664331E-01 -1.20496553923E-01 +7.52900073368E-03 +1.08261419087E-02 +7.74471652923E-03 +1.00874055491E-02 -3.06514842218E-01 -1.72429814095E-01
3.01000000000E+09 -3.93531552835E-01 -8.67415698028E-02 +8.85677733042E-03 +9.77612919048E-03 +8.48634702870E-03 +9.34655305083E-03 -3.32642762112E-01 -1.38368240885E-01
3.01500000000E+09 -4.07938401343E-01 -5.28217927542E-02 +1.00694789845E-02 +8.77244433411E-03 +9.59685897100E-03 +8.78230554355E-03 -3.56928200221E-01 -1.02740466907E-01
3.02000000000E+09 -4.19286886125E-01 -1.81684689765E-02 +1.11015761706E-02 +7.26990874983E-03 +1.09315647419E-02 +7.37765329286E-03 -3.77898007617E-01 -6.33064390575E-02
3.02500000000E+09 -4.27888736833E-01 +1.66771756328E-02 +1.16331548155E-02 +6.11484296356E-03 +1.16011091786E-02 +6.12946944434E-03 -3.94208056922E-01 -2.31465319012E-02
3.03000000000E+09 -4.32712052781E-01 +5.26324875437E-02 +1.28079573552E-02 +4.71819328613E-03 +1.25981339413E-02 +4.76375541965E-03 -4.07704787024E-01 +1.76506666557E-02
3.03500000000E+09 -4.33331589047E-01 +8.84829487453E-02 +1.34548548849E-02 +2.95070388048E-03 +1.32418988619E-02 +3.25156018433E-03 -4.18587758759E-01 +5.75365406259E-02
3.04000000000E+09 -4.31259474811E-01 +1.22771263271E-01 +1.39135449957E-02 +7.02448797690E-04 +1.42643946854E-02 +1.29778134949E-03 -4.27606849469E-01 +9.81242526367E-02
3.04500000000E+09 -4.27693615029E-01 +1.57196486049E-01 +1.35403952756E-02 -1.36454994177E-03 +1.43293609542E-02 -1.28089472171E-03 -4.32961693405E-01 +1.39416359957E-01
3.05000000000E+09 -4.21954593955E-01 +1.91927652480E-01 +1.27946457645E-02 -3.06823774142E-03 +1.33648536990E-02 -3.80981392894E-03 -4.33866399060E-01 +1.79455524017E-01
3.05500000000E+09 -4.14260791892E-01 +2.26304245992E-01 +1.19418783862E-02 -4.22228318461E-03 +1.18063510172E-02 -5.08166711306E-03 -4.33369030072E-01 +2.17330405014E-01
3.06000000000E+09 -4.04549718037E-01 +2.60253505807E-01 +1.17520497493E-02 -5.51567207595E-03 +1.09752054102E-02 -5.90834532382E-03 -4.31700517314E-01 +2.56183328020E-01
3.06500000000E+09 -3.92593137201E-01 +2.92911313332E-01 +1.10153933402E-02 -7.50640777040E-03 +1.02977043954E-02 -7.06163888314E-03 -4.26578073803E-01 +2.94332065908E-01
3.07000000000E+09 -3.79772213195E-01 +3.22709699558E-01 +9.16923559042E-03 -9.20407539266E-03 +9.29860070622E-03 -8.31186135283E-03 -4.19505032747E-01 +3.30743977636E-01
