# Hz S RI R 50
! CMT, C1220, 16058040, 17.2.0/1
! Date: 15/08/2018 09:48:45
! Data: Format (Calibration Info)
! Freq                      S11: Re/Im (F2)                       S21: Re/Im (F2)                       S12: Re/Im (F2)                       S22: Re/Im (F2)            
2.50000000000E+09 +5.76909079312E-01 +6.69124270344E-01 -4.05098766832E-04 -1.64717816718E-03 -4.36960897429E-04 -1.80705895692E-03 +5.75317159878E-01 +7.17985020375E-01
2.50500000000E+09 +5.83728684116E-01 +6.61552446464E-01 -5.62896604357E-04 -1.69204782785E-03 -7.42871820772E-04 -1.65946909126E-03 +5.80729398050E-01 +7.12500640256E-01
2.51000000000E+09 +5.90983257070E-01 +6.53481718368E-01 -7.72744555173E-04 -1.65083259514E-03 -8.43310194759E-04 -1.61646514876E-03 +5.86297859352E-01 +7.07162748239E-01
2.51500000000E+09 +5.98242420230E-01 +6.45330507513E-01 -9.97477056273E-04 -1.58011700035E-03 -9.98567386087E-04 -1.56965159151E-03 +5.91435565489E-01 +7.01685316007E-01
2.52000000000E+09 +6.05274679148E-01 +6.36564706248E-01 -1.23009155365E-03 -1.46936080557E-03 -1.13497178347E-03 -1.47751136461E-03 +5.96717744378E-01 +6.95457981498E-01
2.52500000000E+09 +6.11422083041E-01 +6.27971508155E-01 -1.35460403869E-03 -1.24180181421E-03 -1.36544536914E-03 -1.32972949144E-03 +6.02603562062E-01 +6.88906662633E-01
2.53000000000E+09 +6.17178420017E-01 +6.19630634977E-01 -1.39962351502E-03 -1.11430504984E-03 -1.42532567302E-03 -1.13815189599E-03 +6.08853811484E-01 +6.81690252384E-01
2.53500000000E+09 +6.22258650037E-01 +6.11542565003E-01 -1.46201481707E-03 -1.04835721240E-03 -1.49014114534E-03 -1.04438086654E-03 +6.14631424893E-01 +6.75037310127E-01
2.54000000000E+09 +6.26763832295E-01 +6.03525227280E-01 -1.55240877202E-03 -9.60652139353E-04 -1.54969666536E-03 -9.99856800277E-04 +6.20507336683E-01 +6.68545142745E-01
2.54500000000E+09 +6.31176317599E-01 +5.96148011830E-01 -1.71314392045E-03 -8.65787396062E-04 -1.63773373864E-03 -9.79028518150E-04 +6.26027253011E-01 +6.62150426539E-01
2.55000000000E+09 +6.36001982429E-01 +5.88958343089E-01 -1.84757720316E-03 -6.30017731077E-04 -1.89143361586E-03 -8.29271407318E-04 +6.31082338952E-01 +6.55599147434E-01
2.55500000000E+09 +6.41655856569E-01 +5.81191500794E-01 -1.87103705269E-03 -4.32299607075E-04 -2.20665936726E-03 -6.04198096349E-04 +6.36280158141E-01 +6.48984272772E-01
2.56000000000E+09 +6.47867018308E-01 +5.73402688268E-01 -1.80721476734E-03 -2.23584542656E-04 -2.17961162723E-03 -8.86144648232E-05 +6.41855427758E-01 +6.41594605156E-01
2.56500000000E+09 +6.54782616075E-01 +5.64700651512E-01 -1.80027683366E-03 -2.24207692308E-04 -2.05044890402E-03 +1.21377087967E-04 +6.47606925388E-01 +6.34072357288E-01
2.57000000000E+09 +6.61798555457E-01 +5.55627357557E-01 -1.92040478572E-03 -1.55017789786E-04 -1.90351968782E-03 +2.97311427319E-04 +6.52911328714E-01 +6.26410752431E-01
2.57500000000E+09 +6.69039976520E-01 +5.45961135210E-01 -2.01785911654E-03 +2.88738396188E-05 -1.76543843634E-03 +3.41696101271E-04 +6.58227409570E-01 +6.19152036082E-01
2.58000000000E+09 +6.75294935027E-01 +5.36102983398E-01 -2.22992502991E-03 +3.00402263276E-04 -1.78064043915E-03 +3.76258490900E-04 +6.62951042202E-01 +6.11772298717E-01
2.58500000000E+09 +6.81117908643E-01 +5.26095359039E-01 -2.04329569592E-03 +6.72388493137E-04 -1.81752686213E-03 +5.36508340007E-04 +6.67594360645E-01 +6.04171186794E-01
2.59000000000E+09 +6.86490945737E-01 +5.16609871642E-01 -1.73924053781E-03 +6.52288903468E-04 -1.67910033303E-03 +5.34287778491E-04 +6.72644069452E-01 +5.96208145756E-01
2.59500000000E+09 +6.91231848555E-01 +5.06928361909E-01 -1.91181754201E-03 +5.72107359147E-04 -1.92709302326E-03 +4.97450428373E-04 +6.77669653286E-01 +5.87643344340E-01
2.60000000000E+09 +6.95279962195E-01 +4.97381341689E-01 -2.06803874343E-03 +6.97646499478E-04 -2.04654580203E-03 +7.28887984311E-04 +6.82627858326E-01 +5.79046545670E-01
2.60500000000E+09 +6.99422526440E-01 +4.87642624417E-01 -2.19652618068E-03 +1.05883671585E-03 -2.17806451567E-03 +1.09215246921E-03 +6.87793237193E-01 +5.70693342516E-01
2.61000000000E+09 +7.03597119612E-01 +4.77438159047E-01 -2.18166893732E-03 +1.54890770134E-03 -2.18803192770E-03 +1.52087590524E-03 +6.92692017933E-01 +5.62206346594E-01
2.61500000000E+09 +7.08216820227E-01 +4.66703006523E-01 -1.79255371911E-03 +1.98216011647E-03 -1.85173964824E-03 +1.92056283734E-03 +6.97086696717E-01 +5.54131242721E-01
2.62000000000E+09 +7.13080322304E-01 +4.54868961358E-01 -1.37699694303E-03 +1.90410492566E-03 -1.46645013651E-03 +2.04256106834E-03 +7.01801989903E-01 +5.45177367500E-01
2.62500000000E+09 +7.17795847154E-01 +4.41789584691E-01 -1.36754542870E-03 +1.79437388687E-03 -1.29820436910E-03 +2.03461261604E-03 +7.06688348748E-01 +5.35759416157E-01
2.63000000000E+09 +7.22222079777E-01 +4.28249599910E-01 -1.37831504579E-03 +2.08068631403E-03 -1.07991367506E-03 +2.19624293273E-03 +7.11361971012E-01 +5.26422947558E-01
2.63500000000E+09 +7.26284009801E-01 +4.14294296283E-01 -1.27513180164E-03 +2.22563836942E-03 -9.59473678764E-04 +2.11582655408E-03 +7.16495440598E-01 +5.17051037991E-01
2.64000000000E+09 +7.29725631422E-01 +4.00622639188E-01 -1.24087178534E-03 +2.68902619499E-03 -1.05330814000E-03 +2.27773398902E-03 +7.21332262651E-01 +5.07553476022E-01
2.64500000000E+09 +7.32838261342E-01 +3.87410272330E-01 -6.45214848477E-04 +3.00103660798E-03 -7.39719898986E-04 +2.57987772936E-03 +7.25872646518E-01 +4.98213460799E-01
2.65000000000E+09 +7.35470525411E-01 +3.74947931082E-01 -1.91497764085E-04 +2.81011674668E-03 -4.61004271087E-04 +2.66142287397E-03 +7.30086880155E-01 +4.88722792519E-01
2.65500000000E+09 +7.38225714223E-01 +3.62722398231E-01 +2.49205552662E-05 +2.61804986444E-03 -2.30806004452E-04 +2.66201068825E-03 +7.34047853080E-01 +4.78355136121E-01
2.66000000000E+09 +7.40889520262E-01 +3.50802761692E-01 +1.58585038650E-05 +2.64616075939E-03 -2.33015306197E-06 +2.84658497555E-03 +7.38070800708E-01 +4.67251828851E-01
2.66500000000E+09 +7.43759173748E-01 +3.38804601280E-01 +2.83604225852E-04 +2.87001247064E-03 +4.27997515681E-04 +2.94763516536E-03 +7.42810194523E-01 +4.55952808165E-01
2.67000000000E+09 +7.46419810489E-01 +3.25760044897E-01 +7.81332777168E-04 +2.82389025660E-03 +9.25191376633E-04 +2.71435088246E-03 +7.47345754340E-01 +4.44506477475E-01
2.67500000000E+09 +7.48615565278E-01 +3.12111194018E-01 +1.02195471290E-03 +2.58116625580E-03 +1.04799967469E-03 +2.39454869708E-03 +7.51279410645E-01 +4.33278847485E-01
2.68000000000E+09 +7.50305625712E-01 +2.97505764533E-01 +1.09217664151E-03 +2.37896416586E-03 +1.03496980018E-03 +2.30257823983E-03 +7.54957926532E-01 +4.22826253810E-01
2.68500000000E+09 +7.51325443684E-01 +2.82175376633E-01 +1.06516403953E-03 +2.38222173072E-03 +9.81347233065E-04 +2.38728253093E-03 +7.58233282589E-01 +4.11386033508E-01
2.69000000000E+09 +7.51557621939E-01 +2.66585580064E-01 +1.27646279908E-03 +2.54239548612E-03 +1.23104130135E-03 +2.61651419737E-03 +7.60906151137E-01 +3.99441342585E-01
2.69500000000E+09 +7.51603866148E-01 +2.51227410886E-01 +1.75698730612E-03 +2.56211536479E-03 +1.74426232857E-03 +2.55885545521E-03 +7.63789184495E-01 +3.86557472660E-01
2.70000000000E+09 +7.51856230190E-01 +2.35918499083E-01 +2.12651080514E-03 +2.38470106233E-03 +2.06191898967E-03 +2.34582295045E-03 +7.66963614890E-01 +3.72992091602E-01
2.70500000000E+09 +7.51741812730E-01 +2.20729311865E-01 +2.37395106033E-03 +1.85663437754E-03 +2.27757107464E-03 +1.91160387644E-03 +7.69965971462E-01 +3.59267908559E-01
2.71000000000E+09 +7.51832727229E-01 +2.06034662750E-01 +2.22838034775E-03 +1.61434004350E-03 +2.22697138316E-03 +1.71123971939E-03 +7.72733919765E-01 +3.46532042460E-01
2.71500000000E+09 +7.52533284424E-01 +1.91138580779E-01 +2.04798737554E-03 +1.65137088872E-03 +2.14181420301E-03 +1.79839589829E-03 +7.75634947826E-01 +3.34097442832E-01
2.72000000000E+09 +7.53063528106E-01 +1.76111514859E-01 +2.27017932851E-03 +1.91990400119E-03 +2.56720893638E-03 +1.90756578820E-03 +7.77901144061E-01 +3.20931801988E-01
2.72500000000E+09 +7.53525452905E-01 +1.60731015263E-01 +2.85261132620E-03 +1.76232797336E-03 +3.01683693953E-03 +1.45733851922E-03 +7.78940929898E-01 +3.07021391296E-01
2.73000000000E+09 +7.53262567405E-01 +1.44895931776E-01 +2.91293779918E-03 +1.43063118773E-03 +2.73875040018E-03 +1.09182556793E-03 +7.80267694721E-01 +2.92662749085E-01
2.73500000000E+09 +7.52286104297E-01 +1.28125941753E-01 +3.02844038453E-03 +1.52379400182E-03 +2.60821631850E-03 +1.29558311015E-03 +7.81461302677E-01 +2.77587304285E-01
2.74000000000E+09 +7.50304886533E-01 +1.11035040474E-01 +3.65320787622E-03 +1.38515629086E-03 +3.12981559336E-03 +1.53981058752E-03 +7.83043197846E-01 +2.62714105892E-01
2.74500000000E+09 +7.46677658263E-01 +9.32473048174E-02 +3.87377299161E-03 +9.13994096457E-04 +3.56058367321E-03 +1.30488626407E-03 +7.84163408474E-01 +2.47366855065E-01
2.75000000000E+09 +7.41618656369E-01 +7.56335410250E-02 +4.06444065640E-03 +6.50038435873E-04 +4.12550354475E-03 +1.10702776553E-03 +7.84565363560E-01 +2.32389704775E-01
2.75500000000E+09 +7.35816276036E-01 +5.82061129271E-02 +4.35188306150E-03 +1.95316403746E-04 +4.67340879419E-03 +4.46308050497E-04 +7.83988175508E-01 +2.17220090250E-01
2.76000000000E+09 +7.29969430879E-01 +4.10395939039E-02 +4.41506946960E-03 -1.79116592010E-04 +4.77647421631E-03 -1.28841250306E-04 +7.83553216566E-01 +2.01621420567E-01
2.76500000000E+09 +7.24121672301E-01 +2.37176015754E-02 +4.73815990824E-03 -5.14845376125E-04 +5.02015209382E-03 -6.02072727919E-04 +7.82480007312E-01 +1.84115871900E-01
2.77000000000E+09 +7.18964922162E-01 +5.86185158391E-03 +5.19300307765E-03 -1.31982780181E-03 +5.42516378689E-03 -1.44861938683E-03 +7.81444497271E-01 +1.66458978784E-01
2.77500000000E+09 +7.14036760260E-01 -1.28121567532E-02 +4.89873010006E-03 -2.42511818767E-03 +4.94514157814E-03 -2.74615847581E-03 +7.79596779016E-01 +1.48361999486E-01
2.78000000000E+09 +7.09401035257E-01 -3.21893385007E-02 +4.26804388619E-03 -2.69396898307E-03 +4.18856556228E-03 -2.97961637584E-03 +7.77603545236E-01 +1.31130672235E-01
2.78500000000E+09 +7.04573016262E-01 -5.25588253055E-02 +4.28847481662E-03 -2.90472183841E-03 +4.02983156928E-03 -3.12845696361E-03 +7.75303963731E-01 +1.13984442127E-01
2.79000000000E+09 +6.98774468903E-01 -7.40682907570E-02 +4.25735557588E-03 -3.50931210368E-03 +3.91739657434E-03 -3.55121190330E-03 +7.72261233189E-01 +9.62210041961E-02
2.79500000000E+09 +6.91153013761E-01 -9.51684967194E-02 +3.98454208255E-03 -3.98226294099E-03 +3.63497718240E-03 -3.81753821322E-03 +7.67887042189E-01 +7.75422283349E-02
2.80000000000E+09 +6.82253526892E-01 -1.15204502970E-01 +4.01906477885E-03 -4.74872177278E-03 +3.96259159203E-03 -4.50287385178E-03 +7.62430352887E-01 +5.81129239537E-02
2.80500000000E+09 +6.72712614944E-01 -1.34197854592E-01 +3.10571303140E-03 -5.86094935101E-03 +3.30437142731E-03 -5.70964799700E-03 +7.56542787404E-01 +3.94390719488E-02
2.81000000000E+09 +6.62103239670E-01 -1.52301086972E-01 +2.02992626210E-03 -5.77135148722E-03 +2.20383572482E-03 -5.87460723339E-03 +7.51156788330E-01 +2.00227384053E-02
2.81500000000E+09 +6.51119867203E-01 -1.69814015436E-01 +1.80874677644E-03 -5.90827495849E-03 +1.71155633856E-03 -6.12660916055E-03 +7.44284583042E-01 +6.61408785515E-04
2.82000000000E+09 +6.38787861662E-01 -1.87575341132E-01 +1.33655897797E-03 -6.31734662001E-03 +1.04686606740E-03 -6.34717979658E-03 +7.36613307490E-01 -1.90479527801E-02
2.82500000000E+09 +6.25210487548E-01 -2.05240973935E-01 +4.82159147472E-04 -6.61939193963E-03 +2.83534314163E-04 -6.28584686828E-03 +7.27256383570E-01 -3.90321104544E-02
2.83000000000E+09 +6.09524495315E-01 -2.23466123171E-01 +5.21047420766E-06 -6.70913776180E-03 +1.71759973968E-05 -6.36710017714E-03 +7.16792977140E-01 -5.90574598014E-02
2.83500000000E+09 +5.93142675586E-01 -2.41361919324E-01 -1.00191677184E-03 -6.88530983348E-03 -7.82145641790E-04 -6.65900408503E-03 +7.06528745782E-01 -7.91485994695E-02
2.84000000000E+09 +5.75335951367E-01 -2.59907904438E-01 -1.54392079102E-03 -6.29954234740E-03 -1.26409562858E-03 -6.27909844966E-03 +6.95878850459E-01 -1.00792711293E-01
2.84500000000E+09 +5.55709573432E-01 -2.79307261499E-01 -1.45174933330E-03 -6.77346744623E-03 -1.32564755040E-03 -6.84121307975E-03 +6.83457525272E-01 -1.22055383850E-01
2.85000000000E+09 +5.34236549543E-01 -2.98386975457E-01 -2.38954889054E-03 -7.74372445814E-03 -2.37411073684E-03 -7.76944380434E-03 +6.69161230520E-01 -1.42928633098E-01
2.85500000000E+09 +5.12067806181E-01 -3.16768808400E-01 -4.28546334268E-03 -7.87552843490E-03 -4.23524778288E-03 -7.80821317709E-03 +6.53821787124E-01 -1.62461926644E-01
2.86000000000E+09 +4.88488855426E-01 -3.35356297264E-01 -5.77748118251E-03 -7.10514779288E-03 -5.66015912272E-03 -7.03977377035E-03 +6.37972325118E-01 -1.82834154821E-01
2.86500000000E+09 +4.64413940501E-01 -3.52361335897E-01 -7.06766557408E-03 -5.82514788466E-03 -7.09656997069E-03 -5.87578026841E-03 +6.20553767119E-01 -2.04426198222E-01
2.87000000000E+09 +4.39044573990E-01 -3.68832695630E-01 -7.36918775131E-03 -4.34836629177E-03 -7.42844710251E-03 -4.33325865613E-03 +5.99979443581E-01 -2.25999929763E-01
2.87500000000E+09 +4.13151718574E-01 -3.82976420256E-01 -6.92606355577E-03 -3.66158688373E-03 -7.06542933366E-03 -3.45151029334E-03 +5.78936151383E-01 -2.45179232425E-01
2.88000000000E+09 +3.87439665946E-01 -3.95616552643E-01 -7.26598198644E-03 -3.95202953706E-03 -7.20890260490E-03 -3.56476234710E-03 +5.57440238728E-01 -2.64065218376E-01
2.88500000000E+09 +3.62147984419E-01 -4.07467154683E-01 -8.93269710132E-03 -3.10756823191E-03 -8.48046994849E-03 -2.80402245556E-03 +5.34623065848E-01 -2.82314590194E-01
2.89000000000E+09 +3.35695327585E-01 -4.19494589570E-01 -9.14168906266E-03 -1.46737968300E-03 -8.56280474312E-03 -1.59025735605E-03 +5.09144790224E-01 -3.00450279576E-01
2.89500000000E+09 +3.07056165313E-01 -4.30823846388E-01 -9.12506635797E-03 -6.06125462206E-04 -8.84109102489E-03 -9.48571041949E-04 +4.80919952178E-01 -3.17771527548E-01
2.90000000000E+09 +2.76096018302E-01 -4.40697290416E-01 -9.53344787746E-03 +5.70233969300E-04 -9.60469327749E-03 +2.44698965187E-04 +4.50934263317E-01 -3.32716582734E-01
2.90500000000E+09 +2.42006003858E-01 -4.48027783814E-01 -9.13689510942E-03 +1.75825793883E-03 -9.30842353022E-03 +1.77783636499E-03 +4.21825233631E-01 -3.47516454517E-01
2.91000000000E+09 +2.07544761998E-01 -4.51699314537E-01 -9.12153478864E-03 +2.27695465306E-03 -8.98243210840E-03 +2.57703152190E-03 +3.90617454042E-01 -3.62712034526E-01
2.91500000000E+09 +1.72722812777E-01 -4.53623161849E-01 -9.42248855319E-03 +3.81986901180E-03 -8.92508081887E-03 +3.92870421531E-03 +3.57021179517E-01 -3.74942993943E-01
2.92000000000E+09 +1.37747552868E-01 -4.53554807411E-01 -8.35664368737E-03 +5.22210747671E-03 -7.84921404245E-03 +4.88953335084E-03 +3.22038972818E-01 -3.83700519660E-01
2.92500000000E+09 +1.02770179658E-01 -4.51656278392E-01 -7.49839730551E-03 +5.43168684264E-03 -7.30441436686E-03 +4.83814299880E-03 +2.86453366871E-01 -3.89686610161E-01
2.93000000000E+09 +6.81392796316E-02 -4.48389324549E-01 -7.80009822403E-03 +6.04125252227E-03 -7.94128389705E-03 +5.48137079621E-03 +2.50841775161E-01 -3.94278694860E-01
2.93500000000E+09 +3.28418095776E-02 -4.44197443059E-01 -7.43355646439E-03 +7.55152076154E-03 -7.70625326725E-03 +7.26576847097E-03 +2.13692166670E-01 -3.99584950978E-01
2.94000000000E+09 -2.30622945626E-03 -4.37312024752E-01 -6.48096751093E-03 +8.69748778385E-03 -6.77260266261E-03 +8.52410581088E-03 +1.73479021997E-01 -4.03210230143E-01
2.94500000000E+09 -3.74553136266E-02 -4.29313796884E-01 -5.45450491811E-03 +1.02696317410E-02 -5.72883648847E-03 +1.00228851750E-02 +1.32214166472E-01 -4.02364200713E-01
2.95000000000E+09 -7.35728599263E-02 -4.17078225855E-01 -3.14060381756E-03 +1.07567902772E-02 -3.50290728915E-03 +1.05954758343E-02 +9.24453104191E-02 -3.96878800415E-01
2.95500000000E+09 -1.07352767352E-01 -4.00915295917E-01 -1.79787054350E-03 +1.00461691772E-02 -2.24385021080E-03 +1.02143344888E-02 +5.46195096510E-02 -3.90055330351E-01
2.96000000000E+09 -1.39116404370E-01 -3.83330776758E-01 -1.65767608693E-03 +1.00973951497E-02 -1.78024091890E-03 +1.05271825341E-02 +1.45801020767E-02 -3.81194620166E-01
2.96500000000E+09 -1.70809134511E-01 -3.63481196997E-01 -8.01146510416E-04 +1.08943061813E-02 -4.91572134424E-04 +1.13004297790E-02 -2.63692735982E-02 -3.68931719586E-01
2.97000000000E+09 -2.01432883769E-01 -3.40519668508E-01 +7.23342904696E-04 +1.12283813732E-02 +1.15638393792E-03 +1.12023838435E-02 -6.63557002627E-02 -3.53848883143E-01
2.97500000000E+09 -2.31227484379E-01 -3.15856935510E-01 +2.05506959424E-03 +1.15815501100E-02 +2.10396102746E-03 +1.12163234197E-02 -1.05614481113E-01 -3.36295429696E-01
2.98000000000E+09 -2.60843527847E-01 -2.88021248408E-01 +4.27401979963E-03 +1.11750842730E-02 +3.92138036336E-03 +1.10068246205E-02 -1.43010979450E-01 -3.15623480357E-01
2.98500000000E+09 -2.88598363633E-01 -2.57486391155E-01 +5.55413591196E-03 +9.96403840661E-03 +5.10435515852E-03 +1.03044150630E-02 -1.79247883859E-01 -2.92392665034E-01
2.99000000000E+09 -3.13859977235E-01 -2.25744676586E-01 +5.94874889418E-03 +9.24941699021E-03 +6.09265875100E-03 +9.80718908797E-03 -2.14234680513E-01 -2.65581071301E-01
2.99500000000E+09 -3.38073203634E-01 -1.93373648357E-01 +6.90237901134E-03 +9.57516622036E-03 +7.53549550779E-03 +9.76489015717E-03 -2.47434484063E-01 -2.35927717842E-01
3.00000000000E+09 -3.59601964682E-01 -1.59919674069E-01 +9.12978764114E-03 +8.60177815476E-03 +9.56908647659E-03 +8.15954855533E-03 -2.77636905458E-01 -2.03894676474E-01
3.00500000000E+09 -3.79518710757E-01 -1.26759859472E-01 +9.74187272668E-03 +6.97783122672E-03 +9.69025266262E-03 +6.37688564488E-03 -3.06201292635E-01 -1.71399869865E-01
3.01000000000E+09 -3.97574573390E-01 -9.28361276039E-02 +1.07479449772E-02 +5.90324236969E-03 +1.03407511315E-02 +5.56740665466E-03 -3.32295576214E-01 -1.36789964935E-01
3.01500000000E+09 -4.12504887621E-01 -5.79369947076E-02 +1.12907229700E-02 +4.43019701498E-03 +1.09319699594E-02 +4.48819237357E-03 -3.56105897354E-01 -1.00940231863E-01
3.02000000000E+09 -4.24062108676E-01 -2.31206395093E-02 +1.17017622256E-02 +3.17929487769E-03 +1.16514404457E-02 +3.30896254885E-03 -3.76420005247E-01 -6.12216620539E-02
3.02500000000E+09 -4.33015552441E-01 +1.24052851134E-02 +1.22194812934E-02 +2.09195879437E-03 +1.21190489809E-02 +2.09676021402E-03 -3.91593185849E-01 -2.14870205148E-02
3.03000000000E+09 -4.38073478988E-01 +4.87172681830E-02 +1.27864362985E-02 +1.22523789392E-04 +1.26403744236E-02 +2.11990850846E-04 -4.04972855693E-01 +1.80592817948E-02
3.03500000000E+09 -4.38836954248E-01 +8.52230838863E-02 +1.25303017379E-02 -1.65928792823E-03 +1.25109110326E-02 -1.28948606405E-03 -4.16368458926E-01 +5.72831173157E-02
3.04000000000E+09 -4.36816368137E-01 +1.19978646441E-01 +1.21828711360E-02 -3.54697149253E-03 +1.26144270801E-02 -3.16897208195E-03 -4.25879174103E-01 +9.76533449677E-02
3.04500000000E+09 -4.33435425051E-01 +1.54672713860E-01 +1.11652116303E-02 -4.84000589265E-03 +1.19217420603E-02 -5.00098501329E-03 -4.31525321225E-01 +1.38802939674E-01
3.05000000000E+09 -4.27892060648E-01 +1.89667707991E-01 +1.05896007924E-02 -5.93718692261E-03 +1.09157375115E-02 -6.67374249777E-03 -4.32505632824E-01 +1.79065182445E-01
3.05500000000E+09 -4.20904586130E-01 +2.24470663185E-01 +9.89325283726E-03 -7.08340436459E-03 +9.49684519362E-03 -7.88274173868E-03 -4.31690651941E-01 +2.16906521841E-01
3.06000000000E+09 -4.11430694337E-01 +2.59296586268E-01 +9.24661342860E-03 -8.63552394937E-03 +8.33147147635E-03 -8.76126511731E-03 -4.29695661612E-01 +2.55432388934E-01
3.06500000000E+09 -3.99471670423E-01 +2.92695546893E-01 +7.71781950512E-03 -1.03388564808E-02 +7.18079282268E-03 -9.74262900620E-03 -4.24502659121E-01 +2.93104616878E-01
3.07000000000E+09 -3.86203346567E-01 +3.22960178328E-01 +5.31809841195E-03 -1.12484845373E-02 +5.73293353632E-03 -1.05479927382E-02 -4.17444853395E-01 +3.28707425287E-01
