# Hz S RI R 50
! CMT, C1220, 16058040, 17.2.0/1
! Date: 15/08/2018 09:44:57
! Data: Format (Calibration Info)
! Freq                      S11: Re/Im (F2)                       S21: Re/Im (F2)                       S12: Re/Im (F2)                       S22: Re/Im (F2)            
2.50000000000E+09 +5.81467342542E-01 +6.59047450284E-01 -7.07658250829E-05 -1.74518190177E-03 -7.46978352128E-05 -1.91755545065E-03 +5.74146674527E-01 +7.18426495321E-01
2.50500000000E+09 +5.88374852693E-01 +6.51053314492E-01 -2.41822319083E-04 -1.82818947755E-03 -3.19388059579E-04 -1.87793617940E-03 +5.79589582470E-01 +7.12905115034E-01
2.51000000000E+09 +5.95563874211E-01 +6.42585893402E-01 -4.58799687848E-04 -1.86148869034E-03 -5.04873802079E-04 -1.75855525698E-03 +5.84907611030E-01 +7.07738814542E-01
2.51500000000E+09 +6.02744437132E-01 +6.34010271935E-01 -6.71824033930E-04 -1.79007036099E-03 -6.47983034374E-04 -1.70412748639E-03 +5.90243350733E-01 +7.02311848512E-01
2.52000000000E+09 +6.09510628712E-01 +6.24869650001E-01 -8.77457973824E-04 -1.72816392137E-03 -7.88850003302E-04 -1.74277622696E-03 +5.95550163873E-01 +6.96079720950E-01
2.52500000000E+09 +6.15397169501E-01 +6.16135080584E-01 -1.01282128367E-03 -1.53505396486E-03 -9.74818589293E-04 -1.62218284206E-03 +6.01390168329E-01 +6.89523979166E-01
2.53000000000E+09 +6.20840920063E-01 +6.07753874074E-01 -1.10653658002E-03 -1.44808703321E-03 -1.10156699748E-03 -1.50009721435E-03 +6.07518924628E-01 +6.82311047129E-01
2.53500000000E+09 +6.25330166225E-01 +6.02701647058E-01 -1.20326546060E-03 -1.39492099687E-03 -1.22510377785E-03 -1.42086102747E-03 +6.13346867585E-01 +6.75604772935E-01
2.54000000000E+09 +6.29480021905E-01 +5.95071058321E-01 -1.28611630581E-03 -1.36989880170E-03 -1.29932738242E-03 -1.39002034529E-03 +6.19015243496E-01 +6.69098879639E-01
2.54500000000E+09 +6.33846540250E-01 +5.87977642479E-01 -1.55564121969E-03 -1.34806783201E-03 -1.46945303192E-03 -1.45966450275E-03 +6.24574427442E-01 +6.62899643904E-01
2.55000000000E+09 +6.38507733628E-01 +5.80934017867E-01 -1.77102087305E-03 -1.12570583930E-03 -1.74176134229E-03 -1.37247311422E-03 +6.29664751729E-01 +6.56342877342E-01
2.55500000000E+09 +6.44005207453E-01 +5.73505590249E-01 -1.90437130724E-03 -8.91267807303E-04 -2.17418710594E-03 -1.11027410688E-03 +6.34862569249E-01 +6.49832990152E-01
2.56000000000E+09 +6.50352862823E-01 +5.65768847914E-01 -1.80341934065E-03 -6.11516472147E-04 -2.12247599971E-03 -5.48373757426E-04 +6.40393006450E-01 +6.42456200419E-01
2.56500000000E+09 +6.57247511270E-01 +5.56943242604E-01 -1.74573175899E-03 -6.93938190404E-04 -2.04505570521E-03 -3.80120580964E-04 +6.46179280560E-01 +6.34880863999E-01
2.57000000000E+09 +6.64249480609E-01 +5.47864448406E-01 -1.94552154509E-03 -7.01229754018E-04 -1.96901278525E-03 -2.39658954551E-04 +6.51491275512E-01 +6.27314461118E-01
2.57500000000E+09 +6.71478895536E-01 +5.37980325728E-01 -2.15218629008E-03 -5.73750227478E-04 -1.94085087378E-03 -1.80039391222E-04 +6.56897648899E-01 +6.19977441295E-01
2.58000000000E+09 +6.77704363498E-01 +5.27999960250E-01 -2.35444628155E-03 -2.55693814966E-04 -2.03559614932E-03 -8.19811752791E-05 +6.61607326629E-01 +6.12605972957E-01
2.58500000000E+09 +6.83346785254E-01 +5.17953782822E-01 -2.24086252628E-03 +2.45290642058E-04 -2.00008728753E-03 +9.10612748264E-05 +6.66244888916E-01 +6.05019440159E-01
2.59000000000E+09 +6.88540585877E-01 +5.08358967943E-01 -2.00888669221E-03 +3.30617377506E-04 -1.87548214723E-03 +9.89039996571E-05 +6.71346934033E-01 +5.97184204072E-01
2.59500000000E+09 +6.93212072135E-01 +4.98577844069E-01 -2.08835597040E-03 +1.66680449569E-04 -2.06537235909E-03 +3.01946637141E-05 +6.76403998350E-01 +5.88615141813E-01
2.60000000000E+09 +6.96985204888E-01 +4.89036925791E-01 -2.29477169023E-03 +2.71420280470E-04 -2.31945642297E-03 +2.38077113726E-04 +6.81221028591E-01 +5.80146759679E-01
2.60500000000E+09 +7.01156072193E-01 +4.79318092283E-01 -2.62470342972E-03 +5.90762190767E-04 -2.59245114828E-03 +5.89605339899E-04 +6.86441370303E-01 +5.71744340787E-01
2.61000000000E+09 +7.05213985053E-01 +4.69023273694E-01 -2.65304959045E-03 +1.11992437600E-03 -2.65112369287E-03 +1.07745354345E-03 +6.91240297214E-01 +5.63177783476E-01
2.61500000000E+09 +7.09950790699E-01 +4.58076843371E-01 -2.30443940696E-03 +1.68253826291E-03 -2.38014100144E-03 +1.67720148377E-03 +6.95747086360E-01 +5.54993983443E-01
2.62000000000E+09 +7.14561318993E-01 +4.45810612055E-01 -1.91472184528E-03 +1.64361295005E-03 -2.02054219807E-03 +1.77493800113E-03 +7.00633741201E-01 +5.46122303862E-01
2.62500000000E+09 +7.19403566580E-01 +4.32439743976E-01 -1.95197973924E-03 +1.56712257781E-03 -1.87083052926E-03 +1.83424591354E-03 +7.05345909023E-01 +5.36663583810E-01
2.63000000000E+09 +7.23724609736E-01 +4.18752935541E-01 -1.96988747600E-03 +1.86477268064E-03 -1.65348138252E-03 +2.09663156720E-03 +7.10070171983E-01 +5.27459952288E-01
2.63500000000E+09 +7.27707804219E-01 +4.04452197642E-01 -1.93213855067E-03 +2.12713442059E-03 -1.56674625404E-03 +2.08584043573E-03 +7.15128225016E-01 +5.18264419679E-01
2.64000000000E+09 +7.31205398873E-01 +3.90482331332E-01 -1.83465926781E-03 +2.60637845949E-03 -1.48729546028E-03 +2.26275252057E-03 +7.20053817978E-01 +5.09037646932E-01
2.64500000000E+09 +7.34254819388E-01 +3.77135202607E-01 -1.24852723429E-03 +2.83536737101E-03 -1.25574806707E-03 +2.41843651461E-03 +7.24594948487E-01 +4.99674934598E-01
2.65000000000E+09 +7.36872900407E-01 +3.64542478358E-01 -8.78621792615E-04 +2.76985597901E-03 -1.13549712057E-03 +2.56329767418E-03 +7.28997952272E-01 +4.90085855884E-01
2.65500000000E+09 +7.39627776001E-01 +3.52255235209E-01 -7.12785247631E-04 +2.71653359475E-03 -9.98011124179E-04 +2.77481028676E-03 +7.33081089887E-01 +4.79553438200E-01
2.66000000000E+09 +7.42537902029E-01 +3.40445048773E-01 -6.87380440373E-04 +2.87203958218E-03 -7.64253558231E-04 +3.11620115367E-03 +7.37104699067E-01 +4.68560246422E-01
2.66500000000E+09 +7.45472702031E-01 +3.28344829164E-01 -3.84912939571E-04 +3.09607194835E-03 -2.20505768705E-04 +3.26994262203E-03 +7.42039258324E-01 +4.57231028821E-01
2.67000000000E+09 +7.48282107906E-01 +3.15368604398E-01 +9.71476240504E-05 +3.23649147612E-03 +3.03002473350E-04 +3.11502763908E-03 +7.46604921727E-01 +4.45995585544E-01
2.67500000000E+09 +7.50394733052E-01 +3.01591535168E-01 +4.66271658159E-04 +3.02520280590E-03 +5.10923261424E-04 +2.78548620029E-03 +7.50763705483E-01 +4.34739856824E-01
2.68000000000E+09 +7.52091447556E-01 +2.86847171097E-01 +6.01638401834E-04 +2.79387794516E-03 +5.21476824537E-04 +2.65739511578E-03 +7.54446300254E-01 +4.24306718688E-01
2.68500000000E+09 +7.52953714481E-01 +2.71382547813E-01 +4.82932538905E-04 +2.88843313358E-03 +3.99160155561E-04 +2.85337564414E-03 +7.57799825651E-01 +4.12788838421E-01
2.69000000000E+09 +7.52972015929E-01 +2.55661466003E-01 +7.25145718710E-04 +3.17572480029E-03 +6.93040246113E-04 +3.18570968642E-03 +7.60561336564E-01 +4.00621980800E-01
2.69500000000E+09 +7.52739086852E-01 +2.40245410797E-01 +1.25360923939E-03 +3.27169754287E-03 +1.30738756105E-03 +3.17210288016E-03 +7.63623132781E-01 +3.87693249408E-01
2.70000000000E+09 +7.52639284343E-01 +2.24755061929E-01 +1.67287656477E-03 +3.13552104627E-03 +1.61597418041E-03 +3.07692357953E-03 +7.66772487003E-01 +3.73910725320E-01
2.70500000000E+09 +7.52276935982E-01 +2.09734634862E-01 +2.04845669923E-03 +2.73220724992E-03 +1.83341106953E-03 +2.73263688864E-03 +7.69840806810E-01 +3.60052770359E-01
2.71000000000E+09 +7.52240529938E-01 +1.94921917247E-01 +2.07068486346E-03 +2.57999378661E-03 +2.02771301868E-03 +2.74932124621E-03 +7.72578582370E-01 +3.47348245812E-01
2.71500000000E+09 +7.52735231956E-01 +1.80077759538E-01 +2.14782312439E-03 +2.48202199819E-03 +2.21348791274E-03 +2.71963153631E-03 +7.75526363470E-01 +3.34927446190E-01
2.72000000000E+09 +7.53211938583E-01 +1.65084106657E-01 +2.32624938891E-03 +2.66994016772E-03 +2.64550671142E-03 +2.70601409861E-03 +7.77934303680E-01 +3.21781368612E-01
2.72500000000E+09 +7.53581451129E-01 +1.49544127929E-01 +2.86659974508E-03 +2.51548158510E-03 +3.11392960288E-03 +2.20152134128E-03 +7.78894722631E-01 +3.07613395310E-01
2.73000000000E+09 +7.53232997492E-01 +1.33460668699E-01 +2.97614624276E-03 +2.25962478391E-03 +2.88726303119E-03 +1.85125340366E-03 +7.80211751330E-01 +2.93132063741E-01
2.73500000000E+09 +7.52023359894E-01 +1.16532368758E-01 +3.21761035599E-03 +2.38950784599E-03 +2.83251588770E-03 +2.04523177289E-03 +7.81211971264E-01 +2.77772147658E-01
2.74000000000E+09 +7.49484539414E-01 +9.91743673906E-02 +3.95578367248E-03 +2.27275910211E-03 +3.37250193887E-03 +2.31937532920E-03 +7.82892202838E-01 +2.62930769169E-01
2.74500000000E+09 +7.45720387297E-01 +8.13630320599E-02 +4.36427190033E-03 +1.58008097929E-03 +3.94270417070E-03 +2.02542212408E-03 +7.84028074969E-01 +2.47510960191E-01
2.75000000000E+09 +7.40559920341E-01 +6.36464229566E-02 +4.50954712183E-03 +1.14024706631E-03 +4.49310802477E-03 +1.72769814270E-03 +7.84376436905E-01 +2.32224985158E-01
2.75500000000E+09 +7.34501889363E-01 +4.60625597531E-02 +4.61677128668E-03 +8.40343878878E-04 +4.88100969714E-03 +1.15486973449E-03 +7.83768774371E-01 +2.17062266940E-01
2.76000000000E+09 +7.28440514865E-01 +2.85868167283E-02 +4.78687793427E-03 +6.03166763671E-04 +5.07815715810E-03 +6.68252980608E-04 +7.83031534176E-01 +2.01434687405E-01
2.76500000000E+09 +7.22436614352E-01 +1.13220912805E-02 +5.29483719718E-03 +3.34852741714E-04 +5.56946351230E-03 +2.93501728042E-04 +7.81869611909E-01 +1.84000367146E-01
2.77000000000E+09 +7.17211984214E-01 -6.59043683888E-03 +5.81929833920E-03 -4.18093508056E-04 +6.07048729992E-03 -5.95665098203E-04 +7.80791632747E-01 +1.66231631016E-01
2.77500000000E+09 +7.12211275795E-01 -2.52600405192E-02 +5.89501337037E-03 -1.62049651629E-03 +5.97681374993E-03 -1.86913317643E-03 +7.78751773126E-01 +1.48071986376E-01
2.78000000000E+09 +7.07564329717E-01 -4.48398680996E-02 +5.33766038315E-03 -2.18595911846E-03 +5.35228086064E-03 -2.53077494797E-03 +7.76509228852E-01 +1.30724495288E-01
2.78500000000E+09 +7.02448669617E-01 -6.56277352459E-02 +5.27703466058E-03 -2.43463545557E-03 +5.02361822010E-03 -2.76851305418E-03 +7.74214804673E-01 +1.13485313506E-01
2.79000000000E+09 +6.96402076358E-01 -8.71188816251E-02 +5.41776969904E-03 -3.06258682253E-03 +5.02303116500E-03 -3.16293511281E-03 +7.70944291499E-01 +9.58419457105E-02
2.79500000000E+09 +6.88726564582E-01 -1.08354282995E-01 +5.17012876537E-03 -3.75937035828E-03 +4.90332670332E-03 -3.58003870298E-03 +7.66545297108E-01 +7.73928682356E-02
2.80000000000E+09 +6.79395845999E-01 -1.28849820346E-01 +5.25488458835E-03 -4.63976294189E-03 +5.17118295131E-03 -4.30986674709E-03 +7.61360793666E-01 +5.81507904116E-02
2.80500000000E+09 +6.69240745994E-01 -1.48086382707E-01 +4.45352726918E-03 -5.86021415954E-03 +4.68640556258E-03 -5.61396534305E-03 +7.55409515311E-01 +3.91716808241E-02
2.81000000000E+09 +6.58039208804E-01 -1.66384084267E-01 +3.48725709274E-03 -6.01227760959E-03 +3.64978212332E-03 -6.08850320596E-03 +7.49627599176E-01 +1.97819953267E-02
2.81500000000E+09 +6.46257528188E-01 -1.83907525213E-01 +3.21731266602E-03 -6.29304621723E-03 +3.15295631239E-03 -6.52229770519E-03 +7.42593361278E-01 +3.51826498269E-04
2.82000000000E+09 +6.33392534191E-01 -2.01467083769E-01 +2.80155905931E-03 -7.02058215818E-03 +2.46992988237E-03 -7.01419680583E-03 +7.35045614804E-01 -1.92444926587E-02
2.82500000000E+09 +6.19516393934E-01 -2.19192923366E-01 +1.79448004022E-03 -7.57702465087E-03 +1.43965078752E-03 -7.33686164253E-03 +7.25592647491E-01 -3.94464213055E-02
2.83000000000E+09 +6.03651179361E-01 -2.37711124236E-01 +8.57966274578E-04 -7.85913707984E-03 +8.57007592290E-04 -7.41259483632E-03 +7.15234055612E-01 -5.96189717922E-02
2.83500000000E+09 +5.86178339828E-01 -2.56157604570E-01 -2.78118232355E-04 -7.85080414663E-03 -1.85000548371E-05 -7.54338208960E-03 +7.04485863173E-01 -7.98144164940E-02
2.84000000000E+09 +5.67205633265E-01 -2.74744052384E-01 -7.17260782334E-04 -7.31772252805E-03 -4.32903813385E-04 -7.31357017345E-03 +6.93528565428E-01 -1.01087611918E-01
2.84500000000E+09 +5.46491456785E-01 -2.93657737606E-01 -6.59082583225E-04 -7.84958738299E-03 -5.45023086455E-04 -7.90252579911E-03 +6.80693657649E-01 -1.22118095872E-01
2.85000000000E+09 +5.24227091525E-01 -3.12342641062E-01 -1.70922618252E-03 -8.96805198907E-03 -1.77877099789E-03 -9.01595105247E-03 +6.66240016051E-01 -1.42585611488E-01
2.85500000000E+09 +5.00788468084E-01 -3.30252795259E-01 -3.80801224533E-03 -9.22984426466E-03 -3.80647503950E-03 -9.10675757621E-03 +6.50981927675E-01 -1.62007914349E-01
2.86000000000E+09 +4.76295615039E-01 -3.48074417398E-01 -5.50773756494E-03 -8.38875395012E-03 -5.35008889832E-03 -8.35054088179E-03 +6.35070683207E-01 -1.82284994472E-01
2.86500000000E+09 +4.51059103417E-01 -3.64106674084E-01 -6.88267418969E-03 -7.20466561986E-03 -6.81333421698E-03 -7.25150055384E-03 +6.17250242754E-01 -2.03606077199E-01
2.87000000000E+09 +4.25301907291E-01 -3.79379959361E-01 -7.25837830241E-03 -5.67967925254E-03 -7.35219869599E-03 -5.64641607261E-03 +5.96888122185E-01 -2.24715005276E-01
2.87500000000E+09 +3.99160050998E-01 -3.93052037252E-01 -6.89233825142E-03 -5.10102680523E-03 -7.11485594783E-03 -4.89867437905E-03 +5.75881100960E-01 -2.43543879307E-01
2.88000000000E+09 +3.72936823688E-01 -4.05421014551E-01 -7.39259747473E-03 -5.31500925029E-03 -7.37564767724E-03 -4.91340659811E-03 +5.54579842528E-01 -2.62011322186E-01
2.88500000000E+09 +3.46538750610E-01 -4.16466974166E-01 -9.03916010554E-03 -4.73693394100E-03 -8.68899025469E-03 -4.23932063263E-03 +5.32099427152E-01 -2.79789962894E-01
2.89000000000E+09 +3.19448261430E-01 -4.27496816733E-01 -9.50530890332E-03 -3.06837789944E-03 -8.88221054549E-03 -3.05208738778E-03 +5.06791943556E-01 -2.98057204285E-01
2.89500000000E+09 +2.90698860969E-01 -4.37467651587E-01 -9.74125628542E-03 -2.35186861697E-03 -9.29437312396E-03 -2.63824218184E-03 +4.78572967900E-01 -3.14866046461E-01
2.90000000000E+09 +2.59833464803E-01 -4.46572862518E-01 -1.04416726835E-02 -1.22839457498E-03 -1.04027457873E-02 -1.53191240310E-03 +4.49114694053E-01 -3.29799660983E-01
2.90500000000E+09 +2.25843925453E-01 -4.53116551864E-01 -1.05363009981E-02 +3.16880167735E-05 -1.06349955254E-02 +9.83667227523E-05 +4.20349797422E-01 -3.44909895452E-01
2.91000000000E+09 +1.90885636768E-01 -4.56138576477E-01 -1.07860335990E-02 +1.01638659498E-03 -1.05908599698E-02 +1.37073836483E-03 +3.89310675656E-01 -3.59875045961E-01
2.91500000000E+09 +1.55842068406E-01 -4.56642412976E-01 -1.11359983143E-02 +2.80595875849E-03 -1.05226094585E-02 +2.90611092606E-03 +3.56154001796E-01 -3.72005500005E-01
2.92000000000E+09 +1.20990510707E-01 -4.55137679703E-01 -1.02186186447E-02 +4.54438613521E-03 -9.46556453875E-03 +4.14903824672E-03 +3.21636672739E-01 -3.80794280031E-01
2.92500000000E+09 +8.63720539458E-02 -4.51931423282E-01 -9.40312211148E-03 +4.75353978618E-03 -9.03731140122E-03 +4.05452681928E-03 +2.86215946791E-01 -3.86909054772E-01
2.93000000000E+09 +5.21405010378E-02 -4.47589678426E-01 -9.79990712036E-03 +5.70583965296E-03 -9.90488011708E-03 +5.06724117098E-03 +2.50752839299E-01 -3.92116367021E-01
2.93500000000E+09 +1.73822941138E-02 -4.42351299093E-01 -9.42531119140E-03 +7.50491322020E-03 -9.81589131016E-03 +7.10650059203E-03 +2.13227788376E-01 -3.97259040041E-01
2.94000000000E+09 -1.77583244872E-02 -4.34628315911E-01 -8.46371560147E-03 +8.98043197218E-03 -8.71450382487E-03 +8.77715835596E-03 +1.73067408969E-01 -4.00942963794E-01
2.94500000000E+09 -5.25998076695E-02 -4.24943737152E-01 -7.26084261610E-03 +1.07076526047E-02 -7.53100626884E-03 +1.04037024166E-02 +1.32330573292E-01 -4.00087726000E-01
2.95000000000E+09 -8.79230343964E-02 -4.11158311275E-01 -4.98244731672E-03 +1.13786643160E-02 -5.41671018082E-03 +1.12310826271E-02 +9.28100725356E-02 -3.95249419194E-01
2.95500000000E+09 -1.20798717671E-01 -3.93945591128E-01 -3.43649311162E-03 +1.09898184857E-02 -3.99984883972E-03 +1.11669079954E-02 +5.49013514706E-02 -3.88265205535E-01
2.96000000000E+09 -1.51977215750E-01 -3.74870850528E-01 -3.00678548013E-03 +1.10255477495E-02 -3.36461889488E-03 +1.15244939483E-02 +1.51614322538E-02 -3.79678664102E-01
2.96500000000E+09 -1.82502005133E-01 -3.53703723164E-01 -2.19563251736E-03 +1.19072555550E-02 -2.04848175149E-03 +1.24351288863E-02 -2.55509193930E-02 -3.67646345765E-01
2.97000000000E+09 -2.12235896370E-01 -3.29232857704E-01 -6.07650460714E-04 +1.26907182847E-02 -1.81899245329E-04 +1.27217687882E-02 -6.60289245721E-02 -3.52715082116E-01
2.97500000000E+09 -2.40000983329E-01 -3.02743223471E-01 +1.05704592443E-03 +1.31518305113E-02 +1.17879186364E-03 +1.28155194997E-02 -1.05028592855E-01 -3.35168766383E-01
2.98000000000E+09 -2.67426281955E-01 -2.74832773785E-01 +3.68095916178E-03 +1.25204935687E-02 +3.30209839818E-03 +1.23156296193E-02 -1.42710063291E-01 -3.14984826163E-01
2.98500000000E+09 -2.94075324797E-01 -2.44346807916E-01 +4.60669383824E-03 +1.12871577343E-02 +4.26154235502E-03 +1.16507154526E-02 -1.79204208481E-01 -2.91714851339E-01
2.99000000000E+09 -3.18836761401E-01 -2.11908428396E-01 +5.08598757248E-03 +1.08361499798E-02 +5.20826515203E-03 +1.14498250052E-02 -2.14066510905E-01 -2.64961474463E-01
2.99500000000E+09 -3.41271683660E-01 -1.78013468424E-01 +6.26822603636E-03 +1.15113074287E-02 +7.00109740917E-03 +1.18227168654E-02 -2.47088036630E-01 -2.35770606086E-01
3.00000000000E+09 -3.60302468008E-01 -1.44313001465E-01 +9.01594301074E-03 +1.04399120882E-02 +9.71455950734E-03 +9.92336503108E-03 -2.77813376283E-01 -2.03782408908E-01
3.00500000000E+09 -3.78408533924E-01 -1.11661077733E-01 +9.69310443200E-03 +8.64395940346E-03 +9.79770843207E-03 +7.98556914883E-03 -3.06518684024E-01 -1.71113059986E-01
3.01000000000E+09 -3.95027304458E-01 -7.86175208017E-02 +1.07289229850E-02 +7.57583872111E-03 +1.03179041537E-02 +7.12985747965E-03 -3.32734939057E-01 -1.36393354486E-01
3.01500000000E+09 -4.09347816664E-01 -4.41536627688E-02 +1.14212924613E-02 +6.40046253309E-03 +1.10586998348E-02 +6.41485224472E-03 -3.56499875220E-01 -1.00381764620E-01
3.02000000000E+09 -4.19677352184E-01 -8.74390164936E-03 +1.23081949967E-02 +5.20069622318E-03 +1.21561036402E-02 +5.31563113095E-03 -3.76681392180E-01 -6.12003707091E-02
3.02500000000E+09 -4.26399573039E-01 +2.64719790436E-02 +1.32121169498E-02 +3.83084053164E-03 +1.31116632396E-02 +3.76104915041E-03 -3.92209840381E-01 -2.19367347822E-02
3.03000000000E+09 -4.29715672537E-01 +6.17145208133E-02 +1.37276247017E-02 +1.71690802597E-03 +1.35272415126E-02 +1.77306137959E-03 -4.06296497738E-01 +1.72915187124E-02
3.03500000000E+09 -4.29560166866E-01 +9.65829827797E-02 +1.37550721174E-02 +6.06105275609E-05 +1.36010385547E-02 +3.50969787444E-04 -4.18330447817E-01 +5.71258960896E-02
3.04000000000E+09 -4.27049206724E-01 +1.30804819117E-01 +1.37998189805E-02 -1.93012348408E-03 +1.41142985410E-02 -1.49162015327E-03 -4.27718040514E-01 +9.81915941065E-02
3.04500000000E+09 -4.22593588812E-01 +1.64924710940E-01 +1.31553672241E-02 -3.72184631899E-03 +1.38870756345E-02 -3.79464062053E-03 -4.33190645606E-01 +1.39836370641E-01
3.05000000000E+09 -4.15972102324E-01 +1.99252145544E-01 +1.24060146359E-02 -5.32139300059E-03 +1.29335624413E-02 -6.10115725781E-03 -4.34156128167E-01 +1.80145475954E-01
3.05500000000E+09 -4.07619208824E-01 +2.32556439158E-01 +1.16395266277E-02 -6.67907628698E-03 +1.11896231973E-02 -7.50461378971E-03 -4.33400900351E-01 +2.18388687013E-01
3.06000000000E+09 -3.97921720251E-01 +2.66190702206E-01 +1.10414002147E-02 -8.16350580264E-03 +1.00828250765E-02 -8.35488422077E-03 -4.31307211776E-01 +2.57035295390E-01
3.06500000000E+09 -3.85490050517E-01 +2.98571384765E-01 +9.74669963196E-03 -1.01492509854E-02 +9.10971651828E-03 -9.45669487774E-03 -4.26088472414E-01 +2.94822430605E-01
3.07000000000E+09 -3.71765657510E-01 +3.28332931421E-01 +7.29023132710E-03 -1.15534563543E-02 +7.73555939125E-03 -1.07069415249E-02 -4.18895903684E-01 +3.30625274952E-01
