# Hz S RI R 50
! CMT, C1220, 16058040, 17.2.0/1
! Date: 14/08/2018 11:43:15
! Data: Format (Calibration Info)
! Freq                      S11: Re/Im (F2)                       S21: Re/Im (F2)                       S12: Re/Im (F2)                       S22: Re/Im (F2)            
1.00000000000E+09 -6.49346394615E-01 +7.15315888431E-01 -2.52583659208E-05 +3.70299671790E-05 -7.28680049045E-05 +3.85454010617E-06 -7.55118682432E-01 +6.24619060441E-01
1.00500000000E+09 -6.42436512178E-01 +7.20525851977E-01 -7.04726269062E-05 +1.54345718829E-05 -5.81151883412E-05 +4.47183587506E-05 -7.51622473245E-01 +6.28711370784E-01
1.01000000000E+09 -6.36500357252E-01 +7.25228889967E-01 -2.86438248784E-05 -2.57629703807E-05 -2.10609064878E-06 -2.18132906665E-05 -7.48067191033E-01 +6.32343015898E-01
1.01500000000E+09 -6.31871584455E-01 +7.29051371257E-01 -3.73752387061E-05 +1.13537040852E-05 -2.34009621607E-05 +5.63713570627E-05 -7.44680006882E-01 +6.36363475232E-01
1.02000000000E+09 -6.28464331949E-01 +7.32281036230E-01 +4.57866827196E-05 +1.12394060160E-05 -2.68159385580E-05 +4.05823739934E-05 -7.40945105867E-01 +6.40052192663E-01
1.02500000000E+09 -6.25702491510E-01 +7.34862045146E-01 +7.02230485804E-06 -2.25878164292E-05 -9.43590568722E-05 +9.18781782091E-05 -7.38253958113E-01 +6.43806650974E-01
1.03000000000E+09 -6.23439875532E-01 +7.37016504932E-01 -2.56975521189E-05 +3.11829072968E-05 -6.44574920534E-05 +3.89926883469E-05 -7.34718272766E-01 +6.47392932606E-01
1.03500000000E+09 -6.20277271677E-01 +7.39408970089E-01 -6.82481873393E-05 +2.90976218193E-06 -1.73817742701E-05 +1.40031703687E-05 -7.31119095100E-01 +6.51360100361E-01
1.04000000000E+09 -6.16119477300E-01 +7.42074263330E-01 -4.15368444349E-05 +4.87129894514E-05 -3.24944605163E-06 +5.34774482140E-05 -7.27512254003E-01 +6.55080650199E-01
1.04500000000E+09 -6.10645753738E-01 +7.45679873894E-01 -3.52235161483E-05 +4.79779368354E-05 -7.70741470650E-05 +8.76734285294E-06 -7.23666931569E-01 +6.58520239592E-01
1.05000000000E+09 -6.03421513833E-01 +7.49948033882E-01 -7.14264310647E-05 +7.74515075639E-05 +2.57201327896E-06 +4.13729983724E-05 -7.20360384621E-01 +6.62145255467E-01
1.05500000000E+09 -5.95324789351E-01 +7.54654611160E-01 -4.31381041982E-05 +5.38948450070E-05 +2.95814387928E-05 +4.90154433392E-05 -7.17060161214E-01 +6.65753973228E-01
1.06000000000E+09 -5.86850471197E-01 +7.59864380231E-01 -3.25206083826E-05 +6.84006502602E-05 -7.33995118433E-06 +5.98809262963E-05 -7.13754081685E-01 +6.69449196210E-01
1.06500000000E+09 -5.78704496861E-01 +7.64906409643E-01 -3.41393126351E-05 +4.56585430511E-05 -3.36727553599E-05 +1.05038305460E-04 -7.10050798018E-01 +6.73192702261E-01
1.07000000000E+09 -5.71859230760E-01 +7.69267422088E-01 -4.62408479883E-06 +3.63331454797E-05 -2.99457208875E-05 +7.38489243546E-05 -7.06287558664E-01 +6.76680780677E-01
1.07500000000E+09 -5.66614961085E-01 +7.72952221341E-01 -2.22341827102E-05 +9.88975005739E-05 -1.64278928298E-05 +1.72958989124E-05 -7.02028740880E-01 +6.80345879634E-01
1.08000000000E+09 -5.62699973035E-01 +7.76119404287E-01 +1.33515400167E-05 +8.37500067396E-05 +3.65033993652E-06 +8.46538819319E-05 -6.97795162173E-01 +6.84355131751E-01
1.08500000000E+09 -5.60085644821E-01 +7.78040678558E-01 -1.52923678989E-05 +9.29327810301E-05 +4.37781260356E-05 +3.30864951099E-05 -6.93643946440E-01 +6.88202267769E-01
1.09000000000E+09 -5.57886998759E-01 +7.79823120127E-01 -1.22052508649E-05 +6.92054439298E-05 +2.30025577747E-05 +8.51952423207E-05 -6.89758167929E-01 +6.92111294142E-01
1.09500000000E+09 -5.55732199557E-01 +7.81322493829E-01 +5.63005143144E-05 +6.50170811264E-05 +3.68954379593E-05 +8.34874181037E-05 -6.85868571553E-01 +6.96008064999E-01
1.10000000000E+09 -5.52375578369E-01 +7.83283157531E-01 +4.32136471518E-06 +7.27619093575E-05 +5.92225170244E-05 +9.76558193887E-05 -6.82083077593E-01 +6.99713374278E-01
1.10500000000E+09 -5.48059752925E-01 +7.86004269186E-01 +4.39220580815E-05 +1.00390265293E-04 +4.31508286850E-06 +9.03108985954E-05 -6.77786316109E-01 +7.03291805964E-01
1.11000000000E+09 -5.42098103403E-01 +7.89361547110E-01 +3.55182163596E-05 +1.04698785111E-04 +3.23549553387E-05 +1.17777175341E-04 -6.73660806153E-01 +7.06685473715E-01
1.11500000000E+09 -5.35199349250E-01 +7.93403478607E-01 +6.60031532304E-05 +6.38749680108E-05 +3.79073336653E-05 +1.00871099639E-04 -6.69438720858E-01 +7.10248070075E-01
1.12000000000E+09 -5.27551991229E-01 +7.97578691427E-01 +3.24301068063E-05 +6.15191777916E-05 +3.39840829673E-05 +6.13334732686E-05 -6.65318722371E-01 +7.13900576526E-01
1.12500000000E+09 -5.20009487803E-01 +8.01802887475E-01 +4.58715471905E-05 +8.01553392313E-05 +1.01395892692E-04 +7.57449985242E-05 -6.60970687175E-01 +7.17874772792E-01
1.13000000000E+09 -5.13064116594E-01 +8.05447166782E-01 +6.63806225027E-05 +8.30979126608E-05 +1.13400221359E-04 +8.62031397731E-05 -6.56832896888E-01 +7.21745605808E-01
1.13500000000E+09 -5.07025971627E-01 +8.08257510069E-01 +8.48647926824E-05 +1.34101797386E-04 +1.23623740471E-04 +7.34657140164E-05 -6.52384057211E-01 +7.25540349403E-01
1.14000000000E+09 -5.02104186438E-01 +8.10608640922E-01 +9.51706690706E-05 +6.87668385473E-05 +1.01220543742E-04 +5.02694222027E-05 -6.47744597496E-01 +7.28958625189E-01
1.14500000000E+09 -4.98008538188E-01 +8.12071791584E-01 +1.11725051887E-04 +8.43886934989E-05 +9.54326294659E-05 +5.70743551127E-05 -6.43072913941E-01 +7.32409256554E-01
1.15000000000E+09 -4.93897838173E-01 +8.13515604821E-01 +7.23500865228E-05 +4.73270712940E-05 +1.06431281559E-04 -5.29789304190E-06 -6.38273646896E-01 +7.36125360071E-01
1.15500000000E+09 -4.89737023573E-01 +8.15076118858E-01 +1.14538509287E-04 +3.47904878446E-05 +1.19891582539E-04 +4.49516465390E-05 -6.33522136493E-01 +7.39936755259E-01
1.16000000000E+09 -4.84354394270E-01 +8.16813640710E-01 +1.03495189340E-04 +6.01154482963E-05 +1.38970676558E-04 +4.92865703372E-05 -6.28468429478E-01 +7.43926847647E-01
1.16500000000E+09 -4.78096448288E-01 +8.19429238782E-01 +1.41253830960E-04 +6.20171811734E-05 +1.51331345009E-04 +3.74562939369E-05 -6.23540603639E-01 +7.47644691828E-01
1.17000000000E+09 -4.70688930291E-01 +8.22624678158E-01 +1.42336984264E-04 +3.64842326082E-05 +1.35997807210E-04 +3.33835473387E-05 -6.18172080198E-01 +7.50804990595E-01
1.17500000000E+09 -4.62448921431E-01 +8.26304784097E-01 +1.76111703539E-04 +6.14707285341E-05 +1.90068387379E-04 +1.43321401513E-05 -6.12407082725E-01 +7.54179114744E-01
1.18000000000E+09 -4.54355601072E-01 +8.30123276636E-01 +1.56253877430E-04 +2.01544543308E-05 +2.24694359263E-04 +5.09551528968E-05 -6.06925594449E-01 +7.57376337715E-01
1.18500000000E+09 -4.46528495305E-01 +8.33721459380E-01 +1.91162577577E-04 +1.73686756615E-05 +2.00427388818E-04 -2.63389407764E-05 -6.00987093507E-01 +7.60369807219E-01
1.19000000000E+09 -4.39460851046E-01 +8.36570569725E-01 +2.13918363510E-04 -1.31749414192E-05 +2.62553482172E-04 -5.37442014049E-06 -5.94571823371E-01 +7.63039834968E-01
1.19500000000E+09 -4.33557254753E-01 +8.38639352954E-01 +2.58165528038E-04 -2.21749043846E-05 +2.74022713024E-04 -1.66609184884E-05 -5.88563413612E-01 +7.64398192521E-01
1.20000000000E+09 -4.28626024654E-01 +8.39492659955E-01 +3.15261735866E-04 -8.64073684431E-05 +3.26454280304E-04 -1.09740778586E-04 -5.83846343768E-01 +7.64690098256E-01
1.20500000000E+09 -4.24251773727E-01 +8.40626848824E-01 +2.60243895403E-04 -2.00773834164E-04 +2.38156901651E-04 -2.47441227743E-04 -5.81792614685E-01 +7.65399949580E-01
1.21000000000E+09 -4.19628787569E-01 +8.41615334788E-01 +1.64447297463E-04 -2.27144785887E-04 +1.31896450789E-04 -2.34264146955E-04 -5.79928316617E-01 +7.68505698570E-01
1.21500000000E+09 -4.13916753692E-01 +8.42826133161E-01 +1.35072496079E-04 -2.24265677309E-04 +1.29554573606E-04 -1.81139351202E-04 -5.77090064777E-01 +7.72853981576E-01
1.22000000000E+09 -4.06704044353E-01 +8.44679065100E-01 +7.89468608310E-05 -1.69041841512E-04 +1.43753419886E-04 -1.56397067273E-04 -5.73080808462E-01 +7.78192064850E-01
1.22500000000E+09 -3.98086538566E-01 +8.47237414169E-01 +1.76728160008E-04 -1.91135703239E-04 +1.29722005414E-04 -2.20159064135E-04 -5.67791231933E-01 +7.83269751305E-01
1.23000000000E+09 -3.88513973874E-01 +8.50277641659E-01 +1.49959908590E-04 -1.74555055873E-04 +1.54738181102E-04 -2.13177310048E-04 -5.62077787351E-01 +7.88200058932E-01
1.23500000000E+09 -3.78659127740E-01 +8.53854121126E-01 +1.47084694264E-04 -2.11584216339E-04 +1.06204277259E-04 -2.30486703302E-04 -5.56360066463E-01 +7.92610308766E-01
1.24000000000E+09 -3.68967485914E-01 +8.57663419702E-01 +1.20498877331E-04 -2.41107137862E-04 +1.02528064523E-04 -2.51997155968E-04 -5.50286605315E-01 +7.96322789013E-01
1.24500000000E+09 -3.60315893600E-01 +8.61604973340E-01 +7.08034956359E-05 -2.49936547158E-04 +7.24733734919E-05 -2.57312361410E-04 -5.43949735787E-01 +8.00376298763E-01
1.25000000000E+09 -3.52579030629E-01 +8.64947467815E-01 +4.40419957654E-05 -2.83009842799E-04 +8.56513213771E-05 -2.47907056043E-04 -5.37460124862E-01 +8.04574535357E-01
1.25500000000E+09 -3.45686042438E-01 +8.67097147697E-01 +5.35940172155E-05 -2.46944160431E-04 +7.54732295682E-05 -2.74802063499E-04 -5.30517935917E-01 +8.08573423805E-01
1.26000000000E+09 -3.39758310760E-01 +8.68522536217E-01 +3.82667118980E-05 -3.05506577625E-04 +8.35491049424E-05 -3.57722186320E-04 -5.23767613928E-01 +8.12732161648E-01
1.26500000000E+09 -3.33980449245E-01 +8.69087607516E-01 +9.82790230360E-06 -3.49082400866E-04 +6.52115232140E-05 -3.72745540547E-04 -5.16755090839E-01 +8.16652551893E-01
1.27000000000E+09 -3.27695738821E-01 +8.69460553492E-01 -4.34987280220E-06 -3.37213072704E-04 +1.03277850836E-05 -3.79141702802E-04 -5.09840038629E-01 +8.20695673884E-01
1.27500000000E+09 -3.19959617647E-01 +8.69994572793E-01 -8.58865061642E-05 -4.00249259838E-04 -9.09845522716E-05 -4.19520037717E-04 -5.02900293926E-01 +8.24219932209E-01
1.28000000000E+09 -3.10548328288E-01 +8.71015316180E-01 -9.12536993094E-05 -3.68634215818E-04 -1.00926852094E-04 -4.47090222771E-04 -4.95939527755E-01 +8.27733779092E-01
1.28500000000E+09 -2.99105874984E-01 +8.72713873343E-01 -1.06406353711E-04 -3.73365912948E-04 -7.80994253062E-05 -3.65727835182E-04 -4.88457157111E-01 +8.31405246407E-01
1.29000000000E+09 -2.87060801099E-01 +8.75031732314E-01 -1.81587955756E-04 -3.45013663163E-04 -2.01979503848E-04 -3.61276728111E-04 -4.80887845440E-01 +8.35135299014E-01
1.29500000000E+09 -2.74624999385E-01 +8.78299734239E-01 -1.34057307148E-04 -4.06981644486E-04 -1.88860022014E-04 -4.04838277764E-04 -4.72874919534E-01 +8.38749358774E-01
1.30000000000E+09 -2.62530615721E-01 +8.81926777895E-01 -1.77278373400E-04 -4.10474485025E-04 -2.43440305857E-04 -4.10542973066E-04 -4.64918174198E-01 +8.42437954914E-01
1.30500000000E+09 -2.51750987571E-01 +8.85486606661E-01 -2.81997887492E-04 -4.75400514280E-04 -2.86578357213E-04 -4.22800033909E-04 -4.56693421513E-01 +8.45843757522E-01
1.31000000000E+09 -2.42487988993E-01 +8.88204292474E-01 -3.34206747818E-04 -4.71583853472E-04 -3.49230038895E-04 -4.22558873181E-04 -4.48378177206E-01 +8.49347438136E-01
1.31500000000E+09 -2.34851955962E-01 +8.89928594881E-01 -4.35918836613E-04 -4.41099684351E-04 -3.36793781841E-04 -4.61719409855E-04 -4.39569554364E-01 +8.52748186836E-01
1.32000000000E+09 -2.28547994433E-01 +8.90608696877E-01 -4.72379589008E-04 -3.98444237431E-04 -4.90030213023E-04 -4.45314844427E-04 -4.30593903603E-01 +8.56191039781E-01
1.32500000000E+09 -2.22671417252E-01 +8.90446394414E-01 -4.80568358508E-04 -3.93150689632E-04 -5.55926191488E-04 -4.02332128311E-04 -4.20781228243E-01 +8.59569832342E-01
1.33000000000E+09 -2.15969456552E-01 +8.89940731971E-01 -5.87107610517E-04 -4.31303255782E-04 -6.07104091806E-04 -3.24344287461E-04 -4.10864451845E-01 +8.63083167242E-01
1.33500000000E+09 -2.07447005767E-01 +8.89033412178E-01 -6.80678178785E-04 -3.91938653693E-04 -6.92923202859E-04 -3.50413324043E-04 -4.00882423075E-01 +8.66351709771E-01
1.34000000000E+09 -1.96336355577E-01 +8.88369024904E-01 -8.37376678918E-04 -3.45425329837E-04 -8.04867584214E-04 -2.98423049704E-04 -3.90528101572E-01 +8.69624631599E-01
1.34500000000E+09 -1.83104010567E-01 +8.88128060796E-01 -9.59730937770E-04 -2.03108431444E-04 -9.00872892420E-04 -1.77063067006E-04 -3.79674908515E-01 +8.72928095908E-01
1.35000000000E+09 -1.67952771716E-01 +8.88428977929E-01 -1.01286279897E-03 -7.30835433353E-05 -9.99269345039E-04 -5.46092944242E-05 -3.68583658851E-01 +8.76109906630E-01
1.35500000000E+09 -1.51813234099E-01 +8.89192632593E-01 -9.98216423096E-04 +6.95359963935E-06 -9.73270684994E-04 +6.99723336301E-06 -3.56797712255E-01 +8.79024041570E-01
1.36000000000E+09 -1.35411714472E-01 +8.90109371518E-01 -1.08061089696E-03 +3.33575982602E-05 -1.05084415954E-03 +5.48505572114E-05 -3.44795900137E-01 +8.81714611454E-01
1.36500000000E+09 -1.20209205191E-01 +8.90808440574E-01 -1.22861262458E-03 +1.94529141689E-04 -1.09445680057E-03 +1.85274822727E-04 -3.32483746356E-01 +8.84208069856E-01
1.37000000000E+09 -1.06438545516E-01 +8.90919736501E-01 -1.30360903461E-03 +4.34387587874E-04 -1.23405049488E-03 +3.58896553823E-04 -3.19430956329E-01 +8.86502303565E-01
1.37500000000E+09 -9.46250565024E-02 +8.90551215285E-01 -1.16956326525E-03 +6.58923237968E-04 -1.19868505132E-03 +5.24077369562E-04 -3.05870332212E-01 +8.88697826063E-01
1.38000000000E+09 -8.36697629764E-02 +8.89327678891E-01 -1.06389728856E-03 +7.60826868701E-04 -1.20306854563E-03 +6.15707994387E-04 -2.91254170134E-01 +8.90785077571E-01
1.38500000000E+09 -7.26233237322E-02 +8.87303173918E-01 -1.05865085177E-03 +7.85754495158E-04 -1.23217066652E-03 +7.91086209201E-04 -2.75807308363E-01 +8.92490752635E-01
1.39000000000E+09 -6.04780465049E-02 +8.84160949275E-01 -1.11406083485E-03 +8.92485064048E-04 -1.28283854469E-03 +1.00793100367E-03 -2.59885686114E-01 +8.93664798140E-01
1.39500000000E+09 -4.63428779913E-02 +8.80162939183E-01 -1.20477216852E-03 +1.11086930206E-03 -1.20257565251E-03 +1.28772541906E-03 -2.43049825902E-01 +8.94275728951E-01
1.40000000000E+09 -2.96602935457E-02 +8.75413405812E-01 -1.15546909662E-03 +1.34485216990E-03 -1.05155912974E-03 +1.53985360805E-03 -2.25455777369E-01 +8.94933667060E-01
1.40500000000E+09 -1.07396141030E-02 +8.70475740524E-01 -1.04687576530E-03 +1.55463960008E-03 -8.92723042301E-04 +1.57197283230E-03 -2.06486137315E-01 +8.94781939651E-01
1.41000000000E+09 +1.03127224634E-02 +8.65099640738E-01 -1.00732228025E-03 +1.77792704396E-03 -9.30162210537E-04 +1.66724200479E-03 -1.86335923115E-01 +8.93804582226E-01
1.41500000000E+09 +3.25207217949E-02 +8.59613346964E-01 -7.77842749436E-04 +1.95990192815E-03 -8.82297625560E-04 +1.96690869302E-03 -1.64940589572E-01 +8.92194182857E-01
1.42000000000E+09 +5.55072446201E-02 +8.53509017507E-01 -6.84270392921E-04 +2.06477334749E-03 -7.72484891180E-04 +2.27807254477E-03 -1.42489243397E-01 +8.89522749091E-01
1.42500000000E+09 +7.79355935078E-02 +8.46040758018E-01 -6.41174783321E-04 +2.30132799741E-03 -5.95577365142E-04 +2.57368807382E-03 -1.18811696572E-01 +8.86277307419E-01
1.43000000000E+09 +9.91038554092E-02 +8.37171072528E-01 -5.91989362508E-04 +2.68423828763E-03 -3.67260313651E-04 +2.98732047490E-03 -9.36670488697E-02 +8.81579802692E-01
1.43500000000E+09 +1.19179893701E-01 +8.26596157951E-01 -3.07291791102E-04 +3.10901224352E-03 +1.73209014169E-05 +3.23690738775E-03 -6.72686865316E-02 +8.74906393472E-01
1.44000000000E+09 +1.39402134297E-01 +8.14441974665E-01 +1.20704814534E-04 +3.60902194939E-03 +3.66434151548E-04 +3.61986943503E-03 -3.93722703277E-02 +8.66268347352E-01
1.44500000000E+09 +1.61076461558E-01 +7.99769442084E-01 +8.02072130992E-04 +3.84118452181E-03 +9.72450778891E-04 +3.81608767449E-03 -9.43534831912E-03 +8.55250038217E-01
1.45000000000E+09 +1.85010028537E-01 +7.81406287894E-01 +1.16558488907E-03 +4.03514478759E-03 +1.40840711688E-03 +4.04113465879E-03 +2.27426518198E-02 +8.40903401117E-01
1.45500000000E+09 +2.10959220879E-01 +7.59314238119E-01 +1.52632182850E-03 +4.59363548624E-03 +1.90641406223E-03 +4.45741941579E-03 +5.63034559486E-02 +8.23070710335E-01
1.46000000000E+09 +2.39331859769E-01 +7.32920733099E-01 +2.61146609130E-03 +5.43203720931E-03 +2.99145575183E-03 +4.99630612289E-03 +9.09823393402E-02 +8.01116414962E-01
1.46500000000E+09 +2.69060494021E-01 +7.03107779929E-01 +4.24829811704E-03 +5.83188196405E-03 +4.22709871566E-03 +5.09741043667E-03 +1.26980115733E-01 +7.74446818999E-01
1.47000000000E+09 +3.00173844201E-01 +6.68583364762E-01 +6.42438838736E-03 +5.76810789620E-03 +5.93982240411E-03 +5.23912447777E-03 +1.64051711264E-01 +7.41681727911E-01
1.47500000000E+09 +3.30162283231E-01 +6.29160447691E-01 +8.60667399910E-03 +4.36869476167E-03 +8.14242340205E-03 +4.50243784974E-03 +2.02182496870E-01 +7.01544315589E-01
1.48000000000E+09 +3.57851503439E-01 +5.84277156720E-01 +9.82157527583E-03 +2.47805273542E-03 +9.85596776428E-03 +2.74179134727E-03 +2.39905987560E-01 +6.51740505480E-01
1.48500000000E+09 +3.81125817228E-01 +5.32863490348E-01 +1.10134267782E-02 +1.14291497664E-03 +1.13144018073E-02 +1.00230826049E-03 +2.74054880825E-01 +5.92268696571E-01
1.49000000000E+09 +3.98659909355E-01 +4.73466337832E-01 +1.24051557630E-02 -6.81633334512E-04 +1.23815423831E-02 -1.32371125572E-03 +3.02309261864E-01 +5.23055219844E-01
1.49500000000E+09 +4.07510891852E-01 +4.05892305123E-01 +1.45322052929E-02 -3.85907376505E-03 +1.37330434031E-02 -4.31440814098E-03 +3.22456707558E-01 +4.43032305466E-01
1.50000000000E+09 +4.06553511335E-01 +3.29864838604E-01 +1.44872355276E-02 -8.87935566749E-03 +1.35742290516E-02 -8.42388255156E-03 +3.28665772770E-01 +3.52491338622E-01
1.50500000000E+09 +3.93077235129E-01 +2.46225475318E-01 +1.30598440757E-02 -1.32712413426E-02 +1.28527863930E-02 -1.23627609921E-02 +3.16539814062E-01 +2.54083507553E-01
1.51000000000E+09 +3.65159033760E-01 +1.56928496821E-01 +1.03148454813E-02 -1.84804743262E-02 +1.08025517715E-02 -1.78875437831E-02 +2.82868747605E-01 +1.54062855924E-01
1.51500000000E+09 +3.19631666161E-01 +6.61370472572E-02 +4.10420441712E-03 -2.18978057717E-02 +4.62231985626E-03 -2.19849286929E-02 +2.29407864801E-01 +5.79053346013E-02
1.52000000000E+09 +2.53187753309E-01 -1.96492023121E-02 -2.25184579258E-03 -2.30853965317E-02 -2.05020929855E-03 -2.33168938881E-02 +1.53847469616E-01 -2.94533878531E-02
1.52500000000E+09 +1.67634399258E-01 -9.06958626351E-02 -9.00042998610E-03 -2.24585243731E-02 -9.02940642309E-03 -2.26487380906E-02 +5.84064491233E-02 -9.95772844884E-02
1.53000000000E+09 +6.76267930896E-02 -1.40437530564E-01 -1.60175172169E-02 -1.85142597885E-02 -1.61267181356E-02 -1.85928426194E-02 -4.94785505514E-02 -1.44592678774E-01
1.53500000000E+09 -4.04816052514E-02 -1.64548480213E-01 -1.94653567776E-02 -1.23664079520E-02 -1.95185007484E-02 -1.22838991192E-02 -1.60333711843E-01 -1.64834358923E-01
1.54000000000E+09 -1.50046819910E-01 -1.62689463883E-01 -2.15718267607E-02 -7.27480506816E-03 -2.13427236337E-02 -7.26319758402E-03 -2.69480662397E-01 -1.63217217975E-01
1.54500000000E+09 -2.53343634106E-01 -1.37337575721E-01 -2.21852806452E-02 -1.89343657703E-04 -2.19201237618E-02 -5.88982046033E-04 -3.69330338198E-01 -1.40748101726E-01
1.55000000000E+09 -3.46777972008E-01 -9.38615320013E-02 -1.95520427425E-02 +4.86350265361E-03 -1.96933036261E-02 +4.11808151738E-03 -4.56673096533E-01 -1.02905966784E-01
1.55500000000E+09 -4.25501094560E-01 -3.76903714488E-02 -1.69532095194E-02 +8.69991720453E-03 -1.77541559365E-02 +8.18419883252E-03 -5.27934827230E-01 -5.42739513147E-02
1.56000000000E+09 -4.87889772354E-01 +2.34270486703E-02 -1.31791083340E-02 +1.22765063677E-02 -1.41943433930E-02 +1.23977181135E-02 -5.84780476268E-01 -1.21120821276E-03
1.56500000000E+09 -5.36750357187E-01 +8.41346796248E-02 -8.66737300655E-03 +1.33314237985E-02 -9.34100370166E-03 +1.40051757538E-02 -6.29298363781E-01 +5.39948584424E-02
1.57000000000E+09 -5.73074799147E-01 +1.42980947924E-01 -4.78597407031E-03 +1.30361080768E-02 -5.01603295750E-03 +1.39567646768E-02 -6.63481283149E-01 +1.09041222167E-01
