# Hz S RI R 50
! CMT, C1220, 16058040, 17.2.0/1
! Date: 14/08/2018 11:50:08
! Data: Format (Calibration Info)
! Freq                      S11: Re/Im (F2)                       S21: Re/Im (F2)                       S12: Re/Im (F2)                       S22: Re/Im (F2)            
1.00000000000E+09 -6.47824041536E-01 +7.15003089963E-01 +3.37668640135E-05 +9.78360016668E-06 +1.27484667037E-05 +1.55755170018E-06 -7.55369465212E-01 +6.24080572415E-01
1.00500000000E+09 -6.40693366989E-01 +7.20059411073E-01 -9.05683240404E-06 -1.60779057605E-05 +1.76724690742E-05 +1.13115767222E-05 -7.51862701080E-01 +6.28091221940E-01
1.01000000000E+09 -6.34640434188E-01 +7.24556409938E-01 +1.59776209092E-05 -1.24817852054E-05 -4.43122298766E-05 -1.76301820417E-05 -7.48422584377E-01 +6.31980793499E-01
1.01500000000E+09 -6.29830493327E-01 +7.28257006028E-01 -4.13041362702E-06 -1.06857902898E-05 +3.06250452390E-05 -9.31894054550E-07 -7.44784615270E-01 +6.35753709139E-01
1.02000000000E+09 -6.26278820495E-01 +7.31621126989E-01 -2.85942894806E-05 -2.60751652362E-06 -1.32115613983E-05 +2.05664319819E-05 -7.41251593084E-01 +6.39432589694E-01
1.02500000000E+09 -6.23552844086E-01 +7.34157637260E-01 -2.86083794126E-05 -3.81284823664E-06 +2.26847131216E-05 +1.73301159100E-05 -7.38455582339E-01 +6.43082791933E-01
1.03000000000E+09 -6.21519651652E-01 +7.36446204805E-01 +3.36571136631E-06 -1.24604427795E-05 -4.91979413256E-05 -2.72455600953E-05 -7.34832411295E-01 +6.46891148405E-01
1.03500000000E+09 -6.18575910981E-01 +7.38652459189E-01 -2.54681970167E-05 +5.17139087230E-05 -7.69312836875E-06 -2.19299294113E-05 -7.31248654366E-01 +6.50832587292E-01
1.04000000000E+09 -6.14456856403E-01 +7.41406073864E-01 -1.39594856446E-05 -1.39171082487E-05 -2.93818638403E-05 +3.33694065156E-05 -7.27624560123E-01 +6.54454329243E-01
1.04500000000E+09 -6.08942861107E-01 +7.44989519305E-01 +1.77295263064E-06 +3.71582912309E-06 +2.28286641136E-05 +2.40370066227E-05 -7.24050934179E-01 +6.57955610467E-01
1.05000000000E+09 -6.01834134953E-01 +7.49237346378E-01 +2.36633215932E-05 -2.48155523680E-05 -1.53735166263E-06 -1.06655472828E-05 -7.20656477540E-01 +6.61447448821E-01
1.05500000000E+09 -5.93702113896E-01 +7.53874968103E-01 +1.05483409765E-05 +9.21680883329E-06 +4.48649115964E-06 -3.22374496474E-06 -7.17426763377E-01 +6.64970590987E-01
1.06000000000E+09 -5.85092904728E-01 +7.58937834356E-01 +5.19423008571E-06 +1.76675526370E-05 +2.72287487369E-05 +6.59800176404E-05 -7.13948864331E-01 +6.68805114759E-01
1.06500000000E+09 -5.76835243307E-01 +7.64029262333E-01 -9.93597409560E-07 +8.20886866567E-06 +1.59935085273E-05 +3.79763191003E-05 -7.10313770904E-01 +6.72585805405E-01
1.07000000000E+09 -5.69766314505E-01 +7.68208343713E-01 +1.91725940066E-05 +4.33617192619E-05 -1.71414948021E-05 +3.19228710083E-05 -7.06450975990E-01 +6.76279942514E-01
1.07500000000E+09 -5.64151224413E-01 +7.72189117495E-01 +5.29343525454E-05 +2.03916273139E-05 +1.85960782540E-05 -6.69950409322E-06 -7.02022513255E-01 +6.79876833893E-01
1.08000000000E+09 -5.60324435361E-01 +7.75140088406E-01 -3.10977683830E-05 -2.68944056492E-05 +1.76814197716E-05 +2.26707547939E-05 -6.98040068617E-01 +6.83847805554E-01
1.08500000000E+09 -5.57611385320E-01 +7.77335270349E-01 +4.93614828159E-05 +2.18516379933E-05 +3.14019023792E-05 +2.59898188639E-05 -6.94079071763E-01 +6.87585672024E-01
1.09000000000E+09 -5.55626643346E-01 +7.79243193592E-01 -1.20272036710E-05 +3.11048577627E-05 +2.93911975310E-06 +1.82239066930E-05 -6.90039831508E-01 +6.91412124155E-01
1.09500000000E+09 -5.53679813942E-01 +7.80707768767E-01 +1.90723824821E-05 +2.18088607199E-05 +5.40493585655E-05 +3.13586773223E-05 -6.86296578435E-01 +6.95461365880E-01
1.10000000000E+09 -5.50478968567E-01 +7.82688937724E-01 +3.25256497630E-05 -5.54993659207E-06 -2.16446371367E-05 +4.43796699023E-05 -6.82446193713E-01 +6.99186768878E-01
1.10500000000E+09 -5.46296531235E-01 +7.85258809452E-01 +6.97520017150E-05 -1.13240037655E-05 +5.43849431027E-05 -3.23085630669E-05 -6.78254742283E-01 +7.02807988880E-01
1.11000000000E+09 -5.40582105377E-01 +7.88401078870E-01 +9.97639812581E-06 -3.78883664044E-05 +1.97787378838E-05 +1.62903925658E-05 -6.73910240135E-01 +7.06245815142E-01
1.11500000000E+09 -5.33337645967E-01 +7.92291101466E-01 +2.00852107808E-05 -2.96867406583E-05 +2.89311400774E-05 +1.75213265841E-05 -6.69755901191E-01 +7.09554854112E-01
1.12000000000E+09 -5.25865155122E-01 +7.96224901167E-01 +2.93575935012E-05 -8.70990395225E-06 -8.33509309840E-06 -1.53867253658E-05 -6.65755020723E-01 +7.13377145277E-01
1.12500000000E+09 -5.17701336512E-01 +8.00434478218E-01 -9.15495491750E-06 -1.16762468732E-05 +1.60460494810E-05 -2.62040195120E-05 -6.61342542166E-01 +7.17318588544E-01
1.13000000000E+09 -5.10629327207E-01 +8.03891584630E-01 +2.35695513242E-05 +4.06417414587E-05 -3.57258564063E-05 -1.71007018954E-05 -6.57177468619E-01 +7.21083341859E-01
1.13500000000E+09 -5.04321685038E-01 +8.06744454332E-01 +1.83888771387E-05 -5.22216072345E-06 +3.11433691557E-05 +4.50067651269E-05 -6.52703635242E-01 +7.24919436974E-01
1.14000000000E+09 -4.99278472440E-01 +8.09279340852E-01 +1.65734858806E-05 -3.21090821323E-05 +2.22276189030E-05 +4.72892772425E-06 -6.48004642303E-01 +7.28362146141E-01
1.14500000000E+09 -4.95270210260E-01 +8.10867955684E-01 +3.79863311444E-05 -6.25799391158E-06 +4.92546162014E-05 +1.74139076118E-06 -6.43466666139E-01 +7.31743979569E-01
1.15000000000E+09 -4.91450311386E-01 +8.12298715337E-01 +8.46722994430E-06 -3.50292863545E-05 +1.90548989719E-05 +8.61904067719E-06 -6.38703863616E-01 +7.35694526721E-01
1.15500000000E+09 -4.87582717962E-01 +8.14062923675E-01 +6.72312146785E-05 -3.55113568199E-05 +3.76056823953E-06 -5.59566601342E-05 -6.33869452011E-01 +7.39523818810E-01
1.16000000000E+09 -4.82723022540E-01 +8.15838879377E-01 +2.02918053830E-05 +9.85020673143E-08 +2.87656061734E-05 +9.29162852058E-06 -6.28970901048E-01 +7.43326087015E-01
1.16500000000E+09 -4.76672107793E-01 +8.18555979137E-01 +3.40923671688E-05 -1.52098530449E-05 +3.10050025945E-05 +2.33117517194E-05 -6.23988837815E-01 +7.46976561464E-01
1.17000000000E+09 -4.69551231077E-01 +8.21625363101E-01 +1.22023975613E-06 -1.68782114665E-06 +5.52631863291E-05 -2.91018164426E-05 -6.18491207209E-01 +7.50443031307E-01
1.17500000000E+09 -4.61402694876E-01 +8.25074110932E-01 +1.10832788744E-05 -3.53581012362E-05 +2.40318929884E-05 -1.53780901659E-05 -6.12819769995E-01 +7.53563201470E-01
1.18000000000E+09 -4.53215109659E-01 +8.28757463274E-01 +5.48020580952E-05 -3.08135959841E-06 +6.48157589406E-05 +7.73872672579E-06 -6.07357676741E-01 +7.56828799181E-01
1.18500000000E+09 -4.45063523225E-01 +8.32002350172E-01 +7.33857543902E-05 -3.80382871105E-05 +1.98206919400E-05 -4.90012462890E-05 -6.01185110086E-01 +7.59888505390E-01
1.19000000000E+09 -4.37771777278E-01 +8.34881520163E-01 +4.06799197842E-05 -8.72233051590E-05 +1.05124015803E-04 -4.84127208939E-05 -5.94973146085E-01 +7.62608415460E-01
1.19500000000E+09 -4.31655405570E-01 +8.36737391065E-01 -1.06116528998E-05 -9.94576593790E-05 +1.87969795754E-05 -1.31750281788E-04 -5.88887875739E-01 +7.63820231980E-01
1.20000000000E+09 -4.26364315366E-01 +8.37699483658E-01 -3.91059283227E-05 -1.61821116152E-04 -7.98944145383E-05 -1.12683891388E-04 -5.84356743734E-01 +7.64117317559E-01
1.20500000000E+09 -4.21850846982E-01 +8.38712980383E-01 -1.32656172258E-04 -6.87082387384E-05 -1.13578416572E-04 -1.11106452527E-04 -5.82249252721E-01 +7.64817367068E-01
1.21000000000E+09 -4.17192422313E-01 +8.39689127512E-01 -9.60173577923E-05 -4.55122407086E-05 -1.41996950928E-04 -3.11925118703E-05 -5.80315842853E-01 +7.67802161738E-01
1.21500000000E+09 -4.11404381693E-01 +8.41175706065E-01 -9.53126839514E-05 +6.26065915016E-06 -8.43231061353E-05 -9.45656353536E-06 -5.77620910391E-01 +7.72270014308E-01
1.22000000000E+09 -4.04496188285E-01 +8.42949756589E-01 -5.37423693417E-05 +3.24358637715E-05 -5.38593673040E-05 +3.48172469203E-05 -5.73578791826E-01 +7.77813021168E-01
1.22500000000E+09 -3.96063432104E-01 +8.45607863833E-01 -1.63602054382E-05 -8.99249914846E-06 -3.99641793019E-05 +1.33129842222E-05 -5.68336115694E-01 +7.82873388102E-01
1.23000000000E+09 -3.86669291018E-01 +8.48528553134E-01 -2.34029444331E-05 +8.19409593639E-06 +1.75329982505E-05 +5.81405463733E-06 -5.62646977918E-01 +7.87455918401E-01
1.23500000000E+09 -3.76914122871E-01 +8.52092610488E-01 -2.43867803268E-05 -4.05522783670E-06 -4.01677586429E-05 -1.15199941077E-06 -5.56893635082E-01 +7.91911518412E-01
1.24000000000E+09 -3.67305574734E-01 +8.55779880215E-01 -3.13254505008E-05 -3.76613533281E-05 -8.04614040263E-05 -3.91893953871E-05 -5.50815788373E-01 +7.95919717568E-01
1.24500000000E+09 -3.58631897363E-01 +8.59633583029E-01 -1.81948336457E-05 -5.69212018078E-05 -4.88103537140E-05 -3.37839089683E-05 -5.44476495199E-01 +7.99765583777E-01
1.25000000000E+09 -3.50922148985E-01 +8.62902523612E-01 -7.54033384213E-05 -1.50582423321E-05 -4.93847761512E-05 -1.14286912964E-05 -5.37837849774E-01 +8.04145043172E-01
1.25500000000E+09 -3.44159024331E-01 +8.65041102390E-01 -5.13815058805E-05 -9.36386660752E-06 -8.16419430577E-05 +1.68413352153E-05 -5.30899723588E-01 +8.08084945415E-01
1.26000000000E+09 -3.38167960091E-01 +8.66304987695E-01 -7.27155733076E-05 +8.06618292726E-06 -2.07007815511E-05 -2.45506084319E-05 -5.24221152130E-01 +8.12389471835E-01
1.26500000000E+09 -3.32423102145E-01 +8.67024350563E-01 -5.03033829682E-05 -1.59180960947E-05 -7.75854457955E-05 +2.21656031875E-05 -5.17106770283E-01 +8.16315093880E-01
1.27000000000E+09 -3.26127951157E-01 +8.67549121546E-01 -7.76083331855E-05 -4.42390769319E-06 -7.43179445379E-05 -1.19207101371E-05 -5.10287467521E-01 +8.20138241704E-01
1.27500000000E+09 -3.18407445724E-01 +8.68087254286E-01 -1.23297626104E-04 +3.00528091526E-05 -6.66775362818E-05 +1.76563867605E-05 -5.03300413750E-01 +8.23693701137E-01
1.28000000000E+09 -3.09054423890E-01 +8.69069995088E-01 -9.04942743281E-05 +1.97165143138E-05 -1.14479551029E-04 +1.85251679859E-05 -4.96317458397E-01 +8.27168594826E-01
1.28500000000E+09 -2.97650197098E-01 +8.70622697867E-01 -9.10600544286E-05 +4.49761382014E-05 -1.29836002917E-04 +6.05268950085E-05 -4.88881687247E-01 +8.30886897146E-01
1.29000000000E+09 -2.85607906923E-01 +8.72901167934E-01 -6.15075769020E-05 +6.41085498669E-05 -6.98608617270E-05 +5.90088089721E-05 -4.81352623798E-01 +8.34673253421E-01
1.29500000000E+09 -2.73094150661E-01 +8.75832769444E-01 -8.90545904792E-05 +3.10151461565E-05 -6.88406371395E-05 +6.69975407923E-05 -4.73412235513E-01 +8.38222496730E-01
1.30000000000E+09 -2.60945680327E-01 +8.79350681265E-01 -8.11896049118E-05 +5.12992160626E-05 -1.02247210403E-04 +5.39406030837E-05 -4.65426876886E-01 +8.41830006070E-01
1.30500000000E+09 -2.50240364458E-01 +8.82567614618E-01 -9.72279249516E-05 +6.64313721963E-05 -1.08306464479E-04 +5.78374855011E-05 -4.57306185848E-01 +8.45277214698E-01
1.31000000000E+09 -2.41002381686E-01 +8.85362921589E-01 -7.99987259735E-05 +1.06706510601E-04 -5.80446720995E-05 +1.02148505029E-04 -4.48877545838E-01 +8.48868111313E-01
1.31500000000E+09 -2.33618812413E-01 +8.87112687520E-01 -3.79525543624E-05 +9.83638645462E-05 -4.36427246794E-05 +1.01870277505E-04 -4.40065569421E-01 +8.52219238269E-01
1.32000000000E+09 -2.27635596949E-01 +8.87844200505E-01 -5.42680989182E-05 +9.58908962240E-05 -6.48186537907E-05 +7.32431413494E-05 -4.30874532906E-01 +8.55617065040E-01
1.32500000000E+09 -2.22139381989E-01 +8.87663988891E-01 +6.17966609666E-06 +1.14786048816E-04 -1.62197728947E-05 +1.46735451989E-04 -4.21194229767E-01 +8.59026139536E-01
1.33000000000E+09 -2.15692375870E-01 +8.87186576421E-01 -1.55339560606E-05 +1.35096611244E-04 +5.52265647085E-07 +1.46142856925E-04 -4.11399851490E-01 +8.62414045533E-01
1.33500000000E+09 -2.07552325449E-01 +8.86446920566E-01 +2.11738505892E-05 +1.56877006527E-04 +4.59494094075E-05 +1.15068920418E-04 -4.01423552307E-01 +8.65861645975E-01
1.34000000000E+09 -1.96968049704E-01 +8.85897328315E-01 +1.05837714686E-05 +1.24236082961E-04 +1.65311210995E-05 +1.47887270160E-04 -3.91042741145E-01 +8.69069902083E-01
1.34500000000E+09 -1.83797313849E-01 +8.85625467936E-01 -2.57765500228E-05 +1.55895375585E-04 -3.96213952426E-05 +1.04650416094E-04 -3.80118293985E-01 +8.72348151305E-01
1.35000000000E+09 -1.68598265312E-01 +8.85895956251E-01 +1.26384001689E-05 +1.64341656040E-04 -2.43821361618E-06 +1.69904255326E-04 -3.68932195718E-01 +8.75450727247E-01
1.35500000000E+09 -1.52113900714E-01 +8.86674246166E-01 +3.01824312673E-05 +2.09178286878E-04 +1.73808057596E-05 +1.74588428558E-04 -3.57217564280E-01 +8.78404207941E-01
1.36000000000E+09 -1.35680467388E-01 +8.87445095417E-01 +3.59883744612E-05 +2.37317305264E-04 +1.01750711848E-05 +1.61476809140E-04 -3.45185348748E-01 +8.81019804716E-01
1.36500000000E+09 -1.19815291569E-01 +8.88143187201E-01 +7.98199143065E-05 +3.04314463432E-04 +1.11089645316E-04 +2.53440796324E-04 -3.33151880135E-01 +8.83542895468E-01
1.37000000000E+09 -1.05691686625E-01 +8.88223373556E-01 +1.45811737576E-04 +2.90562064379E-04 +1.74852774185E-04 +2.66597391108E-04 -3.20013656680E-01 +8.85808052040E-01
1.37500000000E+09 -9.38120168754E-02 +8.87725110092E-01 +2.58202583448E-04 +2.24368397139E-04 +2.69062681397E-04 +2.41249680478E-04 -3.06469715892E-01 +8.88031355438E-01
1.38000000000E+09 -8.31092910023E-02 +8.86541127368E-01 +2.43748205511E-04 +1.41789196136E-04 +2.62097989085E-04 +1.75807587132E-04 -2.91804179477E-01 +8.89879432858E-01
1.38500000000E+09 -7.25024523399E-02 +8.84825007054E-01 +2.32065955489E-04 +1.50360230412E-04 +2.64530718697E-04 +1.95468628219E-04 -2.76284605750E-01 +8.91788568719E-01
1.39000000000E+09 -6.09729653992E-02 +8.82054961985E-01 +3.15077631229E-04 +1.73286215834E-04 +2.94504772061E-04 +2.24495354871E-04 -2.60428193260E-01 +8.93002471589E-01
1.39500000000E+09 -4.74090354994E-02 +8.78505698660E-01 +3.55735028613E-04 +1.96567193431E-04 +3.99198983465E-04 +1.31534795893E-04 -2.43704436384E-01 +8.93743024000E-01
1.40000000000E+09 -3.13064655478E-02 +8.73857854585E-01 +4.54939847674E-04 +1.47263479247E-04 +4.79297911935E-04 +1.23775653139E-04 -2.25938134523E-01 +8.94317651925E-01
1.40500000000E+09 -1.30347325684E-02 +8.68901040764E-01 +5.88945411611E-04 +5.27853818815E-05 +6.01560337681E-04 -5.52120453955E-06 -2.07167565079E-01 +8.93969654440E-01
1.41000000000E+09 +7.40434246693E-03 +8.63644767738E-01 +5.39565258743E-04 -1.79711483779E-04 +5.63647577436E-04 -1.71223858160E-04 -1.87277859170E-01 +8.93110940016E-01
1.41500000000E+09 +2.92764009099E-02 +8.58148347481E-01 +5.37099189066E-04 -2.15659939767E-04 +5.50447160104E-04 -2.17306697586E-04 -1.65798982331E-01 +8.91594844202E-01
1.42000000000E+09 +5.20390145941E-02 +8.52277392518E-01 +4.82052621601E-04 -4.11894208804E-04 +5.59608146577E-04 -4.44613816285E-04 -1.43027445025E-01 +8.88825441811E-01
1.42500000000E+09 +7.46442753141E-02 +8.45079317524E-01 +3.09896930355E-04 -4.12228344229E-04 +3.57286488337E-04 -5.00377154084E-04 -1.19605879775E-01 +8.85313329103E-01
1.43000000000E+09 +9.61773867947E-02 +8.36492286324E-01 +3.76842409588E-04 -3.01972703216E-04 +3.86380423473E-04 -3.67464526697E-04 -9.47609897669E-02 +8.80734302603E-01
1.43500000000E+09 +1.16725615655E-01 +8.26304132376E-01 +4.46674907454E-04 -4.29414058845E-04 +4.32556150181E-04 -5.44291662453E-04 -6.84878585168E-02 +8.74023220947E-01
1.44000000000E+09 +1.37091908001E-01 +8.14395539834E-01 +4.83072033288E-04 -6.50192421462E-04 +4.26924699368E-04 -8.16565767688E-04 -4.04826308883E-02 +8.65398694243E-01
1.44500000000E+09 +1.58445508520E-01 +8.00182869014E-01 +2.89641702081E-04 -1.03243783364E-03 +2.32260650761E-04 -1.07639385818E-03 -1.06342569630E-02 +8.54177370387E-01
1.45000000000E+09 +1.81837491360E-01 +7.82696906028E-01 -1.25571007166E-04 -1.02773156499E-03 -2.21683616691E-04 -9.74437610903E-04 +2.10338161399E-02 +8.39748985132E-01
1.45500000000E+09 +2.06924864572E-01 +7.61821188278E-01 -3.72340392626E-04 -8.71249747937E-04 -4.35658328955E-04 -8.80057955360E-04 +5.41926821373E-02 +8.22209311940E-01
1.46000000000E+09 +2.35132098456E-01 +7.37542280419E-01 -5.06852733563E-04 -7.79153562835E-04 -6.14912259346E-04 -6.97931547678E-04 +8.87017918748E-02 +8.00797560740E-01
1.46500000000E+09 +2.65421768613E-01 +7.08922550778E-01 -5.29195615340E-04 -5.24284678297E-04 -5.10080003560E-04 -4.24991883703E-04 +1.24731227782E-01 +7.74479429286E-01
1.47000000000E+09 +2.96895633752E-01 +6.76120289233E-01 -2.76550819115E-04 -5.79896954236E-04 -2.68404110130E-04 -4.74114943303E-04 +1.61653963553E-01 +7.41634378038E-01
1.47500000000E+09 +3.28179041271E-01 +6.37577340617E-01 -5.41294718991E-04 -8.72767016438E-04 -5.27154027135E-04 -8.50249367104E-04 +1.99230617505E-01 +7.01739023792E-01
1.48000000000E+09 +3.56595085997E-01 +5.93253422587E-01 -9.62069558379E-04 -6.87219596642E-04 -9.52021287356E-04 -7.41817361352E-04 +2.36351247928E-01 +6.52978270532E-01
1.48500000000E+09 +3.81225505569E-01 +5.42968062325E-01 -9.48819973777E-04 -5.70194069595E-04 -1.03981588335E-03 -5.26894988662E-04 +2.71018928940E-01 +5.94636026586E-01
1.49000000000E+09 +4.00545036827E-01 +4.85033253355E-01 -1.30568378952E-03 -4.29714827625E-04 -1.32747096975E-03 -3.47838041302E-04 +2.99677037370E-01 +5.25896981267E-01
1.49500000000E+09 +4.13005538569E-01 +4.19001353410E-01 -1.60529072999E-03 -3.03390454220E-04 -1.54746851295E-03 -2.20010417848E-04 +3.20249825596E-01 +4.47118951101E-01
1.50000000000E+09 +4.16657099715E-01 +3.42590035444E-01 -1.78113819860E-03 +4.36051794830E-04 -1.65937124530E-03 +4.32163945834E-04 +3.27842754042E-01 +3.57143394802E-01
1.50500000000E+09 +4.06929620449E-01 +2.57271772516E-01 -1.34498274673E-03 +9.74617940271E-04 -1.24102787368E-03 +8.97442835459E-04 +3.16884046211E-01 +2.59251459717E-01
1.51000000000E+09 +3.81903510545E-01 +1.66048204546E-01 -9.99198008767E-04 +7.31750076010E-04 -1.01396319401E-03 +7.34587673035E-04 +2.85403817289E-01 +1.59594224334E-01
1.51500000000E+09 +3.38886842276E-01 +7.22188982637E-02 -1.31285449558E-03 +9.18501367959E-04 -1.30718392436E-03 +9.07892564129E-04 +2.33790497927E-01 +6.16375013133E-02
1.52000000000E+09 +2.74013903295E-01 -1.64501420809E-02 -1.46958148197E-03 +1.35813711318E-03 -1.46722810745E-03 +1.35994900363E-03 +1.58735058381E-01 -2.73114910964E-02
1.52500000000E+09 +1.91068277145E-01 -9.14570109333E-02 -9.63874279926E-04 +2.55720915396E-03 -9.04962540899E-04 +2.56648208253E-03 +6.36559619741E-02 -9.76219427429E-02
1.53000000000E+09 +9.11347984922E-02 -1.47214784200E-01 +1.34014459793E-04 +2.77470343344E-03 +9.93665889779E-05 +2.74554665238E-03 -4.22081335445E-02 -1.44816676627E-01
1.53500000000E+09 -1.90770820714E-02 -1.77802535767E-01 +1.58362643425E-03 +2.25772075198E-03 +1.55606991441E-03 +2.15023811587E-03 -1.54503510760E-01 -1.68933055343E-01
1.54000000000E+09 -1.33019173379E-01 -1.80262997638E-01 +1.49862863017E-03 +1.31730314008E-03 +1.44421089592E-03 +1.32647202063E-03 -2.66288322153E-01 -1.67434907673E-01
1.54500000000E+09 -2.41548000841E-01 -1.57386195361E-01 +1.65116821401E-03 +8.96925519105E-04 +1.56674525299E-03 +9.54824672299E-04 -3.66856680685E-01 -1.44944621373E-01
1.55000000000E+09 -3.39180843003E-01 -1.14726825697E-01 +1.60962005478E-03 +3.94424086987E-04 +1.55436871450E-03 +4.61632209852E-04 -4.54976230876E-01 -1.07624343061E-01
1.55500000000E+09 -4.21950439320E-01 -5.85676655915E-02 +1.36540638363E-03 +7.67138035266E-05 +1.39057559737E-03 +1.75991494757E-04 -5.27420975612E-01 -5.92148828655E-02
1.56000000000E+09 -4.88403857965E-01 +3.37974793627E-03 +1.39670322333E-03 +2.42938561946E-04 +1.45762313121E-03 +3.30428169795E-04 -5.85319645101E-01 -5.94598231931E-03
1.56500000000E+09 -5.40103577849E-01 +6.61312647111E-02 +1.70599686639E-03 -8.91487185609E-05 +1.82855913829E-03 -3.88834540871E-05 -6.30856859794E-01 +5.03852364640E-02
1.57000000000E+09 -5.79242588451E-01 +1.26666272026E-01 +1.86887327480E-03 -1.01464840154E-03 +2.00712064630E-03 -1.11759994071E-03 -6.65060074656E-01 +1.05764215227E-01
