# Hz S RI R 50
! CMT, C1220, 16058040, 17.2.0/1
! Date: 14/08/2018 11:47:34
! Data: Format (Calibration Info)
! Freq                      S11: Re/Im (F2)                       S21: Re/Im (F2)                       S12: Re/Im (F2)                       S22: Re/Im (F2)            
1.00000000000E+09 -6.46970237592E-01 +7.15243189840E-01 -1.01817564071E-05 +3.73419255647E-06 +1.98710559259E-05 -4.14741692847E-06 -7.55180259420E-01 +6.24428008449E-01
1.00500000000E+09 -6.39974246102E-01 +7.20379748166E-01 -8.27867553256E-06 +3.83471214598E-05 -1.25104105121E-05 -1.48562639384E-05 -7.51622003905E-01 +6.28542712671E-01
1.01000000000E+09 -6.33766352308E-01 +7.24850106837E-01 -1.73618867507E-05 -1.34133849784E-06 +2.87960214879E-05 -3.94364271036E-06 -7.48082751155E-01 +6.32176977061E-01
1.01500000000E+09 -6.29121408131E-01 +7.28476411905E-01 +2.69626166540E-05 -6.45685567908E-05 +3.47197728231E-06 +2.28017051802E-05 -7.44771999064E-01 +6.36079571711E-01
1.02000000000E+09 -6.25292349723E-01 +7.31983714853E-01 +3.23227494302E-05 +5.79885083844E-06 -3.03484128864E-06 +2.43575081350E-05 -7.41169929136E-01 +6.39691943216E-01
1.02500000000E+09 -6.22403214271E-01 +7.34476132310E-01 -4.35023146830E-05 +1.38125508199E-05 -4.97321945359E-06 +4.06988405555E-05 -7.37977975886E-01 +6.43345729433E-01
1.03000000000E+09 -6.20098254883E-01 +7.36886423765E-01 -4.53681409351E-06 +2.76493568887E-05 -1.10841680735E-05 +1.65717316085E-05 -7.34801474007E-01 +6.47205128881E-01
1.03500000000E+09 -6.17000288402E-01 +7.39245151509E-01 -3.69893591330E-05 -2.01524518862E-05 +3.70240647007E-05 -2.39827617477E-05 -7.31069037591E-01 +6.50989178437E-01
1.04000000000E+09 -6.12825827013E-01 +7.42168750261E-01 +3.18025991853E-05 -1.26143624355E-05 +1.88667697628E-05 -5.03133663978E-06 -7.27215517085E-01 +6.54911792032E-01
1.04500000000E+09 -6.07135899856E-01 +7.45650748051E-01 -6.00539800933E-06 +5.55982137494E-05 -1.18186609258E-05 -1.45957741329E-05 -7.23922386948E-01 +6.58392219169E-01
1.05000000000E+09 -6.00094090384E-01 +7.49982789007E-01 +2.77173630360E-05 +2.87864333605E-05 +1.65113906086E-05 +5.02841503569E-05 -7.20344433103E-01 +6.61791074701E-01
1.05500000000E+09 -5.92060429278E-01 +7.54620763426E-01 -6.11662606552E-06 +2.58565083584E-05 +4.93472529158E-05 -1.44909860535E-05 -7.17204063242E-01 +6.65422907571E-01
1.06000000000E+09 -5.83403860146E-01 +7.59591887414E-01 -1.06916857573E-06 +4.52903479929E-05 -5.57698763080E-06 +3.55425051011E-05 -7.13754156633E-01 +6.69027708282E-01
1.06500000000E+09 -5.75280532096E-01 +7.64655661219E-01 +1.81648227181E-05 -5.90903119110E-06 -2.01227557833E-06 +4.88332291216E-06 -7.10163352212E-01 +6.72782022507E-01
1.07000000000E+09 -5.68272664271E-01 +7.69061235436E-01 +4.00026892355E-05 +2.88382166002E-06 +2.21633348428E-05 +2.98690055210E-05 -7.06219050526E-01 +6.76541480207E-01
1.07500000000E+09 -5.62516675599E-01 +7.72811634572E-01 +3.74243926291E-05 +1.93871727746E-05 -2.08165995690E-05 +3.29131283548E-05 -7.01944035770E-01 +6.80380167156E-01
1.08000000000E+09 -5.58460469217E-01 +7.75884200083E-01 -1.03917500220E-05 +6.35421827618E-06 +2.33134536013E-05 +3.70169924081E-05 -6.97855771788E-01 +6.84232650938E-01
1.08500000000E+09 -5.55646611122E-01 +7.78064702327E-01 +4.45560310767E-05 +4.09348056492E-05 +3.96692656821E-05 +5.96232218153E-05 -6.93862424954E-01 +6.87860988174E-01
1.09000000000E+09 -5.53377073278E-01 +7.79826298727E-01 -9.81700621007E-06 +4.97411500036E-05 +1.96728240014E-05 +7.32453524732E-06 -6.89868061436E-01 +6.91917253911E-01
1.09500000000E+09 -5.51448218496E-01 +7.81494075401E-01 +3.07108244619E-05 +1.36846872277E-07 +6.76337322239E-05 -1.31133449165E-05 -6.86075423257E-01 +6.95712563384E-01
1.10000000000E+09 -5.48193971664E-01 +7.83421764905E-01 -2.42223596053E-06 +8.94403901184E-07 +9.31816822453E-06 -3.50821623723E-05 -6.82149731623E-01 +6.99504770110E-01
1.10500000000E+09 -5.43936234117E-01 +7.86088443233E-01 +3.78901926472E-05 +1.65800676593E-05 +4.19463104263E-05 -1.89734256004E-05 -6.78102465712E-01 +7.03160331915E-01
1.11000000000E+09 -5.38040573063E-01 +7.89262962601E-01 -7.44265921695E-06 +1.55264265946E-06 +2.79018908469E-05 +2.96247691692E-05 -6.73856640719E-01 +7.06463505117E-01
1.11500000000E+09 -5.31063759377E-01 +7.93082834017E-01 +3.31358840525E-05 -2.57030603790E-05 +6.51325515040E-06 +1.63074567695E-06 -6.69799310968E-01 +7.09928364569E-01
1.12000000000E+09 -5.23446141639E-01 +7.97063904614E-01 +3.11989636007E-06 +4.40147477500E-05 +2.18262133272E-05 -2.64540437203E-05 -6.65532990630E-01 +7.13784584177E-01
1.12500000000E+09 -5.15642815972E-01 +8.01127153477E-01 +3.71106597605E-05 -2.49091542214E-05 +4.10828275801E-05 -3.41766502348E-05 -6.61111974915E-01 +7.17768195827E-01
1.13000000000E+09 -5.08497846832E-01 +8.04706252379E-01 +1.86726274968E-05 +2.27925026576E-05 +2.31119043671E-05 -9.87885812778E-06 -6.56976529483E-01 +7.21430539750E-01
1.13500000000E+09 -5.02235913832E-01 +8.07379786075E-01 +2.12111008478E-05 -2.43567340350E-05 -2.07875291532E-05 -4.31470791060E-05 -6.52512615931E-01 +7.25135924616E-01
1.14000000000E+09 -4.96911050912E-01 +8.09958021614E-01 +3.39498149027E-05 -2.21540877248E-05 -1.85159255703E-07 -3.37052019782E-05 -6.47871720135E-01 +7.28771182207E-01
1.14500000000E+09 -4.92798397483E-01 +8.11608869600E-01 +3.12220683341E-05 +8.91328312902E-06 -3.96437886221E-05 -4.52915795551E-05 -6.43291532362E-01 +7.32179517297E-01
1.15000000000E+09 -4.88817040963E-01 +8.13010006837E-01 +7.09254100682E-06 -1.08323907453E-05 +3.98552203390E-06 -1.60190592628E-05 -6.38417051322E-01 +7.35924388569E-01
1.15500000000E+09 -4.84677227463E-01 +8.14677635141E-01 +3.10191440821E-05 -4.59554229961E-05 -2.38994971895E-06 -1.48744785593E-05 -6.33583013440E-01 +7.39884880331E-01
1.16000000000E+09 -4.79745273910E-01 +8.16637373971E-01 +5.24287228691E-05 +7.23378920651E-06 +1.75097889191E-05 +3.39208951252E-05 -6.28804962876E-01 +7.43619904926E-01
1.16500000000E+09 -4.73706258555E-01 +8.19306976662E-01 +2.02288957444E-05 -1.66351570110E-05 +2.15361516456E-05 -1.06789492291E-05 -6.23600236075E-01 +7.47363677716E-01
1.17000000000E+09 -4.66354164636E-01 +8.22388226265E-01 -7.62057561842E-06 +1.62351669846E-05 +6.37812138799E-05 -2.35589109472E-05 -6.18274937220E-01 +7.50820829340E-01
1.17500000000E+09 -4.58487312329E-01 +8.25768320943E-01 +5.12684576630E-05 -3.80001208746E-05 +4.20674622998E-05 -4.24489371013E-05 -6.12560651050E-01 +7.53951658580E-01
1.18000000000E+09 -4.50254991701E-01 +8.29196902509E-01 +5.98669767735E-05 -7.10280139059E-05 +4.11218877052E-05 -2.14598542370E-05 -6.06970764087E-01 +7.57184222279E-01
1.18500000000E+09 -4.42270056299E-01 +8.32565530277E-01 +9.70619655640E-05 -6.21272104475E-05 +8.97093569304E-05 -5.25607609372E-05 -6.01042052396E-01 +7.60253055527E-01
1.19000000000E+09 -4.34804919772E-01 +8.35159257745E-01 +7.16228110718E-05 -8.47754855671E-05 +4.29901390335E-05 -8.65605214890E-05 -5.94534685918E-01 +7.62971590965E-01
1.19500000000E+09 -4.28589980180E-01 +8.37190994374E-01 +4.93927954704E-05 -1.36980345101E-04 -3.83806007852E-06 -1.31003649261E-04 -5.88664747751E-01 +7.64205870615E-01
1.20000000000E+09 -4.23169994139E-01 +8.38102984784E-01 -9.47651729223E-05 -1.72436063792E-04 -6.42941919654E-05 -1.16123496504E-04 -5.84048166623E-01 +7.64456066709E-01
1.20500000000E+09 -4.18434060710E-01 +8.39040209921E-01 -1.28674922870E-04 -1.06484942199E-04 -1.73853721787E-04 -1.20877731287E-04 -5.81916989711E-01 +7.65282623051E-01
1.21000000000E+09 -4.13555872370E-01 +8.40085424055E-01 -1.01017038659E-04 -1.69991637092E-05 -1.16732723887E-04 +5.14938796663E-06 -5.80058505059E-01 +7.68158443121E-01
1.21500000000E+09 -4.07665673786E-01 +8.41535259574E-01 -9.92025447938E-05 +6.83001440016E-05 -1.05927361271E-04 +8.28245689489E-06 -5.77351909115E-01 +7.72723075532E-01
1.22000000000E+09 -4.00558921883E-01 +8.43338463032E-01 -7.56647005152E-05 +1.74142346064E-05 -5.85024387175E-05 -4.64777519027E-06 -5.73170262298E-01 +7.77967990087E-01
1.22500000000E+09 -3.92130432538E-01 +8.45739189956E-01 -1.10153548591E-05 +2.08153441503E-05 +1.05615506344E-05 +3.21377573866E-05 -5.68050814988E-01 +7.83102450301E-01
1.23000000000E+09 -3.82705706897E-01 +8.48808965224E-01 -1.59657749589E-05 -1.58397649323E-05 -2.16179927145E-05 +3.12739061230E-05 -5.62339488204E-01 +7.87939277165E-01
1.23500000000E+09 -3.73058446688E-01 +8.52227015710E-01 +8.61834080754E-07 -5.26638137067E-07 -3.21760875025E-05 +1.95787379109E-06 -5.56331774886E-01 +7.92277045254E-01
1.24000000000E+09 -3.63548279376E-01 +8.55910616193E-01 -3.01827255441E-05 +9.77310363287E-06 -2.71501311318E-05 -3.50292618017E-05 -5.50524954103E-01 +7.96183550900E-01
1.24500000000E+09 -3.54993268359E-01 +8.59799527541E-01 -4.12665991376E-05 -6.91793501684E-06 -1.56444257212E-05 -1.33271387911E-05 -5.44067919240E-01 +8.00161363669E-01
1.25000000000E+09 -3.47165959800E-01 +8.62645152470E-01 -5.51784618957E-05 -2.39108200258E-05 -6.54539904505E-05 -7.73932112948E-05 -5.37238334939E-01 +8.04305840997E-01
1.25500000000E+09 -3.40326026086E-01 +8.64807319649E-01 -6.38428133950E-05 +2.52417583826E-06 -3.34006160087E-05 +8.52380751269E-07 -5.30584909138E-01 +8.08320760961E-01
1.26000000000E+09 -3.34106966766E-01 +8.66109170746E-01 -4.64609818029E-05 +2.53298199304E-06 -1.46595683658E-05 -1.94816251342E-05 -5.23737551876E-01 +8.12687492622E-01
1.26500000000E+09 -3.28112026737E-01 +8.66601794983E-01 -8.71564040132E-06 +1.29701115837E-05 -4.17695770243E-05 +9.87314263291E-06 -5.16752618351E-01 +8.16557160804E-01
1.27000000000E+09 -3.21609989911E-01 +8.67057485179E-01 -4.17672550479E-05 +2.17678749836E-06 -3.07567398878E-05 -1.42899975510E-05 -5.09853596072E-01 +8.20429576841E-01
1.27500000000E+09 -3.13849670270E-01 +8.67468994463E-01 -9.16180820498E-05 -1.37591183754E-05 -3.25033910890E-05 +3.44730873417E-07 -5.02933373498E-01 +8.24108020586E-01
1.28000000000E+09 -3.04309788887E-01 +8.68342514924E-01 -7.38268489535E-05 +2.61028754228E-05 -6.59045013097E-05 +1.55690060327E-05 -4.95886421125E-01 +8.27380413601E-01
1.28500000000E+09 -2.93110220592E-01 +8.69926816547E-01 -5.07350163049E-05 +1.78267810969E-05 -6.91221440672E-05 +2.42559739984E-05 -4.88464279841E-01 +8.31147925827E-01
1.29000000000E+09 -2.81145627045E-01 +8.72070692785E-01 -6.69877826438E-05 +9.79277707804E-06 -8.71321898647E-05 +1.98020824226E-05 -4.80940350462E-01 +8.34903057916E-01
1.29500000000E+09 -2.68812981981E-01 +8.74951123371E-01 -6.92866921095E-05 +4.80516380143E-05 -4.63139223097E-05 +5.91382878923E-05 -4.72872734392E-01 +8.38361802068E-01
1.30000000000E+09 -2.56977561489E-01 +8.78444781053E-01 -7.69067896241E-05 +4.33885174403E-05 -7.34754970494E-05 +6.57216421477E-06 -4.65063049270E-01 +8.42082043746E-01
1.30500000000E+09 -2.46451963224E-01 +8.81828978906E-01 -9.24663794876E-05 +5.48873790846E-05 -6.35977539905E-05 +6.34753727366E-05 -4.56916638009E-01 +8.45497330774E-01
1.31000000000E+09 -2.37177202634E-01 +8.84636012214E-01 -8.37031320204E-05 +8.40570604193E-05 -1.46631037749E-04 +1.01342815693E-04 -4.48446361198E-01 +8.48959732927E-01
1.31500000000E+09 -2.29538481648E-01 +8.86351624654E-01 -1.06316819513E-04 +9.23852457582E-05 -1.27853559041E-04 +1.07920858948E-04 -4.39666167078E-01 +8.52394568264E-01
1.32000000000E+09 -2.23340884269E-01 +8.87134190946E-01 -4.15962129047E-05 +1.25004765599E-04 -9.43609268477E-05 +1.07921505740E-04 -4.30600480564E-01 +8.55814316925E-01
1.32500000000E+09 -2.17322011479E-01 +8.86887284250E-01 -6.41294388161E-05 +1.55160999866E-04 -1.89050241939E-06 +1.73343424968E-04 -4.20770255092E-01 +8.59219653821E-01
1.33000000000E+09 -2.10661570894E-01 +8.86241348227E-01 -6.48872210093E-06 +1.57424033052E-04 -4.21506728492E-06 +1.42627173478E-04 -4.10966603577E-01 +8.62521050020E-01
1.33500000000E+09 -2.02132886939E-01 +8.85472819195E-01 +1.62909635799E-05 +1.03723795452E-04 +5.78525504633E-05 +1.35871567787E-04 -4.00952255646E-01 +8.65884658328E-01
1.34000000000E+09 -1.91457497041E-01 +8.84777137079E-01 +3.03952493205E-05 +1.48042736131E-04 +1.23786706664E-05 +1.08159711128E-04 -3.90730159005E-01 +8.69059979218E-01
1.34500000000E+09 -1.78416519353E-01 +8.84422582954E-01 +8.39416257928E-06 +1.28760511890E-04 +4.76560830184E-05 +1.58570456805E-04 -3.79774633335E-01 +8.72397798309E-01
1.35000000000E+09 -1.63423223242E-01 +8.84458520694E-01 +5.19346314281E-06 +1.45412771170E-04 +1.85764970241E-05 +1.50078521320E-04 -3.68722608164E-01 +8.75390872471E-01
1.35500000000E+09 -1.47329369896E-01 +8.85190696188E-01 +6.26199844303E-05 +1.91623823911E-04 +4.44465098949E-05 +1.91483463451E-04 -3.57107371436E-01 +8.78392242183E-01
1.36000000000E+09 -1.30948562155E-01 +8.86002429473E-01 +7.43163160590E-05 +2.23158028608E-04 +7.22162452295E-05 +2.10351540288E-04 -3.45126471860E-01 +8.81066433400E-01
1.36500000000E+09 -1.15427142491E-01 +8.86623791086E-01 +1.24851040874E-04 +1.91291051447E-04 +1.14119412811E-04 +1.97296694772E-04 -3.32887124313E-01 +8.83567613399E-01
1.37000000000E+09 -1.01480494604E-01 +8.86425080360E-01 +1.79288296886E-04 +2.70090384853E-04 +1.78829713502E-04 +2.18641195916E-04 -3.20052247582E-01 +8.85951490962E-01
1.37500000000E+09 -8.94503168873E-02 +8.85844544059E-01 +3.06230945552E-04 +1.22582321407E-04 +2.79256527055E-04 +1.79689741249E-04 -3.06275346105E-01 +8.88027910727E-01
1.38000000000E+09 -7.87710271424E-02 +8.84424247088E-01 +2.22257747237E-04 +4.77523483603E-05 +2.52455785120E-04 +8.85269374308E-05 -2.91856580694E-01 +8.90156201959E-01
1.38500000000E+09 -6.79138923752E-02 +8.82354342705E-01 +2.15694541561E-04 +1.03058126765E-04 +2.55784102767E-04 +1.72989893431E-04 -2.76353217646E-01 +8.91987785584E-01
1.39000000000E+09 -5.62636243623E-02 +8.79474469710E-01 +2.44308471552E-04 +1.31687547706E-04 +2.81315305913E-04 +1.44913748609E-04 -2.60595709596E-01 +8.93259987191E-01
1.39500000000E+09 -4.27218795170E-02 +8.75641646886E-01 +3.03841325027E-04 +1.00403616798E-04 +3.46275111215E-04 +1.80232235841E-04 -2.43752069846E-01 +8.93994481510E-01
1.40000000000E+09 -2.66903373135E-02 +8.71061293814E-01 +4.23116769385E-04 +1.54079430918E-04 +4.18495518940E-04 +6.03618348947E-05 -2.26104291141E-01 +8.94594052948E-01
1.40500000000E+09 -8.64281138639E-03 +8.66168015417E-01 +5.20959847594E-04 -1.84419187562E-06 +5.18443815216E-04 -1.31033497578E-05 -2.07219290895E-01 +8.94270338358E-01
1.41000000000E+09 +1.14968640681E-02 +8.61028461524E-01 +4.83004526825E-04 -2.05960967611E-04 +5.26672250511E-04 -2.00746299590E-04 -1.87256031566E-01 +8.93399446842E-01
1.41500000000E+09 +3.31964928516E-02 +8.55710301545E-01 +4.51756139226E-04 -2.42343347486E-04 +4.82857993449E-04 -2.61886870336E-04 -1.65891780436E-01 +8.92048878987E-01
1.42000000000E+09 +5.59446586608E-02 +8.50211046712E-01 +4.08358154837E-04 -3.63784058022E-04 +4.31052614018E-04 -3.95884757584E-04 -1.43297257246E-01 +8.89287195731E-01
1.42500000000E+09 +7.86324780619E-02 +8.43088169298E-01 +3.25758906898E-04 -3.20909386272E-04 +2.98783066998E-04 -3.52409213541E-04 -1.19872527946E-01 +8.85892557246E-01
1.43000000000E+09 +1.00306501821E-01 +8.34401148576E-01 +3.78687098445E-04 -3.06511537992E-04 +3.31626300100E-04 -3.22277961715E-04 -9.50051372631E-02 +8.81313331208E-01
1.43500000000E+09 +1.21154450548E-01 +8.23730502086E-01 +4.30037190379E-04 -4.41849073364E-04 +4.10324568629E-04 -4.95028671134E-04 -6.87836333363E-02 +8.74843446290E-01
1.44000000000E+09 +1.41867630766E-01 +8.11549845087E-01 +4.10454413065E-04 -6.15631348315E-04 +3.59642028729E-04 -6.50501994822E-04 -4.06374799796E-02 +8.66476215452E-01
1.44500000000E+09 +1.63509354073E-01 +7.96858246843E-01 +2.68143661543E-04 -9.23787878194E-04 +2.08326382440E-04 -9.69647692049E-04 -1.06581560074E-02 +8.55363902992E-01
1.45000000000E+09 +1.87143344826E-01 +7.78783414767E-01 -8.92949226843E-05 -9.26185481757E-04 -1.31296812940E-04 -9.57475317996E-04 +2.11045427879E-02 +8.41258802462E-01
1.45500000000E+09 +2.12288835547E-01 +7.57720014874E-01 -2.72040384758E-04 -8.45861114118E-04 -4.10270428886E-04 -8.04815341459E-04 +5.44440388782E-02 +8.23875215085E-01
1.46000000000E+09 +2.40245315626E-01 +7.33141338521E-01 -4.21098163244E-04 -7.60103499956E-04 -4.72643517956E-04 -6.86973372217E-04 +8.91550082972E-02 +8.02463393614E-01
1.46500000000E+09 +2.70293143460E-01 +7.04434759975E-01 -4.68109668503E-04 -5.96661663924E-04 -4.43950451900E-04 -4.98829347755E-04 +1.25335960683E-01 +7.76462396417E-01
1.47000000000E+09 +3.01550575899E-01 +6.71483728717E-01 -3.72884266615E-04 -6.36749974145E-04 -3.29653096517E-04 -5.70235107226E-04 +1.62789443575E-01 +7.43943882067E-01
1.47500000000E+09 +3.32409378513E-01 +6.32889139427E-01 -6.26426836754E-04 -8.42833012126E-04 -5.29481814301E-04 -8.20259974417E-04 +2.01111831052E-01 +7.03925589650E-01
1.48000000000E+09 +3.60594300826E-01 +5.88529439594E-01 -9.59448580643E-04 -7.02229692899E-04 -9.32249970591E-04 -7.31982059220E-04 +2.38711630814E-01 +6.55089663591E-01
1.48500000000E+09 +3.84895959341E-01 +5.37916062535E-01 -1.02316496490E-03 -6.19026557851E-04 -1.05078002278E-03 -5.84716872661E-04 +2.73785176309E-01 +5.96411560587E-01
1.49000000000E+09 +4.03917476903E-01 +4.79598167996E-01 -1.42504132386E-03 -3.99533361328E-04 -1.47357701376E-03 -3.61364096562E-04 +3.03299051892E-01 +5.27432916865E-01
1.49500000000E+09 +4.16087000953E-01 +4.12948258908E-01 -1.74680855146E-03 -1.41593276112E-04 -1.69733839306E-03 -8.54419244175E-05 +3.24762228103E-01 +4.47756338189E-01
1.50000000000E+09 +4.19163976614E-01 +3.35665402825E-01 -1.75705129167E-03 +7.05889250716E-04 -1.60113416520E-03 +6.81537056521E-04 +3.32680019743E-01 +3.56746980035E-01
1.50500000000E+09 +4.08575570985E-01 +2.49890976043E-01 -1.30982090808E-03 +1.11986724017E-03 -1.29493479270E-03 +1.01550940454E-03 +3.22220428588E-01 +2.57510517578E-01
1.51000000000E+09 +3.83037755194E-01 +1.58368323005E-01 -9.65095487647E-04 +1.06737812801E-03 -1.03310428015E-03 +9.98152475442E-04 +2.90473047988E-01 +1.55468320418E-01
1.51500000000E+09 +3.39061280379E-01 +6.41282851605E-02 -1.12757450556E-03 +1.33344795768E-03 -1.20766701145E-03 +1.34585042039E-03 +2.37126847293E-01 +5.60537577031E-02
1.52000000000E+09 +2.72796920702E-01 -2.44155920720E-02 -9.11441258994E-04 +1.80745906515E-03 -9.55591039487E-04 +1.84143841524E-03 +1.60019323667E-01 -3.39750526289E-02
1.52500000000E+09 +1.87964556686E-01 -9.89222984055E-02 -1.77609861181E-05 +2.36694697457E-03 +8.04095572332E-06 +2.43789852338E-03 +6.22545242791E-02 -1.04001238713E-01
1.53000000000E+09 +8.64748963164E-02 -1.53152784627E-01 +6.52196655638E-04 +2.16012528932E-03 +6.60989805262E-04 +2.25581888057E-03 -4.53091247424E-02 -1.49659815107E-01
1.53500000000E+09 -2.48990984178E-02 -1.81810472466E-01 +1.77485262811E-03 +1.63073717345E-03 +1.83219958087E-03 +1.66472196157E-03 -1.58172981344E-01 -1.72624601697E-01
1.54000000000E+09 -1.39432942259E-01 -1.82246453204E-01 +1.48910780044E-03 +7.03818641462E-04 +1.47287636799E-03 +6.95381401306E-04 -2.70869201165E-01 -1.69771126197E-01
1.54500000000E+09 -2.47908755513E-01 -1.57533616829E-01 +1.48395565134E-03 +6.00476924231E-04 +1.54060608416E-03 +6.06657192807E-04 -3.71550813179E-01 -1.45588441087E-01
1.55000000000E+09 -3.45249760911E-01 -1.13240163944E-01 +1.57770891828E-03 -1.71894130935E-04 +1.60666396369E-03 -5.78357934984E-05 -4.58778133108E-01 -1.07153931050E-01
1.55500000000E+09 -4.26852755007E-01 -5.56119214511E-02 +9.87003762012E-04 -5.58011155343E-04 +1.03918620459E-03 -5.44693209078E-04 -5.31020802137E-01 -5.80736989389E-02
1.56000000000E+09 -4.92039925437E-01 +7.19352315423E-03 +6.54280655386E-04 -9.92421093310E-05 +6.81389158351E-04 -9.11739074686E-05 -5.88306576973E-01 -3.86640176039E-03
1.56500000000E+09 -5.42343927896E-01 +7.03680388074E-02 +9.46167372819E-04 -3.66902085901E-05 +9.92773457574E-04 -7.14781681579E-05 -6.32704585264E-01 +5.25511516421E-02
1.57000000000E+09 -5.80337016192E-01 +1.31375116885E-01 +1.26086428554E-03 -8.01406665763E-04 +1.30505367033E-03 -9.25283007601E-04 -6.66597931578E-01 +1.07680988948E-01
