# Hz S RI R 50
! CMT, C1220, 16058040, 17.2.0/1
! Date: 14/08/2018 11:46:31
! Data: Format (Calibration Info)
! Freq                      S11: Re/Im (F2)                       S21: Re/Im (F2)                       S12: Re/Im (F2)                       S22: Re/Im (F2)            
1.00000000000E+09 -6.48793966774E-01 +7.15170696933E-01 -8.28794497020E-06 -1.21551916635E-05 -9.49936529189E-06 +1.92317170425E-05 -7.54929032595E-01 +6.24409442948E-01
1.00500000000E+09 -6.41978357795E-01 +7.20104535404E-01 -2.16791346522E-05 +1.04104582269E-05 -3.33662108358E-05 -3.16161527338E-05 -7.51510800238E-01 +6.28602058720E-01
1.01000000000E+09 -6.35744584176E-01 +7.24627293962E-01 -5.94839899253E-05 +1.78573123050E-05 +2.41217969492E-05 -8.46305929982E-06 -7.47856827143E-01 +6.32400620727E-01
1.01500000000E+09 -6.31097653433E-01 +7.28363074607E-01 -5.41371521387E-06 -3.32272501218E-05 +4.32540834400E-05 +2.53455844151E-05 -7.44602612557E-01 +6.36281144195E-01
1.02000000000E+09 -6.27061767837E-01 +7.31555794286E-01 +6.23068661685E-06 -2.60882850012E-06 +4.15026940081E-05 -1.33867971530E-05 -7.40877463704E-01 +6.39846411180E-01
1.02500000000E+09 -6.24063486148E-01 +7.34309957364E-01 -3.05312347624E-05 -3.04528708624E-06 +3.49593552489E-05 -1.81475452553E-05 -7.37979551608E-01 +6.43635007782E-01
1.03000000000E+09 -6.21623829823E-01 +7.36735918255E-01 +1.31146754071E-06 +5.24542074555E-06 -4.87653435127E-05 +6.35667654542E-08 -7.34428316477E-01 +6.47364483694E-01
1.03500000000E+09 -6.18316960020E-01 +7.39398821740E-01 +6.57147813279E-06 +1.20584884090E-05 -4.87086827641E-05 +5.26863267192E-05 -7.30765060597E-01 +6.51216448264E-01
1.04000000000E+09 -6.13929627028E-01 +7.42287532587E-01 +3.80609872228E-06 -2.74941437447E-07 -9.51158011048E-06 +4.44119210793E-05 -7.27196712951E-01 +6.54986964205E-01
1.04500000000E+09 -6.08427808213E-01 +7.45893758672E-01 -2.75689600852E-05 -8.91791442046E-06 -3.43205717079E-05 +9.12271732730E-07 -7.23710235807E-01 +6.58418217866E-01
1.05000000000E+09 -6.01541294366E-01 +7.50236361865E-01 -4.65849672893E-05 -3.32513116162E-06 -2.57855593585E-05 +2.09947163579E-05 -7.20136423366E-01 +6.61931654787E-01
1.05500000000E+09 -5.93673740364E-01 +7.54690422586E-01 +3.91368639251E-06 -2.21888118844E-05 -3.94449876678E-05 +1.80547823499E-05 -7.16896031894E-01 +6.65651525544E-01
1.06000000000E+09 -5.85117570811E-01 +7.59843561478E-01 +6.01682870570E-06 +3.78501904305E-05 +3.74924127067E-05 -2.49640601455E-05 -7.13606038805E-01 +6.69251714478E-01
1.06500000000E+09 -5.77114839331E-01 +7.64689709992E-01 -4.31996885902E-06 +1.66361557590E-05 -3.82515798737E-05 +3.07798190689E-05 -7.09915693842E-01 +6.72947919567E-01
1.07000000000E+09 -5.70116751819E-01 +7.68913952879E-01 -8.80863770509E-06 +4.51219088137E-06 -5.20791867270E-05 +3.93082185539E-06 -7.06038082131E-01 +6.76741675107E-01
1.07500000000E+09 -5.64601323397E-01 +7.72471718890E-01 +1.85530281103E-05 +5.94123795024E-05 -3.07188218354E-05 +3.83264900770E-05 -7.01741238828E-01 +6.80379105264E-01
1.08000000000E+09 -5.60509131913E-01 +7.75683046521E-01 +2.88063866783E-05 -4.33870263108E-07 +7.13589089446E-06 +1.09404657261E-06 -6.97786640828E-01 +6.84400358948E-01
1.08500000000E+09 -5.57530564372E-01 +7.78013124996E-01 +3.49686823301E-05 +7.23966105623E-06 +8.18223849874E-06 +7.29146278720E-05 -6.93623119048E-01 +6.88119908340E-01
1.09000000000E+09 -5.55087204431E-01 +7.79988309151E-01 +2.65705616642E-05 +4.08402207040E-05 -2.64111155158E-05 -8.66158607380E-06 -6.89645230980E-01 +6.91981506786E-01
1.09500000000E+09 -5.53047907536E-01 +7.81852087908E-01 +1.48133810695E-05 +2.21213204462E-05 +2.11628783753E-05 -1.01752693458E-05 -6.85862232238E-01 +6.95926526736E-01
1.10000000000E+09 -5.49716680469E-01 +7.83850363790E-01 +2.86536763232E-06 -1.90025171132E-06 -6.52351055171E-06 -2.59141493137E-05 -6.81940045943E-01 +6.99745492111E-01
1.10500000000E+09 -5.45196849115E-01 +7.86432740111E-01 +5.78762305656E-07 +5.50263076608E-05 +3.77163602001E-06 -2.66717907328E-05 -6.77759658491E-01 +7.03249896808E-01
1.11000000000E+09 -5.39236104789E-01 +7.89485648160E-01 +3.70160025886E-05 -2.93601000789E-05 +2.35966026228E-05 +3.05712933343E-05 -6.73658158797E-01 +7.06545563966E-01
1.11500000000E+09 -5.32221280538E-01 +7.93275902223E-01 +1.49603815726E-05 +2.41292325566E-05 +2.15047886743E-05 +2.15740043856E-05 -6.69391433958E-01 +7.10030549669E-01
1.12000000000E+09 -5.24653148069E-01 +7.97222503602E-01 +4.56474268140E-06 +6.13192238431E-05 +6.88009857090E-07 -2.79795327930E-05 -6.65261713308E-01 +7.13827944147E-01
1.12500000000E+09 -5.16998796232E-01 +8.01177381329E-01 -8.00354794610E-06 -1.10957802528E-06 +5.39884142820E-05 +4.25026882562E-05 -6.60932179690E-01 +7.17679957601E-01
1.13000000000E+09 -5.10158997543E-01 +8.04686681533E-01 +5.61440898632E-05 -1.18539785655E-05 +8.06848763340E-06 +7.15942179553E-06 -6.56605612701E-01 +7.21671200341E-01
1.13500000000E+09 -5.03896266770E-01 +8.07507042500E-01 +2.69327599656E-05 -1.41981669053E-05 +2.08002133625E-05 -8.99237834626E-06 -6.52287236863E-01 +7.25395947667E-01
1.14000000000E+09 -4.98721923031E-01 +8.09989420141E-01 +2.08574855078E-05 -2.62504408200E-05 +2.61249643159E-05 -5.54944608310E-06 -6.47597147078E-01 +7.28909313740E-01
1.14500000000E+09 -4.94684399295E-01 +8.11792451069E-01 +2.69148393977E-05 +4.47755904460E-06 +5.69409577877E-05 +1.34593120328E-05 -6.42924793963E-01 +7.32368668393E-01
1.15000000000E+09 -4.90417192260E-01 +8.13297506887E-01 +2.08711085662E-05 -1.46087330381E-05 +6.00122950431E-05 -5.85560039278E-05 -6.38305601710E-01 +7.36030567360E-01
1.15500000000E+09 -4.86385231023E-01 +8.15247704233E-01 +2.66565198524E-05 -1.72511386629E-05 -3.09104274693E-05 -3.17440131034E-05 -6.33343085459E-01 +7.40007557248E-01
1.16000000000E+09 -4.81041254602E-01 +8.17074699113E-01 +1.66030374618E-05 -3.22063786286E-05 +2.26002104500E-06 -1.93849810866E-05 -6.28491106326E-01 +7.43832700194E-01
1.16500000000E+09 -4.74828078397E-01 +8.19781014350E-01 +5.93342832446E-05 -4.40325496539E-05 +5.52220598918E-05 -2.08538138883E-05 -6.23443309019E-01 +7.47518333975E-01
1.17000000000E+09 -4.67649347349E-01 +8.22835875976E-01 +3.32810999753E-05 -4.77899617635E-05 +1.17467192022E-04 -3.07980116053E-05 -6.18047361902E-01 +7.50908298843E-01
1.17500000000E+09 -4.59651141167E-01 +8.26122356231E-01 +6.10747344680E-05 -4.13188982487E-05 +6.65846814475E-05 +7.73933112586E-06 -6.12322240140E-01 +7.54089524119E-01
1.18000000000E+09 -4.51576227820E-01 +8.29535394959E-01 +8.61331297170E-05 -2.08334256212E-05 +1.81848227196E-05 -2.75269672381E-05 -6.06715141170E-01 +7.57362368367E-01
1.18500000000E+09 -4.43441877389E-01 +8.32816443519E-01 +9.74947875100E-05 -7.95358693628E-05 +1.12214381223E-04 -1.24249955441E-04 -6.00761636769E-01 +7.60399846588E-01
1.19000000000E+09 -4.36271904165E-01 +8.35379193266E-01 +8.53209340871E-05 -6.93299339282E-05 +4.26703595940E-05 -1.07967337773E-04 -5.94409511755E-01 +7.63098279469E-01
1.19500000000E+09 -4.29905535931E-01 +8.37291564637E-01 +6.54153391184E-05 -1.42102502442E-04 +8.72604649066E-05 -1.28564920878E-04 -5.88385531185E-01 +7.64485004186E-01
1.20000000000E+09 -4.24702187259E-01 +8.38234745409E-01 -1.53324922541E-05 -1.22628715381E-04 -5.43088135434E-05 -7.23183279320E-05 -5.83771038518E-01 +7.64617042869E-01
1.20500000000E+09 -4.20029202222E-01 +8.39455052427E-01 -9.19722968269E-05 -9.09718383905E-05 -1.00381109603E-04 -9.08257459876E-05 -5.81478310767E-01 +7.65348187126E-01
1.21000000000E+09 -4.15155175214E-01 +8.40552856067E-01 -5.85460568088E-05 -5.09163472293E-05 -1.08830251267E-04 -6.65683837476E-05 -5.79865725233E-01 +7.68331652126E-01
1.21500000000E+09 -4.09128545844E-01 +8.42146294178E-01 -6.95567620183E-05 -1.85568773506E-05 -6.50210732952E-05 -3.77108721022E-07 -5.77130694945E-01 +7.72759797558E-01
1.22000000000E+09 -4.01877526839E-01 +8.44065112325E-01 -1.47729806195E-05 +6.20613682611E-05 -5.85396960255E-05 +5.08871709364E-06 -5.72886306245E-01 +7.78207621666E-01
1.22500000000E+09 -3.93252589541E-01 +8.46575120077E-01 -4.73817889564E-06 +5.09104111864E-06 -2.04454660534E-05 +1.75381834023E-05 -5.67831255728E-01 +7.83401645172E-01
1.23000000000E+09 -3.83774090320E-01 +8.49398608035E-01 -6.12316125972E-06 -1.31455859792E-05 +1.56451929493E-06 -6.83997859967E-05 -5.62017852045E-01 +7.88242205993E-01
1.23500000000E+09 -3.74181231618E-01 +8.52808013018E-01 -3.45803014803E-06 -4.56543533083E-05 -2.33594309508E-05 -5.54834350431E-05 -5.56114000810E-01 +7.92545299977E-01
1.24000000000E+09 -3.64591768961E-01 +8.56282698940E-01 -5.50848345271E-05 -4.99379338216E-05 -6.43175402187E-05 -5.93918348632E-05 -5.50212730537E-01 +7.96440668704E-01
1.24500000000E+09 -3.56135681649E-01 +8.59919506113E-01 -7.87991947970E-05 -5.43002353196E-05 -6.76543590128E-05 -2.81703074136E-05 -5.43905500664E-01 +8.00205310701E-01
1.25000000000E+09 -3.48353622606E-01 +8.62917674767E-01 -6.49602948641E-05 -2.86710604642E-05 -5.33134381344E-05 -3.22601490507E-05 -5.37254830523E-01 +8.04459205128E-01
1.25500000000E+09 -3.41506788998E-01 +8.64966763152E-01 -6.61565296322E-05 +7.09396118070E-06 -7.74875531596E-05 -4.74754168189E-05 -5.30170314485E-01 +8.08530055437E-01
1.26000000000E+09 -3.35305688042E-01 +8.66462868603E-01 -4.31618824775E-05 -2.18050219743E-05 -4.74867248962E-05 -1.78284447756E-05 -5.23437710843E-01 +8.12929483595E-01
1.26500000000E+09 -3.29344954219E-01 +8.67136281424E-01 -1.05585568848E-04 -1.25955767037E-05 -1.02193186387E-05 -1.14253074197E-05 -5.16545641402E-01 +8.16751225109E-01
1.27000000000E+09 -3.22626268878E-01 +8.67718426963E-01 -1.26731674436E-05 -3.91500467738E-06 -4.13804943635E-05 -2.07133762166E-05 -5.09634748485E-01 +8.20562556086E-01
1.27500000000E+09 -3.14841073303E-01 +8.68458288680E-01 -3.92970058731E-05 -3.54405979269E-05 -8.33500326574E-05 -3.85069330488E-05 -5.02709587422E-01 +8.24186118432E-01
1.28000000000E+09 -3.05136802543E-01 +8.69386680254E-01 -1.22384846237E-04 -6.51852864130E-06 -1.13584177191E-04 -7.96751896653E-06 -4.95654610493E-01 +8.27666942698E-01
1.28500000000E+09 -2.93790779542E-01 +8.70890237972E-01 -1.08605881007E-04 -4.34870960836E-07 -1.25944643954E-04 +9.48936169476E-06 -4.88162250478E-01 +8.31447062895E-01
1.29000000000E+09 -2.81648262168E-01 +8.73002684386E-01 -7.91800737669E-05 -8.11356583373E-07 -1.39876937227E-04 +1.31937157911E-05 -4.80620526369E-01 +8.34991845775E-01
1.29500000000E+09 -2.69289092636E-01 +8.75793825825E-01 -5.01569516665E-05 +3.42281322749E-05 -9.78223608700E-05 +9.29030592013E-06 -4.72738620668E-01 +8.38622042918E-01
1.30000000000E+09 -2.57391735160E-01 +8.79007274728E-01 -1.22635536079E-04 -3.34461236448E-05 -1.33086847955E-04 +2.87272702295E-05 -4.64692658099E-01 +8.42325010869E-01
1.30500000000E+09 -2.46788000008E-01 +8.82189013767E-01 -8.66008279671E-05 +6.34994658368E-08 -1.28621801116E-04 +2.55985729619E-05 -4.56541435166E-01 +8.45786424619E-01
1.31000000000E+09 -2.37498849736E-01 +8.84812505635E-01 -1.72643380133E-04 +9.72154649319E-05 -1.52391571646E-04 +7.12829926816E-05 -4.48290309894E-01 +8.49157409024E-01
1.31500000000E+09 -2.30110163155E-01 +8.86555914536E-01 -1.26357141637E-04 +1.05661832417E-04 -1.41647899826E-04 +8.21128513311E-05 -4.39399327097E-01 +8.52564370187E-01
1.32000000000E+09 -2.23636214427E-01 +8.87284819269E-01 -5.27420505687E-05 +1.40325002495E-04 -1.39522693587E-04 +1.27002175510E-04 -4.30270797004E-01 +8.56074309606E-01
1.32500000000E+09 -2.17648330252E-01 +8.87009412541E-01 -1.01025943788E-04 +1.51263067919E-04 -7.23200902928E-05 +1.65818324490E-04 -4.20523250578E-01 +8.59467080970E-01
1.33000000000E+09 -2.11005195977E-01 +8.86451528012E-01 -6.64318496154E-05 +1.27405143534E-04 -8.99049641135E-05 +1.94722744090E-04 -4.10617610522E-01 +8.62878792375E-01
1.33500000000E+09 -2.02455375800E-01 +8.85560770527E-01 -7.13428532181E-05 +1.56798379334E-04 -4.24595673077E-05 +1.42868731642E-04 -4.00680371258E-01 +8.66147911985E-01
1.34000000000E+09 -1.91747171240E-01 +8.84777348906E-01 -5.79777892609E-05 +1.51224171067E-04 -5.67525463466E-05 +1.48258723380E-04 -3.90383983684E-01 +8.69421485462E-01
1.34500000000E+09 -1.78749003523E-01 +8.84339970432E-01 -7.89067063098E-05 +1.77389866921E-04 -4.36546277065E-05 +1.56883127982E-04 -3.79561231891E-01 +8.72792385739E-01
1.35000000000E+09 -1.63764126768E-01 +8.84280881051E-01 -4.77486033766E-05 +2.03725204324E-04 -6.24660972948E-05 +2.38236797722E-04 -3.68282483378E-01 +8.75732078561E-01
1.35500000000E+09 -1.47582416428E-01 +8.84680835006E-01 +2.86078263082E-05 +2.47606358753E-04 +5.32873859888E-05 +2.83185412629E-04 -3.56659486342E-01 +8.78521661614E-01
1.36000000000E+09 -1.31343620846E-01 +8.85304609083E-01 +1.90979933507E-05 +2.25938994866E-04 -4.92517007211E-06 +2.40314110138E-04 -3.44612937337E-01 +8.81238847303E-01
1.36500000000E+09 -1.15715969700E-01 +8.85733455776E-01 +6.61871727199E-05 +3.11923971577E-04 +7.40044204665E-06 +3.09014949463E-04 -3.32407332102E-01 +8.83668760628E-01
1.37000000000E+09 -1.01579325760E-01 +8.85526038938E-01 +1.38548501015E-04 +3.91924604539E-04 +1.15138098838E-04 +3.76246538386E-04 -3.19382430778E-01 +8.86176640266E-01
1.37500000000E+09 -8.94146187075E-02 +8.84879016978E-01 +2.82673681163E-04 +3.12616651637E-04 +2.58774451153E-04 +3.34192153542E-04 -3.05649841505E-01 +8.88306355252E-01
1.38000000000E+09 -7.85226341254E-02 +8.83377851104E-01 +2.77566546469E-04 +1.62108945870E-04 +2.70320608835E-04 +2.05418585338E-04 -2.91225470544E-01 +8.90230340587E-01
1.38500000000E+09 -6.74808687440E-02 +8.81381854616E-01 +2.44698313019E-04 +2.08785310097E-04 +3.09620551233E-04 +2.64325931677E-04 -2.75776664590E-01 +8.91995109657E-01
1.39000000000E+09 -5.57810970874E-02 +8.78212303380E-01 +3.03054159709E-04 +2.44142924221E-04 +3.60254057576E-04 +2.60376287787E-04 -2.59763722996E-01 +8.93219894403E-01
1.39500000000E+09 -4.23892938937E-02 +8.74334554016E-01 +3.57238356195E-04 +2.74835691698E-04 +3.86177955152E-04 +2.36026424563E-04 -2.43056474763E-01 +8.93941820829E-01
1.40000000000E+09 -2.62983297888E-02 +8.69439600130E-01 +5.07030612161E-04 +2.47842749367E-04 +5.83675433559E-04 +1.69678360203E-04 -2.25255954867E-01 +8.94432860600E-01
1.40500000000E+09 -8.35593942217E-03 +8.64142544357E-01 +6.82823975146E-04 +5.99225782735E-05 +7.09431356186E-04 +6.35154148479E-05 -2.06464952762E-01 +8.94172203756E-01
1.41000000000E+09 +1.15101614055E-02 +8.58623507105E-01 +6.54685991749E-04 -1.91469793050E-04 +6.39754927931E-04 -2.08125671676E-04 -1.86525773453E-01 +8.93222187708E-01
1.41500000000E+09 +3.28183202174E-02 +8.52776106525E-01 +5.31506061217E-04 -2.38909361391E-04 +5.56957092805E-04 -1.95428281796E-04 -1.65186415552E-01 +8.91663351046E-01
1.42000000000E+09 +5.52306425762E-02 +8.46711526692E-01 +5.60327286221E-04 -3.19635013742E-04 +6.09045993836E-04 -3.94287878961E-04 -1.42524709842E-01 +8.88903272225E-01
1.42500000000E+09 +7.74913289254E-02 +8.39143082515E-01 +3.81277325507E-04 -4.46315746164E-04 +4.66370727623E-04 -4.96590519707E-04 -1.19061915783E-01 +8.85272686867E-01
1.43000000000E+09 +9.89288519039E-02 +8.29836686766E-01 +3.61412873767E-04 -4.60686480670E-04 +3.76143714240E-04 -5.00582891539E-04 -9.42892683083E-02 +8.80667032810E-01
1.43500000000E+09 +1.19612302779E-01 +8.18903146925E-01 +3.70055398976E-04 -5.47855528804E-04 +3.55002018745E-04 -6.15645380000E-04 -6.80687093065E-02 +8.74062394662E-01
1.44000000000E+09 +1.39931386140E-01 +8.05994139387E-01 +4.48575415793E-04 -6.29387072105E-04 +3.23876799929E-04 -6.72407840407E-04 -4.00757235280E-02 +8.65589655928E-01
1.44500000000E+09 +1.60769400089E-01 +7.90986689299E-01 +3.01602919257E-04 -9.29289871143E-04 +2.53677802139E-04 -9.79006378123E-04 -1.01927427228E-02 +8.54301874435E-01
1.45000000000E+09 +1.83354553470E-01 +7.72866221354E-01 -7.62210375501E-05 -9.78974969874E-04 -1.52387994235E-04 -1.01541199963E-03 +2.14197196321E-02 +8.39874878236E-01
1.45500000000E+09 +2.07486668436E-01 +7.51208625745E-01 -3.19563639092E-04 -8.21430518726E-04 -4.16472333871E-04 -8.09961485632E-04 +5.44737189224E-02 +8.22359624152E-01
1.46000000000E+09 +2.33866143582E-01 +7.26509211387E-01 -4.88736767578E-04 -7.30706601136E-04 -5.74193582625E-04 -6.37836353902E-04 +8.88652592170E-02 +8.00928781820E-01
1.46500000000E+09 +2.62106575782E-01 +6.97825958893E-01 -5.02268914853E-04 -4.22083827219E-04 -4.79624969321E-04 -3.66851366973E-04 +1.24842298380E-01 +7.74762354805E-01
1.47000000000E+09 +2.91280321667E-01 +6.64888952837E-01 -2.84077840145E-04 -4.26294425446E-04 -2.63782531023E-04 -3.66859249419E-04 +1.61858210478E-01 +7.41953042552E-01
1.47500000000E+09 +3.20111794121E-01 +6.27201845133E-01 -2.97832053405E-04 -6.83789857329E-04 -2.83693714435E-04 -6.86347796199E-04 +1.99388216900E-01 +7.02043956549E-01
1.48000000000E+09 +3.46264583126E-01 +5.83556894579E-01 -7.12728676216E-04 -7.58813927565E-04 -7.06248247685E-04 -7.68262586098E-04 +2.36238726533E-01 +6.53455874152E-01
1.48500000000E+09 +3.68410880069E-01 +5.34201734565E-01 -9.57665744538E-04 -6.44397714265E-04 -9.28763875314E-04 -6.42313053879E-04 +2.70657067621E-01 +5.95466219763E-01
1.49000000000E+09 +3.85405925371E-01 +4.77807366168E-01 -1.28563551242E-03 -2.40962941913E-04 -1.26118381758E-03 -1.80501917255E-04 +2.99698667578E-01 +5.27261175254E-01
1.49500000000E+09 +3.95605023266E-01 +4.13956495958E-01 -1.17346862670E-03 +4.77166925511E-05 -1.06110553237E-03 +5.92894727568E-05 +3.20483655386E-01 +4.48503093954E-01
1.50000000000E+09 +3.97124880659E-01 +3.40957375499E-01 -1.20004070114E-03 +2.99850169477E-04 -1.04218869790E-03 +3.28870943093E-04 +3.28397679274E-01 +3.59109992170E-01
1.50500000000E+09 +3.86038963413E-01 +2.60186250747E-01 -9.75938152334E-04 +6.16029507020E-04 -8.38401989365E-04 +5.66449434903E-04 +3.18293087025E-01 +2.61233691490E-01
1.51000000000E+09 +3.60974740305E-01 +1.74492414928E-01 -7.09639379641E-04 +4.40361047012E-04 -7.01720753958E-04 +4.29294094335E-04 +2.87413948569E-01 +1.61272880402E-01
1.51500000000E+09 +3.19928970817E-01 +8.71172841199E-02 -9.43696691967E-04 +6.16392862233E-04 -9.65669625102E-04 +5.68928406164E-04 +2.36202812439E-01 +6.26386878594E-02
1.52000000000E+09 +2.58335481683E-01 +3.60610180484E-03 -1.01493912688E-03 +6.44841049980E-04 -1.02481646713E-03 +6.27407057151E-04 +1.61144754344E-01 -2.68350204853E-02
1.52500000000E+09 +1.79821591512E-01 -6.63757327901E-02 -1.16198406125E-03 +1.44956285057E-03 -1.18503832595E-03 +1.46094132823E-03 +6.61265109576E-02 -9.76478547746E-02
1.53000000000E+09 +8.63221984565E-02 -1.18934052958E-01 -6.77560278332E-04 +2.22627056911E-03 -7.11108729561E-04 +2.23843840047E-03 -3.98947639523E-02 -1.45468435336E-01
1.53500000000E+09 -1.69958297945E-02 -1.48902475007E-01 +1.18088646336E-03 +2.37203133955E-03 +1.18664006069E-03 +2.35811100964E-03 -1.52657125416E-01 -1.70016921487E-01
1.54000000000E+09 -1.24556578535E-01 -1.53093757237E-01 +1.39939967568E-03 +1.10695862978E-03 +1.35190295908E-03 +1.09290115060E-03 -2.64948007704E-01 -1.68401058829E-01
1.54500000000E+09 -2.27906480216E-01 -1.33900378680E-01 +1.41257334593E-03 +5.85300044970E-04 +1.35358216232E-03 +6.69728794672E-04 -3.65352632603E-01 -1.46119439739E-01
1.55000000000E+09 -3.21737492874E-01 -9.56279899053E-02 +1.26051506702E-03 -1.98458210170E-05 +1.23347526116E-03 +3.89478527098E-05 -4.53751258982E-01 -1.09228428332E-01
1.55500000000E+09 -4.01833898561E-01 -4.46765175454E-02 +6.67247120732E-04 -1.91607653990E-04 +6.55880492308E-04 -1.42009512437E-04 -5.26923899214E-01 -6.10355433488E-02
1.56000000000E+09 -4.67004357395E-01 +1.21098641570E-02 +6.14729758291E-04 +3.70088529057E-04 +6.24637987472E-04 +4.12871959603E-04 -5.85520447779E-01 -7.58872478752E-03
1.56500000000E+09 -5.19126293777E-01 +7.04234125564E-02 +1.11649356160E-03 +1.81389898720E-04 +1.21340943361E-03 +2.88512732092E-04 -6.31425770853E-01 +4.89557903045E-02
1.57000000000E+09 -5.58822199368E-01 +1.28133630381E-01 +1.48123679595E-03 -7.48216146161E-04 +1.56325560875E-03 -8.38194516822E-04 -6.66224273647E-01 +1.04786849895E-01
