# Hz S RI R 50
! CMT, C1220, 16058040, 17.2.0/1
! Date: 14/08/2018 11:48:35
! Data: Format (Calibration Info)
! Freq                      S11: Re/Im (F2)                       S21: Re/Im (F2)                       S12: Re/Im (F2)                       S22: Re/Im (F2)            
1.00000000000E+09 -6.47512534472E-01 +7.14931309440E-01 -3.18016581541E-05 +7.90932710054E-06 +8.72608557107E-06 +9.54194338848E-06 -7.55199218549E-01 +6.24299614295E-01
1.00500000000E+09 -6.40374705078E-01 +7.20009839533E-01 -3.22051331663E-05 +4.84047440782E-05 +4.13793720107E-06 -2.42604764365E-05 -7.51522008120E-01 +6.28335599467E-01
1.01000000000E+09 -6.34281578393E-01 +7.24588854882E-01 +9.33428493801E-06 +6.85215793079E-07 -2.14800785907E-05 -5.52653467017E-06 -7.47933024795E-01 +6.32023967498E-01
1.01500000000E+09 -6.29412082344E-01 +7.28366022820E-01 +3.69735843791E-05 +1.43004551495E-05 +3.78347473195E-05 +9.37059845576E-06 -7.44536647113E-01 +6.36129278546E-01
1.02000000000E+09 -6.25718683604E-01 +7.31595373615E-01 -3.49839682192E-05 -1.77222006794E-05 +2.01480141235E-05 +2.34252943717E-05 -7.40973138518E-01 +6.39599703341E-01
1.02500000000E+09 -6.22865663061E-01 +7.34306315659E-01 -1.71793202073E-05 +7.83888429043E-06 +1.83389179364E-05 -3.91248744721E-05 -7.38125560888E-01 +6.43368625398E-01
1.03000000000E+09 -6.20686824194E-01 +7.36677473436E-01 +4.03331081343E-06 -2.44982451628E-05 -2.29910882661E-05 -5.59194464800E-05 -7.34710967345E-01 +6.47141561824E-01
1.03500000000E+09 -6.17676415045E-01 +7.39163148025E-01 -3.94844469968E-05 +2.57585437721E-05 -4.23796559733E-05 +1.38716104393E-05 -7.30999072978E-01 +6.51014312702E-01
1.04000000000E+09 -6.13440038560E-01 +7.41990539120E-01 +7.55606367723E-05 -2.22608722968E-06 -2.14417619436E-05 -2.68002287871E-06 -7.27205462547E-01 +6.54649138522E-01
1.04500000000E+09 -6.07935115655E-01 +7.45488017538E-01 +3.31410623321E-05 -3.97923120178E-05 -3.52964153426E-05 -1.06815920217E-05 -7.23901894561E-01 +6.58329564348E-01
1.05000000000E+09 -6.00849294373E-01 +7.49553706045E-01 +1.44981105860E-05 +1.57264136501E-06 -6.46451659834E-06 +1.55790424705E-05 -7.20288942083E-01 +6.61564212405E-01
1.05500000000E+09 -5.92841754738E-01 +7.54313339825E-01 -1.60669727345E-06 +6.06702556599E-06 +1.30113897232E-05 +3.42257976525E-05 -7.16965334486E-01 +6.65357770336E-01
1.06000000000E+09 -5.84133024807E-01 +7.59413570959E-01 -3.41838697466E-05 -1.29065245716E-05 +2.08802989633E-05 +7.95147075785E-06 -7.13658738396E-01 +6.69121067500E-01
1.06500000000E+09 -5.76148580109E-01 +7.64207688736E-01 -1.24174721436E-05 +5.71982831936E-05 +9.34807170396E-06 +4.19705750503E-05 -7.10176481313E-01 +6.72844972484E-01
1.07000000000E+09 -5.68972351536E-01 +7.68577035138E-01 -1.44344986866E-05 +1.08863067923E-05 -3.47005285388E-07 -2.15310380994E-06 -7.06217429280E-01 +6.76516571182E-01
1.07500000000E+09 -5.63239402567E-01 +7.72431124859E-01 +2.94765751935E-05 +4.84144770255E-05 -1.35141038844E-07 +2.96077224254E-05 -7.01800393266E-01 +6.80142955862E-01
1.08000000000E+09 -5.59289752616E-01 +7.75471429509E-01 -6.32793769508E-06 +5.61405095655E-05 +1.12257096485E-05 +2.50766224664E-06 -6.97826693686E-01 +6.84083767603E-01
1.08500000000E+09 -5.56636530525E-01 +7.77785924597E-01 +8.35274515859E-06 +2.17560217755E-05 +2.45083134859E-05 +1.38599292329E-05 -6.93618044641E-01 +6.87942620459E-01
1.09000000000E+09 -5.54357212459E-01 +7.79775207360E-01 +5.67986617867E-05 +1.09543254319E-05 +7.70208771597E-06 +6.69567791195E-06 -6.89711693166E-01 +6.91869829029E-01
1.09500000000E+09 -5.52547656264E-01 +7.81286014206E-01 +2.72330097325E-05 -1.50340506632E-06 +5.77817045073E-05 -1.67032433806E-05 -6.86033926958E-01 +6.95658009130E-01
1.10000000000E+09 -5.49224772996E-01 +7.83323031812E-01 +8.74702121664E-07 -2.89791526363E-05 +1.97337454931E-05 -2.08433869407E-05 -6.82112157306E-01 +6.99510006994E-01
1.10500000000E+09 -5.44976136009E-01 +7.85863294247E-01 +5.25124620503E-05 -1.30702742972E-06 +4.78877645635E-06 +4.84425004536E-05 -6.77931431533E-01 +7.02932409461E-01
1.11000000000E+09 -5.39114819077E-01 +7.88875667835E-01 +3.14344693242E-05 -1.05475437836E-06 +4.50366675825E-05 +1.32194049148E-06 -6.73675248183E-01 +7.06440695511E-01
1.11500000000E+09 -5.32058098540E-01 +7.92747159917E-01 +4.43923083190E-05 +4.39451009802E-05 +4.08937728892E-05 -1.63405393524E-05 -6.69481893500E-01 +7.09855754478E-01
1.12000000000E+09 -5.24202370971E-01 +7.96603209120E-01 +5.14766632061E-05 -2.30466804683E-05 +3.00997597566E-05 -2.57370444321E-05 -6.65424209477E-01 +7.13603102257E-01
1.12500000000E+09 -5.16396468960E-01 +8.00692873041E-01 +1.66613893566E-05 -8.52368303149E-06 +4.56242255306E-06 -3.08790112257E-07 -6.61094261756E-01 +7.17586538267E-01
1.13000000000E+09 -5.09272533724E-01 +8.04213726299E-01 +1.82852770558E-05 -1.84726279242E-05 +1.63977268645E-05 +1.52439182223E-05 -6.56985873783E-01 +7.21353773110E-01
1.13500000000E+09 -5.03040041084E-01 +8.07132421871E-01 +4.25542943078E-05 +3.05899137640E-05 +3.45289051654E-06 +2.43848294391E-05 -6.52333667868E-01 +7.25121145252E-01
1.14000000000E+09 -4.97841173298E-01 +8.09734299363E-01 -8.11056069319E-06 +3.97260036128E-06 -3.63212736388E-06 -2.43525647622E-05 -6.47840645129E-01 +7.28644636926E-01
1.14500000000E+09 -4.93692513689E-01 +8.11421475414E-01 +2.26722535947E-05 -3.73465012862E-05 +3.94519872849E-05 -3.76527620694E-05 -6.43080046997E-01 +7.32071180990E-01
1.15000000000E+09 -4.89897779113E-01 +8.12944436860E-01 +6.22638545551E-05 -1.65679445781E-05 +2.18381631476E-05 -2.45635365307E-05 -6.38479470958E-01 +7.35926708566E-01
1.15500000000E+09 -4.85825745933E-01 +8.14714405961E-01 +3.27026036206E-05 -1.94756103860E-05 +3.55546178381E-05 +6.54237509265E-06 -6.33442656454E-01 +7.39740988759E-01
1.16000000000E+09 -4.80776755984E-01 +8.16491479983E-01 +4.05018127125E-05 +1.00463998787E-06 +1.61121640697E-06 -4.09636481867E-05 -6.28752330791E-01 +7.43564378242E-01
1.16500000000E+09 -4.74756785565E-01 +8.19162457007E-01 +3.19321915508E-05 -3.14616438038E-05 +5.82961162245E-05 -5.58661656902E-05 -6.23735710980E-01 +7.47160826768E-01
1.17000000000E+09 -4.67485079228E-01 +8.22133062457E-01 +2.95105627635E-05 -4.25446987908E-05 +4.92546507772E-05 +2.50532380532E-05 -6.18208416244E-01 +7.50598274844E-01
1.17500000000E+09 -4.59599239725E-01 +8.25431092732E-01 -7.26172826972E-06 -1.57639799542E-05 +8.12463170429E-05 -8.20323933650E-06 -6.12505819316E-01 +7.53904661887E-01
1.18000000000E+09 -4.51214635562E-01 +8.29024172030E-01 +1.49370929118E-05 -3.89490356671E-05 +3.39266040933E-05 -2.40936940957E-05 -6.07046649851E-01 +7.57059810565E-01
1.18500000000E+09 -4.43044692825E-01 +8.32172478686E-01 +5.98941749789E-05 -2.37434797241E-05 +2.89203869595E-05 -9.57930775876E-05 -6.00981277454E-01 +7.60176746561E-01
1.19000000000E+09 -4.35800980372E-01 +8.34809880071E-01 -1.40165680714E-05 -7.31280320554E-05 +6.01611567430E-05 -3.48103455725E-05 -5.94671021949E-01 +7.62919889721E-01
1.19500000000E+09 -4.29507720174E-01 +8.36898824995E-01 +4.34466715593E-05 -1.11174622779E-04 +2.75450715095E-05 -1.02684688650E-04 -5.88753581203E-01 +7.64189300115E-01
1.20000000000E+09 -4.24259123988E-01 +8.37793512599E-01 -3.22941081064E-05 -1.28351949928E-04 -1.07999445005E-04 -1.53224312347E-04 -5.84066408217E-01 +7.64567255837E-01
1.20500000000E+09 -4.19497767780E-01 +8.39123259398E-01 -9.72011088497E-05 -7.00320970848E-05 -7.56300896584E-05 -8.90274062000E-05 -5.81663383722E-01 +7.65153183012E-01
1.21000000000E+09 -4.14838170830E-01 +8.40230272135E-01 -8.49956371369E-05 -2.47290057794E-05 -1.12416190804E-04 -2.01237304554E-05 -5.79944960058E-01 +7.68108104897E-01
1.21500000000E+09 -4.09048365959E-01 +8.41508608143E-01 -7.17596769850E-05 +1.10642250088E-05 -5.29723838190E-05 -9.10602598955E-06 -5.77270559151E-01 +7.72574829153E-01
1.22000000000E+09 -4.01929683290E-01 +8.43522591584E-01 -1.04937281656E-05 -1.59919030977E-06 -4.47404762455E-05 +1.08959574027E-04 -5.73169050828E-01 +7.77897020545E-01
1.22500000000E+09 -3.93339470486E-01 +8.46003542974E-01 -1.36030035319E-05 +9.38999636909E-06 -3.02096176800E-05 -1.62087144548E-05 -5.67962194298E-01 +7.83138543852E-01
1.23000000000E+09 -3.83937548194E-01 +8.48903590374E-01 -1.58919490489E-05 +2.14320481633E-05 -1.67516699521E-05 -2.02573080944E-05 -5.62243513901E-01 +7.87955135809E-01
1.23500000000E+09 -3.74221250209E-01 +8.52227406420E-01 +2.53693035727E-05 -1.02388644295E-05 -2.53698346753E-05 -5.01717980461E-05 -5.56357271421E-01 +7.92280279095E-01
1.24000000000E+09 -3.64642288170E-01 +8.55702788085E-01 +1.41115229724E-06 -8.82336879633E-06 -4.61474018682E-06 -3.93998975289E-05 -5.50445132658E-01 +7.96166370196E-01
1.24500000000E+09 -3.56043722318E-01 +8.59475942253E-01 -2.25387657215E-05 -9.16420392665E-06 -1.66654317915E-05 -7.39000750001E-05 -5.44067078977E-01 +8.00057247947E-01
1.25000000000E+09 -3.48306598781E-01 +8.62536671720E-01 -6.26915462826E-05 -1.87276355617E-05 -5.27384344159E-05 -7.73972647662E-05 -5.37568720780E-01 +8.04331760008E-01
1.25500000000E+09 -3.41448981288E-01 +8.64595468806E-01 -7.01296677208E-05 -3.90694458851E-05 -5.85034467275E-05 -1.59842339947E-05 -5.30617017196E-01 +8.08295511393E-01
1.26000000000E+09 -3.35300745141E-01 +8.66004035335E-01 -3.13596917511E-05 -4.69412181754E-05 -2.45061649107E-05 -7.86872370575E-05 -5.23761542421E-01 +8.12673738472E-01
1.26500000000E+09 -3.29505859874E-01 +8.66682172829E-01 -4.69425927519E-05 +1.53104362766E-05 -1.93529283694E-05 -2.74831612179E-06 -5.16831374209E-01 +8.16581395664E-01
1.27000000000E+09 -3.23016565839E-01 +8.67280089627E-01 -2.47124688445E-05 -1.68232510675E-05 -4.27473960266E-05 -1.54130037934E-05 -5.09992558893E-01 +8.20579372549E-01
1.27500000000E+09 -3.15333403300E-01 +8.67802053937E-01 -2.26318374219E-05 -6.10233153913E-05 -9.79967970630E-05 -4.28124089793E-05 -5.02938939570E-01 +8.24025415158E-01
1.28000000000E+09 -3.05803081033E-01 +8.68889163125E-01 -8.45524534508E-05 -2.68722620737E-06 -4.82513187129E-05 -7.41233292819E-06 -4.95930933488E-01 +8.27521296153E-01
1.28500000000E+09 -2.94504238435E-01 +8.70344309715E-01 -7.79350958625E-05 +3.95220157884E-06 -7.32043558750E-05 -8.62894549260E-06 -4.88458328170E-01 +8.31191421326E-01
1.29000000000E+09 -2.82260846228E-01 +8.72576317304E-01 -7.10574647132E-05 +4.22423810075E-06 -7.17236587743E-05 +4.02338432026E-05 -4.80929256355E-01 +8.35008077990E-01
1.29500000000E+09 -2.69856799233E-01 +8.75396534241E-01 -8.37005681554E-05 +1.25438533684E-05 -8.27907447814E-06 +1.89437821307E-05 -4.72973272670E-01 +8.38576131879E-01
1.30000000000E+09 -2.57646485752E-01 +8.78703798874E-01 -1.28317629089E-04 +7.87832625273E-06 -1.19509804266E-04 -2.19993509131E-05 -4.65030066353E-01 +8.42204524730E-01
1.30500000000E+09 -2.46888553095E-01 +8.82116566393E-01 -8.13846185009E-05 +3.78828908798E-06 -1.31151396444E-04 +6.08040721185E-05 -4.56888614992E-01 +8.45713923955E-01
1.31000000000E+09 -2.37504261310E-01 +8.84683631579E-01 -8.70173548647E-05 +5.62904976968E-05 -5.99764464735E-05 +5.15876676815E-05 -4.48435318147E-01 +8.49129072518E-01
1.31500000000E+09 -2.29854792868E-01 +8.86548333432E-01 -8.64358176103E-05 +9.26356315150E-05 -1.16394088161E-04 +8.24175525154E-05 -4.39762766517E-01 +8.52610089956E-01
1.32000000000E+09 -2.23665220963E-01 +8.87207428717E-01 -1.24599313318E-04 +6.15849962609E-05 -8.11582712737E-05 +9.77512017811E-05 -4.30419695845E-01 +8.56089557176E-01
1.32500000000E+09 -2.18103176033E-01 +8.87025902191E-01 -8.36980891407E-05 +1.28757817781E-04 -8.46657043889E-05 +1.33895395607E-04 -4.20649548757E-01 +8.59361423088E-01
1.33000000000E+09 -2.11619932185E-01 +8.86352839713E-01 -3.95577711798E-05 +1.34299428149E-04 -6.89476022621E-05 +1.43860927670E-04 -4.10805307355E-01 +8.62785615680E-01
1.33500000000E+09 -2.03282816574E-01 +8.85410950184E-01 -4.06491320281E-05 +1.39901214222E-04 -2.47023407360E-05 +1.37719186030E-04 -4.00804834094E-01 +8.66003867706E-01
1.34000000000E+09 -1.92406296165E-01 +8.84525884735E-01 -4.94527438550E-05 +1.07723603431E-04 -5.46701132876E-06 +8.65472790651E-05 -3.90563719145E-01 +8.69317966745E-01
1.34500000000E+09 -1.79412050965E-01 +8.83945683944E-01 -2.59695932406E-05 +8.84036066629E-05 -3.93598942228E-05 +1.17091235606E-04 -3.79752216676E-01 +8.72818172263E-01
1.35000000000E+09 -1.64401686644E-01 +8.83885902097E-01 -4.67377981655E-05 +2.01691527460E-04 -5.85237568621E-05 +1.88049024753E-04 -3.68547016708E-01 +8.75801871096E-01
1.35500000000E+09 -1.48022066986E-01 +8.84429193745E-01 +5.69433318651E-06 +1.43668280886E-04 +9.99588604218E-06 +1.70477865166E-04 -3.56824758118E-01 +8.78639143254E-01
1.36000000000E+09 -1.31456730464E-01 +8.85114606140E-01 +1.61924437297E-05 +2.02218952358E-04 +2.34146012991E-05 +1.96407207920E-04 -3.44675308339E-01 +8.81313388557E-01
1.36500000000E+09 -1.15787256599E-01 +8.85717794047E-01 +3.84315761007E-05 +2.67786996167E-04 -5.64172963180E-06 +2.62463525425E-04 -3.32537374325E-01 +8.83884058359E-01
1.37000000000E+09 -1.01676469650E-01 +8.85536215551E-01 +1.17008960290E-04 +3.56137326788E-04 +1.05403118698E-04 +2.67372833451E-04 -3.19585280587E-01 +8.86198780366E-01
1.37500000000E+09 -8.95955554262E-02 +8.84983518647E-01 +2.92552239645E-04 +2.10574058354E-04 +2.24415955104E-04 +2.67915957009E-04 -3.05680093402E-01 +8.88343290166E-01
1.38000000000E+09 -7.88008024028E-02 +8.83709872603E-01 +2.23306940257E-04 +1.06899439359E-04 +2.20950109489E-04 +1.41513863656E-04 -2.91170233736E-01 +8.90332371241E-01
1.38500000000E+09 -6.81939872574E-02 +8.81620290456E-01 +1.73858049051E-04 +1.31145889576E-04 +2.04295190186E-04 +1.96066875866E-04 -2.75685230593E-01 +8.91989278926E-01
1.39000000000E+09 -5.66843558923E-02 +8.78632010066E-01 +2.11394432699E-04 +1.10801762107E-04 +2.35816738201E-04 +1.69707193005E-04 -2.59742039341E-01 +8.93273629163E-01
1.39500000000E+09 -4.32725504083E-02 +8.74864208124E-01 +2.40932924871E-04 +1.95188154814E-04 +2.93415668423E-04 +1.99994925892E-04 -2.42896438076E-01 +8.93989752066E-01
1.40000000000E+09 -2.73210848724E-02 +8.70057231725E-01 +3.18858757415E-04 +2.56719621674E-04 +3.99943083221E-04 +1.82513128033E-04 -2.25189246997E-01 +8.94514880583E-01
1.40500000000E+09 -9.23746698438E-03 +8.64748127090E-01 +5.30428989980E-04 +1.00980691322E-04 +5.11638470847E-04 +9.36248142795E-05 -2.06306585343E-01 +8.94084304650E-01
1.41000000000E+09 +1.12732542820E-02 +8.59247731350E-01 +4.88465366468E-04 -1.07893422782E-04 +4.96406616585E-04 -1.03359891135E-04 -1.86238775838E-01 +8.93042752217E-01
1.41500000000E+09 +3.29631171166E-02 +8.53319717790E-01 +4.83259366928E-04 -1.51478559425E-04 +4.73709047955E-04 -1.25182435788E-04 -1.64840454308E-01 +8.91435949970E-01
1.42000000000E+09 +5.56724111859E-02 +8.46994888742E-01 +4.66350964857E-04 -3.13220217258E-04 +5.11172899277E-04 -2.94019405040E-04 -1.42013950565E-01 +8.88646031413E-01
1.42500000000E+09 +7.83290957287E-02 +8.39550376133E-01 +2.57430445083E-04 -3.57880920652E-04 +3.26721292204E-04 -3.88844018127E-04 -1.18687636962E-01 +8.85038678301E-01
1.43000000000E+09 +9.98993993177E-02 +8.30314932235E-01 +2.67555338781E-04 -2.26612947643E-04 +2.51789793619E-04 -2.77052743971E-04 -9.37429022227E-02 +8.80245270843E-01
1.43500000000E+09 +1.20379409162E-01 +8.19396739442E-01 +3.98198898078E-04 -3.10077849631E-04 +3.47873884004E-04 -3.57368234417E-04 -6.76329940254E-02 +8.73638190953E-01
1.44000000000E+09 +1.40695847931E-01 +8.06639543296E-01 +4.00062577992E-04 -3.88506303337E-04 +3.83028637658E-04 -4.41093966158E-04 -3.96142086964E-02 +8.64984725387E-01
1.44500000000E+09 +1.61438605811E-01 +7.91428619702E-01 +3.95870849806E-04 -6.73966583861E-04 +3.53448953997E-04 -6.88007239762E-04 -9.54339437452E-03 +8.53393836744E-01
1.45000000000E+09 +1.83904008480E-01 +7.73002006807E-01 +9.54138080527E-05 -7.43763114630E-04 +6.02570930608E-05 -7.94461398129E-04 +2.18033281446E-02 +8.38812001498E-01
1.45500000000E+09 +2.07799765008E-01 +7.51327164187E-01 -1.24848347131E-04 -7.38237316236E-04 -2.21201385257E-04 -7.34619129665E-04 +5.49361576217E-02 +8.20922516898E-01
1.46000000000E+09 +2.34309799244E-01 +7.26293748735E-01 -3.33662496324E-04 -7.00033543046E-04 -3.93972785050E-04 -6.43284648705E-04 +8.90022134409E-02 +7.99237728248E-01
1.46500000000E+09 +2.62694722081E-01 +6.97288376667E-01 -4.46157734230E-04 -2.54738685128E-04 -4.03639617252E-04 -2.03692564535E-04 +1.24863497228E-01 +7.73015022392E-01
1.47000000000E+09 +2.91697437591E-01 +6.63799146422E-01 +2.59361330362E-05 -2.83820041872E-04 +6.46460159973E-05 -2.40179510851E-04 +1.61650218580E-01 +7.39973043290E-01
1.47500000000E+09 +3.20553815702E-01 +6.25948486185E-01 +2.48739653615E-05 -6.87465454021E-04 +5.64486940036E-06 -6.63978255224E-04 +1.98801382532E-01 +6.99893188725E-01
1.48000000000E+09 +3.46802270581E-01 +5.82306736821E-01 -4.09057822913E-04 -9.16011134111E-04 -3.82932869943E-04 -9.11923477779E-04 +2.35255704255E-01 +6.51018108831E-01
1.48500000000E+09 +3.69044659027E-01 +5.33116384378E-01 -6.63948103790E-04 -8.00579042723E-04 -6.35368894295E-04 -8.23749185089E-04 +2.69412925503E-01 +5.92714118184E-01
1.49000000000E+09 +3.86157543024E-01 +4.76807931346E-01 -1.13422163556E-03 -6.40653338258E-04 -1.18536621599E-03 -5.87898045392E-04 +2.97686527199E-01 +5.24510871394E-01
1.49500000000E+09 +3.96304468820E-01 +4.12888584969E-01 -1.25638175379E-03 -2.54206101806E-04 -1.23422507710E-03 -1.52100611610E-04 +3.17499041698E-01 +4.45551709197E-01
1.50000000000E+09 +3.97665148352E-01 +3.39958956241E-01 -1.15686003638E-03 +2.86294527118E-04 -1.08266912605E-03 +2.57712694087E-04 +3.23825557453E-01 +3.56778135241E-01
1.50500000000E+09 +3.86916541150E-01 +2.58821322660E-01 -7.18988938313E-04 +5.93582230292E-04 -7.09434846383E-04 +5.16331184857E-04 +3.12825238989E-01 +2.60044982963E-01
1.51000000000E+09 +3.60924993923E-01 +1.71900557495E-01 -5.87552384102E-04 +2.18791346060E-06 -5.68826073551E-04 +4.04580277685E-05 +2.81156734401E-01 +1.61488458698E-01
1.51500000000E+09 +3.18430198613E-01 +8.39193447872E-02 -1.14596117378E-03 +1.96213740362E-04 -1.18462555941E-03 +1.69032525076E-04 +2.29798384141E-01 +6.52611969988E-02
1.52000000000E+09 +2.55818379008E-01 +3.48254861906E-04 -1.24027192660E-03 +6.42639714410E-04 -1.26030201027E-03 +6.55483019245E-04 +1.56022305904E-01 -2.22480185922E-02
1.52500000000E+09 +1.76133212071E-01 -6.91651054977E-02 -9.82183883545E-04 +1.37398787454E-03 -1.02073611835E-03 +1.42688438095E-03 +6.22851349498E-02 -9.18477448042E-02
1.53000000000E+09 +8.21705444410E-02 -1.21108745291E-01 -6.30860461907E-04 +1.56953912860E-03 -6.72227986543E-04 +1.61761395885E-03 -4.18533833710E-02 -1.38365284883E-01
1.53500000000E+09 -2.13623413745E-02 -1.50433305151E-01 +8.21751393119E-04 +1.98654787701E-03 +8.38541112204E-04 +1.98510372819E-03 -1.51788820375E-01 -1.63036342027E-01
1.54000000000E+09 -1.29438029385E-01 -1.53733470942E-01 +8.43618681592E-04 +7.14899198556E-04 +8.58892248554E-04 +6.77331212348E-04 -2.62442424447E-01 -1.62669637238E-01
1.54500000000E+09 -2.32790073504E-01 -1.32375311906E-01 +5.17723122506E-04 +6.27961404398E-04 +4.97431664617E-04 +6.34992864055E-04 -3.61836525298E-01 -1.41226563103E-01
1.55000000000E+09 -3.25301031149E-01 -9.22820970706E-02 +5.87940346157E-04 +4.09816355936E-04 +5.56325207672E-04 +4.46593983384E-04 -4.49015761193E-01 -1.05990604247E-01
1.55500000000E+09 -4.03765860671E-01 -4.06389114900E-02 +3.05754488422E-04 +4.88066773937E-04 +2.97791073650E-04 +4.30619294916E-04 -5.22166473666E-01 -5.95404695379E-02
1.56000000000E+09 -4.68108536002E-01 +1.64325929161E-02 +5.90929110166E-04 +8.79109733446E-04 +6.02293399935E-04 +9.49175306792E-04 -5.81255450548E-01 -7.13770094301E-03
1.56500000000E+09 -5.19087597735E-01 +7.48974019951E-02 +1.28859659031E-03 +5.20663670676E-04 +1.41955631603E-03 +5.94751003781E-04 -6.27357780421E-01 +4.87674079646E-02
1.57000000000E+09 -5.58404479602E-01 +1.31867292606E-01 +1.45839008579E-03 -4.73557975912E-04 +1.52860710354E-03 -5.18807605379E-04 -6.62395048068E-01 +1.03527899386E-01
