# Hz S RI R 50
! CMT, C1220, 16058040, 17.2.0/1
! Date: 14/08/2018 11:49:50
! Data: Format (Calibration Info)
! Freq                      S11: Re/Im (F2)                       S21: Re/Im (F2)                       S12: Re/Im (F2)                       S22: Re/Im (F2)            
1.00000000000E+09 -6.47942544986E-01 +7.14816212844E-01 +3.21044890111E-06 -1.00259453419E-05 +1.88525121761E-06 -4.19589264092E-05 -7.55214312354E-01 +6.24211976404E-01
1.00500000000E+09 -6.40761568510E-01 +7.20030729848E-01 +1.69440476357E-05 -1.57902051090E-05 -5.07150253285E-05 +1.80522610737E-05 -7.51709262412E-01 +6.28136666909E-01
1.01000000000E+09 -6.34642982082E-01 +7.24734350500E-01 -6.14523553153E-05 +2.30085559504E-05 +2.63523138073E-05 +7.48403288467E-06 -7.48149230268E-01 +6.31929857296E-01
1.01500000000E+09 -6.29861426552E-01 +7.28431128463E-01 -1.09667023666E-05 -6.80981134054E-06 -3.28497069383E-05 -4.88738605027E-05 -7.44779129318E-01 +6.35917593013E-01
1.02000000000E+09 -6.26426727909E-01 +7.31586658530E-01 +9.14483922199E-06 -9.82856423929E-06 +7.26385640851E-06 -2.14844468569E-05 -7.41275274164E-01 +6.39456206455E-01
1.02500000000E+09 -6.23644661222E-01 +7.34208027041E-01 -2.57728623413E-06 +4.55565494748E-05 -3.30951748466E-05 +3.38120434402E-06 -7.38395172098E-01 +6.43103159878E-01
1.03000000000E+09 -6.21508939164E-01 +7.36376236986E-01 -1.99275766666E-05 +1.57578683303E-05 -4.33772987187E-05 -8.23540354799E-06 -7.34834421374E-01 +6.46936251601E-01
1.03500000000E+09 -6.18599307747E-01 +7.38819144469E-01 -3.59940387851E-07 +5.94183249407E-05 +2.81117942508E-06 +5.52334499508E-05 -7.31250914085E-01 +6.50884817114E-01
1.04000000000E+09 -6.14453722120E-01 +7.41479114441E-01 -1.18595700480E-05 +3.72979633712E-05 -1.08276833054E-05 +1.36153389712E-05 -7.27469788830E-01 +6.54669316536E-01
1.04500000000E+09 -6.08982653567E-01 +7.45218870671E-01 +2.67064047856E-05 +3.27641995703E-05 +3.47056173831E-06 +2.84996067532E-05 -7.24088892856E-01 +6.58115350647E-01
1.05000000000E+09 -6.01952909833E-01 +7.49253809270E-01 +7.50720209534E-07 -3.96163031615E-06 -1.58480208256E-05 -3.86592431367E-05 -7.20566045561E-01 +6.61566210441E-01
1.05500000000E+09 -5.93753664148E-01 +7.53892860811E-01 -3.51592314860E-05 -2.09779989728E-06 +2.56729374575E-05 -4.46493190355E-05 -7.17270766511E-01 +6.65169502630E-01
1.06000000000E+09 -5.84975127676E-01 +7.59044512493E-01 -6.74462785739E-05 +4.28329659176E-05 +2.61972632822E-05 +3.66300833868E-05 -7.13999410590E-01 +6.68832508889E-01
1.06500000000E+09 -5.76809278853E-01 +7.64138529852E-01 +2.01623666181E-05 +2.08946102501E-05 -1.49140068048E-05 -6.94183545995E-06 -7.10388974995E-01 +6.72556734555E-01
1.07000000000E+09 -5.69762848908E-01 +7.68401097269E-01 -1.03816499725E-05 +2.15741493709E-05 +2.62258425503E-05 +2.73434581543E-05 -7.06383212227E-01 +6.76225209714E-01
1.07500000000E+09 -5.64145749393E-01 +7.72249450376E-01 -7.02808330762E-06 +1.66580388887E-05 +2.03807990840E-05 +3.03102362858E-05 -7.02093590569E-01 +6.80060243951E-01
1.08000000000E+09 -5.60400815746E-01 +7.75359426491E-01 +3.27438170335E-05 -3.45313241367E-07 +4.05168794111E-05 +2.92304661163E-05 -6.97975076669E-01 +6.83949176811E-01
1.08500000000E+09 -5.57642423968E-01 +7.77409274018E-01 +9.00077512775E-06 +2.84577072336E-05 +4.97927720975E-06 +1.48585207594E-05 -6.93980950174E-01 +6.87710420913E-01
1.09000000000E+09 -5.55512937620E-01 +7.79241774213E-01 +4.28928577782E-06 +5.72093062628E-05 +4.39619255405E-05 +4.20631727537E-05 -6.90035072268E-01 +6.91583748252E-01
1.09500000000E+09 -5.53800995644E-01 +7.80886776033E-01 +3.04699297257E-05 +6.51285887605E-05 +4.44974735455E-05 +1.82338749489E-06 -6.86191369126E-01 +6.95524112288E-01
1.10000000000E+09 -5.50520942138E-01 +7.82740279864E-01 +3.33570760775E-05 +5.72331043113E-07 +3.02580864416E-05 -2.82269945818E-05 -6.82348135992E-01 +6.99435372036E-01
1.10500000000E+09 -5.46258923057E-01 +7.85170196408E-01 +7.93562732266E-06 -3.51894755297E-05 +5.64846350744E-05 +3.67372952077E-05 -6.78075079521E-01 +7.02812638273E-01
1.11000000000E+09 -5.40527241409E-01 +7.88554343954E-01 -3.32730959553E-05 +1.67852559319E-05 +1.75781358900E-05 -3.11218222685E-05 -6.73940382579E-01 +7.06280445843E-01
1.11500000000E+09 -5.33222789156E-01 +7.92424338772E-01 +2.78919522857E-07 +4.48061019942E-06 +1.95572662968E-05 -2.28523748364E-05 -6.69786826025E-01 +7.09724282542E-01
1.12000000000E+09 -5.25700624056E-01 +7.96379095172E-01 +1.77769176951E-05 -6.02949667913E-06 +3.62974692303E-05 +1.41267970918E-05 -6.65606559731E-01 +7.13529736479E-01
1.12500000000E+09 -5.17676824364E-01 +8.00519664634E-01 +3.30689129020E-05 -1.92460452529E-05 +2.77735251698E-05 +4.34560495922E-05 -6.61169149523E-01 +7.17481528833E-01
1.13000000000E+09 -5.10573094746E-01 +8.04195103471E-01 -1.68120092130E-07 -1.92121348262E-05 +2.77153812252E-05 -1.41182321450E-05 -6.57004369964E-01 +7.21161883011E-01
1.13500000000E+09 -5.04225695507E-01 +8.06997097506E-01 +3.01791589491E-06 -5.38497215381E-06 +1.23317312678E-05 +2.57719331275E-05 -6.52796284061E-01 +7.25007351681E-01
1.14000000000E+09 -4.99159365084E-01 +8.09354968494E-01 -3.39726072127E-05 -2.37428695615E-05 +1.40253151341E-05 -3.84276103812E-05 -6.47910339320E-01 +7.28349871593E-01
1.14500000000E+09 -4.95186862599E-01 +8.11028838085E-01 +3.40722631511E-05 -1.61734552681E-05 +4.66774813246E-05 -1.31283246922E-05 -6.43430953439E-01 +7.31882090939E-01
1.15000000000E+09 -4.91396228625E-01 +8.12506995916E-01 +1.27749806875E-05 -1.21058081441E-05 +2.43824136267E-05 +2.35053926306E-05 -6.38599415512E-01 +7.35628859886E-01
1.15500000000E+09 -4.87418975076E-01 +8.14092972371E-01 -5.87365050312E-07 -4.97467550095E-06 +5.97022066952E-06 -3.19088049610E-05 -6.33720153929E-01 +7.39545563472E-01
1.16000000000E+09 -4.82503816960E-01 +8.16062876368E-01 +1.39260714898E-05 -6.18054566495E-06 +5.41173480581E-05 -2.02798153315E-05 -6.28840620411E-01 +7.43418733535E-01
1.16500000000E+09 -4.76620316440E-01 +8.18651913325E-01 +3.76895927510E-05 -3.04124603316E-05 +3.47628864100E-05 -1.52625782354E-05 -6.23841737372E-01 +7.47014651406E-01
1.17000000000E+09 -4.69316704682E-01 +8.21695190712E-01 +5.56960193259E-05 -2.02859454434E-05 +3.85782333178E-05 -1.41651711430E-05 -6.18444460809E-01 +7.50452018420E-01
1.17500000000E+09 -4.61246869775E-01 +8.25198312411E-01 +8.70836835249E-05 -5.65281992304E-05 +2.72595826056E-05 -5.92811047826E-05 -6.12677441472E-01 +7.53672456961E-01
1.18000000000E+09 -4.53168857446E-01 +8.28803416466E-01 +4.46284194271E-05 -2.51001813768E-05 +7.38032381981E-05 -8.44347080671E-06 -6.07245265632E-01 +7.57009228172E-01
1.18500000000E+09 -4.45072355027E-01 +8.32140510780E-01 +9.67246297590E-05 -1.55261905685E-05 +6.83059691621E-05 -4.61790290818E-06 -6.01330215561E-01 +7.59993658697E-01
1.19000000000E+09 -4.37552605315E-01 +8.34844728088E-01 +4.21203928591E-05 -4.05876538110E-05 +3.70326949632E-05 -7.15805593412E-05 -5.94792440939E-01 +7.62685587294E-01
1.19500000000E+09 -4.31384467457E-01 +8.36755907108E-01 +1.79424921954E-05 -1.43775002132E-04 +1.57939803384E-05 -1.11459627780E-04 -5.88879486741E-01 +7.64017937105E-01
1.20000000000E+09 -4.26308899693E-01 +8.37651922050E-01 -5.24933692000E-05 -1.28800893435E-04 -6.05118073911E-05 -1.40626936219E-04 -5.84324926109E-01 +7.64256935307E-01
1.20500000000E+09 -4.21775697534E-01 +8.38747626518E-01 -1.54480656650E-04 -1.11143560590E-04 -8.58762156324E-05 -1.09076427358E-04 -5.81890817519E-01 +7.64939489550E-01
1.21000000000E+09 -4.16963270988E-01 +8.39804230497E-01 -9.16978816541E-05 +1.51310802225E-06 -1.06653157022E-04 -4.58633782550E-05 -5.80226541746E-01 +7.67889163255E-01
1.21500000000E+09 -4.11291691854E-01 +8.41132051350E-01 -7.38459800818E-05 +9.22183384334E-06 -6.22801111493E-05 +1.43325759119E-05 -5.77576028552E-01 +7.72390756083E-01
1.22000000000E+09 -4.04186759924E-01 +8.43027320141E-01 -1.90003714915E-05 +1.77288226808E-05 -5.55083362207E-05 +4.59805262699E-05 -5.73399174337E-01 +7.77683139020E-01
1.22500000000E+09 -3.95733102920E-01 +8.45718562905E-01 -2.48081642285E-05 +1.83283931175E-05 +4.64235920557E-07 +1.32740193116E-05 -5.68212128277E-01 +7.82880823428E-01
1.23000000000E+09 -3.86310118270E-01 +8.48579402619E-01 -1.43691417780E-05 +1.45271934261E-05 -1.35435098550E-05 -2.93186717037E-05 -5.62448506978E-01 +7.87675322087E-01
1.23500000000E+09 -3.76660676426E-01 +8.52162886060E-01 -1.79017785225E-05 -1.92235541550E-05 +9.53610425088E-06 -3.46260485934E-05 -5.56718031112E-01 +7.91998662004E-01
1.24000000000E+09 -3.66994963367E-01 +8.55884498603E-01 -2.73275596331E-06 -2.85225575031E-05 -1.21282457519E-05 -2.77103346588E-05 -5.50673321312E-01 +7.96023847984E-01
1.24500000000E+09 -3.58404291490E-01 +8.59731145156E-01 -4.03044998594E-05 -2.14511278067E-05 -4.08544590787E-05 -1.94179979629E-05 -5.44290849593E-01 +7.99842964536E-01
1.25000000000E+09 -3.50468452518E-01 +8.62864229397E-01 -7.32907898797E-05 -5.65457561563E-05 -5.16963834197E-05 -7.30355497102E-05 -5.37718134065E-01 +8.04082237824E-01
1.25500000000E+09 -3.43803855140E-01 +8.65082049123E-01 -6.37382136453E-05 -2.51952562917E-05 -7.79693253943E-05 -1.06683424735E-05 -5.30960351761E-01 +8.08141742178E-01
1.26000000000E+09 -3.37819910429E-01 +8.66352063897E-01 -3.76391016291E-05 +4.92303884299E-06 -8.36142863280E-05 +1.10885933665E-05 -5.24084814709E-01 +8.12340547515E-01
1.26500000000E+09 -3.32080001682E-01 +8.67114212827E-01 -7.85216717839E-05 +8.81370584028E-06 -9.99223002217E-05 -3.04123163543E-05 -5.17013497853E-01 +8.16403728458E-01
1.27000000000E+09 -3.25723113128E-01 +8.67554014396E-01 -5.79452854166E-05 +5.66363900718E-06 -5.34051152670E-05 -2.60023502578E-05 -5.10191891574E-01 +8.20372567217E-01
1.27500000000E+09 -3.18032648891E-01 +8.68003451793E-01 -9.91200606216E-05 -3.49974320428E-05 -6.04331606112E-05 -4.01646943697E-05 -5.03299810569E-01 +8.23818087621E-01
1.28000000000E+09 -3.08554801395E-01 +8.69033123187E-01 -1.02504225554E-04 +2.95970056849E-05 -5.76016637327E-05 -1.54475467744E-05 -4.96127430792E-01 +8.27227289908E-01
1.28500000000E+09 -2.97308225680E-01 +8.70495757999E-01 -1.44707747311E-04 +2.25329147596E-05 -9.58400388207E-05 -4.50257476660E-06 -4.88793399758E-01 +8.31007306259E-01
1.29000000000E+09 -2.85084154549E-01 +8.72835027510E-01 -1.18005054950E-04 +5.75737732981E-05 -1.11396352374E-04 +2.32588459348E-05 -4.81226008423E-01 +8.34770393533E-01
1.29500000000E+09 -2.72621944469E-01 +8.75723722643E-01 -8.10046912240E-05 +3.51012048349E-05 -1.23160221595E-04 +3.60128761943E-05 -4.73236850184E-01 +8.38292804369E-01
1.30000000000E+09 -2.60423245888E-01 +8.79204874539E-01 -7.81814809313E-05 +1.60808741750E-05 -1.12478052737E-04 +6.37989075031E-05 -4.65255496690E-01 +8.42067875802E-01
1.30500000000E+09 -2.49707010371E-01 +8.82478346098E-01 -1.78664615611E-04 +7.42303278046E-05 -1.01774601866E-04 +6.68918821597E-05 -4.57146665295E-01 +8.45491587314E-01
1.31000000000E+09 -2.40460668880E-01 +8.85244937172E-01 -1.20992101727E-04 +9.48726321419E-05 -1.42592646508E-04 +1.13477566873E-04 -4.48734256323E-01 +8.48928182291E-01
1.31500000000E+09 -2.32965613346E-01 +8.86964286872E-01 -7.41301901371E-05 +1.25932705807E-04 -9.66832506716E-05 +1.16755588820E-04 -4.39901421457E-01 +8.52554678211E-01
1.32000000000E+09 -2.26958734401E-01 +8.87642952262E-01 -7.48343029020E-05 +1.01165456308E-04 -1.53326079510E-04 +1.47930964101E-04 -4.30759359755E-01 +8.55830003327E-01
1.32500000000E+09 -2.21553027381E-01 +8.87510524502E-01 -5.20406765623E-05 +1.59102780978E-04 -7.68265406971E-05 +2.23637483720E-04 -4.21051280071E-01 +8.59316634268E-01
1.33000000000E+09 -2.15092506289E-01 +8.86782908958E-01 -4.17819859679E-05 +1.04821457845E-04 -1.82632592170E-05 +1.80819368964E-04 -4.11256762587E-01 +8.62659092031E-01
1.33500000000E+09 -2.06925873765E-01 +8.86014120622E-01 -5.56578841130E-05 +1.53146588883E-04 -4.64229143765E-05 +2.21721259582E-04 -4.01287045783E-01 +8.65941069053E-01
1.34000000000E+09 -1.96288730273E-01 +8.85447303665E-01 -5.86506972971E-06 +1.50682260147E-04 -2.81478106645E-05 +1.32155340181E-04 -3.90973619948E-01 +8.69147409801E-01
1.34500000000E+09 -1.83110896139E-01 +8.85048142683E-01 -1.01564131981E-05 +1.53264573406E-04 -3.88984725031E-05 +1.69833107766E-04 -3.80046513259E-01 +8.72549604058E-01
1.35000000000E+09 -1.67968395315E-01 +8.85069581098E-01 -3.85931179545E-05 +2.20508348264E-04 -5.82412539378E-05 +2.24721962344E-04 -3.68796868756E-01 +8.75687969825E-01
1.35500000000E+09 -1.51494253469E-01 +8.85816846170E-01 +2.36182514783E-05 +2.25198818654E-04 -3.22685962686E-05 +2.58978024640E-04 -3.57112662562E-01 +8.78584945707E-01
1.36000000000E+09 -1.35016550510E-01 +8.86731460272E-01 +2.43884509863E-06 +2.11139441588E-04 -5.93751415308E-07 +2.18182268898E-04 -3.45132804883E-01 +8.81149122134E-01
1.36500000000E+09 -1.19329218514E-01 +8.87378164949E-01 +5.86774161296E-05 +2.72941480861E-04 +3.71356078353E-05 +2.80879755158E-04 -3.32877327835E-01 +8.83595150563E-01
1.37000000000E+09 -1.05264008323E-01 +8.87410226991E-01 +1.09907615285E-04 +3.70577672808E-04 +1.23742790722E-04 +3.46825948433E-04 -3.19822470383E-01 +8.85922640939E-01
1.37500000000E+09 -9.31525283151E-02 +8.86892514464E-01 +3.21271751655E-04 +3.10514012412E-04 +2.03058876922E-04 +2.79260847122E-04 -3.06102828463E-01 +8.88080542726E-01
1.38000000000E+09 -8.26617940948E-02 +8.85739537337E-01 +2.39734497794E-04 +1.75962761709E-04 +2.41424296639E-04 +2.05169230078E-04 -2.91640248025E-01 +8.90136155306E-01
1.38500000000E+09 -7.19598989601E-02 +8.83831586258E-01 +2.77309491874E-04 +2.55978352792E-04 +2.55781579269E-04 +2.63816566174E-04 -2.76118684236E-01 +8.91845586779E-01
1.39000000000E+09 -6.05758915882E-02 +8.80913118085E-01 +2.95419365893E-04 +1.91917483698E-04 +3.26709364939E-04 +2.61788013836E-04 -2.60145613756E-01 +8.93273112244E-01
1.39500000000E+09 -4.71300567476E-02 +8.77288076573E-01 +3.77275802521E-04 +2.19482005803E-04 +4.06948665917E-04 +2.40613832390E-04 -2.43373388467E-01 +8.93923523618E-01
1.40000000000E+09 -3.08998000337E-02 +8.72783029384E-01 +4.89098821842E-04 +2.06128522793E-04 +5.50741035801E-04 +1.57359508486E-04 -2.25596027067E-01 +8.94443130844E-01
1.40500000000E+09 -1.28292661744E-02 +8.67680027313E-01 +6.27742067907E-04 +1.16331197559E-04 +6.38510409387E-04 +6.89956880173E-05 -2.06750405713E-01 +8.94078856618E-01
1.41000000000E+09 +7.65653997385E-03 +8.62391400333E-01 +6.42347922854E-04 -1.34161736287E-04 +6.08850873143E-04 -1.62790462624E-04 -1.86731803840E-01 +8.93049963026E-01
1.41500000000E+09 +2.94707849080E-02 +8.56709120132E-01 +5.75725117176E-04 -1.78346674031E-04 +6.11618955085E-04 -1.32248332609E-04 -1.65174640090E-01 +8.91517219407E-01
1.42000000000E+09 +5.22558728598E-02 +8.50764723646E-01 +5.95367469283E-04 -3.36151899326E-04 +6.71641169821E-04 -3.24432228081E-04 -1.42522614886E-01 +8.88631056401E-01
1.42500000000E+09 +7.48434927058E-02 +8.43510382439E-01 +4.74536368934E-04 -4.21398371646E-04 +4.96524652327E-04 -5.08906239717E-04 -1.19082956293E-01 +8.85063434302E-01
1.43000000000E+09 +9.61067088175E-02 +8.34606706417E-01 +4.74571705795E-04 -3.94634431894E-04 +4.91784641332E-04 -4.70579144711E-04 -9.41901988003E-02 +8.80413659855E-01
1.43500000000E+09 +1.16405365693E-01 +8.24172425595E-01 +5.04019070995E-04 -5.20551508364E-04 +4.89155529001E-04 -5.62459373265E-04 -6.78911857228E-02 +8.73733567027E-01
1.44000000000E+09 +1.36477305209E-01 +8.12067605288E-01 +5.79313172068E-04 -6.89541927073E-04 +5.26117358281E-04 -7.66646143013E-04 -3.98645576203E-02 +8.65027237934E-01
1.44500000000E+09 +1.57479689893E-01 +7.97581197890E-01 +3.79784577277E-04 -1.05215384763E-03 +3.48658976160E-04 -1.13521709212E-03 -9.94678362677E-03 +8.53558256242E-01
1.45000000000E+09 +1.80493394385E-01 +7.79952442387E-01 -1.56065089409E-05 -1.10194327180E-03 -9.09437882971E-05 -1.13993066668E-03 +2.16579398174E-02 +8.39056962005E-01
1.45500000000E+09 +2.05201771247E-01 +7.58972398225E-01 -3.15121366854E-04 -1.03508692702E-03 -3.79402808087E-04 -1.04862952722E-03 +5.47967101978E-02 +8.21238221551E-01
1.46000000000E+09 +2.32538792226E-01 +7.34565011376E-01 -4.98078155656E-04 -8.85356072433E-04 -5.57771258195E-04 -7.89929351742E-04 +8.88943994060E-02 +7.99580577281E-01
1.46500000000E+09 +2.62023213630E-01 +7.06109942482E-01 -5.34844633002E-04 -6.25318249282E-04 -5.23268436752E-04 -5.71678190640E-04 +1.24713966730E-01 +7.73254773401E-01
1.47000000000E+09 +2.92729063065E-01 +6.73544523980E-01 -3.62016250206E-04 -6.81855240063E-04 -3.85561024614E-04 -5.93445678173E-04 +1.61427034792E-01 +7.40365707421E-01
1.47500000000E+09 +3.23297236007E-01 +6.35638392763E-01 -5.45632458724E-04 -9.30817899180E-04 -4.81338058156E-04 -8.98032464450E-04 +1.98832867576E-01 +7.00263819761E-01
1.48000000000E+09 +3.51093654418E-01 +5.92176226913E-01 -9.99857927670E-04 -8.49492187800E-04 -1.04630681196E-03 -8.82073347343E-04 +2.35507735245E-01 +6.51522756354E-01
1.48500000000E+09 +3.75279258109E-01 +5.42702398835E-01 -1.12587505688E-03 -6.03750600421E-04 -1.18709551741E-03 -6.22803131059E-04 +2.69652266883E-01 +5.93158589302E-01
1.49000000000E+09 +3.94148924159E-01 +4.85793117486E-01 -1.42744440931E-03 -2.95557082064E-04 -1.45109192152E-03 -2.46933959918E-04 +2.97803676170E-01 +5.24599405836E-01
1.49500000000E+09 +4.06310498443E-01 +4.21118474070E-01 -1.49876490438E-03 -1.75703314048E-04 -1.46640499907E-03 -1.00142492053E-04 +3.17534985014E-01 +4.46131189868E-01
1.50000000000E+09 +4.09684519730E-01 +3.46093195650E-01 -1.69763585027E-03 +4.76622540477E-04 -1.57383900125E-03 +4.69087581784E-04 +3.24446260184E-01 +3.57342100481E-01
1.50500000000E+09 +4.00217622191E-01 +2.62718301952E-01 -1.11402991220E-03 +9.58923680529E-04 -1.09014868741E-03 +8.69574129772E-04 +3.13721442598E-01 +2.60536194650E-01
1.51000000000E+09 +3.76291961086E-01 +1.73366934724E-01 -8.46288617449E-04 +6.66682833414E-04 -8.23864401332E-04 +6.38278328688E-04 +2.82516536346E-01 +1.61847958388E-01
1.51500000000E+09 +3.35055252066E-01 +8.10886310170E-02 -1.11211732242E-03 +8.45129985867E-04 -1.09605060503E-03 +8.00587137510E-04 +2.31625504108E-01 +6.46363469452E-02
1.52000000000E+09 +2.72041439357E-01 -6.68504458993E-03 -1.21298582003E-03 +9.79461784988E-04 -1.22983382300E-03 +9.92730410719E-04 +1.57516660928E-01 -2.36365064468E-02
1.52500000000E+09 +1.91104262091E-01 -8.12209072668E-02 -1.04120358636E-03 +1.87073483228E-03 -1.05340730748E-03 +1.84388420299E-03 +6.35435026767E-02 -9.37560749563E-02
1.53000000000E+09 +9.37348973970E-02 -1.36899680121E-01 -5.01149073716E-04 +2.41787892466E-03 -5.49474544634E-04 +2.41131678979E-03 -4.14062073787E-02 -1.41070550127E-01
1.53500000000E+09 -1.42772164799E-02 -1.68361259093E-01 +1.27257898546E-03 +2.31976139380E-03 +1.25325015082E-03 +2.31665680187E-03 -1.52586021409E-01 -1.65464416810E-01
1.54000000000E+09 -1.26203237884E-01 -1.72131355060E-01 +1.16695448526E-03 +1.22617462103E-03 +1.15461509028E-03 +1.18887234201E-03 -2.63456317447E-01 -1.64816231405E-01
1.54500000000E+09 -2.33298157723E-01 -1.51261399920E-01 +1.25444958530E-03 +1.08846391556E-03 +1.18552769348E-03 +1.06845151247E-03 -3.63495434639E-01 -1.43330007558E-01
1.55000000000E+09 -3.30253805603E-01 -1.10546470767E-01 +1.35054166211E-03 +4.58661023432E-04 +1.30501339228E-03 +5.70322360579E-04 -4.51581176041E-01 -1.07165389278E-01
1.55500000000E+09 -4.12866275610E-01 -5.64288278475E-02 +1.03365845119E-03 +2.47890884452E-04 +1.06466008973E-03 +3.14019920135E-04 -5.24590890520E-01 -5.95831103636E-02
1.56000000000E+09 -4.79932486699E-01 +3.51147673077E-03 +1.10604607417E-03 +6.00608731392E-04 +1.07785143174E-03 +6.92302821616E-04 -5.82996671364E-01 -6.61954315030E-03
1.56500000000E+09 -5.32559258716E-01 +6.50503562268E-02 +1.59155766409E-03 +3.12861390963E-04 +1.69281424926E-03 +3.91290491389E-04 -6.28790147970E-01 +4.92179841979E-02
1.57000000000E+09 -5.72343990497E-01 +1.24822344352E-01 +1.92070578596E-03 -7.58457345644E-04 +1.99749808184E-03 -8.15411422903E-04 -6.63630757706E-01 +1.04422026398E-01
