# Hz S RI R 50
! CMT, C1220, 16058040, 17.2.0/1
! Date: 14/08/2018 11:47:22
! Data: Format (Calibration Info)
! Freq                      S11: Re/Im (F2)                       S21: Re/Im (F2)                       S12: Re/Im (F2)                       S22: Re/Im (F2)            
1.00000000000E+09 -6.48884655570E-01 +7.15146718160E-01 -1.56520470058E-05 -1.32565323724E-05 -2.96200127904E-05 +3.14787875359E-05 -7.54994634981E-01 +6.24466487626E-01
1.00500000000E+09 -6.42101009318E-01 +7.20012727931E-01 -4.97747229363E-05 -3.90341995741E-05 -2.53459707952E-05 +3.10195586002E-06 -7.51497308037E-01 +6.28366696154E-01
1.01000000000E+09 -6.35978166857E-01 +7.24628574247E-01 +4.18576048614E-06 +7.44605552667E-06 -2.09606654080E-05 -2.34309722432E-05 -7.47961188993E-01 +6.32344941474E-01
1.01500000000E+09 -6.30990029226E-01 +7.28254372606E-01 -8.39128773201E-05 -7.55333156447E-06 -1.80248089973E-05 +1.78335567564E-05 -7.44704291844E-01 +6.36066552602E-01
1.02000000000E+09 -6.27327513880E-01 +7.31546190647E-01 -1.50722867299E-05 +1.73738639441E-05 +2.76767275158E-05 +3.05754679365E-05 -7.41024024797E-01 +6.39766713709E-01
1.02500000000E+09 -6.24340585361E-01 +7.34238908992E-01 -1.03764004184E-05 +8.50178004798E-06 -9.00540897577E-06 -8.59357518111E-06 -7.38172032467E-01 +6.43413775560E-01
1.03000000000E+09 -6.21943212229E-01 +7.36782367301E-01 +6.92378998936E-06 +1.55732162036E-05 -1.02632057789E-05 -3.46605432183E-06 -7.34763252184E-01 +6.47315877581E-01
1.03500000000E+09 -6.18489416486E-01 +7.39179941145E-01 +3.45820032921E-05 -3.84886257974E-05 -1.31333071348E-05 -1.94140771300E-05 -7.31044525716E-01 +6.51275814231E-01
1.04000000000E+09 -6.14267202383E-01 +7.42089580460E-01 +3.27499024244E-05 +2.83724631433E-05 -5.35087020993E-05 +6.29421646898E-05 -7.27453806536E-01 +6.54801249554E-01
1.04500000000E+09 -6.08688074954E-01 +7.45744950203E-01 +1.23567840942E-05 -6.62017077993E-05 +6.11547998169E-05 +1.49793148603E-05 -7.23823094051E-01 +6.58417495667E-01
1.05000000000E+09 -6.01683714550E-01 +7.50189219725E-01 -2.54047937732E-05 -2.21722966933E-05 -1.27686674750E-05 +3.63689728691E-05 -7.20341689158E-01 +6.61785945424E-01
1.05500000000E+09 -5.93595666505E-01 +7.54642677735E-01 +4.03643130417E-05 -4.25271016389E-05 +3.22851086278E-05 +6.56372023598E-05 -7.17073019072E-01 +6.65418266809E-01
1.06000000000E+09 -5.85308814372E-01 +7.59562219318E-01 -1.91782958990E-05 +2.76154715374E-05 -1.35417188069E-05 +2.08939477573E-05 -7.13788942175E-01 +6.69156110347E-01
1.06500000000E+09 -5.77435049827E-01 +7.64524252052E-01 +3.19823830361E-05 +1.24689924197E-05 +3.54069809152E-05 +1.24364220143E-05 -7.10261466816E-01 +6.72782237524E-01
1.07000000000E+09 -5.70406509517E-01 +7.68655923367E-01 +3.50616743419E-06 +3.40699776750E-05 -7.42954831631E-06 -7.00796772712E-06 -7.06209868904E-01 +6.76503728701E-01
1.07500000000E+09 -5.64905905644E-01 +7.72449178604E-01 -7.89587856890E-07 +2.61076538164E-05 +4.56554593789E-05 -2.56920429684E-05 -7.02053747896E-01 +6.80309383678E-01
1.08000000000E+09 -5.60726896115E-01 +7.75515869108E-01 -2.33454673297E-06 +3.86933504656E-05 +3.80387468366E-05 +3.89346025539E-05 -6.97836102640E-01 +6.84250122121E-01
1.08500000000E+09 -5.57836409426E-01 +7.77794770071E-01 -2.14862881284E-06 -1.31159055395E-05 +5.18684618312E-05 -1.38994508119E-05 -6.93757080849E-01 +6.87898062565E-01
1.09000000000E+09 -5.55442073397E-01 +7.79668058368E-01 +2.94809312684E-05 +1.82276917207E-05 -3.35103786841E-06 +1.66034514154E-05 -6.89905919803E-01 +6.91877443163E-01
1.09500000000E+09 -5.53416517705E-01 +7.81604049515E-01 +1.97210214885E-05 +1.47319863426E-05 +2.74872723438E-05 +2.21684528442E-05 -6.86023802268E-01 +6.95683643080E-01
1.10000000000E+09 -5.50024506214E-01 +7.83602634653E-01 +4.85580832980E-06 +3.81507794360E-05 +1.33741761512E-05 +8.43849999033E-06 -6.82136846330E-01 +6.99587920979E-01
1.10500000000E+09 -5.45524167395E-01 +7.86164995669E-01 -7.67685186112E-06 +3.40225689611E-05 +8.00410469376E-06 +1.59795157890E-05 -6.77892293027E-01 +7.03101581195E-01
1.11000000000E+09 -5.39686510166E-01 +7.89285808675E-01 +3.29982731588E-05 +5.33559204261E-05 +5.40577840915E-05 +6.55645671619E-07 -6.73808398327E-01 +7.06456269814E-01
1.11500000000E+09 -5.32614505586E-01 +7.93185143113E-01 +3.13688449666E-05 +2.23076105059E-05 +3.11946217422E-05 +3.39908572839E-05 -6.69485971778E-01 +7.09846872458E-01
1.12000000000E+09 -5.25160187513E-01 +7.96963893005E-01 +2.35901148095E-05 +8.26521510832E-06 +7.93159584857E-05 +1.75329070204E-05 -6.65416665382E-01 +7.13760274621E-01
1.12500000000E+09 -5.17342206937E-01 +8.01082369083E-01 +3.20986271190E-06 +1.52188178357E-05 +8.23437315166E-06 -2.82910625339E-05 -6.61083285977E-01 +7.17701444352E-01
1.13000000000E+09 -5.10310569918E-01 +8.04530618753E-01 +2.37948139477E-07 +2.86819212789E-05 +3.93175260545E-05 -3.17366292386E-05 -6.56865101929E-01 +7.21383051701E-01
1.13500000000E+09 -5.04253038830E-01 +8.07328204018E-01 +4.08308914816E-06 +1.40439661791E-05 +1.57956835489E-05 +2.61227975430E-05 -6.52475738643E-01 +7.25259385761E-01
1.14000000000E+09 -4.99145736274E-01 +8.09812894023E-01 +5.68666624963E-05 +2.06812119884E-05 +6.38518746951E-05 -1.06437692988E-06 -6.47853346775E-01 +7.28751280879E-01
1.14500000000E+09 -4.94755363886E-01 +8.11526785625E-01 +1.43376163341E-05 +6.90150313014E-06 +1.10694438385E-05 -2.60860372631E-05 -6.43262194014E-01 +7.32106112922E-01
1.15000000000E+09 -4.90818234234E-01 +8.13124909685E-01 +5.35015944539E-05 -1.47811547700E-05 +5.93163296936E-05 -9.78978799590E-06 -6.38415693578E-01 +7.35892361308E-01
1.15500000000E+09 -4.86754161911E-01 +8.14983928051E-01 +1.88138122810E-05 -2.60902062361E-05 +3.12369716781E-05 +1.95502315145E-05 -6.33597768967E-01 +7.39812638079E-01
1.16000000000E+09 -4.81602408145E-01 +8.16896855639E-01 +8.47196801911E-06 -6.30866542992E-06 +2.13397331164E-05 +4.18634381880E-06 -6.28757286619E-01 +7.43663806729E-01
1.16500000000E+09 -4.75379316007E-01 +8.19552511649E-01 +5.24676743350E-05 +2.12620310827E-05 -5.55198678029E-07 +4.49673193394E-05 -6.23652223492E-01 +7.47352907981E-01
1.17000000000E+09 -4.68214606918E-01 +8.22593432061E-01 +3.40541400071E-05 -4.41523635582E-05 +4.06173878454E-05 -1.27195097623E-05 -6.18048829991E-01 +7.50814933178E-01
1.17500000000E+09 -4.60152454638E-01 +8.25836797454E-01 +1.64081893265E-06 -3.47970049076E-05 +2.24589168361E-05 -5.40582512596E-05 -6.12526655017E-01 +7.54078509078E-01
1.18000000000E+09 -4.52060944995E-01 +8.29322398218E-01 +5.60420348552E-05 -2.96901572539E-05 +4.63002673940E-05 -2.73519064085E-05 -6.07007491752E-01 +7.57154013064E-01
1.18500000000E+09 -4.43987115736E-01 +8.32501636125E-01 +4.30931729277E-05 -2.25892124514E-05 +3.88047019837E-05 -5.97364360342E-05 -6.00836187613E-01 +7.60238349451E-01
1.19000000000E+09 -4.36867482816E-01 +8.35121587767E-01 +1.86807624434E-06 -1.63244357671E-05 +7.22531920122E-05 -6.19207102533E-05 -5.94558021981E-01 +7.63015475297E-01
1.19500000000E+09 -4.30602514458E-01 +8.37068853688E-01 +3.54151584938E-05 -7.91285172340E-05 +3.13048409542E-05 -1.24525444761E-04 -5.88659463339E-01 +7.64115699449E-01
1.20000000000E+09 -4.25392683637E-01 +8.38051988777E-01 -5.52635458600E-05 -1.48139428635E-04 -4.55711638491E-05 -1.37761960503E-04 -5.83879988257E-01 +7.64317448260E-01
1.20500000000E+09 -4.20608898440E-01 +8.39234817315E-01 -1.30455084259E-04 -9.14272487610E-05 -1.08767044729E-04 -7.47870967771E-05 -5.81826379084E-01 +7.65209115153E-01
1.21000000000E+09 -4.15729462056E-01 +8.40430291107E-01 -1.22218579441E-04 -2.28692000339E-05 -6.64412708408E-05 -1.00241278373E-05 -5.80094011548E-01 +7.68282036908E-01
1.21500000000E+09 -4.09809348526E-01 +8.41863873782E-01 -9.17088427861E-05 +7.20438576569E-06 -7.10196471205E-05 +4.94297194202E-06 -5.77281446576E-01 +7.72713921725E-01
1.22000000000E+09 -4.02581821071E-01 +8.43881842120E-01 -3.27463301559E-05 +6.66645894462E-05 -7.24993114652E-05 +7.78217756401E-05 -5.73176086189E-01 +7.78237895898E-01
1.22500000000E+09 -3.94063485206E-01 +8.46372286381E-01 -3.83444411714E-05 +1.11099040138E-05 -4.10988969733E-05 +2.62427337383E-05 -5.68054910658E-01 +7.83221118249E-01
1.23000000000E+09 -3.84636854081E-01 +8.49183195605E-01 -1.46226899313E-05 +8.00583988974E-06 +6.17440533983E-06 -9.53328238904E-06 -5.62323375118E-01 +7.87975409129E-01
1.23500000000E+09 -3.75060126406E-01 +8.52644740707E-01 -5.77238052266E-06 -2.18251463597E-05 +6.02114312185E-06 +1.41102454477E-05 -5.56464106577E-01 +7.92480279852E-01
1.24000000000E+09 -3.65512957844E-01 +8.56072874924E-01 -1.82952125415E-05 -5.08556678744E-05 -4.97739726762E-05 -4.39359359820E-05 -5.50407400151E-01 +7.96259617971E-01
1.24500000000E+09 -3.56945572331E-01 +8.59810601782E-01 -5.51185482259E-05 -2.88625031498E-06 -3.66184574842E-05 -6.71552419779E-06 -5.44002774799E-01 +8.00110092304E-01
1.25000000000E+09 -3.49174474409E-01 +8.62728175194E-01 -2.64896008459E-05 -3.72060432277E-05 -4.42091171735E-05 -1.91693286798E-05 -5.37414868686E-01 +8.04305212120E-01
1.25500000000E+09 -3.42434364049E-01 +8.64894717253E-01 -2.60776553041E-05 -8.91920772541E-06 -4.55614578971E-05 +2.22760402993E-06 -5.30456341036E-01 +8.08388770168E-01
1.26000000000E+09 -3.36289421276E-01 +8.66301078572E-01 -5.81215759146E-05 +1.59205555670E-05 -7.86190676176E-05 -2.45885569710E-06 -5.23713751293E-01 +8.12666332785E-01
1.26500000000E+09 -3.30359637962E-01 +8.67142148897E-01 -3.80573069629E-05 +1.65794607797E-05 -8.53799167656E-05 -2.49600880451E-05 -5.16721987014E-01 +8.16557044132E-01
1.27000000000E+09 -3.23669630904E-01 +8.67631088584E-01 -4.40896423647E-05 -1.53977116619E-05 -5.78146204821E-05 -2.85872843362E-05 -5.09881925336E-01 +8.20460086073E-01
1.27500000000E+09 -3.15898379030E-01 +8.68337492387E-01 -3.79089909886E-05 -7.97083085028E-06 -4.01221789384E-05 -8.83598704246E-06 -5.02908206373E-01 +8.23931306341E-01
1.28000000000E+09 -3.06185584161E-01 +8.69427382873E-01 -7.27247525630E-05 +2.30568000490E-05 -6.13471266379E-05 +2.14337872608E-06 -4.95985685116E-01 +8.27514689967E-01
1.28500000000E+09 -2.94908639934E-01 +8.71037714086E-01 -9.36407503181E-05 +1.17533564952E-05 -1.05388772494E-04 +2.03580555786E-05 -4.88590920661E-01 +8.31088537066E-01
1.29000000000E+09 -2.82690073238E-01 +8.73071363718E-01 -4.87025088780E-05 +6.93810805370E-05 -8.31164219223E-05 +4.62929296907E-05 -4.80876402839E-01 +8.34797971341E-01
1.29500000000E+09 -2.70381159800E-01 +8.75900110102E-01 -4.45742272223E-05 +2.61229232926E-05 -3.28653584905E-05 +6.27351823483E-05 -4.72892786248E-01 +8.38521984840E-01
1.30000000000E+09 -2.58632548689E-01 +8.79190163326E-01 -5.33458436551E-05 +5.73113835534E-05 -8.88261026474E-05 +5.96815611472E-05 -4.64976459591E-01 +8.42171162875E-01
1.30500000000E+09 -2.48065843920E-01 +8.82412223582E-01 -1.03935590602E-04 +4.30660339242E-05 -4.82387472679E-05 +2.02757597563E-05 -4.56827263611E-01 +8.45618521058E-01
1.31000000000E+09 -2.38863199999E-01 +8.84968142159E-01 -1.25478968062E-04 +8.00956912472E-05 -1.18074219420E-04 +7.00054404343E-05 -4.48472517235E-01 +8.48980606460E-01
1.31500000000E+09 -2.31369434725E-01 +8.86697891478E-01 -8.19198512041E-05 +1.12442831470E-04 -7.25110625659E-05 +9.26502417868E-05 -4.39767130588E-01 +8.52358919600E-01
1.32000000000E+09 -2.25194604886E-01 +8.87409873032E-01 -5.66897149910E-05 +1.78744855997E-04 -8.74379624429E-05 +1.60592036416E-04 -4.30537169485E-01 +8.55799642700E-01
1.32500000000E+09 -2.19170342376E-01 +8.87368037595E-01 -6.70842137500E-05 +1.94508826778E-04 -4.78774276845E-05 +1.22414675757E-04 -4.20891348392E-01 +8.59348025096E-01
1.33000000000E+09 -2.12600620888E-01 +8.86835381152E-01 -3.22669461919E-05 +1.52111446429E-04 -4.88535784747E-05 +1.39396318566E-04 -4.11053381619E-01 +8.62568303064E-01
1.33500000000E+09 -2.04221848249E-01 +8.86181816932E-01 -1.28355480303E-05 +1.64645817031E-04 -5.53540400461E-07 +1.38956084511E-04 -4.00934756552E-01 +8.65880110538E-01
1.34000000000E+09 -1.93578093271E-01 +8.85596590257E-01 -7.39123970732E-06 +1.40683733607E-04 -1.46094993487E-05 +1.15138873052E-04 -3.90744567674E-01 +8.69136224239E-01
1.34500000000E+09 -1.80507412726E-01 +8.85125777309E-01 -1.39453180792E-05 +1.67052257617E-04 -8.56121944384E-06 +1.34252146514E-04 -3.79869001439E-01 +8.72493338499E-01
1.35000000000E+09 -1.65376771002E-01 +8.85123697310E-01 -2.22477279913E-05 +2.01840081094E-04 +1.14398302657E-05 +2.26719155320E-04 -3.68708122261E-01 +8.75434827782E-01
1.35500000000E+09 -1.49262042591E-01 +8.85614684220E-01 +6.07885274741E-05 +1.78277547562E-04 +5.38969167717E-05 +2.13312046265E-04 -3.56961611800E-01 +8.78385806487E-01
1.36000000000E+09 -1.32944847420E-01 +8.86384985245E-01 +5.83031370692E-05 +2.12083619778E-04 +8.69342688711E-05 +2.28513877294E-04 -3.45123377561E-01 +8.80883737075E-01
1.36500000000E+09 -1.17324852911E-01 +8.87009371497E-01 +1.39868456063E-04 +2.88621138854E-04 +1.69696185796E-04 +2.70080588253E-04 -3.32847225215E-01 +8.83422651879E-01
1.37000000000E+09 -1.03188801538E-01 +8.86949410089E-01 +2.06604284400E-04 +2.65929381490E-04 +1.93259397908E-04 +2.51937704258E-04 -3.19919993779E-01 +8.85845915311E-01
1.37500000000E+09 -9.09557919716E-02 +8.86268957513E-01 +3.15867539992E-04 +2.00471554048E-04 +2.85246467304E-04 +2.38243718751E-04 -3.06423168050E-01 +8.88124087577E-01
1.38000000000E+09 -8.00477531080E-02 +8.85113378610E-01 +2.40382937651E-04 +1.03705330878E-04 +2.33184390472E-04 +1.34160807736E-04 -2.91895789708E-01 +8.90046036184E-01
1.38500000000E+09 -6.89905675948E-02 +8.83142142295E-01 +2.59133390941E-04 +1.60577975239E-04 +2.55932998007E-04 +1.52028005268E-04 -2.76453140520E-01 +8.91836878562E-01
1.39000000000E+09 -5.73412883044E-02 +8.80296290593E-01 +2.60453501392E-04 +1.05968805070E-04 +2.91097907534E-04 +1.28310668168E-04 -2.60662377474E-01 +8.93257441957E-01
1.39500000000E+09 -4.37761095156E-02 +8.76565108951E-01 +3.70353167511E-04 +1.49262060412E-04 +3.90210784047E-04 +1.80411399943E-04 -2.43826977785E-01 +8.94079299477E-01
1.40000000000E+09 -2.77638093598E-02 +8.72087843599E-01 +4.46545902945E-04 +1.02570326381E-04 +4.92219490652E-04 +1.28234051575E-04 -2.26200801503E-01 +8.94634303408E-01
1.40500000000E+09 -9.77300644291E-03 +8.66958048841E-01 +5.82660611214E-04 -1.52349748806E-05 +5.99764660641E-04 -5.29416965908E-05 -2.07413688475E-01 +8.94336931878E-01
1.41000000000E+09 +1.02496334831E-02 +8.61730362681E-01 +5.18697011552E-04 -2.07151529053E-04 +5.13989868566E-04 -2.29072672919E-04 -1.87407891377E-01 +8.93588225532E-01
1.41500000000E+09 +3.16951667149E-02 +8.56205174014E-01 +4.65197688847E-04 -2.72802257079E-04 +5.04029949987E-04 -2.61682034453E-04 -1.65989079873E-01 +8.92223426184E-01
1.42000000000E+09 +5.43561655782E-02 +8.50316565757E-01 +4.37363294785E-04 -3.66552692241E-04 +4.76827027984E-04 -3.97936643659E-04 -1.43403535043E-01 +8.89528823802E-01
1.42500000000E+09 +7.69090347080E-02 +8.42912434326E-01 +3.00657387644E-04 -3.91273467284E-04 +2.91312161029E-04 -4.10405913742E-04 -1.19884034625E-01 +8.86076411426E-01
1.43000000000E+09 +9.86821089974E-02 +8.34104601418E-01 +3.12826564128E-04 -3.34724213551E-04 +3.20456115652E-04 -4.42916473407E-04 -9.49747256121E-02 +8.81671924967E-01
1.43500000000E+09 +1.19562382029E-01 +8.23456576967E-01 +4.07747739596E-04 -4.42435194529E-04 +3.58570925301E-04 -5.22195266576E-04 -6.87745598519E-02 +8.75059854451E-01
1.44000000000E+09 +1.40251053020E-01 +8.11064921248E-01 +4.14521761996E-04 -6.57372790829E-04 +3.68733406693E-04 -7.27587473518E-04 -4.06274394307E-02 +8.66783249072E-01
1.44500000000E+09 +1.61847870154E-01 +7.96538597263E-01 +2.61461113745E-04 -9.35103534094E-04 +2.02141617043E-04 -9.47578281189E-04 -1.06010640337E-02 +8.55659108972E-01
1.45000000000E+09 +1.85123744823E-01 +7.78677544998E-01 -1.49444711414E-04 -9.50658511519E-04 -2.03468096707E-04 -9.95795509320E-04 +2.11533740419E-02 +8.41483390565E-01
1.45500000000E+09 +2.10044563583E-01 +7.57611533524E-01 -3.67838415025E-04 -8.15775074183E-04 -3.67926909207E-04 -8.13047668616E-04 +5.45083240358E-02 +8.24196729718E-01
1.46000000000E+09 +2.37579531800E-01 +7.33092667516E-01 -4.65779855559E-04 -6.67706995335E-04 -5.09889964422E-04 -6.13200907364E-04 +8.92078095108E-02 +8.02950071997E-01
1.46500000000E+09 +2.66873917706E-01 +7.04525389060E-01 -4.51578450045E-04 -4.44395248657E-04 -4.38178694037E-04 -4.09225797669E-04 +1.25570853966E-01 +7.76835652125E-01
1.47000000000E+09 +2.97674093884E-01 +6.71781753433E-01 -2.97014828412E-04 -5.52295553110E-04 -2.63131649376E-04 -4.92342556375E-04 +1.63251646119E-01 +7.44356445431E-01
1.47500000000E+09 +3.27940969831E-01 +6.33427370680E-01 -5.07679953085E-04 -8.51638078366E-04 -4.53191012482E-04 -7.76778902187E-04 +2.01607076569E-01 +7.04206736027E-01
1.48000000000E+09 +3.55908277912E-01 +5.89239103322E-01 -8.95494507606E-04 -7.79428125501E-04 -8.87206619584E-04 -7.61761655548E-04 +2.39110487733E-01 +6.55177526248E-01
1.48500000000E+09 +3.80046414261E-01 +5.38866297267E-01 -1.02008930268E-03 -6.00105573747E-04 -1.01287161504E-03 -6.00567182379E-04 +2.74321740897E-01 +5.96591086842E-01
1.49000000000E+09 +3.99015621956E-01 +4.80702205472E-01 -1.29566328813E-03 -3.39354193251E-04 -1.29829380290E-03 -2.81312894074E-04 +3.04008913266E-01 +5.27600184216E-01
1.49500000000E+09 +4.11217451052E-01 +4.14549979439E-01 -1.49656422893E-03 -2.29879953687E-04 -1.45036676682E-03 -1.78720703348E-04 +3.25418437578E-01 +4.47835773626E-01
1.50000000000E+09 +4.14206321550E-01 +3.38259553985E-01 -1.60651347102E-03 +4.07060799024E-04 -1.51425595125E-03 +3.92115889248E-04 +3.33544293518E-01 +3.56800884756E-01
1.50500000000E+09 +4.04128851513E-01 +2.53755271692E-01 -1.32671418193E-03 +7.67058126936E-04 -1.30910284166E-03 +6.78185403708E-04 +3.23251762943E-01 +2.57181639203E-01
1.51000000000E+09 +3.79114899598E-01 +1.63360211197E-01 -1.13209897709E-03 +7.68402304450E-04 -1.15726381096E-03 +7.12376365276E-04 +2.91422439965E-01 +1.54835619621E-01
1.51500000000E+09 +3.36109808696E-01 +7.06796378240E-02 -1.27508941786E-03 +1.06408386849E-03 -1.32958478257E-03 +9.80921933080E-04 +2.37861516307E-01 +5.50209221664E-02
1.52000000000E+09 +2.71252871102E-01 -1.67365112726E-02 -1.31108659425E-03 +1.51599635345E-03 -1.35697211901E-03 +1.45538766203E-03 +1.60370878350E-01 -3.50880693902E-02
1.52500000000E+09 +1.88048555035E-01 -9.07575892470E-02 -7.17647899091E-04 +2.41670331661E-03 -7.89892675446E-04 +2.44004438872E-03 +6.24149667956E-02 -1.05150642692E-01
1.53000000000E+09 +8.82951244030E-02 -1.45148842361E-01 +1.23305622397E-04 +2.74435738973E-03 +1.59862402780E-04 +2.71323596915E-03 -4.51957533313E-02 -1.51006044727E-01
1.53500000000E+09 -2.16216553734E-02 -1.74849506554E-01 +1.76454484871E-03 +2.08225243932E-03 +1.77137482131E-03 +2.14841588905E-03 -1.58704832086E-01 -1.74153254822E-01
1.54000000000E+09 -1.34958234689E-01 -1.76826791500E-01 +1.43819249266E-03 +1.11104596582E-03 +1.47352607261E-03 +1.10877802683E-03 -2.71952270720E-01 -1.70998095482E-01
1.54500000000E+09 -2.42975293147E-01 -1.53972953362E-01 +1.56703385238E-03 +9.06306818168E-04 +1.50145721863E-03 +8.56207318183E-04 -3.72870527924E-01 -1.46299422843E-01
1.55000000000E+09 -3.39980488245E-01 -1.11253000605E-01 +1.68479041257E-03 +2.57990139253E-04 +1.68419796302E-03 +3.12264432386E-04 -4.60230346958E-01 -1.07478457437E-01
1.55500000000E+09 -4.21638529622E-01 -5.53587148959E-02 +1.34000734350E-03 -1.89114952573E-04 +1.34068753041E-03 -1.41734215556E-04 -5.32344878304E-01 -5.79101212082E-02
1.56000000000E+09 -4.87133821833E-01 +5.99184484250E-03 +1.10413826197E-03 +5.16430475391E-05 +1.19717276740E-03 +5.94505705119E-05 -5.89404013234E-01 -3.50645058393E-03
1.56500000000E+09 -5.38065179853E-01 +6.83760140916E-02 +1.35845916998E-03 -1.53648430236E-04 +1.42771286140E-03 -1.45611582053E-04 -6.33749715218E-01 +5.29724169227E-02
1.57000000000E+09 -5.76523595677E-01 +1.28730825925E-01 +1.53327032005E-03 -1.02029063412E-03 +1.63893391746E-03 -1.13643478969E-03 -6.67355398449E-01 +1.08489672232E-01
