# Hz S RI R 50
! CMT, C1220, 16058040, 17.2.0/1
! Date: 14/08/2018 11:51:19
! Data: Format (Calibration Info)
! Freq                      S11: Re/Im (F2)                       S21: Re/Im (F2)                       S12: Re/Im (F2)                       S22: Re/Im (F2)            
1.00000000000E+09 -6.47924691276E-01 +7.14974356966E-01 -1.69797475100E-05 -3.65676803895E-06 -1.02163635775E-05 -1.26981956548E-05 -7.55521910560E-01 +6.23876478407E-01
1.00500000000E+09 -6.40564695745E-01 +7.20232891149E-01 -4.41461400641E-05 -4.00747669577E-05 +3.42700961626E-05 -4.04487148040E-05 -7.51861089804E-01 +6.27919305373E-01
1.01000000000E+09 -6.34473155439E-01 +7.25057988687E-01 -1.12513135417E-05 +6.06114752227E-06 -2.25999918299E-05 -3.65446207242E-05 -7.48206993996E-01 +6.31718437853E-01
1.01500000000E+09 -6.29664288296E-01 +7.28665111147E-01 +3.55539808196E-05 +1.84031507897E-05 -4.75032232625E-05 -4.31035097809E-05 -7.44927158029E-01 +6.35512447075E-01
1.02000000000E+09 -6.26187447391E-01 +7.31945238800E-01 -2.68183322807E-05 +1.36169069119E-05 -4.24206348091E-05 +7.68519841740E-06 -7.41420317033E-01 +6.38962273621E-01
1.02500000000E+09 -6.23719537790E-01 +7.34613553575E-01 -1.84638050945E-05 -6.34752772342E-05 -2.32597682794E-05 -2.30889599641E-05 -7.38537549759E-01 +6.42890138220E-01
1.03000000000E+09 -6.21668695087E-01 +7.36745458835E-01 +2.02014702631E-05 -2.78878199039E-05 -2.03066147605E-05 -1.10956253865E-05 -7.35135645450E-01 +6.46674463304E-01
1.03500000000E+09 -6.18726293831E-01 +7.38936876344E-01 -4.22884799508E-05 -9.70778827951E-06 +1.20510052079E-05 -7.01297344753E-06 -7.31302285581E-01 +6.50585410474E-01
1.04000000000E+09 -6.14812755358E-01 +7.41640219357E-01 -2.37265633322E-05 -9.91355469822E-06 +1.11599163584E-05 -8.11987036933E-06 -7.27620968826E-01 +6.54306088412E-01
1.04500000000E+09 -6.09445902288E-01 +7.45275056663E-01 -2.60176936978E-05 -3.29366132084E-06 +7.60054545310E-06 -1.43123362659E-05 -7.24194402854E-01 +6.57768253889E-01
1.05000000000E+09 -6.02413120983E-01 +7.49293723372E-01 -3.66833393257E-05 +3.93382097388E-05 -3.63386524089E-05 +6.45370937828E-06 -7.20765731207E-01 +6.61208216966E-01
1.05500000000E+09 -5.93962998033E-01 +7.54034402934E-01 +6.58881907957E-07 +1.35745090742E-05 -1.37690972396E-05 -2.14517510603E-05 -7.17387381408E-01 +6.64731406260E-01
1.06000000000E+09 -5.85229273664E-01 +7.59254103436E-01 -3.09106157440E-06 +7.18556150186E-06 +1.23022742054E-05 +8.11613422063E-06 -7.14178901461E-01 +6.68555806744E-01
1.06500000000E+09 -5.76912422533E-01 +7.64484099157E-01 -3.62206814537E-05 +1.47263561324E-05 +3.59554363952E-05 +5.50571096900E-07 -7.10495368080E-01 +6.72221104545E-01
1.07000000000E+09 -5.69730969387E-01 +7.68871559003E-01 -2.14601971795E-05 +5.90058076223E-05 -4.89786378921E-06 +7.27840205876E-05 -7.06626749769E-01 +6.75908543084E-01
1.07500000000E+09 -5.64098866236E-01 +7.72650133986E-01 +2.46557032887E-06 +4.97394019277E-05 +3.63693662794E-05 +6.63152029426E-06 -7.02287054522E-01 +6.79699414952E-01
1.08000000000E+09 -5.60301779515E-01 +7.75593778370E-01 +2.60251560296E-05 +3.78772765877E-05 +4.38575805923E-05 +1.42498892422E-05 -6.98224496396E-01 +6.83539522599E-01
1.08500000000E+09 -5.57791715080E-01 +7.77789415627E-01 -2.62097972149E-05 -2.13725517387E-06 +8.47627695722E-06 -1.59769810789E-06 -6.94117341565E-01 +6.87393579516E-01
1.09000000000E+09 -5.55909950426E-01 +7.79552252240E-01 -1.27503816109E-05 +2.85386884546E-05 +7.24374496744E-06 +9.25611257057E-06 -6.90340978392E-01 +6.91338843294E-01
1.09500000000E+09 -5.54135747296E-01 +7.81072162221E-01 +2.42906036848E-05 -1.01932046885E-06 +4.26651734796E-05 +4.10341771883E-05 -6.86597199801E-01 +6.95177547440E-01
1.10000000000E+09 -5.50987614107E-01 +7.82880896038E-01 +1.97539263415E-06 -1.17070276815E-05 +5.51586479321E-06 +6.18078262493E-06 -6.82648049511E-01 +6.98967167844E-01
1.10500000000E+09 -5.46926989351E-01 +7.85506205016E-01 +1.41647021905E-05 -2.11483202208E-05 +3.38986508751E-05 -2.06465654413E-05 -6.78363060123E-01 +7.02582740919E-01
1.11000000000E+09 -5.41047938479E-01 +7.88737929968E-01 +7.16143819766E-05 -1.29568682743E-05 +2.03546590108E-05 -2.07971870808E-05 -6.74085423551E-01 +7.06090800701E-01
1.11500000000E+09 -5.33781311679E-01 +7.92547428251E-01 -1.73137211522E-06 -1.01433947592E-05 +2.72456564855E-05 -2.07411263637E-05 -6.69997809822E-01 +7.09450240581E-01
1.12000000000E+09 -5.25891118190E-01 +7.96531731165E-01 +2.02735319810E-05 +3.05167186653E-05 +7.66828071468E-05 +2.31831847134E-05 -6.65820028369E-01 +7.13042803461E-01
1.12500000000E+09 -5.17951226301E-01 +8.00898385538E-01 +3.80032466994E-06 -2.52987919340E-05 -2.74349786758E-05 -2.48550512932E-05 -6.61563955623E-01 +7.17114641795E-01
1.13000000000E+09 -5.10641038314E-01 +8.04570470275E-01 +1.95946688880E-05 +3.69315139591E-05 +7.45521018929E-06 -1.09243712124E-05 -6.57330042566E-01 +7.20853839894E-01
1.13500000000E+09 -5.04475308601E-01 +8.07415609755E-01 -3.08776289496E-05 +4.03665445026E-05 +1.36232874745E-05 -1.86384040421E-05 -6.52871231984E-01 +7.24740150786E-01
1.14000000000E+09 -4.99453040039E-01 +8.09834068170E-01 +4.07827557109E-05 +1.82778244606E-06 -5.43983073864E-06 -5.20880753473E-05 -6.48154087414E-01 +7.28152587251E-01
1.14500000000E+09 -4.95476401043E-01 +8.11479397188E-01 +2.62577728992E-05 +1.20486790920E-06 +2.11835505301E-05 -2.94797124392E-06 -6.43611920134E-01 +7.31662559976E-01
1.15000000000E+09 -4.91807835196E-01 +8.12950141712E-01 +5.93031976002E-05 -8.04660428840E-06 +7.22922131656E-05 +2.06051665437E-06 -6.38726739495E-01 +7.35465446401E-01
1.15500000000E+09 -4.88117578016E-01 +8.14590328554E-01 +1.36372617158E-05 -2.29635963142E-05 +3.31457446170E-05 +4.11610734614E-05 -6.34013578562E-01 +7.39246496655E-01
1.16000000000E+09 -4.83251276793E-01 +8.16337765690E-01 +3.85022359612E-05 +4.12291622011E-05 +1.20615109774E-05 +1.21100728002E-05 -6.29261572630E-01 +7.43105268933E-01
1.16500000000E+09 -4.77248845350E-01 +8.19014188398E-01 -1.05425258114E-05 -1.00231016006E-05 +4.45262688016E-05 -4.81622565702E-05 -6.24091739332E-01 +7.46903219620E-01
1.17000000000E+09 -4.70040749480E-01 +8.22136912036E-01 +2.60555454246E-08 -4.26685046271E-05 +7.73762164772E-05 -4.43744953772E-05 -6.18766197975E-01 +7.50169271145E-01
1.17500000000E+09 -4.61772499058E-01 +8.25681374094E-01 +1.38625341793E-05 -3.37065169895E-05 +5.71818826560E-05 -2.55528421519E-05 -6.12944279180E-01 +7.53499671530E-01
1.18000000000E+09 -4.53447939170E-01 +8.29377233473E-01 +4.20755599767E-05 -6.39551873078E-05 +5.26692295208E-05 -2.09314743817E-05 -6.07460927652E-01 +7.56659983173E-01
1.18500000000E+09 -4.45167776466E-01 +8.32730321939E-01 +7.51099455188E-05 -9.07433720222E-05 +1.50150209516E-05 -4.56434065507E-05 -6.01382236867E-01 +7.59643815850E-01
1.19000000000E+09 -4.37735782176E-01 +8.35499308700E-01 +5.39422236149E-05 -1.22125821219E-04 +4.13864628926E-05 -8.46693575987E-05 -5.95039696533E-01 +7.62389735125E-01
1.19500000000E+09 -4.31513311948E-01 +8.37438476066E-01 +6.24842477973E-05 -1.09577590689E-04 +2.06207476368E-05 -8.20240293282E-05 -5.89085619775E-01 +7.63651682442E-01
1.20000000000E+09 -4.26402970872E-01 +8.38553035033E-01 -4.48346072419E-05 -1.12402373600E-04 -5.83342127994E-05 -1.50224139697E-04 -5.84461426925E-01 +7.63836849938E-01
1.20500000000E+09 -4.22147770211E-01 +8.39487953277E-01 -8.25739056164E-05 -8.15034979842E-05 -1.09715759772E-04 -6.09485835488E-05 -5.82296121728E-01 +7.64595610686E-01
1.21000000000E+09 -4.17685700193E-01 +8.40478384746E-01 -9.77540297998E-05 -7.33228544758E-06 -3.94827070914E-05 -1.68277292919E-06 -5.80605652547E-01 +7.67684861649E-01
1.21500000000E+09 -4.11953931163E-01 +8.41838063215E-01 -8.16770381198E-05 +2.83965880763E-05 -8.36816488411E-05 -1.00692905547E-05 -5.77894499964E-01 +7.72146424207E-01
1.22000000000E+09 -4.04992538596E-01 +8.43601734987E-01 -5.26836526528E-05 +2.88211803940E-05 -8.57293871544E-05 +1.89109440348E-05 -5.73626417861E-01 +7.77526495062E-01
1.22500000000E+09 -3.96442920165E-01 +8.46281490838E-01 -2.65920864878E-05 +2.53538942285E-05 -2.38962401830E-05 +3.26317407827E-06 -5.68535901110E-01 +7.82609590331E-01
1.23000000000E+09 -3.86907977245E-01 +8.49359571577E-01 -2.53189103388E-05 -1.11442347210E-05 +4.40826955704E-05 -3.92118254501E-05 -5.62885356284E-01 +7.87421468314E-01
1.23500000000E+09 -3.77086961354E-01 +8.52913559663E-01 +7.93009083047E-06 -3.40848548253E-05 +2.15544589409E-05 -3.91391832490E-05 -5.56850447295E-01 +7.91760968727E-01
1.24000000000E+09 -3.67245689554E-01 +8.56592433525E-01 -5.45132043176E-05 -3.64008020620E-05 -1.66282443677E-05 -5.61988612159E-05 -5.50951367909E-01 +7.95718825643E-01
1.24500000000E+09 -3.58537892603E-01 +8.60610078053E-01 -1.70966589719E-05 -2.09169195190E-06 -2.93538779087E-05 -7.96903288136E-06 -5.44530302388E-01 +7.99523621564E-01
1.25000000000E+09 -3.50608755960E-01 +8.63787240162E-01 -1.99849014384E-05 -2.34435034485E-05 -7.42648623627E-05 -7.36981013471E-05 -5.37984528051E-01 +8.03846618024E-01
1.25500000000E+09 -3.43936781766E-01 +8.65974529736E-01 -6.42020900546E-05 -3.03471978839E-05 -3.72702378184E-05 -1.64683616490E-05 -5.30970876206E-01 +8.07796177304E-01
1.26000000000E+09 -3.38064909998E-01 +8.67182925953E-01 -1.59878341452E-05 +1.59284191005E-05 -3.82293352355E-05 -1.82045738298E-05 -5.24291935221E-01 +8.12140391827E-01
1.26500000000E+09 -3.32525115613E-01 +8.67819164925E-01 -7.14698306471E-05 +4.13419235068E-07 -7.38005081296E-05 -4.30518868585E-06 -5.17334308671E-01 +8.16050765092E-01
1.27000000000E+09 -3.26379416651E-01 +8.68294922366E-01 -3.44702582101E-05 +3.67499949165E-06 -1.55515415719E-05 +4.00117014432E-06 -5.10510162781E-01 +8.19954014749E-01
1.27500000000E+09 -3.18998450976E-01 +8.68935565225E-01 -9.23025460766E-05 -3.14307524153E-05 -6.53768853711E-05 -3.83308284885E-05 -5.03509996167E-01 +8.23507699139E-01
1.28000000000E+09 -3.09430288299E-01 +8.69950674173E-01 -3.83171817591E-05 +1.60027387286E-05 -3.76549646134E-05 +1.26393447155E-06 -4.96518050692E-01 +8.27033973534E-01
1.28500000000E+09 -2.98036613518E-01 +8.71502932437E-01 -5.66545172848E-05 +7.77101342582E-06 -1.10692408701E-04 +3.37976262710E-05 -4.89047211279E-01 +8.30734894415E-01
1.29000000000E+09 -2.85697757575E-01 +8.73755014359E-01 -3.99056165085E-05 +2.48248266736E-05 -8.63520957675E-05 +1.35297321503E-06 -4.81501231632E-01 +8.34478946877E-01
1.29500000000E+09 -2.72862713518E-01 +8.76935964019E-01 -6.29120204671E-05 +1.45797047682E-05 -2.90275512257E-05 +5.38554632008E-05 -4.73568397461E-01 +8.37991605885E-01
1.30000000000E+09 -2.60517045602E-01 +8.80356893061E-01 -7.67297705572E-05 -4.46719165211E-06 -1.35278460505E-04 +4.74349638601E-05 -4.65644048484E-01 +8.41589978137E-01
1.30500000000E+09 -2.49504492463E-01 +8.83775230285E-01 -9.45180329900E-05 +7.57147026167E-05 -3.03779918443E-05 +3.69258032976E-05 -4.57495362226E-01 +8.45066519515E-01
1.31000000000E+09 -2.40166265311E-01 +8.86417229633E-01 -8.78065067337E-05 +7.86157677294E-05 -9.38486819250E-05 +8.26757829490E-05 -4.49147119080E-01 +8.48583879031E-01
1.31500000000E+09 -2.32754068103E-01 +8.88180274776E-01 -1.02071055131E-04 +1.15502438768E-04 -9.87693161091E-05 +1.12890824909E-04 -4.40319148685E-01 +8.51905655204E-01
1.32000000000E+09 -2.26850519289E-01 +8.88766407890E-01 -7.05298760897E-05 +7.53626722886E-05 -9.06851921645E-05 +7.20416667448E-05 -4.31213539362E-01 +8.55364819810E-01
1.32500000000E+09 -2.21487310984E-01 +8.88431254688E-01 -4.90052088132E-05 +1.04155230488E-04 -5.32047437494E-05 +1.34267386782E-04 -4.21353245318E-01 +8.58845395467E-01
1.33000000000E+09 -2.15239852396E-01 +8.87853900874E-01 -7.45339902817E-05 +1.17065620307E-04 -4.15457831516E-05 +1.25127368925E-04 -4.11655798565E-01 +8.62199175801E-01
1.33500000000E+09 -2.07162962224E-01 +8.86847327269E-01 -3.06231672242E-05 +1.41349229999E-04 -2.91463968268E-05 +1.45591062515E-04 -4.01675146961E-01 +8.65272903561E-01
1.34000000000E+09 -1.96468676739E-01 +8.86195057324E-01 -2.95126763806E-05 +1.61636008461E-04 -2.93350424508E-06 +1.09642565899E-04 -3.91401523293E-01 +8.68813895643E-01
1.34500000000E+09 -1.83240294822E-01 +8.85785605830E-01 -9.08761254313E-07 +1.60750437443E-04 -6.03455136567E-05 +9.22533206012E-05 -3.80549881993E-01 +8.72078367139E-01
1.35000000000E+09 -1.67714380829E-01 +8.85885207465E-01 +1.61308006599E-05 +1.70936419347E-04 -1.38087839522E-05 +1.93675787274E-04 -3.69350253206E-01 +8.75043739968E-01
1.35500000000E+09 -1.51055568112E-01 +8.86554541379E-01 -3.25738091812E-06 +1.39515140707E-04 +7.64616862431E-05 +1.63431685795E-04 -3.57761157468E-01 +8.77964565642E-01
1.36000000000E+09 -1.34365487442E-01 +8.87342458855E-01 +3.68831854385E-05 +2.01701361095E-04 +2.12600701428E-05 +2.31761601489E-04 -3.45631170966E-01 +8.80613747441E-01
1.36500000000E+09 -1.18349708209E-01 +8.87949103768E-01 +9.42887545418E-05 +2.56790126231E-04 +6.18471676897E-05 +2.32965872345E-04 -3.33676021535E-01 +8.83235527195E-01
1.37000000000E+09 -1.04352744770E-01 +8.87922158829E-01 +1.55739052295E-04 +2.94164790105E-04 +1.15786730965E-04 +2.49120293622E-04 -3.20693454001E-01 +8.85653307895E-01
1.37500000000E+09 -9.24336452394E-02 +8.87479730577E-01 +2.89848206477E-04 +2.12230035458E-04 +2.31142347585E-04 +2.22138903548E-04 -3.07051625151E-01 +8.87810636715E-01
1.38000000000E+09 -8.20112490405E-02 +8.86297678213E-01 +2.08001410051E-04 +9.37115966453E-05 +1.87073565563E-04 +1.02129163024E-04 -2.92457145717E-01 +8.89819901135E-01
1.38500000000E+09 -7.16186003931E-02 +8.84412660392E-01 +1.55864210082E-04 +1.13961550306E-04 +1.43819201450E-04 +1.95351253079E-04 -2.77047664210E-01 +8.91574719977E-01
1.39000000000E+09 -6.03210162913E-02 +8.81382060582E-01 +1.72829998285E-04 +1.26220084771E-04 +2.47290038388E-04 +1.95443063934E-04 -2.61175105289E-01 +8.92926833891E-01
1.39500000000E+09 -4.68893267361E-02 +8.77665755906E-01 +2.90541540507E-04 +2.29523895340E-04 +3.40124679681E-04 +1.70624539834E-04 -2.44337893099E-01 +8.93758460477E-01
1.40000000000E+09 -3.07856890426E-02 +8.72809769787E-01 +4.13927057314E-04 +1.69078961152E-04 +4.32064670601E-04 +1.53534650131E-04 -2.26648186410E-01 +8.94477498598E-01
1.40500000000E+09 -1.23993565142E-02 +8.67572774362E-01 +5.31118098797E-04 +4.92175324418E-05 +5.37275818053E-04 +2.75209210223E-05 -2.07867881903E-01 +8.94157408037E-01
1.41000000000E+09 +8.32740378735E-03 +8.62254557219E-01 +4.74167360642E-04 -1.35009870251E-04 +5.18818506619E-04 -1.77930797287E-04 -1.87832146390E-01 +8.93386783821E-01
1.41500000000E+09 +3.04270455372E-02 +8.56263881218E-01 +4.13631602844E-04 -2.01081967686E-04 +4.46237071538E-04 -1.82143870736E-04 -1.66349123492E-01 +8.91872328666E-01
1.42000000000E+09 +5.34211000259E-02 +8.50081014425E-01 +4.44417215751E-04 -2.97752090455E-04 +4.78047335083E-04 -3.02340288792E-04 -1.43600641966E-01 +8.89210945003E-01
1.42500000000E+09 +7.60375985626E-02 +8.42689998272E-01 +3.14053344913E-04 -3.52577838226E-04 +3.41520948158E-04 -4.32034569724E-04 -1.20027302479E-01 +8.85784363305E-01
1.43000000000E+09 +9.73898700233E-02 +8.33771738367E-01 +3.53855534867E-04 -2.86164588267E-04 +3.39652321085E-04 -3.60708298037E-04 -9.51618001109E-02 +8.81114780772E-01
1.43500000000E+09 +1.17675454889E-01 +8.23150985998E-01 +4.12451361442E-04 -4.21437080467E-04 +3.62588892218E-04 -5.00650101070E-04 -6.88047488410E-02 +8.74629208502E-01
1.44000000000E+09 +1.37705366561E-01 +8.10618004780E-01 +3.79515953262E-04 -5.29510109335E-04 +3.30837455851E-04 -5.86009115097E-04 -4.07674850690E-02 +8.66141284447E-01
1.44500000000E+09 +1.58348092678E-01 +7.95915943873E-01 +2.42809433273E-04 -8.07235966780E-04 +1.79010308329E-04 -8.41007585390E-04 -1.06141828640E-02 +8.54836985026E-01
1.45000000000E+09 +1.80869981336E-01 +7.77673792033E-01 -5.79627923437E-05 -9.12689554570E-04 -1.02038091342E-04 -9.28872839322E-04 +2.11839903371E-02 +8.40564957879E-01
1.45500000000E+09 +2.05112644327E-01 +7.56032644015E-01 -3.00022641006E-04 -7.36407022349E-04 -4.27691847720E-04 -7.41671964026E-04 +5.43366299771E-02 +8.22918729157E-01
1.46000000000E+09 +2.31956520301E-01 +7.31119113877E-01 -4.40151128614E-04 -6.40858263641E-04 -5.27458147348E-04 -5.62684365810E-04 +8.90583785675E-02 +8.01630783706E-01
1.46500000000E+09 +2.61223963738E-01 +7.01920101457E-01 -5.26198515664E-04 -2.76067999310E-04 -4.92961013279E-04 -2.82690614715E-04 +1.25250347480E-01 +7.75366660668E-01
1.47000000000E+09 +2.91056299308E-01 +6.68360394717E-01 -1.94968755192E-04 -2.10074423261E-04 -1.45082426987E-04 -1.49099928035E-04 +1.62510855708E-01 +7.42526954998E-01
1.47500000000E+09 +3.20603537286E-01 +6.30240805730E-01 -1.32112815147E-04 -5.54091646305E-04 -1.12322083156E-04 -5.76455328660E-04 +2.00523139088E-01 +7.02461327403E-01
1.48000000000E+09 +3.47336814683E-01 +5.86309834030E-01 -4.85841678494E-04 -7.51654631902E-04 -4.67491425336E-04 -7.86462732087E-04 +2.37913146205E-01 +6.53396682844E-01
1.48500000000E+09 +3.69786219157E-01 +5.37005073270E-01 -6.97291014192E-04 -6.25170738419E-04 -7.26854862790E-04 -5.91883708694E-04 +2.72801297631E-01 +5.94686666959E-01
1.49000000000E+09 +3.87043891584E-01 +4.80866616992E-01 -1.08272811758E-03 -4.37005142512E-04 -1.07374649902E-03 -4.04856759705E-04 +3.01822787254E-01 +5.25753130488E-01
1.49500000000E+09 +3.97248217019E-01 +4.17262356450E-01 -1.08165446586E-03 -1.70875394052E-04 -1.03591481307E-03 -1.22414938646E-04 +3.22718996478E-01 +4.46000717054E-01
1.50000000000E+09 +3.98978592595E-01 +3.44363620630E-01 -1.18056678143E-03 +2.12404633297E-04 -1.08200653811E-03 +2.17135018689E-04 +3.29746186775E-01 +3.55577682826E-01
1.50500000000E+09 +3.88344460253E-01 +2.62843514290E-01 -6.52847680995E-04 +4.38250107173E-04 -6.60229617167E-04 +3.99094912923E-04 +3.18935489101E-01 +2.57188017907E-01
1.51000000000E+09 +3.62710352043E-01 +1.75555851810E-01 -8.17812571237E-04 -6.68084037807E-05 -8.38592281089E-04 -6.49793847048E-05 +2.87174179923E-01 +1.56293816359E-01
1.51500000000E+09 +3.20646014959E-01 +8.65422787107E-02 -1.35250935884E-03 +4.69729079766E-04 -1.35626066679E-03 +4.39039313868E-04 +2.34141904067E-01 +5.76883711230E-02
1.52000000000E+09 +2.58046206224E-01 +1.84455716208E-03 -1.19935285620E-03 +7.34678067944E-04 -1.19926717665E-03 +7.63742015875E-04 +1.57887796202E-01 -3.12169698034E-02
1.52500000000E+09 +1.78427997637E-01 -6.84085671540E-02 -1.13218773530E-03 +1.43346139651E-03 -1.18306529590E-03 +1.49542833422E-03 +6.17293816941E-02 -1.01117643859E-01
1.53000000000E+09 +8.48475427877E-02 -1.21290819985E-01 -7.28856967377E-04 +1.91214441035E-03 -7.47557122914E-04 +1.95510374983E-03 -4.49917794880E-02 -1.47372664045E-01
1.53500000000E+09 -1.85561051862E-02 -1.51769123482E-01 +9.77822126753E-04 +2.12483192043E-03 +1.00813183654E-03 +2.14628417114E-03 -1.57348743185E-01 -1.70665331879E-01
1.54000000000E+09 -1.26919591830E-01 -1.55822008632E-01 +8.68044662874E-04 +7.97862027179E-04 +8.28842285631E-04 +8.06343428990E-04 -2.69471225141E-01 -1.68715568560E-01
1.54500000000E+09 -2.30910704280E-01 -1.35334862283E-01 +6.29189355395E-04 +1.03974712015E-03 +6.28404056347E-04 +1.00747324718E-03 -3.70385929446E-01 -1.45098122441E-01
1.55000000000E+09 -3.24564969933E-01 -9.56487645815E-02 +1.02009383589E-03 +5.29994230430E-04 +9.90649884573E-04 +5.64041167905E-04 -4.57739232949E-01 -1.07026595811E-01
1.55500000000E+09 -4.04440669122E-01 -4.36508443096E-02 +6.02373982622E-04 +4.29850845577E-04 +6.29410619897E-04 +4.25262973205E-04 -5.29922974375E-01 -5.83543745870E-02
1.56000000000E+09 -4.69798915646E-01 +1.40271217955E-02 +8.70545170224E-04 +9.07213520419E-04 +8.34717622197E-04 +9.52381415884E-04 -5.87538163790E-01 -4.45229699496E-03
1.56500000000E+09 -5.21848033357E-01 +7.29077801020E-02 +1.52291708340E-03 +3.61914518329E-04 +1.60748776765E-03 +3.89652711172E-04 -6.32340235594E-01 +5.19104891250E-02
1.57000000000E+09 -5.61730912397E-01 +1.30241862194E-01 +1.61525313701E-03 -5.91182608356E-04 +1.69749886130E-03 -6.59624711028E-04 -6.66197525784E-01 +1.07316665513E-01
