# Hz S RI R 50
! CMT, C1220, 16058040, 17.2.0/1
! Date: 14/08/2018 11:47:01
! Data: Format (Calibration Info)
! Freq                      S11: Re/Im (F2)                       S21: Re/Im (F2)                       S12: Re/Im (F2)                       S22: Re/Im (F2)            
1.00000000000E+09 -6.48791803297E-01 +7.15040923699E-01 +7.25714948754E-06 +1.87250851533E-05 -3.49741121104E-05 +4.69367973367E-06 -7.55129421520E-01 +6.24418874930E-01
1.00500000000E+09 -6.41870661785E-01 +7.20075568490E-01 +2.03896964779E-05 +1.82483412583E-05 +3.05998678795E-05 +1.22803249909E-05 -7.51652140074E-01 +6.28480014672E-01
1.01000000000E+09 -6.35745884663E-01 +7.24587000683E-01 +9.00825570119E-06 +4.60186785253E-05 +3.21619602181E-05 -3.94524968076E-06 -7.47977183041E-01 +6.32351240023E-01
1.01500000000E+09 -6.30825059086E-01 +7.28293982474E-01 +3.79764129583E-06 -2.72595620777E-05 -3.53104509317E-07 +3.16470588375E-05 -7.44548457258E-01 +6.36297536061E-01
1.02000000000E+09 -6.27056155262E-01 +7.31602934833E-01 -1.55124940109E-05 -1.95719795353E-05 +1.15759502541E-05 +2.04846668052E-05 -7.40943704403E-01 +6.40000389254E-01
1.02500000000E+09 -6.24115667736E-01 +7.34255676190E-01 -3.93673213414E-05 -9.10012573256E-06 -2.05847037771E-05 +6.12924382998E-05 -7.38104379752E-01 +6.43644416703E-01
1.03000000000E+09 -6.21625584248E-01 +7.36650282581E-01 -4.60749838188E-06 +1.05226729621E-05 -1.91849264304E-05 +6.41760205218E-05 -7.34787911076E-01 +6.47436966546E-01
1.03500000000E+09 -6.18383848221E-01 +7.39293899111E-01 -4.67020709504E-06 -2.93476579589E-05 -1.02210623177E-05 +1.60681759777E-05 -7.30932271603E-01 +6.51281305765E-01
1.04000000000E+09 -6.14034333253E-01 +7.42255277226E-01 -2.69437239816E-05 +1.65798414194E-06 -1.00904899354E-05 +8.08228018859E-06 -7.27291335684E-01 +6.54941537521E-01
1.04500000000E+09 -6.08606668705E-01 +7.45823932675E-01 -4.69551872228E-05 +1.50782632204E-05 -2.52264987165E-05 +3.30534361382E-05 -7.23779155619E-01 +6.58622303509E-01
1.05000000000E+09 -6.01627888177E-01 +7.50036894505E-01 -2.92520516313E-05 +6.25130312794E-05 +1.45045692594E-05 +2.22109639860E-05 -7.20294425202E-01 +6.62007544538E-01
1.05500000000E+09 -5.93472553277E-01 +7.54676007185E-01 -1.22687650330E-05 -2.49363190963E-06 +3.96784272424E-06 +8.70871340630E-07 -7.17030632069E-01 +6.65537332333E-01
1.06000000000E+09 -5.84987076294E-01 +7.59716192972E-01 -5.44404928584E-06 +4.98105858737E-06 +3.87487944147E-05 +2.24057681843E-05 -7.13744350404E-01 +6.69329219206E-01
1.06500000000E+09 -5.77083939212E-01 +7.64659709763E-01 +6.63463124821E-05 +2.07787325697E-05 +2.41346646678E-05 +3.23441822409E-05 -7.10035851112E-01 +6.73030034326E-01
1.07000000000E+09 -5.70138464181E-01 +7.68907632782E-01 -1.44302767469E-05 +2.20517405117E-05 +9.27527181787E-06 +2.28155792173E-05 -7.06174983061E-01 +6.76550317511E-01
1.07500000000E+09 -5.64535785601E-01 +7.72560950366E-01 +5.06468200828E-05 -4.06438101357E-06 -2.04964382275E-05 -6.38137558067E-06 -7.01889070338E-01 +6.80383084011E-01
1.08000000000E+09 -5.60534453048E-01 +7.75501909700E-01 +2.82750697660E-05 -1.00184586292E-05 +3.32682995931E-05 +2.95647076926E-05 -6.97726127569E-01 +6.84263536415E-01
1.08500000000E+09 -5.57625234018E-01 +7.77942550619E-01 +5.30998548033E-05 -1.57741907286E-05 +7.38127990455E-06 +2.54388513613E-05 -6.93690300767E-01 +6.87993922687E-01
1.09000000000E+09 -5.55349012739E-01 +7.79862391664E-01 +9.56385563036E-06 +1.49645036097E-06 +3.23494483366E-05 -1.52883073848E-05 -6.89791357805E-01 +6.91983280912E-01
1.09500000000E+09 -5.53038892907E-01 +7.81644644993E-01 +2.41110539680E-05 +2.28918920672E-05 +2.16344000911E-06 +3.08671670425E-05 -6.86040958506E-01 +6.96003263782E-01
1.10000000000E+09 -5.49619239126E-01 +7.83765003850E-01 +2.69330777090E-06 -1.21539927610E-05 +1.36298547595E-05 -3.20651319736E-05 -6.82186548365E-01 +6.99729865915E-01
1.10500000000E+09 -5.45286561641E-01 +7.86430664187E-01 +2.40219191035E-05 -1.13088265249E-05 +1.07410727397E-05 -7.91044936830E-06 -6.77933170162E-01 +7.03128017183E-01
1.11000000000E+09 -5.39376447429E-01 +7.89581255631E-01 +3.05956540360E-05 -1.88050930871E-05 +6.81923914543E-05 +1.64954182907E-05 -6.73716331736E-01 +7.06591194270E-01
1.11500000000E+09 -5.32336282334E-01 +7.93118141609E-01 +5.70840941749E-05 +8.65620627570E-06 -2.44290067978E-05 +1.36624235412E-05 -6.69464019191E-01 +7.10113981284E-01
1.12000000000E+09 -5.24795377941E-01 +7.97110886950E-01 +2.25398297185E-05 +1.55025990972E-05 +2.76172836064E-05 +4.32819348930E-06 -6.65409505218E-01 +7.13823867370E-01
1.12500000000E+09 -5.17022459134E-01 +8.00998178206E-01 +7.13050065836E-05 -8.24359124585E-06 -3.48981266130E-06 -1.01910677734E-05 -6.61025951866E-01 +7.17901017164E-01
1.13000000000E+09 -5.10145906583E-01 +8.04651225208E-01 -4.94893011822E-06 +1.34334324312E-05 +5.28168934408E-05 +5.19817349787E-06 -6.56928519181E-01 +7.21637236153E-01
1.13500000000E+09 -5.03779624585E-01 +8.07320330192E-01 +2.51496787269E-05 -6.48623624546E-06 +1.47494066961E-05 +6.81142770613E-05 -6.52425124132E-01 +7.25435280955E-01
1.14000000000E+09 -4.98730980240E-01 +8.09868597587E-01 +3.89768225316E-06 -2.93036076453E-05 +2.79322263565E-05 -1.43560430394E-07 -6.47749624391E-01 +7.28875816468E-01
1.14500000000E+09 -4.94559988614E-01 +8.11657855113E-01 -1.19966963851E-06 +3.30362380818E-05 +1.62988444960E-06 +1.53332040601E-05 -6.43059162220E-01 +7.32315102486E-01
1.15000000000E+09 -4.90456464932E-01 +8.13323190975E-01 +1.78269888482E-06 +2.67987417412E-05 -6.89522239948E-06 -2.93791386437E-05 -6.38361547458E-01 +7.36145015095E-01
1.15500000000E+09 -4.86391716807E-01 +8.15046687515E-01 -1.16194382513E-05 -1.20284410962E-05 -1.14871155103E-05 -4.15422932493E-05 -6.33543470596E-01 +7.40063006111E-01
1.16000000000E+09 -4.81224789153E-01 +8.17018918265E-01 +3.78574491473E-05 -1.15392458202E-05 +3.26469151367E-05 -7.46144902980E-06 -6.28583989246E-01 +7.43798064125E-01
1.16500000000E+09 -4.75054295286E-01 +8.19656965070E-01 +4.35246735255E-05 -5.70573918939E-06 +1.43389746060E-05 +3.70995675204E-05 -6.23590381796E-01 +7.47429749669E-01
1.17000000000E+09 -4.67711134074E-01 +8.22780686958E-01 +7.43874105109E-06 -1.39774421569E-05 +6.94828469375E-05 +4.49411073638E-05 -6.18250536234E-01 +7.50766283940E-01
1.17500000000E+09 -4.59692511431E-01 +8.26069778359E-01 -4.30714088219E-06 -2.29393451193E-05 +9.17750510785E-07 -4.62839798857E-05 -6.12416373696E-01 +7.54221443410E-01
1.18000000000E+09 -4.51609551332E-01 +8.29488002455E-01 +3.32771538307E-05 -1.65244903591E-05 +4.34935781966E-05 -1.91191004731E-05 -6.06937223403E-01 +7.57331261606E-01
1.18500000000E+09 -4.43731881560E-01 +8.32672609020E-01 +8.07677595385E-05 -8.21101533115E-05 +5.84908545307E-05 -6.83002493625E-05 -6.00711119039E-01 +7.60541008821E-01
1.19000000000E+09 -4.36454861694E-01 +8.35197191011E-01 +3.97914264682E-05 -8.38663850037E-05 +2.89775691947E-05 -3.85124018898E-05 -5.94440219904E-01 +7.63131094735E-01
1.19500000000E+09 -4.30081869542E-01 +8.37218753869E-01 +1.81512870500E-05 -8.79916274646E-05 -2.41581560563E-05 -1.58905416314E-04 -5.88514688287E-01 +7.64429728191E-01
1.20000000000E+09 -4.24976224625E-01 +8.38104785921E-01 -4.45219239037E-05 -1.19467546515E-04 -3.24683681306E-05 -1.36318074179E-04 -5.83923911072E-01 +7.64544830896E-01
1.20500000000E+09 -4.20122573355E-01 +8.39267861751E-01 -9.15429820580E-05 -6.02566915656E-05 -9.01980720680E-05 -5.13232670937E-05 -5.81687562444E-01 +7.65222748002E-01
1.21000000000E+09 -4.15272784874E-01 +8.40534643269E-01 -8.65388018648E-05 -4.09144347092E-05 -1.29270548158E-04 -2.29492426098E-05 -5.79912833516E-01 +7.68414931094E-01
1.21500000000E+09 -4.09299503972E-01 +8.42050421056E-01 -3.11317040033E-05 +2.65857394995E-06 -3.35287646375E-05 -1.93772249392E-05 -5.77370058422E-01 +7.72830518044E-01
1.22000000000E+09 -4.02126436809E-01 +8.43888281628E-01 -3.35723022915E-05 +3.53933363410E-05 -3.43946743310E-05 -2.38973128935E-05 -5.73050793184E-01 +7.78193234750E-01
1.22500000000E+09 -3.93445163157E-01 +8.46418925961E-01 -2.25759248941E-07 +3.39560750624E-05 +2.00455423856E-05 -4.25686904388E-07 -5.67823837041E-01 +7.83477822186E-01
1.23000000000E+09 -3.84048628239E-01 +8.49492460324E-01 -2.24562734256E-05 -3.38866730474E-06 +1.85238763407E-06 -1.09903609279E-05 -5.62142636767E-01 +7.88055404528E-01
1.23500000000E+09 -3.74430649216E-01 +8.52726907574E-01 -1.75540319035E-05 -1.69391263407E-05 -5.07885271111E-06 +1.85102724744E-05 -5.56245585991E-01 +7.92415933594E-01
1.24000000000E+09 -3.64928824869E-01 +8.56176688653E-01 -3.63726433092E-05 -4.95184408779E-05 -2.61675108477E-05 -6.45553595553E-05 -5.50281411760E-01 +7.96372256414E-01
1.24500000000E+09 -3.56455808834E-01 +8.59852296908E-01 -1.07171106458E-05 -5.25187006941E-05 -6.24334782546E-05 -5.92333162993E-05 -5.43928093399E-01 +8.00277437413E-01
1.25000000000E+09 -3.48636589409E-01 +8.62822476321E-01 -6.91241189934E-05 -5.53821456612E-05 -4.19616539120E-05 -2.61556378267E-05 -5.37331843506E-01 +8.04466488436E-01
1.25500000000E+09 -3.41829719793E-01 +8.64986864188E-01 -4.75787743485E-05 -1.13250278217E-05 -8.92360953379E-05 -2.14354975406E-05 -5.30452765702E-01 +8.08476423730E-01
1.26000000000E+09 -3.35687821646E-01 +8.66282454312E-01 -4.55814734853E-05 -2.82504110887E-05 -5.42208852908E-05 +5.51473129165E-06 -5.23571611156E-01 +8.12821400432E-01
1.26500000000E+09 -3.29748550415E-01 +8.67140721281E-01 -7.86813160947E-05 -1.37211489750E-05 -6.42877036877E-05 -2.28790026293E-06 -5.16691288533E-01 +8.16679872697E-01
1.27000000000E+09 -3.23153394035E-01 +8.67741351230E-01 -5.55123418806E-05 -3.23905595494E-05 -6.88358575306E-05 -4.07614001443E-05 -5.09768457792E-01 +8.20689586430E-01
1.27500000000E+09 -3.15054614587E-01 +8.68382563477E-01 -6.47658678926E-05 -8.29549293548E-05 -7.36596968329E-05 -6.15540464689E-05 -5.02811089577E-01 +8.24197857651E-01
1.28000000000E+09 -3.05447330356E-01 +8.69437551350E-01 -8.56935958970E-05 +1.38673525495E-05 -9.77991286580E-05 -5.25237467189E-06 -4.95735668982E-01 +8.27573888769E-01
1.28500000000E+09 -2.94140535139E-01 +8.70943607996E-01 -9.38554825335E-05 -3.86005538803E-06 -1.18749384823E-04 +4.82086435726E-05 -4.88323384872E-01 +8.31362544021E-01
1.29000000000E+09 -2.82022463701E-01 +8.73012857697E-01 -9.44838638426E-05 +1.73869791497E-05 -3.97547606146E-05 +3.99601158975E-05 -4.80735836363E-01 +8.34917358709E-01
1.29500000000E+09 -2.69650512571E-01 +8.75741044393E-01 -8.14259150709E-05 +1.75891641491E-05 -1.00261263080E-04 +2.00838048271E-05 -4.72664190233E-01 +8.38552223069E-01
1.30000000000E+09 -2.57780203256E-01 +8.79049183194E-01 -1.06242619711E-04 +1.32295035421E-05 -7.68489438788E-05 -2.15421749194E-05 -4.64789171727E-01 +8.42171615923E-01
1.30500000000E+09 -2.47260257295E-01 +8.82279681744E-01 -1.07604820005E-04 +1.41107105956E-05 -1.22243770828E-04 +9.53382914582E-05 -4.56682678710E-01 +8.45684735599E-01
1.31000000000E+09 -2.37993465420E-01 +8.84887304176E-01 -1.40192434704E-04 +1.34039826164E-04 -1.22686678945E-04 +6.25687478739E-05 -4.48294765182E-01 +8.48973315819E-01
1.31500000000E+09 -2.30635787000E-01 +8.86522330060E-01 -1.31798915425E-04 +9.78184555964E-05 -1.21590056598E-04 +1.23673724999E-04 -4.39435062410E-01 +8.52519045571E-01
1.32000000000E+09 -2.24265614592E-01 +8.87357114142E-01 -6.31020587871E-05 +1.10972532729E-04 -1.15306049220E-04 +1.10045116382E-04 -4.30371168296E-01 +8.56106205942E-01
1.32500000000E+09 -2.18336423907E-01 +8.87078868712E-01 -6.97226434643E-05 +1.24149103035E-04 -1.22060503248E-04 +1.02545777392E-04 -4.20672802284E-01 +8.59450043661E-01
1.33000000000E+09 -2.11588299889E-01 +8.86633710160E-01 -3.53495995738E-05 +1.25597894196E-04 -5.79057654073E-05 +1.27674838026E-04 -4.10753643632E-01 +8.62692146864E-01
1.33500000000E+09 -2.03306377864E-01 +8.85692678346E-01 -2.75015304868E-05 +1.18713777053E-04 -3.13094361730E-05 +1.54022207566E-04 -4.00826692187E-01 +8.65982565380E-01
1.34000000000E+09 -1.92454627791E-01 +8.85035191574E-01 -8.21956578613E-06 +1.78382741073E-04 -8.44804622702E-06 +1.26252034213E-04 -3.90632963415E-01 +8.69271067674E-01
1.34500000000E+09 -1.79347304979E-01 +8.84540850276E-01 -3.32162845429E-05 +1.18005776738E-04 -7.73091885353E-05 +1.36232813932E-04 -3.79693367586E-01 +8.72601820037E-01
1.35000000000E+09 -1.64342805702E-01 +8.84522993993E-01 -5.41291849015E-05 +1.67854175986E-04 -1.77421633645E-05 +2.13630124410E-04 -3.68519314044E-01 +8.75715592693E-01
1.35500000000E+09 -1.48242409003E-01 +8.85087346671E-01 +4.26704173419E-05 +2.05080658158E-04 +6.38479014762E-06 +2.02273251769E-04 -3.56855672459E-01 +8.78406296829E-01
1.36000000000E+09 -1.31955121850E-01 +8.85591171239E-01 +2.64749136213E-06 +2.61548824525E-04 -9.81161173081E-06 +2.45176602961E-04 -3.44936671906E-01 +8.81075578292E-01
1.36500000000E+09 -1.16323378936E-01 +8.86239723571E-01 +6.51263907514E-05 +3.29191706980E-04 +2.80942298022E-05 +2.99068114675E-04 -3.32664490710E-01 +8.83568171366E-01
1.37000000000E+09 -1.02230233238E-01 +8.86125611711E-01 +1.30089816440E-04 +3.81051866219E-04 +1.15759617542E-04 +3.44057616554E-04 -3.19695791750E-01 +8.85892591107E-01
1.37500000000E+09 -9.00210184923E-02 +8.85392827883E-01 +2.95033324699E-04 +2.45000715503E-04 +2.69607103369E-04 +3.23037511367E-04 -3.06146672391E-01 +8.88089265528E-01
1.38000000000E+09 -7.91337267214E-02 +8.84029054588E-01 +2.81466900127E-04 +1.73658845588E-04 +2.64326669543E-04 +1.77922812178E-04 -2.91445661765E-01 +8.90081548743E-01
1.38500000000E+09 -6.81783364772E-02 +8.82023632691E-01 +2.65822292359E-04 +2.16139546632E-04 +2.76878585990E-04 +2.38268838857E-04 -2.76142842312E-01 +8.91796892848E-01
1.39000000000E+09 -5.64655450686E-02 +8.79082545044E-01 +2.69293434695E-04 +1.98647234482E-04 +3.58473824714E-04 +2.66234087152E-04 -2.60403174567E-01 +8.93267710442E-01
1.39500000000E+09 -4.30208623370E-02 +8.75269941946E-01 +3.93426941762E-04 +2.24808758245E-04 +4.64992572938E-04 +2.14501384499E-04 -2.43524612399E-01 +8.94058380025E-01
1.40000000000E+09 -2.70643797358E-02 +8.70556909043E-01 +5.26968127561E-04 +2.12947789027E-04 +6.06868007487E-04 +1.60282024182E-04 -2.25747481034E-01 +8.94590875861E-01
1.40500000000E+09 -9.17728064928E-03 +8.65263929503E-01 +6.53996355881E-04 +3.15898967479E-05 +6.74023871237E-04 -1.63448727158E-06 -2.07057662956E-01 +8.94293155823E-01
1.41000000000E+09 +1.09276160785E-02 +8.59792109110E-01 +6.49105800344E-04 -2.18059990799E-04 +6.25524594051E-04 -2.03131607102E-04 -1.87299020710E-01 +8.93365159153E-01
1.41500000000E+09 +3.22213614927E-02 +8.54218801040E-01 +5.47244808272E-04 -2.81266537238E-04 +5.71027245264E-04 -2.62123555288E-04 -1.65832458475E-01 +8.91959181049E-01
1.42000000000E+09 +5.47131296701E-02 +8.48160347739E-01 +5.03483728781E-04 -4.11315988552E-04 +5.78107062923E-04 -4.23455756238E-04 -1.43293776296E-01 +8.89330172170E-01
1.42500000000E+09 +7.70580228251E-02 +8.40816359533E-01 +3.80213065966E-04 -4.23870454985E-04 +3.94850177690E-04 -4.78522653809E-04 -1.19726822083E-01 +8.85840372036E-01
1.43000000000E+09 +9.85778182948E-02 +8.31701192650E-01 +3.80280477523E-04 -4.50793814242E-04 +4.06016721788E-04 -5.03832153450E-04 -9.50773410381E-02 +8.81408289216E-01
1.43500000000E+09 +1.19276977487E-01 +8.20903959811E-01 +3.62271381487E-04 -5.54774298545E-04 +3.39905768654E-04 -6.17020099550E-04 -6.86681021760E-02 +8.74906690225E-01
1.44000000000E+09 +1.39686172503E-01 +8.08352285216E-01 +4.04662812828E-04 -6.60135749779E-04 +3.27977621441E-04 -7.49419582994E-04 -4.07196121030E-02 +8.66484029632E-01
1.44500000000E+09 +1.60960631263E-01 +7.93509345533E-01 +2.49006232547E-04 -9.39632242373E-04 +1.56890123329E-04 -1.00032461759E-03 -1.07146994942E-02 +8.55403230022E-01
1.45000000000E+09 +1.83845634113E-01 +7.75475590739E-01 -1.43517594728E-04 -9.86851067061E-04 -2.34215839835E-04 -9.80051525072E-04 +2.10212072825E-02 +8.41283701321E-01
1.45500000000E+09 +2.08318102165E-01 +7.54179587985E-01 -3.44300359781E-04 -7.91269707592E-04 -4.58733000674E-04 -7.54579663991E-04 +5.42816460548E-02 +8.23901592652E-01
1.46000000000E+09 +2.35106234182E-01 +7.29625459255E-01 -4.34244177962E-04 -6.45404579085E-04 -4.88964610649E-04 -5.94135328003E-04 +8.90030148018E-02 +8.02751153587E-01
1.46500000000E+09 +2.63733875962E-01 +7.01057834347E-01 -4.14219053603E-04 -4.58261003134E-04 -3.80600766135E-04 -3.95883834700E-04 +1.25351923427E-01 +7.76844505589E-01
1.47000000000E+09 +2.93437573630E-01 +6.68370806556E-01 -1.96245069994E-04 -5.56616332801E-04 -1.90938402549E-04 -4.91519249160E-04 +1.62981821761E-01 +7.44333119027E-01
1.47500000000E+09 +3.22857109692E-01 +6.30517020663E-01 -3.41053043031E-04 -8.77491471732E-04 -3.09099225264E-04 -8.44049195628E-04 +2.01144608341E-01 +7.04212154684E-01
1.48000000000E+09 +3.49749679413E-01 +5.86929662025E-01 -7.70258466849E-04 -8.44642247277E-04 -7.80861334816E-04 -8.84125678140E-04 +2.38676326393E-01 +6.55188560648E-01
1.48500000000E+09 +3.72931839320E-01 +5.37389006537E-01 -1.01289539872E-03 -7.00486237392E-04 -1.04836557973E-03 -7.31218500932E-04 +2.73688615462E-01 +5.96653741951E-01
1.49000000000E+09 +3.90930975748E-01 +4.80443179407E-01 -1.30634797722E-03 -4.57990469379E-04 -1.26814784912E-03 -3.99137576307E-04 +3.03264684689E-01 +5.27791421241E-01
1.49500000000E+09 +4.02241623830E-01 +4.15799399074E-01 -1.46664739976E-03 -3.77753998115E-04 -1.44871723044E-03 -2.71026737028E-04 +3.24517646273E-01 +4.48216668427E-01
1.50000000000E+09 +4.04607255662E-01 +3.41506097123E-01 -1.71043300353E-03 +1.84225988434E-04 -1.61053564934E-03 +1.40312835765E-04 +3.32749905034E-01 +3.57484367444E-01
1.50500000000E+09 +3.94312704331E-01 +2.59511207122E-01 -1.53981776241E-03 +7.63622177855E-04 -1.51394936963E-03 +6.58431404857E-04 +3.22294167109E-01 +2.58239423839E-01
1.51000000000E+09 +3.70004533034E-01 +1.71877387782E-01 -1.27175526980E-03 +7.97380187721E-04 -1.26704892314E-03 +6.88378380602E-04 +2.90624155112E-01 +1.56787712180E-01
1.51500000000E+09 +3.28703671441E-01 +8.19279660984E-02 -1.51700946265E-03 +1.13223493684E-03 -1.53651053317E-03 +1.07871182810E-03 +2.37904910595E-01 +5.73618930398E-02
1.52000000000E+09 +2.66120040467E-01 -3.51019176352E-03 -1.34278455948E-03 +1.63907651999E-03 -1.41475771503E-03 +1.61165727434E-03 +1.61422976145E-01 -3.25519148033E-02
1.52500000000E+09 +1.86179590527E-01 -7.56529071494E-02 -7.94521582254E-04 +2.53487304904E-03 -8.47615688254E-04 +2.58381014750E-03 +6.45312238842E-02 -1.03262597443E-01
1.53000000000E+09 +9.04155242826E-02 -1.29905081781E-01 +2.82928761751E-04 +2.88336493983E-03 +2.27132485356E-04 +2.92095439496E-03 -4.28927020450E-02 -1.50093615821E-01
1.53500000000E+09 -1.60444864233E-02 -1.60527398226E-01 +2.01709287487E-03 +2.22449296043E-03 +2.00004926402E-03 +2.25802311724E-03 -1.56302013223E-01 -1.73593435608E-01
1.54000000000E+09 -1.26255167926E-01 -1.64409423044E-01 +1.78054507128E-03 +8.37371022094E-04 +1.76255964585E-03 +8.23428768241E-04 -2.69280900371E-01 -1.71275782414E-01
1.54500000000E+09 -2.31923186317E-01 -1.44054801527E-01 +1.56098635475E-03 +5.35846235030E-04 +1.55480915657E-03 +5.49726269085E-04 -3.70360607227E-01 -1.47662157357E-01
1.55000000000E+09 -3.27511531412E-01 -1.04534503131E-01 +1.62816203471E-03 +1.83086156882E-05 +1.58862232912E-03 +6.08651065768E-05 -4.58820696963E-01 -1.09418453039E-01
1.55500000000E+09 -4.09147375048E-01 -5.16746373893E-02 +1.05835662091E-03 -3.95652536406E-04 +1.16023063238E-03 -3.91568399148E-04 -5.31686859301E-01 -5.99824831008E-02
1.56000000000E+09 -4.75228239704E-01 +7.27850347125E-03 +8.12166369654E-04 +2.59236897005E-05 +8.36110130189E-04 +4.72010958089E-05 -5.89427997813E-01 -5.37987542185E-03
1.56500000000E+09 -5.27084124984E-01 +6.77208183071E-02 +1.23476472031E-03 -9.56504358945E-05 +1.25111674107E-03 -1.16198330842E-04 -6.34250350853E-01 +5.15389195098E-02
1.57000000000E+09 -5.66495466070E-01 +1.26623827954E-01 +1.45446666360E-03 -9.48034707674E-04 +1.51436788794E-03 -1.04398397162E-03 -6.68133448593E-01 +1.07543241471E-01
