# Hz S RI R 50
! CMT, C1220, 16058040, 17.2.0/1
! Date: 14/08/2018 11:49:38
! Data: Format (Calibration Info)
! Freq                      S11: Re/Im (F2)                       S21: Re/Im (F2)                       S12: Re/Im (F2)                       S22: Re/Im (F2)            
1.00000000000E+09 -6.47098907925E-01 +7.15007033649E-01 -9.29175897883E-06 +8.51836119835E-06 -3.04948089296E-05 -2.69011284595E-05 -7.55335333071E-01 +6.24116096293E-01
1.00500000000E+09 -6.39988743088E-01 +7.20075874720E-01 -4.93532046693E-05 +1.45823343995E-05 -9.17987581560E-05 +6.30242774660E-05 -7.51666076207E-01 +6.28332700765E-01
1.01000000000E+09 -6.33778066404E-01 +7.24777945570E-01 -2.39590618283E-05 -2.85944037728E-05 -5.59174737010E-06 -1.94781021327E-05 -7.48096912294E-01 +6.31920301707E-01
1.01500000000E+09 -6.29168807998E-01 +7.28535378120E-01 -3.61650451150E-05 -1.25496841176E-05 -4.14475751717E-05 -1.49813146074E-05 -7.44876732990E-01 +6.35956170742E-01
1.02000000000E+09 -6.25530614282E-01 +7.31827204183E-01 -4.74610272709E-05 -1.21722433568E-05 +8.27054189362E-06 -5.47022681282E-05 -7.41220185231E-01 +6.39578961708E-01
1.02500000000E+09 -6.22939763304E-01 +7.34331455159E-01 +9.97173668679E-07 +6.08392080537E-06 +6.97341847048E-06 -2.69194437986E-05 -7.38285149489E-01 +6.43174667958E-01
1.03000000000E+09 -6.20635893616E-01 +7.36661489195E-01 -1.29954658725E-05 -3.66006813550E-06 -1.25306662631E-05 -1.63275119266E-05 -7.34916848953E-01 +6.47023751517E-01
1.03500000000E+09 -6.17643555920E-01 +7.38876976906E-01 -1.87237024823E-05 -6.16075863033E-06 -5.06105625454E-05 +5.93778788158E-05 -7.31135894083E-01 +6.50923252860E-01
1.04000000000E+09 -6.13615040037E-01 +7.41745519429E-01 +2.29422612832E-05 -2.36909195286E-06 -1.89493396243E-05 +1.80766906860E-05 -7.27514464351E-01 +6.54663344911E-01
1.04500000000E+09 -6.08163752614E-01 +7.45137576855E-01 -1.18389317801E-05 +3.20982735434E-05 -2.94211505265E-05 -2.83231204525E-05 -7.23886846813E-01 +6.58200565629E-01
1.05000000000E+09 -6.00996943368E-01 +7.49425974210E-01 +7.41182342051E-06 +1.60047869793E-05 -2.80438010969E-05 -2.51010611646E-05 -7.20447307473E-01 +6.61624695799E-01
1.05500000000E+09 -5.92911430847E-01 +7.54181090742E-01 -7.22711149208E-06 +3.28338332542E-05 +2.12654007500E-05 +3.75194112049E-05 -7.17193334043E-01 +6.65172187939E-01
1.06000000000E+09 -5.84075405741E-01 +7.59230486864E-01 -2.54387844599E-05 +1.27979941083E-05 -6.98794824551E-05 -3.16095189418E-05 -7.13920357698E-01 +6.68909619628E-01
1.06500000000E+09 -5.75754147752E-01 +7.64381623151E-01 -3.58959651271E-06 +2.43612803052E-06 -4.82770993397E-07 +4.97263076868E-05 -7.10217863859E-01 +6.72733507030E-01
1.07000000000E+09 -5.68623872513E-01 +7.68629328874E-01 +8.91445686139E-06 +5.66382639368E-05 -1.33020170888E-05 +3.28374887106E-05 -7.06429773267E-01 +6.76316210481E-01
1.07500000000E+09 -5.63016874882E-01 +7.72383442787E-01 +5.74617398354E-05 +3.84147364528E-05 +5.84565216492E-06 +3.35012902989E-05 -7.02059377321E-01 +6.80012811145E-01
1.08000000000E+09 -5.59095104195E-01 +7.75485522887E-01 +1.42781640198E-05 +5.86332356644E-05 -3.67703610897E-05 -1.24881740071E-05 -6.98034165072E-01 +6.83966914393E-01
1.08500000000E+09 -5.56509135965E-01 +7.77685729458E-01 +1.50413690678E-05 +6.53510576151E-06 +3.59190740587E-05 -1.95236869746E-05 -6.93917788329E-01 +6.87711392366E-01
1.09000000000E+09 -5.54423267642E-01 +7.79475029276E-01 -4.36305076917E-06 -5.61156632822E-06 +1.28500786547E-05 -2.48324094813E-05 -6.89850959797E-01 +6.91515457563E-01
1.09500000000E+09 -5.52545242855E-01 +7.80922333837E-01 -2.41598066268E-05 +5.25445518282E-07 +3.78540354129E-05 +3.60151285555E-05 -6.86105763855E-01 +6.95484114609E-01
1.10000000000E+09 -5.49434199211E-01 +7.82825463595E-01 +3.81126576863E-05 +1.28613353950E-06 +4.27970368395E-05 +3.90748448819E-05 -6.82199392947E-01 +6.99314013847E-01
1.10500000000E+09 -5.45199220365E-01 +7.85468339016E-01 +2.38239573855E-05 +6.33375917214E-05 +6.07066183884E-05 +1.48019178015E-05 -6.78126833761E-01 +7.02869809983E-01
1.11000000000E+09 -5.39355198986E-01 +7.88610561238E-01 +1.57977491901E-05 +9.10355016764E-06 +3.63010816882E-05 -3.32500548031E-05 -6.73818482311E-01 +7.06228059821E-01
1.11500000000E+09 -5.32209464396E-01 +7.92562358254E-01 +4.03770727028E-05 -1.67442162797E-05 +3.21789909125E-05 -2.82998072786E-05 -6.69699389820E-01 +7.09734705644E-01
1.12000000000E+09 -5.24379880864E-01 +7.96598319699E-01 +2.75278803820E-05 -2.34972090315E-05 +4.05075623777E-05 +2.07947202436E-05 -6.65499234573E-01 +7.13498854043E-01
1.12500000000E+09 -5.16515714085E-01 +8.00591954308E-01 +4.19451204088E-05 -8.86019955773E-06 +2.43727793895E-05 +9.06556203057E-06 -6.61248720695E-01 +7.17608983716E-01
1.13000000000E+09 -5.09305168622E-01 +8.04349019343E-01 -1.57565226480E-05 +1.61867280587E-05 +1.71117597202E-05 +3.06277631779E-06 -6.56956710524E-01 +7.21143504739E-01
1.13500000000E+09 -5.03009817933E-01 +8.07029123913E-01 +1.62561465393E-05 -1.96953224439E-05 +2.26406676033E-05 +3.92452386827E-05 -6.52517971746E-01 +7.24954438188E-01
1.14000000000E+09 -4.98051516984E-01 +8.09516161040E-01 +1.11464082620E-05 +2.44815610791E-05 +5.11414273396E-05 +1.84055313687E-05 -6.47881932434E-01 +7.28582255137E-01
1.14500000000E+09 -4.93917158149E-01 +8.11141656579E-01 +1.14643539926E-05 +2.48808923874E-05 +1.10309850878E-05 +8.36308841966E-07 -6.43432112016E-01 +7.31940938659E-01
1.15000000000E+09 -4.90156016289E-01 +8.12508406656E-01 +2.31680213898E-05 +9.34217381902E-06 +1.54522844477E-05 -4.68745202726E-05 -6.38529483356E-01 +7.35787605292E-01
1.15500000000E+09 -4.86158319910E-01 +8.14214241649E-01 -2.87763597941E-06 -1.20053082155E-05 +5.32938144764E-05 -1.04673905299E-05 -6.33724231178E-01 +7.39460806598E-01
1.16000000000E+09 -4.81176431633E-01 +8.16029948935E-01 +5.96750409656E-06 -5.57553102509E-06 -1.01734800707E-05 -3.07171869110E-05 -6.28914243798E-01 +7.43627753908E-01
1.16500000000E+09 -4.75265023540E-01 +8.18671416282E-01 +2.79077704581E-05 +8.06394219923E-06 +1.00555888582E-04 -1.10902805289E-05 -6.23744543357E-01 +7.47123831786E-01
1.17000000000E+09 -4.68055216453E-01 +8.21863434431E-01 +5.10879836941E-05 -1.43282856444E-05 +5.53818914829E-05 -3.41817417280E-05 -6.18306397741E-01 +7.50535729433E-01
1.17500000000E+09 -4.59883233982E-01 +8.25194224560E-01 +3.92820109396E-05 -2.56534210500E-05 +3.27401860630E-05 -4.47061589106E-05 -6.12617977952E-01 +7.53860951565E-01
1.18000000000E+09 -4.51664879972E-01 +8.28907377042E-01 +4.02068874686E-05 -1.27484073144E-05 +7.77087049797E-05 -2.96133397927E-05 -6.07180759435E-01 +7.57041781591E-01
1.18500000000E+09 -4.43497540508E-01 +8.32252120723E-01 +6.78394325876E-05 -6.78977154043E-05 +7.12303081275E-05 -6.77891145837E-05 -6.01247824125E-01 +7.59972655823E-01
1.19000000000E+09 -4.36077413962E-01 +8.34818018257E-01 +2.39188403822E-05 -1.79247381165E-05 +3.85332330651E-05 -1.31173322996E-04 -5.94854113738E-01 +7.62725397573E-01
1.19500000000E+09 -4.29931839212E-01 +8.36790065933E-01 +1.01971295591E-05 -1.08813379177E-04 +8.84044208017E-06 -1.35897365370E-04 -5.88972197688E-01 +7.64063923362E-01
1.20000000000E+09 -4.24656560338E-01 +8.37739749461E-01 +7.12026332545E-06 -1.46081208350E-04 -2.76143233971E-05 -1.47594404767E-04 -5.84150944423E-01 +7.64222388484E-01
1.20500000000E+09 -4.20233598429E-01 +8.38747674249E-01 -1.26518006419E-04 -8.51242021032E-05 -1.26001882227E-04 -1.14156835329E-04 -5.81937909295E-01 +7.65047551166E-01
1.21000000000E+09 -4.15494363454E-01 +8.39832028746E-01 -8.92536304446E-05 -2.84834110169E-05 -8.03995344068E-05 -2.94678251136E-05 -5.80134883195E-01 +7.67950838501E-01
1.21500000000E+09 -4.09622642071E-01 +8.41141627621E-01 -8.25141874383E-05 -9.66003123590E-06 -4.79743055297E-05 -1.29149088508E-05 -5.77506769865E-01 +7.72421343490E-01
1.22000000000E+09 -4.02560363181E-01 +8.42854617304E-01 -3.27934814124E-05 +4.06114484162E-05 -1.27068572632E-05 -2.56990513126E-05 -5.73330657838E-01 +7.77855169015E-01
1.22500000000E+09 -3.94166707838E-01 +8.45422958957E-01 +2.82748816995E-05 -9.88753886536E-06 -8.43340852016E-06 -5.35857633444E-07 -5.68171102960E-01 +7.82921474109E-01
1.23000000000E+09 -3.84645503485E-01 +8.48437340957E-01 -2.64280017005E-05 -1.74790594542E-05 -5.90081126867E-05 +3.12446254884E-06 -5.62492380410E-01 +7.87657707551E-01
1.23500000000E+09 -3.74828413994E-01 +8.51853745704E-01 -4.25110699463E-05 -2.80151701709E-05 +7.29604807121E-06 -2.12752585839E-05 -5.56527271436E-01 +7.92110281829E-01
1.24000000000E+09 -3.65290841598E-01 +8.55682522810E-01 -3.64845493618E-06 -2.56383841116E-05 +7.93668942561E-06 -2.81074887672E-05 -5.50603650022E-01 +7.95980208391E-01
1.24500000000E+09 -3.56586815368E-01 +8.59462717575E-01 -5.55335008008E-05 -4.44733326203E-06 +4.38127139789E-07 -3.87133324838E-05 -5.44204334858E-01 +7.99893392355E-01
1.25000000000E+09 -3.48743080586E-01 +8.62530698946E-01 -4.53518646066E-05 -6.51936987357E-05 -5.06731496525E-05 -1.36782212264E-05 -5.37470857907E-01 +8.04144830517E-01
1.25500000000E+09 -3.42152203617E-01 +8.64678135965E-01 -6.87809633542E-05 -8.80143155171E-06 -2.34201411326E-05 -1.96299738629E-05 -5.30664113699E-01 +8.08095727608E-01
1.26000000000E+09 -3.36090759145E-01 +8.66087688072E-01 -4.25014206062E-05 +1.93788996886E-05 -7.57742266620E-05 +2.85684500517E-05 -5.24028882765E-01 +8.12572833959E-01
1.26500000000E+09 -3.30301862895E-01 +8.66659152769E-01 -7.35068544982E-05 -1.69767824315E-05 -2.79582536889E-05 +1.29255792224E-05 -5.16994543848E-01 +8.16413312289E-01
1.27000000000E+09 -3.23945381043E-01 +8.67063908251E-01 -2.24072632933E-05 +2.45840059165E-06 -5.15389323782E-05 -2.42800533700E-05 -5.10153477466E-01 +8.20204021330E-01
1.27500000000E+09 -3.16321513524E-01 +8.67628418017E-01 -7.97605535104E-05 -1.61525127474E-05 -7.98301809299E-05 +7.16200733111E-06 -5.03124836261E-01 +8.23885639994E-01
1.28000000000E+09 -3.06737297084E-01 +8.68578613138E-01 -9.48651245000E-05 -2.46559564588E-05 -8.84372884755E-05 -6.64822366540E-05 -4.96227977993E-01 +8.27354237123E-01
1.28500000000E+09 -2.95454137615E-01 +8.70089506838E-01 -8.61184073709E-05 -7.82054497145E-06 -6.60641297108E-05 +9.79414505934E-06 -4.88705894188E-01 +8.31081598497E-01
1.29000000000E+09 -2.83157407409E-01 +8.72370960968E-01 -9.13674677552E-05 +2.32663170928E-06 -9.49693239429E-05 +4.58135506291E-05 -4.81141551080E-01 +8.34918148596E-01
1.29500000000E+09 -2.70744547071E-01 +8.75257395099E-01 -9.90376334559E-05 +3.43636099797E-06 -4.65650349154E-05 +3.33053308860E-05 -4.73239829811E-01 +8.38454894562E-01
1.30000000000E+09 -2.58661256553E-01 +8.78699924680E-01 -1.10906650586E-04 +3.65260304117E-06 -1.71461271506E-04 +4.68914888179E-05 -4.65271300102E-01 +8.42097376107E-01
1.30500000000E+09 -2.47765369219E-01 +8.82068592234E-01 -1.16010273216E-04 +9.42845342723E-05 -1.45611028591E-04 +2.05863959426E-05 -4.57023225235E-01 +8.45484005514E-01
1.31000000000E+09 -2.38329624758E-01 +8.84789673316E-01 -1.12412078460E-04 +7.46907430287E-05 -1.12630224711E-04 +6.04242341646E-05 -4.48847689221E-01 +8.49051195496E-01
1.31500000000E+09 -2.30916717748E-01 +8.86384995330E-01 -9.27899082837E-05 +1.29704017770E-04 -1.30853701771E-04 +1.06342353561E-04 -4.39967856588E-01 +8.52480498244E-01
1.32000000000E+09 -2.24882455333E-01 +8.87106112079E-01 -7.12751399493E-05 +8.56458612262E-05 -1.17535501490E-04 +1.15256947478E-04 -4.30689916609E-01 +8.55828687402E-01
1.32500000000E+09 -2.19339315867E-01 +8.86666209484E-01 -7.11755591057E-05 +1.30397906801E-04 -7.94662013511E-05 +1.55099953278E-04 -4.20917388553E-01 +8.59319568513E-01
1.33000000000E+09 -2.12945794494E-01 +8.86139445081E-01 -4.01875121828E-05 +1.64341790662E-04 -5.05720097806E-05 +1.45699312796E-04 -4.11076217127E-01 +8.62714161900E-01
1.33500000000E+09 -2.04661485889E-01 +8.85098774638E-01 -2.27897654506E-05 +1.78558621852E-04 -3.23593709500E-05 +1.81281446192E-04 -4.01109454566E-01 +8.65996814613E-01
1.34000000000E+09 -1.94046055419E-01 +8.84392542088E-01 -7.90570229755E-06 +1.47412469050E-04 -9.98733639552E-07 +1.61268439464E-04 -3.90935092169E-01 +8.69332569381E-01
1.34500000000E+09 -1.80916773279E-01 +8.83963726615E-01 -5.02284544462E-05 +2.21119861499E-04 -7.45958650905E-06 +1.47914113307E-04 -3.80093817722E-01 +8.72618754307E-01
1.35000000000E+09 -1.65786351856E-01 +8.84004027413E-01 -3.88460417229E-05 +1.90281086260E-04 -5.97365284693E-05 +2.02064138973E-04 -3.68795393277E-01 +8.75750505309E-01
1.35500000000E+09 -1.49413075736E-01 +8.84641884037E-01 +5.10718507673E-06 +2.35232463070E-04 -6.81575530568E-06 +2.16980688960E-04 -3.57077077052E-01 +8.78553602282E-01
1.36000000000E+09 -1.32801734625E-01 +8.85492090249E-01 -1.52160386660E-05 +2.38800825466E-04 +3.62395601194E-05 +2.44555638697E-04 -3.45081659262E-01 +8.81274971306E-01
1.36500000000E+09 -1.17156710982E-01 +8.86111456883E-01 +2.61708046498E-05 +2.88872014382E-04 +6.00296797419E-05 +2.73871019759E-04 -3.32673954754E-01 +8.83750952499E-01
1.37000000000E+09 -1.03082345738E-01 +8.86143190868E-01 +1.39252365561E-04 +3.38194003687E-04 +9.01610975099E-05 +3.28001038719E-04 -3.19644210667E-01 +8.86086082392E-01
1.37500000000E+09 -9.12028158106E-02 +8.85516554073E-01 +2.94516462958E-04 +2.97845741240E-04 +2.33510641126E-04 +3.09759749894E-04 -3.05856716361E-01 +8.88294842188E-01
1.38000000000E+09 -8.07276548964E-02 +8.84238400408E-01 +2.80675800170E-04 +1.84429944834E-04 +2.62925199638E-04 +2.39025680817E-04 -2.91502155392E-01 +8.90291821713E-01
1.38500000000E+09 -7.00123189144E-02 +8.82210814607E-01 +2.03795207188E-04 +1.80533040469E-04 +2.78292924547E-04 +2.36198862087E-04 -2.75877349303E-01 +8.92056842941E-01
1.39000000000E+09 -5.86660758684E-02 +8.79183597153E-01 +2.47832026586E-04 +2.28739595673E-04 +2.92424972941E-04 +2.30139125084E-04 -2.60029853690E-01 +8.93359289154E-01
1.39500000000E+09 -4.52218167301E-02 +8.75512188153E-01 +3.16325811646E-04 +2.31509368625E-04 +4.11726499798E-04 +2.48821125116E-04 -2.43157524938E-01 +8.94028102321E-01
1.40000000000E+09 -2.91962034978E-02 +8.70734948787E-01 +4.87408433548E-04 +2.31270656931E-04 +5.08637259681E-04 +1.77702617259E-04 -2.25444584737E-01 +8.94537434803E-01
1.40500000000E+09 -1.10291589360E-02 +8.65618426218E-01 +6.07114093078E-04 +6.47351133128E-05 +6.35023287599E-04 +8.17657592383E-05 -2.06413137263E-01 +8.94091057937E-01
1.41000000000E+09 +9.40725601061E-03 +8.60122333016E-01 +5.87092988571E-04 -1.72032211680E-04 +5.61868286294E-04 -1.64494173917E-04 -1.86426522166E-01 +8.93127062633E-01
1.41500000000E+09 +3.11171633380E-02 +8.54552837163E-01 +5.39446524877E-04 -1.41246794310E-04 +5.27620395923E-04 -1.05256551327E-04 -1.64916230374E-01 +8.91569107313E-01
1.42000000000E+09 +5.38604811488E-02 +8.48470633635E-01 +5.54511860354E-04 -3.16632840663E-04 +6.23444968074E-04 -3.36746629072E-04 -1.42316786916E-01 +8.88640894245E-01
1.42500000000E+09 +7.65278677142E-02 +8.41097456924E-01 +4.22578705461E-04 -4.07047474006E-04 +4.34844904058E-04 -4.68374115228E-04 -1.18841234992E-01 +8.85073260521E-01
1.43000000000E+09 +9.77427853914E-02 +8.32068179308E-01 +4.50867715646E-04 -3.98213449694E-04 +3.83973995839E-04 -4.54674248096E-04 -9.39083275436E-02 +8.80323990297E-01
1.43500000000E+09 +1.18183806744E-01 +8.21440378482E-01 +4.32516116717E-04 -4.79394576120E-04 +3.95434508808E-04 -5.05466419357E-04 -6.76309518541E-02 +8.73685999292E-01
1.44000000000E+09 +1.38048019151E-01 +8.08887530025E-01 +4.83223216233E-04 -6.28051712431E-04 +4.66371418309E-04 -6.55883952877E-04 -3.95620491961E-02 +8.64871372226E-01
1.44500000000E+09 +1.58759594858E-01 +7.94232246242E-01 +3.70949601996E-04 -9.09222898643E-04 +3.37535945241E-04 -9.31934304066E-04 -9.58621533968E-03 +8.53391168463E-01
1.45000000000E+09 +1.81365647644E-01 +7.76223486487E-01 -4.66701905601E-05 -9.69845924431E-04 -1.13195461595E-04 -9.91236942558E-04 +2.19581960348E-02 +8.38815801137E-01
1.45500000000E+09 +2.05761366846E-01 +7.54918231004E-01 -2.97042293424E-04 -8.19979725576E-04 -3.32160497548E-04 -8.11131702185E-04 +5.50405046443E-02 +8.20889546788E-01
1.46000000000E+09 +2.32751288074E-01 +7.30083337485E-01 -3.93796574785E-04 -7.42618386938E-04 -4.89072813071E-04 -6.85751082786E-04 +8.90761326353E-02 +7.99157767942E-01
1.46500000000E+09 +2.61554473169E-01 +7.01472659908E-01 -4.40310698189E-04 -4.56105642661E-04 -4.10589568509E-04 -4.07468660222E-04 +1.24841068104E-01 +7.72778021145E-01
1.47000000000E+09 +2.91481204334E-01 +6.68787674107E-01 -1.91765629746E-04 -4.91379830584E-04 -1.95832259514E-04 -4.32680853377E-04 +1.61621940630E-01 +7.39901137776E-01
1.47500000000E+09 +3.21189424861E-01 +6.30896477144E-01 -2.45302580253E-04 -7.43192175583E-04 -2.62544666027E-04 -7.55066464090E-04 +1.98847923707E-01 +6.99633748316E-01
1.48000000000E+09 +3.48120611176E-01 +5.87650511497E-01 -6.36095319767E-04 -8.90230122598E-04 -6.29880413343E-04 -8.75212651075E-04 +2.35281699955E-01 +6.50764235702E-01
1.48500000000E+09 +3.71218392496E-01 +5.38657834769E-01 -8.62604399382E-04 -7.44040114596E-04 -8.94674028930E-04 -7.62923843583E-04 +2.69259756015E-01 +5.92580835416E-01
1.49000000000E+09 +3.89145588874E-01 +4.82537727122E-01 -1.17035954090E-03 -4.25415446235E-04 -1.24268560246E-03 -3.56146735207E-04 +2.97488550405E-01 +5.24164321704E-01
1.49500000000E+09 +4.00390232937E-01 +4.18647867833E-01 -1.27489904211E-03 -3.30761859210E-04 -1.21807175056E-03 -2.87502959331E-04 +3.17118822457E-01 +4.45355064728E-01
1.50000000000E+09 +4.02860733684E-01 +3.44963938643E-01 -1.42430723540E-03 +2.00410866225E-04 -1.36906222285E-03 +1.57868742908E-04 +3.23662636943E-01 +3.56586078045E-01
1.50500000000E+09 +3.92648131640E-01 +2.63180980693E-01 -1.07856806952E-03 +5.21184976101E-04 -1.08130297253E-03 +4.73120350944E-04 +3.12502711355E-01 +2.59978758235E-01
1.51000000000E+09 +3.68503639387E-01 +1.75832065299E-01 -9.71603222884E-04 +3.35619204235E-04 -9.96109665000E-04 +2.86099716302E-04 +2.80918877030E-01 +1.61777383776E-01
1.51500000000E+09 +3.27846768728E-01 +8.56001439884E-02 -1.12323245657E-03 +6.90418298961E-04 -1.16728684854E-03 +6.81284290447E-04 +2.30074222959E-01 +6.52710254326E-02
1.52000000000E+09 +2.65824630094E-01 -3.93101736209E-04 -1.10859469905E-03 +7.07379009180E-04 -1.17524287290E-03 +7.52473454270E-04 +1.56279128689E-01 -2.25800062585E-02
1.52500000000E+09 +1.86606269537E-01 -7.32055573394E-02 -1.23857075389E-03 +1.50767607086E-03 -1.24148567690E-03 +1.52052724048E-03 +6.24690800657E-02 -9.24553077454E-02
1.53000000000E+09 +9.14025859109E-02 -1.27926206199E-01 -7.70801046871E-04 +2.20334732338E-03 -8.35408198859E-04 +2.26553232526E-03 -4.21110129279E-02 -1.39177872957E-01
1.53500000000E+09 -1.41868692453E-02 -1.59167350031E-01 +1.18690149556E-03 +2.36058745499E-03 +1.13537419846E-03 +2.37443347490E-03 -1.52514103345E-01 -1.63458170062E-01
1.54000000000E+09 -1.24126090746E-01 -1.63338801733E-01 +1.14699398234E-03 +8.67263872595E-04 +1.08806114767E-03 +9.20766824805E-04 -2.62977268928E-01 -1.62919923525E-01
1.54500000000E+09 -2.29518556308E-01 -1.43271568528E-01 +1.00915591677E-03 +7.65948444255E-04 +9.55392969132E-04 +7.44491644375E-04 -3.62208733755E-01 -1.41613115001E-01
1.55000000000E+09 -3.25206038412E-01 -1.03505750209E-01 +9.44700507133E-04 +2.82803253286E-04 +9.37995673641E-04 +3.12630769610E-04 -4.49831020728E-01 -1.06178393610E-01
1.55500000000E+09 -4.06727193011E-01 -5.06544854465E-02 +5.26116247033E-04 +1.71709788538E-04 +5.16198305921E-04 +1.94981371581E-04 -5.22903287804E-01 -5.92212526998E-02
1.56000000000E+09 -4.72955095989E-01 +7.89085320150E-03 +5.82633046651E-04 +7.90655795751E-04 +6.11966420132E-04 +9.21154908792E-04 -5.81575665373E-01 -6.80178575934E-03
1.56500000000E+09 -5.25642377104E-01 +6.80101425133E-02 +1.30246404166E-03 +6.09156314193E-04 +1.30369863286E-03 +6.69561533044E-04 -6.27613073734E-01 +4.88910545094E-02
1.57000000000E+09 -5.65488779990E-01 +1.26837801933E-01 +1.68860475778E-03 -4.96841479442E-04 +1.83198287783E-03 -5.70012013571E-04 -6.62650410422E-01 +1.03701203481E-01
