# Hz S RI R 50
! CMT, C1220, 16058040, 17.2.0/1
! Date: 14/08/2018 11:51:42
! Data: Format (Calibration Info)
! Freq                      S11: Re/Im (F2)                       S21: Re/Im (F2)                       S12: Re/Im (F2)                       S22: Re/Im (F2)            
1.00000000000E+09 -6.48420291268E-01 +7.15187152586E-01 -4.73033570382E-05 -3.98996706658E-05 +2.91535780299E-05 -2.86090325471E-07 -7.55481381010E-01 +6.23609259399E-01
1.00500000000E+09 -6.41200078080E-01 +7.20365008612E-01 -8.19037078361E-07 +3.92547798689E-05 +2.40296959427E-05 -3.70442881611E-05 -7.51834641203E-01 +6.27736535259E-01
1.01000000000E+09 -6.35095676238E-01 +7.25023568373E-01 +3.55503214311E-05 -6.93253012534E-06 -2.01072631339E-05 +5.33054968783E-05 -7.48259045822E-01 +6.31489357939E-01
1.01500000000E+09 -6.30212126035E-01 +7.28710624662E-01 -5.13290103106E-05 +1.21969361122E-05 +2.51715480920E-05 +3.46319004788E-05 -7.44819427550E-01 +6.35533769886E-01
1.02000000000E+09 -6.26789933787E-01 +7.32043672310E-01 -2.08478741016E-05 +2.51825557288E-05 -1.17560921138E-05 +7.75162898935E-06 -7.41528508194E-01 +6.38986892462E-01
1.02500000000E+09 -6.24215858367E-01 +7.34568870677E-01 +3.53370099131E-06 +2.89281495725E-05 +8.59782307047E-06 -9.62763069120E-06 -7.38401456364E-01 +6.42696799452E-01
1.03000000000E+09 -6.22198992620E-01 +7.36786687069E-01 -1.52738337077E-05 +9.84524304215E-06 +2.58554315703E-05 +2.31195565330E-05 -7.35187187117E-01 +6.46579994514E-01
1.03500000000E+09 -6.19405995363E-01 +7.39255409693E-01 -2.56995844956E-05 +2.80556970632E-05 -2.26783214496E-06 +1.90638176105E-05 -7.31363564773E-01 +6.50502699144E-01
1.04000000000E+09 -6.15362620705E-01 +7.41778514729E-01 -1.57282246146E-05 -1.19457701882E-06 +4.73179005523E-07 -1.14358265134E-05 -7.27627452032E-01 +6.54223738337E-01
1.04500000000E+09 -6.09980202611E-01 +7.45240486041E-01 +1.97539432662E-05 +3.01023644867E-05 +1.82227102665E-05 -1.03707913337E-05 -7.24171371852E-01 +6.57606436723E-01
1.05000000000E+09 -6.02960783575E-01 +7.49573093573E-01 -1.10636814633E-05 +8.14666806278E-06 +1.29503957929E-05 -4.53577344703E-05 -7.20659101667E-01 +6.61095677473E-01
1.05500000000E+09 -5.94627798659E-01 +7.54242198631E-01 +2.90752044514E-05 +2.86224057421E-05 -9.97313981663E-07 +1.24314161081E-05 -7.17357164797E-01 +6.64681137651E-01
1.06000000000E+09 -5.85830560635E-01 +7.59459095928E-01 -1.56129562387E-06 -8.40307060188E-06 -1.25331478901E-06 +6.86536102084E-05 -7.14076393281E-01 +6.68620222114E-01
1.06500000000E+09 -5.77542616080E-01 +7.64628777156E-01 +2.70214186511E-05 +3.36856757166E-05 -6.99623841304E-05 +3.53267694819E-05 -7.10542143741E-01 +6.72082396190E-01
1.07000000000E+09 -5.70273811234E-01 +7.68934924769E-01 -2.28384871032E-05 +3.05941595797E-05 +1.28022686195E-05 +6.57561701994E-05 -7.06643555727E-01 +6.75803165447E-01
1.07500000000E+09 -5.64709434103E-01 +7.72639691694E-01 -9.42090562855E-07 +1.50538258353E-06 +1.93625657031E-05 +2.02798994032E-05 -7.02478934641E-01 +6.79659539240E-01
1.08000000000E+09 -5.60930070795E-01 +7.75888328683E-01 -2.53113735984E-05 +2.01560110031E-05 -5.40316532675E-05 -1.04323030557E-05 -6.98253973815E-01 +6.83511332124E-01
1.08500000000E+09 -5.58383497188E-01 +7.78007641162E-01 +5.99392178807E-06 +3.19095246179E-05 +3.92996618667E-05 -5.39965586826E-07 -6.94295486709E-01 +6.87293877018E-01
1.09000000000E+09 -5.56388182726E-01 +7.79761881784E-01 +8.54211151968E-06 +4.38766795497E-05 +5.26401938350E-05 -5.12878823121E-06 -6.90379333291E-01 +6.91230776454E-01
1.09500000000E+09 -5.54740379599E-01 +7.81298753243E-01 +2.94995252594E-05 +4.33890570731E-05 +1.88692404797E-05 -1.69272759116E-06 -6.86481892907E-01 +6.95061048485E-01
1.10000000000E+09 -5.51689195980E-01 +7.83104082151E-01 +5.33866893948E-05 -7.20067149418E-06 -4.31481803531E-06 -3.85930324278E-05 -6.82410975037E-01 +6.98788463833E-01
1.10500000000E+09 -5.47466144008E-01 +7.85628233303E-01 +1.71665180606E-05 -1.41637126472E-05 +2.58596896262E-05 -1.18162935399E-05 -6.78389187656E-01 +7.02438718340E-01
1.11000000000E+09 -5.41627927709E-01 +7.88872072278E-01 +3.39889251267E-05 -1.88660794643E-05 -1.24616771650E-07 +3.79397219271E-05 -6.74146485897E-01 +7.05848227065E-01
1.11500000000E+09 -5.34413269496E-01 +7.92739076659E-01 +2.81005978843E-05 +3.62707032734E-05 +2.86163434700E-05 +1.39405390852E-05 -6.69988204942E-01 +7.09289341527E-01
1.12000000000E+09 -5.26528681363E-01 +7.96904907296E-01 +1.59480481102E-05 +3.08786388585E-05 -1.81603580639E-05 +1.01624614379E-05 -6.65867906853E-01 +7.12997519503E-01
1.12500000000E+09 -5.18506441816E-01 +8.01006201674E-01 +1.22229473845E-05 -3.15037588040E-06 +5.65540587761E-05 -2.25953809363E-05 -6.61620544952E-01 +7.17047898047E-01
1.13000000000E+09 -5.11239171176E-01 +8.04713488601E-01 -3.96271673850E-06 -3.14012882659E-05 +6.63375842908E-06 -9.05970667623E-06 -6.57368885437E-01 +7.20764461893E-01
1.13500000000E+09 -5.04957343199E-01 +8.07676153638E-01 +1.06742762469E-05 +5.89015864945E-05 -2.93110885780E-05 -1.86261645460E-05 -6.52878577233E-01 +7.24617218612E-01
1.14000000000E+09 -4.99980684562E-01 +8.10134329592E-01 -6.12624262614E-06 +7.71042160604E-06 +1.29770967592E-05 +1.94665028533E-05 -6.48129816370E-01 +7.27896367043E-01
1.14500000000E+09 -4.96063469766E-01 +8.11703036408E-01 +5.87171155326E-05 -1.38709728649E-07 +2.69224836488E-06 +2.16384312838E-06 -6.43684958154E-01 +7.31550951624E-01
1.15000000000E+09 -4.92503026449E-01 +8.13216583371E-01 +8.61366233493E-07 -1.16207720966E-05 +5.28555253236E-05 -3.09409440511E-05 -6.39034153271E-01 +7.35293069914E-01
1.15500000000E+09 -4.88686436341E-01 +8.14795226735E-01 -2.64022865921E-06 -3.31360318864E-05 +2.69228864039E-05 +1.84666055859E-05 -6.34027347672E-01 +7.39097642396E-01
1.16000000000E+09 -4.83748172143E-01 +8.16609860485E-01 -2.20293767260E-05 -7.33791644521E-06 -3.04709996307E-05 -5.19449801068E-05 -6.29359614223E-01 +7.43005869193E-01
1.16500000000E+09 -4.77732620619E-01 +8.19370007715E-01 +3.09783954254E-05 +2.20356044046E-05 +3.38236328945E-05 +4.86839024650E-05 -6.24153415554E-01 +7.46700654212E-01
1.17000000000E+09 -4.70439113651E-01 +8.22412598806E-01 +8.46576740775E-05 -2.12811613739E-05 +4.82697988293E-05 -5.23156837162E-05 -6.18752690993E-01 +7.50025333006E-01
1.17500000000E+09 -4.62365711973E-01 +8.25870722530E-01 +2.82839632835E-05 -8.87600829223E-07 +2.38409519633E-05 -4.03604422992E-05 -6.13121555364E-01 +7.53372159491E-01
1.18000000000E+09 -4.53987242375E-01 +8.29689950448E-01 +4.63734913050E-05 -3.66781000152E-05 +7.03256257997E-05 -2.52296979183E-05 -6.07688302470E-01 +7.56429893292E-01
1.18500000000E+09 -4.45724945699E-01 +8.33026462325E-01 +9.54288087756E-05 -8.34383122526E-05 +1.20155081726E-04 -6.14768066012E-05 -6.01501111739E-01 +7.59540665317E-01
1.19000000000E+09 -4.38176610259E-01 +8.35745850377E-01 +8.92177532614E-06 -8.46716344851E-05 +2.45319235535E-05 -2.73780235540E-05 -5.95278560044E-01 +7.62304834599E-01
1.19500000000E+09 -4.32045536585E-01 +8.37888405920E-01 +3.23291310466E-05 -7.32715724870E-05 -1.01235491767E-05 -1.35982240458E-04 -5.89148930821E-01 +7.63600076138E-01
1.20000000000E+09 -4.26989695272E-01 +8.38689626215E-01 -3.22678281517E-05 -1.23459454111E-04 -9.35016572869E-05 -1.59436954916E-04 -5.84613369417E-01 +7.63816087926E-01
1.20500000000E+09 -4.22684916345E-01 +8.39780570278E-01 -9.38639582998E-05 -7.77768294251E-05 -1.44107921655E-04 -9.46487224113E-05 -5.82338425641E-01 +7.64492883651E-01
1.21000000000E+09 -4.18053217890E-01 +8.40900463886E-01 -8.09603700560E-05 -3.03282850853E-05 -1.35327644508E-04 -3.03202573194E-05 -5.80538096181E-01 +7.67595084801E-01
1.21500000000E+09 -4.12383746781E-01 +8.42172500399E-01 -8.69407815669E-05 +3.48443415836E-05 -6.31608948890E-05 +4.77505663098E-05 -5.77843249180E-01 +7.71990931298E-01
1.22000000000E+09 -4.05458048042E-01 +8.44041190778E-01 -2.09552152533E-05 -4.20302672229E-06 -5.05901765435E-05 +2.45276846924E-05 -5.73815392480E-01 +7.77349892667E-01
1.22500000000E+09 -3.96985224757E-01 +8.46644688910E-01 -9.55264375596E-06 +5.50364376815E-06 +3.48201274151E-06 -7.69357048267E-06 -5.68573174591E-01 +7.82548758417E-01
1.23000000000E+09 -3.87366685031E-01 +8.49733296755E-01 -2.54925207626E-05 -1.93988374915E-05 +4.61802018264E-05 +3.63372879668E-05 -5.62869794277E-01 +7.87325046451E-01
1.23500000000E+09 -3.77490308571E-01 +8.53314652751E-01 +6.16655396335E-07 -6.59695085339E-05 -8.90502751639E-06 -5.13341558476E-05 -5.57032093075E-01 +7.91638512917E-01
1.24000000000E+09 -3.67751130364E-01 +8.57033375106E-01 +4.35156253315E-06 -6.88739503994E-05 -4.04466435110E-05 -3.94759444689E-05 -5.51099929291E-01 +7.95604891810E-01
1.24500000000E+09 -3.58999225267E-01 +8.60971809065E-01 -5.29174099679E-05 -8.17635846255E-06 -4.15321927824E-05 -1.36153367753E-05 -5.44636481110E-01 +7.99546084043E-01
1.25000000000E+09 -3.51057643806E-01 +8.64198992832E-01 -3.22477485479E-05 -4.89630506996E-05 -6.29641249266E-05 -3.01835748418E-05 -5.38155136335E-01 +8.03876225482E-01
1.25500000000E+09 -3.44393521811E-01 +8.66386793848E-01 -3.80652422808E-05 -8.75153459991E-06 -9.88085016942E-05 +1.36697407289E-05 -5.31289495143E-01 +8.07764212336E-01
1.26000000000E+09 -3.38499860987E-01 +8.67706268507E-01 -6.09881556023E-05 -1.63228452128E-05 -4.16307457023E-05 +1.18709606248E-05 -5.24446367934E-01 +8.12021155369E-01
1.26500000000E+09 -3.32924584591E-01 +8.68387560513E-01 -4.25353890301E-05 +1.43904377172E-05 -2.65863706094E-05 +2.99246367104E-05 -5.17395298299E-01 +8.15967188856E-01
1.27000000000E+09 -3.26788934528E-01 +8.68741710722E-01 -1.50277035798E-05 +1.08722885028E-05 -6.26305404095E-05 +1.00042542404E-06 -5.10659383571E-01 +8.19924098157E-01
1.27500000000E+09 -3.19366033157E-01 +8.69279813333E-01 -6.49805933452E-05 -2.94382417748E-05 -3.75685075472E-05 -2.70168775281E-05 -5.03635143961E-01 +8.23382692325E-01
1.28000000000E+09 -3.09803339334E-01 +8.70219166182E-01 -8.47564277079E-05 -2.96217613824E-05 -5.14394222868E-05 -2.79728936778E-06 -4.96565456927E-01 +8.26978302347E-01
1.28500000000E+09 -2.98390857513E-01 +8.71960868919E-01 -5.22534507785E-05 -3.48761606429E-05 -5.59189020591E-05 -9.82061535568E-06 -4.89261734465E-01 +8.30710424214E-01
1.29000000000E+09 -2.85932151198E-01 +8.74397260337E-01 -9.56225910697E-05 +8.14401350307E-05 -6.71017987005E-05 +1.11432059524E-04 -4.81650082823E-01 +8.34446223716E-01
1.29500000000E+09 -2.73307934804E-01 +8.77433480298E-01 -7.98025201468E-05 -8.50646915891E-06 -1.10153786138E-04 +3.04855718555E-05 -4.73605792185E-01 +8.37996433223E-01
1.30000000000E+09 -2.61091268682E-01 +8.80910525346E-01 -1.01219355963E-04 +2.33834251122E-06 -9.58897441188E-05 +3.47330757713E-05 -4.65705626793E-01 +8.41653504544E-01
1.30500000000E+09 -2.49921824863E-01 +8.84337743044E-01 -7.35989506498E-05 +3.14168934192E-05 -9.65806431619E-05 +4.98628905416E-05 -4.57585880175E-01 +8.45020333570E-01
1.31000000000E+09 -2.40531896793E-01 +8.86934487817E-01 -1.33803039205E-04 +3.91448452979E-05 -1.33608071547E-04 +5.70856262047E-05 -4.49301424275E-01 +8.48553895245E-01
1.31500000000E+09 -2.33019341986E-01 +8.88691586819E-01 -9.91166506312E-05 +7.46368656049E-05 -8.71630784981E-05 +1.17529769732E-04 -4.40344462670E-01 +8.51892662377E-01
1.32000000000E+09 -2.27111571036E-01 +8.89317197429E-01 -4.99622622205E-05 +6.62059579275E-05 -9.39151581605E-05 +1.21284715547E-04 -4.31153569723E-01 +8.55287345692E-01
1.32500000000E+09 -2.21713023712E-01 +8.89093009981E-01 -9.37885183998E-05 +1.11757476134E-04 -9.91315768867E-05 +1.15345082181E-04 -4.21434716743E-01 +8.58933042898E-01
1.33000000000E+09 -2.15312268483E-01 +8.88545424020E-01 -1.37610308957E-05 +1.63081118583E-04 -6.62706468125E-05 +1.51413362626E-04 -4.11633846036E-01 +8.62140382197E-01
1.33500000000E+09 -2.07240367650E-01 +8.87451766405E-01 -7.14187909802E-06 +1.20500122607E-04 -3.19415984832E-05 +1.07184591445E-04 -4.01701274034E-01 +8.65570651639E-01
1.34000000000E+09 -1.96505189609E-01 +8.86704712446E-01 -2.52535388284E-05 +1.12941290759E-04 -1.11002645089E-05 +1.28427114985E-04 -3.91428710139E-01 +8.68897686537E-01
1.34500000000E+09 -1.83297255781E-01 +8.86274336869E-01 -5.04616905340E-05 +1.29600564260E-04 -5.09989202735E-05 +9.76979488375E-05 -3.80551441691E-01 +8.72188172991E-01
1.35000000000E+09 -1.67818089860E-01 +8.86405919352E-01 -2.52446604755E-05 +1.39209119122E-04 -4.75879769124E-05 +2.02227104554E-04 -3.69405178440E-01 +8.75301426892E-01
1.35500000000E+09 -1.51174368392E-01 +8.87035196144E-01 -1.31048403748E-05 +1.88729658451E-04 +7.88885468905E-06 +1.48581394023E-04 -3.57563849233E-01 +8.78025290130E-01
1.36000000000E+09 -1.34272049602E-01 +8.87823115028E-01 -2.95937807654E-05 +2.07515411269E-04 +9.78220234360E-06 +2.18232750820E-04 -3.45645861453E-01 +8.80757507601E-01
1.36500000000E+09 -1.18234219800E-01 +8.88302732417E-01 +4.25394305146E-05 +2.85220293739E-04 -2.28723876968E-06 +2.16758659618E-04 -3.33314679973E-01 +8.83220248674E-01
1.37000000000E+09 -1.04267172927E-01 +8.88325659252E-01 +8.90893097493E-05 +3.12913746857E-04 +7.99588235614E-05 +2.81493934162E-04 -3.20418001883E-01 +8.85647512670E-01
1.37500000000E+09 -9.23405468645E-02 +8.87838877125E-01 +2.67025508390E-04 +2.29841570623E-04 +2.28498510227E-04 +2.65691787164E-04 -3.06700098562E-01 +8.87896176523E-01
1.38000000000E+09 -8.17801954329E-02 +8.86503220760E-01 +1.97372792459E-04 +1.03235087019E-04 +2.03240797245E-04 +1.38502174117E-04 -2.92143280464E-01 +8.89807759535E-01
1.38500000000E+09 -7.12056609878E-02 +8.84746923253E-01 +1.48596630197E-04 +1.37223157740E-04 +1.90363222189E-04 +1.60130016946E-04 -2.76719722343E-01 +8.91580088072E-01
1.39000000000E+09 -5.99088956765E-02 +8.81739069829E-01 +1.75821339772E-04 +2.19313478966E-04 +1.93379486307E-04 +1.92053843578E-04 -2.60693586696E-01 +8.92965287054E-01
1.39500000000E+09 -4.64283190624E-02 +8.77899346224E-01 +2.27269622413E-04 +2.38607143499E-04 +2.80133978296E-04 +2.38130774399E-04 -2.43973209231E-01 +8.93688750993E-01
1.40000000000E+09 -3.01910129107E-02 +8.73060337985E-01 +3.91383766651E-04 +2.69731929987E-04 +4.09152408624E-04 +2.16865422279E-04 -2.26298945687E-01 +8.94177584949E-01
1.40500000000E+09 -1.18010894138E-02 +8.67738849058E-01 +5.59730611761E-04 +1.12432580860E-04 +5.59140849856E-04 +8.31721121756E-05 -2.07465384031E-01 +8.93855604118E-01
1.41000000000E+09 +8.97028714179E-03 +8.62085642153E-01 +5.91784629552E-04 -1.00621122777E-04 +5.49896756268E-04 -1.16497667424E-04 -1.87485009923E-01 +8.93054262493E-01
1.41500000000E+09 +3.11511801391E-02 +8.56079661313E-01 +4.71296718763E-04 -1.80862878231E-04 +4.98336583139E-04 -1.22048733162E-04 -1.65847641977E-01 +8.91441678750E-01
1.42000000000E+09 +5.41011602550E-02 +8.49653603288E-01 +4.58479734083E-04 -2.49442868257E-04 +4.95840412299E-04 -2.64179135117E-04 -1.43180396228E-01 +8.88647279080E-01
1.42500000000E+09 +7.68127863637E-02 +8.42137424944E-01 +3.52542908701E-04 -2.66584247191E-04 +3.84249754581E-04 -3.66408574237E-04 -1.19607429883E-01 +8.85142056899E-01
1.43000000000E+09 +9.81008432829E-02 +8.33058952950E-01 +3.71071125014E-04 -2.75380279038E-04 +3.60189990345E-04 -3.33117073133E-04 -9.47231672251E-02 +8.80364670308E-01
1.43500000000E+09 +1.18427790962E-01 +8.22274038916E-01 +3.98269618677E-04 -3.92252975009E-04 +3.96743319399E-04 -4.58452123729E-04 -6.85280699559E-02 +8.73674455885E-01
1.44000000000E+09 +1.38497244349E-01 +8.09612164256E-01 +4.10356660672E-04 -4.29365088027E-04 +4.03459148809E-04 -5.13659249176E-04 -4.05181988039E-02 +8.65115861877E-01
1.44500000000E+09 +1.59184991016E-01 +7.94526477557E-01 +3.62696536943E-04 -8.30790540955E-04 +2.76690375791E-04 -8.37362840497E-04 -1.04557681572E-02 +8.53824427650E-01
1.45000000000E+09 +1.81654682528E-01 +7.76108810548E-01 +2.58074997577E-05 -8.60568173338E-04 -8.26525480621E-05 -8.99711876837E-04 +2.11897675299E-02 +8.39277612872E-01
1.45500000000E+09 +2.05959666988E-01 +7.53967361957E-01 -2.15114978899E-04 -7.86191289557E-04 -3.69360360480E-04 -7.92197796759E-04 +5.45132545826E-02 +8.21537156502E-01
1.46000000000E+09 +2.32553283502E-01 +7.28616926010E-01 -4.79753468995E-04 -6.52080890490E-04 -5.16080119646E-04 -6.20392490647E-04 +8.87728202819E-02 +8.00015230596E-01
1.46500000000E+09 +2.61575943668E-01 +6.99121788173E-01 -5.95116220986E-04 -2.87550537171E-04 -5.43546473192E-04 -2.11906187223E-04 +1.24751530272E-01 +7.73614963578E-01
1.47000000000E+09 +2.91169039130E-01 +6.64898143254E-01 -1.39294403752E-04 -7.36719393483E-05 -1.53884831991E-04 -9.24481150497E-05 +1.61519717949E-01 +7.40618381659E-01
1.47500000000E+09 +3.19945572291E-01 +6.26359450404E-01 -2.04941692224E-05 -3.95720206030E-04 -8.09362038735E-06 -3.92042446659E-04 +1.98933596588E-01 +7.00415413884E-01
1.48000000000E+09 +3.46227354333E-01 +5.82081599878E-01 -2.80458745141E-04 -6.58872548080E-04 -2.93374158357E-04 -7.23474202208E-04 +2.35870235530E-01 +6.51451076871E-01
1.48500000000E+09 +3.67792426723E-01 +5.32329200718E-01 -4.77233946002E-04 -6.44396652748E-04 -5.10818394750E-04 -6.42015882605E-04 +2.70116393071E-01 +5.92958224989E-01
1.49000000000E+09 +3.83917282540E-01 +4.75778263793E-01 -8.53021079146E-04 -5.22629838897E-04 -9.00033519161E-04 -4.60187477987E-04 +2.98402951206E-01 +5.24461080336E-01
1.49500000000E+09 +3.92726134181E-01 +4.12173033824E-01 -8.48430959829E-04 -2.34228519570E-04 -8.45065413850E-04 -1.70880427396E-04 +3.18534136704E-01 +4.45385095263E-01
1.50000000000E+09 +3.93131186898E-01 +3.39760400877E-01 -8.77487330409E-04 +1.34747159914E-04 -8.05443066101E-04 +1.22929763958E-04 +3.24887516636E-01 +3.55969769344E-01
1.50500000000E+09 +3.80956410642E-01 +2.58986525417E-01 -3.24656968377E-04 +2.41984703548E-04 -2.98104170679E-04 +2.44423244523E-04 +3.13831993216E-01 +2.59236697163E-01
1.51000000000E+09 +3.53879403302E-01 +1.72897019397E-01 -5.48044602418E-04 -6.06027778834E-04 -5.36649067291E-04 -6.57059201314E-04 +2.82452499131E-01 +1.60062608147E-01
1.51500000000E+09 +3.10777387146E-01 +8.59309376169E-02 -1.40792630607E-03 -9.48389310852E-05 -1.42557086751E-03 -1.99740734777E-04 +2.30802621639E-01 +6.30070463882E-02
1.52000000000E+09 +2.47482383606E-01 +3.32612536556E-03 -1.43559547561E-03 +1.26382930197E-04 -1.45396673895E-03 +1.38662782053E-04 +1.56160661567E-01 -2.48840567275E-02
1.52500000000E+09 +1.67615734160E-01 -6.41876853625E-02 -1.69401697723E-03 +1.06417930319E-03 -1.77879963923E-03 +1.07858455340E-03 +6.21840279118E-02 -9.44628032373E-02
1.53000000000E+09 +7.51530021514E-02 -1.14175206471E-01 -1.39531127382E-03 +1.90588568402E-03 -1.40140899974E-03 +1.91378167066E-03 -4.25636374054E-02 -1.41597549012E-01
1.53500000000E+09 -2.60590922171E-02 -1.42561313263E-01 +5.87306747593E-04 +2.29991040152E-03 +6.74380273383E-04 +2.31323169946E-03 -1.53905532590E-01 -1.66049355971E-01
1.54000000000E+09 -1.31960777011E-01 -1.45431281070E-01 +5.06466666787E-04 +9.15656329840E-04 +5.55469725226E-04 +9.68202506891E-04 -2.65063781937E-01 -1.64990556052E-01
1.54500000000E+09 -2.33541187986E-01 -1.24671067628E-01 +4.26027931860E-04 +1.23783613672E-03 +4.01603657082E-04 +1.25947118073E-03 -3.65078882982E-01 -1.42984272616E-01
1.55000000000E+09 -3.24879200316E-01 -8.49578745297E-02 +9.62505716651E-04 +7.56298077428E-04 +8.88592043740E-04 +8.09513433867E-04 -4.52472759300E-01 -1.06486854140E-01
1.55500000000E+09 -4.02306512048E-01 -3.40429331535E-02 +5.25674432005E-04 +4.91727905264E-04 +5.75119018900E-04 +5.23937242102E-04 -5.25219866354E-01 -5.91013553153E-02
1.56000000000E+09 -4.66147335309E-01 +2.22130427616E-02 +6.70683543584E-04 +1.11139326061E-03 +6.74208169733E-04 +1.15854488647E-03 -5.83584459377E-01 -6.30654448353E-03
1.56500000000E+09 -5.17164143091E-01 +7.96256093056E-02 +1.53694523602E-03 +7.28005342427E-04 +1.65678997491E-03 +7.67375532728E-04 -6.29176549177E-01 +4.97071288808E-02
1.57000000000E+09 -5.56297584996E-01 +1.35541073942E-01 +1.80240655010E-03 -4.55177409679E-04 +1.88980421185E-03 -4.71180471438E-04 -6.63823860223E-01 +1.04726728218E-01
