# Hz S RI R 50
! CMT, C1220, 16058040, 17.2.0/1
! Date: 14/08/2018 11:48:56
! Data: Format (Calibration Info)
! Freq                      S11: Re/Im (F2)                       S21: Re/Im (F2)                       S12: Re/Im (F2)                       S22: Re/Im (F2)            
1.00000000000E+09 -6.47634053346E-01 +7.14770425918E-01 +1.90127620148E-05 -4.88040492456E-05 +9.48854132510E-06 -2.17414450969E-05 -7.54930657352E-01 +6.24476488583E-01
1.00500000000E+09 -6.40556891513E-01 +7.20005829474E-01 +1.07640454341E-05 +3.25131182363E-05 +1.76971859154E-05 -1.22850500080E-06 -7.51511573518E-01 +6.28502122952E-01
1.01000000000E+09 -6.34422293988E-01 +7.24478279490E-01 -4.78777970895E-05 -1.32474185663E-05 -1.15591445153E-05 +1.09519183430E-05 -7.47934250963E-01 +6.32188799286E-01
1.01500000000E+09 -6.29555070049E-01 +7.28239800359E-01 -4.37892229319E-07 +3.60635390903E-05 -1.82796033585E-05 -8.78611247501E-05 -7.44395400500E-01 +6.36017726620E-01
1.02000000000E+09 -6.25954189540E-01 +7.31581005113E-01 +1.02835158301E-05 +4.75735965974E-06 -2.98806338910E-05 +6.55263371985E-06 -7.40876735452E-01 +6.39818480462E-01
1.02500000000E+09 -6.23131861940E-01 +7.34223839273E-01 -6.64642053979E-06 +4.42085723647E-05 -2.75740851384E-05 +5.39556494890E-05 -7.38077924386E-01 +6.43252586028E-01
1.03000000000E+09 -6.20928199557E-01 +7.36624095207E-01 +9.38718072079E-06 +6.71986234095E-06 +2.34070157738E-07 +2.11893112126E-05 -7.34567147992E-01 +6.47262097554E-01
1.03500000000E+09 -6.17722271752E-01 +7.39056809826E-01 +8.42813608678E-06 +1.65323734549E-05 +2.75936451869E-06 +2.72595427704E-05 -7.30921325894E-01 +6.51051956131E-01
1.04000000000E+09 -6.13634261933E-01 +7.42039157187E-01 +1.48425947721E-05 +1.39917658203E-05 +2.17383664350E-05 +2.44098361700E-05 -7.27173284582E-01 +6.54823856620E-01
1.04500000000E+09 -6.08380925681E-01 +7.45459228946E-01 +1.09699843649E-05 +1.52746594518E-05 +4.75918746150E-05 +3.61222267963E-05 -7.23595297242E-01 +6.58458214977E-01
1.05000000000E+09 -6.01250621676E-01 +7.49568329134E-01 -1.70098135093E-05 -1.21916015785E-06 -3.06672845243E-05 +9.96832997291E-08 -7.20267462031E-01 +6.61871762245E-01
1.05500000000E+09 -5.93073230407E-01 +7.54269540194E-01 -4.21493802091E-05 -3.85954336583E-06 +2.80182121914E-06 +1.79925447068E-05 -7.16888569999E-01 +6.65552179012E-01
1.06000000000E+09 -5.84412473227E-01 +7.59364712269E-01 -1.66290460482E-05 +3.53418114305E-05 +1.73929829457E-06 +1.42423702869E-05 -7.13699462703E-01 +6.69204664522E-01
1.06500000000E+09 -5.76315197815E-01 +7.64284355376E-01 -1.60491229929E-05 -2.54972021039E-05 -2.13531209816E-05 +1.00226872198E-05 -7.09948366911E-01 +6.72917944965E-01
1.07000000000E+09 -5.69081762418E-01 +7.68532921761E-01 -6.73831381450E-06 -1.98799097202E-05 -6.10055907616E-05 +2.41823070712E-05 -7.05891441044E-01 +6.76526877016E-01
1.07500000000E+09 -5.63468303366E-01 +7.72357304533E-01 +2.00494227032E-05 +7.17610705108E-06 -4.36484551250E-05 +4.92361395246E-05 -7.01625482379E-01 +6.80127643097E-01
1.08000000000E+09 -5.59522635673E-01 +7.75349092080E-01 +5.76224156327E-05 +2.46712243104E-05 -1.48335976282E-06 +2.79559889931E-06 -6.97673838365E-01 +6.84160802072E-01
1.08500000000E+09 -5.56832139270E-01 +7.77746138008E-01 -1.52894575675E-05 +1.08962652070E-05 +4.92203356678E-05 -1.89094379467E-05 -6.93621300140E-01 +6.87976554716E-01
1.09000000000E+09 -5.54551366610E-01 +7.79612005546E-01 -5.83655175952E-06 +1.52908834529E-05 -1.36479187253E-05 +3.45725722525E-05 -6.89632242371E-01 +6.91881921619E-01
1.09500000000E+09 -5.52725742498E-01 +7.81258805131E-01 +2.74708782303E-05 +3.51204320959E-05 +3.67579306147E-05 +6.52370649025E-05 -6.85874721938E-01 +6.95709002340E-01
1.10000000000E+09 -5.49557326393E-01 +7.83170090548E-01 -1.38232836742E-05 -9.81089602701E-06 +3.93063808505E-05 +2.02177514388E-05 -6.81894778555E-01 +6.99554884552E-01
1.10500000000E+09 -5.45271095981E-01 +7.85714543074E-01 +6.91077540035E-05 +4.33962723165E-06 +4.42533010826E-05 +3.03161472667E-05 -6.77726109390E-01 +7.03013491827E-01
1.11000000000E+09 -5.39421773688E-01 +7.88943435619E-01 +4.39539566804E-05 -3.69335698917E-05 +2.87683528058E-05 +2.70189887193E-05 -6.73433723700E-01 +7.06589479803E-01
1.11500000000E+09 -5.32305404147E-01 +7.92739605707E-01 +1.89308135315E-05 +3.05854035508E-05 +3.51535478639E-05 +6.42030058628E-06 -6.69319240440E-01 +7.09958452393E-01
1.12000000000E+09 -5.24504916186E-01 +7.96538494833E-01 +3.70547541760E-05 +1.79005174432E-05 +3.26828207074E-05 -1.45982855774E-05 -6.65255169146E-01 +7.13689357614E-01
1.12500000000E+09 -5.16762601463E-01 +8.00713137796E-01 +2.13515646904E-05 -5.16798690662E-05 +4.50417388421E-05 -3.62452354942E-06 -6.60887863665E-01 +7.17686754507E-01
1.13000000000E+09 -5.09548983966E-01 +8.04171452592E-01 -1.73208872575E-05 -6.15257147786E-07 +1.55986382135E-05 -1.08703879940E-05 -6.56677788070E-01 +7.21428498766E-01
1.13500000000E+09 -5.03249530381E-01 +8.07011078526E-01 +1.15261076043E-05 +2.14380390151E-05 -1.38128063420E-06 +3.06599442040E-05 -6.52184989193E-01 +7.25315660982E-01
1.14000000000E+09 -4.98235356242E-01 +8.09585983057E-01 +4.75861968126E-05 -1.51501944368E-05 +3.31107751023E-05 -3.32592731821E-05 -6.47613805756E-01 +7.28657491721E-01
1.14500000000E+09 -4.94068442366E-01 +8.11363890283E-01 +2.33595923725E-05 -4.13395624397E-06 +1.79448466143E-05 +2.03505047400E-05 -6.42953666807E-01 +7.32102601223E-01
1.15000000000E+09 -4.90179689160E-01 +8.12913884242E-01 +5.58252671575E-05 -2.25476396608E-05 +2.99289196956E-05 -4.30008694671E-05 -6.38233160919E-01 +7.35945688175E-01
1.15500000000E+09 -4.86162773898E-01 +8.14593756377E-01 +3.28975538276E-05 -7.09743553695E-06 +2.84435128594E-05 -4.56082973185E-05 -6.33422931087E-01 +7.39866894388E-01
1.16000000000E+09 -4.81174583724E-01 +8.16450320763E-01 +4.58705730725E-05 -2.34193174670E-05 +2.49106932718E-05 -4.13863362223E-07 -6.28432339029E-01 +7.43612895155E-01
1.16500000000E+09 -4.75218913409E-01 +8.19143683285E-01 +1.83515302726E-05 -8.32141824187E-06 +5.55505805582E-05 -3.27499889535E-05 -6.23555717345E-01 +7.47322899507E-01
1.17000000000E+09 -4.67895884777E-01 +8.22116151344E-01 +6.45074282130E-05 -2.54946217930E-06 +4.10077876559E-05 +2.92282257033E-06 -6.18131428503E-01 +7.50738674759E-01
1.17500000000E+09 -4.59904818340E-01 +8.25478593803E-01 +3.65379621863E-05 +3.94491287960E-06 -3.24569527232E-06 -2.89187089999E-05 -6.12428031320E-01 +7.53924208219E-01
1.18000000000E+09 -4.51621119674E-01 +8.29012511411E-01 +7.46605583097E-05 -5.22793396435E-05 +6.99169604634E-06 -1.03472839165E-05 -6.06933189967E-01 +7.57208133016E-01
1.18500000000E+09 -4.43461397793E-01 +8.32301463337E-01 +6.72387193362E-05 -3.35707923305E-05 +1.70342387287E-05 -3.05066359725E-05 -6.00731312187E-01 +7.60205160067E-01
1.19000000000E+09 -4.36028217079E-01 +8.34884547568E-01 +2.84998438157E-05 -6.22283822039E-05 +4.66650519535E-05 -5.46453581470E-05 -5.94512289736E-01 +7.62771345928E-01
1.19500000000E+09 -4.29843107000E-01 +8.36852232020E-01 +7.39435970351E-05 -1.42747903632E-04 +2.83263892368E-05 -1.18670271979E-04 -5.88584365510E-01 +7.64199421308E-01
1.20000000000E+09 -4.24618711283E-01 +8.37776826679E-01 -4.08598549289E-05 -1.25975740663E-04 -3.35155858959E-05 -1.25520475144E-04 -5.83945551971E-01 +7.64465432552E-01
1.20500000000E+09 -4.20028821484E-01 +8.38945709025E-01 -8.14403111744E-05 -9.71335198526E-05 -1.31864611682E-04 -1.18471240656E-04 -5.81636477544E-01 +7.65282943449E-01
1.21000000000E+09 -4.15344854120E-01 +8.40196213521E-01 -6.86656203104E-05 -5.38491564309E-05 -8.73076145738E-05 -1.95814443053E-05 -5.79686633934E-01 +7.68157683064E-01
1.21500000000E+09 -4.09534434288E-01 +8.41525280171E-01 -6.67810232295E-05 +1.84138723546E-05 -6.35923041936E-05 +2.90418383868E-05 -5.77036022352E-01 +7.72658693238E-01
1.22000000000E+09 -4.02294885583E-01 +8.43477164762E-01 -7.48933634928E-05 +5.62682485675E-05 -8.62520089274E-05 +4.23926225252E-05 -5.73032510402E-01 +7.78040893227E-01
1.22500000000E+09 -3.93837452310E-01 +8.45940292528E-01 -1.24063949804E-05 +2.24081323353E-05 -1.81497681121E-05 -4.35615698347E-05 -5.67879347203E-01 +7.83140689826E-01
1.23000000000E+09 -3.84355786311E-01 +8.48860987529E-01 +3.19202160678E-06 -8.50316174480E-06 +6.58597126026E-06 -5.92601522945E-05 -5.62158596069E-01 +7.87935986024E-01
1.23500000000E+09 -3.74654616800E-01 +8.52300718528E-01 -6.54240938219E-05 -3.94571373558E-05 -2.13218232444E-05 -3.74349133657E-05 -5.56326411578E-01 +7.92256369422E-01
1.24000000000E+09 -3.65043608901E-01 +8.55894327946E-01 +1.28245655761E-05 -5.86687803769E-05 -2.20470553628E-05 -2.71483321481E-05 -5.50314470331E-01 +7.96240200650E-01
1.24500000000E+09 -3.56445187442E-01 +8.59539706455E-01 -4.19283345878E-05 -4.25421760176E-05 -6.91421082180E-05 -3.71748450232E-05 -5.43915369669E-01 +8.00122857441E-01
1.25000000000E+09 -3.48594836791E-01 +8.62749545994E-01 -6.75389082738E-05 -4.18092315676E-05 -7.96976794757E-05 -4.71280844312E-05 -5.37258566701E-01 +8.04098201569E-01
1.25500000000E+09 -3.41783990785E-01 +8.64946249428E-01 -3.84276442190E-05 -6.41150704369E-05 -2.53078269204E-05 -1.01321273426E-05 -5.30502955970E-01 +8.08306552927E-01
1.26000000000E+09 -3.35656480012E-01 +8.66257859858E-01 -2.77658727174E-05 -6.49984631242E-06 -6.46280759182E-05 +3.57765866505E-06 -5.23649013317E-01 +8.12815973049E-01
1.26500000000E+09 -3.29741730520E-01 +8.66987868398E-01 -6.27996639857E-05 -8.70428663750E-06 -4.98701007499E-05 -1.16394299869E-05 -5.16676439014E-01 +8.16608585923E-01
1.27000000000E+09 -3.23221074862E-01 +8.67423724115E-01 -2.45259013059E-05 +6.61938248090E-06 -1.62362982685E-05 +1.44162922466E-05 -5.09890193354E-01 +8.20482353518E-01
1.27500000000E+09 -3.15580817071E-01 +8.68091470537E-01 -4.28430801265E-05 -2.67952616986E-05 -8.89276165108E-05 -6.88310252771E-06 -5.02804986773E-01 +8.24197746956E-01
1.28000000000E+09 -3.06005893656E-01 +8.69059914073E-01 -9.69256719302E-05 -2.71193553004E-05 -7.08270916139E-05 -4.27070522311E-05 -4.95879691285E-01 +8.27526166342E-01
1.28500000000E+09 -2.94601726374E-01 +8.70640123165E-01 -6.15247065665E-05 -3.18928255051E-05 -7.71479263902E-05 +3.12856122784E-05 -4.88388941934E-01 +8.31381534465E-01
1.29000000000E+09 -2.82444845327E-01 +8.72692746867E-01 -1.05175310768E-04 +1.49239414931E-05 -7.01607068198E-05 +3.44141073284E-05 -4.80771570736E-01 +8.35099603662E-01
1.29500000000E+09 -2.69943587976E-01 +8.75601931187E-01 -9.13918909929E-05 +2.39582709322E-05 -6.46865373312E-05 +4.07482408498E-05 -4.72788989573E-01 +8.38617187721E-01
1.30000000000E+09 -2.57854750329E-01 +8.78915537535E-01 -1.08760622956E-04 +4.98250604227E-05 -6.28278971877E-05 +1.04048096471E-05 -4.64821502788E-01 +8.42343137422E-01
1.30500000000E+09 -2.47200303998E-01 +8.82154494600E-01 -8.15917686404E-05 +9.47281523441E-06 -9.75598335611E-05 +7.74429683217E-05 -4.56707921341E-01 +8.45819908631E-01
1.31000000000E+09 -2.37776111198E-01 +8.84869887773E-01 -1.05788758028E-04 +3.37265185620E-05 -1.41766056180E-04 +7.17127969752E-05 -4.48378724602E-01 +8.49228517243E-01
1.31500000000E+09 -2.30232919030E-01 +8.86602521624E-01 -1.01186903574E-04 +8.27622494139E-05 -1.02054405508E-04 +7.21633225315E-05 -4.39570784414E-01 +8.52607107652E-01
1.32000000000E+09 -2.24009631786E-01 +8.87336793048E-01 -6.26819361068E-05 +1.13261094471E-04 -1.13126779457E-04 +1.30397364068E-04 -4.30310067158E-01 +8.56110613211E-01
1.32500000000E+09 -2.18294468650E-01 +8.87041836590E-01 -3.47130211854E-05 +9.81409415904E-05 -9.05247153319E-05 +1.78258568842E-04 -4.20583412927E-01 +8.59529253555E-01
1.33000000000E+09 -2.11856371405E-01 +8.86645468000E-01 -3.00396434060E-05 +1.39064867915E-04 -3.41959677098E-05 +1.15734698786E-04 -4.10765942963E-01 +8.62902052596E-01
1.33500000000E+09 -2.03516119198E-01 +8.85694564889E-01 -3.54191206843E-05 +1.27806051481E-04 -1.61482495519E-05 +8.71379266100E-05 -4.00672561794E-01 +8.66282859925E-01
1.34000000000E+09 -1.92743901585E-01 +8.84989477596E-01 -5.23850362468E-05 +1.02438302660E-04 -4.75635485629E-05 +9.87340060435E-05 -3.90406494070E-01 +8.69446620730E-01
1.34500000000E+09 -1.79555895141E-01 +8.84316753589E-01 -6.66235021944E-05 +1.18135726754E-04 -5.46462476117E-05 +9.07422874850E-05 -3.79518844282E-01 +8.72882797464E-01
1.35000000000E+09 -1.64587663702E-01 +8.84246684231E-01 -6.64107184330E-05 +1.70673772657E-04 -9.19418473546E-05 +1.33161611091E-04 -3.68266191584E-01 +8.75902321718E-01
1.35500000000E+09 -1.48080993160E-01 +8.84749067930E-01 -2.93546914198E-05 +1.72629812686E-04 -2.55568647777E-07 +1.98204662999E-04 -3.56592946294E-01 +8.78759993846E-01
1.36000000000E+09 -1.31484400712E-01 +8.85434802018E-01 -2.66868664794E-05 +2.02491135567E-04 -1.16356716292E-05 +1.44505863363E-04 -3.44487750483E-01 +8.81335757001E-01
1.36500000000E+09 -1.15665951369E-01 +8.85868904537E-01 -1.31674173353E-05 +2.22749587176E-04 -1.34972974824E-05 +2.53922634806E-04 -3.32189475539E-01 +8.83946379666E-01
1.37000000000E+09 -1.01515311440E-01 +8.85876359525E-01 +3.15311593139E-05 +3.02101927830E-04 +2.98644852961E-05 +2.64386505921E-04 -3.19289996323E-01 +8.86279167076E-01
1.37500000000E+09 -8.94638632105E-02 +8.85153193402E-01 +2.31364352952E-04 +2.69992770376E-04 +2.07386442226E-04 +2.73521688837E-04 -3.05561013057E-01 +8.88482138109E-01
1.38000000000E+09 -7.86332039989E-02 +8.83877529260E-01 +1.93272932234E-04 +1.28021460095E-04 +1.85104731480E-04 +1.53692967964E-04 -2.90924267775E-01 +8.90343760439E-01
1.38500000000E+09 -6.78629853628E-02 +8.81807350401E-01 +1.50311150915E-04 +1.69014464343E-04 +1.22548464199E-04 +1.96968575634E-04 -2.75481134841E-01 +8.92135339566E-01
1.39000000000E+09 -5.63761795834E-02 +8.78843543288E-01 +1.34525972465E-04 +1.60438633408E-04 +1.68682775332E-04 +2.12175999755E-04 -2.59481356007E-01 +8.93396806437E-01
1.39500000000E+09 -4.28402435193E-02 +8.74935366005E-01 +2.13998009170E-04 +2.21249715992E-04 +2.63980445075E-04 +2.31434642832E-04 -2.42561162565E-01 +8.94125454693E-01
1.40000000000E+09 -2.68743796315E-02 +8.70033464921E-01 +3.69041505718E-04 +2.93382560575E-04 +4.01623639236E-04 +2.56758599915E-04 -2.24880291073E-01 +8.94554980107E-01
1.40500000000E+09 -8.74138877339E-03 +8.64594691544E-01 +5.18785688722E-04 +1.64307407889E-04 +4.92511647496E-04 +1.67502215033E-04 -2.06059960628E-01 +8.94207642549E-01
1.41000000000E+09 +1.16008458461E-02 +8.58979619239E-01 +5.37003357280E-04 -7.13343567301E-05 +5.10578707440E-04 -2.48950637930E-05 -1.85977595733E-01 +8.93257180686E-01
1.41500000000E+09 +3.34536889091E-02 +8.53063773876E-01 +4.34960529911E-04 -7.06292671676E-05 +4.54280608857E-04 -6.99830032106E-05 -1.64471222104E-01 +8.91636343995E-01
1.42000000000E+09 +5.62071535792E-02 +8.46630798355E-01 +5.24461914452E-04 -2.13300562715E-04 +5.46266634413E-04 -2.66206116220E-04 -1.41852411562E-01 +8.88810393140E-01
1.42500000000E+09 +7.87698303018E-02 +8.39047144930E-01 +3.23463385870E-04 -3.36594208815E-04 +3.68908455839E-04 -3.90477568360E-04 -1.18359287242E-01 +8.85085224080E-01
1.43000000000E+09 +1.00376957999E-01 +8.29620361388E-01 +2.89799137092E-04 -2.48629678560E-04 +3.43346637814E-04 -2.60000573252E-04 -9.35364507351E-02 +8.80325590610E-01
1.43500000000E+09 +1.20961345035E-01 +8.18643321669E-01 +4.55138469278E-04 -3.42734186048E-04 +4.33943542961E-04 -4.23985030440E-04 -6.72647819124E-02 +8.73627501184E-01
1.44000000000E+09 +1.41189273501E-01 +8.05696524759E-01 +3.92010076810E-04 -4.42062053281E-04 +3.47496348540E-04 -4.52929978092E-04 -3.91903289377E-02 +8.64953755625E-01
1.44500000000E+09 +1.61991849398E-01 +7.90436429567E-01 +3.62830391445E-04 -6.22801820707E-04 +3.15372051992E-04 -7.08132695543E-04 -9.23585462853E-03 +8.53488401788E-01
1.45000000000E+09 +1.84405729171E-01 +7.71986612058E-01 +8.71955364298E-06 -7.22321326736E-04 -1.21545108950E-06 -7.57643303467E-04 +2.23840749569E-02 +8.38811841385E-01
1.45500000000E+09 +2.08524368995E-01 +7.49947810550E-01 -1.71231606298E-04 -6.80975258225E-04 -2.19268637878E-04 -6.64604425158E-04 +5.55233770141E-02 +8.20941189373E-01
1.46000000000E+09 +2.34851571082E-01 +7.24796692504E-01 -3.85800654864E-04 -5.30860371370E-04 -4.44347126819E-04 -4.81378747975E-04 +8.96972763971E-02 +7.99053643831E-01
1.46500000000E+09 +2.63343395667E-01 +6.95497064166E-01 -4.01360168407E-04 -7.65552159635E-05 -3.97835936991E-04 -5.33443407131E-05 +1.25333360790E-01 +7.72708381477E-01
1.47000000000E+09 +2.92469113222E-01 +6.61491521219E-01 +9.01512376178E-05 -4.55725414019E-05 +1.05917824099E-04 -1.78575384387E-05 +1.62202117468E-01 +7.39702027785E-01
1.47500000000E+09 +3.21019911333E-01 +6.22971356437E-01 +2.45332812315E-04 -3.91791550615E-04 +1.87069049551E-04 -3.55814924593E-04 +1.99487218293E-01 +6.99236461001E-01
1.48000000000E+09 +3.46900055954E-01 +5.78597733644E-01 -2.07258654561E-05 -7.71583129587E-04 -1.22848204330E-05 -7.30138925971E-04 +2.35730476978E-01 +6.50237342076E-01
1.48500000000E+09 +3.68344008413E-01 +5.28792060344E-01 -2.17478636943E-04 -7.41158793364E-04 -2.39080038194E-04 -8.16445646951E-04 +2.69606226534E-01 +5.91884906208E-01
1.49000000000E+09 +3.84588297329E-01 +4.72053589393E-01 -7.02882764525E-04 -7.05271452361E-04 -6.88566692943E-04 -6.75444731257E-04 +2.97574554826E-01 +5.23371848987E-01
1.49500000000E+09 +3.93722490315E-01 +4.07931778701E-01 -8.07817881777E-04 -5.01396886996E-04 -8.12084502810E-04 -4.25401514448E-04 +3.17015702605E-01 +4.44640517864E-01
1.50000000000E+09 +3.94003017433E-01 +3.34801751329E-01 -7.78183833672E-04 -1.61429389495E-04 -7.19757137807E-04 -1.48825894663E-04 +3.23208078177E-01 +3.56118081232E-01
1.50500000000E+09 +3.81411010849E-01 +2.53739614678E-01 -5.42710183831E-04 -4.62407115496E-05 -4.95646156195E-04 -5.95637417040E-05 +3.11994986508E-01 +2.59467922948E-01
1.51000000000E+09 +3.53763795996E-01 +1.67918608167E-01 -5.64035623817E-04 -5.52167360729E-04 -5.43162966517E-04 -6.09762801788E-04 +2.80091487475E-01 +1.61140043169E-01
1.51500000000E+09 +3.09885444138E-01 +8.14757298860E-02 -1.27213903959E-03 -4.03671635805E-04 -1.27207391031E-03 -4.58151856118E-04 +2.28733026870E-01 +6.52652799565E-02
1.52000000000E+09 +2.46061155012E-01 -1.31732673208E-04 -1.55154573706E-03 -1.43943932821E-05 -1.58684362117E-03 -5.00309067645E-05 +1.54972824250E-01 -2.19745076830E-02
1.52500000000E+09 +1.65954641975E-01 -6.68072118887E-02 -1.63958368457E-03 +8.95030462310E-04 -1.69213044463E-03 +9.19153359198E-04 +6.14368392881E-02 -9.12479967859E-02
1.53000000000E+09 +7.28915796197E-02 -1.15922708281E-01 -1.47058049563E-03 +1.59189201060E-03 -1.40267019124E-03 +1.62322802362E-03 -4.25653153085E-02 -1.37719965417E-01
1.53500000000E+09 -2.88719701436E-02 -1.43373683387E-01 +2.93538898001E-04 +2.10878622054E-03 +2.82158079767E-04 +2.15185066933E-03 -1.52457265148E-01 -1.62229069815E-01
1.54000000000E+09 -1.35028423108E-01 -1.45063850618E-01 +4.07773003675E-04 +8.86181553622E-04 +4.01012381598E-04 +9.02675829093E-04 -2.62871880009E-01 -1.61715423645E-01
1.54500000000E+09 -2.35805313156E-01 -1.23199389265E-01 +2.44106389969E-04 +9.15983526468E-04 +2.42669395516E-04 +9.43498123536E-04 -3.61960077299E-01 -1.40177217699E-01
1.55000000000E+09 -3.26219765899E-01 -8.34257595508E-02 +4.19280303627E-04 +6.73762778419E-04 +3.90560525778E-04 +6.51997792394E-04 -4.48880656769E-01 -1.04948608194E-01
1.55500000000E+09 -4.02817455960E-01 -3.23733354856E-02 +1.11739454895E-04 +5.78569708438E-04 +9.57938411640E-05 +6.08644685680E-04 -5.21946581225E-01 -5.85629465423E-02
1.56000000000E+09 -4.65469410303E-01 +2.34725953124E-02 +2.77396551562E-04 +1.26068521629E-03 +2.60740269033E-04 +1.32238081044E-03 -5.80907915841E-01 -6.30829138167E-03
1.56500000000E+09 -5.15899393579E-01 +8.04913953349E-02 +1.18301213339E-03 +1.05267755141E-03 +1.27912765166E-03 +1.13991905995E-03 -6.26927467882E-01 +4.95822292284E-02
1.57000000000E+09 -5.54614246191E-01 +1.36507312341E-01 +1.66408338412E-03 -5.33031663199E-05 +1.84067524178E-03 -4.16992512892E-05 -6.62001539027E-01 +1.04281665205E-01
