# Hz S RI R 50
! CMT, C1220, 16058040, 17.2.0/1
! Date: 14/08/2018 11:47:12
! Data: Format (Calibration Info)
! Freq                      S11: Re/Im (F2)                       S21: Re/Im (F2)                       S12: Re/Im (F2)                       S22: Re/Im (F2)            
1.00000000000E+09 -6.48832830203E-01 +7.15225725286E-01 -2.81523008112E-06 -1.01243400719E-05 -1.30344860202E-05 +1.83976555833E-05 -7.55150449136E-01 +6.24570455921E-01
1.00500000000E+09 -6.41855780807E-01 +7.20118770748E-01 +1.36261845377E-05 -7.59841977192E-06 -4.70255210325E-05 -9.53382788054E-06 -7.51641405154E-01 +6.28522109467E-01
1.01000000000E+09 -6.35798886674E-01 +7.24537733689E-01 +3.66311991075E-05 -3.08976000438E-05 +2.05637520593E-05 +8.36836697979E-06 -7.47991523835E-01 +6.32374278465E-01
1.01500000000E+09 -6.30975226025E-01 +7.28329837881E-01 -5.81612160944E-06 +2.49344726752E-05 -8.83738364427E-06 -1.75322640245E-06 -7.44608065680E-01 +6.36226850121E-01
1.02000000000E+09 -6.27194126318E-01 +7.31492717118E-01 +6.98272051279E-06 +5.08802346149E-05 +9.08695418406E-06 -1.33274083657E-05 -7.41113626948E-01 +6.39709271601E-01
1.02500000000E+09 -6.24106027638E-01 +7.34273397642E-01 +1.51615067871E-05 +1.78764389636E-05 -1.19149605775E-05 +4.69678694749E-06 -7.38057191667E-01 +6.43481200856E-01
1.03000000000E+09 -6.21696447085E-01 +7.36700394205E-01 -4.23537208990E-05 -3.13938993466E-05 -6.11819196830E-05 -5.73371593193E-05 -7.34649434381E-01 +6.47335250876E-01
1.03500000000E+09 -6.18344713693E-01 +7.39304631272E-01 +2.30698675630E-05 -2.19872526671E-06 +2.38822953251E-06 -1.38963362910E-05 -7.31028608486E-01 +6.51227764585E-01
1.04000000000E+09 -6.14122758179E-01 +7.42314854091E-01 +3.85881137397E-05 -1.24430091863E-05 -5.21657213490E-05 +1.54880235380E-05 -7.27345846578E-01 +6.54813889276E-01
1.04500000000E+09 -6.08640793821E-01 +7.45754633911E-01 -7.75264868960E-07 +2.09120433854E-05 +4.27773256017E-05 -3.04457253224E-05 -7.23739547025E-01 +6.58287522861E-01
1.05000000000E+09 -6.01581904986E-01 +7.50136605079E-01 +1.31985700282E-05 -4.48526991463E-06 -1.19805480481E-06 -4.08512075646E-05 -7.20304951868E-01 +6.61958672828E-01
1.05500000000E+09 -5.93584791049E-01 +7.54729657729E-01 +2.24557964982E-05 -3.17765852530E-06 +1.92500566107E-07 -2.41201070580E-05 -7.17031117603E-01 +6.65444652887E-01
1.06000000000E+09 -5.85076846001E-01 +7.59741789975E-01 +2.01009576918E-06 -1.74547296302E-05 +3.43679782436E-05 +4.82367499258E-05 -7.13783596818E-01 +6.69204846987E-01
1.06500000000E+09 -5.77155346829E-01 +7.64430484663E-01 +6.12021944518E-05 +3.14118612503E-05 -6.16859027968E-05 +3.27786508481E-06 -7.10141789542E-01 +6.72906970354E-01
1.07000000000E+09 -5.70237607960E-01 +7.68805886192E-01 +1.19372235031E-05 -6.00522831278E-07 +4.37095912467E-05 +4.02462998738E-05 -7.06100389360E-01 +6.76546598945E-01
1.07500000000E+09 -5.64676508398E-01 +7.72458166515E-01 +9.69740508208E-06 +1.80930176273E-06 +2.59490327601E-05 +4.32123465358E-06 -7.01802486143E-01 +6.80299657220E-01
1.08000000000E+09 -5.60569841429E-01 +7.75568430979E-01 +3.72400005223E-05 +2.69202632521E-05 +4.02366103302E-05 -1.75449943441E-05 -6.97866909920E-01 +6.84229518888E-01
1.08500000000E+09 -5.57755498726E-01 +7.77857477701E-01 +2.41518487001E-05 +1.10968806069E-05 +1.15227941973E-05 -1.24820729447E-05 -6.93813098690E-01 +6.87984582898E-01
1.09000000000E+09 -5.55289696146E-01 +7.79813459715E-01 +2.55897544694E-05 +2.41830642646E-05 +6.30009861399E-05 +5.36523550342E-05 -6.89879338084E-01 +6.91881727760E-01
1.09500000000E+09 -5.53210660423E-01 +7.81546282085E-01 +3.54253837020E-05 +2.49118242176E-05 +1.07325977995E-05 +1.31732641796E-05 -6.86011396266E-01 +6.95750661344E-01
1.10000000000E+09 -5.49709346911E-01 +7.83672012063E-01 +2.93335611135E-08 +5.86377204968E-06 +3.81748160614E-05 +2.41675997818E-05 -6.82033248561E-01 +6.99621752819E-01
1.10500000000E+09 -5.45365864885E-01 +7.86382533221E-01 +3.74957429501E-05 +9.61721170635E-06 +2.78465125959E-06 -7.35177920768E-06 -6.77951847585E-01 +7.03234698422E-01
1.11000000000E+09 -5.39498798311E-01 +7.89541972984E-01 +4.39526132335E-05 -1.24993662097E-05 +2.50536725328E-05 -3.82369832047E-05 -6.73761303058E-01 +7.06491805675E-01
1.11500000000E+09 -5.32435709279E-01 +7.93306682629E-01 -3.48205651116E-07 +1.57664008992E-05 -2.63719425901E-05 -4.69715917934E-06 -6.69578681798E-01 +7.10098352504E-01
1.12000000000E+09 -5.24902724270E-01 +7.97005677669E-01 -7.30460170226E-06 +2.71914708965E-06 +1.58810025225E-05 +7.21230108097E-06 -6.65378269266E-01 +7.13653773294E-01
1.12500000000E+09 -5.17233374359E-01 +8.01041950421E-01 +1.58332503866E-05 +1.11273457123E-06 +4.92808737779E-05 -4.08695758948E-06 -6.61139028106E-01 +7.17900025062E-01
1.13000000000E+09 -5.10208217346E-01 +8.04607775165E-01 -5.66893263436E-05 -4.23466424320E-05 +5.28619669685E-05 -1.62915726796E-05 -6.56895347738E-01 +7.21468012645E-01
1.13500000000E+09 -5.04118302205E-01 +8.07335558429E-01 +2.42283796088E-05 -1.28976770885E-05 +1.00887905293E-06 +5.97507904660E-06 -6.52277283182E-01 +7.25355747028E-01
1.14000000000E+09 -4.98964953055E-01 +8.09916484992E-01 +5.79115547409E-05 -4.47800615059E-06 +5.48146890755E-05 +2.46059813918E-06 -6.47804663757E-01 +7.28868538404E-01
1.14500000000E+09 -4.94731218365E-01 +8.11552106236E-01 -5.55454445390E-06 +1.46665886574E-05 +6.26363529686E-05 -1.89119100646E-05 -6.43196670672E-01 +7.32311367912E-01
1.15000000000E+09 -4.90536867670E-01 +8.13217481480E-01 +9.21975980972E-06 -2.84589560007E-05 +1.71616252934E-06 -7.09102461842E-05 -6.38514577433E-01 +7.35941930139E-01
1.15500000000E+09 -4.86430901519E-01 +8.15029197526E-01 +3.11885318609E-05 -1.29875125759E-05 -1.39881976167E-06 -8.41693690294E-06 -6.33573980824E-01 +7.39862410072E-01
1.16000000000E+09 -4.81284295427E-01 +8.16926352826E-01 +8.70716980372E-06 -9.23682386503E-06 +2.08569715621E-05 +1.43578020703E-05 -6.28729423444E-01 +7.43719753314E-01
1.16500000000E+09 -4.75127077465E-01 +8.19706212283E-01 +6.18215013612E-05 -2.30414377507E-05 +5.90643122164E-05 +2.22120042032E-05 -6.23540304824E-01 +7.47468036616E-01
1.17000000000E+09 -4.68033998947E-01 +8.22781795681E-01 +6.26825141699E-05 -5.68225645668E-05 +4.35427643815E-05 -2.69854492356E-06 -6.18194108566E-01 +7.50964396317E-01
1.17500000000E+09 -4.59906632452E-01 +8.25883525905E-01 -6.67992747163E-06 +4.13336280584E-07 +5.23544434934E-05 -1.24393409285E-05 -6.12685288274E-01 +7.54123787722E-01
1.18000000000E+09 -4.51813461029E-01 +8.29339919017E-01 +3.21616014793E-05 -1.68015892169E-05 +3.76069678215E-05 -3.00236050339E-05 -6.06898226814E-01 +7.57252187381E-01
1.18500000000E+09 -4.43868252507E-01 +8.32604838221E-01 +2.87198857109E-05 -7.18064112883E-05 +3.93404895664E-05 -7.05505757916E-05 -6.00819040260E-01 +7.60412742476E-01
1.19000000000E+09 -4.36484179316E-01 +8.35100658879E-01 +5.42806426563E-05 -5.25000334133E-05 +3.33796327631E-05 -8.44269280715E-05 -5.94583716836E-01 +7.63032403616E-01
1.19500000000E+09 -4.30327632365E-01 +8.37085717437E-01 +1.06375906797E-05 -1.47772363426E-04 +1.79821874939E-05 -9.26742846390E-05 -5.88611633225E-01 +7.64215469304E-01
1.20000000000E+09 -4.25071399669E-01 +8.38009141049E-01 -7.51816356016E-05 -1.02514101582E-04 -3.60942526322E-05 -1.26075172466E-04 -5.83963146426E-01 +7.64462553197E-01
1.20500000000E+09 -4.20375888752E-01 +8.39272896683E-01 -8.15685133510E-05 -6.73073873197E-05 -1.29317964482E-04 -1.09069720190E-04 -5.81751585362E-01 +7.65142975054E-01
1.21000000000E+09 -4.15322992276E-01 +8.40544214641E-01 -7.80309866075E-05 -6.97633949812E-05 -1.42089021207E-04 -1.50635352756E-05 -5.80060821346E-01 +7.68293132561E-01
1.21500000000E+09 -4.09464196028E-01 +8.41974564764E-01 -8.01216217876E-05 -3.97971646583E-06 -1.05340360209E-04 +3.93076991100E-05 -5.77283317262E-01 +7.72730549368E-01
1.22000000000E+09 -4.02286111023E-01 +8.43841553463E-01 -5.27050544761E-05 +1.61774591275E-05 -5.11275921255E-05 +2.94519836095E-05 -5.73036147662E-01 +7.78018247548E-01
1.22500000000E+09 -3.93757902578E-01 +8.46470953625E-01 +2.19688673787E-05 -7.29470537989E-06 +1.62583144549E-05 +7.81241631689E-05 -5.67894944263E-01 +7.83311299380E-01
1.23000000000E+09 -3.84331355558E-01 +8.49392400003E-01 +3.81011106129E-05 +3.62922962299E-05 +1.84377968991E-05 -1.66937387627E-05 -5.62149770334E-01 +7.87971233737E-01
1.23500000000E+09 -3.74713466401E-01 +8.52649518605E-01 +1.00419002701E-05 -1.08157801696E-05 -2.71914304246E-06 -3.56985791417E-05 -5.56355844813E-01 +7.92383951799E-01
1.24000000000E+09 -3.65210935064E-01 +8.56057990853E-01 -1.24697261584E-06 -3.79055514749E-05 -7.83123835798E-05 -2.64599637742E-05 -5.50339191763E-01 +7.96178745296E-01
1.24500000000E+09 -3.56665820449E-01 +8.59737592623E-01 -5.43248869569E-05 -3.22431391632E-05 -1.03522064221E-05 -1.00471496198E-05 -5.43884458432E-01 +8.00073060091E-01
1.25000000000E+09 -3.48900137315E-01 +8.62768297202E-01 -8.75670840799E-05 -2.99111478565E-05 -7.45030634725E-05 -4.66531893398E-05 -5.37282529288E-01 +8.04420320004E-01
1.25500000000E+09 -3.42107826289E-01 +8.64898028825E-01 -4.85654490007E-05 +7.29118262438E-06 -7.59687351841E-05 -2.55883150890E-05 -5.30347998058E-01 +8.08322599626E-01
1.26000000000E+09 -3.35953554416E-01 +8.66240053799E-01 -5.69230057647E-05 +1.11991388386E-05 -6.40686182387E-05 -3.69861303119E-05 -5.23778280017E-01 +8.12894934564E-01
1.26500000000E+09 -3.29956337046E-01 +8.67083869066E-01 -5.26535805129E-06 +1.73642444891E-06 -4.82108162191E-05 +1.33852401603E-05 -5.16738281694E-01 +8.16671642750E-01
1.27000000000E+09 -3.23450955702E-01 +8.67643517866E-01 -6.59783853017E-05 -3.39567597554E-05 -4.51813704550E-05 -2.94823956303E-05 -5.09768032659E-01 +8.20449035719E-01
1.27500000000E+09 -3.15479786117E-01 +8.68263286202E-01 -7.84066251927E-05 -4.41600830435E-05 -1.03993073326E-04 -3.80370657836E-05 -5.02811362683E-01 +8.23985418116E-01
1.28000000000E+09 -3.05886341139E-01 +8.69389923331E-01 -8.91599384076E-05 -4.63872704779E-06 -1.13628572835E-04 -7.47728523681E-07 -4.95870862396E-01 +8.27552445255E-01
1.28500000000E+09 -2.94489762143E-01 +8.70962955512E-01 -8.77409590956E-05 -1.25217294739E-05 -9.41747150231E-05 +3.39755328929E-05 -4.88351896982E-01 +8.31218716267E-01
1.29000000000E+09 -2.82387362639E-01 +8.73017537374E-01 -9.70467923173E-05 +4.04731810790E-05 -1.15987623082E-04 +4.89085266326E-05 -4.80864690807E-01 +8.34993457122E-01
1.29500000000E+09 -2.70064690130E-01 +8.75700759767E-01 -6.85439376252E-05 +4.36404665923E-05 -4.56352907415E-05 +3.84366220103E-05 -4.72823927252E-01 +8.38469011333E-01
1.30000000000E+09 -2.58201322763E-01 +8.79030322650E-01 -1.10132160205E-04 +1.54099665472E-05 -7.60472105456E-05 +4.28780181722E-05 -4.64827940981E-01 +8.42216076963E-01
1.30500000000E+09 -2.47650873268E-01 +8.82211396511E-01 -8.06964937592E-05 +3.53268680499E-05 -6.20897511990E-05 +1.75960172128E-05 -4.56797439563E-01 +8.45691886868E-01
1.31000000000E+09 -2.38508802967E-01 +8.84852465875E-01 -1.06757597698E-04 +7.79162604491E-05 -1.28338933377E-04 +9.58733814518E-05 -4.48418559047E-01 +8.49050096463E-01
1.31500000000E+09 -2.30994856768E-01 +8.86575945663E-01 -6.18585547529E-05 +1.23138902169E-04 -8.92725030171E-05 +9.98781040252E-05 -4.39623348556E-01 +8.52540114424E-01
1.32000000000E+09 -2.24756450632E-01 +8.87369934747E-01 -5.70658725169E-05 +1.63921104601E-04 -5.97377211081E-05 +1.83135788195E-04 -4.30375791779E-01 +8.55883844796E-01
1.32500000000E+09 -2.18828654895E-01 +8.87211071712E-01 -3.85671331083E-05 +1.18781524922E-04 -2.66705881483E-05 +1.18632182198E-04 -4.20651774186E-01 +8.59333031035E-01
1.33000000000E+09 -2.12047995122E-01 +8.86646082418E-01 -4.52289440156E-05 +1.47116600312E-04 -4.87668746794E-05 +1.96018712227E-04 -4.10860617562E-01 +8.62606351846E-01
1.33500000000E+09 -2.03716422674E-01 +8.85917053798E-01 -2.14623292560E-05 +1.74863461620E-04 -5.60967538678E-06 +1.38298204225E-04 -4.00996357435E-01 +8.65905698833E-01
1.34000000000E+09 -1.93058598632E-01 +8.85302307271E-01 -4.42757050728E-05 +1.52658056084E-04 -2.72879414386E-05 +1.31986611391E-04 -3.90666487974E-01 +8.69128957257E-01
1.34500000000E+09 -1.79911548925E-01 +8.84942748235E-01 -5.53674996419E-05 +1.21561049500E-04 -5.62911462330E-05 +1.42999920524E-04 -3.79866417013E-01 +8.72421526349E-01
1.35000000000E+09 -1.65008944796E-01 +8.84918778056E-01 -3.35359984860E-05 +1.92410857976E-04 -5.60014925099E-05 +1.80982042413E-04 -3.68702593827E-01 +8.75413898947E-01
1.35500000000E+09 -1.48742779044E-01 +8.85343565175E-01 +1.60098751747E-05 +2.11536087652E-04 +1.28473865687E-05 +1.88560520079E-04 -3.56928105508E-01 +8.78311564694E-01
1.36000000000E+09 -1.32540077322E-01 +8.86047259074E-01 +4.60511732275E-05 +2.69734251798E-04 +9.94924895423E-06 +2.24213545982E-04 -3.45030917934E-01 +8.80989306372E-01
1.36500000000E+09 -1.16895093895E-01 +8.86777744064E-01 +9.52498954597E-05 +2.58463196011E-04 +1.11317956659E-04 +2.15100921708E-04 -3.32837198360E-01 +8.83499423130E-01
1.37000000000E+09 -1.02789217097E-01 +8.86608538182E-01 +1.74212241738E-04 +3.54758771001E-04 +1.47291707909E-04 +3.19207414424E-04 -3.19942046023E-01 +8.85835110779E-01
1.37500000000E+09 -9.05366128898E-02 +8.85885833674E-01 +3.03660087154E-04 +2.14520222838E-04 +2.76691599567E-04 +2.57155261181E-04 -3.06248330506E-01 +8.88007108036E-01
1.38000000000E+09 -7.95998858424E-02 +8.84568246532E-01 +2.75009424496E-04 +1.25331387342E-04 +2.45252227901E-04 +1.86031289826E-04 -2.91757584749E-01 +8.90149874250E-01
1.38500000000E+09 -6.86112179449E-02 +8.82671746979E-01 +2.12701905269E-04 +1.43148516646E-04 +2.74552270405E-04 +2.11752565030E-04 -2.76294343857E-01 +8.91894209331E-01
1.39000000000E+09 -5.69210219932E-02 +8.79786255476E-01 +2.68614124165E-04 +1.63253102068E-04 +3.17430384136E-04 +2.18300731974E-04 -2.60532197858E-01 +8.93240577666E-01
1.39500000000E+09 -4.33488525318E-02 +8.75973712465E-01 +3.41827491725E-04 +1.83087999302E-04 +4.26459914064E-04 +2.07429911722E-04 -2.43765324028E-01 +8.93966355770E-01
1.40000000000E+09 -2.73627829415E-02 +8.71307455561E-01 +4.75996943750E-04 +1.93910484803E-04 +5.77047674242E-04 +1.41411868244E-04 -2.26154443699E-01 +8.94629149868E-01
1.40500000000E+09 -9.44898764222E-03 +8.66156758771E-01 +6.24940312173E-04 +9.41461992129E-06 +5.88935685293E-04 -1.46877726410E-05 -2.07319452685E-01 +8.94297563798E-01
1.41000000000E+09 +1.05804093715E-02 +8.60807172650E-01 +5.42331609672E-04 -2.29316449821E-04 +5.81537116628E-04 -1.82116457898E-04 -1.87332682056E-01 +8.93523174088E-01
1.41500000000E+09 +3.19864861070E-02 +8.55212684515E-01 +5.01518644093E-04 -2.22709064562E-04 +5.24852370167E-04 -2.75589271133E-04 -1.66007818081E-01 +8.92101710001E-01
1.42000000000E+09 +5.45281553695E-02 +8.49198961738E-01 +4.90455136656E-04 -3.68819333155E-04 +5.08739254338E-04 -4.02350325542E-04 -1.43459250213E-01 +8.89437006573E-01
1.42500000000E+09 +7.71582521613E-02 +8.41838352399E-01 +3.86827615156E-04 -3.67673020445E-04 +4.01639501606E-04 -4.64912412441E-04 -1.19992912934E-01 +8.86022961024E-01
1.43000000000E+09 +9.86219742508E-02 +8.32827740183E-01 +3.43383817546E-04 -3.72673571056E-04 +4.20931142538E-04 -4.59569940957E-04 -9.51198572113E-02 +8.81635646361E-01
1.43500000000E+09 +1.19313697833E-01 +8.22079543470E-01 +4.91425452092E-04 -5.20920742217E-04 +4.38314001341E-04 -5.85118409810E-04 -6.88245735996E-02 +8.75186368066E-01
1.44000000000E+09 +1.39782270688E-01 +8.09676291683E-01 +4.64815608496E-04 -6.72048598302E-04 +4.24965247629E-04 -7.55693645057E-04 -4.08094452636E-02 +8.66817044938E-01
1.44500000000E+09 +1.61174119952E-01 +7.95047804056E-01 +2.83799365600E-04 -1.02033414596E-03 +2.02652775355E-04 -1.04525863545E-03 -1.06389530703E-02 +8.55669371962E-01
1.45000000000E+09 +1.84331763732E-01 +7.77191540270E-01 -8.99762947443E-05 -1.00355568503E-03 -1.95718983444E-04 -1.05009523356E-03 +2.11856849860E-02 +8.41647284539E-01
1.45500000000E+09 +2.08992131553E-01 +7.56082356424E-01 -2.73581957289E-04 -8.59812916360E-04 -4.03825520633E-04 -8.35069640860E-04 +5.46101188260E-02 +8.24340424157E-01
1.46000000000E+09 +2.36199116242E-01 +7.31821574349E-01 -4.20886388784E-04 -8.30610424743E-04 -5.31498129696E-04 -7.20402951619E-04 +8.93415213502E-02 +8.03173796470E-01
1.46500000000E+09 +2.65243901559E-01 +7.03480902670E-01 -4.20891933910E-04 -5.82627570293E-04 -4.29265765783E-04 -4.95020723120E-04 +1.25779475198E-01 +7.77081296461E-01
1.47000000000E+09 +2.95626744655E-01 +6.70771224814E-01 -2.83347375660E-04 -7.26827563876E-04 -2.43649002559E-04 -6.35308453617E-04 +1.63492847509E-01 +7.44415300338E-01
1.47500000000E+09 +3.25684207981E-01 +6.32617608268E-01 -5.68590314983E-04 -1.00373832237E-03 -5.40725901742E-04 -9.78171396985E-04 +2.01764951646E-01 +7.04260227989E-01
1.48000000000E+09 +3.53285491622E-01 +5.88895805056E-01 -1.11495522278E-03 -9.10377473621E-04 -1.07600719543E-03 -9.59499417379E-04 +2.39255870230E-01 +6.55238388934E-01
1.48500000000E+09 +3.77191122587E-01 +5.38649513064E-01 -1.30074360607E-03 -5.84241758125E-04 -1.37269082313E-03 -5.73091287690E-04 +2.74428385337E-01 +5.96671314912E-01
1.49000000000E+09 +3.95899089380E-01 +4.81076777840E-01 -1.56054272334E-03 -1.87381645273E-04 -1.54304222576E-03 -1.08125186203E-04 +3.04048961650E-01 +5.27632763203E-01
1.49500000000E+09 +4.07808793868E-01 +4.15477239701E-01 -1.60417847780E-03 +6.09345550367E-05 -1.55918968049E-03 +1.26739223867E-04 +3.25409338823E-01 +4.47757522626E-01
1.50000000000E+09 +4.10606351625E-01 +3.39839067077E-01 -1.58384513656E-03 +5.95236257849E-04 -1.47834438741E-03 +5.77039751815E-04 +3.33377638278E-01 +3.56795322954E-01
1.50500000000E+09 +4.00478624271E-01 +2.56203468906E-01 -1.33026327689E-03 +1.08859949727E-03 -1.28529957018E-03 +9.81046518506E-04 +3.22981396369E-01 +2.57393075702E-01
1.51000000000E+09 +3.75675042540E-01 +1.66855570537E-01 -9.53498255222E-04 +1.03338944687E-03 -9.62510718029E-04 +9.92363472016E-04 +2.91335399933E-01 +1.55431070023E-01
1.51500000000E+09 +3.33193907262E-01 +7.52748258933E-02 -1.00928727405E-03 +1.13181806999E-03 -1.02450497005E-03 +1.05257121659E-03 +2.38091368189E-01 +5.56271057926E-02
1.52000000000E+09 +2.69230712371E-01 -1.13042842100E-02 -1.06729826574E-03 +1.39881353076E-03 -1.05457825125E-03 +1.38676602019E-03 +1.60920683789E-01 -3.45652746719E-02
1.52500000000E+09 +1.87194962837E-01 -8.45547858196E-02 -5.90702603184E-04 +2.16884689523E-03 -6.21740865730E-04 +2.14915355937E-03 +6.32491562657E-02 -1.04783675340E-01
1.53000000000E+09 +8.90487223757E-02 -1.38660466451E-01 +1.24695895961E-04 +2.48259706809E-03 +8.38906826574E-05 +2.53741555498E-03 -4.42936106713E-02 -1.51040149153E-01
1.53500000000E+09 -1.94147818979E-02 -1.68620246971E-01 +1.68303015985E-03 +2.09189200442E-03 +1.71931283360E-03 +2.11415624273E-03 -1.57807849309E-01 -1.74467121846E-01
1.54000000000E+09 -1.31279885092E-01 -1.71018671429E-01 +1.48417575776E-03 +9.50084052037E-04 +1.47810112857E-03 +9.47624984850E-04 -2.71152633206E-01 -1.71486773155E-01
1.54500000000E+09 -2.37970779650E-01 -1.49307555624E-01 +1.45682144632E-03 +7.18781694617E-04 +1.39991185952E-03 +7.14744186743E-04 -3.72306239053E-01 -1.47215645191E-01
1.55000000000E+09 -3.34136930114E-01 -1.08034834002E-01 +1.48469418576E-03 +3.19165283700E-04 +1.49582593306E-03 +2.90454575181E-04 -4.60162672565E-01 -1.08523940358E-01
1.55500000000E+09 -4.15592295374E-01 -5.36308640827E-02 +1.18542238372E-03 -1.22033523027E-04 +1.22259757904E-03 -1.13164344682E-04 -5.32704245191E-01 -5.90020859477E-02
1.56000000000E+09 -4.81276780785E-01 +6.40093022793E-03 +1.09829783149E-03 +1.33074052842E-04 +1.11647951444E-03 +1.89658852341E-04 -5.90109577752E-01 -4.21081396074E-03
1.56500000000E+09 -5.32712150761E-01 +6.76332238251E-02 +1.37669231219E-03 -9.75566428993E-05 +1.46362308109E-03 -6.70301286233E-05 -6.34648719626E-01 +5.27685453299E-02
1.57000000000E+09 -5.71676852526E-01 +1.27317282609E-01 +1.55437330638E-03 -1.01090157517E-03 +1.66666288293E-03 -1.11244919130E-03 -6.68188959635E-01 +1.08550183310E-01
