# Hz S RI R 50
! CMT, C1220, 16058040, 17.2.0/1
! Date: 14/08/2018 11:50:00
! Data: Format (Calibration Info)
! Freq                      S11: Re/Im (F2)                       S21: Re/Im (F2)                       S12: Re/Im (F2)                       S22: Re/Im (F2)            
1.00000000000E+09 -6.47804770505E-01 +7.14705204835E-01 -1.81988748987E-05 -2.45372023790E-05 -5.98538737298E-06 +1.26016108022E-05 -7.55360966590E-01 +6.23977213068E-01
1.00500000000E+09 -6.40718745686E-01 +7.19980997667E-01 +4.05112143632E-05 +1.23182595003E-05 +1.06626850702E-05 +1.80527167591E-05 -7.51792584288E-01 +6.28144700903E-01
1.01000000000E+09 -6.34552186265E-01 +7.24618535259E-01 -7.62585095845E-06 +5.14207182579E-05 -2.89340795252E-06 +1.32663499349E-08 -7.48287793466E-01 +6.31826896792E-01
1.01500000000E+09 -6.29748147865E-01 +7.28172081784E-01 -2.56971569738E-05 -3.21978682295E-05 -2.36290065571E-05 -2.50770486041E-05 -7.44770581975E-01 +6.35689898918E-01
1.02000000000E+09 -6.26320337153E-01 +7.31472524855E-01 -4.00748484656E-05 +9.25141272432E-06 +2.58280508313E-06 +4.58598926314E-06 -7.41324925347E-01 +6.39379953967E-01
1.02500000000E+09 -6.23513279418E-01 +7.34119256385E-01 -5.13017841197E-06 +2.20100213418E-05 -1.36659912455E-05 +7.79467887463E-07 -7.38386787970E-01 +6.43129750821E-01
1.03000000000E+09 -6.21388223567E-01 +7.36388895259E-01 -4.96506405755E-05 +7.48499121939E-06 +9.24296037837E-06 +3.33726375542E-05 -7.34859573700E-01 +6.46871902344E-01
1.03500000000E+09 -6.18515934180E-01 +7.38632917232E-01 +3.02347071481E-05 -4.55691107392E-05 +1.98408070658E-05 -4.38712598622E-05 -7.31177546242E-01 +6.50888806770E-01
1.04000000000E+09 -6.14315857025E-01 +7.41454356060E-01 -1.04868608628E-05 +5.81208634593E-07 +1.39720236344E-05 +3.04997729090E-05 -7.27494688177E-01 +6.54551723897E-01
1.04500000000E+09 -6.08920015098E-01 +7.44956571614E-01 -5.14162593338E-06 +2.23167904370E-05 +1.70635596349E-05 -3.10823517961E-05 -7.23965567996E-01 +6.57970753985E-01
1.05000000000E+09 -6.01857174866E-01 +7.49060996237E-01 -1.03332941956E-05 +2.01079027069E-05 -5.76980959995E-06 -1.01954745731E-05 -7.20446928563E-01 +6.61532304185E-01
1.05500000000E+09 -5.93626632301E-01 +7.53765217640E-01 -3.83554974566E-05 +4.66981317147E-05 -2.71933532878E-05 +2.56360780503E-05 -7.17086365872E-01 +6.65082019713E-01
1.06000000000E+09 -5.85108709569E-01 +7.58960846407E-01 +1.22250717233E-05 +4.67828147325E-05 -2.60186063604E-05 +1.85987371746E-05 -7.13984673036E-01 +6.68810839346E-01
1.06500000000E+09 -5.76853030676E-01 +7.63825679852E-01 -2.83856888434E-05 +3.35370790114E-05 +3.07000724940E-05 +2.91901220439E-05 -7.10277385489E-01 +6.72523699491E-01
1.07000000000E+09 -5.69834970047E-01 +7.68379369796E-01 +2.88315943812E-05 +3.30057123499E-05 -1.97029674299E-05 +4.77852435297E-05 -7.06320767154E-01 +6.76298544304E-01
1.07500000000E+09 -5.64162473339E-01 +7.72089240263E-01 +3.49502762793E-05 +4.80333140327E-05 +2.15710872350E-05 -3.08408173196E-06 -7.01979490415E-01 +6.79925991143E-01
1.08000000000E+09 -5.60104397489E-01 +7.75106308901E-01 +2.73482922026E-05 -1.35156005217E-05 +6.57954147529E-06 +7.42962440349E-05 -6.98103296423E-01 +6.83734607368E-01
1.08500000000E+09 -5.57559348132E-01 +7.77363496305E-01 +1.46781617703E-05 +1.17982048386E-05 -4.31770876998E-06 +8.14384259914E-06 -6.94035065640E-01 +6.87574294469E-01
1.09000000000E+09 -5.55505486592E-01 +7.79117580137E-01 +4.23720467184E-05 +1.09916622129E-05 -1.95034104018E-05 +1.32215671950E-05 -6.89897721492E-01 +6.91616132183E-01
1.09500000000E+09 -5.53602139337E-01 +7.80695824137E-01 +4.14312244900E-07 +1.44785358627E-05 +2.64792976257E-05 +2.11191174302E-05 -6.86105775297E-01 +6.95519316245E-01
1.10000000000E+09 -5.50540904429E-01 +7.82683665955E-01 +1.05054043835E-05 -2.15253579276E-05 +1.81052810806E-05 -5.75151528522E-06 -6.82388045615E-01 +6.99319603946E-01
1.10500000000E+09 -5.46140221842E-01 +7.85207190996E-01 +2.31952749623E-05 +1.56516650181E-05 +3.03304445648E-05 +1.87052876248E-05 -6.78153842671E-01 +7.02796818994E-01
1.11000000000E+09 -5.40507589878E-01 +7.88277716674E-01 +3.28693753959E-05 +2.25939896450E-05 +4.92929371786E-06 +1.26786240841E-05 -6.73935747361E-01 +7.06106868237E-01
1.11500000000E+09 -5.33387854780E-01 +7.92232251741E-01 +2.95868011505E-05 +5.77286770010E-06 +6.02310357267E-05 +6.36073192015E-06 -6.69724797508E-01 +7.09624931649E-01
1.12000000000E+09 -5.25550537135E-01 +7.96284566041E-01 +2.22300735973E-05 -3.04984657659E-06 -7.42866289357E-06 +2.80983656197E-05 -6.65717981340E-01 +7.13466037119E-01
1.12500000000E+09 -5.17595145969E-01 +8.00374222299E-01 +2.60019363405E-05 -1.40425750120E-06 -4.49891818696E-05 -4.67370638335E-05 -6.61450807717E-01 +7.17378012189E-01
1.13000000000E+09 -5.10501261292E-01 +8.04040996607E-01 -8.09687547147E-06 -4.20333706555E-05 +1.86032837000E-05 -5.09629465386E-06 -6.57177499345E-01 +7.21170438957E-01
1.13500000000E+09 -5.04278394592E-01 +8.06651352180E-01 -1.09001044427E-05 +5.69962208950E-06 +1.93587048856E-05 -1.18115251469E-05 -6.52606027579E-01 +7.24975257896E-01
1.14000000000E+09 -4.99214663887E-01 +8.09195795059E-01 +3.40408445466E-06 +2.22694615255E-05 -1.14700690979E-05 +6.14013038981E-06 -6.48073105715E-01 +7.28366914857E-01
1.14500000000E+09 -4.95085924066E-01 +8.10797463912E-01 -1.53318043151E-05 +9.60360364813E-08 +4.70053736189E-05 -2.54515463985E-05 -6.43374543578E-01 +7.31871712409E-01
1.15000000000E+09 -4.91269047181E-01 +8.12271712572E-01 -2.28461173233E-06 -2.07672840204E-05 +4.73340866228E-05 -4.88305035643E-05 -6.38730444983E-01 +7.35609810671E-01
1.15500000000E+09 -4.87482254798E-01 +8.14042499703E-01 -2.45448062753E-05 +1.78139267664E-05 -2.81375997170E-05 -2.67719245314E-05 -6.33831357695E-01 +7.39610199466E-01
1.16000000000E+09 -4.82607902748E-01 +8.15841043292E-01 +3.41376036612E-05 -4.09511225595E-05 -1.18331560224E-05 +7.33552239366E-08 -6.28798239311E-01 +7.43372306988E-01
1.16500000000E+09 -4.76529375698E-01 +8.18596623017E-01 +2.32283910453E-06 -9.43164787058E-06 +5.36559334773E-05 +1.14319871239E-05 -6.23920587874E-01 +7.46954654500E-01
1.17000000000E+09 -4.69292374924E-01 +8.21628402683E-01 +3.57829896693E-05 -2.12370184994E-05 +3.37905812084E-05 -5.83538603771E-05 -6.18405980732E-01 +7.50418288997E-01
1.17500000000E+09 -4.61286833057E-01 +8.24996301839E-01 +4.51315347076E-05 -3.26068793473E-06 +2.60223207670E-05 -9.09534715287E-05 -6.12791528870E-01 +7.53664219768E-01
1.18000000000E+09 -4.53199497329E-01 +8.28622527116E-01 +6.02460568917E-05 -4.09126319860E-05 +3.79255918324E-06 -4.70767065173E-05 -6.07167073400E-01 +7.56907387807E-01
1.18500000000E+09 -4.45017414253E-01 +8.31927596450E-01 +6.15396005721E-05 -7.36620630781E-05 +3.63046064819E-05 -3.08216209200E-05 -6.01234308525E-01 +7.60059181824E-01
1.19000000000E+09 -4.37589778869E-01 +8.34635696974E-01 +2.18168002428E-05 -8.26913482713E-05 +9.27636155100E-05 -5.43072475660E-05 -5.94913229925E-01 +7.62630326285E-01
1.19500000000E+09 -4.31545126701E-01 +8.36648050063E-01 -6.29150475804E-06 -1.12520538318E-04 +4.37994614888E-05 -1.71687691550E-04 -5.88818449010E-01 +7.63893036720E-01
1.20000000000E+09 -4.26411789753E-01 +8.37621254248E-01 -2.77767262690E-05 -1.17489785170E-04 -2.47594807962E-05 -9.53689077564E-05 -5.84323298686E-01 +7.64164574142E-01
1.20500000000E+09 -4.21753752563E-01 +8.38557885723E-01 -1.23999228793E-04 -7.73224871700E-05 -8.86935969409E-05 -5.49787094224E-05 -5.82071712613E-01 +7.64946133121E-01
1.21000000000E+09 -4.17003150057E-01 +8.39713020880E-01 -1.25440352708E-04 -4.14293752151E-05 -9.68674291965E-05 +3.27502285804E-05 -5.80327674618E-01 +7.67792996596E-01
1.21500000000E+09 -4.11350573568E-01 +8.40979444709E-01 -1.10118517963E-04 +2.10026746262E-05 -5.27415308843E-05 +2.28701896982E-05 -5.77459588058E-01 +7.72295755239E-01
1.22000000000E+09 -4.04324177113E-01 +8.42851121614E-01 -6.81027836447E-05 +1.43506858514E-05 -6.05091160318E-05 +2.96960912082E-05 -5.73478901355E-01 +7.77710111963E-01
1.22500000000E+09 -3.95928306790E-01 +8.45390483863E-01 -2.20285097432E-05 +1.03301458884E-06 +1.63065053100E-07 +2.36089576665E-05 -5.68184735515E-01 +7.82862609039E-01
1.23000000000E+09 -3.86458982963E-01 +8.48393780740E-01 +3.75349473489E-05 -4.11695445112E-05 +8.16130786871E-06 -4.60049787740E-05 -5.62513833305E-01 +7.87590889638E-01
1.23500000000E+09 -3.76738926639E-01 +8.51904196972E-01 -1.30008250572E-06 +5.15348624496E-07 -1.83851726469E-05 -3.29178191197E-05 -5.56840941340E-01 +7.92067901755E-01
1.24000000000E+09 -3.67116833319E-01 +8.55687007502E-01 +2.89098243180E-07 -6.19772731842E-05 -2.93391305747E-05 -3.59644942578E-05 -5.50840745217E-01 +7.95952197592E-01
1.24500000000E+09 -3.58528779329E-01 +8.59539459266E-01 -5.16153294776E-05 -6.82661537914E-05 -4.44244394403E-05 -7.86181165958E-06 -5.44418827676E-01 +7.99808416256E-01
1.25000000000E+09 -3.50733878676E-01 +8.62745175459E-01 -1.72287138322E-05 -5.01943206395E-05 -4.75516338557E-05 -2.55508301886E-05 -5.37850689868E-01 +8.04073896898E-01
1.25500000000E+09 -3.43915705832E-01 +8.64823089910E-01 -5.31472959547E-05 -3.75547604230E-06 -8.10638265451E-05 -5.00475334859E-05 -5.30990943631E-01 +8.08173612534E-01
1.26000000000E+09 -3.37967938389E-01 +8.66275984021E-01 -6.92573978322E-05 +1.79975315335E-05 -9.11296391366E-05 -7.54730984564E-07 -5.24180247531E-01 +8.12539138333E-01
1.26500000000E+09 -3.32264401388E-01 +8.66967854719E-01 -4.05254859455E-05 -4.78316887227E-06 -9.01034503579E-06 -5.01204165859E-05 -5.17124104109E-01 +8.16285238345E-01
1.27000000000E+09 -3.25851571493E-01 +8.67374951238E-01 -6.07356271515E-05 -1.77465403425E-05 -5.29370213740E-05 -4.67987721188E-05 -5.10254244955E-01 +8.20187629483E-01
1.27500000000E+09 -3.18251008512E-01 +8.67999499882E-01 -9.97553953106E-05 -1.55356910278E-05 -7.90306910353E-05 -2.85369916746E-05 -5.03226541505E-01 +8.23841943785E-01
1.28000000000E+09 -3.08805549387E-01 +8.68939459805E-01 -9.82464138840E-05 +5.90154266198E-07 -8.07375058086E-05 -2.20563548605E-05 -4.96368162622E-01 +8.27117038032E-01
1.28500000000E+09 -2.97504010563E-01 +8.70586735598E-01 -9.88781778047E-05 +1.86290608860E-05 -9.04679115500E-05 +5.00012237931E-05 -4.88926200913E-01 +8.30888207437E-01
1.29000000000E+09 -2.85492338924E-01 +8.72714707913E-01 -1.01527527793E-04 +6.43671890498E-05 -1.11259813994E-04 +5.91603610449E-05 -4.81210001041E-01 +8.34783642044E-01
1.29500000000E+09 -2.72878419283E-01 +8.75783233935E-01 -1.14300952738E-04 +1.06423412423E-05 -8.03467330155E-05 +4.17768580382E-05 -4.73308433517E-01 +8.38417445775E-01
1.30000000000E+09 -2.60776942710E-01 +8.79150999787E-01 -1.16628870058E-04 +4.42467809961E-05 -5.45527739460E-05 +8.97573420692E-05 -4.65387361619E-01 +8.41990192438E-01
1.30500000000E+09 -2.50149883584E-01 +8.82427276798E-01 -1.10539369093E-04 +4.18943985051E-05 -1.13048361739E-04 +7.52051370991E-05 -4.57183720117E-01 +8.45442113782E-01
1.31000000000E+09 -2.40874574380E-01 +8.85137553279E-01 -1.22693223359E-04 +8.84675993738E-05 -7.39626017646E-05 +9.61720239865E-05 -4.48863963531E-01 +8.48903239904E-01
1.31500000000E+09 -2.33458270462E-01 +8.86831649118E-01 -6.28838030111E-05 +1.09730088928E-04 -9.20748742694E-05 +1.42127838421E-04 -4.40009702313E-01 +8.52308250903E-01
1.32000000000E+09 -2.27385783706E-01 +8.87665622980E-01 -4.97895092476E-05 +1.02912557517E-04 -5.66013293813E-05 +1.10311904608E-04 -4.30821862299E-01 +8.55863967059E-01
1.32500000000E+09 -2.21907738750E-01 +8.87434887958E-01 -7.20511272971E-05 +1.26411079444E-04 -3.52335326011E-05 +1.39868241207E-04 -4.21017119194E-01 +8.59223358815E-01
1.33000000000E+09 -2.15542035791E-01 +8.86934622093E-01 -2.58512673578E-05 +1.59714005350E-04 -1.80631259785E-05 +1.60786127859E-04 -4.11332531139E-01 +8.62479137865E-01
1.33500000000E+09 -2.07362184970E-01 +8.86089069979E-01 -2.61894689300E-05 +1.52729296254E-04 +2.75998840162E-05 +1.35526351059E-04 -4.01277927783E-01 +8.65876606523E-01
1.34000000000E+09 -1.96748874763E-01 +8.85563916111E-01 +8.71932863218E-06 +1.34455809594E-04 -1.85710052702E-05 +1.42369900149E-04 -3.91086678749E-01 +8.69146211585E-01
1.34500000000E+09 -1.83573599755E-01 +8.85296183366E-01 -3.24821633595E-05 +1.64178943330E-04 -2.65786869541E-05 +1.42543989353E-04 -3.80055473649E-01 +8.72551080976E-01
1.35000000000E+09 -1.68458518753E-01 +8.85383670943E-01 -2.21970920393E-05 +1.39596357986E-04 -6.20716037215E-05 +1.99076409395E-04 -3.68865587409E-01 +8.75509831959E-01
1.35500000000E+09 -1.51945781747E-01 +8.86187721221E-01 +1.18283081486E-05 +2.07538890121E-04 -6.42694804972E-06 +2.06854772570E-04 -3.57128571057E-01 +8.78360192118E-01
1.36000000000E+09 -1.35446061430E-01 +8.86974093788E-01 +2.20510003244E-05 +2.48855042837E-04 -9.73459192724E-06 +2.31727514411E-04 -3.45196838699E-01 +8.81094725609E-01
1.36500000000E+09 -1.19691997385E-01 +8.87698452171E-01 +1.20138319697E-04 +2.88705826670E-04 +8.25143171065E-05 +2.52895131644E-04 -3.32830492434E-01 +8.83629580880E-01
1.37000000000E+09 -1.05593382930E-01 +8.87874123346E-01 +1.81360106651E-04 +2.81014354672E-04 +1.32354571555E-04 +2.98294882349E-04 -3.19895405457E-01 +8.86019371291E-01
1.37500000000E+09 -9.35671896363E-02 +8.87270587585E-01 +2.97637001782E-04 +2.04074565862E-04 +2.44404905167E-04 +2.37991575948E-04 -3.06207836427E-01 +8.88054913972E-01
1.38000000000E+09 -8.30289767099E-02 +8.86181290196E-01 +2.20823141081E-04 +1.45928284130E-04 +1.83700063222E-04 +1.56807792401E-04 -2.91610202192E-01 +8.90105138861E-01
1.38500000000E+09 -7.24029000151E-02 +8.84310098751E-01 +2.43134884296E-04 +1.81564750971E-04 +2.75636274530E-04 +2.38339230501E-04 -2.76207070792E-01 +8.91704122370E-01
1.39000000000E+09 -6.08617981182E-02 +8.81665007048E-01 +2.92995885054E-04 +1.96129806332E-04 +2.98513374140E-04 +1.92764024148E-04 -2.60188738557E-01 +8.93014568702E-01
1.39500000000E+09 -4.73852020979E-02 +8.78078135657E-01 +3.59138299086E-04 +2.10296146299E-04 +4.41132829239E-04 +2.08980175508E-04 -2.43433132644E-01 +8.93870347825E-01
1.40000000000E+09 -3.12646367989E-02 +8.73410688313E-01 +4.59614244718E-04 +1.29380403920E-04 +5.04031084512E-04 +1.11225565759E-04 -2.25791891680E-01 +8.94330957825E-01
1.40500000000E+09 -1.30477099045E-02 +8.68509734342E-01 +5.90587940055E-04 +2.95071789137E-06 +6.10865161449E-04 +1.07765454873E-05 -2.06806153878E-01 +8.93914178924E-01
1.41000000000E+09 +7.31810189782E-03 +8.63217769157E-01 +5.94562773821E-04 -1.99486489673E-04 +5.85341332393E-04 -1.96023261596E-04 -1.86996917467E-01 +8.93039769092E-01
1.41500000000E+09 +2.92137590214E-02 +8.57598424332E-01 +5.55701992676E-04 -2.04454074299E-04 +5.55298258092E-04 -2.05927022774E-04 -1.65491221024E-01 +8.91518016488E-01
1.42000000000E+09 +5.21059775090E-02 +8.51790923291E-01 +5.54872002592E-04 -3.97950645388E-04 +5.88222636827E-04 -3.97493855348E-04 -1.42790391824E-01 +8.88680535736E-01
1.42500000000E+09 +7.46169788610E-02 +8.44564635865E-01 +3.49681841703E-04 -4.00237072964E-04 +3.80607758538E-04 -5.02195748525E-04 -1.19406558641E-01 +8.85130868533E-01
1.43000000000E+09 +9.59848521158E-02 +8.35883642156E-01 +3.62062759375E-04 -3.42948219847E-04 +3.37551759718E-04 -4.36584177527E-04 -9.44782869948E-02 +8.80503465352E-01
1.43500000000E+09 +1.16526303786E-01 +8.25494304506E-01 +4.79742777434E-04 -5.06641320996E-04 +4.35659907925E-04 -5.16074434669E-04 -6.82026350082E-02 +8.73850731186E-01
1.44000000000E+09 +1.36729628949E-01 +8.13549423867E-01 +5.13583217159E-04 -6.52742627264E-04 +4.48808087589E-04 -7.44899097497E-04 -4.02811960188E-02 +8.65358498756E-01
1.44500000000E+09 +1.58016811054E-01 +7.99455507364E-01 +2.86013514882E-04 -9.81758494837E-04 +2.51755603455E-04 -1.02501217073E-03 -1.03599617711E-02 +8.53837614594E-01
1.45000000000E+09 +1.81132669080E-01 +7.81843451638E-01 -5.86231330645E-05 -9.59936382350E-04 -1.57441640236E-04 -1.00926559506E-03 +2.12589209281E-02 +8.39386134540E-01
1.45500000000E+09 +2.06097965778E-01 +7.60860764020E-01 -3.01092739519E-04 -8.57190497698E-04 -3.35986699914E-04 -8.68664188826E-04 +5.44398048054E-02 +8.21696617046E-01
1.46000000000E+09 +2.34019134641E-01 +7.36677084280E-01 -4.19221802830E-04 -7.59440498574E-04 -4.96505592646E-04 -6.94055630316E-04 +8.86994264568E-02 +8.00147665814E-01
1.46500000000E+09 +2.64102960809E-01 +7.08203961451E-01 -4.26578270922E-04 -5.28790082040E-04 -3.73755307565E-04 -4.96280061877E-04 +1.24575475572E-01 +7.73888123784E-01
1.47000000000E+09 +2.95385712630E-01 +6.75341078017E-01 -2.26274632976E-04 -6.67139869091E-04 -2.27104710081E-04 -5.68521974485E-04 +1.61439006365E-01 +7.41005807887E-01
1.47500000000E+09 +3.26357961564E-01 +6.37076765963E-01 -4.52000101521E-04 -9.39168165416E-04 -3.67974340166E-04 -9.59624173944E-04 +1.98824126697E-01 +7.01059527464E-01
1.48000000000E+09 +3.54652286767E-01 +5.93088199139E-01 -9.25760702632E-04 -8.98424438192E-04 -9.09986603210E-04 -9.34399772310E-04 +2.35702507786E-01 +6.52337740483E-01
1.48500000000E+09 +3.79052012746E-01 +5.43159403711E-01 -1.04508016792E-03 -6.79720949971E-04 -1.04833406022E-03 -7.05349029771E-04 +2.70122872588E-01 +5.94140750859E-01
1.49000000000E+09 +3.98214300541E-01 +4.85611913679E-01 -1.40019830789E-03 -5.28042728376E-04 -1.36918031033E-03 -4.49810218211E-04 +2.98746184259E-01 +5.25610253309E-01
1.49500000000E+09 +4.10611066446E-01 +4.20129386191E-01 -1.67251790769E-03 -3.78809119041E-04 -1.54912134613E-03 -3.13565816411E-04 +3.19004600403E-01 +4.46914587760E-01
1.50000000000E+09 +4.14290973727E-01 +3.44276555473E-01 -1.85235608569E-03 +3.74823632461E-04 -1.78763150392E-03 +3.81990942252E-04 +3.26300221278E-01 +3.57476161403E-01
1.50500000000E+09 +4.04714765705E-01 +2.59789124218E-01 -1.43424193281E-03 +9.40874218348E-04 -1.35227657368E-03 +8.89478630968E-04 +3.15475745726E-01 +2.60110561736E-01
1.51000000000E+09 +3.80309524337E-01 +1.69294170700E-01 -1.13266117147E-03 +8.60460611250E-04 -1.16379718175E-03 +8.00935804975E-04 +2.84300096074E-01 +1.60919290715E-01
1.51500000000E+09 +3.38266990844E-01 +7.60266989814E-02 -1.28987960154E-03 +1.09903563260E-03 -1.34847597226E-03 +1.04693042448E-03 +2.33116280991E-01 +6.31021785603E-02
1.52000000000E+09 +2.74430830795E-01 -1.24794790925E-02 -1.39121065144E-03 +1.47350938137E-03 -1.38394385592E-03 +1.40705261234E-03 +1.58436499764E-01 -2.56515309230E-02
1.52500000000E+09 +1.92333935628E-01 -8.76669265575E-02 -8.34127832546E-04 +2.52331191823E-03 -8.62380007053E-04 +2.48817320570E-03 +6.37969436035E-02 -9.59888696359E-02
1.53000000000E+09 +9.34563439859E-02 -1.43786585555E-01 +1.17466008726E-04 +2.69234122240E-03 +1.03503332639E-04 +2.74963439326E-03 -4.17655642187E-02 -1.43301984847E-01
1.53500000000E+09 -1.60293574180E-02 -1.75105931998E-01 +1.69084280558E-03 +2.23169462664E-03 +1.64358857243E-03 +2.19217657985E-03 -1.53647153292E-01 -1.67399743139E-01
1.54000000000E+09 -1.29627818294E-01 -1.78485389694E-01 +1.56014233204E-03 +1.13355575431E-03 +1.48484090740E-03 +1.13366034205E-03 -2.64952146260E-01 -1.66163879635E-01
1.54500000000E+09 -2.38004401021E-01 -1.56488790802E-01 +1.57459925896E-03 +7.87878322666E-04 +1.54361236169E-03 +8.07589959675E-04 -3.65166082929E-01 -1.44144190136E-01
1.55000000000E+09 -3.35874543866E-01 -1.14501167769E-01 +1.48414064092E-03 +2.07129007764E-04 +1.48783606746E-03 +2.86952691113E-04 -4.53257492118E-01 -1.07600188579E-01
1.55500000000E+09 -4.18800339345E-01 -5.89307532557E-02 +1.12010501508E-03 -6.50827137406E-06 +1.14403998715E-03 +3.80141176341E-05 -5.26180267919E-01 -5.94750491052E-02
1.56000000000E+09 -4.85798421107E-01 +2.53533776744E-03 +1.10249575448E-03 +2.74972103367E-04 +1.18120946343E-03 +2.91512628861E-04 -5.84370932156E-01 -6.21982659455E-03
1.56500000000E+09 -5.37822099334E-01 +6.50983841300E-02 +1.44861579306E-03 +9.60148359891E-05 +1.55721432871E-03 +1.09522994579E-04 -6.29807384590E-01 +4.97942258875E-02
1.57000000000E+09 -5.77227871267E-01 +1.25561619313E-01 +1.68290482793E-03 -8.28348439892E-04 +1.76154182330E-03 -9.26811002836E-04 -6.64441979644E-01 +1.05104404623E-01
