# Hz S RI R 50
! CMT, C1220, 16058040, 17.2.0/1
! Date: 14/08/2018 11:51:30
! Data: Format (Calibration Info)
! Freq                      S11: Re/Im (F2)                       S21: Re/Im (F2)                       S12: Re/Im (F2)                       S22: Re/Im (F2)            
1.00000000000E+09 -6.48168889849E-01 +7.15047237058E-01 -1.45468011070E-05 +1.72811350761E-05 +2.44552015450E-05 -8.50979230721E-06 -7.55385665356E-01 +6.23786453460E-01
1.00500000000E+09 -6.40931270845E-01 +7.20186882621E-01 +1.76564973035E-05 -3.21345776537E-05 -6.15791482835E-05 +3.96566620429E-05 -7.51947501219E-01 +6.27752222938E-01
1.01000000000E+09 -6.34760844876E-01 +7.24854321182E-01 +2.11540963811E-05 +1.50335487739E-05 -2.34821632034E-05 -2.00798641931E-06 -7.48332981525E-01 +6.31564206122E-01
1.01500000000E+09 -6.29945250799E-01 +7.28748403244E-01 +3.93650492437E-06 -2.60535898616E-05 -5.82305508065E-06 -3.02295075762E-05 -7.44788687061E-01 +6.35437337042E-01
1.02000000000E+09 -6.26585855083E-01 +7.31836646414E-01 -1.40412573229E-05 +6.10149462535E-06 +1.26620344564E-05 -7.37132828099E-06 -7.41401319846E-01 +6.39008211419E-01
1.02500000000E+09 -6.24057023683E-01 +7.34539195955E-01 +3.33585784311E-05 -3.45221507773E-06 -5.07422369681E-06 +1.09508986493E-05 -7.38625759578E-01 +6.42689145443E-01
1.03000000000E+09 -6.21917735086E-01 +7.36830553594E-01 +1.49463552437E-05 -4.38599098463E-05 +3.71529619724E-06 +2.60059297731E-05 -7.35170370138E-01 +6.46445594224E-01
1.03500000000E+09 -6.19183281352E-01 +7.38929750297E-01 +1.95816734313E-05 +3.53645343515E-05 -5.23812967716E-06 +2.09476572903E-05 -7.31361373301E-01 +6.50486620329E-01
1.04000000000E+09 -6.15127669746E-01 +7.41831275445E-01 -2.05289434607E-06 +2.22032448199E-05 -5.30691615678E-05 +2.55451984327E-05 -7.27643605429E-01 +6.53944988888E-01
1.04500000000E+09 -6.09666446764E-01 +7.45166843413E-01 -1.99210373147E-05 +1.28956081143E-05 -3.52010390461E-05 +6.16146947856E-06 -7.24346460349E-01 +6.57830546675E-01
1.05000000000E+09 -6.02534938197E-01 +7.49429828085E-01 +1.93085942322E-05 +2.61073546332E-05 +3.86459414232E-05 +2.71626113443E-05 -7.20679646576E-01 +6.61179973195E-01
1.05500000000E+09 -5.94444855318E-01 +7.54174573770E-01 -5.89213704079E-05 -2.88042214799E-07 -1.87960953160E-05 +1.26107295890E-05 -7.17513018695E-01 +6.64803057884E-01
1.06000000000E+09 -5.85676688394E-01 +7.59451467392E-01 +2.64847172908E-06 +1.17481164962E-05 -3.53203679348E-05 +3.87805188474E-05 -7.14201076418E-01 +6.68556741102E-01
1.06500000000E+09 -5.77345531851E-01 +7.64390472719E-01 +4.73992493984E-05 +5.08161219266E-05 -1.07435904391E-05 +2.16560749286E-06 -7.10737035780E-01 +6.72264205093E-01
1.07000000000E+09 -5.69989501843E-01 +7.68915533464E-01 +4.05318659852E-06 +4.98337264233E-05 -4.77721788532E-06 +3.73868871502E-05 -7.06556786773E-01 +6.75882821077E-01
1.07500000000E+09 -5.64412936134E-01 +7.72731813925E-01 -1.94694564606E-05 +3.36185650516E-05 +1.15125601076E-05 +5.29846941632E-05 -7.02328324925E-01 +6.79508348784E-01
1.08000000000E+09 -5.60584294335E-01 +7.75645811722E-01 +1.26624706118E-05 +7.85301922822E-05 +3.01885876701E-05 +2.70853927209E-05 -6.98282408314E-01 +6.83609326928E-01
1.08500000000E+09 -5.58128013388E-01 +7.77910808594E-01 -1.86804670124E-05 -1.81515611753E-05 +4.45198380458E-05 +2.34208796676E-05 -6.94352465517E-01 +6.87257921104E-01
1.09000000000E+09 -5.56154473952E-01 +7.79532626826E-01 +3.68994186566E-06 -2.17216450155E-05 +7.24553828792E-05 +5.74080380689E-06 -6.90236595832E-01 +6.91248515565E-01
1.09500000000E+09 -5.54380047556E-01 +7.81121924590E-01 -1.35154583414E-07 +1.17254960955E-05 +7.97625411063E-06 +1.41438463870E-05 -6.86555890064E-01 +6.95064518748E-01
1.10000000000E+09 -5.51369193056E-01 +7.83050105107E-01 +4.66822024098E-05 -3.23219190759E-05 +9.04184709947E-06 +5.43382478101E-06 -6.82589126506E-01 +6.98856798381E-01
1.10500000000E+09 -5.47314477776E-01 +7.85466166290E-01 -1.23820160185E-05 +2.20505241083E-05 +2.09751896666E-05 -4.45230919898E-05 -6.78401920897E-01 +7.02365022904E-01
1.11000000000E+09 -5.41459750141E-01 +7.88790384115E-01 +3.11668063272E-05 -9.16305974968E-06 -9.47152628563E-06 -1.27517586497E-05 -6.74217667790E-01 +7.05814885427E-01
1.11500000000E+09 -5.34021571603E-01 +7.92608001419E-01 +4.76990361670E-05 -1.13038600831E-06 +2.72007083249E-05 +1.60845998189E-05 -6.70082902942E-01 +7.09462436387E-01
1.12000000000E+09 -5.26318894345E-01 +7.96833668195E-01 +3.13817924931E-05 -1.27561242483E-05 +3.06519851408E-05 +3.93648838973E-06 -6.65887457707E-01 +7.12998484436E-01
1.12500000000E+09 -5.18285307284E-01 +8.00924613490E-01 +3.65827735514E-05 -1.91772822642E-05 -3.80929853689E-06 -2.52515161088E-05 -6.61600910182E-01 +7.16902022801E-01
1.13000000000E+09 -5.10995619373E-01 +8.04593599355E-01 +2.59014697249E-05 -1.21403668497E-05 +8.32418647245E-05 +3.71134521144E-05 -6.57359958681E-01 +7.20587037152E-01
1.13500000000E+09 -5.04736020069E-01 +8.07543517874E-01 +3.47649009405E-05 -1.40343226960E-05 -3.22830574455E-05 -2.74124031709E-05 -6.52845850854E-01 +7.24574854408E-01
1.14000000000E+09 -4.99753873360E-01 +8.10010642562E-01 +3.13204682692E-05 -2.20531113171E-05 +2.23754634771E-05 -5.56214571752E-06 -6.48364980324E-01 +7.28109743540E-01
1.14500000000E+09 -4.95787569482E-01 +8.11548018389E-01 -6.47309050335E-06 +4.99427680235E-05 +2.58173484747E-05 -4.26486728708E-05 -6.43663242963E-01 +7.31319257619E-01
1.15000000000E+09 -4.92082452073E-01 +8.13137983895E-01 +2.16774042983E-05 -2.71340998011E-05 +5.14651515580E-06 +2.76257652899E-05 -6.38859984879E-01 +7.35162772771E-01
1.15500000000E+09 -4.88389571977E-01 +8.14737693343E-01 +3.92696221180E-05 -1.78603852423E-05 +3.58477055759E-05 +1.16547709193E-05 -6.34024283948E-01 +7.39165368525E-01
1.16000000000E+09 -4.83558635492E-01 +8.16445902601E-01 +3.17454504370E-06 -2.78471957952E-05 +2.24785599065E-05 +4.87458684634E-05 -6.29233099691E-01 +7.43054319663E-01
1.16500000000E+09 -4.77534526011E-01 +8.19204864460E-01 +3.01738071500E-05 +1.54236145332E-05 +7.66569654743E-05 -2.74376939415E-06 -6.24239586718E-01 +7.46550326189E-01
1.17000000000E+09 -4.70345304106E-01 +8.22310071828E-01 +7.05324654108E-06 -1.69638062763E-06 +2.24752797567E-05 -3.11007358297E-05 -6.18599766294E-01 +7.49977169927E-01
1.17500000000E+09 -4.61997549816E-01 +8.25747541132E-01 +4.25967498631E-05 -3.49623944908E-05 +7.92147739640E-05 -1.90911017080E-05 -6.13079747207E-01 +7.53419826662E-01
1.18000000000E+09 -4.53727310689E-01 +8.29510667158E-01 +7.66471046870E-05 -4.49685023032E-05 +5.38192430909E-05 +1.55906163439E-06 -6.07537352764E-01 +7.56545679398E-01
1.18500000000E+09 -4.45416278594E-01 +8.32860948513E-01 +6.23008741912E-05 -8.18718730197E-05 +5.61240440659E-05 -5.59966010433E-05 -6.01483589450E-01 +7.59603497912E-01
1.19000000000E+09 -4.37954498869E-01 +8.35682196936E-01 +3.64347591182E-05 -9.41173608529E-05 +1.09289710496E-04 -7.52443391061E-05 -5.95266012810E-01 +7.62192334207E-01
1.19500000000E+09 -4.31799102095E-01 +8.37678544632E-01 +4.35595104858E-05 -1.17608137179E-04 +8.03748523820E-05 -1.57949545795E-04 -5.89147437829E-01 +7.63495627285E-01
1.20000000000E+09 -4.26787224179E-01 +8.38574166256E-01 -6.27736821152E-05 -1.10838965854E-04 -6.02251332321E-05 -9.15547809828E-05 -5.84715333270E-01 +7.63811186997E-01
1.20500000000E+09 -4.22379554660E-01 +8.39605977841E-01 -1.29336956568E-04 -7.50908185118E-05 -1.15391794382E-04 -1.21862109250E-04 -5.82360395079E-01 +7.64503356049E-01
1.21000000000E+09 -4.17816558628E-01 +8.40640845195E-01 -1.40583229210E-04 -1.11889961893E-05 -1.09701764059E-04 -7.67041912760E-06 -5.80635848527E-01 +7.67526757203E-01
1.21500000000E+09 -4.12264142278E-01 +8.41973793093E-01 -9.73968199292E-05 +2.85153161990E-06 -1.19016787356E-04 +2.67951406103E-05 -5.77898253876E-01 +7.72031742600E-01
1.22000000000E+09 -4.05180211729E-01 +8.43870981346E-01 -5.54742673736E-05 +5.71262483340E-05 -6.55746035040E-06 +4.02979562154E-05 -5.73692215807E-01 +7.77348091412E-01
1.22500000000E+09 -3.96696027149E-01 +8.46561265028E-01 -4.26377891533E-06 +3.57356692410E-06 +2.29989063890E-05 +6.95604721912E-06 -5.68513034891E-01 +7.82527760165E-01
1.23000000000E+09 -3.87288396281E-01 +8.49502058568E-01 +5.98595708361E-05 -3.46243178828E-05 +7.29284070799E-06 -6.55684684763E-06 -5.62925495101E-01 +7.87257513536E-01
1.23500000000E+09 -3.77380951116E-01 +8.53090195164E-01 -4.94607365542E-05 +1.08433305740E-05 +3.06248400169E-06 -4.19158284715E-05 -5.57125041557E-01 +7.91568194809E-01
1.24000000000E+09 -3.67512332917E-01 +8.57007460678E-01 -1.34852124536E-05 -4.89784386536E-05 -5.48488677597E-05 -4.86417552739E-05 -5.51071468141E-01 +7.95588758311E-01
1.24500000000E+09 -3.58739623355E-01 +8.60812989159E-01 -7.30518145648E-05 -5.64415938295E-05 -2.41709866331E-05 -2.08255612464E-05 -5.44704386517E-01 +7.99428867139E-01
1.25000000000E+09 -3.50907221233E-01 +8.64009723119E-01 -3.86682201874E-05 -4.06993286502E-05 -3.26097551418E-05 -8.52072324020E-05 -5.38105414282E-01 +8.03711907079E-01
1.25500000000E+09 -3.44161242988E-01 +8.66092231221E-01 -1.00525765257E-04 -1.39102668753E-05 -7.80456513080E-05 +1.13741675118E-05 -5.31220588429E-01 +8.07706250975E-01
1.26000000000E+09 -3.38324774584E-01 +8.67539983219E-01 -2.64468580963E-05 +2.82152405265E-05 -7.07670834369E-05 -1.33162441534E-05 -5.24531193594E-01 +8.12072727875E-01
1.26500000000E+09 -3.32797341367E-01 +8.68150691180E-01 -3.86764961803E-05 +4.68091067334E-06 -6.69439470967E-05 -1.19236680380E-05 -5.17502300875E-01 +8.16024864346E-01
1.27000000000E+09 -3.26563702247E-01 +8.68517286140E-01 -3.99121416154E-05 +2.49584124923E-05 -8.11164962484E-05 +1.22273091942E-05 -5.10681869892E-01 +8.19957053398E-01
1.27500000000E+09 -3.19095169498E-01 +8.69115135289E-01 -2.02251772778E-05 -1.95461030109E-05 -6.23542101581E-05 -6.79561206191E-05 -5.03648598496E-01 +8.23289367859E-01
1.28000000000E+09 -3.09624179065E-01 +8.70176440373E-01 -8.59038242512E-05 -2.82963982933E-05 -1.13797562711E-04 -3.70820100057E-05 -4.96643501898E-01 +8.26894704642E-01
1.28500000000E+09 -2.98317419644E-01 +8.71771703655E-01 -6.45684424445E-05 +3.93704755543E-05 -7.31775872193E-05 +5.27626494929E-05 -4.89254025962E-01 +8.30711109323E-01
1.29000000000E+09 -2.85824771905E-01 +8.74049742602E-01 -7.68225556594E-05 +1.89032595970E-05 -1.07478675451E-04 +2.65193683216E-05 -4.81528686982E-01 +8.34445424823E-01
1.29500000000E+09 -2.73107140472E-01 +8.77219729840E-01 -5.86241366359E-05 +2.24187392880E-05 -8.16300185832E-05 +5.58896543134E-05 -4.73752581697E-01 +8.38009363966E-01
1.30000000000E+09 -2.60735326348E-01 +8.80581854161E-01 -9.94131354802E-05 +3.70692498548E-06 -8.53170709221E-05 +2.81639780664E-05 -4.65765442705E-01 +8.41543303502E-01
1.30500000000E+09 -2.49700268707E-01 +8.83944781752E-01 -1.12638709548E-04 +7.07102835653E-05 -7.70026439767E-05 +6.00704071984E-05 -4.57574405223E-01 +8.44963282946E-01
1.31000000000E+09 -2.40325557123E-01 +8.86667641674E-01 -1.49779662431E-04 +8.02097638549E-05 -1.09767289658E-04 +7.97800648508E-05 -4.49319098939E-01 +8.48506527250E-01
1.31500000000E+09 -2.32939966876E-01 +8.88270098639E-01 -7.68730171619E-05 +1.18343685815E-04 -5.08089314295E-05 +1.24152983273E-04 -4.40349825363E-01 +8.51857247846E-01
1.32000000000E+09 -2.27083989379E-01 +8.89039290012E-01 -5.69288822975E-05 +1.44401549204E-04 -7.23824810902E-05 +1.29980916224E-04 -4.31097313955E-01 +8.55238989689E-01
1.32500000000E+09 -2.21588267781E-01 +8.88727725304E-01 -6.38024292755E-05 +1.09248799649E-04 -7.73846665446E-05 +1.43210373393E-04 -4.21460397476E-01 +8.58909590795E-01
1.33000000000E+09 -2.15415741763E-01 +8.88220596336E-01 -8.82236358420E-05 +1.38822416671E-04 -5.39571544082E-05 +1.33948019279E-04 -4.11757955245E-01 +8.62134216355E-01
1.33500000000E+09 -2.07236677922E-01 +8.87220651636E-01 +8.50872295535E-06 +1.35911001014E-04 -3.29859402938E-05 +1.78494625418E-04 -4.01789017181E-01 +8.65478734757E-01
1.34000000000E+09 -1.96516303020E-01 +8.86643063144E-01 +7.83812811048E-06 +1.48274309567E-04 -5.70463414266E-06 +1.06863677958E-04 -3.91419431664E-01 +8.68627864924E-01
1.34500000000E+09 -1.83282142752E-01 +8.86144933921E-01 -2.71890970468E-05 +1.15661426532E-04 -1.14040973447E-05 +1.76452212387E-04 -3.80647208480E-01 +8.72026212086E-01
1.35000000000E+09 -1.67822960584E-01 +8.86131938631E-01 -3.65199152190E-05 +1.92996597731E-04 -1.79526831296E-06 +1.67164108760E-04 -3.69393531110E-01 +8.75117665654E-01
1.35500000000E+09 -1.51149012699E-01 +8.86821260251E-01 +3.23793159382E-05 +1.70088883499E-04 -6.31368194007E-06 +1.77429342582E-04 -3.57763551085E-01 +8.77948821543E-01
1.36000000000E+09 -1.34224780173E-01 +8.87561961123E-01 +3.03552438513E-05 +2.02745776586E-04 +6.83883121170E-06 +1.83236028626E-04 -3.45721285003E-01 +8.80633438238E-01
1.36500000000E+09 -1.18404802210E-01 +8.88101123062E-01 +8.16151719930E-05 +2.66976097335E-04 +8.77812333588E-05 +2.64047572653E-04 -3.33637298016E-01 +8.83165922544E-01
1.37000000000E+09 -1.04390307459E-01 +8.88047496057E-01 +1.38785033678E-04 +2.75582399353E-04 +1.56200043446E-04 +2.85558491455E-04 -3.20582036679E-01 +8.85597648651E-01
1.37500000000E+09 -9.24383190915E-02 +8.87651206528E-01 +2.68994811381E-04 +2.13574026559E-04 +2.71515653496E-04 +2.07319996799E-04 -3.06882043925E-01 +8.87813428016E-01
1.38000000000E+09 -8.19573464934E-02 +8.86394566601E-01 +2.12349454404E-04 +9.62321538843E-05 +2.14202265513E-04 +1.24043488108E-04 -2.92379255680E-01 +8.89847028268E-01
1.38500000000E+09 -7.14368420790E-02 +8.84607500679E-01 +1.73664968840E-04 +1.33702191237E-04 +1.59941272511E-04 +1.07617627789E-04 -2.76927959787E-01 +8.91558202686E-01
1.39000000000E+09 -6.01215538296E-02 +8.81617797529E-01 +1.82594660761E-04 +1.42132815941E-04 +2.55216645469E-04 +1.80134641821E-04 -2.60943502879E-01 +8.92913934916E-01
1.39500000000E+09 -4.67528649715E-02 +8.77823390003E-01 +2.22648716952E-04 +2.11700679213E-04 +3.28357616402E-04 +2.14510773366E-04 -2.44209712271E-01 +8.93605866250E-01
1.40000000000E+09 -3.04748224929E-02 +8.73061229239E-01 +3.52136702191E-04 +2.10230461935E-04 +3.88645429434E-04 +1.87392689449E-04 -2.26501463133E-01 +8.94173224310E-01
1.40500000000E+09 -1.20147753230E-02 +8.67803005311E-01 +5.23403833693E-04 +9.42736596346E-05 +5.04555221333E-04 +6.82026190355E-05 -2.07645490354E-01 +8.94045563808E-01
1.41000000000E+09 +8.61249811857E-03 +8.62236184454E-01 +5.31477828935E-04 -1.12665528248E-04 +5.20693775349E-04 -1.16723110353E-04 -1.87626769376E-01 +8.93152750361E-01
1.41500000000E+09 +3.08369961255E-02 +8.56187616625E-01 +4.42014037299E-04 -1.70396986551E-04 +4.82599032535E-04 -1.86393377242E-04 -1.66162865823E-01 +8.91597059949E-01
1.42000000000E+09 +5.39121583905E-02 +8.49905664239E-01 +4.46395231413E-04 -2.73516731190E-04 +4.59309022223E-04 -2.77046026772E-04 -1.43340364573E-01 +8.88721897545E-01
1.42500000000E+09 +7.65149647655E-02 +8.42419862458E-01 +3.21281992586E-04 -2.96554267701E-04 +2.94815510984E-04 -3.74818983486E-04 -1.19831580018E-01 +8.85184483521E-01
1.43000000000E+09 +9.78792405357E-02 +8.33277721948E-01 +3.34365278057E-04 -2.17398393627E-04 +3.24085161315E-04 -3.09417162643E-04 -9.49345761022E-02 +8.80616987025E-01
1.43500000000E+09 +1.18198654234E-01 +8.22541930629E-01 +4.26279107101E-04 -3.72029366408E-04 +3.77561325095E-04 -4.23120611005E-04 -6.86782447209E-02 +8.73998900670E-01
1.44000000000E+09 +1.38198081182E-01 +8.09935233723E-01 +4.11532277263E-04 -5.08924897662E-04 +3.70459415111E-04 -5.63225574774E-04 -4.07395635733E-02 +8.65528437133E-01
1.44500000000E+09 +1.58685520128E-01 +7.95035287484E-01 +3.65856043468E-04 -8.33799605283E-04 +2.73227377470E-04 -8.04630785372E-04 -1.06520191393E-02 +8.54114409604E-01
1.45000000000E+09 +1.81247145372E-01 +7.76665870932E-01 -6.23585639163E-05 -8.41663333065E-04 -7.47093956456E-05 -8.52678215738E-04 +2.10114750506E-02 +8.39817399475E-01
1.45500000000E+09 +2.05428243104E-01 +7.54706265447E-01 -3.03568490746E-04 -7.11773839632E-04 -3.03647807245E-04 -7.23845532599E-04 +5.40949791747E-02 +8.22193270170E-01
1.46000000000E+09 +2.32100217382E-01 +7.29543476100E-01 -4.19894756882E-04 -5.93757680086E-04 -4.34501520189E-04 -5.25997136397E-04 +8.86941830979E-02 +8.00782384356E-01
1.46500000000E+09 +2.60989272182E-01 +7.00235747485E-01 -4.83181597187E-04 -2.53289919942E-04 -4.78298043010E-04 -2.28468985424E-04 +1.24686083868E-01 +7.74409416886E-01
1.47000000000E+09 +2.90596331381E-01 +6.66410774019E-01 -1.45696167950E-04 -1.80291696090E-04 -1.02042014673E-04 -1.81250590090E-04 +1.61666338840E-01 +7.41533104049E-01
1.47500000000E+09 +3.19584876567E-01 +6.28200533384E-01 -5.83472945361E-05 -4.77180288539E-04 +1.32673968856E-05 -4.43148403582E-04 +1.99426792901E-01 +7.01599445579E-01
1.48000000000E+09 +3.46156964191E-01 +5.84362660233E-01 -3.34483941777E-04 -7.48237545562E-04 -2.80538506662E-04 -7.59818950705E-04 +2.36738180566E-01 +6.52599019316E-01
1.48500000000E+09 +3.68090649385E-01 +5.35011378908E-01 -5.26222665633E-04 -6.51152023982E-04 -5.57152299330E-04 -7.28348551322E-04 +2.71222361613E-01 +5.93960861268E-01
1.49000000000E+09 +3.84916673741E-01 +4.79019576985E-01 -9.51497144887E-04 -6.59739388843E-04 -9.85400085589E-04 -5.95412002447E-04 +2.99997704993E-01 +5.25295354355E-01
1.49500000000E+09 +3.94706040666E-01 +4.15502246558E-01 -1.11961133571E-03 -3.62143939108E-04 -1.12207181107E-03 -2.79972863595E-04 +3.20541552299E-01 +4.45912931074E-01
1.50000000000E+09 +3.96057003192E-01 +3.42782749374E-01 -1.24362087664E-03 +1.71821717721E-04 -1.13526006202E-03 +1.96423112904E-04 +3.27328271684E-01 +3.55890935826E-01
1.50500000000E+09 +3.84919248779E-01 +2.61610176682E-01 -6.10487246236E-04 +4.48283022933E-04 -5.67553606553E-04 +4.02053330483E-04 +3.16450843491E-01 +2.58300180903E-01
1.51000000000E+09 +3.58730054966E-01 +1.74816535996E-01 -7.54534716182E-04 -3.25252145228E-04 -7.68498826097E-04 -3.78295140003E-04 +2.84804755183E-01 +1.58137962338E-01
1.51500000000E+09 +3.16151991516E-01 +8.65268293485E-02 -1.48786633193E-03 +2.07860066832E-04 -1.57687846715E-03 +1.71013941660E-04 +2.32113946416E-01 +6.04839153747E-02
1.52000000000E+09 +2.53372165943E-01 +2.69878062305E-03 -1.42146062645E-03 +7.51293498603E-04 -1.48389268038E-03 +7.79016777493E-04 +1.56953862403E-01 -2.77585765657E-02
1.52500000000E+09 +1.73590080308E-01 -6.65471926524E-02 -1.27264643872E-03 +1.57651799737E-03 -1.27484685662E-03 +1.61552360236E-03 +6.18327537182E-02 -9.76371539705E-02
1.53000000000E+09 +8.02062945579E-02 -1.18352301464E-01 -7.59445680684E-04 +2.01842910943E-03 -7.43873624178E-04 +2.03650760588E-03 -4.40507902082E-02 -1.43978267324E-01
1.53500000000E+09 -2.25652012432E-02 -1.47696410587E-01 +1.06643049158E-03 +2.11342534238E-03 +1.10464779800E-03 +2.06343759590E-03 -1.55527014600E-01 -1.67659988925E-01
1.54000000000E+09 -1.30115946424E-01 -1.50895519905E-01 +7.33400412851E-04 +7.25498900196E-04 +6.97391213069E-04 +6.79462123606E-04 -2.66765386417E-01 -1.66061733761E-01
1.54500000000E+09 -2.32905956583E-01 -1.29658494249E-01 +5.24719978838E-04 +1.13665622924E-03 +5.36579812662E-04 +1.14094037266E-03 -3.66869248472E-01 -1.43583266644E-01
1.55000000000E+09 -3.25028849070E-01 -8.97207600252E-02 +1.14048428755E-03 +5.87068259232E-04 +1.10615633953E-03 +5.82325951351E-04 -4.54186682041E-01 -1.06778001496E-01
1.55500000000E+09 -4.03459815997E-01 -3.82857311899E-02 +6.26654336799E-04 +1.56837633663E-04 +6.21259882102E-04 +2.07408803619E-04 -5.26729573416E-01 -5.90346706387E-02
1.56000000000E+09 -4.67965151683E-01 +1.87377571020E-02 +6.27413641094E-04 +7.99698398637E-04 +6.15704739833E-04 +8.68611040543E-04 -5.84668789217E-01 -6.00185052279E-03
1.56500000000E+09 -5.19329860302E-01 +7.69911135750E-02 +1.41312661309E-03 +5.07549770027E-04 +1.46344216399E-03 +5.27405290697E-04 -6.30134261669E-01 +4.99385768138E-02
1.57000000000E+09 -5.58447163170E-01 +1.33518926063E-01 +1.57868666430E-03 -5.18075809177E-04 +1.68883339704E-03 -6.04005139189E-04 -6.64802732616E-01 +1.04937415128E-01
