# Hz S RI R 50
! CMT, C1220, 16058040, 17.2.0/1
! Date: 14/08/2018 11:50:18
! Data: Format (Calibration Info)
! Freq                      S11: Re/Im (F2)                       S21: Re/Im (F2)                       S12: Re/Im (F2)                       S22: Re/Im (F2)            
1.00000000000E+09 -6.47868542530E-01 +7.14677437008E-01 -2.13132068984E-05 +3.39345425856E-06 -2.43668277999E-05 -2.16974464892E-05 -7.55319957886E-01 +6.24020251672E-01
1.00500000000E+09 -6.40611983390E-01 +7.19692801733E-01 +1.20261882473E-05 -2.51154968772E-05 -3.15174727473E-05 -6.57896310208E-05 -7.51822173235E-01 +6.28100028008E-01
1.01000000000E+09 -6.34575230852E-01 +7.24357639726E-01 +1.73018555911E-05 +2.16705808567E-06 -1.60902951283E-05 +1.63615431146E-05 -7.48313662234E-01 +6.31710498562E-01
1.01500000000E+09 -6.29893230774E-01 +7.28149882520E-01 +4.13853816002E-06 -1.20701949199E-05 -5.26097452145E-05 -1.16095912862E-06 -7.44901017326E-01 +6.35779664475E-01
1.02000000000E+09 -6.26250274597E-01 +7.31281354658E-01 +5.75106071231E-06 -3.13328984624E-05 +2.68503435829E-05 -1.51906793614E-05 -7.41389018925E-01 +6.39169714486E-01
1.02500000000E+09 -6.23618054373E-01 +7.33990917119E-01 +2.25477502474E-05 -1.01421042211E-07 +3.51494737505E-05 -1.68158196197E-05 -7.38397150428E-01 +6.42999321050E-01
1.03000000000E+09 -6.21473689876E-01 +7.36197917125E-01 -5.83759447257E-05 -3.52811430155E-05 +2.85897854598E-05 -3.69137446273E-05 -7.35037137381E-01 +6.46911199058E-01
1.03500000000E+09 -6.18502741599E-01 +7.38604073207E-01 +2.14989227625E-05 +3.77064142249E-05 -2.56635243398E-05 -4.51659166385E-06 -7.31406460604E-01 +6.50874983563E-01
1.04000000000E+09 -6.14370765096E-01 +7.41450527673E-01 -4.90524848620E-05 +6.84943360485E-06 -1.68006239272E-06 +1.72140066139E-05 -7.27726028817E-01 +6.54343642831E-01
1.04500000000E+09 -6.08934760780E-01 +7.44756166150E-01 +1.57315715820E-05 +3.02256121987E-05 -1.60217716662E-05 +3.63854764945E-06 -7.24084976657E-01 +6.57977133035E-01
1.05000000000E+09 -6.01978978746E-01 +7.48968802342E-01 -1.60579929844E-05 -2.34730945437E-05 -3.45121913217E-07 +6.84157910040E-06 -7.20656522340E-01 +6.61447312835E-01
1.05500000000E+09 -5.93739394934E-01 +7.53762734112E-01 +1.75138865116E-05 -6.53694032712E-06 +1.97522293734E-05 +8.13793092062E-06 -7.17449289769E-01 +6.65014231294E-01
1.06000000000E+09 -5.85051882381E-01 +7.58903787032E-01 +3.90011269474E-05 -3.49233736991E-05 -4.82793321829E-05 +3.94432913027E-05 -7.14136096433E-01 +6.68787812124E-01
1.06500000000E+09 -5.76885264539E-01 +7.63844225883E-01 +2.23466290882E-05 +1.46791016218E-05 -9.08529751526E-06 -2.30041877279E-05 -7.10373857427E-01 +6.72449474317E-01
1.07000000000E+09 -5.69716960795E-01 +7.68091128930E-01 -1.94728039784E-05 +5.08816933400E-05 +3.77136740250E-05 -3.93967826367E-05 -7.06466804707E-01 +6.76101003672E-01
1.07500000000E+09 -5.64097558702E-01 +7.71939407673E-01 -8.46608489312E-06 +2.06818440872E-05 +2.11491641251E-05 +2.26951997391E-05 -7.02174046699E-01 +6.79836298603E-01
1.08000000000E+09 -5.60316934289E-01 +7.74929664766E-01 +3.51089765412E-05 +2.30278167391E-05 +3.52885357524E-05 +8.94409287480E-06 -6.98152259224E-01 +6.83689367488E-01
1.08500000000E+09 -5.57686581895E-01 +7.77174105257E-01 +5.08796670935E-06 +5.44797737843E-06 +6.47907296646E-05 -2.28680118319E-05 -6.94085776665E-01 +6.87485772482E-01
1.09000000000E+09 -5.55552279733E-01 +7.79048560715E-01 -2.36776194405E-05 +1.04300901649E-05 +2.01821445710E-05 -6.42741834566E-05 -6.90212415917E-01 +6.91353811651E-01
1.09500000000E+09 -5.53736416815E-01 +7.80671630062E-01 +4.07794542886E-05 -3.34937977923E-07 +2.09888226811E-05 +5.30716274404E-06 -6.86353614530E-01 +6.95356187638E-01
1.10000000000E+09 -5.50635306792E-01 +7.82498784285E-01 -2.41047811003E-05 -8.88576135620E-05 +2.23935457344E-05 -6.34268398267E-06 -6.82602364402E-01 +6.99206615175E-01
1.10500000000E+09 -5.46318667051E-01 +7.85046115626E-01 +1.94760689333E-05 +6.50131376594E-05 -1.11691071396E-06 -1.00697784050E-05 -6.78195612083E-01 +7.02751049934E-01
1.11000000000E+09 -5.40502668057E-01 +7.88280372751E-01 -3.61098139067E-06 -1.27174869848E-05 +6.32073125939E-06 -2.83700020332E-05 -6.73948270377E-01 +7.06055731217E-01
1.11500000000E+09 -5.33518070250E-01 +7.92071793165E-01 +2.75400442455E-05 +5.99528037051E-06 +4.11427796144E-05 -1.65556348301E-05 -6.69891537019E-01 +7.09566445002E-01
1.12000000000E+09 -5.25627405911E-01 +7.96213340661E-01 +2.69069852981E-05 -4.91577761908E-05 +6.16520677391E-05 -4.24625186208E-05 -6.65850694373E-01 +7.13464351918E-01
1.12500000000E+09 -5.17819777160E-01 +8.00317752739E-01 +1.72676741506E-05 +5.21593521443E-06 +1.99697661437E-05 -2.41180242644E-05 -6.61583663625E-01 +7.17184042420E-01
1.13000000000E+09 -5.10736929249E-01 +8.03866955345E-01 -1.67827679336E-05 -2.95475950970E-05 +2.88763414110E-05 +1.35272528386E-05 -6.57239812621E-01 +7.21072128769E-01
1.13500000000E+09 -5.04334757576E-01 +8.06715008325E-01 +2.86809660728E-05 -2.48795036251E-07 +3.05074626351E-05 +2.25172370061E-05 -6.52912318797E-01 +7.24852898296E-01
1.14000000000E+09 -4.99312652599E-01 +8.09150253280E-01 -2.01620488710E-05 +2.56743543338E-07 +2.25846211880E-06 -7.74990034892E-06 -6.48177182648E-01 +7.28308351355E-01
1.14500000000E+09 -4.95347569620E-01 +8.10751806641E-01 -2.84902601492E-05 +2.04162660035E-05 +1.76968011375E-05 -1.62183040350E-05 -6.43532095902E-01 +7.31685937647E-01
1.15000000000E+09 -4.91451224994E-01 +8.12249168874E-01 +3.04989317540E-05 -1.25865243042E-05 +4.77588549136E-05 +4.39684654153E-05 -6.38746249503E-01 +7.35564870973E-01
1.15500000000E+09 -4.87633670560E-01 +8.13950867332E-01 +2.19652315528E-05 +1.87074483281E-05 -1.84008973813E-05 +1.96804943000E-05 -6.33901179285E-01 +7.39312233794E-01
1.16000000000E+09 -4.82732398550E-01 +8.15807652174E-01 +8.13761261684E-06 +2.76301025910E-06 -6.02207653182E-06 +5.30763142000E-06 -6.28989179607E-01 +7.43297473149E-01
1.16500000000E+09 -4.76723121037E-01 +8.18514420358E-01 +6.98709514165E-05 -3.83186881423E-05 +3.99385587927E-05 -4.61552822996E-05 -6.23994155252E-01 +7.46949903024E-01
1.17000000000E+09 -4.69526768292E-01 +8.21514419005E-01 +2.28321672231E-05 -2.92372682639E-05 +5.01171473094E-05 -7.69191138843E-06 -6.18547024929E-01 +7.50421292800E-01
1.17500000000E+09 -4.61409607990E-01 +8.24919062103E-01 +3.09368573024E-06 -1.95887910280E-05 +1.66853618207E-05 -4.06931211467E-05 -6.13034805613E-01 +7.53489720173E-01
1.18000000000E+09 -4.53311341224E-01 +8.28598378580E-01 +5.37026577109E-05 -2.81527452682E-05 +6.43412350474E-05 +2.09268757682E-05 -6.07408532412E-01 +7.56770568842E-01
1.18500000000E+09 -4.45237578349E-01 +8.31956253572E-01 +5.46454444189E-05 -8.04607298837E-05 +3.53828050669E-05 -4.94455906648E-05 -6.01347858532E-01 +7.59899218105E-01
1.19000000000E+09 -4.37908072893E-01 +8.34630028108E-01 +5.08149031440E-05 -8.94680425674E-05 +7.21909657146E-05 -1.00763339390E-04 -5.95156101954E-01 +7.62540373163E-01
1.19500000000E+09 -4.31579849093E-01 +8.36769858400E-01 +4.63029043290E-05 -1.55158175596E-04 +5.54489088312E-05 -1.22081755605E-04 -5.89018548321E-01 +7.63735908763E-01
1.20000000000E+09 -4.26388926907E-01 +8.37629738934E-01 -3.83787409494E-05 -1.44879125173E-04 -2.89600635401E-05 -1.29419568919E-04 -5.84567670486E-01 +7.64135353425E-01
1.20500000000E+09 -4.21892107292E-01 +8.38626054421E-01 -1.04024848076E-04 -6.53713956716E-05 -1.29579016806E-04 -8.36493734971E-05 -5.82327539497E-01 +7.64846271623E-01
1.21000000000E+09 -4.17321951460E-01 +8.39685559505E-01 -8.82668968808E-05 -1.98983509952E-05 -8.99026188297E-05 +3.09431574799E-06 -5.80445736909E-01 +7.67777577104E-01
1.21500000000E+09 -4.11522406382E-01 +8.41191955364E-01 -7.81852840844E-05 +4.09825524730E-05 -7.88546702572E-05 +6.32167721696E-05 -5.77687872093E-01 +7.72282542234E-01
1.22000000000E+09 -4.04619448695E-01 +8.42934470158E-01 -7.55471719112E-05 +3.86025728679E-05 -6.09443144070E-05 +5.18248439929E-05 -5.73570804632E-01 +7.77550306989E-01
1.22500000000E+09 -3.96057138039E-01 +8.45542493519E-01 -1.66940690660E-05 +2.33762793355E-05 -4.34386800479E-05 +2.26180723106E-05 -5.68362281804E-01 +7.82745787247E-01
1.23000000000E+09 -3.86720966927E-01 +8.48519644372E-01 -2.61851399628E-06 +1.29445166212E-05 -2.29278947775E-05 -1.35896048186E-05 -5.62721679568E-01 +7.87526705260E-01
1.23500000000E+09 -3.77040763667E-01 +8.51993246164E-01 +1.65661752255E-05 -3.88942786960E-05 -4.73788578348E-05 -3.55209967877E-05 -5.56781928585E-01 +7.91948094472E-01
1.24000000000E+09 -3.67525430592E-01 +8.55790866409E-01 -5.40263858038E-05 -3.07842349567E-05 -4.00411648521E-05 -2.08885770845E-05 -5.50752874952E-01 +7.95920664416E-01
1.24500000000E+09 -3.58882736444E-01 +8.59601508273E-01 -4.67972138011E-05 -1.42140771301E-05 -2.21284568637E-05 -3.17309981866E-05 -5.44506984492E-01 +7.99679351762E-01
1.25000000000E+09 -3.51044771427E-01 +8.62740355641E-01 -4.53982840769E-05 -3.50874689209E-05 -9.44617061175E-05 +4.00504818296E-05 -5.37975435928E-01 +8.04005478512E-01
1.25500000000E+09 -3.44275450506E-01 +8.64808225482E-01 -7.83644829222E-05 +1.32637521986E-05 -1.19001337410E-04 -1.48014516930E-05 -5.30921139594E-01 +8.07911374549E-01
1.26000000000E+09 -3.38392904374E-01 +8.66332902624E-01 -5.24659472408E-05 +2.85369897552E-06 -6.88834221783E-05 -1.72600333469E-07 -5.24179657834E-01 +8.12302227951E-01
1.26500000000E+09 -3.32596001475E-01 +8.67027566348E-01 -7.81475483643E-05 +2.85679802745E-05 -5.63461383473E-05 +1.08807228483E-05 -5.17129743679E-01 +8.16298456670E-01
1.27000000000E+09 -3.26306844530E-01 +8.67570650094E-01 -4.58831969889E-05 +8.16608187016E-06 -1.16206073612E-04 +4.04238474659E-06 -5.10308524492E-01 +8.20065179768E-01
1.27500000000E+09 -3.18571003336E-01 +8.68076486297E-01 -4.24753981537E-05 -1.24352003631E-05 -4.45709863909E-05 +2.17186094806E-05 -5.03459952082E-01 +8.23644092506E-01
1.28000000000E+09 -3.09144916522E-01 +8.69101113496E-01 -4.62322585288E-05 +1.74073181829E-05 -8.41883671156E-05 +2.80320780099E-05 -4.96433036669E-01 +8.27213104131E-01
1.28500000000E+09 -2.97943499824E-01 +8.70708682910E-01 -6.64175839147E-05 -9.20452545802E-06 -8.70034556742E-05 +4.72584994527E-05 -4.88986694983E-01 +8.30831351869E-01
1.29000000000E+09 -2.85696237680E-01 +8.72902012880E-01 -2.98949364259E-05 +4.99621893436E-05 -1.03202216144E-04 +5.33794663014E-05 -4.81406622587E-01 +8.34606598501E-01
1.29500000000E+09 -2.73265701743E-01 +8.75907969107E-01 -7.93010482929E-05 +6.13797536916E-05 -5.19387791451E-05 +3.46078836860E-05 -4.73431140831E-01 +8.38030620284E-01
1.30000000000E+09 -2.61136622668E-01 +8.79261945000E-01 -7.35851490723E-05 +5.53353565125E-05 +2.80961324488E-06 +2.64399787602E-05 -4.65484798951E-01 +8.41783936889E-01
1.30500000000E+09 -2.50327499404E-01 +8.82643765159E-01 -8.95681726231E-05 +5.37527734806E-05 -5.96116698215E-05 +6.79220078362E-05 -4.57367652263E-01 +8.45189573450E-01
1.31000000000E+09 -2.41143342913E-01 +8.85369300574E-01 -5.28047545340E-05 +1.40789563050E-04 -5.49679217747E-05 +9.87307009051E-05 -4.49071664813E-01 +8.48697493876E-01
1.31500000000E+09 -2.33747799074E-01 +8.87164664704E-01 -6.64978915200E-05 +8.12020723833E-05 -4.59305598879E-05 +9.95249847119E-05 -4.40249891174E-01 +8.52163658989E-01
1.32000000000E+09 -2.27806635675E-01 +8.87836915663E-01 -4.23169234960E-05 +1.39319168361E-04 -2.36761273247E-05 +1.82136542182E-04 -4.30970081653E-01 +8.55596400697E-01
1.32500000000E+09 -2.22263017438E-01 +8.87733690058E-01 -3.31549892095E-05 +1.38191909063E-04 -8.20728170974E-05 +8.73801104114E-05 -4.21244142055E-01 +8.59081923342E-01
1.33000000000E+09 -2.15762304193E-01 +8.87377817744E-01 +7.14354905257E-06 +1.31049004063E-04 -8.39734154232E-06 +1.69966315554E-04 -4.11471524759E-01 +8.62521706617E-01
1.33500000000E+09 -2.07638209422E-01 +8.86519575005E-01 +1.54466690269E-05 +1.06819787643E-04 +3.61222546598E-05 +1.32702737540E-04 -4.01439390816E-01 +8.65628246979E-01
1.34000000000E+09 -1.96997594149E-01 +8.85971610749E-01 -6.14131738417E-06 +1.31010000626E-04 +4.62095705273E-05 +6.97805124324E-05 -3.91271294716E-01 +8.68928844009E-01
1.34500000000E+09 -1.83910644540E-01 +8.85687333499E-01 +2.40862727434E-05 +1.15908519475E-04 -2.93539181569E-05 +9.56183697802E-05 -3.80322347296E-01 +8.72352417713E-01
1.35000000000E+09 -1.68672480667E-01 +8.85776906758E-01 -4.69713404363E-07 +1.30006763413E-04 -4.67813816429E-05 +1.81638716871E-04 -3.69168562933E-01 +8.75358928930E-01
1.35500000000E+09 -1.52283338216E-01 +8.86671281899E-01 +1.46690199405E-05 +1.98528113759E-04 -1.67073721891E-06 +1.86645131706E-04 -3.57581699165E-01 +8.78243700738E-01
1.36000000000E+09 -1.35727696760E-01 +8.87447157472E-01 +1.12462929418E-05 +2.26383669504E-04 +5.80160775422E-05 +2.00284102778E-04 -3.45527211546E-01 +8.80829968622E-01
1.36500000000E+09 -1.19976694434E-01 +8.88182832388E-01 +7.06754855303E-05 +2.66509438567E-04 +8.66689560275E-05 +2.39394136881E-04 -3.33143297887E-01 +8.83411431692E-01
1.37000000000E+09 -1.05833724072E-01 +8.88219305749E-01 +1.89786761949E-04 +2.79461899813E-04 +1.51047221909E-04 +2.88345609755E-04 -3.20316773915E-01 +8.85760387919E-01
1.37500000000E+09 -9.40087719768E-02 +8.87686228103E-01 +2.89181895149E-04 +1.95908354101E-04 +2.80635389607E-04 +1.95080761061E-04 -3.06649513945E-01 +8.87922495000E-01
1.38000000000E+09 -8.32840299280E-02 +8.86605993144E-01 +2.37713242980E-04 +1.12876457458E-04 +2.14812861571E-04 +1.30894674715E-04 -2.91981807854E-01 +8.89844668034E-01
1.38500000000E+09 -7.25749280469E-02 +8.84858483397E-01 +2.47073112948E-04 +1.59901318960E-04 +2.52038524575E-04 +2.19540702290E-04 -2.76595257982E-01 +8.91701618676E-01
1.39000000000E+09 -6.10397414231E-02 +8.82227963221E-01 +2.71212183832E-04 +1.57874092163E-04 +3.20585091332E-04 +1.72458995039E-04 -2.60704397506E-01 +8.92999155782E-01
1.39500000000E+09 -4.74621134487E-02 +8.78553309476E-01 +3.39612828056E-04 +1.29264877550E-04 +3.94161521396E-04 +1.16575976670E-04 -2.43943481427E-01 +8.93791020724E-01
1.40000000000E+09 -3.13634794315E-02 +8.74042061028E-01 +4.87716023765E-04 +9.13844225669E-05 +5.25472849207E-04 +7.96332403657E-05 -2.26292126493E-01 +8.94307229076E-01
1.40500000000E+09 -1.30739946116E-02 +8.69091315320E-01 +5.76134077244E-04 +5.05967494599E-06 +5.64884703375E-04 -2.95734188395E-05 -2.07581395407E-01 +8.94016479715E-01
1.41000000000E+09 +7.39787494388E-03 +8.63858413609E-01 +5.26949508359E-04 -2.06032156622E-04 +5.01918108406E-04 -1.87345355445E-04 -1.87558409226E-01 +8.93244220951E-01
1.41500000000E+09 +2.92462121174E-02 +8.58277976936E-01 +4.99399888361E-04 -2.39704199811E-04 +5.23472506263E-04 -1.93865600960E-04 -1.66073593067E-01 +8.91692757567E-01
1.42000000000E+09 +5.20572808743E-02 +8.52358419492E-01 +4.67018344438E-04 -4.13118197832E-04 +5.28603551116E-04 -4.14361885199E-04 -1.43399159541E-01 +8.88845598042E-01
1.42500000000E+09 +7.46201156495E-02 +8.45362424438E-01 +3.28039817727E-04 -4.08355190656E-04 +3.00720306579E-04 -5.18297627727E-04 -1.19912206823E-01 +8.85408082109E-01
1.43000000000E+09 +9.61626970239E-02 +8.36762071326E-01 +3.13344197873E-04 -3.29551719964E-04 +2.86983343673E-04 -3.86288239431E-04 -9.49329408376E-02 +8.80903721152E-01
1.43500000000E+09 +1.16873642059E-01 +8.26460457111E-01 +4.19413909471E-04 -4.70869580741E-04 +4.03659580150E-04 -5.36212807703E-04 -6.87568989716E-02 +8.74282793487E-01
1.44000000000E+09 +1.37114179797E-01 +8.14530749356E-01 +4.23218806325E-04 -7.13706432882E-04 +3.90428087478E-04 -7.07869482317E-04 -4.07542669110E-02 +8.65655026888E-01
1.44500000000E+09 +1.58576053988E-01 +8.00345544323E-01 +1.80340973951E-04 -1.01271907015E-03 +1.60136742350E-04 -9.89226687877E-04 -1.08283542416E-02 +8.54645847815E-01
1.45000000000E+09 +1.81956461888E-01 +7.82698144376E-01 -1.70856302232E-04 -9.52402698102E-04 -2.51198883468E-04 -9.98636300273E-04 +2.09834122364E-02 +8.40292182187E-01
1.45500000000E+09 +2.07241052970E-01 +7.61992504002E-01 -3.86669198708E-04 -8.33299619571E-04 -4.43363660823E-04 -8.26320535764E-04 +5.42458989688E-02 +8.22576112040E-01
1.46000000000E+09 +2.35347518921E-01 +7.37644369796E-01 -5.41746686230E-04 -7.29904416082E-04 -5.99882209041E-04 -6.25226425495E-04 +8.86989191305E-02 +8.01311246780E-01
1.46500000000E+09 +2.65705219278E-01 +7.08989850710E-01 -5.34779192104E-04 -4.05088331019E-04 -5.25978662723E-04 -3.95255432731E-04 +1.24836672551E-01 +7.75184759699E-01
1.47000000000E+09 +2.97114738896E-01 +6.76030894779E-01 -3.04218944108E-04 -5.95216371112E-04 -2.78493091529E-04 -5.20215700676E-04 +1.62015049694E-01 +7.42376849633E-01
1.47500000000E+09 +3.28410021475E-01 +6.37446753278E-01 -6.28120656420E-04 -8.57268681780E-04 -5.59543833512E-04 -8.10442079668E-04 +1.99840005703E-01 +7.02407961869E-01
1.48000000000E+09 +3.56861692723E-01 +5.93015918575E-01 -9.90534969224E-04 -5.57883318950E-04 -1.02205223173E-03 -6.41422314920E-04 +2.37176919601E-01 +6.53523525359E-01
1.48500000000E+09 +3.81407753310E-01 +5.42572165061E-01 -9.55475255827E-04 -4.61849359861E-04 -1.04098987427E-03 -4.26261089448E-04 +2.72023852250E-01 +5.95028954695E-01
1.49000000000E+09 +4.00731372796E-01 +4.84716341598E-01 -1.25395589091E-03 -3.47628467282E-04 -1.28823885952E-03 -2.35776999052E-04 +3.00879701872E-01 +5.25993625551E-01
1.49500000000E+09 +4.13191881784E-01 +4.18533310866E-01 -1.52828039988E-03 -2.02677833921E-04 -1.43607089816E-03 -1.21472246640E-04 +3.21406136224E-01 +4.46929078463E-01
1.50000000000E+09 +4.16697725321E-01 +3.42078179646E-01 -1.66029158463E-03 +4.76563437393E-04 -1.54725006870E-03 +4.64117654805E-04 +3.29028257968E-01 +3.56823559291E-01
1.50500000000E+09 +4.06954193100E-01 +2.56563943831E-01 -1.25991927149E-03 +1.00322105208E-03 -1.24649479286E-03 +9.23439239419E-04 +3.18295821153E-01 +2.58635162049E-01
1.51000000000E+09 +3.81584723269E-01 +1.65146396282E-01 -8.57979386450E-04 +7.92644055306E-04 -8.51531487124E-04 +7.69082524656E-04 +2.86842429781E-01 +1.58220309126E-01
1.51500000000E+09 +3.38380034914E-01 +7.14119221960E-02 -1.15433884852E-03 +9.23504268110E-04 -1.22813870802E-03 +8.34943315276E-04 +2.34777820314E-01 +5.96155459523E-02
1.52000000000E+09 +2.73170501910E-01 -1.72270712503E-02 -1.34375037189E-03 +1.26575833784E-03 -1.34275651355E-03 +1.30680320157E-03 +1.58963060534E-01 -2.96414852950E-02
1.52500000000E+09 +1.89917502996E-01 -9.16556967639E-02 -7.86081239936E-04 +2.37295841609E-03 -8.12074233129E-04 +2.41092160634E-03 +6.32136842974E-02 -9.99028155295E-02
1.53000000000E+09 +9.00708723613E-02 -1.47161447201E-01 -6.81551794168E-06 +2.53843819588E-03 -2.24492953021E-05 +2.54582338348E-03 -4.33276031461E-02 -1.47017379054E-01
1.53500000000E+09 -2.00900106741E-02 -1.77675390544E-01 +1.38553715409E-03 +2.27210745325E-03 +1.33421827504E-03 +2.29826606962E-03 -1.56365039458E-01 -1.70627062859E-01
1.54000000000E+09 -1.34119499048E-01 -1.79801988551E-01 +1.49827586761E-03 +1.44059814909E-03 +1.45403474437E-03 +1.43578633739E-03 -2.68341997942E-01 -1.68190401482E-01
1.54500000000E+09 -2.42364110286E-01 -1.56592268693E-01 +1.69045792337E-03 +9.25914265739E-04 +1.63912216481E-03 +9.84000030371E-04 -3.68828475084E-01 -1.45347855282E-01
1.55000000000E+09 -3.39770090428E-01 -1.13951751251E-01 +1.63811748065E-03 +3.59465623236E-04 +1.60316047701E-03 +4.45487463362E-04 -4.56797195685E-01 -1.07535404029E-01
1.55500000000E+09 -4.22308573516E-01 -5.77137363541E-02 +1.40146567221E-03 +6.00698768717E-05 +1.45190509574E-03 +8.98810747221E-05 -5.29164229783E-01 -5.87421935478E-02
1.56000000000E+09 -4.88424719906E-01 +4.12141635521E-03 +1.45074036402E-03 +2.02784653451E-04 +1.51077778326E-03 +2.47302084914E-04 -5.86819092664E-01 -5.08728637619E-03
1.56500000000E+09 -5.39903240334E-01 +6.67453866548E-02 +1.66617768269E-03 -1.27070210269E-04 +1.79462739363E-03 -1.62142308060E-04 -6.31775699984E-01 +5.12316990331E-02
1.57000000000E+09 -5.79076265007E-01 +1.27200431034E-01 +1.82504372790E-03 -1.09659115328E-03 +1.86594454809E-03 -1.18332646241E-03 -6.65934704919E-01 +1.06725261277E-01
