# Hz S RI R 50
! CMT, C1220, 16058040, 17.2.0/1
! Date: 14/08/2018 11:48:05
! Data: Format (Calibration Info)
! Freq                      S11: Re/Im (F2)                       S21: Re/Im (F2)                       S12: Re/Im (F2)                       S22: Re/Im (F2)            
1.00000000000E+09 -6.47232697260E-01 +7.15084620054E-01 -2.34162310034E-05 -3.66012162242E-05 +6.13405274459E-05 +3.16960742853E-06 -7.55047077817E-01 +6.24355023433E-01
1.00500000000E+09 -6.40264929510E-01 +7.20160573135E-01 -3.33384052395E-06 -1.58253091218E-05 -4.49957439103E-05 +2.01233159748E-05 -7.51601752695E-01 +6.28406203470E-01
1.01000000000E+09 -6.34017481574E-01 +7.24730207175E-01 +1.56068955501E-05 -2.21258279871E-05 +2.32646778117E-05 -3.32034420526E-05 -7.47866082729E-01 +6.32085371274E-01
1.01500000000E+09 -6.29162983400E-01 +7.28487180024E-01 +1.30926990696E-05 +2.55748616965E-05 -3.07118994918E-05 +2.39929264057E-05 -7.44570333973E-01 +6.35939203361E-01
1.02000000000E+09 -6.25482942372E-01 +7.31791949172E-01 +3.41077680051E-05 -1.07465337468E-05 +6.12981976755E-05 +3.10259747252E-05 -7.41080210166E-01 +6.39824632180E-01
1.02500000000E+09 -6.22692312457E-01 +7.34458043878E-01 +3.14098998278E-05 +3.76556196563E-06 -7.29897410393E-06 +3.74142667494E-05 -7.38126463876E-01 +6.43404844188E-01
1.03000000000E+09 -6.20504662972E-01 +7.36836854841E-01 +1.97091119082E-05 -2.22042656728E-05 +1.75777483751E-05 +4.38182449942E-05 -7.34672086551E-01 +6.47276443142E-01
1.03500000000E+09 -6.17387263523E-01 +7.39232677256E-01 +2.12306623360E-05 +2.63390399962E-06 +1.12036593403E-05 -4.28650681726E-06 -7.30865349390E-01 +6.51169177215E-01
1.04000000000E+09 -6.13275774786E-01 +7.42121204127E-01 -2.76219020695E-05 +1.46435576099E-05 +4.17489632109E-06 +2.13580399966E-05 -7.27286178855E-01 +6.54764517806E-01
1.04500000000E+09 -6.07841166440E-01 +7.45708152989E-01 +1.21783926817E-05 +2.02795438508E-05 +6.10620141135E-06 +3.58185917764E-05 -7.23787949606E-01 +6.58323462117E-01
1.05000000000E+09 -6.00623021863E-01 +7.49731889573E-01 -4.03083957714E-05 +3.89028792368E-05 +6.60606143605E-07 -6.41744510191E-05 -7.20418878235E-01 +6.61707422826E-01
1.05500000000E+09 -5.92600487094E-01 +7.54491353857E-01 -3.36486335273E-05 +2.80961616556E-05 -2.61678590741E-05 -2.96888648550E-05 -7.17196473485E-01 +6.65281205199E-01
1.06000000000E+09 -5.83914805399E-01 +7.59459187908E-01 -2.89455269793E-05 +6.87805744270E-07 -6.13935525396E-05 +2.60739211219E-05 -7.13619936040E-01 +6.68965711235E-01
1.06500000000E+09 -5.75742345522E-01 +7.64549285858E-01 -5.94169855188E-06 +5.75849330792E-07 -3.31951463513E-05 -3.36357075571E-06 -7.10025429648E-01 +6.72786668523E-01
1.07000000000E+09 -5.68591793311E-01 +7.68754854371E-01 +4.85744249924E-05 +1.46216339843E-05 +2.47339206190E-05 +3.75602310822E-05 -7.06166493746E-01 +6.76322101805E-01
1.07500000000E+09 -5.62908380749E-01 +7.72526131805E-01 -1.66797907644E-05 +1.85466479669E-05 +4.02478896749E-05 +9.78821744776E-06 -7.01910672848E-01 +6.80250264070E-01
1.08000000000E+09 -5.58946753740E-01 +7.75505555097E-01 +3.51662293621E-05 +5.69743274061E-05 -5.31921790893E-06 -8.21204682555E-06 -6.97869420533E-01 +6.84062447200E-01
1.08500000000E+09 -5.56276007302E-01 +7.77937219528E-01 +2.63477892850E-05 +1.59641989697E-05 +2.42019225328E-05 +2.53579932553E-05 -6.93905866148E-01 +6.87854339198E-01
1.09000000000E+09 -5.54091182650E-01 +7.79755400283E-01 -2.34275253979E-05 +6.59537627438E-05 -4.67846766276E-05 +1.68735094993E-05 -6.89823783967E-01 +6.91825258867E-01
1.09500000000E+09 -5.52390199891E-01 +7.81434654942E-01 +2.31996284709E-05 +8.33750463896E-06 +4.53921690490E-05 +4.45620737890E-05 -6.86087568517E-01 +6.95610223736E-01
1.10000000000E+09 -5.48936416048E-01 +7.83483444809E-01 -7.78088776024E-06 -3.12434439591E-05 +1.90102166390E-05 +2.06652852000E-06 -6.82102067623E-01 +6.99481915010E-01
1.10500000000E+09 -5.44760118575E-01 +7.85871399955E-01 -3.03099943751E-06 +1.34175878563E-05 +1.00267964018E-05 +8.93553130804E-06 -6.77833583066E-01 +7.03019945548E-01
1.11000000000E+09 -5.38834265137E-01 +7.89114294562E-01 +4.16766070114E-05 +1.23603964248E-05 +4.21873990610E-05 +6.83507048234E-07 -6.73680673177E-01 +7.06446599033E-01
1.11500000000E+09 -5.31689030708E-01 +7.92744059694E-01 -2.22651500656E-06 -2.47993676945E-05 +2.88139618199E-06 -2.37398528187E-05 -6.69544454186E-01 +7.09889934144E-01
1.12000000000E+09 -5.23955595012E-01 +7.96775609681E-01 +1.76847132181E-05 +7.74763311020E-06 +3.83447895265E-05 -2.91046303725E-05 -6.65494951413E-01 +7.13548437520E-01
1.12500000000E+09 -5.16023273162E-01 +8.00755175156E-01 +2.88817204187E-05 -2.36983503268E-05 -8.57583320250E-06 -2.61595865187E-05 -6.61137053637E-01 +7.17608907399E-01
1.13000000000E+09 -5.08981245264E-01 +8.04395211824E-01 +4.64568122618E-05 -3.20291506473E-06 +9.30702642040E-06 +1.92778101393E-05 -6.56987892741E-01 +7.21368771099E-01
1.13500000000E+09 -5.02663711616E-01 +8.07179454862E-01 -8.68635602610E-06 +5.58683040953E-06 -9.19939827729E-06 +1.47352157092E-06 -6.52403972758E-01 +7.25227313623E-01
1.14000000000E+09 -4.97540873134E-01 +8.09639223857E-01 +2.58445547114E-05 +7.40600585022E-06 +2.74567520055E-05 +2.04844260842E-05 -6.47793309347E-01 +7.28704893355E-01
1.14500000000E+09 -4.93487863513E-01 +8.11428198586E-01 +1.68984532500E-05 -4.90134193846E-05 +1.43374614201E-05 -1.88510803586E-05 -6.43121607949E-01 +7.32104085787E-01
1.15000000000E+09 -4.89505899194E-01 +8.12857408609E-01 +2.55322394370E-05 -3.35872581078E-05 +9.25359613796E-06 +3.43193215833E-05 -6.38447200898E-01 +7.36026255899E-01
1.15500000000E+09 -4.85538044700E-01 +8.14655486157E-01 +1.52397175025E-05 -9.79763401131E-06 +1.34412578726E-05 -3.61401355209E-05 -6.33587028358E-01 +7.39730771976E-01
1.16000000000E+09 -4.80528133013E-01 +8.16472742926E-01 +3.52277692438E-05 +4.98677378097E-06 +3.27449361613E-05 +1.57945381406E-05 -6.28765920082E-01 +7.43730581353E-01
1.16500000000E+09 -4.74411598229E-01 +8.19189635260E-01 +4.05938199634E-05 -2.05918462010E-05 +7.66676469834E-05 -5.27665465541E-06 -6.23728077114E-01 +7.47249878398E-01
1.17000000000E+09 -4.67190200123E-01 +8.22036874098E-01 -1.82170465223E-05 -1.40718587957E-05 +3.93269223575E-05 -2.34214735224E-05 -6.18268230207E-01 +7.50609737456E-01
1.17500000000E+09 -4.59208823907E-01 +8.25449947896E-01 +1.94653572437E-05 -1.52427025263E-05 +3.92478468702E-05 -3.67966009150E-05 -6.12547201418E-01 +7.53975186982E-01
1.18000000000E+09 -4.50980495572E-01 +8.29007848258E-01 +2.05880665993E-05 -1.91330740637E-05 +8.54765201177E-05 -5.36407511598E-05 -6.06989040397E-01 +7.57102885132E-01
1.18500000000E+09 -4.42773800812E-01 +8.32261273386E-01 +7.62256122150E-05 -5.43151718047E-05 +4.37131711515E-05 -5.81233822495E-05 -6.00989243964E-01 +7.60228749892E-01
1.19000000000E+09 -4.35475864086E-01 +8.34812977115E-01 +1.38579762767E-05 -7.84082142770E-05 -2.00586485441E-05 -9.63240521061E-05 -5.94646796702E-01 +7.62814560719E-01
1.19500000000E+09 -4.29152741964E-01 +8.36965524396E-01 +1.34423898422E-05 -1.39516471208E-04 -2.36155051472E-06 -1.48314150452E-04 -5.88569595582E-01 +7.64147701152E-01
1.20000000000E+09 -4.23952772985E-01 +8.37870409959E-01 -7.58186303516E-05 -1.69280416564E-04 -8.83746607904E-05 -1.34685998175E-04 -5.84133630378E-01 +7.64476193928E-01
1.20500000000E+09 -4.19246794797E-01 +8.39088089918E-01 -1.22398857109E-04 -6.85759725372E-05 -1.12882727792E-04 -7.94988900533E-05 -5.81814928655E-01 +7.65066413995E-01
1.21000000000E+09 -4.14486587450E-01 +8.40113054930E-01 -1.20090834766E-04 +8.07939579694E-06 -9.19983683354E-05 -5.84617283234E-06 -5.80003974109E-01 +7.68120664720E-01
1.21500000000E+09 -4.08751924415E-01 +8.41636699467E-01 -8.62563288620E-05 +6.44568723254E-06 -6.61988572360E-05 +2.83808918868E-05 -5.77348455756E-01 +7.72548561785E-01
1.22000000000E+09 -4.01498485628E-01 +8.43369607253E-01 -4.33580573612E-05 +3.63504249510E-05 -1.53112973397E-05 +3.50617676332E-05 -5.73064689981E-01 +7.77945148011E-01
1.22500000000E+09 -3.93084378662E-01 +8.45790999095E-01 +1.62207673926E-05 +1.53291934941E-05 -2.03674081765E-05 -3.62217973718E-06 -5.67904309248E-01 +7.83285498394E-01
1.23000000000E+09 -3.83608373324E-01 +8.48762025503E-01 -2.72480617650E-05 -7.90938894832E-06 -1.61612114188E-05 +3.08878760337E-05 -5.62253164115E-01 +7.87828468540E-01
1.23500000000E+09 -3.73888009311E-01 +8.52291011586E-01 +4.86362758335E-07 -2.21207924974E-05 +7.26205483290E-06 +1.59541395798E-05 -5.56466921244E-01 +7.92209878317E-01
1.24000000000E+09 -3.64324695094E-01 +8.55647236866E-01 -1.82246148356E-05 +5.89529823908E-06 -2.36654532330E-05 -3.14229675484E-05 -5.50520691969E-01 +7.96186349714E-01
1.24500000000E+09 -3.55761934697E-01 +8.59418634686E-01 -5.70173830786E-05 -2.99946519784E-05 -3.67971146752E-05 -3.62509055223E-05 -5.44047126537E-01 +8.00002323668E-01
1.25000000000E+09 -3.47941119199E-01 +8.62565158340E-01 -4.18347931456E-05 -6.77610449548E-05 -5.40394283274E-05 -6.05308501111E-05 -5.37462212035E-01 +8.04302585255E-01
1.25500000000E+09 -3.41181387668E-01 +8.64596371685E-01 -1.65850137964E-06 +7.17369779771E-06 -3.16968923884E-05 -2.97572466235E-05 -5.30608122771E-01 +8.08242713695E-01
1.26000000000E+09 -3.35081859366E-01 +8.66053238799E-01 -3.47530663939E-05 -7.68482487987E-06 -8.57442288384E-05 +8.30063362350E-07 -5.23819128903E-01 +8.12558478273E-01
1.26500000000E+09 -3.29295631215E-01 +8.66774298924E-01 -5.46212862597E-05 +2.20749549864E-05 -5.06761087177E-05 +2.01386309602E-06 -5.16771724525E-01 +8.16554787397E-01
1.27000000000E+09 -3.22837315739E-01 +8.67212948384E-01 +6.62017112186E-06 -1.19966675193E-05 -2.21073313933E-05 +7.66598298807E-06 -5.09916602918E-01 +8.20335057702E-01
1.27500000000E+09 -3.15121984610E-01 +8.67780179207E-01 -5.48842226554E-05 -7.28941322757E-05 -5.16533091039E-05 +3.22994742398E-06 -5.02939253049E-01 +8.24002388868E-01
1.28000000000E+09 -3.05502270221E-01 +8.68668424990E-01 -8.82367480714E-05 -7.74835038130E-08 -7.50132281948E-05 -1.37816647975E-05 -4.95838713243E-01 +8.27422802107E-01
1.28500000000E+09 -2.94221013021E-01 +8.70267957170E-01 -8.10795808256E-05 -3.90101786604E-05 -6.82681407071E-05 +1.00525998582E-05 -4.88563774497E-01 +8.31183405374E-01
1.29000000000E+09 -2.82096202127E-01 +8.72328107598E-01 -6.69429943816E-05 +8.53269250917E-06 -9.32839695830E-05 +2.93907046389E-06 -4.80932086999E-01 +8.35026902019E-01
1.29500000000E+09 -2.69645930811E-01 +8.75261525862E-01 -7.07407172286E-05 +1.90448813755E-05 -1.49396021380E-05 +4.71818497530E-06 -4.72914298820E-01 +8.38545544087E-01
1.30000000000E+09 -2.57555631974E-01 +8.78731412037E-01 -9.53726918825E-05 -2.24679068756E-05 -1.33862579312E-04 +2.83764715715E-05 -4.65031400990E-01 +8.42121374601E-01
1.30500000000E+09 -2.46862324078E-01 +8.82032302958E-01 -1.09074877200E-04 +6.03874381826E-05 -1.17132099029E-04 +5.85438744460E-05 -4.56798849785E-01 +8.45630215850E-01
1.31000000000E+09 -2.37482133285E-01 +8.84761802851E-01 -9.91207364278E-05 +8.58115901264E-05 -9.89159671257E-05 +5.35668025806E-05 -4.48514798563E-01 +8.49097922304E-01
1.31500000000E+09 -2.29936106513E-01 +8.86533334243E-01 -6.10598338245E-05 +1.14242166432E-04 -7.09398182676E-05 +4.92474830930E-05 -4.39667948207E-01 +8.52490764920E-01
1.32000000000E+09 -2.23713470149E-01 +8.87154495752E-01 -8.03311641274E-05 +9.66273634256E-05 -8.40945094623E-05 +5.52216767750E-05 -4.30517941951E-01 +8.55919106873E-01
1.32500000000E+09 -2.18138518257E-01 +8.86973123574E-01 -8.23267545840E-05 +1.20840103299E-04 -7.99879375668E-05 +1.15629221919E-04 -4.20754325291E-01 +8.59350545793E-01
1.33000000000E+09 -2.11673624586E-01 +8.86497498364E-01 -1.72559543325E-05 +1.03867408731E-04 -4.40471284624E-05 +1.14794723056E-04 -4.10884662954E-01 +8.62602423694E-01
1.33500000000E+09 -2.03471458486E-01 +8.85387697138E-01 +9.06831350886E-07 +1.18487213992E-04 -2.44794936216E-05 +1.37877898919E-04 -4.00906332236E-01 +8.66031263267E-01
1.34000000000E+09 -1.92911274152E-01 +8.84714961632E-01 -6.57262256033E-05 +1.69723203144E-04 +1.56968121242E-05 +1.44895737460E-04 -3.90603064804E-01 +8.69299366556E-01
1.34500000000E+09 -1.79851829171E-01 +8.84277287949E-01 -1.81223713459E-05 +1.22344292499E-04 -3.79374883089E-05 +1.19807593955E-04 -3.79717635011E-01 +8.72516941558E-01
1.35000000000E+09 -1.64826727570E-01 +8.84343487818E-01 +3.11500084223E-05 +1.95728153973E-04 -3.65135845100E-05 +1.56548998001E-04 -3.68568920253E-01 +8.75635732545E-01
1.35500000000E+09 -1.48416444808E-01 +8.84970390078E-01 +6.89155496261E-05 +1.61032763479E-04 +4.18289422718E-05 +2.32994623313E-04 -3.56816905304E-01 +8.78531180169E-01
1.36000000000E+09 -1.31875531950E-01 +8.85835334112E-01 +6.31880085742E-05 +2.08792789106E-04 +4.85485408254E-05 +2.29758988147E-04 -3.44922769702E-01 +8.81202779981E-01
1.36500000000E+09 -1.16174506126E-01 +8.86423554322E-01 +1.02406116089E-04 +1.85552686012E-04 +9.03031446590E-05 +2.89949924151E-04 -3.32685703404E-01 +8.83675462428E-01
1.37000000000E+09 -1.02048631022E-01 +8.86417249364E-01 +1.74073991163E-04 +2.68079669623E-04 +1.52669542900E-04 +2.92257195558E-04 -3.19608664817E-01 +8.86028108171E-01
1.37500000000E+09 -8.99031209658E-02 +8.85885298025E-01 +2.84539118007E-04 +1.87270818582E-04 +2.48074257739E-04 +1.55064772863E-04 -3.05882463111E-01 +8.88290258860E-01
1.38000000000E+09 -7.92619219267E-02 +8.84691474145E-01 +1.90167893071E-04 +7.97179076644E-05 +2.39010416073E-04 +1.09934966497E-04 -2.91416718490E-01 +8.90156264891E-01
1.38500000000E+09 -6.85509287269E-02 +8.82759614343E-01 +2.01408596534E-04 +1.12483136492E-04 +2.16506115502E-04 +1.44006205164E-04 -2.75883157893E-01 +8.91817079038E-01
1.39000000000E+09 -5.71927484809E-02 +8.79853197893E-01 +2.31676514240E-04 +1.25780995365E-04 +2.86152973011E-04 +1.31087838379E-04 -2.60035795051E-01 +8.93238366671E-01
1.39500000000E+09 -4.37733458382E-02 +8.76142645093E-01 +3.20727138868E-04 +1.42138345751E-04 +3.11369358436E-04 +9.78611890557E-05 -2.43351749722E-01 +8.93815855956E-01
1.40000000000E+09 -2.78825085878E-02 +8.71488387523E-01 +4.14574431792E-04 +1.44522654850E-04 +3.89672546911E-04 +7.30133463284E-05 -2.25539420355E-01 +8.94435994369E-01
1.40500000000E+09 -9.81902169449E-03 +8.66272970362E-01 +5.16644250197E-04 +5.36458646348E-05 +4.95022714082E-04 -4.15207794228E-05 -2.06732343399E-01 +8.94059477738E-01
1.41000000000E+09 +1.05653980597E-02 +8.61113729225E-01 +5.15105325663E-04 -1.79830709039E-04 +4.80065013174E-04 -1.78417335023E-04 -1.86748408359E-01 +8.93163771740E-01
1.41500000000E+09 +3.22469390261E-02 +8.55477217283E-01 +4.68548983383E-04 -2.43749688487E-04 +5.17328827101E-04 -2.02076966420E-04 -1.65242706749E-01 +8.91605681851E-01
1.42000000000E+09 +5.52183684843E-02 +8.49661292535E-01 +3.91975489727E-04 -3.55910030086E-04 +4.06520018821E-04 -4.33056103696E-04 -1.42741135645E-01 +8.88852327394E-01
1.42500000000E+09 +7.78548196579E-02 +8.42424580713E-01 +2.37824203231E-04 -3.54653380177E-04 +2.45286960741E-04 -4.18204872289E-04 -1.19130121366E-01 +8.85109889510E-01
1.43000000000E+09 +9.95642694418E-02 +8.33661593565E-01 +2.71801456906E-04 -2.80708065944E-04 +3.03190881616E-04 -3.23109251965E-04 -9.44019238829E-02 +8.80571936565E-01
1.43500000000E+09 +1.20282358476E-01 +8.23269028331E-01 +3.66768713608E-04 -4.31401917442E-04 +3.12560688585E-04 -4.70072524831E-04 -6.82769151438E-02 +8.73985572955E-01
1.44000000000E+09 +1.40697380374E-01 +8.11007947667E-01 +3.78534255238E-04 -5.53088093415E-04 +3.33624994836E-04 -5.90002666558E-04 -4.02250225439E-02 +8.65573842011E-01
1.44500000000E+09 +1.61974221830E-01 +7.96566244556E-01 +2.89349238506E-04 -8.48086922051E-04 +2.33037300345E-04 -8.56277749843E-04 -1.02033759877E-02 +8.54165921599E-01
1.45000000000E+09 +1.84928046009E-01 +7.78605286248E-01 -3.49646069110E-05 -8.95531408056E-04 -1.21768108329E-04 -9.20166593609E-04 +2.12678304697E-02 +8.39594288708E-01
1.45500000000E+09 +2.09585455544E-01 +7.57622161084E-01 -2.95595635348E-04 -8.12760777703E-04 -3.48800622126E-04 -7.56582461531E-04 +5.43621755148E-02 +8.22063094380E-01
1.46000000000E+09 +2.37035393263E-01 +7.33295446298E-01 -4.96301897865E-04 -7.31715978262E-04 -5.62422329497E-04 -6.52350028171E-04 +8.85991775904E-02 +8.00733451210E-01
1.46500000000E+09 +2.66620143740E-01 +7.04751847181E-01 -6.41761348357E-04 -4.05891748605E-04 -5.59723742962E-04 -3.08207029273E-04 +1.24583632934E-01 +7.74614355195E-01
1.47000000000E+09 +2.97313727423E-01 +6.72041478378E-01 -1.99305964889E-04 -3.32542861618E-04 -2.01064444981E-04 -2.97904317257E-04 +1.61577127248E-01 +7.41961528498E-01
1.47500000000E+09 +3.28257587282E-01 +6.33968903268E-01 -3.74425846653E-04 -6.85703568224E-04 -3.64677601397E-04 -6.82121949955E-04 +1.99360703190E-01 +7.01936138611E-01
1.48000000000E+09 +3.56468142008E-01 +5.89951087613E-01 -7.65192495455E-04 -6.00962242891E-04 -7.61007987730E-04 -6.47240692729E-04 +2.36290288165E-01 +6.53217259520E-01
1.48500000000E+09 +3.80906727461E-01 +5.40065299852E-01 -7.05359536886E-04 -5.09355027162E-04 -7.49057338230E-04 -4.89232299129E-04 +2.70666581019E-01 +5.94957598496E-01
1.49000000000E+09 +4.00377811502E-01 +4.82236406241E-01 -1.22119217132E-03 -4.80871593797E-04 -1.27436192843E-03 -4.29610482933E-04 +2.99689639252E-01 +5.26781846222E-01
1.49500000000E+09 +4.12526021757E-01 +4.16559585732E-01 -1.49755050318E-03 -6.70415037097E-05 -1.40099833604E-03 +2.46788720701E-05 +3.20453539932E-01 +4.47612888761E-01
1.50000000000E+09 +4.16171161984E-01 +3.40983909689E-01 -1.41005223834E-03 +6.63857097342E-04 -1.35496785113E-03 +6.33950157695E-04 +3.27668540098E-01 +3.58040422750E-01
1.50500000000E+09 +4.06986208553E-01 +2.55887925817E-01 -7.57585441843E-04 +9.43469159351E-04 -8.41346007750E-04 +8.93594019761E-04 +3.17392020548E-01 +2.60493997490E-01
1.51000000000E+09 +3.81910318330E-01 +1.64942777628E-01 -5.79578739240E-04 +3.86649518315E-04 -5.90797926393E-04 +3.21251462854E-04 +2.86175746858E-01 +1.60131860686E-01
1.51500000000E+09 +3.39025084402E-01 +7.15851766157E-02 -1.11836237460E-03 +7.16165454959E-04 -1.15075876706E-03 +6.72452553366E-04 +2.34203197165E-01 +6.23629084185E-02
1.52000000000E+09 +2.74341439136E-01 -1.70611703847E-02 -1.10552747401E-03 +1.18988014866E-03 -1.12493037067E-03 +1.16863257304E-03 +1.59338472407E-01 -2.64585402096E-02
1.52500000000E+09 +1.91182372048E-01 -9.18195037461E-02 -4.87184892170E-04 +1.83879324314E-03 -5.04102762181E-04 +1.86889725935E-03 +6.43267650421E-02 -9.66579335711E-02
1.53000000000E+09 +9.11983651885E-02 -1.47633931733E-01 -1.11412074122E-04 +1.86802992387E-03 -3.23243882223E-05 +1.88278842735E-03 -4.10179209139E-02 -1.43580577824E-01
1.53500000000E+09 -1.91005366521E-02 -1.77788745733E-01 +1.19232417779E-03 +1.90277528820E-03 +1.19570876225E-03 +1.89593721035E-03 -1.52506100957E-01 -1.68436910324E-01
1.54000000000E+09 -1.33068396345E-01 -1.80458001025E-01 +1.25249797893E-03 +7.92882267707E-04 +1.31001910962E-03 +8.23680577894E-04 -2.64815652999E-01 -1.67567058032E-01
1.54500000000E+09 -2.41794493894E-01 -1.57149219738E-01 +1.01779978699E-03 +5.90475580693E-04 +1.02843329563E-03 +5.85924924371E-04 -3.65457951269E-01 -1.44943081756E-01
1.55000000000E+09 -3.39373158813E-01 -1.13745218803E-01 +9.86040537835E-04 +3.10055912368E-04 +9.82697062164E-04 +2.74227189033E-04 -4.52988630519E-01 -1.08226371455E-01
1.55500000000E+09 -4.21245258921E-01 -5.70952055478E-02 +8.61271344886E-04 +2.10080106485E-04 +8.54012785832E-04 +2.16899641589E-04 -5.26218513216E-01 -6.07300322075E-02
1.56000000000E+09 -4.86951973846E-01 +4.93129399464E-03 +9.80298397457E-04 +3.63450990884E-04 +1.06003403043E-03 +4.34762606655E-04 -5.85001147075E-01 -7.30965913161E-03
1.56500000000E+09 -5.38148220525E-01 +6.75680790688E-02 +1.34415190134E-03 +3.34787515666E-05 +1.40677769448E-03 -4.69100207352E-06 -6.30662375035E-01 +4.92121279805E-02
1.57000000000E+09 -5.77100833093E-01 +1.28335858572E-01 +1.45866802326E-03 -7.96448582251E-04 +1.48946448169E-03 -8.84351432941E-04 -6.65390081902E-01 +1.04724346585E-01
