# Hz S RI R 50
! CMT, C1220, 16058040, 17.2.0/1
! Date: 14/08/2018 11:45:55
! Data: Format (Calibration Info)
! Freq                      S11: Re/Im (F2)                       S21: Re/Im (F2)                       S12: Re/Im (F2)                       S22: Re/Im (F2)            
1.00000000000E+09 -6.48645843691E-01 +7.14992261191E-01 -3.57485879934E-05 -1.27401217991E-05 -3.57286984468E-05 +2.58636971276E-05 -7.54912075573E-01 +6.24561282420E-01
1.00500000000E+09 -6.41712598886E-01 +7.20025541330E-01 -2.49627011567E-05 +1.27288955498E-06 -3.15314586819E-05 +4.05373252770E-05 -7.51371394975E-01 +6.28413657769E-01
1.01000000000E+09 -6.35630613942E-01 +7.24551866971E-01 +2.77201210815E-05 +3.03814014226E-05 -2.04994347317E-05 +2.30546922042E-05 -7.48039232039E-01 +6.32387255074E-01
1.01500000000E+09 -6.30742175984E-01 +7.28382119087E-01 -3.84497115512E-05 -8.74099248363E-06 +1.07234768166E-05 +2.10560774038E-05 -7.44472369985E-01 +6.36260303544E-01
1.02000000000E+09 -6.26887883704E-01 +7.31577798924E-01 -1.50800247518E-05 -6.29943590455E-06 +5.76795088319E-05 +3.65052131161E-05 -7.40834744609E-01 +6.39990107928E-01
1.02500000000E+09 -6.23885492572E-01 +7.34247863955E-01 -1.79954470555E-05 +3.16806104173E-05 +1.28913583334E-05 +3.62088576939E-05 -7.37925998729E-01 +6.43698650526E-01
1.03000000000E+09 -6.21393898044E-01 +7.36780880604E-01 -1.35733727261E-05 +1.01768969615E-05 -1.19854108578E-05 +2.92061413187E-05 -7.34567486571E-01 +6.47496914868E-01
1.03500000000E+09 -6.18223712792E-01 +7.39437122991E-01 -2.17880102499E-05 +1.33236396877E-05 -2.16248797224E-05 +5.00505472059E-05 -7.30807794982E-01 +6.51307499588E-01
1.04000000000E+09 -6.13954000422E-01 +7.42337757858E-01 -2.91497214636E-05 -5.53899524179E-05 +1.63335529854E-05 -4.61308848257E-06 -7.27195664806E-01 +6.54963177580E-01
1.04500000000E+09 -6.08318448641E-01 +7.45871530718E-01 +1.73090878525E-05 +2.54223050953E-05 -3.93864782145E-05 +3.14407955669E-05 -7.23626396889E-01 +6.58543810622E-01
1.05000000000E+09 -6.01267624384E-01 +7.50051466901E-01 +5.04682035917E-05 +2.61276786903E-05 -2.47367060713E-06 +3.32708984035E-05 -7.20127798909E-01 +6.62034156733E-01
1.05500000000E+09 -5.93287901135E-01 +7.54685241076E-01 -1.17420185391E-06 +1.78541539643E-06 -1.21557357211E-05 +2.38328065338E-05 -7.16893400901E-01 +6.65645384851E-01
1.06000000000E+09 -5.84885112850E-01 +7.59717158120E-01 +2.35024003292E-05 +3.23657201650E-05 +6.31884181200E-06 +5.10567573004E-05 -7.13591041117E-01 +6.69250457528E-01
1.06500000000E+09 -5.76956353976E-01 +7.64609639049E-01 -1.08778600900E-05 +4.53349015032E-05 -2.62903657758E-05 +1.63458282820E-05 -7.10029160603E-01 +6.73018838941E-01
1.07000000000E+09 -5.69918335469E-01 +7.68927379650E-01 -4.11373429487E-05 +6.67057736509E-07 -3.10732751058E-05 +3.58887127422E-05 -7.05899409088E-01 +6.76608416821E-01
1.07500000000E+09 -5.64336124948E-01 +7.72509999358E-01 +1.08719331877E-05 -1.28591224826E-05 +4.31327750148E-05 +3.87794381486E-05 -7.01745359709E-01 +6.80588378546E-01
1.08000000000E+09 -5.60289903118E-01 +7.75556202879E-01 -3.62573697497E-06 +6.93755482947E-06 +4.01073637026E-05 +1.20820419951E-05 -6.97716782391E-01 +6.84445245344E-01
1.08500000000E+09 -5.57395398717E-01 +7.77971519588E-01 +2.32461150796E-05 +1.62601676385E-05 +1.69412843890E-05 -4.35723856067E-06 -6.93644590313E-01 +6.88094404814E-01
1.09000000000E+09 -5.54946646378E-01 +7.80020361671E-01 -1.66626736312E-05 -1.19469844982E-05 +2.76002946227E-05 +4.16071667726E-06 -6.89653845411E-01 +6.92003796255E-01
1.09500000000E+09 -5.52747265996E-01 +7.81659303799E-01 +1.97554494717E-05 -6.10334291908E-06 +3.00805930660E-05 +4.73437872085E-05 -6.85836045351E-01 +6.95922866376E-01
1.10000000000E+09 -5.49451613056E-01 +7.83774713327E-01 -1.52576232167E-05 +2.44565075425E-05 +5.28775911890E-05 +2.00504231458E-05 -6.81891689683E-01 +6.99601144266E-01
1.10500000000E+09 -5.44940827474E-01 +7.86428411381E-01 +2.84310269968E-06 +5.88877885355E-06 +7.87240966644E-06 +1.50230329110E-05 -6.77749324310E-01 +7.03333775640E-01
1.11000000000E+09 -5.38893012628E-01 +7.89613784884E-01 +1.37010796912E-05 +3.73101581614E-05 -2.75137639766E-08 -2.01239162631E-06 -6.73553260330E-01 +7.06668503761E-01
1.11500000000E+09 -5.31845773232E-01 +7.93489997682E-01 +4.34398670400E-05 +2.30773208240E-05 +2.29868721386E-05 -8.46229582124E-06 -6.69420030597E-01 +7.10088111605E-01
1.12000000000E+09 -5.24491914484E-01 +7.97243354917E-01 +6.69683185667E-05 +2.26561709107E-05 +2.92650317075E-05 -1.43267811092E-05 -6.65280722027E-01 +7.13775225601E-01
1.12500000000E+09 -5.16675489225E-01 +8.01318516175E-01 +1.38231430330E-05 -3.88942567076E-05 +5.06481014442E-06 +1.72398493969E-05 -6.60965703064E-01 +7.17892342127E-01
1.13000000000E+09 -5.09842595381E-01 +8.04856313221E-01 +8.95294564751E-06 +1.00201121881E-05 +2.12392800372E-06 -1.51446948678E-05 -6.56661413114E-01 +7.21512325716E-01
1.13500000000E+09 -5.03681200543E-01 +8.07566383752E-01 +7.23107736456E-06 -3.30207492316E-05 +2.75677101336E-06 -6.95700407334E-06 -6.52246293780E-01 +7.25442228815E-01
1.14000000000E+09 -4.98509342417E-01 +8.10139752574E-01 +2.46160605717E-07 -2.04511505525E-09 +5.07258728119E-05 +1.16200294690E-06 -6.47695589525E-01 +7.28957091861E-01
1.14500000000E+09 -4.94347011858E-01 +8.11775236072E-01 +2.10923217693E-05 +1.34052488240E-05 -2.42909325576E-05 +9.35171970108E-06 -6.42979252527E-01 +7.32317148190E-01
1.15000000000E+09 -4.90287774968E-01 +8.13432210088E-01 +1.06023538374E-05 -2.71639183790E-05 +6.18181791894E-05 -1.32898740315E-05 -6.38285455978E-01 +7.36258663844E-01
1.15500000000E+09 -4.86087690867E-01 +8.15203805161E-01 +4.20645812509E-05 -2.91666945557E-05 +3.99745669095E-05 -2.54653804128E-05 -6.33467628809E-01 +7.39933621329E-01
1.16000000000E+09 -4.80836432991E-01 +8.17176179690E-01 +5.87318129571E-05 -9.56348181618E-07 +5.23836175536E-05 -2.95214115949E-05 -6.28621282807E-01 +7.43901466877E-01
1.16500000000E+09 -4.74647063630E-01 +8.19883254146E-01 +3.67548724249E-05 +7.70214471743E-06 +4.95924955752E-05 -2.81421960181E-05 -6.23522880602E-01 +7.47508106864E-01
1.17000000000E+09 -4.67358818458E-01 +8.22797016375E-01 +1.83976829997E-05 -2.22537441600E-05 +3.23432588975E-05 -5.57958996298E-05 -6.18217103949E-01 +7.50872763932E-01
1.17500000000E+09 -4.59368878067E-01 +8.26188192326E-01 +2.13843101610E-05 -4.24844239837E-05 +8.87194127636E-05 +2.64131205555E-05 -6.12517025994E-01 +7.54109433636E-01
1.18000000000E+09 -4.51186383675E-01 +8.29610494464E-01 +5.31741531629E-05 -3.70509768537E-05 +9.70012972055E-05 -3.39394598305E-05 -6.06864098818E-01 +7.57382621630E-01
1.18500000000E+09 -4.43199609745E-01 +8.32817863913E-01 +1.85967610819E-05 -5.69275192635E-05 +8.43216019984E-05 -7.98840911797E-05 -6.00837127283E-01 +7.60456029887E-01
1.19000000000E+09 -4.35912895609E-01 +8.35443309867E-01 +9.45779014485E-05 -8.39542514500E-05 +5.40062568276E-05 -8.18049765560E-05 -5.94465952185E-01 +7.63169676336E-01
1.19500000000E+09 -4.29594865739E-01 +8.37329628445E-01 +4.45179092783E-05 -1.08774861427E-04 -4.37059075376E-06 -1.13026921025E-04 -5.88505595461E-01 +7.64441736556E-01
1.20000000000E+09 -4.24433398476E-01 +8.38304055708E-01 -4.13497743952E-05 -1.45505475992E-04 -8.09265927013E-06 -8.86386810651E-05 -5.83779973091E-01 +7.64717618850E-01
1.20500000000E+09 -4.19674155482E-01 +8.39413623148E-01 -7.77585040311E-05 -1.23585834771E-04 -9.67870301863E-05 -8.35091108627E-05 -5.81578660760E-01 +7.65465216244E-01
1.21000000000E+09 -4.14821295329E-01 +8.40585519121E-01 -7.85846443665E-05 -1.42921096040E-05 -6.68716631386E-05 -4.52157860297E-05 -5.79773786998E-01 +7.68259020354E-01
1.21500000000E+09 -4.08771668728E-01 +8.42125703452E-01 -6.13303492458E-05 -1.42922480473E-05 -1.12060180657E-04 +9.58647102180E-06 -5.77038941676E-01 +7.72831501714E-01
1.22000000000E+09 -4.01593604606E-01 +8.43994779217E-01 -2.57477814793E-05 -1.50159949586E-05 -4.46079586167E-06 +1.42302340345E-05 -5.72899454509E-01 +7.78170614704E-01
1.22500000000E+09 -3.92943693267E-01 +8.46535804145E-01 -5.58706955582E-06 -2.47067980625E-05 +6.37221622088E-08 +9.97136201612E-06 -5.67773609525E-01 +7.83329998168E-01
1.23000000000E+09 -3.83476110849E-01 +8.49464913036E-01 -5.94348252433E-06 +1.34328854837E-05 -1.51267592707E-05 -7.94763686030E-06 -5.62074077238E-01 +7.88179608182E-01
1.23500000000E+09 -3.73842630111E-01 +8.52822709492E-01 +1.93175412415E-07 -2.11524153715E-05 -2.75102144178E-06 -1.84330555118E-05 -5.56383121490E-01 +7.92576054138E-01
1.24000000000E+09 -3.64179099061E-01 +8.56190186346E-01 -2.72229112791E-05 -6.99205971413E-05 -3.54950146233E-05 -3.11374512085E-05 -5.50195069956E-01 +7.96455286036E-01
1.24500000000E+09 -3.55725584204E-01 +8.59907312291E-01 -5.82164447345E-05 -5.14544704262E-05 -8.71455821219E-05 -7.62193119995E-05 -5.43938745041E-01 +8.00289447347E-01
1.25000000000E+09 -3.47813197066E-01 +8.62952406467E-01 -8.51074818290E-05 -5.21125396445E-05 -4.62318678929E-05 -3.42952084460E-05 -5.37291083024E-01 +8.04389311521E-01
1.25500000000E+09 -3.41046165697E-01 +8.65122246779E-01 -6.69209843460E-05 -1.12278251622E-05 -3.69667248437E-05 -1.88202963523E-05 -5.30392784278E-01 +8.08553757589E-01
1.26000000000E+09 -3.34850626128E-01 +8.66502110181E-01 -2.07910167162E-05 -2.28923584925E-05 -6.14617644436E-05 -5.52327237442E-05 -5.23609140598E-01 +8.12975855522E-01
1.26500000000E+09 -3.28869447892E-01 +8.67246038578E-01 -4.04276679044E-05 -1.72287296599E-05 -1.82420258964E-05 -1.73469625194E-05 -5.16605008395E-01 +8.16896599237E-01
1.27000000000E+09 -3.22214425571E-01 +8.67663986710E-01 -3.81208239782E-05 -4.78833661989E-05 -5.15723490649E-05 -2.36187039447E-05 -5.09765060650E-01 +8.20677832133E-01
1.27500000000E+09 -3.14370476205E-01 +8.68387960639E-01 -6.99941929818E-05 -1.08601845919E-06 -5.07183362044E-05 -5.42791652385E-05 -5.02775679808E-01 +8.24289571470E-01
1.28000000000E+09 -3.04573344257E-01 +8.69367773749E-01 -8.16181598335E-05 -2.50010892519E-05 -1.10842175353E-04 -1.33473659217E-05 -4.95733361688E-01 +8.27745072882E-01
1.28500000000E+09 -2.93257234046E-01 +8.70795291829E-01 -8.29812665345E-05 -7.78059685892E-06 -5.94255545341E-05 -3.31373978624E-07 -4.88259048681E-01 +8.31425887267E-01
1.29000000000E+09 -2.81043251278E-01 +8.72944369839E-01 -8.78214636183E-05 +2.01654725971E-05 -9.44986221892E-05 +2.36928123780E-05 -4.80694359928E-01 +8.35297034258E-01
1.29500000000E+09 -2.68862839960E-01 +8.75679740597E-01 -7.28716725969E-05 +2.04479394941E-05 -8.91642208882E-05 +7.54864992262E-05 -4.72794453494E-01 +8.38766315570E-01
1.30000000000E+09 -2.57012709032E-01 +8.78991791275E-01 -9.08014544066E-05 +1.84864953893E-05 -8.65617513829E-05 +1.06130585308E-05 -4.64786024457E-01 +8.42429879554E-01
1.30500000000E+09 -2.46237884400E-01 +8.82097469149E-01 -1.04509321883E-04 +1.33908534998E-05 -7.78165653988E-05 +2.67236166476E-05 -4.56641653721E-01 +8.45909507034E-01
1.31000000000E+09 -2.36943228125E-01 +8.84707378144E-01 -1.16140550138E-04 +5.84685261921E-05 -1.35745980298E-04 +5.01304581506E-05 -4.48340705807E-01 +8.49401641849E-01
1.31500000000E+09 -2.29454658007E-01 +8.86522804416E-01 -1.25196392735E-04 +1.00025500632E-04 -1.42251256340E-04 +9.80328662748E-05 -4.39466227766E-01 +8.52867562990E-01
1.32000000000E+09 -2.23108537818E-01 +8.87124590905E-01 -1.00575123418E-04 +7.70514014521E-05 -1.06022185777E-04 +1.17054487424E-04 -4.30267593415E-01 +8.56268404373E-01
1.32500000000E+09 -2.17043939016E-01 +8.87040560407E-01 -8.36981130173E-05 +9.35309182822E-05 -8.97834358650E-05 +9.79458015745E-05 -4.20487745306E-01 +8.59593134532E-01
1.33000000000E+09 -2.10296281697E-01 +8.86520823922E-01 -6.81644708365E-05 +1.59641446335E-04 -5.92545163543E-05 +1.64769506851E-04 -4.10775670579E-01 +8.63075233764E-01
1.33500000000E+09 -2.01807810385E-01 +8.85547269968E-01 -7.15114804188E-05 +1.20611811754E-04 -3.12731587461E-05 +1.53921505911E-04 -4.00584422499E-01 +8.66428245135E-01
1.34000000000E+09 -1.90954260225E-01 +8.84813155932E-01 -6.28349485188E-05 +1.02180629016E-04 +3.63744716753E-05 +1.50911085729E-04 -3.90334022845E-01 +8.69685570413E-01
1.34500000000E+09 -1.77827362375E-01 +8.84230084593E-01 -5.17055065794E-05 +1.15421010367E-04 -3.87701209911E-05 +1.01012299059E-04 -3.79617975323E-01 +8.72992782818E-01
1.35000000000E+09 -1.62773959344E-01 +8.84149364011E-01 -4.45534381961E-05 +2.00944631003E-04 -5.09582730064E-05 +1.88802010984E-04 -3.68301573649E-01 +8.75939945517E-01
1.35500000000E+09 -1.46604842164E-01 +8.84595290971E-01 +2.15978527324E-06 +2.35253988423E-04 +2.40928981720E-05 +2.03704238422E-04 -3.56496683640E-01 +8.78882442477E-01
1.36000000000E+09 -1.30323246482E-01 +8.85190233402E-01 +5.24356090483E-06 +2.57868142029E-04 -3.58695188273E-05 +2.23801136582E-04 -3.44481846261E-01 +8.81642553098E-01
1.36500000000E+09 -1.14692312306E-01 +8.85574082073E-01 +4.42129198171E-05 +2.59271278212E-04 +3.80043811250E-05 +2.81077045211E-04 -3.32145156620E-01 +8.84071521065E-01
1.37000000000E+09 -1.00694817078E-01 +8.85284780304E-01 +8.90524789340E-05 +3.28133618054E-04 +1.08953596191E-04 +3.10417601732E-04 -3.19213113524E-01 +8.86450310929E-01
1.37500000000E+09 -8.83708687832E-02 +8.84521474936E-01 +2.83826176793E-04 +3.27694440531E-04 +2.20967356189E-04 +3.44181372510E-04 -3.05458210727E-01 +8.88512841342E-01
1.38000000000E+09 -7.75156576064E-02 +8.83087083923E-01 +2.35851382695E-04 +1.57684911966E-04 +2.49606571130E-04 +1.26802691437E-04 -2.90776986342E-01 +8.90494710698E-01
1.38500000000E+09 -6.64958478905E-02 +8.80981561152E-01 +2.22906009239E-04 +1.29021056870E-04 +2.06891972835E-04 +1.62168772757E-04 -2.75424649079E-01 +8.92171535157E-01
1.39000000000E+09 -5.47422318651E-02 +8.77783705216E-01 +1.82954469175E-04 +1.56484275000E-04 +2.33021126211E-04 +1.50637057356E-04 -2.59521935670E-01 +8.93603196633E-01
1.39500000000E+09 -4.12088000495E-02 +8.73878229851E-01 +2.30813064731E-04 +2.49861450399E-04 +3.23944898593E-04 +2.54025290911E-04 -2.42651509343E-01 +8.94349858907E-01
1.40000000000E+09 -2.50840712078E-02 +8.68913089653E-01 +4.23461551247E-04 +2.77864599064E-04 +4.79225582358E-04 +2.14317699250E-04 -2.24902514155E-01 +8.94807246936E-01
1.40500000000E+09 -7.12113254513E-03 +8.63581416049E-01 +6.14519560716E-04 +1.30396149682E-04 +6.07147453747E-04 +7.61213040493E-05 -2.06044821495E-01 +8.94389895758E-01
1.41000000000E+09 +1.29450456871E-02 +8.57903441216E-01 +5.83011304874E-04 -1.27313458925E-04 +5.54871274031E-04 -1.28570958898E-04 -1.85993630301E-01 +8.93417724100E-01
1.41500000000E+09 +3.43977458296E-02 +8.51852620865E-01 +5.37179043376E-04 -1.21820350425E-04 +4.94005108862E-04 -1.56896010969E-04 -1.64409322296E-01 +8.91833637978E-01
1.42000000000E+09 +5.68465212090E-02 +8.45590058427E-01 +5.35795913240E-04 -2.63552216323E-04 +5.83260659530E-04 -2.52386228907E-04 -1.41770068308E-01 +8.88946099581E-01
1.42500000000E+09 +7.91852492604E-02 +8.37921171630E-01 +3.92194508314E-04 -3.88421422083E-04 +3.90332180791E-04 -4.97841966188E-04 -1.18277467344E-01 +8.85172174642E-01
1.43000000000E+09 +1.00565334763E-01 +8.28547096530E-01 +3.55232972368E-04 -3.29907235239E-04 +2.93375285403E-04 -4.50845737681E-04 -9.34954126873E-02 +8.80493831359E-01
1.43500000000E+09 +1.21178132128E-01 +8.17357891554E-01 +3.21730752189E-04 -4.15254320860E-04 +2.49270636013E-04 -4.45878402811E-04 -6.71549944591E-02 +8.73739892009E-01
1.44000000000E+09 +1.41516583035E-01 +8.04310569101E-01 +3.44376381467E-04 -4.24307707792E-04 +3.12307163435E-04 -4.50027403721E-04 -3.90994648606E-02 +8.65158152701E-01
1.44500000000E+09 +1.62449561925E-01 +7.88785705691E-01 +3.95518751864E-04 -7.10658463816E-04 +3.06340795538E-04 -7.18347964667E-04 -9.18783165109E-03 +8.53555885025E-01
1.45000000000E+09 +1.85006805719E-01 +7.70291286551E-01 -2.90683324685E-05 -7.90517657904E-04 +6.21768603565E-06 -8.53527940417E-04 +2.23594871892E-02 +8.38953671437E-01
1.45500000000E+09 +2.09166619740E-01 +7.48210075262E-01 -1.91828943323E-04 -7.70511498246E-04 -2.61977877364E-04 -7.51759937512E-04 +5.54795154857E-02 +8.21204777258E-01
1.46000000000E+09 +2.35108350633E-01 +7.22782613599E-01 -4.68602299550E-04 -6.17308339642E-04 -5.10048595634E-04 -5.70883559782E-04 +8.96479551476E-02 +7.99520387036E-01
1.46500000000E+09 +2.63270417335E-01 +6.93788534217E-01 -5.18962828483E-04 -1.95040000179E-04 -5.25039818427E-04 -1.60217656728E-04 +1.25611111163E-01 +7.73069929989E-01
1.47000000000E+09 +2.91903349177E-01 +6.60101238452E-01 -1.24430796939E-04 -1.10492760629E-04 -8.82522194753E-05 -8.07195430541E-05 +1.62358668464E-01 +7.39780253557E-01
1.47500000000E+09 +3.19875337155E-01 +6.21783044722E-01 -1.77205138628E-05 -3.74135970651E-04 -1.11502159770E-05 -3.40730859702E-04 +1.99299032336E-01 +6.99520254030E-01
1.48000000000E+09 +3.45393579681E-01 +5.77844004380E-01 -1.97405726009E-04 -6.57172571805E-04 -1.90301802889E-04 -6.78997970102E-04 +2.35667375232E-01 +6.50860266279E-01
1.48500000000E+09 +3.66556299813E-01 +5.28125965076E-01 -4.40223159107E-04 -6.67458715289E-04 -4.98330311070E-04 -6.57978466395E-04 +2.69869769970E-01 +5.92577865774E-01
1.49000000000E+09 +3.82277001074E-01 +4.71539608603E-01 -8.91567137821E-04 -4.77189545509E-04 -8.70028925753E-04 -4.79093786830E-04 +2.98089977311E-01 +5.24029468183E-01
1.49500000000E+09 +3.91113612644E-01 +4.07888149695E-01 -9.88955086508E-04 -3.30989404718E-04 -9.50632128264E-04 -2.88857453372E-04 +3.17570008161E-01 +4.45122307299E-01
1.50000000000E+09 +3.91304384594E-01 +3.35361259682E-01 -1.09517520451E-03 +2.37244756478E-04 -1.04825386602E-03 +2.74494369853E-04 +3.23938435329E-01 +3.56477417753E-01
1.50500000000E+09 +3.78903499333E-01 +2.55196081491E-01 -4.95008994076E-04 +6.37876336786E-04 -4.76765979294E-04 +6.09978130291E-04 +3.12642426043E-01 +2.59896896429E-01
1.51000000000E+09 +3.52111614094E-01 +1.70341291679E-01 -7.55378473045E-05 -1.83998522684E-05 -6.79269055552E-05 -4.09236328958E-05 +2.81179318156E-01 +1.61788221776E-01
1.51500000000E+09 +3.09389669565E-01 +8.45202256533E-02 -6.17603836269E-04 -1.47392127084E-04 -6.45698049453E-04 -1.00404321429E-04 +2.30671284942E-01 +6.51710233544E-02
1.52000000000E+09 +2.46542987048E-01 +3.19672140033E-03 -9.43127539278E-04 -7.65469727197E-05 -9.72356540137E-04 -1.50524665316E-04 +1.56232423285E-01 -2.32130101766E-02
1.52500000000E+09 +1.67099642226E-01 -6.33608372644E-02 -1.30576911319E-03 +7.04318881720E-04 -1.29070890808E-03 +6.58569626876E-04 +6.23154790809E-02 -9.24680640075E-02
1.53000000000E+09 +7.46788827609E-02 -1.12468795052E-01 -1.21022903686E-03 +1.28076439908E-03 -1.19817876180E-03 +1.30280395046E-03 -4.21705138290E-02 -1.39496415249E-01
1.53500000000E+09 -2.64605382937E-02 -1.39812329049E-01 +4.96278987512E-04 +1.95805187664E-03 +5.06629085746E-04 +1.92884736148E-03 -1.53158853811E-01 -1.63719362130E-01
1.54000000000E+09 -1.31943163626E-01 -1.42243755805E-01 +5.32248948645E-04 +6.12941401618E-04 +5.49772150098E-04 +6.71163651702E-04 -2.63595084317E-01 -1.62375993337E-01
1.54500000000E+09 -2.32476318671E-01 -1.21534976887E-01 +4.37356203826E-04 +7.22701777192E-04 +4.02655994966E-04 +6.95461759890E-04 -3.62480138807E-01 -1.40901905703E-01
1.55000000000E+09 -3.23207195500E-01 -8.28961525390E-02 +5.89905736203E-04 +1.95125857022E-04 +6.10266595646E-04 +2.02034933047E-04 -4.49990896531E-01 -1.05443172401E-01
1.55500000000E+09 -4.00329777415E-01 -3.26355183384E-02 -6.67686663491E-05 -1.30413083028E-05 -5.28856559481E-05 -2.83484480285E-05 -5.22765298919E-01 -5.83743137783E-02
1.56000000000E+09 -4.63206968264E-01 +2.29434874966E-02 -8.92613635519E-05 +1.09690685715E-03 -1.68400530505E-04 +1.10619597112E-03 -5.81331526606E-01 -6.16570294682E-03
1.56500000000E+09 -5.13705134300E-01 +7.94790122121E-02 +8.66101849104E-04 +1.05173236577E-03 +8.99583778606E-04 +1.14141449211E-03 -6.27432412736E-01 +4.94488996104E-02
1.57000000000E+09 -5.52368989846E-01 +1.35367216357E-01 +1.60620748708E-03 +6.13672746799E-05 +1.66445390494E-03 +5.04113273952E-05 -6.62456210231E-01 +1.04363954899E-01
