# Hz S RI R 50
! CMT, C1220, 16058040, 17.2.0/1
! Date: 14/08/2018 11:49:16
! Data: Format (Calibration Info)
! Freq                      S11: Re/Im (F2)                       S21: Re/Im (F2)                       S12: Re/Im (F2)                       S22: Re/Im (F2)            
1.00000000000E+09 -6.48197652080E-01 +7.14915284202E-01 -4.01167600674E-06 -3.76550325722E-06 -5.06681124967E-05 +2.54894398287E-05 -7.55078995694E-01 +6.24255190264E-01
1.00500000000E+09 -6.41223070985E-01 +7.20047051030E-01 +2.13979158870E-05 -2.44106809012E-05 +1.25925980351E-05 +4.27932964297E-06 -7.51423613229E-01 +6.28530476638E-01
1.01000000000E+09 -6.34975553906E-01 +7.24415718292E-01 -3.32506326827E-06 -1.03225641886E-05 +1.03465674147E-05 +1.95346506794E-05 -7.47952994527E-01 +6.32126203467E-01
1.01500000000E+09 -6.30367367506E-01 +7.28352025253E-01 +3.99718246799E-05 -4.59220855364E-06 -3.88525318018E-05 +1.63523002119E-05 -7.44359394764E-01 +6.36041525407E-01
1.02000000000E+09 -6.26621584144E-01 +7.31531810386E-01 -3.73082553359E-06 -1.64115795910E-05 +2.09172125654E-05 -4.18188423286E-05 -7.40865993710E-01 +6.39817816981E-01
1.02500000000E+09 -6.23844025138E-01 +7.34185047316E-01 -1.20869709647E-05 -3.88846017513E-06 -4.10237841753E-05 -1.64118061675E-05 -7.38067971473E-01 +6.43499921176E-01
1.03000000000E+09 -6.21537739617E-01 +7.36685032462E-01 -4.03892582280E-05 +9.25769408132E-06 -5.41084002237E-05 +5.92407679721E-05 -7.34467409394E-01 +6.47288051232E-01
1.03500000000E+09 -6.18569564423E-01 +7.39185139584E-01 -1.49607104702E-05 +3.38711837419E-06 +7.48575419987E-06 +8.43825113957E-06 -7.30925184218E-01 +6.51133216952E-01
1.04000000000E+09 -6.14341802079E-01 +7.41974071788E-01 -5.28225096742E-05 +1.16060001135E-05 +4.78929828032E-06 +6.43746889469E-05 -7.27197445192E-01 +6.54901496174E-01
1.04500000000E+09 -6.08901197207E-01 +7.45570336843E-01 -9.29174706318E-06 +6.10625109012E-05 -5.32136825711E-05 +3.87031438120E-05 -7.23629369839E-01 +6.58240483905E-01
1.05000000000E+09 -6.01917246350E-01 +7.49635915921E-01 +7.39770132247E-07 +4.37848893731E-05 -6.29108271115E-06 +5.03109176337E-05 -7.20167230469E-01 +6.61828345488E-01
1.05500000000E+09 -5.93853129387E-01 +7.54289837820E-01 +3.04616251921E-05 -2.13371563034E-05 +2.71292970591E-05 +3.28088623573E-05 -7.16838330069E-01 +6.65386965894E-01
1.06000000000E+09 -5.85190611744E-01 +7.59261959851E-01 +8.05586480226E-07 +2.31968214468E-05 -4.10522461104E-05 +2.63688811356E-05 -7.13658659171E-01 +6.69185942983E-01
1.06500000000E+09 -5.77106902865E-01 +7.64288942270E-01 -2.72839531237E-05 +2.61324195962E-05 -1.36199416213E-05 -7.24672899333E-06 -7.09974370470E-01 +6.72910373606E-01
1.07000000000E+09 -5.69957429647E-01 +7.68563666029E-01 +2.82429368798E-05 -1.54002528865E-05 -1.80600582378E-05 +9.13071434923E-06 -7.06028027236E-01 +6.76592297456E-01
1.07500000000E+09 -5.64341724434E-01 +7.72325244458E-01 +7.68233441802E-06 +2.32774551096E-05 +4.01565970150E-05 +1.63227993915E-05 -7.01731797634E-01 +6.80195373784E-01
1.08000000000E+09 -5.60351944321E-01 +7.75442188255E-01 +1.67826710480E-06 +4.05166504343E-05 +1.75926020200E-05 +3.28416283810E-05 -6.97738226555E-01 +6.84188848177E-01
1.08500000000E+09 -5.57677989474E-01 +7.77660381054E-01 +3.33023408446E-05 -1.18044997398E-05 +2.95687297858E-05 +4.48830721894E-05 -6.93736698970E-01 +6.87867126201E-01
1.09000000000E+09 -5.55565267242E-01 +7.79596479201E-01 -1.69057015430E-05 +1.96837160472E-05 +3.10223687774E-05 -1.64226888035E-06 -6.89829786127E-01 +6.91819160940E-01
1.09500000000E+09 -5.53571127163E-01 +7.81283843276E-01 +2.43553494374E-05 -2.32548258854E-05 +1.86771394855E-05 +4.14728384846E-05 -6.85816020628E-01 +6.95764524253E-01
1.10000000000E+09 -5.50385867877E-01 +7.83103608940E-01 -1.82774323159E-05 +2.03277692050E-05 +8.55101851092E-06 -1.66956211773E-05 -6.81934917328E-01 +6.99465934575E-01
1.10500000000E+09 -5.46188216210E-01 +7.85651754950E-01 +6.72706899630E-05 -8.69828495851E-06 +3.87279481795E-05 +2.75688848463E-05 -6.77771920037E-01 +7.03150915094E-01
1.11000000000E+09 -5.40321270376E-01 +7.88777144045E-01 +4.95990469660E-05 +1.92515515723E-05 -6.14781370701E-06 +6.53819373950E-05 -6.73733319619E-01 +7.06380896576E-01
1.11500000000E+09 -5.33297351299E-01 +7.92601085208E-01 +4.18091432769E-05 -6.61469533015E-06 +3.70876678770E-06 +4.01797963743E-05 -6.69403333705E-01 +7.09788751253E-01
1.12000000000E+09 -5.25541940433E-01 +7.96463458113E-01 +5.19191437496E-05 -4.89107197385E-05 +8.93198885852E-05 -4.89579188837E-06 -6.65217423130E-01 +7.13594705493E-01
1.12500000000E+09 -5.17691830937E-01 +8.00566997636E-01 +1.53337439448E-05 -8.86262237609E-07 -2.64466638125E-05 +4.25321278683E-05 -6.61027504543E-01 +7.17740667561E-01
1.13000000000E+09 -5.10692033827E-01 +8.04179684478E-01 +2.39374496675E-05 -2.99835897288E-05 +2.70587137708E-05 -1.20618589403E-05 -6.56716507365E-01 +7.21396724681E-01
1.13500000000E+09 -5.04362812384E-01 +8.07005066859E-01 -3.78973747486E-06 +1.04066821677E-05 +2.54810858612E-05 -7.78383173034E-06 -6.52280771650E-01 +7.25329614858E-01
1.14000000000E+09 -4.99220478394E-01 +8.09534869947E-01 +1.70316387435E-05 -1.84841566895E-05 +6.09144234667E-05 -8.01105887447E-06 -6.47604552620E-01 +7.28601193413E-01
1.14500000000E+09 -4.95178464655E-01 +8.11165664408E-01 +8.06402142441E-06 -1.09012194044E-05 +4.94364110560E-05 +7.26399483676E-06 -6.43027248071E-01 +7.32275569992E-01
1.15000000000E+09 -4.91325932501E-01 +8.12797814422E-01 +3.64781861571E-05 -2.58114787046E-05 +1.51397515068E-05 +2.54087142425E-06 -6.38239459677E-01 +7.35899443528E-01
1.15500000000E+09 -4.87331807996E-01 +8.14546961494E-01 +3.48272946981E-05 -6.77560989440E-06 +1.83462273471E-05 -2.31976455560E-05 -6.33471685865E-01 +7.39724452744E-01
1.16000000000E+09 -4.82297341628E-01 +8.16356481456E-01 +2.06164311113E-05 +5.18782532524E-06 +3.66404409153E-05 -3.47470098206E-05 -6.28614009339E-01 +7.43663283915E-01
1.16500000000E+09 -4.76295330631E-01 +8.19061886021E-01 +5.30481193256E-05 -8.17896982515E-06 +2.45960417065E-05 -8.29690733074E-06 -6.23471658463E-01 +7.47228265991E-01
1.17000000000E+09 -4.69103619878E-01 +8.22186252154E-01 +4.84978272188E-05 -5.93261638138E-05 +2.19671139853E-05 +9.45515773088E-06 -6.18141463732E-01 +7.50524040985E-01
1.17500000000E+09 -4.61110215712E-01 +8.25428490478E-01 +3.93146536370E-05 -3.96529780441E-06 +1.55691642546E-06 -3.02282820574E-05 -6.12438169445E-01 +7.53952208982E-01
1.18000000000E+09 -4.52830620324E-01 +8.29031260494E-01 +3.14861312801E-05 -2.03971151938E-05 +6.21637830762E-05 -3.85308963935E-05 -6.06975255055E-01 +7.57118293338E-01
1.18500000000E+09 -4.44758399660E-01 +8.32270250720E-01 +5.84555940539E-05 -7.48189416081E-05 +7.32840684233E-05 -1.25385625232E-06 -6.00850129760E-01 +7.60342765858E-01
1.19000000000E+09 -4.37354265354E-01 +8.35043346366E-01 +5.70051031895E-05 -5.13882979876E-05 +5.25559461909E-05 -9.87822937795E-05 -5.94631033553E-01 +7.63070231569E-01
1.19500000000E+09 -4.31157662962E-01 +8.37024470747E-01 +3.58875110608E-05 -1.17093972451E-04 -7.90786840585E-06 -1.11406482878E-04 -5.88528464308E-01 +7.64239212374E-01
1.20000000000E+09 -4.25992200877E-01 +8.37974013742E-01 -2.04631744540E-05 -1.42531982528E-04 -5.09542143634E-05 -1.61447931167E-04 -5.83994425257E-01 +7.64451405881E-01
1.20500000000E+09 -4.21282224630E-01 +8.39098379730E-01 -6.38542651725E-05 -1.11368826033E-04 -6.42159104433E-05 -1.03221366036E-04 -5.81692895300E-01 +7.65273639136E-01
1.21000000000E+09 -4.16533811772E-01 +8.40163972335E-01 -8.63360005923E-05 -1.95870114790E-05 -1.65498354902E-04 -1.38167270122E-05 -5.79800032274E-01 +7.68137008671E-01
1.21500000000E+09 -4.10827107363E-01 +8.41680671119E-01 -4.96478850824E-05 -4.84130003338E-05 -5.67717861601E-05 +2.50884299751E-05 -5.77157185807E-01 +7.72700862484E-01
1.22000000000E+09 -4.03802296327E-01 +8.43460757034E-01 -4.39929803254E-05 +1.26979602479E-05 -3.06305938745E-05 -1.23683819819E-05 -5.72904586778E-01 +7.78171318296E-01
1.22500000000E+09 -3.95241912333E-01 +8.46033728250E-01 -3.18821348003E-05 -6.66960694734E-06 +1.53917009936E-05 -4.09216981551E-05 -5.67898316051E-01 +7.83229961373E-01
1.23000000000E+09 -3.85916671804E-01 +8.48994585514E-01 +1.90957844750E-05 +1.33221048159E-05 -3.75272198147E-05 -3.63366234512E-05 -5.62194882991E-01 +7.88033103578E-01
1.23500000000E+09 -3.76112498373E-01 +8.52369132328E-01 -1.08051844862E-05 -2.53291563553E-05 -1.73752216106E-05 -5.03665603707E-05 -5.56240207453E-01 +7.92272807169E-01
1.24000000000E+09 -3.66634385995E-01 +8.56075187929E-01 -2.19118474717E-05 -4.93723013626E-05 -3.90414670521E-05 -5.35850824048E-05 -5.50303527408E-01 +7.96205812034E-01
1.24500000000E+09 -3.57977489148E-01 +8.59618243885E-01 -2.31618940517E-06 +1.97535931513E-05 -4.54701574458E-05 -4.07220763294E-05 -5.43927331446E-01 +8.00190279518E-01
1.25000000000E+09 -3.50194452192E-01 +8.62777197379E-01 -4.24467825217E-05 +1.57696888905E-05 -3.65004926974E-05 -3.90437738516E-05 -5.37363464343E-01 +8.04283828254E-01
1.25500000000E+09 -3.43435094338E-01 +8.64902253856E-01 -6.82614013019E-05 -3.06194110824E-05 -1.24732828326E-05 -3.62119205863E-05 -5.30516932853E-01 +8.08293876372E-01
1.26000000000E+09 -3.37343071435E-01 +8.66333414452E-01 -6.87203664407E-05 -1.12615027368E-05 -3.79251620872E-05 -1.71433691799E-06 -5.23599996608E-01 +8.12765590484E-01
1.26500000000E+09 -3.31451229227E-01 +8.67136116164E-01 -6.87451033744E-05 +3.48111704591E-05 -6.77971281560E-05 +1.43161789824E-05 -5.16649843289E-01 +8.16658363979E-01
1.27000000000E+09 -3.25138864960E-01 +8.67601279412E-01 -2.64224462460E-05 -3.14210166609E-05 -9.35104178163E-06 -2.29780608627E-05 -5.09902563579E-01 +8.20558539367E-01
1.27500000000E+09 -3.17319514512E-01 +8.68236326864E-01 -3.42240627871E-05 -4.65506805641E-05 -5.08999902152E-05 -2.23551509177E-05 -5.02740526996E-01 +8.24049516412E-01
1.28000000000E+09 -3.07697524819E-01 +8.69266928805E-01 -6.12565429599E-05 -1.93482830548E-05 -8.90245784580E-05 -2.97212671541E-05 -4.95868235513E-01 +8.27546015236E-01
1.28500000000E+09 -2.96409012020E-01 +8.70857310160E-01 -7.61398314573E-05 -3.00545128382E-06 -1.02578834251E-04 -4.70876763972E-05 -4.88415076749E-01 +8.31269830612E-01
1.29000000000E+09 -2.84203720766E-01 +8.73028063747E-01 -6.60843085402E-05 +2.17944575376E-05 -8.04220984057E-05 +1.76399557783E-05 -4.80972747826E-01 +8.35037430145E-01
1.29500000000E+09 -2.71723406139E-01 +8.75923830410E-01 -1.01933830550E-04 +3.04222237428E-05 -1.08344284969E-04 +2.54233855547E-05 -4.72810895688E-01 +8.38584510720E-01
1.30000000000E+09 -2.59719520181E-01 +8.79254483673E-01 -1.55516302611E-04 +3.08854991147E-05 -7.58869662985E-05 +3.01079831302E-05 -4.64821575916E-01 +8.42234911068E-01
1.30500000000E+09 -2.48984667952E-01 +8.82580105113E-01 -1.55407251704E-04 +4.26605457638E-05 -1.29509901164E-04 +2.46394104392E-05 -4.56743037363E-01 +8.45690163755E-01
1.31000000000E+09 -2.39545647984E-01 +8.85210180566E-01 -1.16796464291E-04 +8.30658776874E-05 -1.41443461859E-04 +7.14132980045E-05 -4.48417674667E-01 +8.49215686290E-01
1.31500000000E+09 -2.31989055609E-01 +8.86943661149E-01 -1.06208564081E-04 +1.00037041850E-04 -9.91854009776E-05 +1.35927526845E-04 -4.39562139848E-01 +8.52607056410E-01
1.32000000000E+09 -2.25750226602E-01 +8.87649283726E-01 -8.80171258926E-05 +1.17711205280E-04 -6.49919276254E-05 +8.23048985373E-05 -4.30282345606E-01 +8.56181266284E-01
1.32500000000E+09 -2.20132060616E-01 +8.87526947158E-01 -8.90346402470E-05 +1.23647421520E-04 -1.10446323793E-04 +1.29131134022E-04 -4.20617254352E-01 +8.59457664719E-01
1.33000000000E+09 -2.13698219524E-01 +8.87011118490E-01 -3.97152594020E-05 +1.42692834749E-04 -5.91551886739E-05 +1.16627708073E-04 -4.10754031299E-01 +8.62829648586E-01
1.33500000000E+09 -2.05412060950E-01 +8.86102746186E-01 -8.88942890730E-05 +1.46605828188E-04 -5.16998792088E-05 +1.63022074648E-04 -4.00762801290E-01 +8.66172589561E-01
1.34000000000E+09 -1.94662254486E-01 +8.85369796271E-01 -4.60161379500E-05 +1.53793591963E-04 -3.83356496328E-05 +1.70452222427E-04 -3.90494893251E-01 +8.69413760572E-01
1.34500000000E+09 -1.81612656826E-01 +8.84902030330E-01 -6.43477898921E-05 +1.08708176637E-04 -1.79391934102E-05 +8.77275957192E-05 -3.79557634856E-01 +8.72707389172E-01
1.35000000000E+09 -1.66400839828E-01 +8.84870327604E-01 -1.79868000292E-05 +1.71752646941E-04 -5.45747385681E-05 +1.51320683478E-04 -3.68405994773E-01 +8.75860440892E-01
1.35500000000E+09 -1.50085120421E-01 +8.85301491308E-01 -1.36409539059E-06 +1.75531032179E-04 +8.02213250678E-06 +1.90920131481E-04 -3.56707225662E-01 +8.78813814741E-01
1.36000000000E+09 -1.33508011675E-01 +8.86052224789E-01 -2.05361142808E-05 +2.04225463623E-04 -1.77800941112E-05 +2.18285905032E-04 -3.44715200310E-01 +8.81426476767E-01
1.36500000000E+09 -1.17696769800E-01 +8.86572447259E-01 +8.46739130101E-07 +2.51214265865E-04 +2.92961147233E-05 +2.36854894282E-04 -3.32226270049E-01 +8.83936086389E-01
1.37000000000E+09 -1.03562746258E-01 +8.86422549256E-01 +5.92348611799E-05 +3.18945298729E-04 +7.19538880904E-05 +3.32812533674E-04 -3.19356190755E-01 +8.86207199016E-01
1.37500000000E+09 -9.15886217357E-02 +8.85947846670E-01 +2.37272023903E-04 +2.89761215828E-04 +1.97698851462E-04 +2.83211509493E-04 -3.05587160024E-01 +8.88388548177E-01
1.38000000000E+09 -8.08771407831E-02 +8.84545390863E-01 +1.70052857653E-04 +1.06923279844E-04 +2.02015597314E-04 +1.78852222859E-04 -2.90969379249E-01 +8.90377646031E-01
1.38500000000E+09 -7.00898458665E-02 +8.82651365418E-01 +1.76726547454E-04 +2.00119934055E-04 +2.14497026004E-04 +1.89552117494E-04 -2.75545939848E-01 +8.92048359524E-01
1.39000000000E+09 -5.85799907810E-02 +8.79646324974E-01 +1.53378954505E-04 +1.90272247190E-04 +2.06070145193E-04 +2.27149491968E-04 -2.59524065735E-01 +8.93371737856E-01
1.39500000000E+09 -4.51873597373E-02 +8.75839923014E-01 +2.13957468294E-04 +2.58725977136E-04 +3.18796079491E-04 +2.37912431589E-04 -2.42663084623E-01 +8.94000606616E-01
1.40000000000E+09 -2.90644946591E-02 +8.71070280160E-01 +3.54109597833E-04 +2.90709929470E-04 +4.16510962569E-04 +2.42065870635E-04 -2.24904902285E-01 +8.94679308628E-01
1.40500000000E+09 -1.10067601910E-02 +8.65887010304E-01 +5.23013634888E-04 +1.58146463813E-04 +5.76847731865E-04 +1.09025162427E-04 -2.06096157354E-01 +8.94139108907E-01
1.41000000000E+09 +9.41684499715E-03 +8.60272290962E-01 +5.11102155599E-04 -9.20198502836E-05 +5.31997573074E-04 -2.43241720397E-05 -1.86034692538E-01 +8.93160002511E-01
1.41500000000E+09 +3.12265350838E-02 +8.54252789507E-01 +4.87737876618E-04 -7.96634411617E-05 +4.81630531270E-04 +5.16107226934E-06 -1.64463286186E-01 +8.91604795730E-01
1.42000000000E+09 +5.40074739640E-02 +8.48031172957E-01 +5.13710004384E-04 -2.08254475163E-04 +6.30829714333E-04 -2.46332180393E-04 -1.41821301640E-01 +8.88675923365E-01
1.42500000000E+09 +7.67154510173E-02 +8.40454636945E-01 +3.95415517646E-04 -3.28256586046E-04 +4.26143343262E-04 -3.94855140949E-04 -1.18323619667E-01 +8.85014530000E-01
1.43000000000E+09 +9.81529156202E-02 +8.31096983650E-01 +3.87433556523E-04 -2.60205459496E-04 +3.84217693531E-04 -2.93013984693E-04 -9.34593392685E-02 +8.80305578541E-01
1.43500000000E+09 +1.18782652796E-01 +8.20329769480E-01 +4.66270247044E-04 -3.66042150250E-04 +4.66373521552E-04 -4.32705862203E-04 -6.73682153588E-02 +8.73642760302E-01
1.44000000000E+09 +1.39076221258E-01 +8.07459343935E-01 +4.46181629387E-04 -4.41706239684E-04 +4.69534306289E-04 -5.06464963978E-04 -3.92058410288E-02 +8.64913861291E-01
1.44500000000E+09 +1.59788876657E-01 +7.92377983251E-01 +4.22743503734E-04 -7.75359407485E-04 +3.82704004248E-04 -7.98421042092E-04 -9.24987881488E-03 +8.53423235964E-01
1.45000000000E+09 +1.82344657099E-01 +7.74114793727E-01 +6.35608354260E-05 -8.64516204703E-04 +3.22618617678E-05 -8.73810786810E-04 +2.23526707946E-02 +8.38636478093E-01
1.45500000000E+09 +2.06576324174E-01 +7.52317653550E-01 -1.85698583315E-04 -7.74144771547E-04 -2.58575599656E-04 -7.78064606080E-04 +5.54955027536E-02 +8.20819452738E-01
1.46000000000E+09 +2.33157588648E-01 +7.27151391519E-01 -3.88072838860E-04 -6.52408974119E-04 -3.97336554783E-04 -6.11604055375E-04 +8.95475963455E-02 +7.99051659390E-01
1.46500000000E+09 +2.61533563612E-01 +6.97781337813E-01 -4.22188020377E-04 -2.92860741404E-04 -4.11160838651E-04 -2.91159539381E-04 +1.25330158623E-01 +7.72738561791E-01
1.47000000000E+09 +2.90651824900E-01 +6.64217824192E-01 -8.84018783554E-05 -2.68543429851E-04 -9.47307654935E-05 -2.35865976564E-04 +1.62285371204E-01 +7.39764622609E-01
1.47500000000E+09 +3.19264137065E-01 +6.25997300801E-01 -1.40602843036E-04 -5.29081907606E-04 -6.25863758818E-05 -5.09301477597E-04 +1.99415707067E-01 +6.99363661591E-01
1.48000000000E+09 +3.45209525601E-01 +5.82006032792E-01 -2.74801530377E-04 -6.38240052259E-04 -3.01976536733E-04 -6.68737510831E-04 +2.35927943837E-01 +6.50366499679E-01
1.48500000000E+09 +3.67238891665E-01 +5.32577850657E-01 -4.54720625267E-04 -5.80702551971E-04 -4.69576682882E-04 -6.20849136497E-04 +2.69773239029E-01 +5.91916430985E-01
1.49000000000E+09 +3.83898953556E-01 +4.76131943242E-01 -7.85859952830E-04 -3.81858501805E-04 -8.06397617899E-04 -3.62412464227E-04 +2.97780221337E-01 +5.23288141451E-01
1.49500000000E+09 +3.93606992613E-01 +4.12456177569E-01 -6.96830077069E-04 -3.27106805119E-04 -6.92173680151E-04 -2.68178389430E-04 +3.17205958950E-01 +4.44504131955E-01
1.50000000000E+09 +3.94708525077E-01 +3.39432903012E-01 -7.16281324790E-04 -1.31103624355E-04 -7.09003414091E-04 -3.03306791707E-05 +3.23518165335E-01 +3.55845129242E-01
1.50500000000E+09 +3.82948028124E-01 +2.58525773945E-01 -5.03329548930E-04 +3.17439866230E-05 -4.65037955998E-04 +5.97316320929E-05 +3.12354773018E-01 +2.59120739694E-01
1.51000000000E+09 +3.56879001131E-01 +1.72679677758E-01 -4.93083505818E-04 -5.02216844578E-04 -4.73994390522E-04 -4.91022929634E-04 +2.80298488891E-01 +1.60571601033E-01
1.51500000000E+09 +3.14639651784E-01 +8.50547399453E-02 -1.08769650088E-03 -3.42983550096E-04 -1.14182914272E-03 -3.81536315983E-04 +2.28643221066E-01 +6.43846212369E-02
1.52000000000E+09 +2.51454501351E-01 +2.02613773043E-03 -1.42110738145E-03 -1.55881845341E-04 -1.48941433923E-03 -1.45271627552E-04 +1.54353943382E-01 -2.27189556183E-02
1.52500000000E+09 +1.72037401120E-01 -6.66367911645E-02 -1.73142446526E-03 +7.79082390883E-04 -1.74541131925E-03 +7.44093415924E-04 +6.05990837687E-02 -9.17092956834E-02
1.53000000000E+09 +7.84794955188E-02 -1.17810412692E-01 -1.61617059984E-03 +1.58476372284E-03 -1.62494329639E-03 +1.56739806482E-03 -4.36499956759E-02 -1.37809476505E-01
1.53500000000E+09 -2.45272449939E-02 -1.46590168818E-01 +1.93300936074E-04 +2.23381359358E-03 +1.71760994594E-04 +2.21716263308E-03 -1.53275051556E-01 -1.61480242415E-01
1.54000000000E+09 -1.31628605527E-01 -1.49126291245E-01 +3.39853770169E-04 +1.03705797724E-03 +3.33182762993E-04 +1.06769891217E-03 -2.63231801476E-01 -1.60978311435E-01
1.54500000000E+09 -2.33399530652E-01 -1.28194780673E-01 +3.76999950902E-04 +1.16241833802E-03 +3.33763886391E-04 +1.16206113571E-03 -3.62007412834E-01 -1.39441266448E-01
1.55000000000E+09 -3.25415406697E-01 -8.89962275002E-02 +6.01485755816E-04 +7.20331660590E-04 +5.58474726625E-04 +7.13474852630E-04 -4.48865302789E-01 -1.04391279144E-01
1.55500000000E+09 -4.03717862616E-01 -3.77223194315E-02 +2.24483267798E-04 +4.75505534585E-04 +2.37945667678E-04 +5.01638207577E-04 -5.21606504428E-01 -5.80947343414E-02
1.56000000000E+09 -4.67449968711E-01 +1.87549803580E-02 +2.64735853013E-04 +1.22222758704E-03 +1.93943697782E-04 +1.27249638902E-03 -5.80329952392E-01 -6.02711219720E-03
1.56500000000E+09 -5.18754759202E-01 +7.64967555851E-02 +1.21096407014E-03 +1.13541065197E-03 +1.21177764526E-03 +1.23287624970E-03 -6.26424293158E-01 +4.94771505986E-02
1.57000000000E+09 -5.57847793249E-01 +1.33403518991E-01 +1.79513991319E-03 -2.05656815831E-05 +1.91640592267E-03 -5.55216419536E-05 -6.61527004013E-01 +1.04069708037E-01
