# Hz S RI R 50
! CMT, C1220, 16058040, 17.2.0/1
! Date: 14/08/2018 11:47:44
! Data: Format (Calibration Info)
! Freq                      S11: Re/Im (F2)                       S21: Re/Im (F2)                       S12: Re/Im (F2)                       S22: Re/Im (F2)            
1.00000000000E+09 -6.46775634568E-01 +7.15388237578E-01 +1.31348408970E-05 +2.74115537301E-05 -4.77233928479E-05 +5.54651325782E-06 -7.55162302127E-01 +6.24351874834E-01
1.00500000000E+09 -6.39636611707E-01 +7.20460174059E-01 -1.62109492446E-05 +1.34677272322E-05 +5.33793456551E-05 -2.17997908585E-05 -7.51667076461E-01 +6.28234825212E-01
1.01000000000E+09 -6.33358470621E-01 +7.25017020855E-01 -3.86315954833E-05 +2.31587078893E-05 +6.75762851870E-05 -4.35945184868E-05 -7.48021772028E-01 +6.32093525226E-01
1.01500000000E+09 -6.28553347432E-01 +7.28914781252E-01 +6.59688717374E-06 +5.41052684431E-06 +2.77544247760E-05 +2.44862702978E-05 -7.44630811257E-01 +6.35947365361E-01
1.02000000000E+09 -6.24928484076E-01 +7.32017205075E-01 +1.63471245980E-05 +1.65622094271E-05 -2.67014305426E-05 +4.37237259564E-05 -7.41191798839E-01 +6.39680171502E-01
1.02500000000E+09 -6.22106133254E-01 +7.34836174710E-01 -1.89317155472E-06 +1.42140851248E-05 +1.36790219808E-05 -2.75730588113E-05 -7.38195366633E-01 +6.43302587327E-01
1.03000000000E+09 -6.19944373267E-01 +7.37163960577E-01 -5.30529420544E-06 +2.09107876233E-05 -1.56322236082E-05 -2.55726280819E-05 -7.34665214655E-01 +6.47231599747E-01
1.03500000000E+09 -6.16977287721E-01 +7.39657485866E-01 -5.77959704555E-06 +5.89870108874E-05 +5.39577115361E-05 +1.89477768333E-05 -7.30994645443E-01 +6.51043125713E-01
1.04000000000E+09 -6.12690333379E-01 +7.42418272587E-01 +3.32752043831E-05 -1.34589606343E-05 +2.76823930287E-05 -3.73616500068E-06 -7.27472816566E-01 +6.54700216739E-01
1.04500000000E+09 -6.07150751429E-01 +7.45923297048E-01 -2.33569078960E-05 -2.63801188155E-05 -2.80287451354E-05 +2.89763903810E-05 -7.23824675597E-01 +6.58182104559E-01
1.05000000000E+09 -6.00185607674E-01 +7.50126463809E-01 -1.38262935997E-06 +1.65055451832E-05 -1.01109387362E-05 -3.40494092399E-06 -7.20296863261E-01 +6.61846452284E-01
1.05500000000E+09 -5.91952288062E-01 +7.54721939889E-01 -2.96705657985E-05 +1.07053843580E-05 -1.71735291727E-05 -1.04730726702E-05 -7.17077270580E-01 +6.65337703592E-01
1.06000000000E+09 -5.83224236288E-01 +7.59930533646E-01 -5.69435196680E-05 +6.04342390845E-06 -2.74960729708E-05 -2.74049026275E-05 -7.13888616961E-01 +6.69155712949E-01
1.06500000000E+09 -5.75086928512E-01 +7.64934904486E-01 -2.16840071102E-05 -1.06850597584E-05 -2.64419067210E-05 +1.52781878749E-05 -7.10206895900E-01 +6.72831799149E-01
1.07000000000E+09 -5.67875998559E-01 +7.69265258281E-01 -8.46266225843E-06 +4.53595000617E-05 +2.00940869360E-05 -4.61344066971E-05 -7.06299390935E-01 +6.76406867980E-01
1.07500000000E+09 -5.62140535049E-01 +7.72953671869E-01 +1.17298528934E-05 -4.27876897853E-06 -1.61107289687E-05 -1.92171958610E-05 -7.02112891531E-01 +6.80184459453E-01
1.08000000000E+09 -5.58160200328E-01 +7.76118725414E-01 +2.21590983294E-05 +3.15211175017E-05 +2.93521900395E-05 +6.69169090483E-06 -6.97970513371E-01 +6.84063352290E-01
1.08500000000E+09 -5.55492407496E-01 +7.78187427757E-01 +1.98244603908E-05 -3.48866497559E-05 -1.08180264277E-05 +2.54290053488E-05 -6.93852605932E-01 +6.87911453696E-01
1.09000000000E+09 -5.53216776428E-01 +7.80240937863E-01 +3.27151776778E-06 +1.80420588835E-05 +1.52820774795E-05 +1.81199580553E-05 -6.89881436586E-01 +6.91806225015E-01
1.09500000000E+09 -5.51311574789E-01 +7.81736716298E-01 +4.09234899895E-05 +2.72308720821E-05 -6.28210112500E-05 +6.12933070879E-06 -6.86100215305E-01 +6.95649674057E-01
1.10000000000E+09 -5.48157852041E-01 +7.83754906794E-01 +1.09760147727E-05 -2.73464930506E-05 +1.32878695854E-05 -4.54121341359E-06 -6.82228200127E-01 +6.99549523660E-01
1.10500000000E+09 -5.43907402668E-01 +7.86080248928E-01 +4.49906046629E-05 -5.26769835429E-07 +2.60246226877E-05 -2.58353219229E-05 -6.77967092292E-01 +7.03073197688E-01
1.11000000000E+09 -5.38025442472E-01 +7.89262920744E-01 +3.46353634716E-05 +9.98802570849E-06 +2.67303872625E-05 +3.08713233490E-05 -6.73644987292E-01 +7.06406566117E-01
1.11500000000E+09 -5.31110151757E-01 +7.93111790780E-01 +2.31105399854E-05 -1.08661049027E-05 +2.49290897958E-05 +3.97979645364E-05 -6.69616194501E-01 +7.10023014790E-01
1.12000000000E+09 -5.23181037822E-01 +7.97198706998E-01 +1.86676842458E-05 +1.71323762109E-05 +2.28704994561E-05 +8.42315285378E-06 -6.65400283465E-01 +7.13687080954E-01
1.12500000000E+09 -5.15221139323E-01 +8.01125433119E-01 +8.76714212864E-06 +8.45424440849E-06 +4.63285992260E-05 -7.51860372824E-06 -6.61315957329E-01 +7.17715719185E-01
1.13000000000E+09 -5.08226198570E-01 +8.04751477118E-01 +8.73012205687E-06 +2.10989372274E-05 -3.95884253719E-05 -3.34415351895E-06 -6.56959521738E-01 +7.21383836381E-01
1.13500000000E+09 -5.01843346355E-01 +8.07549738784E-01 +4.23739715887E-05 -2.86761992999E-06 -1.28257070950E-05 +1.96392283446E-05 -6.52525632252E-01 +7.25245131891E-01
1.14000000000E+09 -4.96812444864E-01 +8.10012161548E-01 +1.83202008848E-05 -3.12701042297E-05 -6.85370273852E-06 -3.50984702942E-05 -6.47840592212E-01 +7.28810834749E-01
1.14500000000E+09 -4.92657044389E-01 +8.11555893306E-01 -7.41270491842E-06 +4.94504260974E-06 +3.57165391755E-05 +2.83186657595E-05 -6.43278347357E-01 +7.32062665644E-01
1.15000000000E+09 -4.88707864732E-01 +8.13164188346E-01 +2.06800517715E-05 -3.45326911680E-05 +6.73894565191E-05 -7.09325487294E-06 -6.38554321298E-01 +7.35972953467E-01
1.15500000000E+09 -4.84815651603E-01 +8.14768498345E-01 +2.20591958898E-05 +7.43772693382E-06 +6.53714086356E-05 +2.73720710314E-06 -6.33680473657E-01 +7.39735442023E-01
1.16000000000E+09 -4.79787108931E-01 +8.16660614072E-01 +2.45100233183E-05 -1.33138181971E-05 +2.34765418127E-05 -4.30963870140E-05 -6.28676672273E-01 +7.43592619261E-01
1.16500000000E+09 -4.73726583765E-01 +8.19354868217E-01 +3.96838810486E-05 +4.12455291349E-05 +9.91324624839E-06 -2.11491000016E-05 -6.23804822467E-01 +7.47319677804E-01
1.17000000000E+09 -4.66462262416E-01 +8.22343861123E-01 +2.14589573815E-05 -3.79478660335E-05 +3.67091845896E-05 -3.66145627409E-05 -6.18348510533E-01 +7.50586358747E-01
1.17500000000E+09 -4.58414307182E-01 +8.25768305191E-01 +1.73826396022E-06 -1.07812898378E-05 -7.18150918175E-06 -8.05874357426E-05 -6.12628337309E-01 +7.53901491142E-01
1.18000000000E+09 -4.50221528913E-01 +8.29281666162E-01 +6.38376106041E-05 -6.58726608178E-05 +2.83928885307E-05 +2.19415272427E-05 -6.07036258418E-01 +7.57103900834E-01
1.18500000000E+09 -4.42076754900E-01 +8.32637232126E-01 +8.91768062947E-05 -4.90324932760E-05 +3.72086778505E-05 -3.44032387886E-05 -6.01126193611E-01 +7.60250643082E-01
1.19000000000E+09 -4.34586275464E-01 +8.35298623711E-01 +2.97663623488E-05 -6.26775152951E-05 +6.80099332910E-05 -8.56222097965E-05 -5.94529543107E-01 +7.63025642180E-01
1.19500000000E+09 -4.28353374371E-01 +8.37333397120E-01 -4.22817063982E-07 -1.19784326162E-04 +1.21346034376E-05 -1.49616029145E-04 -5.88653901933E-01 +7.64299610567E-01
1.20000000000E+09 -4.23071430938E-01 +8.38307099965E-01 -5.19973870654E-05 -1.54802111807E-04 -6.30752362398E-05 -1.26114517529E-04 -5.83995116722E-01 +7.64353089119E-01
1.20500000000E+09 -4.18355101065E-01 +8.39427669908E-01 -1.29593320401E-04 -2.43540626834E-05 -1.27441390741E-04 -1.07171040681E-04 -5.81811692828E-01 +7.65171979118E-01
1.21000000000E+09 -4.13473161595E-01 +8.40462613583E-01 -9.26468763150E-05 -8.15609025293E-08 -1.05786973293E-04 -6.98720509169E-06 -5.80054832584E-01 +7.68065702937E-01
1.21500000000E+09 -4.07680404173E-01 +8.41741222250E-01 -6.20329911264E-05 +4.87946310717E-05 -9.62238590595E-05 +2.31923606935E-05 -5.77361971545E-01 +7.72580503959E-01
1.22000000000E+09 -4.00480749430E-01 +8.43572430597E-01 -3.23611545266E-05 +2.11712244798E-07 +3.28372497985E-06 +8.16821186541E-05 -5.73185311164E-01 +7.78030535973E-01
1.22500000000E+09 -3.91987930493E-01 +8.45982892308E-01 -1.85152475964E-05 +2.49398106514E-05 -4.75413267552E-06 +2.03874004931E-05 -5.68021730604E-01 +7.83161763788E-01
1.23000000000E+09 -3.82506450556E-01 +8.48973929626E-01 -2.26916872471E-05 +2.07279010140E-05 +3.96671447239E-06 -3.67833395943E-05 -5.62236203088E-01 +7.87844695227E-01
1.23500000000E+09 -3.72945897476E-01 +8.52263294615E-01 +1.03527191926E-05 -2.56795512968E-05 +5.52471226084E-06 -1.76900397024E-05 -5.56323953715E-01 +7.92324872499E-01
1.24000000000E+09 -3.63188561436E-01 +8.55813508261E-01 -2.15576887097E-05 -4.07258540329E-05 -1.87802368938E-05 -4.98752355009E-06 -5.50421501088E-01 +7.96185594911E-01
1.24500000000E+09 -3.54659596321E-01 +8.59589987354E-01 -7.86775668692E-06 -9.77779813308E-06 -4.49769417996E-05 -6.42587081507E-05 -5.44051501687E-01 +8.00075595446E-01
1.25000000000E+09 -3.46915703386E-01 +8.62689246865E-01 -2.31855362444E-05 -1.56446101516E-05 -7.18349151173E-05 -6.92814707480E-06 -5.37462853031E-01 +8.04282369184E-01
1.25500000000E+09 -3.40175447740E-01 +8.64792333304E-01 -4.10112569835E-05 -5.32421620933E-06 -5.52500900427E-05 +4.52889870941E-05 -5.30600843550E-01 +8.08347011661E-01
1.26000000000E+09 -3.34171201499E-01 +8.66137060045E-01 -3.71612319884E-05 +8.27481008806E-06 -7.25433343067E-05 +1.84317523955E-05 -5.23834978926E-01 +8.12629200220E-01
1.26500000000E+09 -3.28284170945E-01 +8.66680378164E-01 -2.38498228943E-05 -9.08246888573E-06 -2.97231922141E-05 +3.30158164354E-05 -5.16832399155E-01 +8.16554207387E-01
1.27000000000E+09 -3.21929678195E-01 +8.67359828416E-01 -4.64929606308E-05 +1.37763077809E-05 -2.21966672047E-05 +2.77306255792E-05 -5.09901295799E-01 +8.20432776335E-01
1.27500000000E+09 -3.14105523771E-01 +8.67717767508E-01 -3.36822505681E-05 +1.49291245400E-06 -2.64142298337E-05 +1.16281554595E-05 -5.03017847123E-01 +8.23993979462E-01
1.28000000000E+09 -3.04559964790E-01 +8.68900868511E-01 -9.92201068360E-05 +1.12188952141E-05 -6.18349558950E-05 +1.55938463510E-05 -4.95959682710E-01 +8.27508373909E-01
1.28500000000E+09 -2.93282495279E-01 +8.70420899446E-01 -4.74001315505E-05 +6.01664689154E-05 -6.37584354686E-05 +1.08796769650E-05 -4.88612443384E-01 +8.31176966443E-01
1.29000000000E+09 -2.81133914974E-01 +8.72602712299E-01 -6.13082327880E-05 +4.94074990923E-05 -9.39371228682E-05 +4.33472808217E-05 -4.80905804973E-01 +8.35016043529E-01
1.29500000000E+09 -2.68649898049E-01 +8.75505184671E-01 -5.06115928272E-05 +6.44872586540E-05 -3.82511899631E-05 +6.41776505006E-05 -4.72972000623E-01 +8.38359368767E-01
1.30000000000E+09 -2.56531541783E-01 +8.78838883799E-01 -9.56353749299E-05 +4.81622380396E-05 -7.44459626848E-05 +4.68803967843E-05 -4.64945146185E-01 +8.42047537748E-01
1.30500000000E+09 -2.45698528174E-01 +8.82159582365E-01 -7.61710946617E-05 +3.84625368942E-05 -4.59460597829E-05 +5.21227835916E-05 -4.56859234163E-01 +8.45573797003E-01
1.31000000000E+09 -2.36270695177E-01 +8.84866171195E-01 -1.28665988683E-04 +8.61104512058E-05 -1.10643120796E-04 +6.86188555372E-05 -4.48473380794E-01 +8.48947663347E-01
1.31500000000E+09 -2.28766320521E-01 +8.86346362609E-01 -5.80144722478E-05 +6.61243259491E-05 -9.23869815717E-05 +9.06223716486E-05 -4.39606668190E-01 +8.52410909671E-01
1.32000000000E+09 -2.22574883681E-01 +8.87115027393E-01 -6.01164562746E-05 +7.55809972917E-05 -6.97844291725E-05 +1.04777126612E-04 -4.30592674036E-01 +8.56005929610E-01
1.32500000000E+09 -2.16972833299E-01 +8.86865491712E-01 -7.65960674950E-05 +1.75942007329E-04 -2.09717556596E-05 +7.15697364224E-05 -4.20757892070E-01 +8.59280960969E-01
1.33000000000E+09 -2.10556790331E-01 +8.86192145327E-01 -6.80290053916E-05 +1.08704518869E-04 -3.02556400255E-05 +1.49452186200E-04 -4.11025958911E-01 +8.62619207319E-01
1.33500000000E+09 -2.02394809681E-01 +8.85344454178E-01 -5.33353483897E-05 +1.66265030690E-04 +1.31006270412E-05 +1.21992725545E-04 -4.01129103869E-01 +8.65939273167E-01
1.34000000000E+09 -1.91867749652E-01 +8.84835684350E-01 -5.41305284731E-05 +1.47967741719E-04 -7.17220122247E-06 +1.30720839621E-04 -3.90719445249E-01 +8.69333787174E-01
1.34500000000E+09 -1.78634868825E-01 +8.84521003556E-01 -3.96451377318E-05 +1.28957945310E-04 -1.45433145667E-06 +1.20801048751E-04 -3.79952661476E-01 +8.72550508126E-01
1.35000000000E+09 -1.63669084108E-01 +8.84681476559E-01 -6.83335562067E-06 +1.93459603684E-04 -7.09863777868E-07 +1.78681627614E-04 -3.68725273087E-01 +8.75579269084E-01
1.35500000000E+09 -1.47305931198E-01 +8.85294457060E-01 +1.62737496496E-05 +2.05414097044E-04 +1.07249274584E-05 +1.75018221191E-04 -3.56958980204E-01 +8.78435383485E-01
1.36000000000E+09 -1.30701396765E-01 +8.86284705035E-01 +7.42131256852E-06 +2.11726147124E-04 +4.98610627025E-05 +2.26169978992E-04 -3.45064216660E-01 +8.81093920398E-01
1.36500000000E+09 -1.15016982585E-01 +8.86937273405E-01 +8.11908562194E-05 +2.45557145598E-04 +1.08001370767E-04 +2.11487608765E-04 -3.32854869849E-01 +8.83512455880E-01
1.37000000000E+09 -1.00902395392E-01 +8.86899072819E-01 +2.19338158488E-04 +3.08642147846E-04 +1.60805530802E-04 +2.58717542024E-04 -3.19910662952E-01 +8.85941942082E-01
1.37500000000E+09 -8.88891802700E-02 +8.86239823472E-01 +3.18820759305E-04 +1.87871338620E-04 +2.68891345917E-04 +1.87198475989E-04 -3.06156597167E-01 +8.88009162078E-01
1.38000000000E+09 -7.81501105785E-02 +8.84995834045E-01 +2.09550749548E-04 +6.57947170621E-05 +2.31497224297E-04 +1.14033693232E-04 -2.91600314870E-01 +8.90038122594E-01
1.38500000000E+09 -6.75544059472E-02 +8.83115648488E-01 +2.33341989279E-04 +8.56768028743E-05 +2.18444967661E-04 +1.24870369321E-04 -2.76328045467E-01 +8.91792109466E-01
1.39000000000E+09 -5.59342050453E-02 +8.80171985886E-01 +2.62551017270E-04 +1.07015445753E-04 +3.73403382107E-04 +1.21520619092E-04 -2.60418935671E-01 +8.93083590577E-01
1.39500000000E+09 -4.25603123824E-02 +8.76359097266E-01 +3.10763299184E-04 +1.20669634692E-04 +3.41807831080E-04 +7.79751866089E-05 -2.43609116457E-01 +8.93820454087E-01
1.40000000000E+09 -2.63637841696E-02 +8.71731674095E-01 +4.23530683883E-04 +4.43015723519E-05 +4.11638992511E-04 +1.43372287470E-05 -2.25913965498E-01 +8.94555557137E-01
1.40500000000E+09 -8.33775834766E-03 +8.66669868751E-01 +5.23222747340E-04 -5.21100134040E-05 +5.42289358108E-04 -3.01808269912E-05 -2.07234584194E-01 +8.94151595054E-01
1.41000000000E+09 +1.21320730539E-02 +8.61394969953E-01 +4.90143359523E-04 -2.24913677249E-04 +4.69836285830E-04 -2.20779175713E-04 -1.87387447252E-01 +8.93278007489E-01
1.41500000000E+09 +3.39634309123E-02 +8.55843502771E-01 +4.47390916877E-04 -2.65010180126E-04 +4.62417930684E-04 -3.07691574824E-04 -1.65908432842E-01 +8.91794940938E-01
1.42000000000E+09 +5.69992521318E-02 +8.49951998801E-01 +3.30754836253E-04 -4.00304611768E-04 +4.16624679172E-04 -4.36493809952E-04 -1.43198910052E-01 +8.89069792585E-01
1.42500000000E+09 +7.97059898363E-02 +8.42618706356E-01 +2.15923342490E-04 -3.19829533093E-04 +2.03142450964E-04 -4.19966689812E-04 -1.19821550920E-01 +8.85786348793E-01
1.43000000000E+09 +1.01218776309E-01 +8.33842851781E-01 +2.59032193530E-04 -2.94295824492E-04 +2.58069899804E-04 -3.81945079884E-04 -9.49246404699E-02 +8.81281958634E-01
1.43500000000E+09 +1.21933578849E-01 +8.23429019349E-01 +3.45242214386E-04 -4.63870883386E-04 +3.28616144131E-04 -4.58166383842E-04 -6.86024621136E-02 +8.74857191353E-01
1.44000000000E+09 +1.42264310690E-01 +8.11434015306E-01 +3.43936054236E-04 -6.22715633393E-04 +2.84406101289E-04 -6.29938882139E-04 -4.05980004427E-02 +8.66445563328E-01
1.44500000000E+09 +1.63894945196E-01 +7.97077559020E-01 +2.03712039908E-04 -8.41485357433E-04 +1.50416247088E-04 -9.56215162995E-04 -1.03888832762E-02 +8.55149740508E-01
1.45000000000E+09 +1.86988720883E-01 +7.79437173831E-01 -1.40829115060E-04 -8.86122303747E-04 -2.14691525717E-04 -8.87037047737E-04 +2.12032288564E-02 +8.40936105273E-01
1.45500000000E+09 +2.12048940247E-01 +7.58577641948E-01 -3.07034258092E-04 -8.07610836780E-04 -3.84535607558E-04 -7.50606022354E-04 +5.45257938211E-02 +8.23403708082E-01
1.46000000000E+09 +2.40017380032E-01 +7.34452762101E-01 -4.93832040678E-04 -7.22657078757E-04 -5.54405132634E-04 -6.59354834071E-04 +8.92243078178E-02 +8.01984567549E-01
1.46500000000E+09 +2.70316014960E-01 +7.05934201983E-01 -5.92435864284E-04 -4.58831279852E-04 -5.42270754835E-04 -4.22851961661E-04 +1.25391011895E-01 +7.75811510898E-01
1.47000000000E+09 +3.01998024854E-01 +6.72943878983E-01 -3.61044109861E-04 -4.95853634280E-04 -3.13668575074E-04 -4.69622575191E-04 +1.62764600378E-01 +7.43134939853E-01
1.47500000000E+09 +3.33509226446E-01 +6.34251998558E-01 -5.94271981975E-04 -7.05532082508E-04 -5.54551274045E-04 -7.15332070844E-04 +2.00804879760E-01 +7.02977643651E-01
1.48000000000E+09 +3.62357344057E-01 +5.89463718468E-01 -9.99656955554E-04 -4.86517972570E-04 -9.43817446132E-04 -5.68089177731E-04 +2.37910679305E-01 +6.53961473786E-01
1.48500000000E+09 +3.87335381534E-01 +5.38379024787E-01 -9.19635049772E-04 -3.60621286104E-04 -9.56231772146E-04 -3.32495915672E-04 +2.72618061826E-01 +5.95553412326E-01
1.49000000000E+09 +4.06869108619E-01 +4.79381537091E-01 -1.26054486045E-03 -1.81922782548E-04 -1.21277582479E-03 -1.36817350140E-04 +3.02014709586E-01 +5.26842022344E-01
1.49500000000E+09 +4.19103381815E-01 +4.12131141439E-01 -1.38890303933E-03 +4.42348592996E-05 -1.34140140874E-03 +1.11285028998E-04 +3.22982756517E-01 +4.47276008917E-01
1.50000000000E+09 +4.22033706984E-01 +3.34678282327E-01 -1.31793379748E-03 +7.51870618471E-04 -1.25751480383E-03 +7.14062450337E-04 +3.30383976350E-01 +3.56954732770E-01
1.50500000000E+09 +4.11392840899E-01 +2.48250309028E-01 -7.55703204001E-04 +9.46059256776E-04 -7.31609486560E-04 +9.04585735584E-04 +3.19884558378E-01 +2.58738488305E-01
1.51000000000E+09 +3.85119760320E-01 +1.56244015055E-01 -5.24776478490E-04 +5.60352435802E-04 -5.16508808756E-04 +5.79099857545E-04 +2.88565326788E-01 +1.57555926466E-01
1.51500000000E+09 +3.40449453003E-01 +6.19234721950E-02 -9.29338534013E-04 +6.42221246337E-04 -9.26906354088E-04 +5.73022811381E-04 +2.35930201361E-01 +5.87987902572E-02
1.52000000000E+09 +2.73700381626E-01 -2.67399183026E-02 -1.17561209699E-03 +9.39933988437E-04 -1.18544748427E-03 +9.81472128356E-04 +1.59792701894E-01 -3.08491181094E-02
1.52500000000E+09 +1.88249917189E-01 -1.01442687200E-01 -7.19095509977E-04 +1.88502193180E-03 -6.81156637977E-04 +1.88392223452E-03 +6.33226757636E-02 -1.00878014588E-01
1.53000000000E+09 +8.62229761546E-02 -1.55679867197E-01 -1.57019706726E-04 +2.07829926531E-03 -1.22737729866E-04 +2.11689006452E-03 -4.31703541148E-02 -1.47283562417E-01
1.53500000000E+09 -2.54250017604E-02 -1.84199980057E-01 +1.20006458688E-03 +2.00287250233E-03 +1.17479771230E-03 +2.02725584256E-03 -1.55429278254E-01 -1.71310209819E-01
1.54000000000E+09 -1.40209328276E-01 -1.84735408877E-01 +1.25971593334E-03 +1.15340315147E-03 +1.19922301412E-03 +1.11814486598E-03 -2.68159296496E-01 -1.69423164326E-01
1.54500000000E+09 -2.49084032070E-01 -1.59758298353E-01 +1.32753126110E-03 +8.84174976572E-04 +1.25333452529E-03 +9.07345823961E-04 -3.69132310247E-01 -1.46034521546E-01
1.55000000000E+09 -3.46876707286E-01 -1.14985194060E-01 +1.44904311909E-03 +3.52881841797E-04 +1.45329017773E-03 +4.18213754135E-04 -4.56746770374E-01 -1.08249482856E-01
1.55500000000E+09 -4.28525093540E-01 -5.67221757826E-02 +1.24446135808E-03 +1.25598604058E-06 +1.26086545464E-03 +5.20580867775E-05 -5.29558361049E-01 -5.97403710418E-02
1.56000000000E+09 -4.93839410151E-01 +6.59966664331E-03 +1.19321420462E-03 +3.34997800558E-05 +1.19046897603E-03 +1.78400951115E-04 -5.87736444860E-01 -5.64765885830E-03
1.56500000000E+09 -5.44185674659E-01 +7.02532373961E-02 +1.44019994808E-03 -1.14398198335E-04 +1.52009850228E-03 -8.80567299862E-05 -6.32838806672E-01 +5.10675720872E-02
1.57000000000E+09 -5.82173980920E-01 +1.31668510275E-01 +1.54884113598E-03 -1.04645468211E-03 +1.65991593775E-03 -1.13131427700E-03 -6.66837832993E-01 +1.06684167506E-01
