# Hz S DB R 50
! CMT, C1220, 16058040, 17.2.0/1
! Date: 14/08/2018 11:29:16
! Data: Format (Calibration Info)
! Freq                      S11: dB/Ang (F2)                      S21: dB/Ang (F2)                      S12: dB/Ang (F2)                      S22: dB/Ang (F2)           
1.00000000000E+09 -1.91643841112E-01 +1.34543311832E+02 -1.04899760496E+02 +1.31018597127E+01 -8.57582688310E+01 +1.05401228501E+02 -1.95066117395E-01 +1.39047195274E+02
1.00500000000E+09 -1.95442409522E-01 +1.34176167213E+02 -8.77555523106E+01 -2.31966906824E+01 -8.80846126037E+01 -1.25563537982E+02 -1.96613405209E-01 +1.38745318441E+02
1.01000000000E+09 -1.96267937742E-01 +1.33845759252E+02 -9.21241810105E+01 +1.22415732395E+02 -9.45004916222E+01 +1.04021749168E+02 -1.97830053187E-01 +1.38458402691E+02
1.01500000000E+09 -1.93586159011E-01 +1.33560704353E+02 -9.44897364363E+01 +7.17067680649E+01 -9.00779467091E+01 -8.98109008867E+01 -1.99613283068E-01 +1.38144899015E+02
1.02000000000E+09 -1.84646201526E-01 +1.33306606656E+02 -1.02520144216E+02 -1.63792026549E+02 -1.04736216872E+02 +1.02692358403E+02 -2.04806336903E-01 +1.37829058168E+02
1.02500000000E+09 -1.77043171884E-01 +1.33062541766E+02 -8.75950331696E+01 +5.72250181723E+01 -8.68705772069E+01 +5.18200986580E+01 -2.04106310419E-01 +1.37530731146E+02
1.03000000000E+09 -1.64839878363E-01 +1.32831269026E+02 -8.76838313260E+01 +8.55210259443E+01 -9.11414060496E+01 -9.86104741448E+01 -2.04712197569E-01 +1.37229994288E+02
1.03500000000E+09 -1.55435440816E-01 +1.32581423272E+02 -9.02731817384E+01 -1.60910961866E+02 -8.91902672570E+01 -1.31558950725E+02 -2.06007829636E-01 +1.36930646052E+02
1.04000000000E+09 -1.47569068295E-01 +1.32296526541E+02 -1.03570047176E+02 -1.78131188881E+02 -8.80979837761E+01 -7.59019232795E+01 -2.07676024216E-01 +1.36629461866E+02
1.04500000000E+09 -1.41498130738E-01 +1.31987490872E+02 -9.44219947430E+01 -5.13217847432E+01 -8.66625602916E+01 -4.01507312747E+01 -2.07943405737E-01 +1.36346304259E+02
1.05000000000E+09 -1.38774248712E-01 +1.31667653825E+02 -9.04197465282E+01 -1.66151575784E+02 -8.97281750211E+01 -1.47575211581E+02 -2.10081930216E-01 +1.36044706808E+02
1.05500000000E+09 -1.41306237106E-01 +1.31311500362E+02 -9.94532241157E+01 -8.32035135574E+01 -8.63294807869E+01 +6.16454603413E+00 -2.11809607502E-01 +1.35734501482E+02
1.06000000000E+09 -1.42928651024E-01 +1.30961080064E+02 -8.53586500701E+01 -7.46535717940E+00 -8.48320526177E+01 +3.57835816502E+01 -2.12596411703E-01 +1.35403708251E+02
1.06500000000E+09 -1.47140767856E-01 +1.30608204206E+02 -9.31587008184E+01 +3.59603278729E+01 -9.59798934889E+01 -1.79859559354E+02 -2.13395966011E-01 +1.35087076988E+02
1.07000000000E+09 -1.54671398565E-01 +1.30268468418E+02 -9.24808024965E+01 -1.75502797198E+02 -1.01157474413E+02 -5.92075504723E+01 -2.15072499410E-01 +1.34781574511E+02
1.07500000000E+09 -1.61391475427E-01 +1.29940776698E+02 -8.33528998199E+01 +1.07279668483E+02 -9.06891338697E+01 -9.57203638249E+01 -2.18148880812E-01 +1.34468813644E+02
1.08000000000E+09 -1.63404591922E-01 +1.29615655038E+02 -9.12586276921E+01 -1.60522447292E+02 -1.11455563328E+02 +1.43149703824E+02 -2.17717817628E-01 +1.34165923618E+02
1.08500000000E+09 -1.64372889474E-01 +1.29299757784E+02 -8.79284042082E+01 +1.46858080196E+02 -8.86923626139E+01 -1.43770924630E+02 -2.20494804270E-01 +1.33847915274E+02
1.09000000000E+09 -1.62026990494E-01 +1.28981673697E+02 -9.31746118880E+01 +1.55041072863E+02 -9.84498261854E+01 +3.29261811941E+01 -2.22793922912E-01 +1.33517419847E+02
1.09500000000E+09 -1.57148900189E-01 +1.28662596628E+02 -1.08846938725E+02 -1.04433992034E+02 -8.60948043718E+01 +8.76199281612E+01 -2.24246436391E-01 +1.33191787653E+02
1.10000000000E+09 -1.56465692073E-01 +1.28303323636E+02 -1.03137689903E+02 -5.73737592319E+01 -8.90826939337E+01 +3.87402588006E+01 -2.25887120914E-01 +1.32863817834E+02
1.10500000000E+09 -1.54085104147E-01 +1.27945148762E+02 -8.87019841805E+01 -1.11791200414E+02 -9.04612029205E+01 -4.98186532043E+01 -2.27684738010E-01 +1.32541396865E+02
1.11000000000E+09 -1.54762510388E-01 +1.27565602987E+02 -8.82376488197E+01 +8.63830933255E+01 -9.04056113090E+01 +8.38099261734E+01 -2.30160699153E-01 +1.32214316448E+02
1.11500000000E+09 -1.57192170337E-01 +1.27179057459E+02 -9.37188939546E+01 -2.05222184251E+01 -8.83629164106E+01 -1.75889696327E+01 -2.32258701537E-01 +1.31888179951E+02
1.12000000000E+09 -1.61214554624E-01 +1.26804123670E+02 -8.84693329730E+01 +6.30532634774E+00 -9.04222487684E+01 -1.69122567787E+02 -2.32974816160E-01 +1.31558819594E+02
1.12500000000E+09 -1.68910092958E-01 +1.26419672222E+02 -9.34703251060E+01 +8.19519348314E+01 -9.42864895909E+01 -5.29177348204E+01 -2.34628899136E-01 +1.31217747503E+02
1.13000000000E+09 -1.76476745105E-01 +1.26061101786E+02 -1.02424849185E+02 +2.01811995692E+01 -9.04183627170E+01 -1.59909398794E+02 -2.37461202499E-01 +1.30875167398E+02
1.13500000000E+09 -1.87734749342E-01 +1.25717187966E+02 -9.66818668710E+01 -1.52230366627E+01 -8.71135173351E+01 +7.54849376135E+01 -2.39809309624E-01 +1.30524684431E+02
1.14000000000E+09 -1.97076323449E-01 +1.25363213488E+02 -9.60803186900E+01 +1.71090900170E+02 -1.01500529896E+02 -1.13074322106E+02 -2.43299305742E-01 +1.30195002441E+02
1.14500000000E+09 -2.04977606916E-01 +1.25013470317E+02 -9.09008770771E+01 -2.10766759770E+01 -1.11754085393E+02 -2.70504370800E+01 -2.46752560947E-01 +1.29861378964E+02
1.15000000000E+09 -2.10980112661E-01 +1.24633603188E+02 -1.00976840757E+02 -3.15413245736E+01 -8.86796919499E+01 -7.03167260728E+01 -2.49900915948E-01 +1.29509442697E+02
1.15500000000E+09 -2.13644576015E-01 +1.24237372035E+02 -9.18662799514E+01 +1.67300533426E+02 -8.60954469263E+01 -8.96026835354E+01 -2.53312424833E-01 +1.29143231223E+02
1.16000000000E+09 -2.16941227248E-01 +1.23818804541E+02 -9.33590812226E+01 -4.86208495809E+01 -8.77068835314E+01 -7.17658850109E+01 -2.55937849874E-01 +1.28774290445E+02
1.16500000000E+09 -2.20206322451E-01 +1.23380243481E+02 -9.08251347756E+01 -4.31490650746E+01 -8.85429803617E+01 -2.59737513706E+01 -2.60971750695E-01 +1.28400044683E+02
1.17000000000E+09 -2.21692655584E-01 +1.22942994820E+02 -1.01157990280E+02 +8.18562929784E+01 -8.92652425760E+01 -1.20652002737E+02 -2.69660470875E-01 +1.28013709284E+02
1.17500000000E+09 -2.24761384677E-01 +1.22521887560E+02 -9.30049170438E+01 +2.19007606789E+01 -8.64213022414E+01 -4.40341565120E+01 -2.78976060698E-01 +1.27629959103E+02
1.18000000000E+09 -2.28332664580E-01 +1.22100228330E+02 -1.00661632736E+02 -6.19000554224E+01 -9.03733150326E+01 -2.17446981173E+01 -2.90157313433E-01 +1.27261939469E+02
1.18500000000E+09 -2.32876848419E-01 +1.21709324924E+02 -8.80097967259E+01 -1.36848524427E+01 -1.02751464685E+02 -1.17429223774E+01 -3.04840447612E-01 +1.26872155471E+02
1.19000000000E+09 -2.40224459238E-01 +1.21328898828E+02 -9.14194407171E+01 +1.23582700478E+02 -8.32371563275E+01 -6.38088721707E+01 -3.24182735811E-01 +1.26507080788E+02
1.19500000000E+09 -2.46088685621E-01 +1.20995238477E+02 -8.98145920170E+01 -7.86881759927E+01 -8.32778019906E+01 -9.75232922093E+01 -3.45224014976E-01 +1.26226992465E+02
1.20000000000E+09 -2.54351487976E-01 +1.20674635720E+02 -8.36435320812E+01 -1.59546890887E+02 -8.88582299169E+01 -9.64799008206E+01 -3.59981553296E-01 +1.26038978974E+02
1.20500000000E+09 -2.54876073565E-01 +1.20337789192E+02 -8.24890264050E+01 -1.25758979485E+02 -8.53177874304E+01 -1.15513803837E+02 -3.57770169123E-01 +1.25881598848E+02
1.21000000000E+09 -2.53107682846E-01 +1.19969111662E+02 -8.15986641223E+01 -1.27361960314E+02 -8.76402442620E+01 -1.01025617786E+02 -3.43888578174E-01 +1.25633664532E+02
1.21500000000E+09 -2.51669138415E-01 +1.19541256745E+02 -8.22827831534E+01 -9.87954332786E+01 -8.62227518767E+01 -1.48311413695E+02 -3.30697981403E-01 +1.25310341624E+02
1.22000000000E+09 -2.51650914389E-01 +1.19083376260E+02 -8.97030901598E+01 -1.18926362114E+02 -8.21908619965E+01 -1.55445060901E+02 -3.18780881085E-01 +1.24896919997E+02
1.22500000000E+09 -2.53376989326E-01 +1.18585440699E+02 -8.10149698426E+01 -1.35285220937E+02 -8.44218982086E+01 +1.78352145468E+02 -3.14256413307E-01 +1.24452375356E+02
1.23000000000E+09 -2.57838100626E-01 +1.18079635255E+02 -8.89008113138E+01 +1.66975801044E+02 -8.67988560569E+01 -1.50662028100E+02 -3.11503532360E-01 +1.24001920780E+02
1.23500000000E+09 -2.62370130218E-01 +1.17571895157E+02 -8.56118082019E+01 -1.35590189182E+02 -8.45377209812E+01 -1.39069115073E+02 -3.08963873217E-01 +1.23568333361E+02
1.24000000000E+09 -2.69136703791E-01 +1.17060287811E+02 -7.91365513946E+01 +1.55427142152E+02 -8.05364723674E+01 +1.66912923462E+02 -3.10497407505E-01 +1.23159885837E+02
1.24500000000E+09 -2.73391259923E-01 +1.16565801221E+02 -7.99851627618E+01 +1.73554466172E+02 -8.19507932068E+01 +1.39725361261E+02 -3.12928354205E-01 +1.22743494356E+02
1.25000000000E+09 -2.80654514795E-01 +1.16091948942E+02 -8.01307392847E+01 +1.53466431040E+02 -7.97691255946E+01 +1.22369930285E+02 -3.14957556578E-01 +1.22310129862E+02
1.25500000000E+09 -2.89776362844E-01 +1.15642886430E+02 -7.88505499603E+01 +1.28603740506E+02 -8.21143737539E+01 +1.54689495126E+02 -3.19830929883E-01 +1.21838979056E+02
1.26000000000E+09 -2.95132334664E-01 +1.15209486622E+02 -7.95515385210E+01 +1.20663101092E+02 -8.17642389529E+01 +1.44943199299E+02 -3.23842359088E-01 +1.21343146395E+02
1.26500000000E+09 -2.97390993996E-01 +1.14772831804E+02 -7.69915911060E+01 +1.21829689070E+02 -8.09366349481E+01 +1.05526944913E+02 -3.30394444688E-01 +1.20863426648E+02
1.27000000000E+09 -2.95167011082E-01 +1.14335612916E+02 -8.12555724365E+01 +1.22588724589E+02 -7.84033512536E+01 +9.88723573872E+01 -3.32866889763E-01 +1.20392224689E+02
1.27500000000E+09 -2.90342597167E-01 +1.13879452079E+02 -7.91031518427E+01 +1.04803928612E+02 -7.73557314999E+01 +1.01830167725E+02 -3.36764581459E-01 +1.19935387866E+02
1.28000000000E+09 -2.82989185535E-01 +1.13403449589E+02 -7.82739997205E+01 +7.93429788719E+01 -8.44690171405E+01 +9.59952665439E+01 -3.42616589874E-01 +1.19484185265E+02
1.28500000000E+09 -2.74974522304E-01 +1.12899835547E+02 -7.98371812766E+01 +8.07338606981E+01 -8.15377963966E+01 +8.12977937570E+01 -3.47538936810E-01 +1.19020298577E+02
1.29000000000E+09 -2.69075712393E-01 +1.12384345901E+02 -8.09748660970E+01 +6.17306470119E+01 -7.65798187875E+01 +6.95046824853E+01 -3.54338029067E-01 +1.18525414279E+02
1.29500000000E+09 -2.64406202293E-01 +1.11849043080E+02 -8.21923497882E+01 +7.17465415854E+01 -7.99033429506E+01 +6.51451182826E+01 -3.64082348413E-01 +1.17989487998E+02
1.30000000000E+09 -2.66326968002E-01 +1.11294896894E+02 -7.77139314070E+01 +5.30916791861E+01 -7.79272564523E+01 +2.27930967851E+01 -3.71732559300E-01 +1.17444690483E+02
1.30500000000E+09 -2.74381550349E-01 +1.10752167173E+02 -8.18628038193E+01 +4.60544221017E+01 -7.88826649832E+01 +2.60347061095E+01 -3.79832017468E-01 +1.16909616985E+02
1.31000000000E+09 -2.90393712759E-01 +1.10203336385E+02 -8.04536341845E+01 +1.59072045193E+01 -7.76163898158E+01 +4.72714106858E+01 -3.87566695361E-01 +1.16375737333E+02
1.31500000000E+09 -3.06211129984E-01 +1.09676327863E+02 -8.20378149619E+01 +4.66774087168E+01 -8.11440725366E+01 +3.07936463825E+01 -3.95664422174E-01 +1.15845792419E+02
1.32000000000E+09 -3.22490785998E-01 +1.09120705305E+02 -8.33759272931E+01 +3.34510018660E+01 -7.99634850433E+01 +3.91895493931E+00 -4.05479710217E-01 +1.15292777248E+02
1.32500000000E+09 -3.38538311751E-01 +1.08537052527E+02 -8.03726114128E+01 +2.81942579925E+01 -7.97025174587E+01 +2.38003105753E+01 -4.18087533609E-01 +1.14692509949E+02
1.33000000000E+09 -3.53363037796E-01 +1.07888885925E+02 -7.97784040067E+01 +3.61463453812E+01 -8.17825503018E+01 +9.66078239759E+00 -4.29578379607E-01 +1.14074225011E+02
1.33500000000E+09 -3.68547233025E-01 +1.07193546732E+02 -7.86310889909E+01 +3.87000902698E+00 -7.74795668121E+01 +5.55289795019E+00 -4.42173675748E-01 +1.13430252727E+02
1.34000000000E+09 -3.81300755630E-01 +1.06430345890E+02 -7.64002849814E+01 -1.24638589739E+01 -7.60755019783E+01 -1.64984094507E+01 -4.54419376297E-01 +1.12785382553E+02
1.34500000000E+09 -3.97025843989E-01 +1.05603672618E+02 -7.88018519241E+01 -2.64171855748E+01 -8.07786484577E+01 -1.85679491084E+01 -4.68069240649E-01 +1.12127031804E+02
1.35000000000E+09 -4.14528694077E-01 +1.04738824147E+02 -7.97907747774E+01 -2.52376800117E+01 -8.32583263422E+01 -1.04161084563E+01 -4.82125893777E-01 +1.11474131142E+02
1.35500000000E+09 -4.34573248631E-01 +1.03851093493E+02 -7.98797162060E+01 -2.21383615880E+01 -7.92735569442E+01 -4.24276231264E+01 -5.01859239286E-01 +1.10775885941E+02
1.36000000000E+09 -4.58678751372E-01 +1.02942881401E+02 -7.86104287269E+01 -2.19991076742E+01 -7.68665912484E+01 -2.02909398237E+01 -5.21268542521E-01 +1.10062767056E+02
1.36500000000E+09 -4.84201480677E-01 +1.02020201299E+02 -7.90143691615E+01 -2.74117689716E+01 -7.85087848320E+01 -1.03797041673E+01 -5.42695004597E-01 +1.09284085582E+02
1.37000000000E+09 -5.11820358183E-01 +1.01093805298E+02 -7.35670709044E+01 -4.01706421241E+01 -7.57489242141E+01 -3.99363175100E+01 -5.65629654786E-01 +1.08481043413E+02
1.37500000000E+09 -5.37107331513E-01 +1.00166816114E+02 -7.50822047413E+01 -5.47673398497E+01 -7.61752485274E+01 -4.75903036390E+01 -5.89868046867E-01 +1.07629179530E+02
1.38000000000E+09 -5.64891435436E-01 +9.92107874933E+01 -7.46637103036E+01 -5.86127379254E+01 -7.54828740968E+01 -5.56704968440E+01 -6.17989224697E-01 +1.06756829527E+02
1.38500000000E+09 -5.91554082417E-01 +9.82258725022E+01 -7.45302297654E+01 -6.60567972675E+01 -7.26166693821E+01 -6.53572894736E+01 -6.48361688887E-01 +1.05837465298E+02
1.39000000000E+09 -6.19397837775E-01 +9.72219260801E+01 -7.40796133908E+01 -6.82126081803E+01 -7.33064464016E+01 -7.17823032445E+01 -6.81785063923E-01 +1.04886132760E+02
1.39500000000E+09 -6.49173236080E-01 +9.61727455297E+01 -7.42033440457E+01 -7.46213406996E+01 -7.13498329939E+01 -7.60887097216E+01 -7.21125048049E-01 +1.03867121575E+02
1.40000000000E+09 -6.80737314236E-01 +9.50729709786E+01 -7.18168857652E+01 -8.11133152210E+01 -7.14617377522E+01 -8.88846968623E+01 -7.62625429317E-01 +1.02790459128E+02
1.40500000000E+09 -7.18690285088E-01 +9.39423696443E+01 -7.20500062843E+01 -9.49555940870E+01 -7.06896554364E+01 -1.02985443836E+02 -8.08958609664E-01 +1.01680409289E+02
1.41000000000E+09 -7.64334660639E-01 +9.27545214917E+01 -6.96062971815E+01 -1.02554208614E+02 -7.07340221848E+01 -1.05989737469E+02 -8.58257671873E-01 +1.00511089677E+02
1.41500000000E+09 -8.21389240126E-01 +9.15275375786E+01 -6.96178504847E+01 -1.12626945176E+02 -6.87822061001E+01 -1.02232807481E+02 -9.17058754556E-01 +9.92651006718E+01
1.42000000000E+09 -8.89055838511E-01 +9.02400323908E+01 -6.81279011193E+01 -1.26668290558E+02 -6.75541617120E+01 -1.25183362340E+02 -9.85937011339E-01 +9.79400520744E+01
1.42500000000E+09 -9.65685322331E-01 +8.89385721410E+01 -6.72803881922E+01 -1.32585072459E+02 -6.61557599995E+01 -1.31412385799E+02 -1.06398004295E+00 +9.65088466498E+01
1.43000000000E+09 -1.04741925793E+00 +8.75584223886E+01 -6.61221057766E+01 -1.42913768615E+02 -6.49339398159E+01 -1.50997571522E+02 -1.15073708749E+00 +9.49466962406E+01
1.43500000000E+09 -1.13446376710E+00 +8.60685872038E+01 -6.54041492418E+01 -1.63153718959E+02 -6.42077465380E+01 -1.67420954897E+02 -1.25059973499E+00 +9.32739719280E+01
1.44000000000E+09 -1.22408832818E+00 +8.44397554098E+01 -6.48710764221E+01 -1.76728919105E+02 -6.42987592070E+01 +1.75107775810E+02 -1.36316149721E+00 +9.14744458671E+01
1.44500000000E+09 -1.32128019212E+00 +8.25844443174E+01 -6.47842337616E+01 +1.71466267400E+02 -6.52838818013E+01 +1.66593162128E+02 -1.49605540068E+00 +8.95485188525E+01
1.45000000000E+09 -1.43554352222E+00 +8.05240152839E+01 -6.42594561468E+01 +1.64337214058E+02 -6.36641534577E+01 +1.59144821003E+02 -1.65518796295E+00 +8.74678464439E+01
1.45500000000E+09 -1.57041854814E+00 +7.82807009624E+01 -6.27198466085E+01 +1.49764044769E+02 -6.30830773504E+01 +1.47793371667E+02 -1.84198094568E+00 +8.51879688173E+01
1.46000000000E+09 -1.72667281903E+00 +7.58034912595E+01 -6.19239510732E+01 +1.35752719195E+02 -6.25033800012E+01 +1.28783170086E+02 -2.07014143948E+00 +8.26545788499E+01
1.46500000000E+09 -1.91270084520E+00 +7.30878250209E+01 -6.18595899919E+01 +1.16041858239E+02 -6.26909897414E+01 +1.13663217651E+02 -2.34230780195E+00 +7.98482346797E+01
1.47000000000E+09 -2.14107072946E+00 +7.00622842115E+01 -6.22722016128E+01 +1.03822840070E+02 -6.27662761416E+01 +1.08140827445E+02 -2.67133744080E+00 +7.67396667241E+01
1.47500000000E+09 -2.42412834913E+00 +6.67106263934E+01 -6.26157070939E+01 +1.00558543512E+02 -6.24970949705E+01 +1.00130771855E+02 -3.06843881861E+00 +7.33219255753E+01
1.48000000000E+09 -2.77594645597E+00 +6.29817589693E+01 -6.10540356405E+01 +8.57366959888E+01 -6.11618311144E+01 +8.85121966937E+01 -3.55712816070E+00 +6.95529434573E+01
1.48500000000E+09 -3.21136005158E+00 +5.88349659466E+01 -6.05451303475E+01 +7.32891975138E+01 -6.02218320063E+01 +7.47954344477E+01 -4.17093467508E+00 +6.53703933402E+01
1.49000000000E+09 -3.74509728145E+00 +5.41412638272E+01 -6.03078203319E+01 +5.80126812587E+01 -6.02146163524E+01 +5.52983595300E+01 -4.94953623555E+00 +6.06955589842E+01
1.49500000000E+09 -4.40171285870E+00 +4.88093156967E+01 -5.97103726250E+01 +5.00684271388E+01 -6.02463030279E+01 +4.70542144556E+01 -5.95266020872E+00 +5.54155590652E+01
1.50000000000E+09 -5.22482341084E+00 +4.26281909249E+01 -5.90511626177E+01 +3.44889062893E+01 -5.99919480966E+01 +3.67628890149E+01 -7.26734570500E+00 +4.94650229775E+01
1.50500000000E+09 -6.25349644255E+00 +3.54236211763E+01 -5.86409043409E+01 +2.34964852480E+01 -5.84250591175E+01 +2.47525664836E+01 -9.01873630929E+00 +4.26012311852E+01
1.51000000000E+09 -7.58314281906E+00 +2.67161282405E+01 -5.85488858086E+01 +4.14669557984E+00 -5.87354194287E+01 +8.67502203551E+00 -1.14631759466E+01 +3.43154686023E+01
1.51500000000E+09 -9.30480106302E+00 +1.59931274596E+01 -5.75688683884E+01 +2.82992783139E+00 -5.72627432757E+01 +6.29994390305E+00 -1.51638045214E+01 +2.28469036978E+01
1.52000000000E+09 -1.15662406915E+01 +1.34811645938E+00 -5.57777193035E+01 -2.05863211154E+01 -5.55345360748E+01 -1.92844980913E+01 -2.16932133099E+01 -1.76213989706E+00
1.52500000000E+09 -1.44773392975E+01 -2.12784630109E+01 -5.54359200892E+01 -3.81680469301E+01 -5.53968610907E+01 -3.80999863659E+01 -2.50767689783E+01 -1.00635711059E+02
1.53000000000E+09 -1.70582372520E+01 -5.93538128037E+01 -5.44551034675E+01 -6.10349700310E+01 -5.45890110579E+01 -6.04053586656E+01 -1.70874810936E+01 -1.42241829440E+02
1.53500000000E+09 -1.62926018983E+01 -1.04741242130E+02 -5.46504962301E+01 -8.63041234245E+01 -5.44887305346E+01 -8.65833913325E+01 -1.26963565810E+01 -1.55917016613E+02
1.54000000000E+09 -1.33064837250E+01 -1.34248153244E+02 -5.61311882326E+01 -1.10544946305E+02 -5.61368694925E+01 -1.10468649981E+02 -9.93544060269E+00 -1.64824221228E+02
1.54500000000E+09 -1.06132647577E+01 -1.51893670337E+02 -5.74648764870E+01 -1.26400869905E+02 -5.75226023060E+01 -1.25560545703E+02 -8.01257428262E+00 -1.71920407654E+02
1.55000000000E+09 -8.56118445961E+00 -1.64168927016E+02 -5.89696818290E+01 -1.44755108781E+02 -5.90427284570E+01 -1.42550237952E+02 -6.59897364158E+00 -1.77985600128E+02
1.55500000000E+09 -7.04152696215E+00 -1.73701973390E+02 -6.10400312220E+01 -1.41757135497E+02 -6.06408956995E+01 -1.37479071091E+02 -5.52805984762E+00 +1.76705737700E+02
1.56000000000E+09 -5.90775305603E+00 +1.78583674821E+02 -5.84965304133E+01 -1.50580364079E+02 -5.83052197034E+01 -1.46977441206E+02 -4.70031389324E+00 +1.72055799809E+02
1.56500000000E+09 -5.04673731765E+00 +1.72254932433E+02 -5.85582366765E+01 -1.73364692076E+02 -5.81794764086E+01 -1.76118150243E+02 -4.04629003755E+00 +1.67937206842E+02
1.57000000000E+09 -4.34194772995E+00 +1.66942497251E+02 -5.92622207009E+01 +1.67569306645E+02 -5.88758055611E+01 +1.66516003638E+02 -3.51863258725E+00 +1.64258045254E+02
