# Hz S MA R 50
! CMT, C1220, 16058040, 17.2.0/1
! Date: 14/08/2018 11:30:23
! Data: Format (Calibration Info)
! Freq                     S11: Mag/Ang (F2)                     S21: Mag/Ang (F2)                     S12: Mag/Ang (F2)                     S22: Mag/Ang (F2)           
1.00000000000E+09 +9.78662537351E-01 +1.34547292656E+02 +4.53381801600E-05 +1.26193214313E+02 +2.87503138628E-06 +4.15311298173E+01 +9.77645391846E-01 +1.39012250745E+02
1.00500000000E+09 +9.78141721890E-01 +1.34181427602E+02 +1.35841240019E-05 +7.29992786657E+01 +2.08444645801E-05 +3.38368264449E+00 +9.77617157876E-01 +1.38725851232E+02
1.01000000000E+09 +9.78108839322E-01 +1.33848698466E+02 +2.18045426517E-05 -7.27280365376E+01 +2.14225056597E-05 -1.53528811544E+02 +9.77383408710E-01 +1.38423284579E+02
1.01500000000E+09 +9.78408626436E-01 +1.33569308264E+02 +2.45572344880E-05 -1.72972068428E+02 +5.82430769758E-05 +1.01896845816E+01 +9.77173096858E-01 +1.38122352177E+02
1.02000000000E+09 +9.79298616469E-01 +1.33305734589E+02 +4.03216132296E-05 -3.18790989762E+01 +1.89151219434E-05 -1.37209546770E+02 +9.76620593278E-01 +1.37803448411E+02
1.02500000000E+09 +9.80238117632E-01 +1.33055369260E+02 +3.71898384630E-05 -1.47453318622E+02 +5.03093423219E-05 +4.96292741934E+01 +9.76734175139E-01 +1.37508743029E+02
1.03000000000E+09 +9.81520717473E-01 +1.32828048127E+02 +2.43891908329E-05 -1.75246126106E+02 +2.08669259749E-05 -1.02979059116E+02 +9.76726908092E-01 +1.37199219879E+02
1.03500000000E+09 +9.82724170728E-01 +1.32574375650E+02 +4.67823713957E-05 -1.65038343936E+02 +6.19386157720E-05 -8.83487674916E+01 +9.76606606550E-01 +1.36895049213E+02
1.04000000000E+09 +9.83587091929E-01 +1.32280032944E+02 +2.31157952091E-05 -1.40803630566E+02 +6.80029372105E-05 +1.62301638621E+02 +9.76449759435E-01 +1.36603633421E+02
1.04500000000E+09 +9.84295552041E-01 +1.31988039830E+02 +3.23702611745E-05 +1.71995134166E+02 +4.05451788321E-05 +1.13925080543E+02 +9.76394301704E-01 +1.36314693203E+02
1.05000000000E+09 +9.84515529341E-01 +1.31649199759E+02 +1.14810876054E-05 +3.89906941447E+01 +3.29400350673E-05 -4.94768165308E+01 +9.76026212940E-01 +1.36018296690E+02
1.05500000000E+09 +9.84273313757E-01 +1.31304118109E+02 +9.71202588434E-06 +9.48740184651E+01 +8.21635296272E-06 -1.71983052037E+02 +9.75723897077E-01 +1.35710617942E+02
1.06000000000E+09 +9.83991447790E-01 +1.30956520786E+02 +3.25494149144E-06 -3.54219673993E+00 +1.42727243102E-05 -1.09030619491E+02 +9.75780173856E-01 +1.35375489828E+02
1.06500000000E+09 +9.83445555192E-01 +1.30600573424E+02 +5.41925712317E-05 +1.72676562124E+02 +2.01876402600E-05 +7.14002050961E+01 +9.75611757172E-01 +1.35061792390E+02
1.07000000000E+09 +9.82640402258E-01 +1.30263065337E+02 +2.33182446958E-05 -1.79296575403E+02 +1.04708185597E-05 -1.25777533919E+02 +9.75432159201E-01 +1.34752230381E+02
1.07500000000E+09 +9.82072917125E-01 +1.29938743147E+02 +4.38859783966E-05 +7.08200864165E+01 +6.70483714893E-05 +7.18717942839E+00 +9.75161121729E-01 +1.34441636830E+02
1.08000000000E+09 +9.81853021878E-01 +1.29619534669E+02 +1.45385775343E-05 +1.01435072624E+02 +3.02343410090E-05 -1.48883974465E+02 +9.75112482776E-01 +1.34128618011E+02
1.08500000000E+09 +9.81742727281E-01 +1.29305485275E+02 +9.35092721819E-06 +9.11669376500E+01 +4.53480825252E-06 -6.29478483844E+01 +9.74830998154E-01 +1.33822397835E+02
1.09000000000E+09 +9.81983086760E-01 +1.28983756424E+02 +2.97350106531E-05 +6.55843042497E+01 +1.96480208475E-05 +8.81450277706E+01 +9.74581399264E-01 +1.33493704932E+02
1.09500000000E+09 +9.82420850994E-01 +1.28657083791E+02 +1.36552751649E-05 -2.19638341187E+01 +1.55858676286E-05 +3.21387351133E+01 +9.74484143779E-01 +1.33167349772E+02
1.10000000000E+09 +9.82400481022E-01 +1.28296927717E+02 +2.85182838610E-05 +6.25731668487E+01 +2.83770265725E-05 -1.44541996606E+02 +9.74266836855E-01 +1.32828066138E+02
1.10500000000E+09 +9.82762760136E-01 +1.27929197370E+02 +4.42830397723E-05 +2.25378758170E+01 +5.97693203639E-05 +7.92819218156E+01 +9.74065257267E-01 +1.32498810213E+02
1.11000000000E+09 +9.82551376116E-01 +1.27553952020E+02 +3.28023784058E-05 +1.68241568880E+02 +3.55666325245E-05 -7.90965588494E+01 +9.73730537641E-01 +1.32185205868E+02
1.11500000000E+09 +9.82441056240E-01 +1.27167973338E+02 +4.80553525739E-05 +7.33591564228E+01 +3.42395536004E-05 +1.43664096422E+02 +9.73475571303E-01 +1.31863998993E+02
1.12000000000E+09 +9.81836454517E-01 +1.26786829657E+02 +2.38904792874E-05 -5.21059259263E+01 +2.32571185705E-05 +1.26734154005E+02 +9.73261077210E-01 +1.31537009676E+02
1.12500000000E+09 +9.81046509365E-01 +1.26412797723E+02 +4.17501814429E-05 +4.54551067963E+01 +4.35326625366E-05 -5.82012134175E+01 +9.73284278229E-01 +1.31187469684E+02
1.13000000000E+09 +9.80182719107E-01 +1.26046322188E+02 +2.81877316700E-05 -6.77414829725E+01 +4.24019181523E-05 +8.16634618112E+01 +9.72872109068E-01 +1.30840392590E+02
1.13500000000E+09 +9.78894560496E-01 +1.25700616555E+02 +2.41722296755E-05 -1.25707940001E+02 +3.29070332461E-05 -1.70074042613E+02 +9.72881766467E-01 +1.30495407657E+02
1.14000000000E+09 +9.78001109858E-01 +1.25349454124E+02 +8.26935463938E-05 -2.45666643705E+01 +1.45063118997E-05 +1.35514613163E+02 +9.72305086775E-01 +1.30156645442E+02
1.14500000000E+09 +9.77042682595E-01 +1.25000128812E+02 +2.67538532862E-05 -1.06976037226E+02 +1.42507681262E-05 +4.40156446106E+01 +9.71864321364E-01 +1.29824870224E+02
1.15000000000E+09 +9.76451150580E-01 +1.24614141593E+02 +3.26195067348E-05 -2.07903341542E+01 +2.82694417210E-05 +3.74217575241E+01 +9.71531298998E-01 +1.29476385787E+02
1.15500000000E+09 +9.76046197656E-01 +1.24217812813E+02 +3.14271011620E-05 +9.77843086870E+01 +9.17607366156E-05 -7.23687952427E+00 +9.71133147322E-01 +1.29119080709E+02
1.16000000000E+09 +9.75613642192E-01 +1.23796342858E+02 +4.75926712358E-05 -6.14161550567E+01 +5.37203470041E-05 +1.94225022135E+01 +9.70891918426E-01 +1.28743540364E+02
1.16500000000E+09 +9.75362345523E-01 +1.23364701244E+02 +1.02587549690E-06 +1.70658886054E+02 +6.89466268379E-05 -7.62383248587E+01 +9.70322053925E-01 +1.28369929399E+02
1.17000000000E+09 +9.75144410826E-01 +1.22920107692E+02 +3.55536490166E-05 -7.99728523456E+01 +5.84014646539E-05 -2.72942259346E+01 +9.69315205193E-01 +1.27981275499E+02
1.17500000000E+09 +9.74728628511E-01 +1.22497030408E+02 +2.28768893614E-05 +7.43193570941E+01 +3.18760718077E-05 +5.77300183864E+01 +9.68451933448E-01 +1.27600069540E+02
1.18000000000E+09 +9.74386320737E-01 +1.22084234200E+02 +7.18131503111E-05 -6.03971727307E+01 +3.90857170951E-05 -7.78708802165E+01 +9.67244551387E-01 +1.27222031782E+02
1.18500000000E+09 +9.73863530822E-01 +1.21682943653E+02 +3.25123244013E-05 -7.21102550393E+01 +2.98931655960E-05 -2.80673226473E+01 +9.65381342831E-01 +1.26842039729E+02
1.19000000000E+09 +9.73017795976E-01 +1.21310759572E+02 +3.07738886287E-05 -9.23021748243E+01 +4.23688550192E-05 -5.90296395406E+01 +9.63430279728E-01 +1.26483093823E+02
1.19500000000E+09 +9.72384796628E-01 +1.20963328753E+02 +4.00875973031E-05 -9.69337748335E+01 +3.49850439734E-05 +8.57656808566E+00 +9.60858056424E-01 +1.26193362470E+02
1.20000000000E+09 +9.71554705230E-01 +1.20645822476E+02 +6.54878526588E-05 -6.46497271016E+01 +2.39522021503E-05 -1.20898132420E+02 +9.59206226804E-01 +1.25992226414E+02
1.20500000000E+09 +9.71544167091E-01 +1.20312307586E+02 +7.26688580866E-05 -1.17869079547E+02 +5.00692757019E-05 -1.61982010085E+02 +9.59636437448E-01 +1.25850059561E+02
1.21000000000E+09 +9.71591208162E-01 +1.19940440502E+02 +5.88846757533E-05 -1.08712952729E+02 +9.76640991483E-05 -1.24230773598E+02 +9.61030530237E-01 +1.25604418935E+02
1.21500000000E+09 +9.71637963522E-01 +1.19511748900E+02 +5.50800084814E-05 -1.01442334869E+02 +3.49977535393E-05 -1.53944517828E+02 +9.62553645748E-01 +1.25278002091E+02
1.22000000000E+09 +9.71665697648E-01 +1.19052521012E+02 +3.52071262640E-05 -1.62854361250E+02 +8.53026500651E-05 -1.45769697844E+02 +9.63819675066E-01 +1.24872309095E+02
1.22500000000E+09 +9.71381345253E-01 +1.18547521010E+02 +3.96408438865E-05 +1.76654223075E+02 +7.39543506271E-05 -1.54463878825E+02 +9.64545698228E-01 +1.24427371937E+02
1.23000000000E+09 +9.71027092319E-01 +1.18042051893E+02 +5.30312114810E-05 -1.68207608371E+02 +3.44104921823E-05 -8.66291286812E+01 +9.64842373046E-01 +1.23973283580E+02
1.23500000000E+09 +9.70598755105E-01 +1.17539402004E+02 +8.73787579258E-05 +1.77894687713E+02 +8.24407301324E-05 +1.71969696121E+02 +9.64991394190E-01 +1.23545867851E+02
1.24000000000E+09 +9.69877300603E-01 +1.17029402281E+02 +8.02635538270E-05 +1.59413382113E+02 +5.66051318898E-05 +1.56076105232E+02 +9.64856035959E-01 +1.23127222323E+02
1.24500000000E+09 +9.69283469880E-01 +1.16542021647E+02 +7.14763856971E-05 +1.47754562563E+02 +9.57476578939E-05 +1.52715230236E+02 +9.64558308739E-01 +1.22712623428E+02
1.25000000000E+09 +9.68432374894E-01 +1.16062816680E+02 +1.08296728600E-04 +1.51797310864E+02 +1.04193823184E-04 +1.39663243645E+02 +9.64349397704E-01 +1.22265801262E+02
1.25500000000E+09 +9.67411543891E-01 +1.15608364088E+02 +7.49435128761E-05 +1.38723480522E+02 +9.89570397644E-05 +1.52333253477E+02 +9.63729257026E-01 +1.21808745089E+02
1.26000000000E+09 +9.66787205821E-01 +1.15163685533E+02 +7.04632968642E-05 +1.29120291608E+02 +9.92539557336E-05 +1.42592447810E+02 +9.63289090006E-01 +1.21321249196E+02
1.26500000000E+09 +9.66647589209E-01 +1.14728522292E+02 +8.68149842112E-05 +1.22491613535E+02 +8.53620866060E-05 +1.20756733167E+02 +9.62747033174E-01 +1.20824013892E+02
1.27000000000E+09 +9.66771781400E-01 +1.14289887219E+02 +1.34143480807E-04 +9.61423758676E+01 +1.07933223399E-04 +1.18371121158E+02 +9.62479926490E-01 +1.20354516239E+02
1.27500000000E+09 +9.67307461686E-01 +1.13836477441E+02 +1.24056806940E-04 +1.03406405376E+02 +1.09017066055E-04 +1.04542394244E+02 +9.61860356247E-01 +1.19898354309E+02
1.28000000000E+09 +9.68118460325E-01 +1.13356645249E+02 +1.20299890512E-04 +8.43567422297E+01 +9.11754228845E-05 +7.23525993163E+01 +9.61326585880E-01 +1.19460658627E+02
1.28500000000E+09 +9.68955961047E-01 +1.12850563368E+02 +1.15335549498E-04 +9.29998962791E+01 +1.00077842046E-04 +9.84674806324E+01 +9.60675236332E-01 +1.18993726194E+02
1.29000000000E+09 +9.69676467739E-01 +1.12334872247E+02 +1.11108269926E-04 +7.81527822220E+01 +1.52102908084E-04 +6.91037007138E+01 +9.59933517070E-01 +1.18493711258E+02
1.29500000000E+09 +9.70088094733E-01 +1.11798063145E+02 +1.30020122672E-04 +6.61119773419E+01 +8.83886018776E-05 +5.41604295978E+01 +9.59051073654E-01 +1.17954502207E+02
1.30000000000E+09 +9.69980335574E-01 +1.11246659539E+02 +1.22037418395E-04 +6.13642836234E+01 +8.90188824715E-05 +4.34304752224E+01 +9.58202557321E-01 +1.17417043135E+02
1.30500000000E+09 +9.69089453651E-01 +1.10691750591E+02 +9.63141916144E-05 +5.09578262784E+01 +8.04867669870E-05 +3.32345142987E+01 +9.57346399661E-01 +1.16878079620E+02
1.31000000000E+09 +9.67405923665E-01 +1.10151655736E+02 +8.48326283602E-05 +4.64351720454E+01 +1.07375644193E-04 +5.24141318308E+01 +9.56332650983E-01 +1.16345532547E+02
1.31500000000E+09 +9.65590756805E-01 +1.09617456113E+02 +7.50870546991E-05 +2.74388817625E+01 +9.97057103310E-05 +2.25403309068E+01 +9.55442395055E-01 +1.15826578563E+02
1.32000000000E+09 +9.63895028637E-01 +1.09061420578E+02 +1.24337188144E-04 +2.19977203138E+01 +9.36690448855E-05 +3.37452361483E+01 +9.54336243873E-01 +1.15261739414E+02
1.32500000000E+09 +9.61870571115E-01 +1.08473032557E+02 +6.55737199376E-05 +2.05586232910E+01 +1.11789904246E-04 +1.11489205639E+01 +9.52992415541E-01 +1.14661679324E+02
1.33000000000E+09 +9.60295233710E-01 +1.07829146643E+02 +7.90052267723E-05 +2.01087212004E+01 +1.19552075289E-04 +8.19972782515E+00 +9.51688065269E-01 +1.14039478406E+02
1.33500000000E+09 +9.58672365885E-01 +1.07135209921E+02 +1.34582274690E-04 +2.20991218602E+01 +1.13002109122E-04 +7.00093017717E+00 +9.50306589874E-01 +1.13395592821E+02
1.34000000000E+09 +9.57243455172E-01 +1.06362178952E+02 +1.53735197884E-04 -5.52684094204E+00 +1.44372833438E-04 -2.52595671409E+01 +9.49028501080E-01 +1.12755037540E+02
1.34500000000E+09 +9.55528354252E-01 +1.05536996297E+02 +1.06742548622E-04 -2.05122472743E+01 +1.65472417437E-04 -3.98172550868E+01 +9.47664243257E-01 +1.12090230976E+02
1.35000000000E+09 +9.53573328248E-01 +1.04676097565E+02 +1.13232198494E-04 -4.32917837810E+01 +1.13481283368E-04 -3.01540987189E+01 +9.45828777298E-01 +1.11440715478E+02
1.35500000000E+09 +9.51335908270E-01 +1.03774824702E+02 +1.09286440794E-04 -9.77933122614E+00 +1.09633740744E-04 -2.33310095924E+01 +9.43789280989E-01 +1.10742765780E+02
1.36000000000E+09 +9.48660027179E-01 +1.02870706600E+02 +8.26314647836E-05 -2.63627936858E+01 +1.24314983501E-04 -1.97977587608E+01 +9.41764022639E-01 +1.10022622997E+02
1.36500000000E+09 +9.46012452310E-01 +1.01942774568E+02 +1.50692837037E-04 -1.75470363875E+01 +1.68442585282E-04 -2.13525904364E+01 +9.39479978078E-01 +1.09252633134E+02
1.37000000000E+09 +9.42942662195E-01 +1.01010845894E+02 +1.78424960867E-04 -3.73554916404E+01 +1.55541464797E-04 -3.83065353090E+01 +9.36985861679E-01 +1.08448295611E+02
1.37500000000E+09 +9.40137566013E-01 +1.00070179776E+02 +1.79898431260E-04 -5.66256904510E+01 +1.44657025037E-04 -3.67608440166E+01 +9.34275149548E-01 +1.07603507064E+02
1.38000000000E+09 +9.37145409253E-01 +9.91106189145E+01 +1.41332445006E-04 -4.01506720198E+01 +2.06855449781E-04 -5.97268399568E+01 +9.31449901245E-01 +1.06723453521E+02
1.38500000000E+09 +9.34248680270E-01 +9.81284383571E+01 +2.09638640218E-04 -6.97556288951E+01 +2.00328704987E-04 -7.21125242044E+01 +9.28164114233E-01 +1.05811930675E+02
1.39000000000E+09 +9.31159095261E-01 +9.71160999698E+01 +1.84889416519E-04 -5.92258933135E+01 +2.17363846520E-04 -7.60506723232E+01 +9.24574120227E-01 +1.04849184502E+02
1.39500000000E+09 +9.28075276408E-01 +9.60603877753E+01 +2.22563850654E-04 -7.32578974709E+01 +2.57979308784E-04 -7.11589935457E+01 +9.20348206709E-01 +1.03834740220E+02
1.40000000000E+09 +9.24505581277E-01 +9.49620409663E+01 +2.48502281045E-04 -8.47114505870E+01 +2.93849064075E-04 -8.91547053662E+01 +9.15982753710E-01 +1.02763109004E+02
1.40500000000E+09 +9.20538206574E-01 +9.38346212187E+01 +3.01225071059E-04 -1.01290845178E+02 +2.59561420881E-04 -1.06860578702E+02 +9.11227273578E-01 +1.01659859796E+02
1.41000000000E+09 +9.15677021397E-01 +9.26504074884E+01 +3.34275997289E-04 -1.04837826410E+02 +3.53239443294E-04 -1.04860081689E+02 +9.05960307071E-01 +1.00475339737E+02
1.41500000000E+09 +9.09692971301E-01 +9.14161671070E+01 +3.47098519239E-04 -1.19267753162E+02 +3.59961611610E-04 -1.16026166768E+02 +8.99955784032E-01 +9.92390091514E+01
1.42000000000E+09 +9.02691327849E-01 +9.01355785577E+01 +3.72202792533E-04 -1.26729723986E+02 +4.32912812340E-04 -1.27347421568E+02 +8.92748904689E-01 +9.79170570598E+01
1.42500000000E+09 +8.94682519583E-01 +8.88339831098E+01 +4.44062378379E-04 -1.35102758361E+02 +4.76977838116E-04 -1.42429430224E+02 +8.84859185683E-01 +9.64809213441E+01
1.43000000000E+09 +8.86378516744E-01 +8.74495269308E+01 +4.84374453373E-04 -1.45750839475E+02 +5.32843827911E-04 -1.55953004107E+02 +8.76028769202E-01 +9.49275340239E+01
1.43500000000E+09 +8.77401042550E-01 +8.59486267535E+01 +5.58483640631E-04 -1.63004792802E+02 +5.66237665191E-04 -1.65917484366E+02 +8.66026185390E-01 +9.32492615522E+01
1.44000000000E+09 +8.68465682415E-01 +8.43155054859E+01 +5.25182665003E-04 +1.76103297401E+02 +5.53801405648E-04 +1.75376330109E+02 +8.54960507594E-01 +9.14501990441E+01
1.44500000000E+09 +8.58835190432E-01 +8.24633367427E+01 +5.60959626701E-04 +1.69561832819E+02 +5.27282875533E-04 +1.69255350569E+02 +8.42004790700E-01 +8.95278707731E+01
1.45000000000E+09 +8.47610679219E-01 +8.04060976799E+01 +5.70681558058E-04 +1.67676391125E+02 +5.81548313225E-04 +1.60553619423E+02 +8.26933463272E-01 +8.74487923954E+01
1.45500000000E+09 +8.34570009834E-01 +7.81550701990E+01 +6.81084097446E-04 +1.51612699607E+02 +6.99903744566E-04 +1.46681782525E+02 +8.09219697265E-01 +8.51729751672E+01
1.46000000000E+09 +8.19795217185E-01 +7.56898397424E+01 +8.29918371392E-04 +1.36941306775E+02 +7.41885110767E-04 +1.33430571277E+02 +7.88361046583E-01 +8.26504790664E+01
1.46500000000E+09 +8.02433936863E-01 +7.29684095270E+01 +7.81982629891E-04 +1.19723779078E+02 +7.39984311746E-04 +1.14487514564E+02 +7.64246188474E-01 +7.98444731640E+01
1.47000000000E+09 +7.81897460592E-01 +6.99491617150E+01 +8.13209906291E-04 +1.08176250783E+02 +7.36310285293E-04 +1.05921936415E+02 +7.35786074427E-01 +7.67269819997E+01
1.47500000000E+09 +7.56970850070E-01 +6.66000915920E+01 +8.25919742083E-04 +1.02359190171E+02 +7.90702499714E-04 +1.00248611760E+02 +7.03014946835E-01 +7.33159936144E+01
1.48000000000E+09 +7.27258616541E-01 +6.28770532864E+01 +8.71141607285E-04 +8.70632851400E+01 +9.73482233504E-04 +8.67838149355E+01 +6.64552712073E-01 +6.95451204556E+01
1.48500000000E+09 +6.91924687632E-01 +5.87193187936E+01 +9.52789322276E-04 +7.28260944437E+01 +9.88421010141E-04 +7.11758050559E+01 +6.19387447053E-01 +6.53683803903E+01
1.49000000000E+09 +6.50957281181E-01 +5.40144936273E+01 +9.44572448418E-04 +5.52812235635E+01 +9.49852845472E-04 +5.29343978888E+01 +5.66581824769E-01 +6.06988132375E+01
1.49500000000E+09 +6.03798567349E-01 +4.86854086132E+01 +1.01513096368E-03 +4.89299584229E+01 +9.37827459340E-04 +4.71513750879E+01 +5.04955954997E-01 +5.54317444347E+01
1.50000000000E+09 +5.49583605519E-01 +4.25082923070E+01 +1.04056876097E-03 +3.38229714241E+01 +9.50268097701E-04 +3.59286350151E+01 +4.34318774904E-01 +4.94905451634E+01
1.50500000000E+09 +4.88534873623E-01 +3.52988791010E+01 +1.17879304558E-03 +2.52686640553E+01 +1.11921768523E-03 +2.64753997302E+01 +3.55422830462E-01 +4.26218495689E+01
1.51000000000E+09 +4.19612034710E-01 +2.66340833871E+01 +1.19522714255E-03 +7.42093096057E+00 +1.13519705516E-03 +1.00113512419E+01 +2.68675265908E-01 +3.43369470576E+01
1.51500000000E+09 +3.44974656655E-01 +1.59647294592E+01 +1.36742211214E-03 +6.03714091104E+00 +1.36050185100E-03 +6.77365420460E+00 +1.75974120706E-01 +2.29083115422E+01
1.52000000000E+09 +2.66565686628E-01 +1.43248368704E+00 +1.68779453660E-03 -1.98643917310E+01 +1.71422230343E-03 -1.86021092788E+01 +8.38060835877E-02 -1.40802436172E+00
1.52500000000E+09 +1.91243601856E-01 -2.08196116175E+01 +1.73451961982E-03 -3.58675121631E+01 +1.76817356040E-03 -3.64108143090E+01 +5.53133655334E-02 -9.91573983807E+01
1.53000000000E+09 +1.41478324342E-01 -5.82018379245E+01 +1.98582983586E-03 -6.01022244643E+01 +2.01265441298E-03 -5.96042712738E+01 +1.38762993216E-01 -1.41883569727E+02
1.53500000000E+09 +1.52225451395E-01 -1.03579079347E+02 +1.94101792738E-03 -8.85437137855E+01 +1.96670208268E-03 -8.89267783074E+01 +2.30719647018E-01 -1.55749100978E+02
1.54000000000E+09 +2.13939764191E-01 -1.33633214611E+02 +1.59721770710E-03 -1.13623418001E+02 +1.60724030918E-03 -1.12685423905E+02 +3.17568522918E-01 -1.64728421872E+02
1.54500000000E+09 +2.92109115414E-01 -1.51579099912E+02 +1.33033603481E-03 -1.28614381883E+02 +1.34903048856E-03 -1.27377932966E+02 +3.96510508439E-01 -1.71848726622E+02
1.55000000000E+09 +3.70750258896E-01 -1.64053868312E+02 +1.10454278497E-03 -1.46595733150E+02 +1.15570715686E-03 -1.43513401483E+02 +4.66916010616E-01 -1.77919573544E+02
1.55500000000E+09 +4.42205879060E-01 -1.73702165129E+02 +8.75715172247E-04 -1.44409328510E+02 +9.49982748357E-04 -1.42258391949E+02 +5.28288241132E-01 +1.76767005393E+02
1.56000000000E+09 +5.04050300373E-01 +1.78483865125E+02 +1.14502055234E-03 -1.51579007872E+02 +1.18948346574E-03 -1.49317592803E+02 +5.81430581295E-01 +1.72097216765E+02
1.56500000000E+09 +5.56861344102E-01 +1.72108859398E+02 +1.12040666362E-03 -1.79015346891E+02 +1.15518456785E-03 -1.76933983589E+02 +6.27143863620E-01 +1.67965513930E+02
1.57000000000E+09 +6.04161695073E-01 +1.66741399200E+02 +1.01159857388E-03 +1.67403079737E+02 +1.11894682249E-03 +1.68374757914E+02 +6.66541723465E-01 +1.64269634680E+02
