# Hz S RI R 50
! CMT, C1220, 16058040, 17.2.0/1
! Date: 14/08/2018 11:31:02
! Data: Format (Calibration Info)
! Freq                      S11: Re/Im (F2)                       S21: Re/Im (F2)                       S12: Re/Im (F2)                       S22: Re/Im (F2)            
1.00000000000E+09 -6.86687851748E-01 +6.97406635715E-01 -1.62878819753E-05 -1.64124662507E-05 -1.64641338270E-05 +1.71543950596E-05 -7.37980902168E-01 +6.41362275819E-01
1.00500000000E+09 -6.81725957155E-01 +7.01526989360E-01 +2.80887274618E-05 -9.19274959281E-08 +2.78101981875E-05 -5.15308039670E-05 -7.34436927887E-01 +6.45052273968E-01
1.01000000000E+09 -6.77687809329E-01 +7.05458018937E-01 +6.74475157918E-06 +2.02002054962E-05 +7.48259792962E-06 +2.48764183744E-05 -7.30950987510E-01 +6.48755028561E-01
1.01500000000E+09 -6.74311649190E-01 +7.08990928391E-01 +2.47244581662E-05 +5.37087085096E-05 -1.53566735128E-05 -9.43099007056E-06 -7.27315049849E-01 +6.52470828440E-01
1.02000000000E+09 -6.71648451800E-01 +7.12630978255E-01 -1.87446471089E-05 -2.50266895871E-05 +1.02090074430E-05 +4.80899582480E-05 -7.23398369832E-01 +6.56212115721E-01
1.02500000000E+09 -6.69189172322E-01 +7.16168375978E-01 +3.91846214698E-05 +1.03451002246E-05 +1.59064841526E-05 -2.15179716757E-05 -7.20164291163E-01 +6.60002227695E-01
1.03000000000E+09 -6.67247473350E-01 +7.19816280110E-01 +2.33366052963E-05 +3.55434328283E-05 +5.96359168981E-05 +6.92342129501E-06 -7.16477219306E-01 +6.63819568747E-01
1.03500000000E+09 -6.64772229247E-01 +7.23632409303E-01 +1.03594964334E-06 -9.18588149869E-06 -8.15847590190E-07 -2.11490979740E-05 -7.12872325908E-01 +6.67584266296E-01
1.04000000000E+09 -6.61688603833E-01 +7.27728558543E-01 +2.02345717075E-06 +3.49039119339E-05 +2.59350354446E-06 -2.88832815643E-05 -7.09397530950E-01 +6.70963155236E-01
1.04500000000E+09 -6.58187419628E-01 +7.31585924720E-01 -3.12481826003E-05 -2.12690114812E-05 +3.76780593799E-05 -6.60544831156E-07 -7.05835855763E-01 +6.74502669675E-01
1.05000000000E+09 -6.54189309073E-01 +7.35648967279E-01 -5.92610595404E-08 -2.96280593316E-05 +4.83661102448E-05 +4.44691670677E-05 -7.02043491279E-01 +6.77943636740E-01
1.05500000000E+09 -6.49839875812E-01 +7.39466708161E-01 -4.59087893497E-06 -1.11506333451E-05 +2.27927428138E-05 -9.06255609348E-06 -6.98273240595E-01 +6.81713278129E-01
1.06000000000E+09 -6.44851237618E-01 +7.43159461213E-01 -1.76520082900E-05 +6.08053864405E-06 +4.31498070958E-05 -3.01357317618E-05 -6.94436567223E-01 +6.85553276939E-01
1.06500000000E+09 -6.39952683078E-01 +7.46754684185E-01 -3.26719695954E-05 +5.07716453017E-05 -1.50003679162E-05 -2.18712791250E-05 -6.90521069444E-01 +6.89279522773E-01
1.07000000000E+09 -6.35247655614E-01 +7.49901895037E-01 +3.32090534405E-05 -1.41993748589E-05 +7.98921204320E-06 -5.56958229114E-06 -6.86600293103E-01 +6.92853209101E-01
1.07500000000E+09 -6.30377637362E-01 +7.53103281670E-01 -1.58026608575E-05 -1.34104183092E-05 +3.68767849015E-05 -1.98456774105E-05 -6.82701900908E-01 +6.96417180994E-01
1.08000000000E+09 -6.26054109370E-01 +7.56401855690E-01 +1.74070852842E-05 -6.60698789284E-06 +8.42086647148E-06 +1.29354771277E-05 -6.78908407285E-01 +6.99953269341E-01
1.08500000000E+09 -6.21915806422E-01 +7.59623950381E-01 +1.05222283590E-05 -5.17344933789E-06 -4.56555930186E-06 +3.67429150480E-05 -6.74829442446E-01 +7.03401550841E-01
1.09000000000E+09 -6.17709273439E-01 +7.63342044538E-01 -1.25885307664E-05 +4.83999688641E-06 -2.36399620594E-05 +3.31124471067E-05 -6.70671009436E-01 +7.07185204960E-01
1.09500000000E+09 -6.13502936949E-01 +7.67126128262E-01 -1.08050889864E-05 -4.40314917121E-05 +1.48549341392E-05 +1.68730155312E-05 -6.66474064960E-01 +7.10838148197E-01
1.10000000000E+09 -6.08774455883E-01 +7.71151822526E-01 +3.00696709722E-05 +4.77591955277E-05 +1.95652317575E-06 +4.68760851190E-05 -6.62201180392E-01 +7.14748353409E-01
1.10500000000E+09 -6.03930338613E-01 +7.75096442858E-01 +5.74912003731E-06 -1.09118401965E-05 +1.15970434738E-05 -4.59398984782E-05 -6.57779568929E-01 +7.18349144535E-01
1.11000000000E+09 -5.98665070387E-01 +7.79092247688E-01 +1.48209334191E-05 -6.64274475794E-06 +2.65482410925E-05 +2.85175639892E-05 -6.53735156750E-01 +7.21596851554E-01
1.11500000000E+09 -5.93278341585E-01 +7.83032167624E-01 +3.25299719814E-05 +1.82226044752E-06 +6.36982460723E-06 +1.79010959191E-05 -6.49500172566E-01 +7.25136074089E-01
1.12000000000E+09 -5.87876610778E-01 +7.86395886147E-01 +1.86232328344E-05 +4.63814732960E-05 -3.80129979499E-05 +5.10092572996E-06 -6.45069105366E-01 +7.28733502693E-01
1.12500000000E+09 -5.82204284415E-01 +7.89665853564E-01 +4.74741143074E-05 -4.96809563755E-06 +2.33183098336E-05 +1.78219804605E-05 -6.40570223792E-01 +7.32497512098E-01
1.13000000000E+09 -5.76631595876E-01 +7.92492708616E-01 +4.33855556032E-05 -3.74715793291E-05 +3.89470039960E-05 -2.22421701646E-05 -6.36127358205E-01 +7.36259282184E-01
1.13500000000E+09 -5.71001953333E-01 +7.95070758358E-01 +2.29582933634E-05 -1.46719830336E-05 +2.02718890695E-05 +1.11538273537E-05 -6.31593905481E-01 +7.39920772603E-01
1.14000000000E+09 -5.65535897934E-01 +7.97802534202E-01 +2.65871766779E-05 -7.22894246370E-06 +2.33256276267E-05 +1.52264101879E-05 -6.26735678383E-01 +7.43195552960E-01
1.14500000000E+09 -5.60192461656E-01 +8.00533611456E-01 -4.01390936484E-06 -4.17932307606E-05 +5.84779261973E-07 -3.89299382659E-05 -6.22184767038E-01 +7.46532796707E-01
1.15000000000E+09 -5.54463606011E-01 +8.03587170376E-01 +8.24107887152E-06 -4.09026003063E-05 +1.45818613292E-05 -9.87159311956E-06 -6.17518301298E-01 +7.49970201629E-01
1.15500000000E+09 -5.48755023980E-01 +8.07286033019E-01 +1.18662034862E-05 -5.08734447124E-05 -2.20189961248E-05 -3.42001953395E-05 -6.12475458899E-01 +7.53569795002E-01
1.16000000000E+09 -5.42576578837E-01 +8.10712761490E-01 +3.34487870244E-05 -1.24876930371E-05 +4.87359668371E-05 +2.46307792198E-06 -6.07370708998E-01 +7.57323290443E-01
1.16500000000E+09 -5.36361817129E-01 +8.14737717293E-01 +1.07952527511E-06 -6.21529619618E-06 +2.45324304261E-05 -1.91774564713E-05 -6.01998606495E-01 +7.61031325527E-01
1.17000000000E+09 -5.29920057992E-01 +8.18620603970E-01 +1.84868954990E-05 -4.43281095403E-05 +3.75469120915E-06 -1.76067853568E-05 -5.96543358572E-01 +7.64289093876E-01
1.17500000000E+09 -5.23470777234E-01 +8.22197160003E-01 +1.98937367908E-05 -1.76687276652E-05 -3.00704552533E-05 +6.21283106934E-06 -5.90572716097E-01 +7.67308360169E-01
1.18000000000E+09 -5.17400431530E-01 +8.25635544060E-01 +3.57663320874E-05 -1.98863011848E-05 +6.33506105341E-05 -3.95664397521E-05 -5.84782777893E-01 +7.70151599071E-01
1.18500000000E+09 -5.11301184984E-01 +8.28836583098E-01 +2.01484762296E-05 -3.75093377944E-05 +7.92939983677E-05 -1.92173367024E-05 -5.78661119906E-01 +7.72805839658E-01
1.19000000000E+09 -5.05463671733E-01 +8.31503142210E-01 -6.27425841377E-06 +1.91451896594E-09 +1.51580842325E-05 -4.83700243577E-05 -5.72416201012E-01 +7.74896818166E-01
1.19500000000E+09 -5.00040315062E-01 +8.33888975385E-01 +1.51506427771E-05 -4.54930304289E-05 +2.21012728534E-05 -5.81609486062E-05 -5.67117736460E-01 +7.75639413926E-01
1.20000000000E+09 -4.94809971868E-01 +8.36010938817E-01 -2.50506126185E-05 +1.02698972835E-05 -5.29780528577E-05 -2.77494710068E-05 -5.63549240556E-01 +7.76146468558E-01
1.20500000000E+09 -4.89867084788E-01 +8.38776012677E-01 -3.30276496963E-05 -7.06427926680E-05 -1.03160614968E-05 -6.09749488283E-05 -5.61630890770E-01 +7.77976372629E-01
1.21000000000E+09 -4.84647736826E-01 +8.41979889182E-01 -2.25321778177E-05 -1.80153208328E-05 +1.54469406253E-06 -6.96861217813E-05 -5.59377635742E-01 +7.81523413503E-01
1.21500000000E+09 -4.78324435235E-01 +8.45647256831E-01 -4.83957303557E-05 -5.25849849135E-05 -5.58270612708E-05 -1.73300532826E-05 -5.55724292541E-01 +7.85910284411E-01
1.22000000000E+09 -4.71498030660E-01 +8.49487504659E-01 -4.89408356021E-05 -4.85293130921E-05 -3.10749092306E-05 -7.47827624772E-05 -5.50753716958E-01 +7.90857159095E-01
1.22500000000E+09 -4.64011412591E-01 +8.53289671558E-01 -3.48190247044E-05 +3.86106903307E-06 -7.90104326673E-05 +3.59994146061E-06 -5.44957324279E-01 +7.95616486823E-01
1.23000000000E+09 -4.56206587532E-01 +8.57117685338E-01 -5.47220693521E-05 -2.78462920082E-06 -7.17379711069E-05 +3.39686162665E-06 -5.38861559864E-01 +8.00138628392E-01
1.23500000000E+09 -4.48487268680E-01 +8.60762291640E-01 -5.61561199029E-05 -1.24816971797E-05 -7.64445203914E-05 +2.10027999350E-06 -5.32884687273E-01 +8.04426833963E-01
1.24000000000E+09 -4.40400040045E-01 +8.63981524258E-01 -8.61148983626E-05 +2.04545376351E-05 -1.30521028426E-04 +2.17377684914E-05 -5.27115586604E-01 +8.08142379391E-01
1.24500000000E+09 -4.32751622576E-01 +8.67333430982E-01 -4.41578381626E-05 +7.64467477315E-07 -5.06707077633E-05 +1.18190507642E-05 -5.21070785262E-01 +8.11764317189E-01
1.25000000000E+09 -4.25085367737E-01 +8.70034361201E-01 -7.40585454276E-05 -2.36976232648E-05 -8.25913085429E-05 +5.46838063755E-05 -5.14657154109E-01 +8.15538365997E-01
1.25500000000E+09 -4.17874788092E-01 +8.72469926871E-01 -8.36124755966E-05 +5.32513437837E-05 -1.06392758149E-04 +7.72285239313E-05 -5.07476541314E-01 +8.19104837161E-01
1.26000000000E+09 -4.10793951706E-01 +8.75239659077E-01 -5.61137493618E-05 +6.93202577864E-05 -2.08997619812E-05 +5.10687313660E-05 -5.00461597275E-01 +8.23117954735E-01
1.26500000000E+09 -4.04094153739E-01 +8.78016503322E-01 -2.84162129658E-06 +6.94218790268E-05 -5.71390319406E-05 +1.09768727262E-04 -4.93013561408E-01 +8.26906093080E-01
1.27000000000E+09 -3.97274303877E-01 +8.81238554152E-01 -5.88116933552E-05 +9.11198293094E-05 -1.10407643322E-06 +8.75774273196E-05 -4.86067435335E-01 +8.30593512288E-01
1.27500000000E+09 -3.90571786810E-01 +8.84936911517E-01 +1.04836635164E-06 +8.88554844960E-05 -3.85278833678E-05 +9.73723305556E-05 -4.79133509833E-01 +8.33965658373E-01
1.28000000000E+09 -3.83315945659E-01 +8.88867311025E-01 +2.41369457471E-05 +1.10751254938E-04 -2.77473338093E-05 +1.26956937713E-04 -4.72543296995E-01 +8.37141066958E-01
1.28500000000E+09 -3.75862145074E-01 +8.93076859344E-01 +8.54469983473E-06 +8.12685895492E-05 +1.47479463723E-05 +1.29237651472E-04 -4.65370476476E-01 +8.40446511389E-01
1.29000000000E+09 -3.68094891184E-01 +8.97044127489E-01 +3.42316717935E-05 +8.76664695668E-05 +1.31842458751E-05 +1.33546938972E-04 -4.57741957475E-01 +8.43846416636E-01
1.29500000000E+09 -3.59759743949E-01 +9.00913080468E-01 +6.00192389129E-05 +1.07285124369E-04 +4.15944692226E-05 +8.21616677983E-05 -4.49398001581E-01 +8.47196102925E-01
1.30000000000E+09 -3.50962506842E-01 +9.04247237412E-01 +4.45007401367E-05 +1.11631332370E-04 +8.53240619086E-05 +9.80066422965E-05 -4.40909513897E-01 +8.50724463354E-01
1.30500000000E+09 -3.41819854017E-01 +9.06688908065E-01 +4.56450563048E-05 +6.43747224261E-05 +8.54716575385E-05 +1.10267251702E-04 -4.32489411030E-01 +8.53958469365E-01
1.31000000000E+09 -3.32699665238E-01 +9.08369977379E-01 +9.89679112311E-05 +1.01385286721E-04 +8.71322179241E-05 +4.37989909959E-05 -4.24190280449E-01 +8.57001765861E-01
1.31500000000E+09 -3.23547575468E-01 +9.09638494383E-01 +8.78477609096E-05 +6.32845540980E-05 +8.19575996094E-05 +1.59703872846E-05 -4.15740988823E-01 +8.60106942700E-01
1.32000000000E+09 -3.14205997879E-01 +9.11092041466E-01 +7.89527310865E-05 +3.59939272450E-05 +9.78526803742E-05 +7.70376284817E-05 -4.07014470424E-01 +8.63178609611E-01
1.32500000000E+09 -3.04332882445E-01 +9.12452626631E-01 +8.69151120480E-05 +2.35373264627E-05 +1.21251476112E-04 +4.40770174896E-05 -3.97495918383E-01 +8.66162834255E-01
1.33000000000E+09 -2.93565601698E-01 +9.14215725505E-01 +7.30182585464E-05 +4.42360123234E-05 +1.35265545196E-04 +1.06662896545E-05 -3.87574700308E-01 +8.69208920927E-01
1.33500000000E+09 -2.81762014914E-01 +9.16230036835E-01 +1.16232375814E-04 +1.26083929908E-05 +1.22804968146E-04 +3.63813821771E-05 -3.77077054015E-01 +8.72223526081E-01
1.34000000000E+09 -2.69025035341E-01 +9.18543854437E-01 +1.08410310366E-04 -4.18501497283E-06 +1.19586300122E-04 -4.49716731953E-05 -3.66819688905E-01 +8.75308869622E-01
1.34500000000E+09 -2.55328965874E-01 +9.20613472222E-01 +1.07039052936E-04 -4.84329860307E-05 +1.08644696940E-04 -4.90082283541E-05 -3.56094683252E-01 +8.78009137830E-01
1.35000000000E+09 -2.40982167622E-01 +9.22613441939E-01 +8.59645657724E-05 -6.63388170622E-05 +7.39873694989E-05 -2.01840643236E-05 -3.45547457250E-01 +8.80503657581E-01
1.35500000000E+09 -2.25878649508E-01 +9.24025954927E-01 +8.27538498139E-05 -6.26449440660E-05 +8.12274263159E-05 -4.99194027275E-05 -3.34230145577E-01 +8.82824046416E-01
1.36000000000E+09 -2.10551310728E-01 +9.25017775912E-01 +1.25719181492E-04 -9.83771915114E-06 +8.41303324211E-05 -2.52164029650E-05 -3.22137995611E-01 +8.84978799346E-01
1.36500000000E+09 -1.95037446768E-01 +9.25672077364E-01 +1.33804222945E-04 -3.83776358006E-05 +1.39764266025E-04 -5.08602941476E-05 -3.09495115058E-01 +8.86945906743E-01
1.37000000000E+09 -1.79347152933E-01 +9.25620411240E-01 +1.67250969568E-04 -7.58891119847E-05 +1.31254591301E-04 -7.60261318263E-05 -2.96172056039E-01 +8.88962878800E-01
1.37500000000E+09 -1.63631306740E-01 +9.25716455277E-01 +7.87308219805E-05 -1.14464344870E-04 +1.49506209349E-04 -9.38054562760E-05 -2.82320369433E-01 +8.90554555961E-01
1.38000000000E+09 -1.47649917128E-01 +9.25327444895E-01 +8.70915717105E-05 -1.55944252725E-04 +1.33075754965E-04 -1.38393708730E-04 -2.67815730633E-01 +8.92056430220E-01
1.38500000000E+09 -1.31185484563E-01 +9.24722820402E-01 +8.50303644710E-05 -1.76365022446E-04 +1.26228881593E-04 -2.09078388848E-04 -2.52600699195E-01 +8.93224525502E-01
1.39000000000E+09 -1.14447872787E-01 +9.23877189400E-01 +6.24570455699E-05 -1.76918324837E-04 +7.49538303625E-05 -2.07573655901E-04 -2.36755724987E-01 +8.93678961232E-01
1.39500000000E+09 -9.70509999333E-02 +9.22800627166E-01 +9.66495013805E-05 -2.09081359125E-04 +5.03152755345E-05 -2.31442536589E-04 -2.19856854879E-01 +8.93695029717E-01
1.40000000000E+09 -7.89543277759E-02 +9.20922101373E-01 +5.78540423629E-05 -2.67790622345E-04 +2.42249044008E-05 -3.25982699115E-04 -2.02098714586E-01 +8.93437481644E-01
1.40500000000E+09 -6.06160936623E-02 +9.18260124479E-01 -4.13163923550E-05 -3.47312817668E-04 -8.45820863984E-05 -3.11797914272E-04 -1.83878837912E-01 +8.92411933896E-01
1.41000000000E+09 -4.13034751377E-02 +9.14603778803E-01 -1.24286824767E-04 -3.03110621034E-04 -1.30152034900E-04 -3.11492838880E-04 -1.64539245453E-01 +8.90872344750E-01
1.41500000000E+09 -2.15314937441E-02 +9.09216799518E-01 -1.59283419039E-04 -3.27260589323E-04 -1.46191032048E-04 -3.42820318844E-04 -1.44273730508E-01 +8.88319449957E-01
1.42000000000E+09 -1.26527180928E-03 +9.02500590089E-01 -2.39987794965E-04 -2.61157930215E-04 -2.95532949020E-04 -3.17562107403E-04 -1.22693778191E-01 +8.84448000774E-01
1.42500000000E+09 +1.91629872341E-02 +8.94335552476E-01 -3.18947614378E-04 -2.87971070308E-04 -3.32582171954E-04 -3.10222960029E-04 -9.97122017290E-02 +8.79232275098E-01
1.43000000000E+09 +4.03850429199E-02 +8.85200812745E-01 -4.12802089346E-04 -2.78183454925E-04 -5.05658886304E-04 -2.46189546523E-04 -7.50572816074E-02 +8.72903675585E-01
1.43500000000E+09 +6.29223334600E-02 +8.74964356370E-01 -5.50105107373E-04 -1.40882252006E-04 -5.37217031522E-04 -1.12944357177E-04 -4.89103781328E-02 +8.64713440302E-01
1.44000000000E+09 +8.68538298657E-02 +8.63985723252E-01 -5.20373946207E-04 +3.36019487071E-05 -5.24593040592E-04 +6.67874649262E-05 -2.14080670245E-02 +8.54753397768E-01
1.44500000000E+09 +1.13582718758E-01 +8.51114158636E-01 -4.95576785972E-04 +7.71262360574E-05 -4.79005276132E-04 +1.09764182163E-04 +7.07620304607E-03 +8.42100601322E-01
1.45000000000E+09 +1.42127868102E-01 +8.35439460909E-01 -5.66561510614E-04 +1.30885833576E-04 -5.68024693523E-04 +1.61497700366E-04 +3.69362370638E-02 +8.26133869667E-01
1.45500000000E+09 +1.72245554739E-01 +8.16583872647E-01 -6.63452626073E-04 +3.05160878554E-04 -5.28013770831E-04 +3.87162986349E-04 +6.83353411558E-02 +8.06354785731E-01
1.46000000000E+09 +2.03579756470E-01 +7.93975552062E-01 -5.92614324971E-04 +4.97254973597E-04 -4.83881792097E-04 +5.40978033298E-04 +1.01020566715E-01 +7.81914404049E-01
1.46500000000E+09 +2.35893336853E-01 +7.66956816418E-01 -3.93607438660E-04 +6.79055285944E-04 -3.17045939030E-04 +6.29360358565E-04 +1.34895464929E-01 +7.52388328961E-01
1.47000000000E+09 +2.69071982164E-01 +7.34207908753E-01 -2.23297296493E-04 +7.28500041129E-04 -2.11486482949E-04 +6.64723057237E-04 +1.69019177001E-01 +7.16235575873E-01
1.47500000000E+09 +3.01646076636E-01 +6.94473045714E-01 -1.20831724845E-04 +7.99244392104E-04 -1.85856901405E-04 +7.59631497779E-04 +2.02004780701E-01 +6.73545368847E-01
1.48000000000E+09 +3.32518882751E-01 +6.46879683907E-01 +3.80222107892E-05 +9.36964845446E-04 +2.19992905625E-05 +9.49156225117E-04 +2.32378147722E-01 +6.22900262230E-01
1.48500000000E+09 +3.60171863352E-01 +5.91090444668E-01 +2.66894065277E-04 +9.07998411152E-04 +2.97759350104E-04 +9.40334132596E-04 +2.58339114969E-01 +5.63308008249E-01
1.49000000000E+09 +3.83378543902E-01 +5.26538042334E-01 +5.55634598190E-04 +8.54973166639E-04 +5.74976842581E-04 +7.69877672874E-04 +2.77435287976E-01 +4.94365814291E-01
1.49500000000E+09 +3.99503104741E-01 +4.53349831321E-01 +7.10407952945E-04 +7.61314360292E-04 +6.76697567948E-04 +7.00937073951E-04 +2.86710926630E-01 +4.16113720933E-01
1.50000000000E+09 +4.05972091700E-01 +3.71324389978E-01 +8.80779585909E-04 +5.86026195435E-04 +7.92598925211E-04 +5.65251522866E-04 +2.82463614243E-01 +3.30540548120E-01
1.50500000000E+09 +3.99600375046E-01 +2.82304923726E-01 +1.06261275559E-03 +4.86547892528E-04 +9.95944622796E-04 +4.50251763915E-04 +2.61954736887E-01 +2.41094186723E-01
1.51000000000E+09 +3.76118110280E-01 +1.88223648865E-01 +1.15542693010E-03 +2.03122172296E-04 +1.12095994293E-03 +2.00384953939E-04 +2.22293840589E-01 +1.51835213368E-01
1.51500000000E+09 +3.32736017000E-01 +9.50769396611E-02 +1.38804766125E-03 +1.59180141261E-04 +1.36378863908E-03 +1.81757065865E-04 +1.62693911694E-01 +6.87610325286E-02
1.52000000000E+09 +2.67756079640E-01 +6.88631543189E-03 +1.59973806306E-03 -5.74835706098E-04 +1.63221492928E-03 -5.95317786407E-04 +8.43445133796E-02 -1.85454642127E-03
1.52500000000E+09 +1.80074107726E-01 -6.78400351636E-02 +1.35765707360E-03 -1.05211062099E-03 +1.40614004842E-03 -1.09471936135E-03 -8.18229380934E-03 -5.45060676781E-02
1.53000000000E+09 +7.59468976768E-02 -1.20063980262E-01 +9.90009466686E-04 -1.70240846251E-03 +9.78331156189E-04 -1.72192829306E-03 -1.08616333749E-01 -8.55916199459E-02
1.53500000000E+09 -3.43064057200E-02 -1.47887622742E-01 +7.02608616021E-05 -1.98439068767E-03 +4.43634210659E-05 -1.98683855452E-03 -2.09843645906E-01 -9.47799091617E-02
1.54000000000E+09 -1.46205397948E-01 -1.54791788049E-01 -5.88902320503E-04 -1.48863152946E-03 -6.12975059714E-04 -1.49901292552E-03 -3.05851600886E-01 -8.37614379309E-02
1.54500000000E+09 -2.55461342374E-01 -1.39032958771E-01 -8.55847920428E-04 -1.09362466944E-03 -8.15412057097E-04 -1.03512195113E-03 -3.92180753859E-01 -5.64628866409E-02
1.55000000000E+09 -3.55150675011E-01 -1.01744449984E-01 -9.20336595969E-04 -6.52615274189E-04 -9.04450031507E-04 -6.55018567278E-04 -4.66253776786E-01 -1.71327765766E-02
1.55500000000E+09 -4.38223529217E-01 -4.82565334197E-02 -7.51465340886E-04 -5.12180752878E-04 -6.98726221637E-04 -5.70095825338E-04 -5.27282599088E-01 +2.97163527359E-02
1.56000000000E+09 -5.02557026636E-01 +1.38095963197E-02 -9.74996589922E-04 -5.52227499858E-04 -1.04830686716E-03 -5.88003481715E-04 -5.75592731926E-01 +7.97638820333E-02
1.56500000000E+09 -5.50248792100E-01 +7.71646995069E-02 -1.11732659068E-03 -5.10025963895E-05 -1.20492878678E-03 -1.10572091647E-04 -6.13155531618E-01 +1.30686433236E-01
1.57000000000E+09 -5.86541474985E-01 +1.39504987717E-01 -9.61540179735E-04 +2.25366390498E-04 -1.07685001592E-03 +2.18582909806E-04 -6.41393179011E-01 +1.80484827827E-01
