# Hz S RI R 50
! CMT, C1220, 16058040, 17.2.0/1
! Date: 15/08/2018 09:01:56
! Data: Format (Calibration Info)
! Freq                      S11: Re/Im (F2)                       S21: Re/Im (F2)                       S12: Re/Im (F2)                       S22: Re/Im (F2)            
1.00000000000E+09 -6.71794355661E-01 +6.97746845830E-01 -5.76377316299E-05 +1.83408343196E-05 -3.29744661681E-05 +1.91729524651E-05 -7.11111105939E-01 +6.71293850469E-01
1.00500000000E+09 -6.65241026041E-01 +7.05220597464E-01 +1.31280120679E-05 -1.79385826909E-05 -3.68275352851E-06 +2.78437473965E-05 -7.07659763967E-01 +6.74638436894E-01
1.01000000000E+09 -6.61242566335E-01 +7.11112361364E-01 -7.88008666563E-06 +1.72405352052E-05 +7.13032180668E-06 -3.06641229457E-05 -7.03840423392E-01 +6.78145873990E-01
1.01500000000E+09 -6.59639834383E-01 +7.14790472708E-01 -5.89191333947E-06 -2.18382536027E-05 -5.76853268412E-05 +3.92309059351E-06 -6.99710770915E-01 +6.82202753047E-01
1.02000000000E+09 -6.59587726183E-01 +7.16492222347E-01 -3.54556688302E-05 +3.25337170131E-05 -3.92750064918E-05 -2.78349389623E-05 -6.95448772709E-01 +6.86086624490E-01
1.02500000000E+09 -6.59943918252E-01 +7.16855697769E-01 +2.56845757898E-06 +1.07705418172E-05 -1.22775552873E-05 -1.19623564184E-05 -6.91904696717E-01 +6.90333296977E-01
1.03000000000E+09 -6.59795787582E-01 +7.16618787724E-01 -2.06003586157E-05 +3.73929677296E-05 +3.54468795420E-05 +5.52139890881E-05 -6.88282470964E-01 +6.93819572548E-01
1.03500000000E+09 -6.57327341624E-01 +7.16785167893E-01 -2.18390868879E-05 -1.32180564552E-05 -2.95048768290E-05 -1.22147811549E-05 -6.84585666140E-01 +6.97163166404E-01
1.04000000000E+09 -6.52569313333E-01 +7.19005408427E-01 -2.37810149238E-05 -8.85587134999E-06 -3.37831956222E-05 +2.55242578657E-05 -6.80815052458E-01 +7.00137054763E-01
1.04500000000E+09 -6.45538378990E-01 +7.23052953875E-01 +5.56680759997E-06 +1.95259959598E-05 +8.68134199976E-06 +6.92676096018E-06 -6.76774605476E-01 +7.03496622401E-01
1.05000000000E+09 -6.36549530561E-01 +7.29122670064E-01 -5.26513320866E-05 -3.08895912901E-06 -5.57295684517E-05 +4.19259899862E-05 -6.72240236401E-01 +7.07397412894E-01
1.05500000000E+09 -6.27133820435E-01 +7.36348166226E-01 -5.76200012869E-06 -3.04377341021E-05 -8.93608017776E-05 +5.99823438493E-06 -6.68062473763E-01 +7.11542183754E-01
1.06000000000E+09 -6.18504561674E-01 +7.43998465141E-01 -4.68165160094E-05 +2.81083720109E-05 -5.59953713944E-05 +4.52752580629E-06 -6.64004893385E-01 +7.15625042283E-01
1.06500000000E+09 -6.11850174707E-01 +7.50809286290E-01 -3.24450086769E-05 +1.97499775904E-05 -5.81575974120E-05 +9.59807270851E-06 -6.60119605737E-01 +7.19288803904E-01
1.07000000000E+09 -6.07561560926E-01 +7.55516405659E-01 -9.22709609160E-06 -8.40537188017E-06 +1.84977715071E-05 +2.65707697489E-05 -6.56245074686E-01 +7.22313140986E-01
1.07500000000E+09 -6.05622990482E-01 +7.58472416576E-01 -6.21806809462E-05 +3.07947916677E-05 -2.31232522712E-05 -2.54025896218E-05 -6.51936394949E-01 +7.25428992537E-01
1.08000000000E+09 -6.05355721371E-01 +7.59456822997E-01 -5.76108198366E-05 +4.86634642652E-05 -6.12606149680E-06 +7.36876052900E-05 -6.47463020243E-01 +7.29088724417E-01
1.08500000000E+09 -6.05404544510E-01 +7.59205668644E-01 -5.52700610471E-05 +6.22182304794E-05 +9.36617591828E-06 +4.97810262494E-05 -6.42532070431E-01 +7.32949269970E-01
1.09000000000E+09 -6.04395562443E-01 +7.58484884276E-01 +6.31128885170E-06 +1.19495909964E-05 -3.42688483870E-05 +3.30352345388E-05 -6.37766666307E-01 +7.37421011673E-01
1.09500000000E+09 -6.01791294838E-01 +7.58617553927E-01 +2.03141338126E-05 +5.29081939332E-05 -3.19914300317E-05 +3.16948275478E-05 -6.33434101794E-01 +7.41244983909E-01
1.10000000000E+09 -5.96399243615E-01 +7.60507494960E-01 -1.44051029159E-05 +3.11395338375E-05 +4.47459800976E-06 +4.88361185267E-05 -6.29363458038E-01 +7.44539275223E-01
1.10500000000E+09 -5.88944382030E-01 +7.64519292281E-01 -3.89499175378E-05 +1.22710292211E-05 -1.43243350431E-05 +6.93767795941E-05 -6.25326714389E-01 +7.47604043309E-01
1.11000000000E+09 -5.79809169500E-01 +7.70664556121E-01 -1.56551187068E-05 +5.84117332495E-05 -1.69832995512E-05 +6.64046571860E-05 -6.21040326165E-01 +7.50527329516E-01
1.11500000000E+09 -5.70067867291E-01 +7.77966275468E-01 +1.48243286385E-05 +8.38223192341E-05 -4.07657737664E-05 +7.32021268561E-05 -6.16260385335E-01 +7.53945116229E-01
1.12000000000E+09 -5.61253273691E-01 +7.85134936509E-01 -4.98148522229E-05 +5.40668294268E-05 -1.68299180948E-05 +1.01827556215E-04 -6.10966618228E-01 +7.57899235446E-01
1.12500000000E+09 -5.54107090673E-01 +7.91286252711E-01 +4.10050913779E-05 +1.09699727435E-04 +2.44122736297E-05 +6.85504496220E-05 -6.05701927179E-01 +7.62129435868E-01
1.13000000000E+09 -5.49469013049E-01 +7.95499159224E-01 +2.65359030687E-06 +1.09129955828E-04 +3.77575673648E-05 +1.30149496108E-04 -6.00905151854E-01 +7.65873079059E-01
1.13500000000E+09 -5.46823057294E-01 +7.97388401203E-01 +1.53913004774E-05 +8.57785098305E-05 +4.68074076448E-05 +8.16706328002E-05 -5.96631733741E-01 +7.69224793266E-01
1.14000000000E+09 -5.45102525001E-01 +7.97806132138E-01 +1.51606670696E-05 +1.11475905934E-04 +6.20534582706E-05 +8.46689891651E-05 -5.92080378596E-01 +7.72014451937E-01
1.14500000000E+09 -5.43316110531E-01 +7.96645191519E-01 +3.10211122886E-05 +1.23052642404E-04 +3.71311479154E-05 +1.21060686626E-04 -5.87111371887E-01 +7.75148236760E-01
1.15000000000E+09 -5.39922904379E-01 +7.95576307458E-01 +4.67443009998E-05 +1.02180697990E-04 +7.40401129576E-05 +1.10018993909E-04 -5.81605584156E-01 +7.78959594010E-01
1.15500000000E+09 -5.34596349697E-01 +7.95569304461E-01 +6.36990282344E-05 +8.24190980722E-05 +9.37190381930E-05 +9.50415198358E-05 -5.75560154156E-01 +7.82970088390E-01
1.16000000000E+09 -5.26353250429E-01 +7.97520356903E-01 +1.02962875628E-04 +9.32651173014E-05 +9.53793642295E-05 +1.03039351999E-04 -5.69908503826E-01 +7.86896392187E-01
1.16500000000E+09 -5.16116977831E-01 +8.01944548342E-01 +9.91109028359E-05 +6.31222545671E-05 +1.13980094175E-04 +9.10308187543E-05 -5.64655233821E-01 +7.90367009280E-01
1.17000000000E+09 -5.04478246436E-01 +8.08134917536E-01 +1.04781736984E-04 +1.49171442844E-05 +1.27547992806E-04 +3.21015182831E-05 -5.59466497785E-01 +7.93088120384E-01
1.17500000000E+09 -4.92982918698E-01 +8.15199976957E-01 +1.20208898195E-04 +5.86667977633E-05 +1.24603756387E-04 +1.18781161489E-04 -5.54074075036E-01 +7.95882904816E-01
1.18000000000E+09 -4.83249483974E-01 +8.22278500018E-01 +1.42173757425E-04 +5.13864389941E-05 +9.97086578795E-05 -7.87534385179E-06 -5.48251781414E-01 +7.98535417689E-01
1.18500000000E+09 -4.75901459876E-01 +8.27979222207E-01 +1.07566467728E-04 +2.04194335260E-05 +1.00120781470E-04 -2.30690431897E-05 -5.41526707333E-01 +8.01694542620E-01
1.19000000000E+09 -4.71817216703E-01 +8.31521282468E-01 +1.38983188125E-04 +2.92496391994E-05 +1.10827158976E-04 -1.12432344946E-05 -5.34360206789E-01 +8.04471625954E-01
1.19500000000E+09 -4.70183111252E-01 +8.32667540723E-01 +1.31877994029E-04 +1.75693963468E-05 +1.89210466798E-04 +2.62279985891E-05 -5.27685551435E-01 +8.05818245763E-01
1.20000000000E+09 -4.70089156405E-01 +8.31522446430E-01 +9.81334343420E-05 -3.10846648627E-05 +1.13832927374E-04 +1.93113814173E-07 -5.22628827089E-01 +8.05920595456E-01
1.20500000000E+09 -4.69922848407E-01 +8.29926049606E-01 +8.60493861812E-05 +8.74917537930E-06 +9.28641711626E-05 -6.34097702528E-05 -5.20183883268E-01 +8.05635759354E-01
1.21000000000E+09 -4.68273075906E-01 +8.28304724656E-01 -2.41987660414E-06 +1.76400235899E-06 +8.00832076772E-06 +1.23952783557E-05 -5.18520406178E-01 +8.07823079969E-01
1.21500000000E+09 -4.63335107610E-01 +8.28262820873E-01 +7.66483842926E-05 +6.72323290968E-05 +4.29083104656E-05 +5.97500320240E-05 -5.15273035994E-01 +8.12113435858E-01
1.22000000000E+09 -4.55151998595E-01 +8.30018327619E-01 +9.01226102402E-05 +1.17621660198E-04 +5.63157837872E-05 +8.32094418265E-05 -5.09878517376E-01 +8.17739180272E-01
1.22500000000E+09 -4.43832596703E-01 +8.34210477879E-01 +7.46287155434E-05 +1.19870824701E-04 +9.67941848844E-05 +8.82451416461E-05 -5.03470599062E-01 +8.22964118998E-01
1.23000000000E+09 -4.30972764418E-01 +8.40191885389E-01 +1.53167107251E-04 +1.59520148499E-04 +1.30868088765E-04 +8.87771250226E-05 -4.97088017484E-01 +8.27789760836E-01
1.23500000000E+09 -4.18267721476E-01 +8.47135540965E-01 +2.17615404550E-04 +1.27116631562E-04 +1.84145004424E-04 +1.20352564358E-04 -4.91391816337E-01 +8.31675000979E-01
1.24000000000E+09 -4.06983914364E-01 +8.54109392047E-01 +2.45306476822E-04 +5.62072639611E-05 +2.39788195171E-04 +3.39830690318E-06 -4.85948521080E-01 +8.34939201714E-01
1.24500000000E+09 -3.98433466319E-01 +8.60067882021E-01 +2.25164797267E-04 +2.92709843161E-05 +2.24435469888E-04 +2.80838918188E-05 -4.79854779263E-01 +8.38096035937E-01
1.25000000000E+09 -3.93054050181E-01 +8.63826993335E-01 +2.56619140024E-04 -6.94633056630E-06 +2.32533268642E-04 +2.47601299309E-05 -4.72298834507E-01 +8.42051926774E-01
1.25500000000E+09 -3.89963729341E-01 +8.65297609932E-01 +2.33161091406E-04 +1.92646160139E-06 +2.54392742817E-04 +7.58407379445E-06 -4.64213574886E-01 +8.45797124093E-01
1.26000000000E+09 -3.88151594999E-01 +8.65099655781E-01 +2.68187798097E-04 -1.39729023170E-05 +2.83886447558E-04 -3.19327985218E-05 -4.56198981522E-01 +8.49906661401E-01
1.26500000000E+09 -3.85877128533E-01 +8.63915017135E-01 +3.04742606303E-04 -3.43254447824E-05 +2.98964646052E-04 -7.54569567857E-05 -4.48613030794E-01 +8.53573611979E-01
1.27000000000E+09 -3.81438965366E-01 +8.62765836135E-01 +3.21353976099E-04 -6.92562454499E-05 +3.21286137874E-04 -9.06018229970E-05 -4.42119879307E-01 +8.56846494620E-01
1.27500000000E+09 -3.73947370784E-01 +8.62845731152E-01 +3.19250120039E-04 -1.03085007525E-04 +3.15008611193E-04 -1.13350521000E-04 -4.35381210642E-01 +8.59729626332E-01
1.28000000000E+09 -3.62664113185E-01 +8.64697695917E-01 +2.99216118114E-04 -1.38604280871E-04 +3.07859525135E-04 -1.52310786341E-04 -4.28291844015E-01 +8.62552251595E-01
1.28500000000E+09 -3.48366493964E-01 +8.68522973507E-01 +3.18471036226E-04 -1.72343129379E-04 +3.32341980580E-04 -1.48925640512E-04 -4.19962279001E-01 +8.65883231498E-01
1.29000000000E+09 -3.32836250680E-01 +8.73795123214E-01 +3.22464175011E-04 -1.70682763123E-04 +3.29392629855E-04 -1.97930557000E-04 -4.11060938632E-01 +8.69285472141E-01
1.29500000000E+09 -3.17572149295E-01 +8.80075296896E-01 +3.10112737331E-04 -1.96300576325E-04 +3.45374874032E-04 -2.36408212499E-04 -4.01828821257E-01 +8.72490802686E-01
1.30000000000E+09 -3.04546648934E-01 +8.85714181031E-01 +3.60526314565E-04 -1.94942091088E-04 +3.09756669587E-04 -2.54966705062E-04 -3.93518842209E-01 +8.75796766520E-01
1.30500000000E+09 -2.94984512229E-01 +8.90157376438E-01 +4.03607025004E-04 -2.44694938279E-04 +3.91309471239E-04 -2.87278045349E-04 -3.85877724858E-01 +8.78495192129E-01
1.31000000000E+09 -2.89287126357E-01 +8.92550813634E-01 +4.10735242788E-04 -3.83904142370E-04 +3.51123588984E-04 -3.80449163904E-04 -3.78168738202E-01 +8.81271151975E-01
1.31500000000E+09 -2.86493968206E-01 +8.93362383367E-01 +3.17545149138E-04 -4.49258990563E-04 +3.91827505229E-04 -4.38275709952E-04 -3.69196516846E-01 +8.83922494301E-01
1.32000000000E+09 -2.84789824954E-01 +8.92413598821E-01 +3.35116999443E-04 -4.81760105386E-04 +3.28931413442E-04 -5.12651922750E-04 -3.59086479748E-01 +8.86622914441E-01
1.32500000000E+09 -2.82193157704E-01 +8.90440994066E-01 +3.01551816182E-04 -5.36633971766E-04 +3.19423375883E-04 -5.95023594011E-04 -3.48079972489E-01 +8.89472472764E-01
1.33000000000E+09 -2.76815975401E-01 +8.88381623766E-01 +2.96632305285E-04 -5.92267897934E-04 +2.63506175206E-04 -6.48200060122E-04 -3.37113286036E-01 +8.92326161582E-01
1.33500000000E+09 -2.67429636622E-01 +8.87113775497E-01 +2.88451546699E-04 -6.50881801492E-04 +2.46716674595E-04 -6.96502614939E-04 -3.27071442248E-01 +8.95102820180E-01
1.34000000000E+09 -2.53284097606E-01 +8.87494607818E-01 +2.12104964930E-04 -7.54219702647E-04 +1.18776184961E-04 -6.97480703688E-04 -3.17599484094E-01 +8.97571441794E-01
1.34500000000E+09 -2.35480416430E-01 +8.89154239851E-01 +8.77651793614E-05 -8.04315062247E-04 +1.03773294474E-04 -7.43425178104E-04 -3.07424370558E-01 +8.99848237113E-01
1.35000000000E+09 -2.15214688521E-01 +8.92106955191E-01 +8.42353977329E-06 -7.60314439197E-04 +1.33490459284E-05 -7.65984257878E-04 -2.96307758918E-01 +9.01868272021E-01
1.35500000000E+09 -1.95041403073E-01 +8.95501728250E-01 +3.50177181773E-05 -7.57814577032E-04 -2.83243858865E-05 -7.56481985152E-04 -2.83623834736E-01 +9.03796711860E-01
1.36000000000E+09 -1.76953130807E-01 +8.98617921057E-01 -1.40878596543E-05 -8.51938979899E-04 +9.12973708929E-06 -8.10065277599E-04 -2.70320942754E-01 +9.05458100051E-01
1.36500000000E+09 -1.62015242783E-01 +9.01038459791E-01 -7.80820916499E-05 -9.66398088398E-04 -7.36801507975E-05 -8.81651472375E-04 -2.57189453933E-01 +9.07262112389E-01
1.37000000000E+09 -1.50368417635E-01 +9.01951561010E-01 -1.83085228757E-04 -1.00156869199E-03 -1.02982383942E-04 -9.42894667090E-04 -2.44518340368E-01 +9.08851814091E-01
1.37500000000E+09 -1.41719083695E-01 +9.01540634095E-01 -3.23808926189E-04 -1.01599762934E-03 -1.85034535058E-04 -9.99290972959E-04 -2.31613355839E-01 +9.10432567608E-01
1.38000000000E+09 -1.33973109767E-01 +8.99767865539E-01 -3.55406940734E-04 -9.56002235511E-04 -2.49643330531E-04 -1.05354287806E-03 -2.17821485107E-01 +9.11300441298E-01
1.38500000000E+09 -1.24974773928E-01 +8.97329573479E-01 -3.53493983970E-04 -1.03352128157E-03 -3.32531709974E-04 -1.19502133291E-03 -2.02317233105E-01 +9.11611126217E-01
1.39000000000E+09 -1.13390424666E-01 +8.94249271525E-01 -4.07073588342E-04 -1.18844709081E-03 -4.84294665437E-04 -1.30397462536E-03 -1.85696553332E-01 +9.11672355576E-01
1.39500000000E+09 -9.77156266910E-02 +8.91158030548E-01 -6.51192661774E-04 -1.25408908934E-03 -8.12975753518E-04 -1.37548694082E-03 -1.68091427729E-01 +9.11174405526E-01
1.40000000000E+09 -7.76577793198E-02 +8.88295945081E-01 -8.45596330820E-04 -1.26753001670E-03 -1.01342623774E-03 -1.24313659412E-03 -1.50199257704E-01 +9.10623235635E-01
1.40500000000E+09 -5.49563441490E-02 +8.85610232371E-01 -9.68151506937E-04 -1.29719249541E-03 -1.08802055710E-03 -1.21403472855E-03 -1.32366101790E-01 +9.09494244445E-01
1.41000000000E+09 -3.06994416376E-02 +8.82915800873E-01 -1.27533685966E-03 -1.29704798733E-03 -1.21735104892E-03 -1.27895145880E-03 -1.13715303238E-01 +9.07648156041E-01
1.41500000000E+09 -7.04591071561E-03 +8.79843070929E-01 -1.38998992323E-03 -1.15118801682E-03 -1.44084100644E-03 -1.22508727545E-03 -9.33251861080E-02 +9.04904676536E-01
1.42000000000E+09 +1.47691671527E-02 +8.76396615145E-01 -1.48587173216E-03 -1.13038240435E-03 -1.61211902038E-03 -1.28057080760E-03 -7.08708249319E-02 +9.00329255046E-01
1.42500000000E+09 +3.41228669237E-02 +8.71600809936E-01 -1.65099711958E-03 -1.23138921651E-03 -1.87921808007E-03 -1.20560629422E-03 -4.69746140435E-02 +8.94800735245E-01
1.43000000000E+09 +5.15069055099E-02 +8.64892993846E-01 -1.97218368604E-03 -1.39680993731E-03 -2.24125414658E-03 -1.31627577297E-03 -2.14184402897E-02 +8.88113856538E-01
1.43500000000E+09 +6.81483741895E-02 +8.55777125110E-01 -2.50375235260E-03 -1.22985659236E-03 -2.69543126028E-03 -9.68048105150E-04 +4.35625761127E-03 +8.79851090832E-01
1.44000000000E+09 +8.58112631145E-02 +8.44388509189E-01 -2.85940318393E-03 -9.78768072702E-04 -2.94221206346E-03 -7.60473515218E-04 +3.04638308081E-02 +8.70381780071E-01
1.44500000000E+09 +1.06651416438E-01 +8.30035771131E-01 -3.17523204747E-03 -7.50493054037E-04 -3.26901392119E-03 -5.63189577610E-04 +5.82009657659E-02 +8.58581843761E-01
1.45000000000E+09 +1.31798341925E-01 +8.12585964421E-01 -3.48158298362E-03 -4.56760069410E-04 -3.63423912762E-03 -1.67746621921E-04 +8.80047301673E-02 +8.42759568108E-01
1.45500000000E+09 +1.61298837932E-01 +7.92365248660E-01 -3.73200002761E-03 -3.19317257357E-04 -3.76872244887E-03 +1.27668853269E-04 +1.19256399107E-01 +8.23238834371E-01
1.46000000000E+09 +1.94876803667E-01 +7.68886668454E-01 -4.42117140184E-03 -2.60000798063E-04 -4.23903459396E-03 +1.97310016568E-04 +1.52327313865E-01 +7.99760942440E-01
1.46500000000E+09 +2.30209575959E-01 +7.41983019027E-01 -5.62359539468E-03 +4.41937964302E-04 -5.06124378187E-03 +7.29780037998E-04 +1.86733409750E-01 +7.71768867459E-01
1.47000000000E+09 +2.65047778876E-01 +7.11655451040E-01 -6.16889376496E-03 +1.85632180403E-03 -5.66016031424E-03 +1.74763528634E-03 +2.21377887342E-01 +7.37867297448E-01
1.47500000000E+09 +2.97135461235E-01 +6.77446279663E-01 -6.55179481378E-03 +3.14128133815E-03 -6.41858383497E-03 +2.75926537347E-03 +2.55737597882E-01 +6.97208249074E-01
1.48000000000E+09 +3.25302202657E-01 +6.38682319793E-01 -6.46519701302E-03 +4.85886314181E-03 -6.69810297783E-03 +4.69119744356E-03 +2.88626327260E-01 +6.47978817269E-01
1.48500000000E+09 +3.48931720604E-01 +5.93826261816E-01 -6.13140489708E-03 +6.34945391150E-03 -6.20351786575E-03 +6.63502159811E-03 +3.18432496238E-01 +5.89493864883E-01
1.49000000000E+09 +3.67447473943E-01 +5.40598645731E-01 -5.89335251312E-03 +8.29492510338E-03 -5.48379635748E-03 +8.58651216230E-03 +3.43167704884E-01 +5.20647942341E-01
1.49500000000E+09 +3.80653084438E-01 +4.78862030713E-01 -4.53344656182E-03 +1.08498947774E-02 -3.83478624700E-03 +1.05997032833E-02 +3.58886790110E-01 +4.42283784363E-01
1.50000000000E+09 +3.89366447324E-01 +4.05827475512E-01 -1.96397770176E-03 +1.28910326927E-02 -1.76628656168E-03 +1.21106197434E-02 +3.61620140971E-01 +3.55717931043E-01
1.50500000000E+09 +3.89936925914E-01 +3.20510747259E-01 +1.38735618579E-03 +1.36989205181E-02 +9.43958847931E-04 +1.31276700842E-02 +3.48957414226E-01 +2.62890735319E-01
1.51000000000E+09 +3.77922440585E-01 +2.25647245487E-01 +4.30406563914E-03 +1.40199318650E-02 +3.72405331696E-03 +1.39882939060E-02 +3.16677190557E-01 +1.66393682193E-01
1.51500000000E+09 +3.48814746565E-01 +1.26888193627E-01 +8.04533875847E-03 +1.34933153187E-02 +7.78401735229E-03 +1.37830300182E-02 +2.62261781374E-01 +7.13186627265E-02
1.52000000000E+09 +3.00638215169E-01 +3.26243488370E-02 +1.13597621032E-02 +1.19810357195E-02 +1.13521695088E-02 +1.22855640081E-02 +1.86156335039E-01 -1.41271176215E-02
1.52500000000E+09 +2.32736676005E-01 -5.16041854225E-02 +1.52205256622E-02 +9.12332708886E-03 +1.53372446572E-02 +9.31289546633E-03 +9.04215106732E-02 -8.33431998178E-02
1.53000000000E+09 +1.45357895079E-01 -1.17676498400E-01 +1.72086527323E-02 +4.39392967136E-03 +1.74069262993E-02 +4.40568350844E-03 -1.71440647390E-02 -1.28213014217E-01
1.53500000000E+09 +4.22022301628E-02 -1.61270709333E-01 +1.74439151466E-02 -5.19714345109E-05 +1.75152106721E-02 -1.65633011963E-04 -1.30864600821E-01 -1.49154362144E-01
1.54000000000E+09 -7.10661145310E-02 -1.78794779828E-01 +1.63993884903E-02 -4.73477516450E-03 +1.62361580975E-02 -4.71344374057E-03 -2.42635620755E-01 -1.43697430533E-01
1.54500000000E+09 -1.87687006535E-01 -1.70155811065E-01 +1.36992864979E-02 -7.59872455819E-03 +1.36340323688E-02 -7.28412082394E-03 -3.43683972185E-01 -1.17285612354E-01
1.55000000000E+09 -2.96977338634E-01 -1.38528064550E-01 +1.14920906853E-02 -1.01013888980E-02 +1.17678873475E-02 -9.64510936784E-03 -4.33076604215E-01 -7.65882480976E-02
1.55500000000E+09 -3.93877587176E-01 -9.10015422088E-02 +8.27820977889E-03 -1.18983190776E-02 +8.86619727437E-03 -1.16638085063E-02 -5.06202882172E-01 -2.40859031027E-02
1.56000000000E+09 -4.72884380273E-01 -3.46466117371E-02 +4.60753002263E-03 -1.23042732044E-02 +5.21190250839E-03 -1.26933259548E-02 -5.63781317295E-01 +3.37018511328E-02
1.56500000000E+09 -5.35078166297E-01 +2.52060604288E-02 +2.06500320786E-03 -1.15763225771E-02 +2.38064226236E-03 -1.22523148037E-02 -6.07511506954E-01 +9.41383032668E-02
1.57000000000E+09 -5.80418209507E-01 +8.46159259966E-02 +2.29565619867E-05 -1.06434453442E-02 -1.91646782873E-05 -1.12779258421E-02 -6.39063922456E-01 +1.53633836312E-01
