# Hz S RI R 50
! CMT, C1220, 16058040, 17.2.0/1
! Date: 15/08/2018 09:03:31
! Data: Format (Calibration Info)
! Freq                      S11: Re/Im (F2)                       S21: Re/Im (F2)                       S12: Re/Im (F2)                       S22: Re/Im (F2)            
1.00000000000E+09 -6.55409247130E-01 +7.03012085992E-01 +2.28364478461E-05 -1.23841909335E-05 +1.37821553043E-05 -1.01597921315E-05 -7.11398356311E-01 +6.70573392152E-01
1.00500000000E+09 -6.49698869164E-01 +7.10030440288E-01 -5.73704810651E-06 +3.45686841927E-05 -1.95502733560E-05 -1.27477088313E-05 -7.07758706331E-01 +6.73875916397E-01
1.01000000000E+09 -6.46841814950E-01 +7.15683042911E-01 +2.07956324439E-05 -6.34900339409E-05 +2.82512585370E-05 -2.18557890521E-05 -7.03929455529E-01 +6.77148880603E-01
1.01500000000E+09 -6.46517788096E-01 +7.19008232693E-01 +4.77757143086E-06 -6.73952271540E-05 -6.38200194349E-06 -2.80694033577E-05 -6.99923446043E-01 +6.81162924725E-01
1.02000000000E+09 -6.47549152955E-01 +7.20708679760E-01 +3.09631089570E-05 -9.30312323775E-06 +1.83445799563E-05 +4.64203873986E-06 -6.95601215699E-01 +6.85414100521E-01
1.02500000000E+09 -6.48497038588E-01 +7.20936226566E-01 +2.62423417825E-05 -1.08488044862E-06 +7.85783967782E-05 -3.18555977645E-05 -6.92203663510E-01 +6.89481266532E-01
1.03000000000E+09 -6.48372972613E-01 +7.20757991864E-01 +1.92723022310E-05 -3.84377750812E-05 -2.57566970075E-05 -6.67745023315E-05 -6.88668108837E-01 +6.93238403167E-01
1.03500000000E+09 -6.45393017291E-01 +7.21223634252E-01 -1.44644812351E-05 -8.60636159019E-06 -1.15081008661E-05 -4.43171742263E-05 -6.84783561705E-01 +6.96247721990E-01
1.04000000000E+09 -6.39806342372E-01 +7.23617694226E-01 -6.99882584619E-06 -2.63045611829E-05 +2.08682875291E-05 -7.11104956974E-05 -6.81231101329E-01 +6.99312479307E-01
1.04500000000E+09 -6.31551800701E-01 +7.27878476456E-01 -2.37319345357E-06 +3.53586593598E-05 +4.28087606629E-06 -4.58671961884E-05 -6.77026400128E-01 +7.02640450582E-01
1.05000000000E+09 -6.21101267890E-01 +7.34183939687E-01 -2.08831423009E-05 -2.74115144990E-05 -2.44794733133E-06 -2.95607030580E-05 -6.72623959154E-01 +7.06682794867E-01
1.05500000000E+09 -6.10114130268E-01 +7.41758239632E-01 +2.72990691806E-06 +6.60935644778E-06 -3.44326328210E-05 -3.93142060630E-05 -6.68286997985E-01 +7.10706931966E-01
1.06000000000E+09 -6.00168373062E-01 +7.49471358047E-01 -1.03872696385E-05 -9.68005713318E-06 -2.06407152941E-05 -3.13654037952E-05 -6.64267541745E-01 +7.14745556905E-01
1.06500000000E+09 -5.92459019045E-01 +7.56278911547E-01 -5.12977191796E-05 -5.07986855611E-05 -3.87114928619E-07 -3.27177415989E-05 -6.60281803358E-01 +7.18473532144E-01
1.07000000000E+09 -5.87581973470E-01 +7.61329339679E-01 -5.87546592076E-05 +5.91949950885E-06 -1.57320274399E-05 -5.03086912704E-06 -6.56528471784E-01 +7.21543434967E-01
1.07500000000E+09 -5.85676722460E-01 +7.64419499226E-01 -2.48389858805E-05 +2.28631894535E-05 -3.84178622813E-05 +2.56358862698E-05 -6.52297128965E-01 +7.24515036508E-01
1.08000000000E+09 -5.85772912916E-01 +7.65863105693E-01 -1.50605372213E-05 +1.22660557373E-05 -6.76750115200E-05 +2.85361810577E-05 -6.47717756797E-01 +7.28339968160E-01
1.08500000000E+09 -5.86614600202E-01 +7.65984986375E-01 -1.42736022293E-05 -7.46441461166E-06 -7.91502603037E-05 -1.69604781409E-05 -6.42833257371E-01 +7.32335575960E-01
1.09000000000E+09 -5.86762497968E-01 +7.65880330784E-01 +3.97210492509E-07 -2.70139877216E-05 -3.65155625590E-05 +2.33042001151E-05 -6.37945912776E-01 +7.36609746372E-01
1.09500000000E+09 -5.85523109810E-01 +7.65914748087E-01 -4.11182010990E-05 +3.12601503774E-05 -3.19481698438E-05 +7.63074720441E-06 -6.33745533413E-01 +7.40533947150E-01
1.10000000000E+09 -5.81739549677E-01 +7.67416941741E-01 +1.45985250011E-05 +6.20258731518E-06 -2.81802242488E-05 +2.88628740495E-05 -6.29743339672E-01 +7.43835884172E-01
1.10500000000E+09 -5.75795667294E-01 +7.70830878778E-01 -4.63162659303E-05 +9.33034378153E-06 -1.20721975032E-05 -1.21081719081E-05 -6.25775431680E-01 +7.46873599128E-01
1.11000000000E+09 -5.68026206062E-01 +7.76095472807E-01 -4.98155733176E-05 -4.54252978006E-06 -2.35455687586E-05 +6.93026410490E-05 -6.21461704651E-01 +7.49754902350E-01
1.11500000000E+09 -5.59418386544E-01 +7.82287165626E-01 -9.07412425887E-06 +1.13118352091E-05 -3.09532444126E-05 +5.29709529907E-06 -6.16556981822E-01 +7.53055482081E-01
1.12000000000E+09 -5.51305564881E-01 +7.88541179653E-01 -4.93760851156E-06 +1.48364086173E-05 -6.86623015079E-06 +2.33849096525E-05 -6.11394421660E-01 +7.57141475228E-01
1.12500000000E+09 -5.44386981622E-01 +7.93847439363E-01 -7.38260250971E-05 +7.98913352324E-06 +1.01682632869E-05 +2.24358978449E-06 -6.06053638959E-01 +7.61365127405E-01
1.13000000000E+09 -5.39413215690E-01 +7.97544791254E-01 -2.05218090299E-05 +1.52364777468E-05 -1.89603439627E-05 -2.79116547471E-05 -6.01369368856E-01 +7.65002410027E-01
1.13500000000E+09 -5.35869011252E-01 +7.99250984017E-01 -4.52485917975E-05 +3.42072284684E-05 -8.76350129683E-05 +2.04019171613E-06 -5.96888160756E-01 +7.68316997563E-01
1.14000000000E+09 -5.33149960968E-01 +7.99570244314E-01 -4.35797044498E-05 -2.33304419809E-05 -2.45983503916E-05 +4.17248727338E-05 -5.92388531890E-01 +7.71195500321E-01
1.14500000000E+09 -5.30186999954E-01 +7.98851645963E-01 -5.12944031501E-05 +6.13714135889E-05 -2.18612518724E-05 +1.00216364631E-04 -5.87511048986E-01 +7.74332473469E-01
1.15000000000E+09 -5.25975642237E-01 +7.98235202578E-01 -3.66217339419E-05 +4.90878624343E-05 -4.78442731759E-05 +6.81694770147E-05 -5.81949436949E-01 +7.78000986423E-01
1.15500000000E+09 -5.20165846681E-01 +7.98842442037E-01 -4.87602296957E-05 +6.32816028369E-05 -5.83378470433E-05 +3.80855577161E-05 -5.76109064029E-01 +7.82077744583E-01
1.16000000000E+09 -5.12278624545E-01 +8.01088593642E-01 -5.09207300673E-06 +1.03656050256E-04 +2.21101821325E-06 +7.19343979198E-05 -5.70232816415E-01 +7.86245926328E-01
1.16500000000E+09 -5.02648118104E-01 +8.05936960250E-01 +1.36868078850E-05 +6.38144589045E-05 +2.83786456802E-05 +6.57566906677E-05 -5.64978742954E-01 +7.89564453024E-01
1.17000000000E+09 -4.92541889084E-01 +8.12171943223E-01 -2.44841700191E-05 +7.85182917765E-05 -1.95773887095E-05 +1.24238999973E-04 -5.59708241787E-01 +7.92375818282E-01
1.17500000000E+09 -4.82648483001E-01 +8.19204386025E-01 -4.80310400191E-06 +9.02587885904E-05 -3.90154373872E-05 +1.11011529687E-04 -5.54484002114E-01 +7.95005565392E-01
1.18000000000E+09 -4.74536188070E-01 +8.26261325800E-01 +4.04276447884E-05 +1.24346121697E-04 +2.50698800401E-05 +8.12735559917E-05 -5.48706834743E-01 +7.97843234687E-01
1.18500000000E+09 -4.68587895310E-01 +8.31789671423E-01 +5.27720142833E-05 +1.09845832665E-04 +6.21499208288E-05 +9.82556317042E-05 -5.42026962778E-01 +8.00902526161E-01
1.19000000000E+09 -4.65002058285E-01 +8.35209227932E-01 +5.80108547289E-05 +1.10314695540E-04 +4.91340010816E-05 +1.20452279857E-04 -5.34766435021E-01 +8.03700456954E-01
1.19500000000E+09 -4.63468752593E-01 +8.36434762951E-01 +2.42093817715E-05 +1.00652280035E-04 +1.69586916067E-05 +1.08291746113E-04 -5.28132299528E-01 +8.05024729477E-01
1.20000000000E+09 -4.62589291945E-01 +8.35186907364E-01 +6.55435025263E-05 +1.83227747347E-04 +5.72534070950E-05 +1.58062508722E-04 -5.23047561761E-01 +8.05071930413E-01
1.20500000000E+09 -4.61285360894E-01 +8.33500358565E-01 +1.29200036007E-04 +1.94526699264E-04 +1.24728445710E-04 +1.55193789844E-04 -5.20655000612E-01 +8.04927031442E-01
1.21000000000E+09 -4.57842936357E-01 +8.31939772876E-01 +2.14764040025E-04 +1.06560061152E-04 +2.15770524332E-04 +1.20732424921E-04 -5.18949691462E-01 +8.07063418604E-01
1.21500000000E+09 -4.51376846629E-01 +8.31669215953E-01 +2.27745795934E-04 -2.53286563260E-05 +2.08072156754E-04 +1.86387068662E-05 -5.15617115232E-01 +8.11352717437E-01
1.22000000000E+09 -4.41823955751E-01 +8.33364267580E-01 +1.83474282001E-04 -9.81442529847E-05 +1.88470807638E-04 -7.11146174476E-05 -5.10349462961E-01 +8.16945260756E-01
1.22500000000E+09 -4.29838310782E-01 +8.37534194586E-01 +1.06628040814E-04 -8.63563550610E-05 +9.37424056150E-05 -8.25712524363E-05 -5.03884338591E-01 +8.22331059968E-01
1.23000000000E+09 -4.16786381779E-01 +8.43110793741E-01 +6.78197599318E-05 -9.15291572847E-05 +4.78068580244E-05 -5.08303123522E-05 -4.97514841442E-01 +8.26977461850E-01
1.23500000000E+09 -4.04492471380E-01 +8.49941396855E-01 +7.14744318741E-05 -4.11341617396E-05 +9.04508066652E-05 -4.41447857348E-05 -4.91872538353E-01 +8.30980566676E-01
1.24000000000E+09 -3.94059629936E-01 +8.56796764103E-01 +3.72792804625E-05 -6.51048535445E-05 -6.43307560805E-07 -4.64111065786E-05 -4.86349139577E-01 +8.34103888576E-01
1.24500000000E+09 -3.86673299708E-01 +8.62514910821E-01 +8.83874934755E-05 -3.37741010228E-05 +1.06104659048E-04 +2.11073262916E-05 -4.80181455625E-01 +8.37372318175E-01
1.25000000000E+09 -3.82256194084E-01 +8.66263094409E-01 +4.69234964574E-05 -4.78235908640E-05 +4.78819108221E-05 -1.35345228067E-05 -4.72788808932E-01 +8.41318261582E-01
1.25500000000E+09 -3.80050000725E-01 +8.67667661322E-01 +6.91415516271E-05 -4.42758554869E-05 +7.84354030307E-05 -2.27351359063E-05 -4.64744656357E-01 +8.45068430601E-01
1.26000000000E+09 -3.78810081821E-01 +8.67487068084E-01 +9.19663035576E-05 -2.39918563101E-05 +6.63991773943E-05 -2.99811715494E-05 -4.56661765317E-01 +8.49305533056E-01
1.26500000000E+09 -3.76982168600E-01 +8.66098948687E-01 +1.23254354892E-04 +1.00076652268E-05 +6.35701755080E-05 -3.19821741370E-05 -4.49163938677E-01 +8.52863686822E-01
1.27000000000E+09 -3.72719156644E-01 +8.65078139321E-01 +1.31249593888E-04 -4.66502535029E-05 +1.48536915690E-04 -5.43912603544E-05 -4.42535279503E-01 +8.56144587176E-01
1.27500000000E+09 -3.65001728753E-01 +8.65011883787E-01 +1.38453380281E-04 -5.31470762355E-05 +1.22879597405E-04 -5.65994977781E-05 -4.35928747786E-01 +8.58951214464E-01
1.28000000000E+09 -3.53652913810E-01 +8.66897522958E-01 +7.14089091915E-05 -1.23986724202E-04 +9.26559347418E-05 -1.47769442059E-04 -4.28908276225E-01 +8.61806921758E-01
1.28500000000E+09 -3.38961384219E-01 +8.70620396704E-01 +1.10999201497E-04 -8.50726554898E-05 +4.04614967302E-05 -8.98666733768E-05 -4.20643413159E-01 +8.65107203754E-01
1.29000000000E+09 -3.23202988633E-01 +8.75943864653E-01 +6.75385733399E-05 -6.48375744856E-05 +2.16672056034E-05 -1.27633567596E-04 -4.11574433383E-01 +8.68479888373E-01
1.29500000000E+09 -3.07689049559E-01 +8.81878639806E-01 +4.54468870963E-05 -6.28171427905E-05 +4.56499794198E-05 -1.02241916190E-04 -4.02375737519E-01 +8.71778100676E-01
1.30000000000E+09 -2.94380476933E-01 +8.87745590796E-01 +8.53197661779E-05 -1.46804754240E-04 +6.70200217440E-05 -1.24681853708E-04 -3.94125006037E-01 +8.74925386667E-01
1.30500000000E+09 -2.84504147040E-01 +8.92165748008E-01 +8.67484333703E-05 -1.21412835869E-04 +6.62791702394E-05 -1.32450808936E-04 -3.86428612754E-01 +8.77927913139E-01
1.31000000000E+09 -2.78303390088E-01 +8.94765178902E-01 -1.19923960975E-05 -1.68977633871E-04 +2.13877863672E-05 -1.49211750254E-04 -3.78672402294E-01 +8.80531470836E-01
1.31500000000E+09 -2.75128803608E-01 +8.95631130860E-01 -1.70819872759E-05 -1.38764103990E-04 -8.85742867353E-06 -1.60125733155E-04 -3.69806606606E-01 +8.83230679120E-01
1.32000000000E+09 -2.72997069932E-01 +8.95017575476E-01 -3.15192251460E-05 -9.39998384478E-05 -5.31942729563E-05 -1.01995094569E-04 -3.59783291067E-01 +8.85934510066E-01
1.32500000000E+09 -2.69934005281E-01 +8.93439687877E-01 +1.24195166985E-05 -1.23699220837E-04 -3.78134176651E-05 -1.18205119535E-04 -3.48651475489E-01 +8.88857286089E-01
1.33000000000E+09 -2.63908322083E-01 +8.91935399919E-01 -1.04151605329E-05 -1.49815334379E-04 -6.13656301765E-06 -1.52673015559E-04 -3.37939330524E-01 +8.91714426971E-01
1.33500000000E+09 -2.53731409227E-01 +8.90957964959E-01 -3.32633222308E-05 -1.61634708492E-04 -2.73589249524E-05 -9.84069121284E-05 -3.27717778445E-01 +8.94372450176E-01
1.34000000000E+09 -2.39400655886E-01 +8.91401156376E-01 -3.98734510465E-05 -1.69140957828E-04 -7.11499232634E-05 -1.50729995577E-04 -3.18312490353E-01 +8.96866348737E-01
1.34500000000E+09 -2.21675461114E-01 +8.92895889100E-01 -1.23637021502E-04 -1.58021195031E-04 -1.16846047621E-04 -1.17161402178E-04 -3.08119555008E-01 +8.99288636849E-01
1.35000000000E+09 -2.02063242092E-01 +8.95473517872E-01 -1.54973092261E-04 -1.34861446059E-04 -1.49701698539E-04 -1.73474980827E-04 -2.96956140215E-01 +9.01133517295E-01
1.35500000000E+09 -1.82811359996E-01 +8.98394726774E-01 -1.91771306468E-04 -1.25233280619E-04 -1.81878815704E-04 -1.35540114191E-04 -2.84522713951E-01 +9.03188293110E-01
1.36000000000E+09 -1.65701296524E-01 +9.01110620988E-01 -2.98169126320E-04 -6.45310750037E-05 -2.33522756212E-04 -1.31692547879E-04 -2.71073165575E-01 +9.04815692402E-01
1.36500000000E+09 -1.52019272586E-01 +9.02797169680E-01 -2.51440977017E-04 +1.00048155350E-05 -2.25385374572E-04 -1.29837554407E-05 -2.57927948152E-01 +9.06737777911E-01
1.37000000000E+09 -1.41669220759E-01 +9.03240375463E-01 -2.31046736809E-04 +7.10233754279E-05 -2.08763352900E-04 +5.11923830983E-05 -2.45177955250E-01 +9.08291483854E-01
1.37500000000E+09 -1.34098502400E-01 +9.02457006570E-01 -1.48885869366E-04 +7.31205704816E-05 -1.93822038970E-04 +1.95453055119E-05 -2.32392810427E-01 +9.09730931522E-01
1.38000000000E+09 -1.27211236111E-01 +9.00413123271E-01 -1.71348689501E-04 +1.25417526597E-04 -2.36886316973E-04 +1.10378636376E-04 -2.18630723789E-01 +9.10840287908E-01
1.38500000000E+09 -1.18877914687E-01 +8.97549531169E-01 -1.41940301346E-04 +2.27103942752E-04 -1.98257400471E-04 +2.55401736273E-04 -2.03152276742E-01 +9.11320624134E-01
1.39000000000E+09 -1.07814609824E-01 +8.94084118650E-01 -1.48272958905E-05 +2.39995184745E-04 -4.97310265905E-05 +2.96302093825E-04 -1.86548529310E-01 +9.11193567144E-01
1.39500000000E+09 -9.23783685361E-02 +8.90891383200E-01 +5.81668363501E-05 +2.11730843233E-04 +1.16044340267E-04 +1.96271005817E-04 -1.68753796004E-01 +9.10845400998E-01
1.40000000000E+09 -7.26399128689E-02 +8.87580731600E-01 +1.62892579668E-04 +1.54293577661E-04 +2.20198342241E-04 +1.44005016764E-04 -1.51058764535E-01 +9.10124175564E-01
1.40500000000E+09 -4.97621097295E-02 +8.84617412049E-01 +2.04947295293E-04 -7.38531446999E-05 +1.92535259392E-04 -6.28285330039E-05 -1.33172181718E-01 +9.09029729513E-01
1.41000000000E+09 -2.53243728830E-02 +8.81527552207E-01 +9.78878248067E-06 -1.44055247464E-04 +3.42507370198E-05 -1.49287476044E-04 -1.14537586496E-01 +9.07305887149E-01
1.41500000000E+09 -1.15716826689E-03 +8.77947121104E-01 -3.78606123403E-05 -3.01624100625E-05 -3.79888475861E-05 -3.09051440138E-05 -9.43642322811E-02 +9.04510953591E-01
1.42000000000E+09 +2.14047040852E-02 +8.73517383085E-01 +4.51624583979E-06 -1.86794397132E-06 -6.45498808988E-06 +1.83879760097E-05 -7.19383558451E-02 +9.00064089043E-01
1.42500000000E+09 +4.12067833317E-02 +8.67396566952E-01 -2.51033340431E-05 -3.12001892300E-05 +1.14426803752E-05 -2.46560233560E-05 -4.79123381419E-02 +8.94545821736E-01
1.43000000000E+09 +5.90973599318E-02 +8.59836696802E-01 -4.63089755764E-05 +2.36336892667E-06 -4.82835418461E-05 -1.36366222674E-05 -2.23242737273E-02 +8.88096128983E-01
1.43500000000E+09 +7.62401560943E-02 +8.49679770361E-01 +9.75587423736E-06 -1.58345205601E-05 -2.05347411955E-07 -1.05995195016E-04 +3.45536101323E-03 +8.79776593048E-01
1.44000000000E+09 +9.43759910185E-02 +8.37377366939E-01 -1.47675574404E-04 -1.56116221541E-04 -1.50310043858E-04 -1.91745141768E-04 +2.96069824832E-02 +8.70224251242E-01
1.44500000000E+09 +1.15772063645E-01 +8.22666328754E-01 -2.84096031724E-04 -2.23567233521E-05 -2.93841949059E-04 +7.73448717543E-06 +5.73875572132E-02 +8.58518270361E-01
1.45000000000E+09 +1.41593910739E-01 +8.05029380412E-01 -3.13864491261E-04 +4.37382622077E-05 -2.89717980537E-04 +3.77316639116E-05 +8.72548417829E-02 +8.42714844447E-01
1.45500000000E+09 +1.71715427712E-01 +7.84002784119E-01 -4.56559597808E-04 +3.51612399756E-04 -4.55853458034E-04 +3.86310648124E-04 +1.18358438730E-01 +8.23189419864E-01
1.46000000000E+09 +2.05066132085E-01 +7.59925065655E-01 -8.89735846685E-05 +8.10300247109E-04 -3.39391147096E-05 +7.03610717227E-04 +1.51553263679E-01 +7.99955422149E-01
1.46500000000E+09 +2.39963150035E-01 +7.32493791217E-01 +4.82111058865E-04 +7.49634374636E-04 +4.56563583911E-04 +6.19749870833E-04 +1.86025387413E-01 +7.71894902663E-01
1.47000000000E+09 +2.74309682805E-01 +7.00966935220E-01 +8.54717058133E-04 +2.05354314954E-04 +7.50989515539E-04 +1.68103188727E-04 +2.20707210021E-01 +7.38208844151E-01
1.47500000000E+09 +3.04252026133E-01 +6.65193356543E-01 +5.14017364360E-04 -4.40166501219E-04 +4.75459951600E-04 -4.15002787915E-04 +2.55059134630E-01 +6.97623649663E-01
1.48000000000E+09 +3.30394882755E-01 +6.25646675134E-01 +1.32005541111E-04 -1.51461079784E-04 +1.27443078426E-04 -1.56788395627E-04 +2.87918316914E-01 +6.48587187079E-01
1.48500000000E+09 +3.51911127631E-01 +5.78671682611E-01 +1.78226752016E-04 +3.71071885125E-05 +1.43872947640E-04 +1.09701654218E-04 +3.18041901298E-01 +5.90275223315E-01
1.49000000000E+09 +3.67370971246E-01 +5.23517431719E-01 +3.09605330917E-04 +2.54701374146E-05 +3.08422848055E-04 +8.44200616475E-05 +3.43264479083E-01 +5.21752465403E-01
1.49500000000E+09 +3.77409466548E-01 +4.58577062890E-01 +6.55474520064E-04 +4.27657747110E-04 +6.76736023971E-04 +4.39464421710E-04 +3.59591261093E-01 +4.43421577623E-01
1.50000000000E+09 +3.79454991514E-01 +3.81888123993E-01 +2.09545515254E-03 -4.92356220462E-04 +1.97575593197E-03 -4.56226651281E-04 +3.63107005158E-01 +3.56042498245E-01
1.50500000000E+09 +3.71344308303E-01 +2.97045510369E-01 +1.33990298364E-03 -2.49515229090E-03 +1.42257007051E-03 -2.32013710090E-03 +3.50515639451E-01 +2.62545331592E-01
1.51000000000E+09 +3.51902938212E-01 +2.05338328223E-01 -7.67093709965E-04 -3.24654410646E-03 -5.77719052463E-04 -3.23215773150E-03 +3.18045394655E-01 +1.65387143391E-01
1.51500000000E+09 +3.16073850250E-01 +1.12310771322E-01 -2.07896104498E-03 -2.45757590572E-03 -2.00576051380E-03 -2.58131082614E-03 +2.63359204880E-01 +6.95954468345E-02
1.52000000000E+09 +2.63021549761E-01 +2.72025908252E-02 -3.67489617643E-03 -1.77652515045E-03 -3.69398288614E-03 -1.92699970902E-03 +1.86184774406E-01 -1.62019121407E-02
1.52500000000E+09 +1.94412813910E-01 -4.61494311456E-02 -4.19868643752E-03 +1.33130929666E-03 -4.34624688528E-03 +1.23985601390E-03 +8.99307120105E-02 -8.52517593993E-02
1.53000000000E+09 +1.09694333720E-01 -1.02195867164E-01 -2.35935400591E-03 +2.31553737810E-03 -2.36745245074E-03 +2.32336279880E-03 -1.85855383051E-02 -1.29578550455E-01
1.53500000000E+09 +1.14751938042E-02 -1.35979813180E-01 -1.96745279592E-03 +2.36096138320E-03 -2.02691403709E-03 +2.37054601538E-03 -1.31954676123E-01 -1.49647763984E-01
1.54000000000E+09 -9.32454052436E-02 -1.45067248771E-01 -1.02073510530E-03 +3.55284906784E-03 -1.04990659514E-03 +3.58441146755E-03 -2.43433850162E-01 -1.43940443828E-01
1.54500000000E+09 -1.98316969158E-01 -1.31971081185E-01 +3.53125738846E-04 +3.24947440497E-03 +2.77505226956E-04 +3.23652985594E-03 -3.44237477895E-01 -1.17236424974E-01
1.55000000000E+09 -2.97755553413E-01 -1.01371945337E-01 +7.80423452920E-04 +3.05931651049E-03 +6.87592679248E-04 +3.09083542075E-03 -4.33246185481E-01 -7.67617086972E-02
1.55500000000E+09 -3.86226581328E-01 -5.68117092933E-02 +1.96612041392E-03 +3.11850743960E-03 +1.86724477616E-03 +3.30436393557E-03 -5.06350955966E-01 -2.45725102431E-02
1.56000000000E+09 -4.59486350375E-01 -5.71292300949E-03 +3.37567962603E-03 +1.97913763340E-03 +3.50789993774E-03 +2.22970163729E-03 -5.63943816542E-01 +3.32257162421E-02
1.56500000000E+09 -5.19212090557E-01 +4.77669711225E-02 +3.18325576555E-03 +4.31543305760E-04 +3.43734674526E-03 +5.01723729465E-04 -6.07604469909E-01 +9.34555439368E-02
1.57000000000E+09 -5.63917844962E-01 +1.02995854914E-01 +2.92736953382E-03 -3.03104698364E-04 +3.15844706689E-03 -3.63913349126E-04 -6.39247777658E-01 +1.52906533430E-01
