# Hz S RI R 50
! CMT, C1220, 16058040, 17.2.0/1
! Date: 15/08/2018 09:08:13
! Data: Format (Calibration Info)
! Freq                      S11: Re/Im (F2)                       S21: Re/Im (F2)                       S12: Re/Im (F2)                       S22: Re/Im (F2)            
1.00000000000E+09 -6.68511420738E-01 +7.07888828033E-01 -2.53219852603E-05 +9.42093384377E-06 +6.41288260459E-06 -2.00271524074E-05 -7.13323965865E-01 +6.69485195291E-01
1.00500000000E+09 -6.65638963666E-01 +7.10590583833E-01 +1.38473341551E-05 +5.26294907650E-06 -6.80036271705E-05 -2.11534278768E-05 -7.09528929330E-01 +6.72906353874E-01
1.01000000000E+09 -6.61947058782E-01 +7.13598163999E-01 -5.44564137876E-06 +3.38643670018E-05 +1.47392700501E-05 +4.52603656599E-05 -7.05771054913E-01 +6.76126622884E-01
1.01500000000E+09 -6.57226480525E-01 +7.17168028732E-01 -1.20899051930E-05 -3.61434896632E-06 +4.70613779052E-05 -2.43383549364E-05 -7.01733271082E-01 +6.80159635347E-01
1.02000000000E+09 -6.51197092121E-01 +7.21574860362E-01 +1.11046525166E-05 +5.71096263171E-05 +6.20413486413E-06 -1.11038673175E-05 -6.97449289069E-01 +6.84177199401E-01
1.02500000000E+09 -6.44415506965E-01 +7.26610977624E-01 -3.13872122028E-05 +9.62430116734E-06 +2.64925066622E-05 -3.07996436538E-05 -6.93953779996E-01 +6.88468146645E-01
1.03000000000E+09 -6.37664049613E-01 +7.31675408970E-01 -1.90384058907E-05 +3.47676504072E-05 +2.19200083388E-06 -1.58404589333E-05 -6.90242375439E-01 +6.92104821517E-01
1.03500000000E+09 -6.30851212759E-01 +7.36425164371E-01 -2.93514990200E-05 -4.82087992102E-05 -1.38147391424E-05 -2.52666408534E-05 -6.86596001025E-01 +6.95301660734E-01
1.04000000000E+09 -6.25354912665E-01 +7.40966877838E-01 +1.43537537839E-05 -1.28521145760E-05 -9.41139840572E-06 +8.12762274708E-06 -6.82903259362E-01 +6.98434250643E-01
1.04500000000E+09 -6.21220679653E-01 +7.44894347110E-01 -6.56400869560E-05 -2.83156223584E-05 +1.86275263764E-05 -3.05229276207E-05 -6.78940937077E-01 +7.01796179819E-01
1.05000000000E+09 -6.18140826026E-01 +7.48528974069E-01 +6.88381670137E-06 -1.62724007978E-05 -1.08767298536E-05 +3.78376964598E-05 -6.74616577020E-01 +7.05624061290E-01
1.05500000000E+09 -6.15670149551E-01 +7.51171661941E-01 +3.13069454463E-06 -1.73111307917E-05 -1.59397328270E-05 -2.90210387188E-05 -6.70274160903E-01 +7.09826680833E-01
1.06000000000E+09 -6.13381688818E-01 +7.53913628200E-01 +2.08966923989E-05 +4.22942369496E-05 -9.70555066890E-06 -8.14764065469E-06 -6.66211303672E-01 +7.13865203564E-01
1.06500000000E+09 -6.10587574530E-01 +7.56771287311E-01 -5.16212796685E-05 +1.70572255885E-05 -3.14794681802E-05 -3.64261581161E-05 -6.62395395366E-01 +7.17435750756E-01
1.07000000000E+09 -6.06618095939E-01 +7.59671245194E-01 -6.18638273241E-05 -6.11472932890E-06 -9.13701759612E-06 -1.44690313106E-06 -6.58397385048E-01 +7.20484500019E-01
1.07500000000E+09 -6.01236362143E-01 +7.63157356459E-01 -5.60573655791E-05 +1.29531739321E-05 -9.82806015784E-06 +2.09008897901E-05 -6.54189105880E-01 +7.23672533626E-01
1.08000000000E+09 -5.94722299971E-01 +7.67341127177E-01 -5.59869007563E-05 -7.94812076459E-06 -4.84652840456E-05 +2.83171161039E-05 -6.49649554502E-01 +7.27338101812E-01
1.08500000000E+09 -5.87341641956E-01 +7.71669672384E-01 -3.97929246687E-05 +3.33724885098E-05 -2.36503614538E-05 +5.37698432192E-05 -6.44990998173E-01 +7.31466912618E-01
1.09000000000E+09 -5.79610420030E-01 +7.76185626722E-01 -2.15036047007E-05 -2.39904019839E-06 -1.92291041667E-05 +1.73592086654E-05 -6.40121974282E-01 +7.35501118928E-01
1.09500000000E+09 -5.72967967134E-01 +7.80595870049E-01 +2.91184797139E-05 +4.19538976541E-05 +6.24065518131E-06 +2.99207501196E-05 -6.35826236870E-01 +7.39324880458E-01
1.10000000000E+09 -5.66980013469E-01 +7.84558694154E-01 -2.04816883726E-06 +1.88420250450E-05 -1.50844507862E-05 -5.77512561963E-06 -6.31739151451E-01 +7.42728737097E-01
1.10500000000E+09 -5.62670012341E-01 +7.88244410782E-01 -1.66870426480E-05 +4.59478979155E-05 -1.25314370788E-05 -1.10284304323E-05 -6.27634494064E-01 +7.45777295128E-01
1.11000000000E+09 -5.59382400301E-01 +7.91107443473E-01 -3.31945739884E-05 +2.52931739963E-06 +2.92531504679E-06 +2.69523930980E-05 -6.23318992531E-01 +7.48757270238E-01
1.11500000000E+09 -5.56716416053E-01 +7.93926002960E-01 -4.27362652932E-05 +2.91488715026E-05 +2.45696808431E-05 +4.41996985735E-05 -6.18418992715E-01 +7.52299837311E-01
1.12000000000E+09 -5.54133301010E-01 +7.96118420185E-01 -2.48849305036E-05 +2.43320618572E-05 -2.55873957306E-05 +1.93729857291E-05 -6.13416266389E-01 +7.56317353792E-01
1.12500000000E+09 -5.50624086391E-01 +7.98548198168E-01 -1.38337397520E-05 +2.18670075442E-05 -6.80791166352E-05 +3.56580218907E-05 -6.08278823829E-01 +7.60396487385E-01
1.13000000000E+09 -5.45699284117E-01 +8.01151133723E-01 -5.99319782365E-05 +4.19364636133E-06 -5.62480844224E-05 +1.54128776159E-05 -6.03584645133E-01 +7.64068929928E-01
1.13500000000E+09 -5.39370008826E-01 +8.03730071268E-01 -4.64156944841E-06 +9.27128831677E-07 +8.79203357840E-06 +1.90445836832E-05 -5.99079331769E-01 +7.67427467659E-01
1.14000000000E+09 -5.31598055734E-01 +8.07151846147E-01 +1.88279060388E-05 -2.41306579292E-05 -7.20866043224E-06 +1.49635764133E-05 -5.94369680293E-01 +7.70280329103E-01
1.14500000000E+09 -5.22924408056E-01 +8.10684193327E-01 -1.79879834870E-05 -9.70711868647E-06 +1.75106930435E-05 +2.34191893327E-05 -5.89464472079E-01 +7.73329085086E-01
1.15000000000E+09 -5.14224276020E-01 +8.14325261757E-01 -1.05850464923E-05 +3.46639630583E-05 +7.75810304014E-06 +7.65801045410E-05 -5.83968523589E-01 +7.77290410947E-01
1.15500000000E+09 -5.06396954719E-01 +8.17981935313E-01 +3.71988207730E-06 +7.71686563972E-05 +1.81848813466E-05 +9.83756025820E-05 -5.78163577580E-01 +7.81237696717E-01
1.16000000000E+09 -4.99723583697E-01 +8.21118689446E-01 -6.29695034769E-06 +3.80805518415E-05 +3.07271917286E-05 +2.06033900138E-05 -5.72434929596E-01 +7.85219098567E-01
1.16500000000E+09 -4.94452719980E-01 +8.24537880148E-01 +8.61542019467E-06 +6.66690152922E-05 -5.08503455836E-06 +8.37779990007E-05 -5.67293308645E-01 +7.88617568753E-01
1.17000000000E+09 -4.90079023585E-01 +8.27537637321E-01 +5.50601393229E-05 +7.00181846249E-05 +2.01409162542E-05 +9.67688656050E-05 -5.62153783182E-01 +7.91365828881E-01
1.17500000000E+09 -4.86377863535E-01 +8.30117156658E-01 +1.76474504598E-05 +3.81954148990E-05 +2.47449582877E-05 +6.78684662164E-05 -5.56609999118E-01 +7.93963604423E-01
1.18000000000E+09 -4.82269402200E-01 +8.32640601226E-01 +5.89713759383E-05 +6.05333348851E-05 +4.86728288918E-05 +7.49615961430E-05 -5.50831746891E-01 +7.96904906399E-01
1.18500000000E+09 -4.76813999783E-01 +8.35159337473E-01 +7.54564033869E-05 +3.06799964572E-05 +5.53220304464E-05 +4.76686403443E-05 -5.43968405906E-01 +7.99988776952E-01
1.19000000000E+09 -4.70095272724E-01 +8.37425315766E-01 +8.21452800316E-05 +6.28066436772E-05 +9.37380609824E-06 +1.60013375552E-05 -5.36810180840E-01 +8.02943519885E-01
1.19500000000E+09 -4.61999946901E-01 +8.40071427700E-01 +5.94126812640E-05 +2.97772815241E-05 +1.10971823559E-04 +3.34160407255E-05 -5.30437947096E-01 +8.04218917022E-01
1.20000000000E+09 -4.52851927058E-01 +8.42267532724E-01 +1.48063906263E-04 +9.53027316802E-06 +6.77244430026E-05 -5.81747294547E-06 -5.25366068297E-01 +8.04083773397E-01
1.20500000000E+09 -4.43673257097E-01 +8.45036511181E-01 +1.38102955723E-04 -3.75999159175E-05 +1.25545989149E-04 -2.20504927467E-05 -5.22970275498E-01 +8.03915563794E-01
1.21000000000E+09 -4.34919832528E-01 +8.48615108638E-01 +3.94794482636E-05 -3.61290510715E-05 +6.13298796921E-05 -8.77349563095E-05 -5.21321837507E-01 +8.06061306237E-01
1.21500000000E+09 -4.26883524450E-01 +8.52356117001E-01 +8.18410015370E-06 -5.97892484033E-05 -2.52701592341E-05 -4.95314311600E-05 -5.18010483581E-01 +8.10584340005E-01
1.22000000000E+09 -4.20204260490E-01 +8.56111264259E-01 +5.63341669706E-05 -2.76720722778E-05 +9.81781551230E-06 -1.23641381861E-05 -5.12592960571E-01 +8.16303876302E-01
1.22500000000E+09 -4.14651522461E-01 +8.59804255809E-01 -2.14007311263E-06 +1.35589821123E-05 -6.05274554168E-06 -9.45367154390E-06 -5.06197934622E-01 +8.21586368947E-01
1.23000000000E+09 -4.10157387119E-01 +8.63172341521E-01 +9.64199683448E-06 +1.57126968422E-05 +2.97785237655E-05 +3.23215289880E-05 -4.99837962243E-01 +8.26281670628E-01
1.23500000000E+09 -4.05829267954E-01 +8.66294528709E-01 +1.86973964382E-05 +3.56248223906E-05 +6.74964983286E-06 +6.80454240420E-06 -4.94201379569E-01 +8.30164968163E-01
1.24000000000E+09 -4.00725497208E-01 +8.69061343635E-01 +1.81075585452E-05 +6.13742636840E-05 +4.49370366074E-05 +3.01246456693E-05 -4.88777914608E-01 +8.33381581925E-01
1.24500000000E+09 -3.94340001911E-01 +8.71790427874E-01 +6.32985140997E-05 +2.70806126188E-05 +4.66718486791E-05 +2.59831481002E-05 -4.82661820338E-01 +8.36699301953E-01
1.25000000000E+09 -3.86072860825E-01 +8.73898282732E-01 +5.70408033267E-05 -1.50964114113E-05 +8.28141308466E-05 +5.35197750389E-05 -4.75324028420E-01 +8.40503559263E-01
1.25500000000E+09 -3.76204144410E-01 +8.75906273161E-01 +1.15691469284E-04 +3.60765698847E-05 +7.87307751955E-05 +2.48167889167E-05 -4.67047074600E-01 +8.44382408330E-01
1.26000000000E+09 -3.65224361847E-01 +8.78046931975E-01 +1.00408868177E-04 +1.89747303013E-05 +1.19681697440E-04 +7.38483246797E-05 -4.58927730041E-01 +8.48548874617E-01
1.26500000000E+09 -3.53718770901E-01 +8.80402974467E-01 +9.52653532103E-05 +2.90368472241E-05 +1.30729345709E-04 +4.61307359877E-05 -4.51486341011E-01 +8.52119275970E-01
1.27000000000E+09 -3.42700990148E-01 +8.83123243523E-01 +1.49873791801E-04 +4.14854670050E-05 +1.49735849885E-04 +9.03815423072E-06 -4.44827617169E-01 +8.55366791871E-01
1.27500000000E+09 -3.32723259779E-01 +8.86304363145E-01 +1.70274296771E-04 -7.12898125154E-05 +1.52623592200E-04 -4.48177674908E-05 -4.38434108365E-01 +8.58262380637E-01
1.28000000000E+09 -3.24241146809E-01 +8.89550878607E-01 +1.92005853676E-04 -4.02330243118E-05 +1.67995897646E-04 -9.32607972728E-05 -4.31389949547E-01 +8.61227347947E-01
1.28500000000E+09 -3.16603723976E-01 +8.92899033191E-01 +1.37377544259E-04 -9.78418855589E-05 +1.31548529476E-04 -1.39748080876E-04 -4.22954427117E-01 +8.64704524044E-01
1.29000000000E+09 -3.10178132305E-01 +8.95952028377E-01 +1.60450642742E-04 -1.17953491896E-04 +2.02161446375E-04 -1.16593946641E-04 -4.14086195450E-01 +8.68072377306E-01
1.29500000000E+09 -3.03732438035E-01 +8.98522846059E-01 +1.44645592748E-04 -1.54723507180E-04 +1.57058599534E-04 -2.01903707987E-04 -4.04901335797E-01 +8.71218953495E-01
1.30000000000E+09 -2.96657239255E-01 +9.00594084839E-01 +1.17411621307E-04 -1.89334931855E-04 +1.18969811417E-04 -2.42161035402E-04 -3.96637135116E-01 +8.74456843296E-01
1.30500000000E+09 -2.88207674179E-01 +9.01749287816E-01 +1.31236318295E-04 -2.07225456027E-04 +7.77621663314E-05 -1.79836196203E-04 -3.88833131409E-01 +8.77231803500E-01
1.31000000000E+09 -2.78195483057E-01 +9.02466782334E-01 +7.69538066474E-05 -1.92803307749E-04 +9.49900972634E-05 -2.09052531576E-04 -3.81021404035E-01 +8.79931810366E-01
1.31500000000E+09 -2.66800429933E-01 +9.03426050224E-01 +9.45890640990E-05 -2.08566885235E-04 +1.19892299702E-04 -2.30220438540E-04 -3.72237667870E-01 +8.82760556928E-01
1.32000000000E+09 -2.53863567740E-01 +9.04457677734E-01 +4.96652468300E-05 -2.27733578968E-04 +5.92455688603E-05 -2.56815995828E-04 -3.62015066880E-01 +8.85580616892E-01
1.32500000000E+09 -2.40300121565E-01 +9.05492413616E-01 +5.94416983547E-05 -2.23455777895E-04 +1.08107670953E-04 -2.52947212148E-04 -3.51089984305E-01 +8.88559182272E-01
1.33000000000E+09 -2.26913291509E-01 +9.06917691849E-01 +3.07846189990E-05 -2.70622152240E-04 +3.23788411530E-06 -3.11623417176E-04 -3.40410672038E-01 +8.91398571668E-01
1.33500000000E+09 -2.14273909956E-01 +9.08551709895E-01 -6.26582412821E-05 -2.87833824225E-04 -3.49775921822E-05 -2.72665148595E-04 -3.30325661044E-01 +8.93968813061E-01
1.34000000000E+09 -2.02686596242E-01 +9.10608905543E-01 -2.98725975341E-05 -3.54811186157E-04 -3.81655331562E-05 -2.98938749544E-04 -3.20791660308E-01 +8.96438856624E-01
1.34500000000E+09 -1.92058745560E-01 +9.12582753335E-01 -8.11314446083E-05 -3.42843557916E-04 -8.95409501780E-05 -3.52811038867E-04 -3.10594940811E-01 +8.98810238951E-01
1.35000000000E+09 -1.81758346792E-01 +9.14295424475E-01 -1.55929166070E-04 -3.51832555735E-04 -1.40057968487E-04 -3.14060738242E-04 -2.99261761502E-01 +9.00881976039E-01
1.35500000000E+09 -1.70881522353E-01 +9.15061295690E-01 -1.26880823031E-04 -3.35883968469E-04 -1.49819247875E-04 -3.17303027774E-04 -2.86688339878E-01 +9.02836976027E-01
1.36000000000E+09 -1.59291943805E-01 +9.15287600979E-01 -2.13364402734E-04 -2.89602512863E-04 -2.04756587555E-04 -3.46719190378E-04 -2.73363340158E-01 +9.04592375969E-01
1.36500000000E+09 -1.45995801208E-01 +9.14844053040E-01 -1.86713514126E-04 -3.89712135599E-04 -2.07350227521E-04 -3.39164507943E-04 -2.60482522237E-01 +9.06443708952E-01
1.37000000000E+09 -1.30677437349E-01 +9.13664545955E-01 -2.65424869506E-04 -3.80218683680E-04 -2.55354839183E-04 -3.86503964050E-04 -2.47824188500E-01 +9.08142328187E-01
1.37500000000E+09 -1.13757475687E-01 +9.11876205520E-01 -4.03824794928E-04 -4.08821457892E-04 -3.42533966538E-04 -4.56536899484E-04 -2.34916958303E-01 +9.09536970077E-01
1.38000000000E+09 -9.59170010975E-02 +9.09997924394E-01 -5.19383748204E-04 -3.31647067079E-04 -5.33137815769E-04 -3.88589508917E-04 -2.20945784349E-01 +9.10568687517E-01
1.38500000000E+09 -7.73596315704E-02 +9.08094347891E-01 -5.20204167947E-04 -2.80142509170E-04 -5.41373248544E-04 -3.95591440118E-04 -2.05380115687E-01 +9.11149900026E-01
1.39000000000E+09 -5.93005888718E-02 +9.06333193372E-01 -5.87543782635E-04 -2.71561730337E-04 -6.96460094751E-04 -2.91547121974E-04 -1.88680964227E-01 +9.11003470031E-01
1.39500000000E+09 -4.18466519082E-02 +9.04870303175E-01 -7.28623633431E-04 -2.64897179172E-04 -7.73348730947E-04 -1.93760891026E-04 -1.71143537396E-01 +9.10631376296E-01
1.40000000000E+09 -2.51828711239E-02 +9.03000675461E-01 -7.88101355412E-04 -1.64739213569E-04 -7.83961228632E-04 -1.05628507461E-04 -1.53218608339E-01 +9.10110406886E-01
1.40500000000E+09 -9.14250056386E-03 +9.00261329212E-01 -9.80026403862E-04 -6.63554835810E-05 -9.06650987052E-04 -5.78204077086E-06 -1.35333148580E-01 +9.09023109057E-01
1.41000000000E+09 +6.57099441765E-03 +8.96336382932E-01 -9.80133924665E-04 +1.39205416603E-04 -9.37736528085E-04 +8.72353285926E-05 -1.16720748661E-01 +9.07189609336E-01
1.41500000000E+09 +2.32587246528E-02 +8.91130334989E-01 -9.80044734498E-04 +2.17964663242E-04 -1.03055096946E-03 +1.54461803651E-04 -9.62565383118E-02 +9.04330270544E-01
1.42000000000E+09 +4.19427133816E-02 +8.83768602034E-01 -1.12512654892E-03 +3.54592683165E-04 -1.26282478983E-03 +4.07828413963E-04 -7.37292181905E-02 +8.99937918049E-01
1.42500000000E+09 +6.22580127312E-02 +8.74510374667E-01 -1.19676505413E-03 +5.81082217414E-04 -1.22175559343E-03 +6.62573013079E-04 -4.97377492864E-02 +8.94187087415E-01
1.43000000000E+09 +8.54417623140E-02 +8.63853615856E-01 -1.23785279289E-03 +8.50212366712E-04 -1.29940273463E-03 +1.08681227649E-03 -2.42899764600E-02 +8.87650990237E-01
1.43500000000E+09 +1.11421506981E-01 +8.50972658955E-01 -1.13552633660E-03 +1.28745337327E-03 -9.94593301793E-04 +1.48088232353E-03 +1.56578048201E-03 +8.79247178879E-01
1.44000000000E+09 +1.38955780191E-01 +8.36302952278E-01 -7.86375439267E-04 +1.58855669721E-03 -6.85515570122E-04 +1.64353833081E-03 +2.75831137688E-02 +8.69705806749E-01
1.44500000000E+09 +1.67136196819E-01 +8.20761314033E-01 -4.47424175373E-04 +1.70645140709E-03 -3.93410182027E-04 +1.70102161805E-03 +5.51461844097E-02 +8.57920465250E-01
1.45000000000E+09 +1.95776394265E-01 +8.03685980671E-01 -3.50098762918E-04 +1.61222435411E-03 -2.22446036746E-04 +1.69131698927E-03 +8.49848200236E-02 +8.42201146700E-01
1.45500000000E+09 +2.23541975402E-01 +7.85126382632E-01 -3.02704450906E-04 +1.92561043550E-03 -8.48779885674E-05 +1.93954201925E-03 +1.16058862046E-01 +8.22847235951E-01
1.46000000000E+09 +2.51327679757E-01 +7.63960726406E-01 +6.00300375147E-05 +2.13037542072E-03 +2.46331225557E-04 +2.02154580126E-03 +1.49283492650E-01 +7.99542423842E-01
1.46500000000E+09 +2.77514620402E-01 +7.39236694633E-01 +4.20131256283E-04 +2.49069148351E-03 +5.77971253940E-04 +2.27863527849E-03 +1.83441968071E-01 +7.71415465083E-01
1.47000000000E+09 +3.03862147367E-01 +7.09976327445E-01 +1.25498308526E-03 +2.58145632671E-03 +1.10480445211E-03 +2.32308987796E-03 +2.18157314083E-01 +7.37917953179E-01
1.47500000000E+09 +3.30311860227E-01 +6.73950365407E-01 +1.67475795302E-03 +2.14054727114E-03 +1.51477884638E-03 +2.12130385945E-03 +2.52608599931E-01 +6.97358501879E-01
1.48000000000E+09 +3.56268296238E-01 +6.29983933989E-01 +2.03241448193E-03 +1.95157643506E-03 +2.04204793433E-03 +1.99814059419E-03 +2.85449129502E-01 +6.48304668110E-01
1.48500000000E+09 +3.80987117755E-01 +5.77513339996E-01 +2.30184209420E-03 +2.03831367733E-03 +2.37841950873E-03 +2.08464719730E-03 +3.15749245226E-01 +5.90139307430E-01
1.49000000000E+09 +4.03094634022E-01 +5.15388029929E-01 +3.34053711916E-03 +1.70733016693E-03 +3.41136437562E-03 +1.50544719945E-03 +3.40768380782E-01 +5.21753236615E-01
1.49500000000E+09 +4.19556864709E-01 +4.45626195872E-01 +3.65636030295E-03 +1.02468098283E-03 +3.54172658713E-03 +8.46743645406E-04 +3.57022113572E-01 +4.43506365948E-01
1.50000000000E+09 +4.28427327575E-01 +3.67986286575E-01 +4.35748310761E-03 +5.42035070732E-04 +4.08653315604E-03 +4.71207806220E-04 +3.60225065012E-01 +3.56526060146E-01
1.50500000000E+09 +4.25858002529E-01 +2.84180994546E-01 +5.05886810163E-03 -7.66417757754E-04 +4.84195932956E-03 -5.59039475924E-04 +3.47869881139E-01 +2.63329568677E-01
1.51000000000E+09 +4.07398712981E-01 +1.96988579563E-01 +4.98695184385E-03 -2.36960475173E-03 +4.94460438378E-03 -2.12154242633E-03 +3.15922384566E-01 +1.66259614014E-01
1.51500000000E+09 +3.70697391849E-01 +1.10697088611E-01 +4.56999433112E-03 -3.81750178126E-03 +4.72694286429E-03 -3.75016986820E-03 +2.61595827524E-01 +7.02832916893E-02
1.52000000000E+09 +3.14775775618E-01 +2.77975340175E-02 +3.19074322535E-03 -5.47710548937E-03 +3.29678076743E-03 -5.48740539729E-03 +1.85004596828E-01 -1.54755484110E-02
1.52500000000E+09 +2.36739390479E-01 -4.62386312733E-02 +1.38863194239E-03 -5.99457598767E-03 +1.41668934945E-03 -6.05205263995E-03 +8.90184425525E-02 -8.48610229268E-02
1.53000000000E+09 +1.39261853530E-01 -1.04436223864E-01 -6.80971069442E-04 -6.23049534467E-03 -6.78177707496E-04 -6.25685415243E-03 -1.97747658490E-02 -1.29150006385E-01
1.53500000000E+09 +2.92350238169E-02 -1.41762384189E-01 -1.97324587904E-03 -5.09862800573E-03 -2.01217669503E-03 -5.08548156167E-03 -1.32991039453E-01 -1.49049914395E-01
1.54000000000E+09 -8.69668052932E-02 -1.54885955358E-01 -2.85260271791E-03 -4.87184786640E-03 -2.78997628993E-03 -4.85525179475E-03 -2.44315847595E-01 -1.43666318976E-01
1.54500000000E+09 -1.98482490629E-01 -1.42830850624E-01 -4.68384080080E-03 -3.45199979863E-03 -4.55431653830E-03 -3.51009849521E-03 -3.44930637882E-01 -1.17454118155E-01
1.55000000000E+09 -2.98983380991E-01 -1.11381217365E-01 -4.66620414673E-03 -1.71962334381E-03 -4.60666840558E-03 -1.89082801975E-03 -4.33675106976E-01 -7.75724237100E-02
1.55500000000E+09 -3.85339774430E-01 -6.21303257824E-02 -4.79009597151E-03 -3.24145526511E-04 -4.82923049267E-03 -5.68126181253E-04 -5.07009176123E-01 -2.56118444394E-02
1.56000000000E+09 -4.52748782784E-01 +8.89655455902E-05 -3.69366208592E-03 +1.18086877484E-03 -3.93295467367E-03 +1.05484509073E-03 -5.64666088520E-01 +3.21603649256E-02
1.56500000000E+09 -5.02271593941E-01 +6.80271977886E-02 -2.76535705567E-03 +1.19807771093E-03 -2.92356314299E-03 +1.18970609619E-03 -6.08351865929E-01 +9.24865323722E-02
1.57000000000E+09 -5.36854619588E-01 +1.39115216786E-01 -2.17767517773E-03 +1.36576830812E-03 -2.25669910702E-03 +1.45636040902E-03 -6.40344207802E-01 +1.51772219007E-01
