# Hz S RI R 50
! CMT, C1220, 16058040, 17.2.0/1
! Date: 15/08/2018 09:04:11
! Data: Format (Calibration Info)
! Freq                      S11: Re/Im (F2)                       S21: Re/Im (F2)                       S12: Re/Im (F2)                       S22: Re/Im (F2)            
1.00000000000E+09 -6.75744334996E-01 +7.01370427037E-01 -3.05038087506E-05 -2.53766189428E-05 -5.38950998133E-05 -6.14356407270E-05 -7.11737655420E-01 +6.70499415729E-01
1.00500000000E+09 -6.69800728605E-01 +7.08436713425E-01 -8.82592878119E-06 +3.06695011927E-05 +3.39934934146E-05 -3.89602978541E-05 -7.08000330363E-01 +6.73804255522E-01
1.01000000000E+09 -6.65869388206E-01 +7.13966243734E-01 -8.09695811213E-06 +9.67402631153E-06 -5.22375721001E-05 +1.83049740798E-06 -7.04150315781E-01 +6.77237057734E-01
1.01500000000E+09 -6.64155614946E-01 +7.17523948823E-01 -4.61231205256E-05 -3.16482619364E-05 +3.06351706237E-05 +7.56777684307E-06 -7.00094652142E-01 +6.81146122630E-01
1.02000000000E+09 -6.63657070681E-01 +7.19237410125E-01 -2.60745444464E-05 -4.38718774875E-05 -2.64934282232E-05 +1.44048583437E-05 -6.95787141853E-01 +6.85363607818E-01
1.02500000000E+09 -6.63257823974E-01 +7.19583986540E-01 -2.17218581261E-05 -2.18583750885E-05 -3.71166091003E-05 +1.43386008238E-05 -6.92329862660E-01 +6.89289642221E-01
1.03000000000E+09 -6.62483564483E-01 +7.19841981922E-01 -3.12498871590E-05 +3.21142829486E-05 -5.28892411786E-05 -1.33351119033E-05 -6.88622163351E-01 +6.92935204068E-01
1.03500000000E+09 -6.59541678418E-01 +7.20584224459E-01 -4.30574077651E-05 -6.17024418628E-06 -2.20226268680E-05 +6.24280636552E-07 -6.85113077625E-01 +6.96410156705E-01
1.04000000000E+09 -6.54346934219E-01 +7.23186205765E-01 -7.09896648235E-05 -1.06159488981E-05 -9.51955170899E-05 +5.73740954211E-05 -6.81343508862E-01 +6.99296633501E-01
1.04500000000E+09 -6.47053386255E-01 +7.27730819150E-01 +1.27307672982E-05 -7.50758771003E-06 -7.74668792688E-05 +1.87305112651E-05 -6.77150855282E-01 +7.02703570965E-01
1.05000000000E+09 -6.38293476627E-01 +7.34220318655E-01 -7.17759100744E-06 +6.92284112992E-06 -1.75548567839E-06 +3.19260372819E-06 -6.72821873497E-01 +7.06609939052E-01
1.05500000000E+09 -6.29143354532E-01 +7.41642428171E-01 -4.14506552656E-05 +6.23819282037E-06 -5.51793065413E-05 +1.66642613179E-05 -6.68317742618E-01 +7.10755963763E-01
1.06000000000E+09 -6.20947947622E-01 +7.49419301277E-01 -6.83977200588E-05 -8.38970714435E-06 -7.31151951549E-05 +2.70919729672E-05 -6.64526080141E-01 +7.14944555071E-01
1.06500000000E+09 -6.14546238232E-01 +7.56351249315E-01 -4.14423345637E-05 +5.08042575542E-05 -5.41118750607E-05 +8.89406603148E-07 -6.60685574942E-01 +7.18432640636E-01
1.07000000000E+09 -6.10748040423E-01 +7.61203709205E-01 -6.41990153797E-05 +1.91456078065E-05 -3.56767132543E-05 +2.47397806541E-05 -6.56807242755E-01 +7.21538147344E-01
1.07500000000E+09 -6.09296385169E-01 +7.64153386431E-01 -5.26893421822E-05 +4.67342421702E-05 -5.59497327908E-05 +3.13861746029E-05 -6.52426359005E-01 +7.24611679768E-01
1.08000000000E+09 -6.09095890541E-01 +7.65532088405E-01 -9.10628573385E-05 +1.23256022155E-06 -1.54757020077E-05 +4.35985158798E-05 -6.47867947470E-01 +7.28285387476E-01
1.08500000000E+09 -6.09354723031E-01 +7.65544127175E-01 -6.80872060145E-05 +4.81227170883E-05 -8.24570978394E-05 +8.04146493004E-05 -6.42958603289E-01 +7.32232192693E-01
1.09000000000E+09 -6.08644757900E-01 +7.65126372306E-01 -7.54020882986E-05 +3.15884969904E-05 -6.90542893208E-05 +1.38476523977E-05 -6.38368786076E-01 +7.36524054926E-01
1.09500000000E+09 -6.06771136314E-01 +7.65424714047E-01 -3.76249922223E-05 +5.17118130651E-05 -7.27915163541E-05 +2.57408461965E-05 -6.33951905730E-01 +7.40547404447E-01
1.10000000000E+09 -6.01890961180E-01 +7.67283424435E-01 -4.31109750446E-05 +3.59688453556E-05 -5.50300199477E-05 +1.16119072410E-04 -6.30010850839E-01 +7.43777969150E-01
1.10500000000E+09 -5.95254182498E-01 +7.71204404152E-01 -4.06013617486E-05 +5.84702112876E-05 -4.49852202738E-05 +9.29046633628E-05 -6.26036534643E-01 +7.46830183520E-01
1.11000000000E+09 -5.86948961015E-01 +7.76962253910E-01 -9.14349884858E-05 +2.17100066385E-05 -5.18304635965E-05 +7.17498777902E-05 -6.21621415847E-01 +7.49678395959E-01
1.11500000000E+09 -5.78019456875E-01 +7.83973157841E-01 -3.27112257196E-05 +8.00719359086E-05 -9.89035992991E-05 +8.45313957975E-07 -6.16807274497E-01 +7.53139892195E-01
1.12000000000E+09 -5.69804250339E-01 +7.90745542190E-01 -6.71543781958E-05 +3.50172798084E-05 -5.64615210055E-05 +1.10476655538E-05 -6.11634018700E-01 +7.57221900796E-01
1.12500000000E+09 -5.63065303246E-01 +7.96639607533E-01 -6.13774910424E-05 +3.29920415926E-05 -8.15397126766E-05 +2.37692559336E-05 -6.06405886797E-01 +7.61375231359E-01
1.13000000000E+09 -5.58357472087E-01 +8.00752398738E-01 -9.26077469888E-05 +3.36037036618E-05 -1.13866464190E-04 +8.34470604778E-05 -6.01502358226E-01 +7.65081610053E-01
1.13500000000E+09 -5.55502698281E-01 +8.02928029111E-01 -6.16227429521E-05 +5.73456980881E-05 -9.54616319032E-05 +5.73202020300E-05 -5.97156634884E-01 +7.68397771379E-01
1.14000000000E+09 -5.53510677157E-01 +8.03514869504E-01 -1.46464620103E-04 +1.28203546398E-04 -7.72327724370E-05 +7.09461072339E-05 -5.92679020583E-01 +7.71238289003E-01
1.14500000000E+09 -5.51680008898E-01 +8.02906964069E-01 -8.30756592860E-05 +4.27298115546E-05 -1.04449669005E-04 +8.48494781673E-05 -5.87769622136E-01 +7.74364753445E-01
1.15000000000E+09 -5.48447550130E-01 +8.02246232051E-01 -1.07180986054E-04 +1.41991413891E-04 -1.47935696948E-04 +6.76366406073E-05 -5.82179877880E-01 +7.78115423811E-01
1.15500000000E+09 -5.43725434734E-01 +8.02850771084E-01 -1.09847025941E-04 +1.37595565893E-04 -1.07026991888E-04 +1.07179569418E-04 -5.76187280839E-01 +7.82126384680E-01
1.16000000000E+09 -5.36605316636E-01 +8.04823977965E-01 -7.83301578908E-05 +1.49103579570E-04 -9.73428176872E-05 +1.17550660147E-04 -5.70503686994E-01 +7.86171593733E-01
1.16500000000E+09 -5.27542140874E-01 +8.09458693843E-01 -9.87659589662E-05 +9.09841781291E-05 -1.28091714598E-04 +1.41595391551E-04 -5.65098139603E-01 +7.89622859510E-01
1.17000000000E+09 -5.17404452665E-01 +8.15620456363E-01 -1.21983980665E-04 +1.81120923608E-04 -1.49357496517E-04 +1.83476285929E-04 -5.60126819813E-01 +7.92358429446E-01
1.17500000000E+09 -5.07310764817E-01 +8.22659867247E-01 -9.41954462746E-05 +1.93623784062E-04 -1.07163716843E-04 +2.00538179980E-04 -5.54672841396E-01 +7.95002323055E-01
1.18000000000E+09 -4.98487268092E-01 +8.29591414622E-01 -9.07793323514E-05 +2.07372802742E-04 -4.70740564595E-05 +2.40518995821E-04 -5.48872567634E-01 +7.97861260978E-01
1.18500000000E+09 -4.91720699082E-01 +8.35391447688E-01 -1.03559851817E-04 +2.08019631915E-04 -9.79165295786E-05 +2.37209115782E-04 -5.42203589449E-01 +8.01043734448E-01
1.19000000000E+09 -4.87349114474E-01 +8.39048350004E-01 +1.09836512876E-05 +2.12352321053E-04 -3.52192292708E-05 +2.21069291688E-04 -5.34881047150E-01 +8.03841352599E-01
1.19500000000E+09 -4.85129440637E-01 +8.40474084657E-01 -1.06544465027E-04 +2.21659375512E-04 -1.07587515871E-04 +1.76340211426E-04 -5.28181223201E-01 +8.05107320018E-01
1.20000000000E+09 -4.84055359747E-01 +8.39751134047E-01 -2.20669886479E-04 +2.54873866721E-04 -1.88046079736E-04 +2.88034349476E-04 -5.23120114294E-01 +8.05002901888E-01
1.20500000000E+09 -4.83237618922E-01 +8.38457840553E-01 -1.89274934796E-04 +4.18128030401E-04 -1.61068019695E-04 +4.09075155021E-04 -5.20865981574E-01 +8.04671667674E-01
1.21000000000E+09 -4.80959265214E-01 +8.37680751844E-01 +2.42206009023E-05 +5.71576045794E-04 +1.69493624479E-05 +5.54206563878E-04 -5.19109929130E-01 +8.06794573152E-01
1.21500000000E+09 -4.75777023289E-01 +8.38024843579E-01 +1.65207520764E-04 +5.37322388630E-04 +9.33839332722E-05 +5.30435917481E-04 -5.16071437899E-01 +8.11175743200E-01
1.22000000000E+09 -4.67982743596E-01 +8.40236884786E-01 +2.21814339344E-04 +4.25347580077E-04 +2.25642584253E-04 +4.78811207855E-04 -5.10553375242E-01 +8.16918849930E-01
1.22500000000E+09 -4.57833253443E-01 +8.44737692272E-01 +2.68714857655E-04 +3.79931904104E-04 +2.94524302463E-04 +3.87276801841E-04 -5.04101464067E-01 +8.22335971901E-01
1.23000000000E+09 -4.46306788276E-01 +8.50906994111E-01 +2.83972305920E-04 +3.55622535930E-04 +3.00769145980E-04 +3.44102757576E-04 -4.97731684144E-01 +8.27004477756E-01
1.23500000000E+09 -4.34965009932E-01 +8.58020362709E-01 +3.00074513823E-04 +3.22672283461E-04 +3.01360487367E-04 +2.97379878071E-04 -4.92185475732E-01 +8.30971946199E-01
1.24000000000E+09 -4.24870422392E-01 +8.65036194426E-01 +2.96767155953E-04 +3.31485515396E-04 +2.98931103799E-04 +3.01254834857E-04 -4.86728328183E-01 +8.34195966255E-01
1.24500000000E+09 -4.17198698812E-01 +8.70934991101E-01 +3.37892956282E-04 +2.73855150636E-04 +2.94023751238E-04 +3.01647701716E-04 -4.80584342649E-01 +8.37461642537E-01
1.25000000000E+09 -4.11792742945E-01 +8.74787845298E-01 +3.39424040102E-04 +2.32356869183E-04 +3.16964273756E-04 +2.74891657074E-04 -4.73192964892E-01 +8.41214650616E-01
1.25500000000E+09 -4.08456952895E-01 +8.76326027977E-01 +3.97223112959E-04 +3.00686554203E-04 +3.35491273605E-04 +2.80443502464E-04 -4.64972811731E-01 +8.45161760324E-01
1.26000000000E+09 -4.06157309755E-01 +8.76326743508E-01 +3.39737590674E-04 +3.21863792466E-04 +3.36273873578E-04 +3.24049285871E-04 -4.56985200413E-01 +8.49410718873E-01
1.26500000000E+09 -4.03071825024E-01 +8.75434926369E-01 +3.73398468722E-04 +3.08589742923E-04 +4.19179618735E-04 +3.16561192935E-04 -4.49363815473E-01 +8.52874108866E-01
1.27000000000E+09 -3.98041870881E-01 +8.74581592036E-01 +4.14131707484E-04 +3.32906645451E-04 +4.28980762872E-04 +3.30938478699E-04 -4.42730479391E-01 +8.56132367761E-01
1.27500000000E+09 -3.89898720550E-01 +8.74987215131E-01 +5.10262378296E-04 +3.02965361856E-04 +4.77120998274E-04 +2.62680155677E-04 -4.36173442945E-01 +8.58959307283E-01
1.28000000000E+09 -3.78675620090E-01 +8.77090511690E-01 +5.14036475363E-04 +1.89874290688E-04 +4.82947223151E-04 +2.43323602845E-04 -4.29188111603E-01 +8.61912027983E-01
1.28500000000E+09 -3.64352456806E-01 +8.81295064793E-01 +5.24694838290E-04 +1.96850080062E-04 +5.70196080724E-04 +2.37097302071E-04 -4.20777838474E-01 +8.65212995472E-01
1.29000000000E+09 -3.49018280177E-01 +8.86771271285E-01 +5.34671244895E-04 +2.39465797572E-04 +6.42107747295E-04 +2.43761293776E-04 -4.11789527979E-01 +8.68647544410E-01
1.29500000000E+09 -3.34076981190E-01 +8.93086475530E-01 +5.70594971555E-04 +2.08832607817E-04 +6.36955180155E-04 +1.69950700001E-04 -4.02670322510E-01 +8.71975021490E-01
1.30000000000E+09 -3.21075791412E-01 +8.99109742883E-01 +6.28890098193E-04 +2.02666443304E-04 +6.82634581835E-04 +1.07079846190E-04 -3.94439147992E-01 +8.75148533387E-01
1.30500000000E+09 -3.11305670478E-01 +9.03842553776E-01 +7.61707868981E-04 +1.59754395636E-04 +7.11423314967E-04 +8.07521813081E-05 -3.86692499827E-01 +8.78067681569E-01
1.31000000000E+09 -3.05087939677E-01 +9.06716849078E-01 +8.06036325407E-04 +4.10166773267E-05 +7.07808758905E-04 +3.81406761203E-05 -3.78866950309E-01 +8.80679686117E-01
1.31500000000E+09 -3.01783351218E-01 +9.08130250766E-01 +7.57392667666E-04 +8.87039099044E-06 +7.46051189195E-04 +5.07933991901E-05 -3.69910361146E-01 +8.83397502427E-01
1.32000000000E+09 -2.99491674672E-01 +9.07987543406E-01 +7.73116392893E-04 +2.49697224353E-05 +8.31246052061E-04 +3.94387971997E-05 -3.59920282485E-01 +8.86159185167E-01
1.32500000000E+09 -2.96619177430E-01 +9.06957398762E-01 +7.64082707118E-04 +5.66491053206E-05 +8.74565209492E-04 -1.48064347377E-05 -3.48823396355E-01 +8.89014924518E-01
1.33000000000E+09 -2.91160102600E-01 +9.06178842158E-01 +9.00624428609E-04 +2.65069541466E-05 +9.24549873163E-04 -5.79308021923E-05 -3.38001197175E-01 +8.92054354846E-01
1.33500000000E+09 -2.81988492546E-01 +9.05941948207E-01 +9.91782997191E-04 +1.61749972390E-05 +1.00017764201E-03 -8.79698885076E-05 -3.27991356761E-01 +8.94634357299E-01
1.34000000000E+09 -2.68623569829E-01 +9.07135419460E-01 +1.08258219596E-03 -1.33536412000E-04 +1.01863328004E-03 -1.86424912960E-04 -3.18489130664E-01 +8.97117145909E-01
1.34500000000E+09 -2.51811900608E-01 +9.09491209130E-01 +1.14576369361E-03 -2.75215814436E-04 +1.04164166813E-03 -3.18372751424E-04 -3.08322108575E-01 +8.99454118625E-01
1.35000000000E+09 -2.32793452296E-01 +9.12772771833E-01 +1.12146784974E-03 -3.59941761867E-04 +1.14179234302E-03 -4.25460943893E-04 -2.96983073182E-01 +9.01568075947E-01
1.35500000000E+09 -2.13631636835E-01 +9.16450817420E-01 +1.08336957190E-03 -5.17108396687E-04 +1.09972586332E-03 -5.02858271981E-04 -2.84369876615E-01 +9.03349571574E-01
1.36000000000E+09 -1.96199649151E-01 +9.19530503935E-01 +1.12204402576E-03 -4.84547950130E-04 +1.10311659935E-03 -5.37412350366E-04 -2.71031104679E-01 +9.05075874966E-01
1.36500000000E+09 -1.81191784246E-01 +9.21788654844E-01 +1.24336350944E-03 -6.74823091301E-04 +1.17687108460E-03 -5.94401522028E-04 -2.57983655149E-01 +9.06906918008E-01
1.37000000000E+09 -1.69258092698E-01 +9.22529224899E-01 +1.25202873740E-03 -8.82204652586E-04 +1.21387566964E-03 -7.46097274987E-04 -2.45176645058E-01 +9.08563109298E-01
1.37500000000E+09 -1.59716205488E-01 +9.22035958781E-01 +1.14353390418E-03 -1.05892263464E-03 +1.20868438516E-03 -8.71243346680E-04 -2.32330048408E-01 +9.10072919393E-01
1.38000000000E+09 -1.50584028810E-01 +9.20302599118E-01 +1.03469051304E-03 -1.03721621058E-03 +1.20041690986E-03 -9.41113836258E-04 -2.18541648730E-01 +9.10976801762E-01
1.38500000000E+09 -1.40430441582E-01 +9.17750861830E-01 +1.05366816614E-03 -1.08710240379E-03 +1.29999374648E-03 -1.09055679894E-03 -2.02936996922E-01 +9.11405919418E-01
1.39000000000E+09 -1.27952492838E-01 +9.14790357380E-01 +1.11153033173E-03 -1.15146209738E-03 +1.30200720466E-03 -1.29418254765E-03 -1.86200228972E-01 +9.11273668745E-01
1.39500000000E+09 -1.11741597929E-01 +9.12021412434E-01 +1.19166157773E-03 -1.17760037029E-03 +1.21901379716E-03 -1.39791308662E-03 -1.68722686622E-01 +9.10637452704E-01
1.40000000000E+09 -9.16947367637E-02 +9.09339220910E-01 +1.35552359753E-03 -1.45279932951E-03 +1.28802046290E-03 -1.58375715261E-03 -1.50771819931E-01 +9.10117260186E-01
1.40500000000E+09 -6.89465191728E-02 +9.06947777048E-01 +1.33179574391E-03 -1.71900498234E-03 +1.22607188963E-03 -1.72285960900E-03 -1.32945063185E-01 +9.08998611170E-01
1.41000000000E+09 -4.47496976545E-02 +9.04455250337E-01 +1.25546480612E-03 -1.97754219599E-03 +1.25841991375E-03 -1.92118078716E-03 -1.14349143455E-01 +9.07219024300E-01
1.41500000000E+09 -2.06795541105E-02 +9.01400399307E-01 +1.16200658559E-03 -1.98832026574E-03 +1.28676529547E-03 -2.04180890156E-03 -9.39672257571E-02 +9.04330934363E-01
1.42000000000E+09 +1.95450596595E-03 +8.97068794498E-01 +1.24212567817E-03 -2.19416695636E-03 +1.38861048679E-03 -2.41666939655E-03 -7.14567172066E-02 +8.99930845703E-01
1.42500000000E+09 +2.19855998167E-02 +8.91195349577E-01 +1.30640339714E-03 -2.50278900454E-03 +1.33787876754E-03 -2.84938543152E-03 -4.74925958782E-02 +8.94466155878E-01
1.43000000000E+09 +4.01251976502E-02 +8.83606802790E-01 +1.49728669861E-03 -2.86207954313E-03 +1.30975085994E-03 -3.26526453455E-03 -2.18820908641E-02 +8.87810889376E-01
1.43500000000E+09 +5.81061824411E-02 +8.73815330614E-01 +1.48953002866E-03 -3.57562788170E-03 +1.16215879994E-03 -3.84735087267E-03 +3.94385002844E-03 +8.79349845058E-01
1.44000000000E+09 +7.73328926481E-02 +8.62002796525E-01 +1.13164118802E-03 -4.36337064593E-03 +8.56379192464E-04 -4.54203528218E-03 +3.01386309667E-02 +8.69730018509E-01
1.44500000000E+09 +1.00018410171E-01 +8.47345397660E-01 +4.37665468210E-04 -4.87601023268E-03 +1.36162995343E-04 -5.07986238481E-03 +5.78117488101E-02 +8.57821008594E-01
1.45000000000E+09 +1.26749314896E-01 +8.29826357689E-01 -2.02077334114E-05 -5.17894671557E-03 -3.96422137875E-04 -5.30197179757E-03 +8.76056321763E-02 +8.41926074234E-01
1.45500000000E+09 +1.57819654493E-01 +8.09146537487E-01 -4.44018342573E-04 -5.64215691389E-03 -1.01522007656E-03 -5.67255322636E-03 +1.18673057469E-01 +8.22122875254E-01
1.46000000000E+09 +1.93065258439E-01 +7.84968054351E-01 -1.09372826353E-03 -6.35731958909E-03 -1.68220799477E-03 -6.00326740952E-03 +1.51708738008E-01 +7.98659271920E-01
1.46500000000E+09 +2.29895683503E-01 +7.56130677483E-01 -2.13706066777E-03 -6.97310230858E-03 -2.37272375042E-03 -6.25101907526E-03 +1.85882450658E-01 +7.70412114373E-01
1.47000000000E+09 +2.65052209029E-01 +7.22864837228E-01 -3.42732995524E-03 -7.30690728209E-03 -3.15788629939E-03 -6.69110650710E-03 +2.20202231427E-01 +7.36598041649E-01
1.47500000000E+09 +2.97283918390E-01 +6.85346627416E-01 -4.66545364729E-03 -7.23423848017E-03 -4.22164432590E-03 -7.08717407576E-03 +2.54356340077E-01 +6.96101438563E-01
1.48000000000E+09 +3.25231218543E-01 +6.42530912498E-01 -5.60896707282E-03 -7.69107948649E-03 -5.46524644416E-03 -7.82533014977E-03 +2.86789293147E-01 +6.47134419151E-01
1.48500000000E+09 +3.47778180255E-01 +5.92772563186E-01 -7.54970230847E-03 -8.13983231293E-03 -7.92167554576E-03 -8.21593161398E-03 +3.16665495845E-01 +5.88958934156E-01
1.49000000000E+09 +3.65232660494E-01 +5.34866480587E-01 -1.00269027037E-02 -7.96202567449E-03 -1.03936117331E-02 -7.37919989713E-03 +3.41557498680E-01 +5.20650875080E-01
1.49500000000E+09 +3.76343488932E-01 +4.67094076314E-01 -1.31123917704E-02 -6.71045428986E-03 -1.27815249327E-02 -5.79247076056E-03 +3.57566110880E-01 +4.42439031152E-01
1.50000000000E+09 +3.79569731742E-01 +3.86989463075E-01 -1.54773741397E-02 -4.77320552422E-03 -1.45362788902E-02 -4.42624010124E-03 +3.60656560315E-01 +3.55831603140E-01
1.50500000000E+09 +3.70272104035E-01 +2.98192251504E-01 -1.83413794964E-02 -1.68038035582E-03 -1.74609104871E-02 -2.11591808763E-03 +3.48347165390E-01 +2.62748066967E-01
1.51000000000E+09 +3.47260231561E-01 +2.04697653304E-01 -1.96370831052E-02 +2.72766642720E-03 -1.94552142834E-02 +1.90568486655E-03 +3.15976943164E-01 +1.65958458587E-01
1.51500000000E+09 +3.09118325226E-01 +1.11746371626E-01 -2.02455836634E-02 +7.05202923315E-03 -2.05578296105E-02 +6.53986761259E-03 +2.61581152741E-01 +7.03105648351E-02
1.52000000000E+09 +2.53127246980E-01 +2.38543479584E-02 -1.96341800511E-02 +1.27107127937E-02 -1.99614317956E-02 +1.25335868647E-02 +1.84725037747E-01 -1.53831115779E-02
1.52500000000E+09 +1.78131948918E-01 -5.02932677694E-02 -1.61229833191E-02 +1.80220339063E-02 -1.63319990087E-02 +1.80473974999E-02 +8.84343321039E-02 -8.44343486430E-02
1.53000000000E+09 +8.94602172114E-02 -1.05364865365E-01 -1.15645603017E-02 +2.12721021939E-02 -1.17749779434E-02 +2.14041718237E-02 -2.02615709298E-02 -1.28574729098E-01
1.53500000000E+09 -1.20054813512E-02 -1.39829068931E-01 -6.75381065327E-03 +2.38515162896E-02 -6.75952202554E-03 +2.39172240017E-02 -1.33753773568E-01 -1.48313810142E-01
1.54000000000E+09 -1.21082558516E-01 -1.49352826831E-01 -3.16792291916E-04 +2.48230690473E-02 -4.34363208596E-04 +2.46361899147E-02 -2.45106954532E-01 -1.42029231498E-01
1.54500000000E+09 -2.29776318965E-01 -1.35208465602E-01 +5.37349818614E-03 +2.33003948845E-02 +4.86705980284E-03 +2.31243540577E-02 -3.45203541578E-01 -1.14875180148E-01
1.55000000000E+09 -3.30053803972E-01 -1.01550638843E-01 +1.00803919311E-02 +2.02802895487E-02 +9.34005278135E-03 +2.06360610598E-02 -4.33653949975E-01 -7.42831781813E-02
1.55500000000E+09 -4.17135880224E-01 -5.50911663916E-02 +1.31884759619E-02 +1.61850036674E-02 +1.27618026509E-02 +1.70857409734E-02 -5.06154846225E-01 -2.20569425088E-02
1.56000000000E+09 -4.89101494454E-01 -2.78252962424E-03 +1.45030469513E-02 +1.21888125281E-02 +1.46561652955E-02 +1.31989965437E-02 -5.63150266872E-01 +3.54016231085E-02
1.56500000000E+09 -5.46382162222E-01 +5.24372435513E-02 +1.49102091865E-02 +8.99821642756E-03 +1.56534750770E-02 +9.75713686044E-03 -6.06444384705E-01 +9.53202437900E-02
1.57000000000E+09 -5.89707332513E-01 +1.08407604578E-01 +1.48228493141E-02 +6.14211719173E-03 +1.58275698397E-02 +6.42971886811E-03 -6.37797563938E-01 +1.54241786519E-01
