# Hz S RI R 50
! CMT, C1220, 16058040, 17.2.0/1
! Date: 15/08/2018 09:01:14
! Data: Format (Calibration Info)
! Freq                      S11: Re/Im (F2)                       S21: Re/Im (F2)                       S12: Re/Im (F2)                       S22: Re/Im (F2)            
1.00000000000E+09 -6.64856122945E-01 +6.97735513585E-01 -2.06940713865E-05 -7.07100794338E-06 +4.87017016116E-05 +4.08184276005E-05 -7.11032844181E-01 +6.71569435612E-01
1.00500000000E+09 -6.57959507130E-01 +7.05282838667E-01 +3.52006419236E-05 +1.56892395189E-05 +6.30374390649E-05 +8.98745847889E-06 -7.07571135872E-01 +6.74892765111E-01
1.01000000000E+09 -6.53630767005E-01 +7.11114818681E-01 +2.50226202771E-06 +5.00648501209E-05 +1.48941756623E-05 +1.97209179823E-05 -7.03679676959E-01 +6.78296869680E-01
1.01500000000E+09 -6.51795776108E-01 +7.14850797611E-01 +2.41815946971E-05 +8.93808029138E-07 +5.58388578063E-06 +2.50127331013E-06 -6.99554094262E-01 +6.82132751355E-01
1.02000000000E+09 -6.51414500765E-01 +7.16687014442E-01 +1.77067001594E-05 -4.86310274828E-05 +2.34663587593E-05 +1.11532359266E-05 -6.95313867857E-01 +6.86210775900E-01
1.02500000000E+09 -6.51491626913E-01 +7.16863560205E-01 +7.07389063173E-05 -1.74253560009E-05 -7.53305631528E-06 +5.38670137488E-05 -6.91742815380E-01 +6.90377818662E-01
1.03000000000E+09 -6.50940178919E-01 +7.16623563179E-01 -4.13159013158E-05 -1.02207232522E-05 +2.18477656008E-05 +2.34981018214E-05 -6.88161408232E-01 +6.94184805044E-01
1.03500000000E+09 -6.48095235687E-01 +7.17016773973E-01 +2.50457326897E-05 +1.79886052687E-05 +6.51487070780E-05 -1.17930232561E-05 -6.84390404025E-01 +6.97402277349E-01
1.04000000000E+09 -6.42873532292E-01 +7.18926691974E-01 +2.73586761223E-05 +2.34640695822E-05 +5.36427008225E-05 -1.71232529768E-05 -6.80670089347E-01 +7.00407265318E-01
1.04500000000E+09 -6.35521536595E-01 +7.23083028176E-01 +1.19112421189E-05 +4.91315863111E-05 +3.72012975505E-05 +3.36184095249E-05 -6.76758260179E-01 +7.03737988250E-01
1.05000000000E+09 -6.26331079255E-01 +7.29225742965E-01 +2.29829176998E-05 +4.09501268498E-05 -4.04252468339E-05 +5.36406086518E-05 -6.72259458918E-01 +7.07560687943E-01
1.05500000000E+09 -6.16562404346E-01 +7.36603544468E-01 -2.04396459401E-06 +2.26766735791E-05 +5.68704201691E-05 +1.04073953172E-05 -6.67839383188E-01 +7.11794039642E-01
1.06000000000E+09 -6.07625787919E-01 +7.44182153358E-01 +3.60321481759E-05 +5.85181741892E-05 +7.34276425292E-06 -4.79150715707E-07 -6.63946386591E-01 +7.15891008120E-01
1.06500000000E+09 -6.00542960409E-01 +7.51258860387E-01 +1.00997874344E-04 +1.93347225590E-05 +4.81574625614E-05 +2.59167000593E-05 -6.59996407885E-01 +7.19421102951E-01
1.07000000000E+09 -5.95951388892E-01 +7.56070808237E-01 +5.37715402205E-05 +2.36606185130E-05 +3.73642507450E-05 -1.59432781325E-06 -6.56143374698E-01 +7.22439689341E-01
1.07500000000E+09 -5.93636912173E-01 +7.59027701602E-01 +3.38871345536E-05 +4.60415297874E-05 +5.99354513719E-05 +4.23180541225E-05 -6.51780964220E-01 +7.25718669533E-01
1.08000000000E+09 -5.93100617523E-01 +7.60252331297E-01 +6.07782276383E-05 +2.63556843810E-05 +3.99983118141E-05 +1.27122741466E-05 -6.47381142609E-01 +7.29284524778E-01
1.08500000000E+09 -5.92821505397E-01 +7.60005961080E-01 +8.22611187193E-06 -4.42789496122E-05 +3.03122350444E-05 -1.64953383927E-05 -6.42241143723E-01 +7.33341007436E-01
1.09000000000E+09 -5.91346260768E-01 +7.59679938095E-01 +3.93781774649E-05 -3.60917219703E-05 +7.33069486568E-05 -4.26093254137E-05 -6.37527770905E-01 +7.37470607159E-01
1.09500000000E+09 -5.88684889419E-01 +7.59561012131E-01 +3.92939328880E-05 +1.57916123316E-05 +3.89978505647E-05 +3.24342260156E-07 -6.33312463759E-01 +7.41404570886E-01
1.10000000000E+09 -5.82953813194E-01 +7.61381945108E-01 +5.01948743031E-05 -4.42582489526E-05 +3.39536361863E-05 -5.02712600174E-05 -6.29166462644E-01 +7.44804277577E-01
1.10500000000E+09 -5.75427785973E-01 +7.65421445785E-01 +3.80428464176E-05 -1.39232457344E-06 +4.87572675169E-05 -2.08552062025E-05 -6.25199118501E-01 +7.47783108482E-01
1.11000000000E+09 -5.66266204349E-01 +7.71235517828E-01 +3.95700891790E-05 -3.49574275820E-05 +1.68426321709E-05 -3.23790350660E-05 -6.21010255612E-01 +7.50758209043E-01
1.11500000000E+09 -5.56651592168E-01 +7.78478290271E-01 +2.49838882396E-05 -5.70606765532E-05 +2.55873038596E-05 +1.76418803635E-07 -6.16175045479E-01 +7.54107520991E-01
1.12000000000E+09 -5.47831495872E-01 +7.85303961792E-01 +5.25955679190E-05 -4.87758158063E-05 +4.58517286914E-05 -2.43493968103E-05 -6.10923273365E-01 +7.58095893839E-01
1.12500000000E+09 -5.40893757687E-01 +7.91322309157E-01 +3.31479816686E-05 -2.98346050054E-05 +3.48700644248E-05 -5.75170458274E-05 -6.05509413103E-01 +7.62400926097E-01
1.13000000000E+09 -5.36308199482E-01 +7.95453634026E-01 +2.99108466968E-05 -3.42476162125E-05 +3.93261381327E-05 -7.01718076902E-05 -6.00819124110E-01 +7.65947474491E-01
1.13500000000E+09 -5.33545727932E-01 +7.97306947500E-01 +5.34253767959E-05 -8.85178035774E-06 +6.87098880672E-05 -4.17658462856E-05 -5.96348301705E-01 +7.69469534450E-01
1.14000000000E+09 -5.31784285806E-01 +7.97304832896E-01 +8.66137048539E-05 -4.25194896382E-05 +4.09808146715E-05 -8.96947935560E-05 -5.91904813560E-01 +7.72181848551E-01
1.14500000000E+09 -5.29747071215E-01 +7.95932582220E-01 +2.86287355677E-05 -7.56515527282E-05 +7.76716983710E-06 -6.18705170228E-05 -5.87049261693E-01 +7.75322226679E-01
1.15000000000E+09 -5.26236061160E-01 +7.94778333564E-01 +5.07391912742E-05 -4.67014586967E-05 -1.46182039572E-05 -7.66724075749E-05 -5.81472415956E-01 +7.79119888003E-01
1.15500000000E+09 -5.20515759304E-01 +7.94678629062E-01 +2.55323382445E-05 -1.04432852514E-04 +2.04171387289E-05 -6.80632408743E-05 -5.75512208150E-01 +7.83050633071E-01
1.16000000000E+09 -5.12048316007E-01 +7.96304964603E-01 -6.48299228831E-06 -6.64740753239E-05 +1.08535390602E-05 -5.57859285465E-05 -5.69744170916E-01 +7.87037991870E-01
1.16500000000E+09 -5.01234776011E-01 +8.00535913669E-01 +2.81344589455E-05 -4.36839362440E-05 +1.69135534714E-05 -6.78531959312E-05 -5.64381386593E-01 +7.90507847574E-01
1.17000000000E+09 -4.89347629829E-01 +8.06550880758E-01 +3.14925216423E-05 -5.83407186709E-05 -1.93978656450E-05 -1.12427669933E-04 -5.59229873100E-01 +7.93355877639E-01
1.17500000000E+09 -4.77571454747E-01 +8.13440461185E-01 -9.00281743367E-07 -9.15876745698E-05 -6.00332315121E-07 -7.56205041393E-05 -5.53900158810E-01 +7.96030712839E-01
1.18000000000E+09 -4.67513250767E-01 +8.20267246273E-01 -3.02045270831E-05 -6.87622520155E-05 -3.17065354855E-05 -9.76704421827E-05 -5.48269716231E-01 +7.98890349538E-01
1.18500000000E+09 -4.60139607868E-01 +8.26018509968E-01 -3.59218468313E-05 -8.14814353931E-05 +6.57901669851E-06 -6.64764198338E-05 -5.41482361047E-01 +8.01888648596E-01
1.19000000000E+09 -4.55557111716E-01 +8.29452210969E-01 -7.06299261722E-06 -4.20121136030E-05 -4.42593299444E-05 -6.90261185638E-05 -5.34167316368E-01 +8.04640090196E-01
1.19500000000E+09 -4.53944134786E-01 +8.30738762059E-01 +2.03667672641E-05 -9.04678085460E-05 -1.72564997179E-05 -3.47279956838E-05 -5.27489402540E-01 +8.05994524015E-01
1.20000000000E+09 -4.53627050902E-01 +8.29750156823E-01 +1.45716491589E-05 -7.93156846600E-05 +6.77594447048E-07 -1.16352387858E-04 -5.22425190803E-01 +8.05985067238E-01
1.20500000000E+09 -4.53535376161E-01 +8.28033765113E-01 -1.37023944974E-05 -1.12693819862E-04 -4.71338231001E-05 -8.19509869603E-05 -5.19988394195E-01 +8.05792561154E-01
1.21000000000E+09 -4.51690181200E-01 +8.26724705378E-01 -1.67288682349E-05 -7.66910961780E-05 -1.99544832696E-07 -3.58895997250E-05 -5.18249731586E-01 +8.07949299194E-01
1.21500000000E+09 -4.46574159389E-01 +8.26538225245E-01 -8.06466725204E-06 -7.17786964805E-05 +4.36065255044E-05 -1.09991794636E-04 -5.15114986598E-01 +8.12330762776E-01
1.22000000000E+09 -4.38046626615E-01 +8.28443739590E-01 -1.89636416485E-05 -1.41128284048E-04 +7.72623447030E-06 -9.97309137463E-05 -5.09865557528E-01 +8.17751654839E-01
1.22500000000E+09 -4.26581045845E-01 +8.32360465755E-01 -7.68578567114E-06 -1.66129828823E-04 -2.43082293347E-05 -1.75590582568E-04 -5.03297526825E-01 +8.23364560600E-01
1.23000000000E+09 -4.13550228342E-01 +8.38174140662E-01 -1.05805173796E-06 -1.23711971763E-04 -2.99403224881E-05 -1.54114657041E-04 -4.96858909552E-01 +8.27922187935E-01
1.23500000000E+09 -4.00505303684E-01 +8.45065996281E-01 -1.15529646618E-05 -1.64430398489E-04 -2.60183333565E-05 -1.39040446831E-04 -4.91312912145E-01 +8.31909172244E-01
1.24000000000E+09 -3.88604725560E-01 +8.51840392611E-01 -3.47975495480E-05 -1.52860728443E-04 -8.02611390089E-05 -1.67365993916E-04 -4.85714970512E-01 +8.35065279098E-01
1.24500000000E+09 -3.79643028800E-01 +8.57794453859E-01 -9.75015734629E-05 -1.72047598070E-04 -5.61091187916E-05 -1.63486833733E-04 -4.79616231026E-01 +8.38305716685E-01
1.25000000000E+09 -3.73484172301E-01 +8.61339760837E-01 -1.13181878042E-04 -1.58465837746E-04 -1.21961294741E-04 -1.79197848321E-04 -4.72399567767E-01 +8.42156416626E-01
1.25500000000E+09 -3.69821497832E-01 +8.62605320041E-01 -1.33727117801E-04 -1.71145368676E-04 -1.46443523322E-04 -1.36377762954E-04 -4.63960887261E-01 +8.45991856360E-01
1.26000000000E+09 -3.67499988310E-01 +8.62431067387E-01 -1.15276892457E-04 -1.18360622991E-04 -8.67207344010E-05 -9.97584998703E-05 -4.56063723123E-01 +8.50115026487E-01
1.26500000000E+09 -3.64758902627E-01 +8.61031057201E-01 -1.60372044562E-04 -1.66359695814E-04 -1.59879051863E-04 -1.53496126304E-04 -4.48336310459E-01 +8.53727347592E-01
1.27000000000E+09 -3.59942806883E-01 +8.59734616814E-01 -1.76071259431E-04 -1.73782978753E-04 -1.90907631528E-04 -1.51007089506E-04 -4.41756862292E-01 +8.57001345224E-01
1.27500000000E+09 -3.51932227205E-01 +8.59352670616E-01 -2.13204796860E-04 -1.53308845326E-04 -2.16813865263E-04 -1.48681128710E-04 -4.35115742484E-01 +8.59871009947E-01
1.28000000000E+09 -3.40357736246E-01 +8.60679402557E-01 -2.66563262526E-04 -1.12165015260E-04 -2.91757853883E-04 -9.23052197355E-05 -4.28178522488E-01 +8.62926655805E-01
1.28500000000E+09 -3.25613113736E-01 +8.63926895298E-01 -2.46698275474E-04 -7.00298749122E-05 -2.48286201695E-04 -6.70418308442E-05 -4.19885148738E-01 +8.65893634327E-01
1.29000000000E+09 -3.09676654734E-01 +8.68533271581E-01 -2.94573688311E-04 -9.89564317789E-05 -2.84845503283E-04 -6.76080757921E-05 -4.10774420640E-01 +8.69527925921E-01
1.29500000000E+09 -2.94165958359E-01 +8.74001394144E-01 -3.03905381765E-04 -1.22622265858E-04 -3.11280808233E-04 -6.96904569369E-05 -4.01605913802E-01 +8.72821498245E-01
1.30000000000E+09 -2.80872510932E-01 +8.79025842968E-01 -2.97511336411E-04 -1.37284779424E-04 -3.24102497622E-04 -7.98592204459E-05 -3.93326171437E-01 +8.75901704196E-01
1.30500000000E+09 -2.70975466800E-01 +8.83000509947E-01 -3.76868234124E-04 -1.07788175721E-04 -3.92666754089E-04 -6.48126719439E-05 -3.85618433442E-01 +8.78720450788E-01
1.31000000000E+09 -2.64705524426E-01 +8.85294232076E-01 -3.83152026907E-04 -2.84020557484E-05 -3.88414527712E-04 -4.84582552061E-05 -3.77833763001E-01 +8.81467326601E-01
1.31500000000E+09 -2.61289925218E-01 +8.86031520030E-01 -4.33163369303E-04 -1.29982675176E-05 -4.38519556701E-04 -1.75935862887E-05 -3.68972191781E-01 +8.84087185600E-01
1.32000000000E+09 -2.58877152417E-01 +8.85156708792E-01 -4.56268379128E-04 -6.79799685866E-06 -5.00275989753E-04 -1.62714626626E-05 -3.58744295008E-01 +8.86848610974E-01
1.32500000000E+09 -2.55600629378E-01 +8.83215687697E-01 -4.84109534531E-04 +4.75251922920E-05 -5.15053523962E-04 +9.20078274562E-05 -3.47886773889E-01 +8.89708156483E-01
1.33000000000E+09 -2.49306672677E-01 +8.81381615019E-01 -5.76509701208E-04 +2.68662642086E-05 -6.08245284656E-04 +1.38845036286E-04 -3.37052760418E-01 +8.92602180959E-01
1.33500000000E+09 -2.38974070167E-01 +8.80192102462E-01 -6.53068301144E-04 +1.86592468647E-04 -5.95410181450E-04 +2.12356784105E-04 -3.26805645687E-01 +8.95275083028E-01
1.34000000000E+09 -2.24114996781E-01 +8.80297436949E-01 -6.74031909831E-04 +2.86033806320E-04 -6.57932809816E-04 +3.04526898393E-04 -3.17285996578E-01 +8.97740973103E-01
1.34500000000E+09 -2.05667496567E-01 +8.81647812581E-01 -6.50685089601E-04 +3.94305755749E-04 -6.13410981203E-04 +3.78896567128E-04 -3.07223076424E-01 +8.99934758664E-01
1.35000000000E+09 -1.85004529891E-01 +8.84107025491E-01 -6.35700006148E-04 +5.23502330973E-04 -6.08173389841E-04 +5.16614040665E-04 -2.96002194117E-01 +9.02095401221E-01
1.35500000000E+09 -1.64617670513E-01 +8.86985360161E-01 -6.01701404003E-04 +6.16511475871E-04 -5.80185450637E-04 +5.96971771471E-04 -2.83406924406E-01 +9.03826470421E-01
1.36000000000E+09 -1.46372764958E-01 +8.89363529305E-01 -6.15666801328E-04 +6.88997985444E-04 -5.26906858710E-04 +6.50158477989E-04 -2.70061426952E-01 +9.05571091088E-01
1.36500000000E+09 -1.31304694192E-01 +8.91104633684E-01 -5.57660328170E-04 +8.36006065399E-04 -5.27914421682E-04 +8.09004226734E-04 -2.56947054152E-01 +9.07370685758E-01
1.37000000000E+09 -1.19672045851E-01 +8.91684511596E-01 -3.21892357154E-04 +1.00163818393E-03 -3.94363872490E-04 +9.10278421494E-04 -2.44209165921E-01 +9.08996788136E-01
1.37500000000E+09 -1.10626566779E-01 +8.90816366046E-01 -1.57943088502E-04 +9.48134321884E-04 -2.44802357948E-04 +8.77219261262E-04 -2.31443663981E-01 +9.10469159694E-01
1.38000000000E+09 -1.02597170454E-01 +8.88425706107E-01 -1.31967172920E-04 +9.07417114074E-04 -2.25512791816E-04 +8.93364348635E-04 -2.17476514592E-01 +9.11526546350E-01
1.38500000000E+09 -9.30930923227E-02 +8.85088437592E-01 -1.28570961428E-04 +8.36237014265E-04 -2.12315132478E-04 +9.03240798695E-04 -2.02056763665E-01 +9.11733151571E-01
1.39000000000E+09 -8.11365191334E-02 +8.80895832581E-01 -2.39549337807E-04 +8.62005623604E-04 -1.94183158189E-04 +1.01830093943E-03 -1.85445995692E-01 +9.11688210475E-01
1.39500000000E+09 -6.50813045767E-02 +8.76826808060E-01 -3.10970622452E-04 +1.02099733030E-03 -1.85218795646E-04 +1.15005807168E-03 -1.67766956605E-01 +9.11205663792E-01
1.40000000000E+09 -4.50078687566E-02 +8.72627387208E-01 -2.42064786926E-04 +1.19391553842E-03 -1.21362492153E-04 +1.31585708847E-03 -1.49855974333E-01 +9.10617735978E-01
1.40500000000E+09 -2.20303632115E-02 +8.68544138226E-01 -1.46810179965E-04 +1.38683013152E-03 -1.00573625508E-04 +1.34318470261E-03 -1.32005642090E-01 +9.09486169034E-01
1.41000000000E+09 +2.34955711307E-03 +8.64517287121E-01 +6.66621367767E-05 +1.54376678820E-03 +4.56718136575E-05 +1.56819857532E-03 -1.13493439949E-01 +9.07515006782E-01
1.41500000000E+09 +2.61358848185E-02 +8.60302615150E-01 +2.15938074275E-04 +1.58601860019E-03 +1.74535574294E-04 +1.69956440242E-03 -9.32332825548E-02 +9.04903119577E-01
1.42000000000E+09 +4.81494141154E-02 +8.55380183164E-01 +3.40699415006E-04 +1.78787235791E-03 +3.63389496973E-04 +1.97751830849E-03 -7.08463828235E-02 +9.00271588548E-01
1.42500000000E+09 +6.76881995791E-02 +8.48778865353E-01 +5.81006561708E-04 +1.90440552398E-03 +7.48076566790E-04 +2.08263873725E-03 -4.68175623619E-02 +8.94741117340E-01
1.43000000000E+09 +8.50079585901E-02 +8.40384051978E-01 +7.15647234963E-04 +2.16785070077E-03 +9.32706937944E-04 +2.24089398085E-03 -2.13510174838E-02 +8.88136134687E-01
1.43500000000E+09 +1.01202301791E-01 +8.29403556774E-01 +1.21423854728E-03 +2.52247334072E-03 +1.47773000815E-03 +2.46930007105E-03 +4.52695644156E-03 +8.79714816504E-01
1.44000000000E+09 +1.18427737827E-01 +8.16434749694E-01 +1.96118549248E-03 +2.58374536616E-03 +2.15101166273E-03 +2.47510045831E-03 +3.05325485540E-02 +8.70202409375E-01
1.44500000000E+09 +1.38826459072E-01 +8.00455429283E-01 +2.56056963289E-03 +2.32251830184E-03 +2.74479099595E-03 +2.22498831241E-03 +5.81643909176E-02 +8.58399262614E-01
1.45000000000E+09 +1.62911472668E-01 +7.81224898497E-01 +3.12367672549E-03 +2.00331828313E-03 +3.30126948549E-03 +1.88738095154E-03 +8.79834678997E-02 +8.42729123678E-01
1.45500000000E+09 +1.90927352708E-01 +7.59070331892E-01 +3.39863226601E-03 +1.70136708463E-03 +3.54590162908E-03 +1.36911952344E-03 +1.18976665284E-01 +8.23156283443E-01
1.46000000000E+09 +2.21846912814E-01 +7.34064786488E-01 +3.84393876949E-03 +1.60666981938E-03 +3.80770072988E-03 +1.16210543032E-03 +1.51967474304E-01 +7.99778776900E-01
1.46500000000E+09 +2.54083427917E-01 +7.06854433174E-01 +4.60035640393E-03 +1.34360378564E-03 +4.28921162592E-03 +9.90853054287E-04 +1.86312617117E-01 +7.71891415914E-01
1.47000000000E+09 +2.86287678038E-01 +6.77002690514E-01 +5.44656333080E-03 +7.54408623825E-04 +4.99287107088E-03 +7.06491615523E-04 +2.21183820241E-01 +7.38239961295E-01
1.47500000000E+09 +3.15888703784E-01 +6.43239081856E-01 +6.12052954501E-03 -2.72520648811E-04 +5.92467874298E-03 -1.86374471094E-05 +2.55504001978E-01 +6.97587483090E-01
1.48000000000E+09 +3.41547569451E-01 +6.05273695505E-01 +6.33684680606E-03 -1.24977591557E-03 +6.47066005869E-03 -1.02624519081E-03 +2.88259225091E-01 +6.48649148233E-01
1.48500000000E+09 +3.62146764705E-01 +5.61038343023E-01 +7.11791908993E-03 -2.06400041563E-03 +7.30082473615E-03 -2.23478832755E-03 +3.18247034996E-01 +5.90169171826E-01
1.49000000000E+09 +3.77464003842E-01 +5.09641656429E-01 +7.91238306160E-03 -3.99253102710E-03 +7.69502872478E-03 -4.40957594549E-03 +3.43017469627E-01 +5.21808091208E-01
1.49500000000E+09 +3.87910994420E-01 +4.48834401925E-01 +7.78054551915E-03 -6.22053004280E-03 +7.21477343046E-03 -6.23452779022E-03 +3.59289416830E-01 +4.43720116998E-01
1.50000000000E+09 +3.91904329466E-01 +3.77480827432E-01 +7.43921314501E-03 -8.64346534843E-03 +6.98779777419E-03 -8.12930359045E-03 +3.62827858024E-01 +3.56765176699E-01
1.50500000000E+09 +3.87104574032E-01 +2.95607677592E-01 +5.76771186355E-03 -1.19323015869E-02 +5.87535895304E-03 -1.12642199978E-02 +3.50251703245E-01 +2.63425571151E-01
1.51000000000E+09 +3.70161949742E-01 +2.06865424798E-01 +2.35971221796E-03 -1.42549965913E-02 +2.90785905523E-03 -1.39602378928E-02 +3.17822996995E-01 +1.66590926483E-01
1.51500000000E+09 +3.38079982135E-01 +1.16597747947E-01 -1.25642903618E-03 -1.48514639193E-02 -9.46262200693E-04 -1.49477659014E-02 +2.63568609843E-01 +7.12063455375E-02
1.52000000000E+09 +2.89776108007E-01 +3.01257386560E-02 -5.31218533954E-03 -1.56351264892E-02 -5.19298642530E-03 -1.58634051358E-02 +1.86999662764E-01 -1.44323069403E-02
1.52500000000E+09 +2.22325725417E-01 -4.56891450024E-02 -1.05735190155E-02 -1.35575990976E-02 -1.05762074007E-02 -1.37877720926E-02 +9.12516460624E-02 -8.34632710611E-02
1.53000000000E+09 +1.36716656692E-01 -1.02348802064E-01 -1.33660347516E-02 -9.29845243755E-03 -1.34888054791E-02 -9.42773022059E-03 -1.62263184163E-02 -1.28661297479E-01
1.53500000000E+09 +3.97679980094E-02 -1.36238019530E-01 -1.44073061054E-02 -6.24910986439E-03 -1.44837906797E-02 -6.29895154790E-03 -1.30068391134E-01 -1.49951864427E-01
1.54000000000E+09 -6.63042380271E-02 -1.46292812200E-01 -1.59958385236E-02 -2.49973342847E-03 -1.59143843696E-02 -2.49392671104E-03 -2.42152790393E-01 -1.44386488850E-01
1.54500000000E+09 -1.71888825631E-01 -1.31360869631E-01 -1.50680179244E-02 +1.51975896973E-03 -1.49616741523E-02 +1.33822888892E-03 -3.43266713624E-01 -1.18052664032E-01
1.55000000000E+09 -2.71590013940E-01 -9.82120777277E-02 -1.42700996539E-02 +4.55590664708E-03 -1.43720350397E-02 +4.11981659644E-03 -4.33114459530E-01 -7.74377964185E-02
1.55500000000E+09 -3.59916235126E-01 -4.88634174956E-02 -1.22574514685E-02 +8.24754298076E-03 -1.28019749911E-02 +7.96488540611E-03 -5.06257469985E-01 -2.48620951477E-02
1.56000000000E+09 -4.30526594419E-01 +8.82272753765E-03 -8.51764349796E-03 +1.04146392189E-02 -9.26782930132E-03 +1.05597453861E-02 -5.64156547799E-01 +3.29015463663E-02
1.56500000000E+09 -4.84315758404E-01 +6.83764717725E-02 -5.10752532960E-03 +1.05184363034E-02 -5.53299194451E-03 +1.10004473366E-02 -6.08124245574E-01 +9.34554023275E-02
1.57000000000E+09 -5.22919444915E-01 +1.28361009005E-01 -2.80464161742E-03 +9.68482709656E-03 -2.94900166869E-03 +1.02275485789E-02 -6.39830873277E-01 +1.53359831911E-01
