# Hz S RI R 50
! CMT, C1220, 16058040, 17.2.0/1
! Date: 15/08/2018 09:01:00
! Data: Format (Calibration Info)
! Freq                      S11: Re/Im (F2)                       S21: Re/Im (F2)                       S12: Re/Im (F2)                       S22: Re/Im (F2)            
1.00000000000E+09 -6.65257857391E-01 +6.99724436882E-01 +6.48644295503E-05 +2.15810670700E-05 +4.21795797922E-05 +3.48353527592E-05 -7.11070120689E-01 +6.71665843272E-01
1.00500000000E+09 -6.58335352194E-01 +7.07428243160E-01 +9.07842754533E-05 +4.16226996752E-05 +1.07727782878E-05 -2.81127584391E-05 -7.07568865907E-01 +6.74921430177E-01
1.01000000000E+09 -6.54031510714E-01 +7.13541387942E-01 +3.59768606737E-05 +4.10415697308E-05 +5.57081229447E-05 +4.18310939366E-06 -7.03582106311E-01 +6.78218405876E-01
1.01500000000E+09 -6.52409660634E-01 +7.17447905043E-01 +3.04681490884E-05 +1.32395705230E-05 +9.09336767070E-05 +2.15610375246E-05 -6.99634508368E-01 +6.82293758135E-01
1.02000000000E+09 -6.52339877351E-01 +7.19300923297E-01 +1.74043167053E-05 -9.49888928301E-06 +6.63466208292E-05 -2.44877706421E-05 -6.95306858513E-01 +6.86375222561E-01
1.02500000000E+09 -6.52723137852E-01 +7.19598887748E-01 +1.36259950752E-05 +2.58202524397E-05 +7.61161392673E-05 +3.14354954318E-05 -6.91770163869E-01 +6.90419422851E-01
1.03000000000E+09 -6.52521223125E-01 +7.19547167578E-01 +5.57677078939E-05 -5.29251086414E-06 +3.06309897919E-06 +1.53222792840E-05 -6.88079954085E-01 +6.94180943293E-01
1.03500000000E+09 -6.50214800752E-01 +7.19972322624E-01 +3.95640462647E-05 -2.54809748239E-06 -2.11264300410E-06 -1.50571137818E-05 -6.84463000834E-01 +6.97547762046E-01
1.04000000000E+09 -6.45391010508E-01 +7.21998629078E-01 +3.32798320438E-05 -3.04256091013E-05 +6.42570582023E-05 -9.94028450999E-05 -6.80637821104E-01 +7.00365789410E-01
1.04500000000E+09 -6.38278831939E-01 +7.26210406476E-01 +2.44134798757E-05 -2.15461721603E-05 +2.49020104796E-06 -4.35933981264E-05 -6.76656429453E-01 +7.03786745764E-01
1.05000000000E+09 -6.29022749171E-01 +7.32393884571E-01 +2.87749637930E-05 -2.43235747572E-05 +6.48752972764E-05 -2.31921979384E-05 -6.72218226188E-01 +7.07552523153E-01
1.05500000000E+09 -6.19307902766E-01 +7.39876091066E-01 +3.08208900387E-05 -5.73578067870E-05 +2.53204299167E-05 -3.15965119940E-05 -6.67853958337E-01 +7.11797565630E-01
1.06000000000E+09 -6.10072899478E-01 +7.47704353321E-01 +2.03379183708E-05 +4.30639036569E-05 +3.32559177603E-05 -7.83661969848E-05 -6.63793016916E-01 +7.15933710215E-01
1.06500000000E+09 -6.02994647508E-01 +7.54679859639E-01 -2.01676198942E-05 +2.21545387351E-06 +7.60637579777E-06 +2.19936601176E-05 -6.59922102611E-01 +7.19362011096E-01
1.07000000000E+09 -5.98220244991E-01 +7.59624035317E-01 +6.06071961413E-05 -4.87127849162E-05 +2.19664483514E-05 -1.13078400608E-05 -6.56100849518E-01 +7.22507129242E-01
1.07500000000E+09 -5.95724570148E-01 +7.62716373558E-01 -9.64858429218E-06 -6.75271918657E-05 -1.47840495569E-05 -1.76698372580E-05 -6.51852847924E-01 +7.25667774234E-01
1.08000000000E+09 -5.95018020458E-01 +7.63812421695E-01 +5.57081660263E-06 -1.07382106220E-05 -1.57908477268E-07 -6.75346919841E-05 -6.47211440432E-01 +7.29324411630E-01
1.08500000000E+09 -5.94753149411E-01 +7.63737711807E-01 +2.88550415416E-05 -4.57187154255E-05 +4.23887535552E-05 +2.82078713794E-05 -6.42274641341E-01 +7.33229891236E-01
1.09000000000E+09 -5.93503553244E-01 +7.63250644454E-01 +2.84722834216E-05 -2.83835034893E-05 +3.47907427257E-05 +1.18099312671E-05 -6.37619859638E-01 +7.37519682162E-01
1.09500000000E+09 -5.90693031627E-01 +7.63539976283E-01 +5.14914747840E-05 -3.54088382269E-05 +1.67999830633E-05 -4.26022010191E-05 -6.33218792109E-01 +7.41439453525E-01
1.10000000000E+09 -5.85090336768E-01 +7.65412298548E-01 +3.91129423394E-05 -4.69919184452E-05 +3.81353527844E-05 -4.06921091696E-05 -6.29242874334E-01 +7.44933946983E-01
1.10500000000E+09 -5.77392362512E-01 +7.69557482096E-01 -1.08631931234E-05 -4.97698599675E-05 +1.26999714340E-05 -9.14985336981E-05 -6.25134874994E-01 +7.47782106769E-01
1.11000000000E+09 -5.68072371279E-01 +7.75652078948E-01 +3.72236828781E-05 -3.41672158524E-05 -1.46626641881E-05 -6.50639354793E-05 -6.20909900722E-01 +7.50724688685E-01
1.11500000000E+09 -5.58256842519E-01 +7.82989140856E-01 -1.73339248874E-05 -8.38700294655E-05 +3.37147368384E-05 -4.71634111106E-05 -6.16097102963E-01 +7.54092060972E-01
1.12000000000E+09 -5.49337336888E-01 +7.90087144354E-01 -7.96551373040E-06 -7.74840532761E-06 +5.41713877976E-05 -1.00503491713E-04 -6.10907989607E-01 +7.58291442208E-01
1.12500000000E+09 -5.42363424550E-01 +7.96250117874E-01 -4.00487940756E-05 -6.17278840777E-05 -2.56365476319E-05 -8.83143238603E-05 -6.05504389754E-01 +7.62374675366E-01
1.13000000000E+09 -5.37475046910E-01 +8.00546003221E-01 -4.93949841846E-05 -3.98327843476E-05 -5.37468026034E-05 -8.93252193672E-05 -6.00784895064E-01 +7.66050632436E-01
1.13500000000E+09 -5.34631690051E-01 +8.02392450329E-01 -5.91581240804E-05 -1.21683737993E-05 -5.91813911612E-05 -1.49972559060E-05 -5.96415542306E-01 +7.69455891276E-01
1.14000000000E+09 -5.32876361624E-01 +8.02615952264E-01 -5.72264206014E-06 -5.45072026821E-05 -6.12449785487E-05 -6.61558740775E-05 -5.91821647603E-01 +7.72340117341E-01
1.14500000000E+09 -5.31076460356E-01 +8.01493550472E-01 -3.21026608228E-05 -2.47057076729E-05 -1.53078052503E-05 -2.41238547694E-05 -5.86948599583E-01 +7.75255645709E-01
1.15000000000E+09 -5.27477001776E-01 +8.00245197306E-01 -1.07532731969E-05 -2.26672287854E-05 +6.77961657368E-07 +4.49774363576E-06 -5.81435244977E-01 +7.79034042725E-01
1.15500000000E+09 -5.21861608436E-01 +8.00237266665E-01 -2.91724458309E-05 -3.88109313339E-05 -3.45885497549E-05 +9.08647036555E-06 -5.75417169097E-01 +7.83173896692E-01
1.16000000000E+09 -5.13372586427E-01 +8.01944622668E-01 -3.03601747234E-05 -1.80764439228E-05 +1.11816432782E-05 -2.77191146167E-05 -5.69663651232E-01 +7.87083237224E-01
1.16500000000E+09 -5.02610702213E-01 +8.06336267065E-01 -1.36197073041E-05 -6.78264692486E-06 +2.34998770331E-06 -4.24512821234E-05 -5.64371461009E-01 +7.90483794918E-01
1.17000000000E+09 -4.90436562772E-01 +8.12516780859E-01 -2.95326091698E-05 -7.91455675149E-05 -3.57963798132E-05 -2.93556457669E-05 -5.59155114323E-01 +7.93318122979E-01
1.17500000000E+09 -4.78553734182E-01 +8.19788627621E-01 -3.48325405718E-05 -2.62429495039E-05 +1.29913043655E-05 -6.37125311959E-05 -5.53672741615E-01 +7.95940252815E-01
1.18000000000E+09 -4.68298660762E-01 +8.26924245509E-01 +9.43236969648E-07 -7.41362638079E-05 -4.89978011222E-06 -1.45385977443E-05 -5.48141772779E-01 +7.98819758174E-01
1.18500000000E+09 -4.60677580218E-01 +8.32706376233E-01 -3.06762594541E-06 -8.34288297972E-05 -1.06306207781E-05 -5.92148915694E-05 -5.41446132681E-01 +8.01890562157E-01
1.19000000000E+09 -4.56059303619E-01 +8.36323765078E-01 -6.24487339600E-05 -4.37640007406E-05 -2.04481540422E-05 -9.31374917369E-05 -5.34146067160E-01 +8.04645281681E-01
1.19500000000E+09 -4.54215841627E-01 +8.37582420653E-01 -1.10341171501E-04 -7.73351134129E-05 -1.08917469543E-04 -1.06210609741E-04 -5.27484103555E-01 +8.06029423581E-01
1.20000000000E+09 -4.53825144129E-01 +8.36418023499E-01 -8.69457952254E-05 -3.04130161539E-05 -9.35179785576E-05 -2.14172699525E-05 -5.22357681739E-01 +8.06046449511E-01
1.20500000000E+09 -4.53694180291E-01 +8.34803658171E-01 -1.01090889769E-04 +3.19841110271E-05 -1.01380454666E-04 -4.43322140512E-05 -5.19889362814E-01 +8.05821663582E-01
1.21000000000E+09 -4.51826301113E-01 +8.33287673511E-01 -1.22320607686E-04 +2.05365040386E-05 -7.98043300105E-05 -3.66568177500E-05 -5.18252020642E-01 +8.07962762553E-01
1.21500000000E+09 -4.46786361324E-01 +8.33144496527E-01 -1.13128249052E-04 -5.33465913005E-05 -1.02583098041E-04 -5.55040992729E-05 -5.15062927532E-01 +8.12195447404E-01
1.22000000000E+09 -4.38120963324E-01 +8.34796334362E-01 -1.45812508862E-04 -3.81152911598E-05 -5.85463335454E-05 -1.85132917702E-05 -5.09792573270E-01 +8.17787477340E-01
1.22500000000E+09 -4.26509995881E-01 +8.39050657662E-01 -1.39345630948E-04 -2.66833561370E-05 -1.23995592969E-04 -2.27316924595E-05 -5.03235019250E-01 +8.23315198910E-01
1.23000000000E+09 -4.12976082958E-01 +8.44970083149E-01 -7.06676628067E-05 +2.01397199972E-05 -9.09729715812E-05 -3.68383349770E-05 -4.96868560796E-01 +8.27904035715E-01
1.23500000000E+09 -3.99341695650E-01 +8.51943509784E-01 -9.88928537210E-05 +9.16121734132E-06 -1.24996156742E-04 +2.72969248818E-05 -4.91233571480E-01 +8.31823681838E-01
1.24000000000E+09 -3.87233802831E-01 +8.58849000177E-01 -1.23809955074E-04 +4.79092192772E-05 -1.04560872615E-04 +9.27044367876E-07 -4.85719680912E-01 +8.35077288940E-01
1.24500000000E+09 -3.77725720710E-01 +8.64941840675E-01 -1.46642449280E-04 +3.79416655315E-05 -1.21200505746E-04 +4.77758070657E-05 -4.79505117108E-01 +8.38422524278E-01
1.25000000000E+09 -3.71295418913E-01 +8.68824730750E-01 -9.50633339991E-05 +4.74873814311E-05 -1.11209444532E-04 -1.40390712579E-05 -4.72264881992E-01 +8.42189888141E-01
1.25500000000E+09 -3.67322727735E-01 +8.70258225802E-01 -1.33572646394E-04 +6.45653330271E-05 -1.34218805680E-04 +6.34968498121E-05 -4.63979785839E-01 +8.46116159905E-01
1.26000000000E+09 -3.64991305806E-01 +8.70321622775E-01 -9.72286302637E-05 +5.22556334962E-05 -1.16219565238E-04 +7.69553412774E-05 -4.55992778561E-01 +8.50248702591E-01
1.26500000000E+09 -3.62306821733E-01 +8.69100049996E-01 -1.61564141469E-04 +1.24944678381E-06 -1.44665922292E-04 +3.64774579072E-05 -4.48369991967E-01 +8.53711689552E-01
1.27000000000E+09 -3.57555420594E-01 +8.68200652213E-01 -1.53568884517E-04 +3.85592804329E-05 -1.48594581831E-04 +5.14732883204E-05 -4.41684200850E-01 +8.56944169786E-01
1.27500000000E+09 -3.49884193492E-01 +8.68292737456E-01 -1.30758234619E-04 +7.48335461389E-05 -1.65388015802E-04 +9.69772498921E-05 -4.35105717047E-01 +8.59977885335E-01
1.28000000000E+09 -3.38331645042E-01 +8.70122899217E-01 -2.05976988895E-04 +1.39774880213E-04 -2.22639540412E-04 +1.00095643606E-04 -4.28074348471E-01 +8.62883367797E-01
1.28500000000E+09 -3.23676202325E-01 +8.73811260983E-01 -1.44138948017E-04 +6.72116067634E-05 -1.50882637022E-04 +1.07691929901E-04 -4.19597302030E-01 +8.66091890058E-01
1.29000000000E+09 -3.07576580420E-01 +8.78784778241E-01 -1.68407290330E-04 +1.23863513192E-04 -1.91526670293E-04 +1.37789543601E-04 -4.10686989536E-01 +8.69521774454E-01
1.29500000000E+09 -2.91728944853E-01 +8.84214375230E-01 -2.08751738920E-04 +1.64527118912E-04 -1.79497957570E-04 +1.97230935597E-04 -4.01501015341E-01 +8.72806480614E-01
1.30000000000E+09 -2.77967440118E-01 +8.89529026099E-01 -2.18643436061E-04 +1.49460151300E-04 -2.07932020355E-04 +1.62658698092E-04 -3.93254721636E-01 +8.75958200927E-01
1.30500000000E+09 -2.67663384825E-01 +8.93313073488E-01 -1.77866079271E-04 +2.16824129845E-04 -1.75287128127E-04 +2.13626137103E-04 -3.85510738101E-01 +8.78647700865E-01
1.31000000000E+09 -2.60968081153E-01 +8.95058185574E-01 -1.37803297457E-04 +2.94267382163E-04 -1.11010770878E-04 +2.45086942761E-04 -3.77692244896E-01 +8.81386604994E-01
1.31500000000E+09 -2.57065082326E-01 +8.95301651956E-01 -1.33581346928E-04 +2.81762176903E-04 -1.36657633612E-04 +2.19066036934E-04 -3.68840331699E-01 +8.84322981533E-01
1.32000000000E+09 -2.54271770770E-01 +8.93896306533E-01 -1.11678842618E-04 +2.22977654853E-04 -1.47185592682E-04 +2.82814130054E-04 -3.58675462212E-01 +8.86804125150E-01
1.32500000000E+09 -2.50943417904E-01 +8.91360839411E-01 -1.01969559507E-04 +2.83665974363E-04 -1.16868257841E-04 +2.61233908322E-04 -3.47793624467E-01 +8.89793053479E-01
1.33000000000E+09 -2.44634658905E-01 +8.89120936959E-01 -9.80793902110E-05 +2.90245631460E-04 -8.57210498193E-05 +2.72857429494E-04 -3.36906214647E-01 +8.92605152664E-01
1.33500000000E+09 -2.34038801129E-01 +8.87412304605E-01 -1.71089134476E-04 +3.37104362316E-04 -1.24337554239E-04 +2.95349568600E-04 -3.26770520147E-01 +8.95309435420E-01
1.34000000000E+09 -2.19252842118E-01 +8.87378969817E-01 -1.54915623088E-04 +3.23856679882E-04 -1.29496136862E-04 +3.67239573173E-04 -3.17283741329E-01 +8.97804989222E-01
1.34500000000E+09 -2.00831292990E-01 +8.88852511942E-01 -1.14170836278E-04 +4.19417480858E-04 -1.29468087827E-04 +3.90913379461E-04 -3.07088922076E-01 +9.00067548824E-01
1.35000000000E+09 -1.80069739727E-01 +8.91357798666E-01 -1.21833839815E-04 +4.37331124797E-04 -1.49796531235E-04 +4.54229198241E-04 -2.95907562194E-01 +9.02024556729E-01
1.35500000000E+09 -1.59333239698E-01 +8.94633468341E-01 -8.03375363658E-05 +5.71136653685E-04 -1.07346562274E-04 +5.78986439091E-04 -2.83274537512E-01 +9.03840063555E-01
1.36000000000E+09 -1.40703655275E-01 +8.97443212601E-01 -8.10870825041E-05 +6.80251733995E-04 -2.17454787638E-05 +6.20940247882E-04 -2.69910200796E-01 +9.05572072122E-01
1.36500000000E+09 -1.25235753409E-01 +8.99362479537E-01 +3.32245992269E-05 +8.08607462408E-04 +2.47758587412E-05 +7.22138612410E-04 -2.56914623295E-01 +9.07398233736E-01
1.37000000000E+09 -1.13298608152E-01 +8.99942704225E-01 +2.21537273089E-04 +9.16464443361E-04 +1.99184858091E-04 +8.25220753908E-04 -2.44187255035E-01 +9.09051502564E-01
1.37500000000E+09 -1.03905008953E-01 +8.99244088330E-01 +4.15625182003E-04 +8.38215762383E-04 +3.50221883326E-04 +8.52348665297E-04 -2.31321309460E-01 +9.10438072016E-01
1.38000000000E+09 -9.54053893900E-02 +8.97110832768E-01 +5.48092699429E-04 +7.51995783604E-04 +4.53654087449E-04 +8.37477240991E-04 -2.17461032292E-01 +9.11535390157E-01
1.38500000000E+09 -8.51575173931E-02 +8.93942790878E-01 +5.91410107329E-04 +7.00877766420E-04 +5.59058802930E-04 +8.61453521431E-04 -2.01792621745E-01 +9.11765741466E-01
1.39000000000E+09 -7.24524484553E-02 +8.89689720062E-01 +6.75325541082E-04 +6.69324859748E-04 +7.39570616818E-04 +7.82406337301E-04 -1.85376599512E-01 +9.11764812117E-01
1.39500000000E+09 -5.56749012166E-02 +8.85375120148E-01 +7.23265799269E-04 +7.55633442608E-04 +9.33533642236E-04 +7.30635713112E-04 -1.67781229087E-01 +9.11283309513E-01
1.40000000000E+09 -3.47910684811E-02 +8.80668810483E-01 +9.15406332592E-04 +7.71045010740E-04 +1.02882530129E-03 +6.56924384404E-04 -1.49770600401E-01 +9.10606601619E-01
1.40500000000E+09 -1.13342833100E-02 +8.76200098954E-01 +1.16749527573E-03 +6.66169875557E-04 +1.16332414811E-03 +5.96034643584E-04 -1.31850098630E-01 +9.09435827517E-01
1.41000000000E+09 +1.34290807061E-02 +8.71524110287E-01 +1.30416585684E-03 +5.13617713471E-04 +1.23929253644E-03 +4.94816659382E-04 -1.13440655813E-01 +9.07616638860E-01
1.41500000000E+09 +3.73025500704E-02 +8.66560451159E-01 +1.31522782222E-03 +3.24272614904E-04 +1.35374172395E-03 +3.51672431455E-04 -9.29744280750E-02 +9.04847683945E-01
1.42000000000E+09 +5.90533470724E-02 +8.61076467809E-01 +1.34943590883E-03 +3.62200091376E-04 +1.47329175309E-03 +3.86535483033E-04 -7.06227128325E-02 +9.00347774888E-01
1.42500000000E+09 +7.83109137187E-02 +8.54538212004E-01 +1.55463657285E-03 +2.32501487929E-04 +1.72921448375E-03 +2.31906259687E-04 -4.66675149545E-02 +8.94544966646E-01
1.43000000000E+09 +9.54405631068E-02 +8.46168131666E-01 +1.61275774065E-03 +2.23215963242E-04 +1.72207627107E-03 +6.52173852663E-05 -2.11946119693E-02 +8.88016273752E-01
1.43500000000E+09 +1.11906153294E-01 +8.35609614675E-01 +1.98368737309E-03 +2.32743963644E-04 +2.05727063662E-03 +4.35729537845E-05 +4.64612048463E-03 +8.79686794939E-01
1.44000000000E+09 +1.29672451823E-01 +8.22552386063E-01 +2.37445090545E-03 -1.17453790960E-04 +2.41848601879E-03 -2.89681799100E-04 +3.06309693515E-02 +8.70068033174E-01
1.44500000000E+09 +1.50347848132E-01 +8.06250989481E-01 +2.55830447485E-03 -5.72909677763E-04 +2.55142205662E-03 -7.25946473152E-04 +5.82947577417E-02 +8.58270651946E-01
1.45000000000E+09 +1.75052087889E-01 +7.86651221139E-01 +2.86078444582E-03 -9.60849992006E-04 +2.82856305737E-03 -1.15067129793E-03 +8.80171774706E-02 +8.42465698087E-01
1.45500000000E+09 +2.03837121899E-01 +7.63958333933E-01 +2.94697015923E-03 -1.68941398127E-03 +2.75971710998E-03 -1.95179787072E-03 +1.18994905862E-01 +8.22872009523E-01
1.46000000000E+09 +2.35423047497E-01 +7.38000965339E-01 +2.80283121675E-03 -2.22228347256E-03 +2.46263071792E-03 -2.40475618031E-03 +1.51985671952E-01 +7.99606358821E-01
1.46500000000E+09 +2.68199367117E-01 +7.08949844335E-01 +2.86200428967E-03 -2.81689722439E-03 +2.41188752109E-03 -2.74636597711E-03 +1.86232361321E-01 +7.71617031643E-01
1.47000000000E+09 +2.99862577863E-01 +6.77095596813E-01 +2.61429655349E-03 -3.78183434798E-03 +2.36286123306E-03 -3.42728756103E-03 +2.20823113161E-01 +7.37947543371E-01
1.47500000000E+09 +3.28687706754E-01 +6.42032267101E-01 +2.07289691616E-03 -4.38363612458E-03 +2.14053931797E-03 -4.09723655316E-03 +2.55031508715E-01 +6.97545861912E-01
1.48000000000E+09 +3.53006352123E-01 +6.03045497653E-01 +1.50089287822E-03 -4.99712273476E-03 +1.66184984818E-03 -5.01817908688E-03 +2.87809581916E-01 +6.48726324552E-01
1.48500000000E+09 +3.72887876307E-01 +5.58233227255E-01 +1.02115128395E-03 -5.79509719451E-03 +1.00074462499E-03 -5.95284048967E-03 +3.17954610699E-01 +5.90352513626E-01
1.49000000000E+09 +3.87280992460E-01 +5.06132585917E-01 +1.97399302292E-04 -6.93182369371E-03 -1.55560642419E-04 -6.90983857699E-03 +3.42719013584E-01 +5.22077434042E-01
1.49500000000E+09 +3.96811347092E-01 +4.45468474167E-01 -1.81687936094E-03 -7.85267285114E-03 -1.99856430694E-03 -7.41285757929E-03 +3.58878143168E-01 +4.43964345435E-01
1.50000000000E+09 +4.00495921551E-01 +3.74361101269E-01 -3.64023680776E-03 -7.51959946128E-03 -3.41108482661E-03 -7.06685188054E-03 +3.62400989368E-01 +3.57424006185E-01
1.50500000000E+09 +3.95299214186E-01 +2.92302498941E-01 -5.56191227662E-03 -7.77048316717E-03 -5.04597103331E-03 -7.59043261795E-03 +3.50177276280E-01 +2.64358155063E-01
1.51000000000E+09 +3.77688684136E-01 +2.04169133817E-01 -8.21126904163E-03 -6.62963772598E-03 -7.78532643965E-03 -6.88866010038E-03 +3.18158998005E-01 +1.67606580876E-01
1.51500000000E+09 +3.46443704677E-01 +1.14251918144E-01 -9.84579951128E-03 -4.71326714971E-03 -9.74772131713E-03 -5.04778662541E-03 +2.64065998483E-01 +7.21267844475E-02
1.52000000000E+09 +2.97322528104E-01 +2.72961170049E-02 -1.19168706793E-02 -2.84514384340E-03 -1.20108927270E-02 -3.14288347951E-03 +1.88281399172E-01 -1.37176174470E-02
1.52500000000E+09 +2.29406513610E-01 -4.66661373018E-02 -1.35721127492E-02 +1.14064842093E-03 -1.37578252817E-02 +1.01787022744E-03 +9.26444397420E-02 -8.37290771332E-02
1.53000000000E+09 +1.45559878712E-01 -1.03966761974E-01 -1.23694100611E-02 +5.57942749840E-03 -1.25105900549E-02 +5.54268912167E-03 -1.54824621576E-02 -1.29352107104E-01
1.53500000000E+09 +4.65039497971E-02 -1.38263204924E-01 -9.64823037650E-03 +8.04301347528E-03 -9.70218881084E-03 +8.10881557390E-03 -1.29710168098E-01 -1.50494146632E-01
1.54000000000E+09 -5.90528584822E-02 -1.47106465697E-01 -7.81611061072E-03 +9.67068722283E-03 -7.80932285839E-03 +9.65311820975E-03 -2.41900366271E-01 -1.44859032399E-01
1.54500000000E+09 -1.66383447845E-01 -1.33334284238E-01 -4.48892203674E-03 +1.13324683857E-02 -4.63415466790E-03 +1.12334037412E-02 -3.43199539808E-01 -1.18557323581E-01
1.55000000000E+09 -2.67953325667E-01 -9.82977468578E-02 -1.84500308316E-03 +1.11045130649E-02 -2.14483173332E-03 +1.10419671598E-02 -4.33188938203E-01 -7.76923921289E-02
1.55500000000E+09 -3.56911237793E-01 -4.73731760951E-02 +6.38844410909E-04 +1.10428147136E-02 +3.03872602465E-04 +1.13052407688E-02 -5.06336458733E-01 -2.50982341877E-02
1.56000000000E+09 -4.28623217680E-01 +1.22054629163E-02 +3.21543112669E-03 +9.88116270080E-03 +3.06529809629E-03 +1.04025499216E-02 -5.64355609902E-01 +3.27343821284E-02
1.56500000000E+09 -4.82826613217E-01 +7.51123783922E-02 +4.75556965147E-03 +8.08178907470E-03 +4.94828829366E-03 +8.60699106363E-03 -6.08103976278E-01 +9.35041285802E-02
1.57000000000E+09 -5.19757692527E-01 +1.38861254760E-01 +5.73310676029E-03 +6.20032759948E-03 +6.16399162792E-03 +6.55747992213E-03 -6.39741367828E-01 +1.53185851597E-01
