# Hz S RI R 50
! CMT, C1220, 16058040, 17.2.0/1
! Date: 15/08/2018 08:59:43
! Data: Format (Calibration Info)
! Freq                      S11: Re/Im (F2)                       S21: Re/Im (F2)                       S12: Re/Im (F2)                       S22: Re/Im (F2)            
1.00000000000E+09 -6.66220627377E-01 +6.94719484767E-01 -4.05229502027E-05 +3.50512040234E-05 -3.06398717548E-05 +1.55956722195E-05 -7.10783883196E-01 +6.71682536582E-01
1.00500000000E+09 -6.59680868472E-01 +7.02408866051E-01 -2.37461649689E-05 -5.85047152756E-06 +5.62080248808E-05 +1.75821215413E-05 -7.07277715657E-01 +6.75276464373E-01
1.01000000000E+09 -6.56141878034E-01 +7.08092566095E-01 -2.42076415177E-05 +9.57782516909E-07 +1.24404157910E-05 -1.23689656169E-05 -7.03324001093E-01 +6.78532326337E-01
1.01500000000E+09 -6.55329446825E-01 +7.11311095584E-01 +2.93907981547E-05 -3.30244538802E-05 -3.16185861170E-05 -2.75066203730E-06 -6.99305558487E-01 +6.82468306859E-01
1.02000000000E+09 -6.56152148588E-01 +7.12790272387E-01 +2.21542218609E-05 -2.16398359097E-06 +4.21051766865E-05 +3.14633729056E-05 -6.94971838843E-01 +6.86493852640E-01
1.02500000000E+09 -6.57545262896E-01 +7.12589218393E-01 -9.56316692869E-06 +1.30186709348E-05 -3.86600669199E-05 -1.13455856872E-05 -6.91371003240E-01 +6.90695344911E-01
1.03000000000E+09 -6.58023747831E-01 +7.11951607654E-01 -3.77334152520E-05 -5.15291934526E-06 -2.03475488036E-05 +1.29951961093E-05 -6.87840561328E-01 +6.94210926413E-01
1.03500000000E+09 -6.56069542438E-01 +7.12021848088E-01 +1.50996936697E-06 -6.70107025733E-06 +1.47756085847E-06 -1.75837617869E-05 -6.84168961061E-01 +6.97687316539E-01
1.04000000000E+09 -6.51353264942E-01 +7.13812414486E-01 -8.43997465582E-07 +4.54911535257E-05 -1.98620206275E-05 -1.53452110699E-05 -6.80377059266E-01 +7.00771310030E-01
1.04500000000E+09 -6.44236344722E-01 +7.17919622321E-01 +1.25032744828E-05 -1.10985713113E-05 -4.36489904636E-05 +1.95746704232E-05 -6.76369002831E-01 +7.04029121858E-01
1.05000000000E+09 -6.34882858292E-01 +7.24488968366E-01 -1.61728538230E-05 +1.94180790638E-05 -9.26724417695E-06 -8.95583496263E-06 -6.71875931574E-01 +7.07793875649E-01
1.05500000000E+09 -6.24641924877E-01 +7.32262053316E-01 +1.83492425192E-05 -1.53153623379E-05 +3.65024220211E-05 +2.03210792703E-05 -6.67506221158E-01 +7.12077189964E-01
1.06000000000E+09 -6.15009690679E-01 +7.40375203822E-01 -1.36907551309E-05 -1.40471862349E-05 -4.11907809291E-05 +6.44639095257E-06 -6.63440331210E-01 +7.16304546423E-01
1.06500000000E+09 -6.07163891429E-01 +7.47946048487E-01 -1.14121619231E-05 -2.43084101527E-05 -3.73297344808E-05 +3.25437357422E-05 -6.59473667337E-01 +7.19794662552E-01
1.07000000000E+09 -6.01864930862E-01 +7.53404792326E-01 +3.02058034675E-05 +4.73321321858E-05 +2.75165626279E-05 +1.19860853007E-05 -6.55734756195E-01 +7.22761688449E-01
1.07500000000E+09 -5.99177587983E-01 +7.56768915556E-01 -4.12753550325E-05 -4.48445782641E-06 -1.22024956504E-05 +8.34679089868E-06 -6.51377481282E-01 +7.25916252192E-01
1.08000000000E+09 -5.98360372385E-01 +7.58304448290E-01 +4.04190705530E-05 +2.45246917516E-05 -1.51250083815E-05 +2.38206736729E-05 -6.46954224666E-01 +7.29588778393E-01
1.08500000000E+09 -5.98154700307E-01 +7.58289064904E-01 +1.29985390783E-05 +2.37965098282E-05 +2.71645590795E-05 +4.40907186960E-05 -6.41974654939E-01 +7.33493227845E-01
1.09000000000E+09 -5.97328511422E-01 +7.57883199602E-01 -2.31353084146E-05 +4.28635059242E-05 -3.62832933782E-05 +1.98387438040E-05 -6.37340960255E-01 +7.37729866199E-01
1.09500000000E+09 -5.95277831061E-01 +7.57789322533E-01 -4.69197885184E-06 +5.41779626472E-05 +1.92637345188E-05 +3.50126387643E-05 -6.32960619870E-01 +7.41710565621E-01
1.10000000000E+09 -5.90493467978E-01 +7.59378601313E-01 -3.36761025909E-05 +6.19218328003E-05 -4.67080141612E-06 +3.53054045120E-05 -6.28868935269E-01 +7.45198828526E-01
1.10500000000E+09 -5.83685856117E-01 +7.62987181341E-01 -1.81769073783E-05 +2.65236893173E-05 -2.16402484664E-05 +2.53436205939E-05 -6.24837288791E-01 +7.47942459568E-01
1.11000000000E+09 -5.75480281805E-01 +7.68520976100E-01 +2.52673576558E-05 +2.68796290493E-05 -1.77655348269E-06 +4.58652094428E-05 -6.20353066307E-01 +7.50909401602E-01
1.11500000000E+09 -5.66418540690E-01 +7.75224157668E-01 +3.18324896065E-06 +2.37628650014E-05 -7.70546632717E-06 +2.76418681654E-06 -6.15708303004E-01 +7.54295716882E-01
1.12000000000E+09 -5.58190664148E-01 +7.82048348935E-01 +4.24805657418E-06 +1.46938447543E-05 +9.73995241491E-06 +1.35406446561E-06 -6.10485724892E-01 +7.58323643225E-01
1.12500000000E+09 -5.51241887238E-01 +7.88080841660E-01 +4.21994450335E-05 -1.56364092882E-05 +1.05211827980E-05 +8.61680111319E-06 -6.05167490732E-01 +7.62513954116E-01
1.13000000000E+09 -5.46446750756E-01 +7.92181145631E-01 +3.62016941475E-05 +2.05581725103E-05 +1.55110720952E-05 +5.81648677380E-06 -6.00418024814E-01 +7.66206712687E-01
1.13500000000E+09 -5.43351250084E-01 +7.94061464705E-01 +4.11441336749E-05 +1.93600232803E-05 +1.62200116438E-05 +3.49818633451E-05 -5.95935275728E-01 +7.69548807795E-01
1.14000000000E+09 -5.41262064460E-01 +7.94595390455E-01 +1.02435107311E-05 -2.19082162003E-05 +3.56140256900E-05 -7.88644358062E-06 -5.91528740197E-01 +7.72566169100E-01
1.14500000000E+09 -5.39004628863E-01 +7.93689546912E-01 -3.63731415449E-06 +2.31013507300E-05 +3.92495785457E-05 +4.41232768408E-05 -5.86534619284E-01 +7.75408164561E-01
1.15000000000E+09 -5.35356677303E-01 +7.92777171642E-01 +1.52711828443E-05 +2.84656940137E-05 -3.09711487742E-05 -1.22270644473E-05 -5.81139038358E-01 +7.79306812392E-01
1.15500000000E+09 -5.29723191166E-01 +7.93119382869E-01 +3.39898807000E-05 -3.26692378772E-05 -2.27814915993E-05 -4.56079873239E-05 -5.75095032554E-01 +7.83281244631E-01
1.16000000000E+09 -5.21661376760E-01 +7.95115293041E-01 +6.25209340270E-06 +1.67711576353E-05 -1.31314254524E-05 -2.58387347783E-06 -5.69264475932E-01 +7.87311008348E-01
1.16500000000E+09 -5.11714793324E-01 +7.99398451819E-01 +5.05222155955E-06 -2.69398710521E-05 +2.01581903713E-05 +3.34739987162E-05 -5.63956623811E-01 +7.90825465860E-01
1.17000000000E+09 -5.00712154222E-01 +8.05449639179E-01 -5.62208632122E-06 +2.70729440609E-07 -1.20912118080E-05 +2.24863784094E-05 -5.58759885490E-01 +7.93639549357E-01
1.17500000000E+09 -4.89927104914E-01 +8.12517724680E-01 +1.23157524285E-05 +1.41347056054E-05 +3.25798559882E-05 -3.08827977669E-05 -5.53393728318E-01 +7.96264397087E-01
1.18000000000E+09 -4.80979871452E-01 +8.19506359956E-01 -8.17708309618E-06 -4.28186859863E-05 +1.80214961794E-05 -1.20516619721E-05 -5.47795562195E-01 +7.99030497549E-01
1.18500000000E+09 -4.74484735440E-01 +8.25114462127E-01 -1.63974114895E-05 +5.12067952935E-05 +2.27208577866E-05 +5.61267862789E-05 -5.41017481081E-01 +8.02047601206E-01
1.19000000000E+09 -4.70547015830E-01 +8.28803845386E-01 -3.85317483813E-05 +1.04713151426E-05 +2.00848766372E-05 +1.24439228015E-05 -5.33748443749E-01 +8.04920664436E-01
1.19500000000E+09 -4.69114050586E-01 +8.30030370285E-01 -8.14801079158E-06 +5.73061643960E-05 +2.98129519260E-05 +8.77296081502E-05 -5.27269637265E-01 +8.06180798650E-01
1.20000000000E+09 -4.68926089769E-01 +8.29002557123E-01 +4.85377304274E-05 +3.70466608589E-05 +2.32799036747E-05 +6.61530233467E-05 -5.21934516682E-01 +8.06314360059E-01
1.20500000000E+09 -4.68661857250E-01 +8.27442688129E-01 +4.09555225345E-05 +5.15463567325E-05 +7.33910346837E-05 +4.98745397035E-05 -5.19528826299E-01 +8.06028669155E-01
1.21000000000E+09 -4.66485599481E-01 +8.26138430026E-01 +6.52525652366E-05 +7.64663925227E-06 +5.36876935261E-05 +3.79214107496E-05 -5.17923615189E-01 +8.08133350468E-01
1.21500000000E+09 -4.60840268337E-01 +8.26036474032E-01 +6.37913425251E-05 +3.68174241615E-05 +8.47443580010E-05 +5.88895362720E-05 -5.14716496514E-01 +8.12368126144E-01
1.22000000000E+09 -4.51739957790E-01 +8.27981396536E-01 +3.00626958513E-05 +3.75683629456E-06 +2.33836010169E-05 +5.36560592379E-05 -5.09262857773E-01 +8.18057453366E-01
1.22500000000E+09 -4.39634015056E-01 +8.32258366601E-01 +7.20771184315E-05 -9.74238081762E-06 +8.11659354027E-05 -1.51767035844E-05 -5.02836612479E-01 +8.23531481647E-01
1.23000000000E+09 -4.25925479584E-01 +8.38396947743E-01 +5.18959325806E-05 -1.63012917012E-05 +7.44215073265E-05 -1.25481229447E-05 -4.96426507774E-01 +8.28139433883E-01
1.23500000000E+09 -4.12394179060E-01 +8.45452412629E-01 +6.46170929450E-05 -3.44179856537E-05 +5.58770873253E-05 -1.82857532771E-05 -4.90682390351E-01 +8.32142228065E-01
1.24000000000E+09 -4.00112105243E-01 +8.52282339541E-01 +5.95122978780E-05 -1.18082745043E-05 +2.18946214881E-05 -7.21116146390E-05 -4.85332737525E-01 +8.35363650347E-01
1.24500000000E+09 -3.90977398572E-01 +8.58142481298E-01 +4.25508918474E-05 +1.61059617877E-05 +8.26790763098E-05 -1.47737246389E-06 -4.79119439859E-01 +8.38651889265E-01
1.25000000000E+09 -3.84956745548E-01 +8.62105643049E-01 +6.02204965049E-05 -3.67269787437E-05 +8.12469073991E-05 -2.91836859309E-05 -4.71718376184E-01 +8.42319190735E-01
1.25500000000E+09 -3.81432662905E-01 +8.63542798865E-01 +1.23980987589E-04 -7.18648900406E-05 +4.65490601570E-05 -7.10449575585E-05 -4.63533201352E-01 +8.46086663589E-01
1.26000000000E+09 -3.79534588334E-01 +8.63357738794E-01 +6.30940963754E-05 -7.93279647029E-05 +6.07206019382E-05 -4.59366770139E-05 -4.55491748893E-01 +8.50319275083E-01
1.26500000000E+09 -3.77442577085E-01 +8.62181528571E-01 +1.32754073909E-05 -7.66047106143E-05 +3.68364054656E-05 -7.33275457898E-05 -4.47889567133E-01 +8.53899353723E-01
1.27000000000E+09 -3.73649103700E-01 +8.61160801133E-01 +3.90999977997E-05 -8.96762501430E-05 +6.03264408758E-05 -4.09156714974E-05 -4.41180336746E-01 +8.57044814535E-01
1.27500000000E+09 -3.66687616614E-01 +8.61232022768E-01 +2.10595735094E-05 -6.04277587299E-05 +4.47444257319E-05 -5.53484786190E-05 -4.34596920261E-01 +8.60101811511E-01
1.28000000000E+09 -3.56404696547E-01 +8.63215121160E-01 +2.33667141212E-05 -1.22474139385E-04 +1.35132511853E-05 -1.07888588312E-04 -4.27671088251E-01 +8.62992267259E-01
1.28500000000E+09 -3.43032671837E-01 +8.67077482981E-01 -2.46024238023E-05 -1.40265524428E-04 -4.41442178447E-05 -1.22067901714E-04 -4.19319188609E-01 +8.66257842610E-01
1.29000000000E+09 -3.28187812421E-01 +8.72558789696E-01 -4.21957331136E-05 -4.45095136094E-05 -4.75390507318E-05 -1.20626996248E-04 -4.10213528598E-01 +8.69688500563E-01
1.29500000000E+09 -3.13427588048E-01 +8.79011441661E-01 -1.72297439471E-05 -9.62556614167E-05 -8.20335499657E-05 -1.31948663931E-04 -4.01160766094E-01 +8.72978682027E-01
1.30000000000E+09 -3.00396998839E-01 +8.84900908986E-01 -3.29990863139E-05 -9.91403093632E-05 -4.39256698414E-05 -9.28082411359E-05 -3.92817966259E-01 +8.76095229992E-01
1.30500000000E+09 -2.90577543418E-01 +8.89444725858E-01 -9.31591179051E-05 -1.31786805693E-04 -1.11493387705E-04 -1.03021046911E-04 -3.85048467065E-01 +8.78884752871E-01
1.31000000000E+09 -2.84216442087E-01 +8.92027387482E-01 -8.00877091580E-05 -2.17787316805E-05 -1.41390414049E-04 -5.08304781716E-05 -3.77291912670E-01 +8.81624274829E-01
1.31500000000E+09 -2.80658276129E-01 +8.92611149577E-01 -1.05110763933E-04 -8.04503391930E-06 -1.14963375687E-04 -1.56725981335E-05 -3.68354069732E-01 +8.84264604026E-01
1.32000000000E+09 -2.78371651877E-01 +8.91603851442E-01 -6.28723686932E-05 +1.24241748087E-05 -1.08499172530E-04 +2.96772692307E-05 -3.58285420929E-01 +8.86994078539E-01
1.32500000000E+09 -2.75350508847E-01 +8.89696812027E-01 -9.17041182939E-05 +1.71669101502E-05 -7.72250106804E-05 +9.72805461498E-05 -3.47251364145E-01 +8.89820115525E-01
1.33000000000E+09 -2.69471715284E-01 +8.87731482303E-01 -3.05579091395E-05 +4.03020848818E-05 -2.28993389763E-05 +7.68001938018E-05 -3.36510795388E-01 +8.92658091968E-01
1.33500000000E+09 -2.59735795832E-01 +8.86501678402E-01 -6.79079927423E-05 +4.90274793388E-05 -2.19286900422E-05 +1.02600981935E-04 -3.26302347014E-01 +8.95321130950E-01
1.34000000000E+09 -2.45927665369E-01 +8.86738363802E-01 +1.90715241418E-05 +5.96388721108E-05 +1.45420540816E-06 +4.71458118309E-05 -3.16768278775E-01 +8.97807639633E-01
1.34500000000E+09 -2.28395196144E-01 +8.88369458026E-01 +6.70742216405E-05 +4.52161082414E-05 +3.18532540345E-05 +6.70231409736E-05 -3.06643575469E-01 +9.00166767276E-01
1.35000000000E+09 -2.08764158387E-01 +8.91116302844E-01 +2.78300219923E-05 -5.03456304575E-07 +5.08092440474E-05 -3.35140230514E-06 -2.95388832808E-01 +9.02104843770E-01
1.35500000000E+09 -1.89101785783E-01 +8.94306943043E-01 +5.16635086104E-05 -3.31006018670E-05 +3.26179066609E-05 -3.68423246921E-05 -2.82919685728E-01 +9.04012579001E-01
1.36000000000E+09 -1.71402902071E-01 +8.97248667146E-01 +8.89289719549E-05 -8.02639041377E-06 +8.48476401705E-05 -4.32441229868E-05 -2.69557220910E-01 +9.05767578499E-01
1.36500000000E+09 -1.56658221319E-01 +8.99550322605E-01 +1.08230567193E-04 -9.62646500556E-05 +1.22804958810E-04 -5.89678346928E-05 -2.56576974530E-01 +9.07438421123E-01
1.37000000000E+09 -1.44938094185E-01 +9.00309336753E-01 +8.85036330143E-05 -1.79111614061E-04 +1.19103088186E-04 -1.66161085219E-04 -2.43655987629E-01 +9.09061678431E-01
1.37500000000E+09 -1.36041690564E-01 +8.99915510173E-01 -1.24529717426E-05 -2.29333988813E-04 +3.23930721334E-05 -2.05102451684E-04 -2.30845634251E-01 +9.10425373915E-01
1.38000000000E+09 -1.27710587520E-01 +8.98091823032E-01 -5.68302276309E-05 -1.97122193941E-04 -6.53099923878E-05 -2.21848443266E-04 -2.16948568538E-01 +9.11421072868E-01
1.38500000000E+09 -1.18139347544E-01 +8.95245702667E-01 -1.57742752636E-04 -2.64442142863E-04 -1.21994849393E-04 -3.18352292848E-04 -2.01412605212E-01 +9.11879583651E-01
1.39000000000E+09 -1.06093036407E-01 +8.91845666000E-01 -1.85279633120E-04 -1.78012582880E-04 -2.28897417933E-04 -1.97763742343E-04 -1.84825762864E-01 +9.11810058070E-01
1.39500000000E+09 -9.03127292503E-02 +8.88304768861E-01 -2.08483096897E-04 -1.98442943296E-04 -2.60121043939E-04 -2.03059434904E-04 -1.67179737637E-01 +9.11215847485E-01
1.40000000000E+09 -7.05009038418E-02 +8.85215765558E-01 -3.31881679553E-04 -1.61553596234E-04 -3.03161314215E-04 -1.43601329988E-04 -1.49278174164E-01 +9.10584799564E-01
1.40500000000E+09 -4.79415856694E-02 +8.82466862564E-01 -3.56572356464E-04 -9.72140736341E-05 -3.97654974954E-04 -9.11920721278E-05 -1.31440796449E-01 +9.09435471569E-01
1.41000000000E+09 -2.37249999844E-02 +8.79590434400E-01 -3.85721659914E-04 -1.34573639246E-05 -3.25480188726E-04 +3.05222002087E-05 -1.12931016611E-01 +9.07644995983E-01
1.41500000000E+09 -2.08523231117E-06 +8.76231769181E-01 -3.20508670158E-04 +9.00044456425E-05 -3.02595077857E-04 +6.62354537033E-05 -9.26713082753E-02 +9.04788275527E-01
1.42000000000E+09 +2.19034965572E-02 +8.72072615079E-01 -2.85169418402E-04 +7.74001830628E-05 -3.38679914173E-04 +6.81591431884E-05 -7.02619442482E-02 +9.00262209907E-01
1.42500000000E+09 +4.12458086032E-02 +8.66554688541E-01 -2.95555265987E-04 -3.74729110989E-06 -3.61463393857E-04 +4.56709820469E-05 -4.62142151702E-02 +8.94665089288E-01
1.43000000000E+09 +5.84018288623E-02 +8.59124712924E-01 -4.34249820872E-04 +9.31046887483E-05 -4.72935640937E-04 +9.35293061991E-05 -2.08481958217E-02 +8.88026234124E-01
1.43500000000E+09 +7.49395435911E-02 +8.49363752302E-01 -4.89145958864E-04 +1.62687190492E-04 -4.31916506167E-04 +2.24833297405E-04 +4.91807794537E-03 +8.79600065056E-01
1.44000000000E+09 +9.24495880703E-02 +8.37181277592E-01 -4.66432732375E-04 +2.71101358969E-04 -4.42278850652E-04 +3.21377370779E-04 +3.10312924043E-02 +8.70143581002E-01
1.44500000000E+09 +1.12978311615E-01 +8.22251050714E-01 -4.91327701857E-04 +4.12311911787E-04 -4.87538331713E-04 +4.58090423506E-04 +5.85401322352E-02 +8.58387111112E-01
1.45000000000E+09 +1.37478905736E-01 +8.04130292199E-01 -3.46861835417E-04 +4.96744898321E-04 -3.40130885872E-04 +5.10163100823E-04 +8.83175784599E-02 +8.42702317956E-01
1.45500000000E+09 +1.66208876938E-01 +7.83047460866E-01 -3.62186563555E-04 +5.14970582131E-04 -3.17807199420E-04 +5.43706775434E-04 +1.19507282269E-01 +8.23110313223E-01
1.46000000000E+09 +1.98278355725E-01 +7.58765249884E-01 -4.58015686831E-04 +6.40976862448E-04 -4.00911932593E-04 +6.63115407166E-04 +1.52433816422E-01 +7.99680716693E-01
1.46500000000E+09 +2.31771152229E-01 +7.31873064323E-01 -2.19568955763E-04 +8.34702944509E-04 -1.50180358951E-04 +8.09689318901E-04 +1.86690090664E-01 +7.71707460603E-01
1.47000000000E+09 +2.65177646893E-01 +7.01636431916E-01 -2.70212411640E-04 +9.63360400697E-04 -2.64242051024E-04 +8.63744466563E-04 +2.21346175502E-01 +7.38043954050E-01
1.47500000000E+09 +2.96287607079E-01 +6.67931492783E-01 -8.96370022307E-05 +1.13965215159E-03 -1.09581001536E-04 +1.08095001382E-03 +2.55522708978E-01 +6.97542631178E-01
1.48000000000E+09 +3.24272454149E-01 +6.28962505780E-01 +1.55729300156E-04 +1.42664780168E-03 +1.00061475973E-04 +1.42100070547E-03 +2.88360396714E-01 +6.48666644665E-01
1.48500000000E+09 +3.47193803918E-01 +5.83364264283E-01 +6.50547206468E-04 +1.37324389846E-03 +7.46519499207E-04 +1.36097277059E-03 +3.18325299187E-01 +5.90170481414E-01
1.49000000000E+09 +3.65550226433E-01 +5.29909909865E-01 +7.80061849013E-04 +1.13990060762E-03 +7.89903750667E-04 +1.10251862837E-03 +3.43019532064E-01 +5.21910829095E-01
1.49500000000E+09 +3.78648642901E-01 +4.66058056564E-01 +7.83167924016E-04 +1.66610891764E-03 +8.30391173832E-04 +1.53031851858E-03 +3.59259845034E-01 +4.43862839910E-01
1.50000000000E+09 +3.83047715866E-01 +3.90869546502E-01 +2.18042285487E-03 +1.41281237831E-03 +2.01408772753E-03 +1.33435973705E-03 +3.62695421374E-01 +3.57309509191E-01
1.50500000000E+09 +3.78642502460E-01 +3.07869673490E-01 +2.23708508058E-03 +4.97091206272E-04 +2.08324814403E-03 +5.12223061264E-04 +3.50505440365E-01 +2.64179120384E-01
1.51000000000E+09 +3.62957101432E-01 +2.17037821676E-01 +2.64337411840E-03 +4.53641886872E-04 +2.62710332177E-03 +5.17685916762E-04 +3.18489534359E-01 +1.67227058209E-01
1.51500000000E+09 +3.31006927288E-01 +1.23388257971E-01 +2.96781587642E-03 -6.69485950746E-04 +2.94606527686E-03 -5.97562599332E-04 +2.64246256770E-01 +7.17997990674E-02
1.52000000000E+09 +2.80625976553E-01 +3.60443618682E-02 +2.64627281948E-03 -1.70914038432E-03 +2.66860311267E-03 -1.64141285230E-03 +1.88098172425E-01 -1.40374906256E-02
1.52500000000E+09 +2.13334334202E-01 -4.13025072150E-02 +2.29130152224E-03 -2.31912557889E-03 +2.30644168909E-03 -2.28659372097E-03 +9.23335313620E-02 -8.36679422189E-02
1.53000000000E+09 +1.26804549725E-01 -1.01323920877E-01 +1.16354902695E-03 -3.25162791730E-03 +1.21819612553E-03 -3.29147939168E-03 -1.54313545708E-02 -1.29064482723E-01
1.53500000000E+09 +2.56355281813E-02 -1.37727291227E-01 -1.29618987790E-04 -3.17373584641E-03 -1.04601268709E-04 -3.17533857325E-03 -1.29521201341E-01 -1.50287196429E-01
1.54000000000E+09 -8.15984186821E-02 -1.47554091600E-01 -8.76820482894E-04 -2.47115240737E-03 -8.44769314668E-04 -2.48382768728E-03 -2.41696665690E-01 -1.44881253653E-01
1.54500000000E+09 -1.87796515922E-01 -1.36219348022E-01 -1.07025712413E-03 -2.05792103585E-03 -1.04152368021E-03 -2.02298748954E-03 -3.43078795323E-01 -1.18467531653E-01
1.55000000000E+09 -2.89147518316E-01 -1.07001325415E-01 -1.81908336364E-03 -1.61669241136E-03 -1.74978518042E-03 -1.65474513270E-03 -4.32910978150E-01 -7.78855022613E-02
1.55500000000E+09 -3.80163130868E-01 -6.31151620216E-02 -1.67566831744E-03 -5.58245140140E-04 -1.69357003119E-03 -6.61505828375E-04 -5.06523202641E-01 -2.51669614149E-02
1.56000000000E+09 -4.55289951579E-01 -1.06931661657E-02 -1.10291460303E-03 -6.88088838799E-04 -1.17797392810E-03 -6.84328504049E-04 -5.64445294397E-01 +3.28923331218E-02
1.56500000000E+09 -5.14839834008E-01 +4.45812906711E-02 -1.37615824151E-03 -5.38873909051E-04 -1.40838644745E-03 -5.67176053807E-04 -6.08243551394E-01 +9.37032505423E-02
1.57000000000E+09 -5.59423461914E-01 +1.00422837346E-01 -1.55410145588E-03 -2.16952549757E-04 -1.63327985653E-03 -2.61108762524E-04 -6.39857011157E-01 +1.53627126260E-01
