# Hz S RI R 50
! CMT, C1220, 16058040, 17.2.0/1
! Date: 15/08/2018 09:01:40
! Data: Format (Calibration Info)
! Freq                      S11: Re/Im (F2)                       S21: Re/Im (F2)                       S12: Re/Im (F2)                       S22: Re/Im (F2)            
1.00000000000E+09 -6.71090906722E-01 +6.95487805065E-01 +1.65869195452E-06 +2.67348682040E-06 -9.18209947922E-06 -1.01248815852E-05 -7.11198736117E-01 +6.71457259928E-01
1.00500000000E+09 -6.64291411166E-01 +7.03370220076E-01 +1.21227174775E-05 +2.12506976143E-05 +4.94277470572E-06 +3.33133766080E-05 -7.07633479670E-01 +6.74911744651E-01
1.01000000000E+09 -6.60122900744E-01 +7.09394313344E-01 +2.56808586752E-06 -8.23289717843E-06 -1.89934195137E-05 +4.57016574051E-05 -7.03768883377E-01 +6.78332107613E-01
1.01500000000E+09 -6.58600745947E-01 +7.12977971004E-01 -4.58230411645E-05 +4.28911155499E-05 -3.92900922742E-05 +3.80652908120E-05 -6.99762880136E-01 +6.82131512205E-01
1.02000000000E+09 -6.59011167170E-01 +7.14865341820E-01 +6.50931683576E-06 +5.39350134384E-05 +3.25385402116E-06 +5.68772256585E-06 -6.95402144110E-01 +6.86140530427E-01
1.02500000000E+09 -6.59439323961E-01 +7.14985897729E-01 -1.56309669524E-05 +7.16943539648E-06 -4.65025506387E-05 +9.73370710747E-06 -6.92016238944E-01 +6.90386747541E-01
1.03000000000E+09 -6.59475840493E-01 +7.14565124621E-01 +4.87699503337E-05 +5.10266387378E-05 -5.02893068221E-05 +1.00689650273E-06 -6.88173113415E-01 +6.93997669112E-01
1.03500000000E+09 -6.57190380795E-01 +7.14630348301E-01 +2.53402702037E-05 +2.18047078061E-05 +3.72206077274E-06 +3.66540115944E-05 -6.84579577722E-01 +6.97303074316E-01
1.04000000000E+09 -6.52417186212E-01 +7.16432686624E-01 -5.15249244458E-05 +2.08354597724E-05 -3.28395709626E-05 +2.11262128094E-05 -6.80791185871E-01 +7.00265254072E-01
1.04500000000E+09 -6.45257499889E-01 +7.20372165518E-01 -3.67239633863E-05 +2.76289475841E-05 -5.16031403873E-05 +1.66498582502E-06 -6.76610881728E-01 +7.03645189156E-01
1.05000000000E+09 -6.36106683947E-01 +7.26338110933E-01 +1.35231871976E-07 +6.40127463985E-05 -5.03592027891E-06 +4.93986243919E-05 -6.72267983072E-01 +7.07470534111E-01
1.05500000000E+09 -6.26315578919E-01 +7.33364594537E-01 +5.03593699212E-05 +4.98202931867E-05 +3.69363436968E-06 +1.54255153044E-05 -6.67989001767E-01 +7.11764461672E-01
1.06000000000E+09 -6.17184017870E-01 +7.41218770322E-01 -3.28188949479E-05 +5.64784063159E-05 -2.98541177981E-05 +3.20085999673E-05 -6.63975672947E-01 +7.15881614198E-01
1.06500000000E+09 -6.10305880159E-01 +7.47971686479E-01 -4.49020225985E-06 +5.50112901277E-05 +1.54721948060E-05 +4.01303980676E-05 -6.60004794974E-01 +7.19350055440E-01
1.07000000000E+09 -6.05667859814E-01 +7.52805118056E-01 +4.17140543008E-05 +6.37680223411E-05 +2.06463130098E-05 +1.10021208885E-05 -6.56289497190E-01 +7.22294443207E-01
1.07500000000E+09 -6.03338270396E-01 +7.55758983667E-01 +3.51591113844E-05 -3.72178196243E-06 +4.41841173838E-05 +2.89082079844E-05 -6.51965923646E-01 +7.25507342544E-01
1.08000000000E+09 -6.03089135382E-01 +7.56800234727E-01 +1.34949926682E-05 +4.42307626836E-05 +8.23858784951E-05 +3.41275901099E-05 -6.47400697712E-01 +7.29275294660E-01
1.08500000000E+09 -6.02951708141E-01 +7.56520079731E-01 +3.26969677187E-05 +3.11988585508E-05 +2.66406010291E-05 +8.43271522144E-05 -6.42366050858E-01 +7.33035190717E-01
1.09000000000E+09 -6.01889855047E-01 +7.56018857577E-01 +3.46306822071E-05 +5.26154422713E-05 +2.67385722619E-05 +7.41446674478E-05 -6.37559073465E-01 +7.37505389027E-01
1.09500000000E+09 -5.99383983884E-01 +7.55975198017E-01 +6.44995569622E-05 +3.92731353672E-05 +5.99934026603E-06 +6.55176027358E-05 -6.33332650368E-01 +7.41290316045E-01
1.10000000000E+09 -5.94017002349E-01 +7.57885244261E-01 +4.45957606979E-06 -2.45939440731E-05 +1.73667939240E-05 +6.83467722194E-05 -6.29438747139E-01 +7.44689570589E-01
1.10500000000E+09 -5.86342239310E-01 +7.61764298655E-01 -2.41955702956E-05 +5.18045960325E-05 +3.75893015215E-05 +3.27904377773E-05 -6.25346071642E-01 +7.47709665995E-01
1.11000000000E+09 -5.77135327511E-01 +7.67796463823E-01 +5.81260042067E-05 +6.83041033534E-05 +9.49476723612E-05 +2.69630943486E-05 -6.21027700541E-01 +7.50584777151E-01
1.11500000000E+09 -5.67276799665E-01 +7.75056343227E-01 +2.82739874131E-05 +3.02007812987E-05 +4.61420401153E-05 +5.06607638206E-05 -6.16286376220E-01 +7.54010746717E-01
1.12000000000E+09 -5.58311825351E-01 +7.82239732173E-01 +7.72798777568E-05 +8.75495854634E-05 +6.28821299743E-05 +4.43354916145E-05 -6.11027704187E-01 +7.57967856500E-01
1.12500000000E+09 -5.50898271546E-01 +7.88509082261E-01 +3.89923177626E-05 +6.65999933142E-05 +1.91097480846E-05 +9.29216159501E-05 -6.05691485416E-01 +7.62364474065E-01
1.13000000000E+09 -5.45832216028E-01 +7.92788911293E-01 +4.46136675708E-05 +9.37126784638E-05 +1.07684386288E-04 +1.03729578341E-04 -6.00944373643E-01 +7.65996479172E-01
1.13500000000E+09 -5.42900180811E-01 +7.94568107671E-01 +1.33494011414E-04 +7.82381016546E-05 +5.81741365284E-05 +7.22888770818E-05 -5.96370773798E-01 +7.69345782384E-01
1.14000000000E+09 -5.40985175753E-01 +7.94928342821E-01 +1.01143675003E-04 +2.35474462820E-05 +4.20340700496E-05 +3.20876666785E-05 -5.91932606484E-01 +7.72138341879E-01
1.14500000000E+09 -5.39085270692E-01 +7.93618678006E-01 +1.26213673951E-04 +3.18259935433E-05 +1.19075369508E-04 +6.14823696297E-05 -5.87110195720E-01 +7.75179209254E-01
1.15000000000E+09 -5.35488673855E-01 +7.92480411834E-01 +1.37011104840E-04 -7.28060020977E-06 +1.51465500143E-04 +1.27903121170E-05 -5.81556812536E-01 +7.78962776187E-01
1.15500000000E+09 -5.30066377807E-01 +7.92474887045E-01 +7.41968375815E-05 -2.12590110831E-06 +1.50273752296E-04 -6.42888121955E-06 -5.75485904183E-01 +7.82908751586E-01
1.16000000000E+09 -5.21883586483E-01 +7.94095098621E-01 +1.15819728943E-04 -6.29379306229E-06 +1.42920711643E-04 -2.58735574524E-05 -5.69856000348E-01 +7.86955503405E-01
1.16500000000E+09 -5.11433824475E-01 +7.98320571913E-01 +5.71744379487E-05 -2.97387192155E-05 +1.06644837630E-04 +3.63774871311E-05 -5.64494072037E-01 +7.90377397271E-01
1.17000000000E+09 -4.99725461537E-01 +8.04445745238E-01 +1.15071557364E-04 -1.46158467446E-05 +8.15983165146E-05 -6.54184279791E-05 -5.59320883511E-01 +7.93225564242E-01
1.17500000000E+09 -4.88057703768E-01 +8.11410071445E-01 +1.18543671528E-04 -2.15452085024E-05 +1.23341384303E-04 -7.28131137890E-05 -5.53980556544E-01 +7.95909602918E-01
1.18000000000E+09 -4.78388330186E-01 +8.18461007138E-01 +8.70137865446E-05 -6.15737731350E-05 +1.02127589837E-04 -7.25474653802E-05 -5.48250087407E-01 +7.98672453929E-01
1.18500000000E+09 -4.71077830175E-01 +8.24157830190E-01 +4.73334909228E-05 -3.34966460042E-05 +6.93616688986E-05 +1.97055017030E-05 -5.41495684683E-01 +8.01741617300E-01
1.19000000000E+09 -4.66576203964E-01 +8.27737808640E-01 +9.37310546757E-05 -1.57430907897E-06 +1.13050243853E-04 +2.84689856983E-05 -5.34264432052E-01 +8.04450128987E-01
1.19500000000E+09 -4.64881823569E-01 +8.28915842203E-01 +9.65384593352E-05 -2.12911244232E-06 +7.49459833535E-05 -6.32614072474E-05 -5.27649221929E-01 +8.05862499636E-01
1.20000000000E+09 -4.64629355408E-01 +8.27704793485E-01 +6.07648131637E-05 -2.65897621799E-05 +1.22127960780E-04 -5.68311514764E-05 -5.22584343963E-01 +8.05832604469E-01
1.20500000000E+09 -4.64344592005E-01 +8.25918650908E-01 +8.00519895088E-05 -6.48051683327E-05 +6.79258627228E-05 -8.62806179576E-05 -5.20158356920E-01 +8.05600920218E-01
1.21000000000E+09 -4.62483661192E-01 +8.24394246582E-01 +5.98094015567E-05 +4.35836836206E-05 +5.20925057124E-06 -3.97329650915E-06 -5.18293017447E-01 +8.07829303239E-01
1.21500000000E+09 -4.57406168363E-01 +8.23887480512E-01 +1.37456690835E-04 +2.61727904349E-05 +1.07074903486E-04 +4.46163550342E-05 -5.15314955645E-01 +8.12107079944E-01
1.22000000000E+09 -4.48845456179E-01 +8.25625908665E-01 +1.73368006507E-04 +2.74432326522E-05 +1.81291760034E-04 +1.78257882641E-05 -5.09944797814E-01 +8.17795510119E-01
1.22500000000E+09 -4.37436455486E-01 +8.29509594719E-01 +1.91064338559E-04 +6.91554587445E-06 +2.27240164696E-04 -1.35633108367E-05 -5.03355674749E-01 +8.23163195000E-01
1.23000000000E+09 -4.24284517692E-01 +8.35240591093E-01 +1.93982918964E-04 +1.51034244830E-05 +2.22838193854E-04 -8.04445941957E-06 -4.97021229858E-01 +8.27720571731E-01
1.23500000000E+09 -4.11192896472E-01 +8.42120156878E-01 +2.71023723303E-04 -7.16573610536E-05 +2.89874555166E-04 -6.69499210955E-05 -4.91340891429E-01 +8.31850622305E-01
1.24000000000E+09 -3.99529111260E-01 +8.48987955838E-01 +3.01627251103E-04 -1.30443765645E-04 +3.08666575342E-04 -1.24556388129E-04 -4.85874584742E-01 +8.34991464753E-01
1.24500000000E+09 -3.90889037556E-01 +8.54740234790E-01 +2.50160771018E-04 -1.86502591934E-04 +2.71631421542E-04 -1.57141139363E-04 -4.79751375483E-01 +8.38218649463E-01
1.25000000000E+09 -3.84993026475E-01 +8.58683505226E-01 +2.52710810814E-04 -2.11735830958E-04 +2.17964090293E-04 -1.62295567728E-04 -4.72472363103E-01 +8.42215116404E-01
1.25500000000E+09 -3.81683639829E-01 +8.60135421502E-01 +1.93485300087E-04 -2.03784724608E-04 +2.57014877055E-04 -2.01289772641E-04 -4.64097016385E-01 +8.45805375951E-01
1.26000000000E+09 -3.79730182977E-01 +8.59952468123E-01 +2.25834441106E-04 -2.25582647350E-04 +2.47921385105E-04 -2.26340322439E-04 -4.56012640995E-01 +8.50128935002E-01
1.26500000000E+09 -3.77539024568E-01 +8.58689466638E-01 +2.21905673345E-04 -3.13349261976E-04 +2.63292517383E-04 -3.06491559907E-04 -4.48494019260E-01 +8.53595994290E-01
1.27000000000E+09 -3.73205230603E-01 +8.57540024195E-01 +2.21910838238E-04 -3.86498568410E-04 +1.82967319275E-04 -3.55747996083E-04 -4.41888957673E-01 +8.56887014169E-01
1.27500000000E+09 -3.65696779289E-01 +8.57302300673E-01 +1.26967039359E-04 -3.75365212455E-04 +1.88851130664E-04 -3.36414147969E-04 -4.35343418750E-01 +8.59861131719E-01
1.28000000000E+09 -3.54614509214E-01 +8.58871793681E-01 +1.46070477295E-04 -3.86541453608E-04 +1.40584702189E-04 -4.32363628291E-04 -4.28252292649E-01 +8.62653288797E-01
1.28500000000E+09 -3.40498559963E-01 +8.62261025847E-01 +7.87221322894E-05 -3.61266873126E-04 +9.99573454970E-05 -4.09495465537E-04 -4.19928777827E-01 +8.65902562532E-01
1.29000000000E+09 -3.25112342799E-01 +8.67103718235E-01 +1.02988953574E-04 -3.64438641528E-04 +6.51549875407E-05 -4.52181957142E-04 -4.10883579940E-01 +8.69418796511E-01
1.29500000000E+09 -3.10232936509E-01 +8.72706284482E-01 +9.60674492441E-05 -4.38637582357E-04 +6.04705860054E-05 -4.80767920372E-04 -4.01790964648E-01 +8.72688512054E-01
1.30000000000E+09 -2.97300709664E-01 +8.78236303297E-01 +7.71980491731E-05 -4.69577939519E-04 +1.48335549602E-05 -4.79711717852E-04 -3.93495487506E-01 +8.75873246664E-01
1.30500000000E+09 -2.87801499034E-01 +8.82404115286E-01 +1.52295098274E-05 -5.66261151323E-04 +2.40400597926E-06 -4.96736336354E-04 -3.85676466688E-01 +8.78725076962E-01
1.31000000000E+09 -2.81999430866E-01 +8.84565308804E-01 +7.97496111141E-07 -5.38036031327E-04 +3.86191011633E-05 -5.40847124064E-04 -3.77918809411E-01 +8.81342871894E-01
1.31500000000E+09 -2.79342407898E-01 +8.84958388150E-01 -3.64922279662E-05 -6.01934825776E-04 -7.01260425680E-05 -6.43225102058E-04 -3.69054279792E-01 +8.84085474792E-01
1.32000000000E+09 -2.77861403754E-01 +8.83784305905E-01 -1.60267741146E-04 -6.54801942032E-04 -1.46707942406E-04 -6.77269941497E-04 -3.58924160898E-01 +8.86831348264E-01
1.32500000000E+09 -2.75372948786E-01 +8.81775848476E-01 -1.81106124569E-04 -6.40393711581E-04 -2.49991361379E-04 -7.04271885464E-04 -3.47828573007E-01 +8.89611899436E-01
1.33000000000E+09 -2.70135416267E-01 +8.79816733875E-01 -2.20895895198E-04 -6.54048397720E-04 -3.10564535639E-04 -6.46423609113E-04 -3.37095695069E-01 +8.92540828111E-01
1.33500000000E+09 -2.60494510548E-01 +8.78488899060E-01 -3.08055875716E-04 -6.81457938222E-04 -3.52960722669E-04 -6.68487539842E-04 -3.26992091451E-01 +8.95238762302E-01
1.34000000000E+09 -2.46340152634E-01 +8.78784841218E-01 -4.15693473648E-04 -7.16265402660E-04 -4.73407974992E-04 -6.73873406871E-04 -3.17465633274E-01 +8.97635013046E-01
1.34500000000E+09 -2.28378776145E-01 +8.80391264533E-01 -5.56750202251E-04 -6.95990741564E-04 -5.35544015548E-04 -6.69417229586E-04 -3.07242098931E-01 +8.99954009239E-01
1.35000000000E+09 -2.08012309773E-01 +8.83109802019E-01 -6.25106269081E-04 -6.45612288863E-04 -6.01623060507E-04 -6.38394427071E-04 -2.96053305148E-01 +9.01943610411E-01
1.35500000000E+09 -1.87584852523E-01 +8.86221926542E-01 -6.50968539218E-04 -6.36068230614E-04 -5.95985688723E-04 -5.94689930358E-04 -2.83455756832E-01 +9.03833199097E-01
1.36000000000E+09 -1.69214431824E-01 +8.89221430476E-01 -7.17312841176E-04 -5.92601007024E-04 -6.59783096298E-04 -5.90371659607E-04 -2.70125306060E-01 +9.05604412194E-01
1.36500000000E+09 -1.53919881541E-01 +8.91351591428E-01 -8.12815461421E-04 -6.21740697374E-04 -7.88655590502E-04 -5.71346662234E-04 -2.57146735607E-01 +9.07350430390E-01
1.37000000000E+09 -1.41966154554E-01 +8.92199420683E-01 -9.44492883721E-04 -5.93527015004E-04 -8.23891705811E-04 -5.80137002967E-04 -2.44227025805E-01 +9.08989010064E-01
1.37500000000E+09 -1.32961862726E-01 +8.91565508870E-01 -1.03732940459E-03 -5.14952806900E-04 -9.52736891406E-04 -6.13237881321E-04 -2.31402819347E-01 +9.10462161890E-01
1.38000000000E+09 -1.24931499991E-01 +8.89685571757E-01 -1.13499316984E-03 -4.30314666604E-04 -1.12624520582E-03 -6.14039327235E-04 -2.17514386227E-01 +9.11431283309E-01
1.38500000000E+09 -1.15584879644E-01 +8.86716865855E-01 -1.08467384558E-03 -4.27795261337E-04 -1.18929306370E-03 -5.92096046368E-04 -2.02098155718E-01 +9.11787469054E-01
1.39000000000E+09 -1.03788816548E-01 +8.83099620200E-01 -1.17713699539E-03 -5.22327960048E-04 -1.40229860586E-03 -6.23257814436E-04 -1.85374293990E-01 +9.11664094414E-01
1.39500000000E+09 -8.82633242867E-02 +8.79434150760E-01 -1.47686394325E-03 -5.90677051610E-04 -1.67766435788E-03 -5.14906348068E-04 -1.67791357972E-01 +9.11140380900E-01
1.40000000000E+09 -6.87152820121E-02 +8.76021613734E-01 -1.75979162619E-03 -4.86046679386E-04 -1.83904550239E-03 -3.19348456612E-04 -1.49804361103E-01 +9.10491836860E-01
1.40500000000E+09 -4.64811996171E-02 +8.73060853015E-01 -1.97191045000E-03 -1.67592918370E-04 -1.94273916365E-03 -9.24423704851E-05 -1.31942559967E-01 +9.09337947842E-01
1.41000000000E+09 -2.27251884424E-02 +8.70270443294E-01 -2.03339301317E-03 +3.79173323832E-05 -2.03662740142E-03 -6.60234184028E-06 -1.13341091983E-01 +9.07487862475E-01
1.41500000000E+09 +5.53599736664E-04 +8.67024797475E-01 -2.16332976831E-03 +2.31726324823E-04 -2.28980741137E-03 +1.52470284601E-04 -9.31220107620E-02 +9.04670643762E-01
1.42000000000E+09 +2.19863103375E-02 +8.63314023336E-01 -2.30592699582E-03 +3.65160037468E-04 -2.48858172984E-03 +3.57767234799E-04 -7.06497307342E-02 +9.00022151267E-01
1.42500000000E+09 +4.10389004332E-02 +8.58298621320E-01 -2.51696237338E-03 +5.08704910894E-04 -2.77019539391E-03 +6.72421216607E-04 -4.67576604810E-02 +8.94361699676E-01
1.43000000000E+09 +5.79954254306E-02 +8.51378172842E-01 -2.89601180072E-03 +6.93848253213E-04 -2.99593076044E-03 +1.03938592611E-03 -2.13712324773E-02 +8.87738622065E-01
1.43500000000E+09 +7.41677870731E-02 +8.41911230303E-01 -3.25577588796E-03 +1.39992144668E-03 -3.21567544481E-03 +1.77074956971E-03 +4.46325563968E-03 +8.79398595945E-01
1.44000000000E+09 +9.12505026975E-02 +8.30224462220E-01 -3.13897943094E-03 +2.16917168358E-03 -3.06231297593E-03 +2.36722687753E-03 +3.04636157594E-02 +8.69912833840E-01
1.44500000000E+09 +1.11551826612E-01 +8.15682925248E-01 -2.96755240741E-03 +2.52440218430E-03 -2.88277603753E-03 +2.78390596872E-03 +5.80589404637E-02 +8.57944626176E-01
1.45000000000E+09 +1.35646722594E-01 +7.98095016007E-01 -3.02752027739E-03 +2.96816945571E-03 -2.91647306227E-03 +3.33284599274E-03 +8.77410521571E-02 +8.42181165809E-01
1.45500000000E+09 +1.64147845621E-01 +7.77772669058E-01 -3.12723489343E-03 +3.55593797833E-03 -2.78766501702E-03 +3.94231927696E-03 +1.18741324655E-01 +8.22490158491E-01
1.46000000000E+09 +1.96470283284E-01 +7.54293138606E-01 -3.20489178790E-03 +4.41551153261E-03 -2.60466250115E-03 +4.56851550425E-03 +1.51622516625E-01 +7.99191765637E-01
1.46500000000E+09 +2.30432375981E-01 +7.27859969054E-01 -3.15468805268E-03 +5.75315103686E-03 -2.47670407661E-03 +5.43923230902E-03 +1.85756715812E-01 +7.71225136635E-01
1.47000000000E+09 +2.63957371713E-01 +6.98052621659E-01 -2.04729816259E-03 +7.20873404712E-03 -1.84985353505E-03 +6.58049597677E-03 +2.20340336986E-01 +7.37736051255E-01
1.47500000000E+09 +2.95107910174E-01 +6.64870539044E-01 -9.14264345869E-04 +7.85177952816E-03 -1.19994495145E-03 +7.50511958988E-03 +2.54401679014E-01 +6.97150887510E-01
1.48000000000E+09 +3.22277626496E-01 +6.27179356872E-01 +3.75981597317E-04 +8.78856461446E-03 +9.61552504903E-05 +8.85703021335E-03 +2.87106136495E-01 +6.48484907785E-01
1.48500000000E+09 +3.45422482988E-01 +5.83589046792E-01 +1.79283021307E-03 +9.42586315842E-03 +2.02989247091E-03 +9.63763819239E-03 +3.17010456447E-01 +5.90275671403E-01
1.49000000000E+09 +3.63675159147E-01 +5.31328915667E-01 +3.33138493463E-03 +1.03328460442E-02 +3.84248184468E-03 +1.01045778260E-02 +3.41700958732E-01 +5.22016365213E-01
1.49500000000E+09 +3.76185519059E-01 +4.70197105020E-01 +6.38279914914E-03 +1.12695885970E-02 +6.55143956905E-03 +1.04639476558E-02 +3.57708983438E-01 +4.44313933830E-01
1.50000000000E+09 +3.83214209923E-01 +3.98841906676E-01 +9.94529808049E-03 +1.04045623177E-02 +9.29734743720E-03 +9.74408023768E-03 +3.61160735195E-01 +3.58181426620E-01
1.50500000000E+09 +3.82740280904E-01 +3.16570499135E-01 +1.34077021583E-02 +8.37476033891E-03 +1.24548358762E-02 +8.41713384897E-03 +3.49423425041E-01 +2.65546934981E-01
1.51000000000E+09 +3.71239227727E-01 +2.25500048901E-01 +1.56524863334E-02 +5.30869517915E-03 +1.51878644895E-02 +5.85204948325E-03 +3.17799964492E-01 +1.68846774257E-01
1.51500000000E+09 +3.44308164810E-01 +1.29738383212E-01 +1.77018259596E-02 +1.55442111803E-03 +1.77798840240E-02 +2.10388023678E-03 +2.64238702426E-01 +7.33998149412E-02
1.52000000000E+09 +2.98540889748E-01 +3.66221013311E-02 +1.79592139950E-02 -3.08334860722E-03 +1.82376736984E-02 -2.76874354424E-03 +1.88656651860E-01 -1.27977779078E-02
1.52500000000E+09 +2.31992513083E-01 -4.52941378778E-02 +1.74814053978E-02 -7.41364813012E-03 +1.78684476484E-02 -7.32337913166E-03 +9.30743599355E-02 -8.26904724343E-02
1.53000000000E+09 +1.47421685702E-01 -1.10283160409E-01 +1.51100575385E-02 -1.18935931862E-02 +1.54188668952E-02 -1.20257884532E-02 -1.45227614957E-02 -1.28342990263E-01
1.53500000000E+09 +4.69620626900E-02 -1.53344150139E-01 +1.17033362738E-02 -1.49527230316E-02 +1.17487288381E-02 -1.51147596951E-02 -1.28312841687E-01 -1.49950006248E-01
1.54000000000E+09 -6.39720194116E-02 -1.70197199622E-01 +8.01096285619E-03 -1.75223794304E-02 +7.93933395408E-03 -1.74497264056E-02 -2.40456325849E-01 -1.44991772769E-01
1.54500000000E+09 -1.75984624061E-01 -1.62075052737E-01 +2.68534127001E-03 -1.87842903614E-02 +2.91426868673E-03 -1.85656942228E-02 -3.41984739611E-01 -1.19122564445E-01
1.55000000000E+09 -2.83635566133E-01 -1.33414614024E-01 -2.01900393176E-03 -1.74168423447E-02 -1.44019035749E-03 -1.74346675948E-02 -4.32161020628E-01 -7.87974952521E-02
1.55500000000E+09 -3.79468771661E-01 -8.80178785046E-02 -5.55318610260E-03 -1.53118411937E-02 -5.01007174602E-03 -1.58171287714E-02 -5.05964087482E-01 -2.62974978882E-02
1.56000000000E+09 -4.58493975342E-01 -3.33085374239E-02 -8.20423905082E-03 -1.24526929112E-02 -8.08509495735E-03 -1.33183779849E-02 -5.64142638872E-01 +3.18851592946E-02
1.56500000000E+09 -5.21066646995E-01 +2.50248066242E-02 -9.16561351888E-03 -9.33193120177E-03 -9.52478540400E-03 -1.00425928154E-02 -6.08035244233E-01 +9.25057379692E-02
1.57000000000E+09 -5.67258675359E-01 +8.42080042898E-02 -9.31578633162E-03 -6.99863750485E-03 -9.95180890806E-03 -7.38788590218E-03 -6.39860355732E-01 +1.52305303590E-01
