# Hz S RI R 50
! CMT, C1220, 16058040, 17.2.0/1
! Date: 15/08/2018 09:02:13
! Data: Format (Calibration Info)
! Freq                      S11: Re/Im (F2)                       S21: Re/Im (F2)                       S12: Re/Im (F2)                       S22: Re/Im (F2)            
1.00000000000E+09 -6.62806694482E-01 +7.01439391506E-01 -4.02067108805E-05 -1.09475008547E-05 -5.58016802609E-05 +1.97270322705E-05 -7.10254363019E-01 +6.70789113832E-01
1.00500000000E+09 -6.56573902442E-01 +7.08901574212E-01 -7.39084942406E-05 +5.84226413564E-06 -4.46111272232E-05 +2.42126858345E-05 -7.06906950483E-01 +6.74168505299E-01
1.01000000000E+09 -6.53057445014E-01 +7.14670413267E-01 -4.86268774291E-05 -1.58804297325E-05 -7.48949445395E-06 +1.46506353240E-05 -7.02919044043E-01 +6.77458036901E-01
1.01500000000E+09 -6.52531848131E-01 +7.18082310848E-01 -3.18872887059E-05 -8.85742054091E-06 +3.74473674298E-06 -2.92267842562E-05 -6.98875776595E-01 +6.81462561071E-01
1.02000000000E+09 -6.53527162126E-01 +7.19586100810E-01 -1.57867716235E-06 -4.80068017079E-06 -7.33784682584E-05 -5.78692116681E-05 -6.94641093630E-01 +6.85424386508E-01
1.02500000000E+09 -6.54802124194E-01 +7.19553539585E-01 -1.30255737018E-05 -2.74285156224E-05 -3.07074372283E-05 +2.75551280212E-05 -6.91320174746E-01 +6.89627388912E-01
1.03000000000E+09 -6.55270066377E-01 +7.19108602203E-01 -3.42604486485E-06 +1.59169854646E-05 -4.55670456259E-05 -3.74748137575E-05 -6.87497220106E-01 +6.93437209069E-01
1.03500000000E+09 -6.53237534246E-01 +7.19221774526E-01 -4.62715741900E-05 -3.87298539290E-06 -3.09902032774E-05 +3.07857283370E-05 -6.83886498267E-01 +6.96659178219E-01
1.04000000000E+09 -6.48346932677E-01 +7.21244197338E-01 -6.37532229362E-06 -1.96521307330E-05 +2.58612676162E-05 +1.55402521255E-06 -6.80090945805E-01 +6.99726864885E-01
1.04500000000E+09 -6.40876446383E-01 +7.25224330403E-01 -2.00395702146E-05 -8.48371377675E-06 -9.34450593340E-06 +4.35003033062E-06 -6.75985705622E-01 +7.03025303335E-01
1.05000000000E+09 -6.31182977288E-01 +7.31451201826E-01 -1.44455320332E-05 +1.21059129274E-05 -5.48545044953E-05 +1.33276992402E-05 -6.71579862860E-01 +7.06900774995E-01
1.05500000000E+09 -6.21098983383E-01 +7.38996354125E-01 -7.26013609125E-05 -1.44655905530E-05 -6.01868289494E-05 -2.58874043165E-06 -6.67389795457E-01 +7.11087744401E-01
1.06000000000E+09 -6.11555937204E-01 +7.46854723537E-01 -4.50612219520E-05 -1.33752295826E-05 -5.63290473411E-05 -2.05582093611E-05 -6.63240228249E-01 +7.15138579608E-01
1.06500000000E+09 -6.04182699369E-01 +7.53787687673E-01 -4.49110327264E-05 -1.89454010966E-06 -2.51823023629E-05 +2.61542573209E-05 -6.59261755757E-01 +7.18583495178E-01
1.07000000000E+09 -5.99386064269E-01 +7.58872497503E-01 +2.02041518318E-05 +5.93966454736E-06 -6.99227608299E-05 +9.50820810858E-06 -6.55634026449E-01 +7.21668656224E-01
1.07500000000E+09 -5.97518666706E-01 +7.62010208638E-01 -1.23504752534E-05 +3.09992163890E-05 -5.43383604151E-05 -7.12839995113E-06 -6.51242689437E-01 +7.24832439013E-01
1.08000000000E+09 -5.97626956962E-01 +7.63192070554E-01 -3.58260933026E-05 -3.55086598494E-05 -7.50353230670E-05 -2.82500649068E-05 -6.46719888565E-01 +7.28489003625E-01
1.08500000000E+09 -5.98550501125E-01 +7.63300723588E-01 -4.70805979381E-05 -1.98647927713E-05 -8.32751491900E-05 +2.89197245095E-05 -6.41808630417E-01 +7.32468574558E-01
1.09000000000E+09 -5.98533786849E-01 +7.63137937846E-01 -2.31787564810E-05 +2.53189493992E-05 -1.10006505832E-04 +3.02617806014E-05 -6.36976764700E-01 +7.36732220912E-01
1.09500000000E+09 -5.97065387432E-01 +7.63300699533E-01 -7.52346250491E-05 +2.38786268723E-05 -1.91009467018E-05 +3.06088940074E-05 -6.32671848899E-01 +7.40612942626E-01
1.10000000000E+09 -5.92887695232E-01 +7.65243603668E-01 -3.87411066763E-06 +5.65717540793E-05 -9.33485094654E-05 +2.87163114938E-05 -6.28945270296E-01 +7.44181173495E-01
1.10500000000E+09 -5.86455217014E-01 +7.68964036993E-01 -8.89447267104E-05 +4.04311977491E-05 -6.37812707995E-05 +3.28801143826E-05 -6.24713065015E-01 +7.46900389092E-01
1.11000000000E+09 -5.77974689995E-01 +7.74630388479E-01 -3.28296107603E-05 +6.07927003259E-05 -5.15730483363E-05 +6.31174103880E-05 -6.20560994999E-01 +7.49842407617E-01
1.11500000000E+09 -5.68892497724E-01 +7.81537483316E-01 -3.61017342044E-05 +3.78144531021E-05 -6.37254489026E-05 +5.76938481585E-05 -6.15573952216E-01 +7.53275554050E-01
1.12000000000E+09 -5.60265104160E-01 +7.88363996893E-01 -3.21816655830E-05 +4.78318331844E-05 -9.02651038057E-05 +4.65384497936E-05 -6.10369101634E-01 +7.57198551299E-01
1.12500000000E+09 -5.53128377585E-01 +7.94084174785E-01 -3.06811419945E-05 +5.86640407373E-05 -4.14916833639E-05 +3.54410762003E-05 -6.05117512662E-01 +7.61554735434E-01
1.13000000000E+09 -5.47916587997E-01 +7.98134524537E-01 -5.01906109845E-05 +7.66307117491E-05 -3.63395951024E-05 +8.31727404276E-05 -6.00449679414E-01 +7.65228292669E-01
1.13500000000E+09 -5.44472405505E-01 +7.99882728955E-01 -2.32694655800E-06 +8.49671822949E-05 +2.64520989822E-06 +7.15503808896E-05 -5.95905636105E-01 +7.68555733174E-01
1.14000000000E+09 -5.42168442683E-01 +8.00348998254E-01 -2.82481868779E-05 +6.70472200609E-05 -4.71221370756E-05 +8.88422107707E-05 -5.91458065412E-01 +7.71372393008E-01
1.14500000000E+09 -5.39852783352E-01 +7.99593301956E-01 -2.09140424962E-05 +7.03873267715E-05 +1.12716506124E-05 +7.55093997483E-05 -5.86540413702E-01 +7.74359720371E-01
1.15000000000E+09 -5.35858464915E-01 +7.98885742680E-01 +2.23006459415E-05 +1.13278654359E-04 +4.70041419813E-06 +6.98552264070E-05 -5.81038340765E-01 +7.78367785903E-01
1.15500000000E+09 -5.30126582678E-01 +7.99360533827E-01 +4.25119726844E-05 +8.94114419360E-05 +7.19601369981E-06 +8.26918801209E-05 -5.74982114558E-01 +7.82344233190E-01
1.16000000000E+09 -5.22102589203E-01 +8.01530109982E-01 +2.91825580810E-05 +1.06271946213E-04 -6.37753877591E-06 +1.17864273510E-04 -5.69269911933E-01 +7.86220301015E-01
1.16500000000E+09 -5.12201438456E-01 +8.06161524076E-01 +3.31546507946E-05 +9.97386575371E-05 +6.56788572590E-05 +9.30707177558E-05 -5.63957001137E-01 +7.89694435767E-01
1.17000000000E+09 -5.01175420849E-01 +8.12422189995E-01 +8.92530668828E-05 +9.28334093638E-05 +8.72303219337E-05 +1.22683312974E-04 -5.58835527308E-01 +7.92416980145E-01
1.17500000000E+09 -4.90643923836E-01 +8.19585265789E-01 +8.16204400546E-05 +1.12584503117E-04 +1.12698885126E-04 +6.54462460892E-05 -5.53547994266E-01 +7.95143991198E-01
1.18000000000E+09 -4.81843444077E-01 +8.26537726068E-01 +5.91482930375E-05 +3.95707661780E-05 +1.05167815261E-04 +5.56930703932E-05 -5.47706663155E-01 +7.97982161165E-01
1.18500000000E+09 -4.75513523160E-01 +8.32171915700E-01 +9.60040575434E-05 +4.54176366548E-05 +7.07849071061E-05 +4.52539839405E-05 -5.40943166496E-01 +8.01056645511E-01
1.19000000000E+09 -4.71877508071E-01 +8.35660545362E-01 +5.22863697516E-05 -1.31101810245E-05 +8.28454350764E-05 +3.06824708471E-05 -5.33793646426E-01 +8.03726351823E-01
1.19500000000E+09 -4.70611578539E-01 +8.37079741571E-01 +5.67614003269E-05 +7.61672850341E-06 +6.03252353625E-05 +4.60950963657E-06 -5.27177165999E-01 +8.05147723110E-01
1.20000000000E+09 -4.70487826865E-01 +8.35947879868E-01 +7.43586716568E-05 +3.91205374094E-05 +5.57891316171E-05 +1.38026075690E-05 -5.22076422130E-01 +8.05081520484E-01
1.20500000000E+09 -4.70032100631E-01 +8.34438797717E-01 +9.72398743049E-05 -6.09501614922E-05 +5.87503917624E-05 -9.62047385698E-06 -5.19637356104E-01 +8.04894620061E-01
1.21000000000E+09 -4.67810526757E-01 +8.33158352943E-01 -9.64239047751E-07 +6.77071529781E-06 +2.00209246001E-05 -1.62131155076E-05 -5.17942406631E-01 +8.07041183734E-01
1.21500000000E+09 -4.62250126194E-01 +8.33243840817E-01 -2.65198514267E-05 +1.85960628967E-05 -3.74050610325E-05 +7.22646007007E-06 -5.14783722459E-01 +8.11406253929E-01
1.22000000000E+09 -4.53424342007E-01 +8.35199175216E-01 -6.64355185518E-05 +1.09492446007E-04 -6.21381123062E-05 +1.76035211620E-05 -5.09462891212E-01 +8.17018702063E-01
1.22500000000E+09 -4.41874228156E-01 +8.39718035066E-01 -2.38562427674E-05 +1.03817045387E-04 -7.97754390951E-05 +4.09656289233E-05 -5.02923042951E-01 +8.22387305712E-01
1.23000000000E+09 -4.28840505099E-01 +8.45827215160E-01 -1.39472512669E-05 +1.59990891611E-04 +9.10976708415E-06 +1.09873269871E-04 -4.96624890412E-01 +8.27227319049E-01
1.23500000000E+09 -4.16173043797E-01 +8.52971502236E-01 +4.21157286757E-05 +1.56783040940E-04 +9.85376016610E-05 +1.33976224021E-04 -4.90940880708E-01 +8.30966907339E-01
1.24000000000E+09 -4.05089985598E-01 +8.60132560601E-01 +6.61447155084E-05 +1.39176286748E-04 +6.22079483136E-05 +1.27761233196E-04 -4.85536235642E-01 +8.34306513723E-01
1.24500000000E+09 -3.96931685649E-01 +8.66339055730E-01 +8.07933733807E-05 +1.75773419777E-04 +1.11783727346E-04 +1.23491616566E-04 -4.79338553413E-01 +8.37513725636E-01
1.25000000000E+09 -3.91788246973E-01 +8.70254408608E-01 +1.48551931903E-04 +1.42007134549E-04 +1.01429960300E-04 +1.75608417847E-04 -4.71854199793E-01 +8.41278179994E-01
1.25500000000E+09 -3.89077857409E-01 +8.71924049693E-01 +1.35925557003E-04 +1.40093119964E-04 +1.08506944928E-04 +1.38918722376E-04 -4.63677615027E-01 +8.45129515467E-01
1.26000000000E+09 -3.87560964901E-01 +8.71772301543E-01 +1.28878636553E-04 +9.41590672544E-05 +9.32028612927E-05 +1.04217417546E-04 -4.55652355955E-01 +8.49363174056E-01
1.26500000000E+09 -3.85576946864E-01 +8.70606498009E-01 +1.60786022079E-04 +1.27535495090E-04 +1.77486362341E-04 +1.21869161870E-04 -4.48079376307E-01 +8.52918179489E-01
1.27000000000E+09 -3.81535074647E-01 +8.69589549577E-01 +1.58947660074E-04 +8.21749799233E-05 +1.99896843047E-04 +1.06046859562E-04 -4.41556248684E-01 +8.56129637204E-01
1.27500000000E+09 -3.74177718907E-01 +8.69599585813E-01 +1.83507424549E-04 +1.07298789884E-04 +1.86245187923E-04 +1.24898083486E-04 -4.34969504711E-01 +8.59091978007E-01
1.28000000000E+09 -3.63376257566E-01 +8.71640614741E-01 +1.92892066978E-04 +5.21066684857E-05 +1.85995352412E-04 +8.76578631126E-05 -4.27932316673E-01 +8.61960494950E-01
1.28500000000E+09 -3.49090656378E-01 +8.75689335541E-01 +2.19747138622E-04 +4.43503879234E-05 +2.43130958137E-04 +6.58862000389E-05 -4.19660131569E-01 +8.65349191122E-01
1.29000000000E+09 -3.33616740120E-01 +8.81376854030E-01 +1.39598916917E-04 +7.07565938958E-05 +2.25800156078E-04 +7.25764250731E-05 -4.10617271694E-01 +8.68649090061E-01
1.29500000000E+09 -3.18284827724E-01 +8.87762899408E-01 +2.03433325363E-04 +1.15795896986E-04 +2.20748823944E-04 +1.01808332155E-04 -4.01336929846E-01 +8.71895967904E-01
1.30000000000E+09 -3.04928003392E-01 +8.93629213547E-01 +2.63916736575E-04 +1.40207808913E-04 +2.38009756980E-04 +8.49713696794E-05 -3.93146865821E-01 +8.75092871159E-01
1.30500000000E+09 -2.95071713927E-01 +8.97900596244E-01 +3.79912990475E-04 +7.99688161202E-05 +3.42181987643E-04 +8.70441818334E-05 -3.85318328971E-01 +8.77968502274E-01
1.31000000000E+09 -2.89007894300E-01 +9.00299606968E-01 +3.79700457956E-04 +2.51620271534E-05 +3.81263559891E-04 +6.15286146153E-05 -3.77611163545E-01 +8.80503125265E-01
1.31500000000E+09 -2.85877457595E-01 +9.00706732331E-01 +3.77130515480E-04 -1.06090043292E-04 +4.18628352598E-04 -1.17551668258E-05 -3.68614386950E-01 +8.83318328632E-01
1.32000000000E+09 -2.83993539967E-01 +8.99573430928E-01 +4.06677696663E-04 -7.46957150957E-05 +3.77530608798E-04 -6.79937018373E-05 -3.58633011061E-01 +8.85968554556E-01
1.32500000000E+09 -2.81347158239E-01 +8.97679629810E-01 +4.04200458326E-04 -1.32616214951E-04 +4.22284642130E-04 -1.54306487213E-04 -3.47607546110E-01 +8.88845325978E-01
1.33000000000E+09 -2.75987346135E-01 +8.96024061964E-01 +4.48851663171E-04 -1.69442757995E-04 +4.24135529213E-04 -2.32798931695E-04 -3.36700032871E-01 +8.91758657021E-01
1.33500000000E+09 -2.66351384659E-01 +8.95135817106E-01 +4.17530121825E-04 -2.24070331673E-04 +3.47021248933E-04 -2.85942031492E-04 -3.26674331084E-01 +8.94461504631E-01
1.34000000000E+09 -2.52146614013E-01 +8.96000013602E-01 +3.47492305787E-04 -2.79173126001E-04 +3.42541818278E-04 -2.80230143691E-04 -3.17141346700E-01 +8.96757213937E-01
1.34500000000E+09 -2.34485100089E-01 +8.98121898592E-01 +3.19149278254E-04 -2.81521556094E-04 +2.90566806369E-04 -2.64360850740E-04 -3.07066331395E-01 +8.99132235951E-01
1.35000000000E+09 -2.14956057854E-01 +9.01468948468E-01 +3.13039220781E-04 -2.95519643526E-04 +2.70227099324E-04 -2.89094234158E-04 -2.95905131056E-01 +9.01052954773E-01
1.35500000000E+09 -1.95356430636E-01 +9.05310850510E-01 +3.17485396575E-04 -2.78965932003E-04 +3.05256440659E-04 -2.71130693145E-04 -2.83243268839E-01 +9.02901816324E-01
1.36000000000E+09 -1.78209706723E-01 +9.08815235299E-01 +3.55121178213E-04 -2.87044193896E-04 +3.56641609480E-04 -3.14720261018E-04 -2.69994123324E-01 +9.04783265862E-01
1.36500000000E+09 -1.63974761623E-01 +9.11487833318E-01 +3.41593249228E-04 -3.35162920230E-04 +3.15359512792E-04 -3.19399336996E-04 -2.56899208276E-01 +9.06452256450E-01
1.37000000000E+09 -1.53432138902E-01 +9.12498651759E-01 +4.56086500216E-04 -3.61711517286E-04 +3.99070445986E-04 -3.29109541868E-04 -2.44145451734E-01 +9.08056196314E-01
1.37500000000E+09 -1.45718306892E-01 +9.12364826773E-01 +4.17873432841E-04 -4.52494417996E-04 +4.87353746468E-04 -3.50796655511E-04 -2.31316395408E-01 +9.09475761420E-01
1.38000000000E+09 -1.38630701387E-01 +9.10806911613E-01 +3.94483110001E-04 -5.37780975135E-04 +4.65777403829E-04 -4.72627983204E-04 -2.17517147326E-01 +9.10509814874E-01
1.38500000000E+09 -1.29885177760E-01 +9.08423400864E-01 +4.29964767089E-04 -6.46906279504E-04 +5.31155345091E-04 -6.03349249043E-04 -2.02036002236E-01 +9.10834352467E-01
1.39000000000E+09 -1.17915935060E-01 +9.05499845054E-01 +3.81786510828E-04 -6.76118992892E-04 +4.19544790094E-04 -7.83194242805E-04 -1.85478128700E-01 +9.10810383325E-01
1.39500000000E+09 -1.01616080124E-01 +9.02549125023E-01 +3.33940965114E-04 -7.14265454721E-04 +3.05736537311E-04 -8.13556491197E-04 -1.67878353679E-01 +9.10349983280E-01
1.40000000000E+09 -8.06169787557E-02 +8.99597815861E-01 +3.92464479935E-04 -7.25407949334E-04 +3.08669100100E-04 -7.84239080157E-04 -1.49970844661E-01 +9.09670383352E-01
1.40500000000E+09 -5.64228838808E-02 +8.96935222800E-01 +4.07848453979E-04 -9.27373246361E-04 +4.02074579717E-04 -9.66311986247E-04 -1.32175228177E-01 +9.08480110115E-01
1.41000000000E+09 -3.07204621596E-02 +8.93965689093E-01 +2.19700983749E-04 -1.08536921210E-03 +2.08188666465E-04 -1.09028266585E-03 -1.13734650178E-01 +9.06768379751E-01
1.41500000000E+09 -5.53280223223E-03 +8.90597227246E-01 +1.40571357871E-04 -9.86746527415E-04 +1.99968760864E-04 -1.01870605959E-03 -9.33457767580E-02 +9.03899387278E-01
1.42000000000E+09 +1.75263925523E-02 +8.86157520949E-01 +2.36002856062E-04 -1.12219021102E-03 +2.95514377499E-04 -1.22660423023E-03 -7.10598191438E-02 +8.99439293672E-01
1.42500000000E+09 +3.74673355226E-02 +8.80575985293E-01 +3.33191743553E-04 -1.30742826664E-03 +2.96507436709E-04 -1.52843164707E-03 -4.71447218474E-02 +8.93804157070E-01
1.43000000000E+09 +5.47858703701E-02 +8.73170546981E-01 +2.09435417830E-04 -1.62838178671E-03 +1.05296441895E-04 -1.83533794878E-03 -2.17337869206E-02 +8.87278499399E-01
1.43500000000E+09 +7.14550729195E-02 +8.63953889302E-01 -6.81103065710E-06 -1.89940354298E-03 -2.11945293186E-04 -1.99259711253E-03 +3.97277029653E-03 +8.78950927390E-01
1.44000000000E+09 +8.93725192734E-02 +8.52459358019E-01 -3.62238803665E-04 -2.21257381652E-03 -5.20596291952E-04 -2.17835809094E-03 +3.00063362931E-02 +8.69487475530E-01
1.44500000000E+09 +1.10469401946E-01 +8.37990431004E-01 -6.47441534504E-04 -2.32059952328E-03 -8.33547333240E-04 -2.32357187128E-03 +5.75539613229E-02 +8.57854013523E-01
1.45000000000E+09 +1.35661306236E-01 +8.20324008114E-01 -9.15965842924E-04 -2.38545814175E-03 -1.15922492551E-03 -2.38047466337E-03 +8.71816623562E-02 +8.42295156361E-01
1.45500000000E+09 +1.65089254927E-01 +8.00012163977E-01 -1.17504355627E-03 -2.72669974827E-03 -1.41852364951E-03 -2.60191236812E-03 +1.18330748501E-01 +8.22861046790E-01
1.46000000000E+09 +1.98400524319E-01 +7.76888991432E-01 -1.81189956293E-03 -3.26959438376E-03 -2.06895031549E-03 -2.93122025192E-03 +1.51354119829E-01 +7.99771926699E-01
1.46500000000E+09 +2.34112982604E-01 +7.50881931671E-01 -3.00030112376E-03 -3.43866740523E-03 -2.98145511816E-03 -2.92424576037E-03 +1.85811038019E-01 +7.71996808221E-01
1.47000000000E+09 +2.69848306567E-01 +7.20978663297E-01 -4.05549767775E-03 -3.06162058717E-03 -3.71822474560E-03 -2.79405326143E-03 +2.20602978869E-01 +7.38475555746E-01
1.47500000000E+09 +3.02532300475E-01 +6.87306415653E-01 -5.40011105327E-03 -2.54577652319E-03 -5.10326352027E-03 -2.62720148160E-03 +2.55064887754E-01 +6.97992155714E-01
1.48000000000E+09 +3.31555301129E-01 +6.48425741235E-01 -6.42981658491E-03 -1.15027845013E-03 -6.50344743014E-03 -1.35668149995E-03 +2.88161629099E-01 +6.48996422256E-01
1.48500000000E+09 +3.55988011158E-01 +6.03237476834E-01 -6.74974805880E-03 +2.79623110401E-04 -6.94087029830E-03 +4.61832742413E-04 +3.18152022694E-01 +5.90510221252E-01
1.49000000000E+09 +3.75647746176E-01 +5.49592752018E-01 -7.09954112937E-03 +1.55097781349E-03 -6.98677120961E-03 +1.94123467143E-03 +3.43250877502E-01 +5.22146287227E-01
1.49500000000E+09 +3.90268818173E-01 +4.85483534482E-01 -7.14296182587E-03 +3.25861718564E-03 -6.66090508288E-03 +3.45623101419E-03 +3.59617824825E-01 +4.43925566265E-01
1.50000000000E+09 +3.99006501227E-01 +4.09254521864E-01 -6.35288140271E-03 +5.08143842524E-03 -5.94239395339E-03 +4.79298483139E-03 +3.62971491899E-01 +3.57100968743E-01
1.50500000000E+09 +3.98244968687E-01 +3.20512441423E-01 -5.36569440929E-03 +5.87873436744E-03 -5.24409144203E-03 +5.49220860161E-03 +3.50702481707E-01 +2.64020546949E-01
1.51000000000E+09 +3.84699300717E-01 +2.23164521898E-01 -5.10048547215E-03 +7.30828774223E-03 -5.29672637873E-03 +6.99448954605E-03 +3.18930773703E-01 +1.67094132444E-01
1.51500000000E+09 +3.54258664391E-01 +1.21698765200E-01 -3.67720718535E-03 +9.21092028084E-03 -3.93743246390E-03 +9.17356777957E-03 +2.64738523932E-01 +7.12101243997E-02
1.52000000000E+09 +3.03458241384E-01 +2.41019329704E-02 -1.37834530351E-03 +1.08304431630E-02 -1.57446794275E-03 +1.09220192852E-02 +1.88547463494E-01 -1.47812340759E-02
1.52500000000E+09 +2.30489612092E-01 -6.19271880243E-02 +1.89376028380E-03 +1.14587105258E-02 +1.79706138327E-03 +1.15995187237E-02 +9.26184401600E-02 -8.47818462288E-02
1.53000000000E+09 +1.38267655023E-01 -1.26334222194E-01 +5.59441205476E-03 +1.01850740154E-02 +5.62587694024E-03 +1.02995905822E-02 -1.58426236848E-02 -1.29992551677E-01
1.53500000000E+09 +3.22015306227E-02 -1.65898811410E-01 +7.60829548563E-03 +7.31693478733E-03 +7.64931329031E-03 +7.27391243645E-03 -1.29970473579E-01 -1.51007091096E-01
1.54000000000E+09 -8.16957013004E-02 -1.79591740074E-01 +7.76787897656E-03 +4.82666309782E-03 +7.69554929721E-03 +4.82657918593E-03 -2.42138450958E-01 -1.45418816064E-01
1.54500000000E+09 -1.96826285681E-01 -1.67760466729E-01 +8.06602779683E-03 +3.91262188295E-03 +7.92540299067E-03 +4.00420180203E-03 -3.43635773284E-01 -1.18904237871E-01
1.55000000000E+09 -3.06109957466E-01 -1.35801613051E-01 +8.71624350055E-03 +1.54924991038E-03 +8.62220978156E-03 +1.82813563305E-03 -4.33446465705E-01 -7.79325279116E-02
1.55500000000E+09 -4.03736545036E-01 -8.69674722112E-02 +8.28216398471E-03 -1.34706468322E-04 +8.41062934236E-03 +1.82576132936E-04 -5.06690639897E-01 -2.51951947801E-02
1.56000000000E+09 -4.83473890144E-01 -2.84214654777E-02 +7.53461726761E-03 -1.80620969442E-03 +7.93056725006E-03 -1.63222962104E-03 -5.64438068977E-01 +3.30283182903E-02
1.56500000000E+09 -5.44646203576E-01 +3.24166502023E-02 +6.22728727592E-03 -3.23919572852E-03 +6.68639928345E-03 -3.28856052320E-03 -6.07953819574E-01 +9.39006352652E-02
1.57000000000E+09 -5.90015350912E-01 +9.25887281156E-02 +4.92830673329E-03 -3.80352949083E-03 +5.23767437014E-03 -4.07553651197E-03 -6.39459054986E-01 +1.53600845374E-01
