# Hz S RI R 50
! CMT, C1220, 16058040, 17.2.0/1
! Date: 15/08/2018 09:00:04
! Data: Format (Calibration Info)
! Freq                      S11: Re/Im (F2)                       S21: Re/Im (F2)                       S12: Re/Im (F2)                       S22: Re/Im (F2)            
1.00000000000E+09 -6.64345180055E-01 +7.01061584340E-01 -1.70844172737E-05 +3.88544937739E-05 -1.99199891472E-05 +7.22585204836E-06 -7.11036589852E-01 +6.71734472596E-01
1.00500000000E+09 -6.57606816728E-01 +7.08750030414E-01 -1.81051501588E-06 +1.73708987209E-06 +5.98561790272E-05 +1.83037494417E-06 -7.07441289810E-01 +6.75036333599E-01
1.01000000000E+09 -6.53655435705E-01 +7.14559560881E-01 -2.76008008312E-05 -2.39951426417E-05 +2.35392543616E-05 -2.67297398178E-05 -7.03483143358E-01 +6.78520640259E-01
1.01500000000E+09 -6.52412263381E-01 +7.18131796837E-01 +1.64635252921E-05 +3.17913638490E-05 -5.21324730301E-05 -8.54829873301E-06 -6.99484371260E-01 +6.82195147486E-01
1.02000000000E+09 -6.53160499021E-01 +7.19706373839E-01 -5.82448136047E-06 +3.15433535853E-05 -1.02487975728E-05 -3.68068378100E-05 -6.95074000086E-01 +6.86547954631E-01
1.02500000000E+09 -6.53920037406E-01 +7.20022025297E-01 +4.98783438494E-05 +3.41840343687E-05 -2.00314503200E-06 -2.83534368679E-05 -6.91582785189E-01 +6.90631332967E-01
1.03000000000E+09 -6.54069548446E-01 +7.19541842031E-01 +3.63152724203E-06 +2.57052667036E-05 -5.91385129227E-06 +3.69166998962E-05 -6.87903430332E-01 +6.94374018013E-01
1.03500000000E+09 -6.51626889889E-01 +7.19938168326E-01 -1.16218131054E-06 -1.63424972926E-06 +3.27437315045E-06 -5.01951779278E-05 -6.84354513588E-01 +6.97625730854E-01
1.04000000000E+09 -6.46748187417E-01 +7.21861883928E-01 +2.51736469753E-05 +1.66886635644E-06 -2.02425694378E-05 -2.26382120713E-05 -6.80512332920E-01 +7.00542131120E-01
1.04500000000E+09 -6.39021847423E-01 +7.26148787120E-01 +4.76303592979E-06 -5.24976335556E-05 +3.37773275513E-05 -5.37842627487E-05 -6.76577441996E-01 +7.03936485230E-01
1.05000000000E+09 -6.29247779813E-01 +7.32722928643E-01 -3.88399794155E-05 -1.96220941630E-05 +1.75443964563E-05 -1.18161077011E-06 -6.72105300552E-01 +7.07769531968E-01
1.05500000000E+09 -6.18550274411E-01 +7.40348439586E-01 +1.60045386188E-05 -1.32500025090E-05 -6.14580078401E-06 -1.55750648743E-05 -6.67692523846E-01 +7.12082674620E-01
1.06000000000E+09 -6.08519423232E-01 +7.48532223836E-01 -3.50277291225E-05 +1.15829902664E-05 -3.40128478139E-05 +1.48820633559E-05 -6.63659119676E-01 +7.15997087429E-01
1.06500000000E+09 -6.00400037709E-01 +7.56042017404E-01 -9.58778104864E-06 +4.82961327016E-05 -7.52812179810E-06 +1.13262158211E-05 -6.59829475238E-01 +7.19664069020E-01
1.07000000000E+09 -5.94847166492E-01 +7.61270126233E-01 +1.06462214561E-05 +9.54476815798E-06 -2.99744539673E-05 -3.98675527101E-05 -6.56018612776E-01 +7.22791678805E-01
1.07500000000E+09 -5.92022354267E-01 +7.64737294784E-01 +1.55276483793E-05 -1.50553438065E-05 -9.98458209653E-06 -1.73654004538E-05 -6.51590795802E-01 +7.25905126603E-01
1.08000000000E+09 -5.91150106238E-01 +7.66071249951E-01 -3.82158341184E-05 -5.12526924166E-06 -4.15799185783E-05 -4.44589416005E-05 -6.47037553599E-01 +7.29444198288E-01
1.08500000000E+09 -5.90893720086E-01 +7.66179738208E-01 -1.65995216584E-05 -1.21387688457E-05 +1.44541321603E-05 +1.93153394634E-05 -6.42140582157E-01 +7.33477964318E-01
1.09000000000E+09 -5.89832582141E-01 +7.65872490434E-01 +9.24402446440E-06 +1.76563467110E-05 -8.25956413117E-05 -7.41785073477E-06 -6.37366188448E-01 +7.37770126341E-01
1.09500000000E+09 -5.87575478086E-01 +7.65865438628E-01 +3.39704183832E-05 -1.17274564691E-05 -4.39353262785E-05 -5.07481579042E-06 -6.33105234546E-01 +7.41559514496E-01
1.10000000000E+09 -5.82470429437E-01 +7.67530542565E-01 -9.84168975492E-06 +1.04307858430E-05 -3.66942786895E-06 +1.33785333247E-05 -6.29100679386E-01 +7.45080523196E-01
1.10500000000E+09 -5.75540161992E-01 +7.71365108534E-01 -1.22047805218E-05 +2.68650058466E-05 -2.24291543318E-05 +4.57040861809E-05 -6.25123788150E-01 +7.48042990277E-01
1.11000000000E+09 -5.66682942300E-01 +7.77004434447E-01 -2.71988815304E-05 +4.61811173516E-06 -3.84283201541E-05 -1.58163030189E-05 -6.20801862185E-01 +7.50775042836E-01
1.11500000000E+09 -5.57253246623E-01 +7.83931114153E-01 -3.28864138948E-05 -1.00077837160E-05 -9.51640719775E-05 +1.11513686793E-05 -6.16028201698E-01 +7.54231953423E-01
1.12000000000E+09 -5.48414672822E-01 +7.90627648413E-01 +1.41121738618E-05 -8.46397303182E-06 -6.92439810661E-06 -3.55242610190E-05 -6.10662046592E-01 +7.58270223923E-01
1.12500000000E+09 -5.40991993654E-01 +7.96401860860E-01 -6.37016326805E-05 +4.79934607160E-05 -3.52176573059E-05 +3.40930649608E-08 -6.05447562820E-01 +7.62602526137E-01
1.13000000000E+09 -5.35796685588E-01 +8.00446141669E-01 -1.72867591548E-05 -6.12617036915E-06 -1.22118910658E-05 -9.87647899658E-06 -6.00645831297E-01 +7.66293942534E-01
1.13500000000E+09 -5.32202725090E-01 +8.02118470572E-01 -2.01664989670E-05 +2.04262271039E-05 +4.80152919931E-06 +9.57140573333E-05 -5.96129691591E-01 +7.69560354912E-01
1.14000000000E+09 -5.29503442304E-01 +8.02460908288E-01 -2.87889115907E-05 +2.31975479516E-05 -4.12150765803E-05 +2.65634986471E-05 -5.91585839194E-01 +7.72459958508E-01
1.14500000000E+09 -5.26739674182E-01 +8.01310480514E-01 +3.38362397180E-05 +6.80773620031E-06 -5.98802906050E-06 +2.33496414969E-05 -5.86782325851E-01 +7.75403625258E-01
1.15000000000E+09 -5.22559472369E-01 +8.00539624730E-01 +8.29102940295E-06 +3.87789841194E-05 -2.93475937156E-05 +7.50521123568E-05 -5.81346217014E-01 +7.79218979129E-01
1.15500000000E+09 -5.16297906508E-01 +8.00711851081E-01 -1.74727686582E-05 +3.78222504022E-05 -9.82822782424E-07 +2.32476077612E-05 -5.75206644023E-01 +7.83270855330E-01
1.16000000000E+09 -5.07514844180E-01 +8.02543307907E-01 +5.22642910136E-06 +3.01199904194E-05 -1.84645222774E-05 +6.33391280525E-05 -5.69546241391E-01 +7.87328996719E-01
1.16500000000E+09 -4.96734420083E-01 +8.07032847839E-01 +1.25767735258E-05 +2.34632173908E-05 +3.44275666261E-06 +3.00781147439E-05 -5.64155054747E-01 +7.90577229560E-01
1.17000000000E+09 -4.85006790132E-01 +8.13102781954E-01 +1.79708415336E-05 +4.32717820139E-06 +2.14293940023E-05 +4.21067949977E-05 -5.59106494506E-01 +7.93393298970E-01
1.17500000000E+09 -4.73732315917E-01 +8.20095229658E-01 +7.81055473886E-06 +1.57433324325E-05 +6.02223922959E-05 +3.47736286513E-05 -5.53650264157E-01 +7.96240429408E-01
1.18000000000E+09 -4.64277100610E-01 +8.27000285119E-01 +2.12261578874E-05 +6.21794334044E-06 -2.70779442855E-05 -3.53222626632E-05 -5.47888536605E-01 +7.98895659293E-01
1.18500000000E+09 -4.57339548747E-01 +8.32587242118E-01 +1.32099135154E-05 -3.59415483701E-06 -2.92866422375E-06 -5.52343263348E-05 -5.41214316336E-01 +8.02061279623E-01
1.19000000000E+09 -4.53265881867E-01 +8.35913744477E-01 -3.92113447915E-05 +3.53772882883E-06 +4.72963364723E-06 -4.74453687710E-05 -5.34048846148E-01 +8.04743850540E-01
1.19500000000E+09 -4.51895076443E-01 +8.37149652474E-01 -4.88145298535E-05 +1.79159902912E-05 -3.62583137323E-05 +3.39745667943E-05 -5.27300483433E-01 +8.06091990724E-01
1.20000000000E+09 -4.51617394613E-01 +8.35866071017E-01 -2.71189198672E-05 +5.91168417935E-05 -4.96613134865E-05 +6.62057748810E-05 -5.22138646814E-01 +8.06025275145E-01
1.20500000000E+09 -4.51244655044E-01 +8.34129822714E-01 +4.69587983311E-06 +6.15991625009E-05 +3.76861177799E-05 +8.11854263870E-05 -5.19622130074E-01 +8.06034283720E-01
1.21000000000E+09 -4.48915300263E-01 +8.32744043599E-01 +2.81418502310E-06 +4.53624790609E-05 +5.73674689273E-05 +4.24317175641E-05 -5.18019998317E-01 +8.07918994829E-01
1.21500000000E+09 -4.43054034808E-01 +8.32690083968E-01 +1.91330417021E-05 +4.05588404005E-05 +1.07478304980E-05 +5.27287831048E-05 -5.14927302959E-01 +8.12326387555E-01
1.22000000000E+09 -4.33542423369E-01 +8.34492221125E-01 +4.37821837764E-05 +2.23168115414E-05 +3.95776557074E-05 +1.98699605857E-05 -5.09419342099E-01 +8.17933422765E-01
1.22500000000E+09 -4.21015006653E-01 +8.38805800714E-01 +2.09687290335E-05 +6.46869350762E-06 +9.72805276904E-06 -6.63959797638E-06 -5.03063787213E-01 +8.23335078133E-01
1.23000000000E+09 -4.06678498494E-01 +8.44458340130E-01 +5.41479655993E-05 +2.75127866296E-05 +8.32582854444E-05 +6.01142634153E-05 -4.96651055701E-01 +8.28058848004E-01
1.23500000000E+09 -3.92346013477E-01 +8.51311136623E-01 +5.02727698097E-05 +1.59022560603E-05 +5.08663355379E-05 +6.00563381421E-05 -4.90906046504E-01 +8.31975718311E-01
1.24000000000E+09 -3.79542352766E-01 +8.58093065816E-01 +8.28253027980E-05 +2.33837180464E-05 +5.30972269146E-05 +1.35070353220E-06 -4.85473433345E-01 +8.35172644965E-01
1.24500000000E+09 -3.69652768350E-01 +8.63694439356E-01 +6.30812567516E-05 +3.69240202651E-05 +1.64423389023E-05 +6.53618264896E-05 -4.79339227220E-01 +8.38500359016E-01
1.25000000000E+09 -3.62835191917E-01 +8.67035452005E-01 +2.58974719009E-05 +2.64436512058E-05 +1.05611350339E-04 +8.33144205967E-05 -4.72075061044E-01 +8.42338845806E-01
1.25500000000E+09 -3.58776618368E-01 +8.68402235094E-01 +8.20745604782E-05 +1.09680585933E-05 +1.00463759126E-04 +6.24956311247E-05 -4.63902308280E-01 +8.46099213357E-01
1.26000000000E+09 -3.56278196811E-01 +8.67951764059E-01 +7.52987499851E-05 +2.62029132473E-05 +1.07391881587E-04 +4.84983341087E-05 -4.55716847685E-01 +8.50321408248E-01
1.26500000000E+09 -3.53588440966E-01 +8.66380086528E-01 +5.47223786109E-05 -7.43725362871E-06 +1.00002248642E-04 +6.44822463930E-05 -4.48213916972E-01 +8.53973817379E-01
1.27000000000E+09 -3.49185802920E-01 +8.65024334099E-01 +7.66394568417E-05 -1.55184268514E-05 +1.30970835772E-04 -2.88296953809E-05 -4.41455150751E-01 +8.57177699910E-01
1.27500000000E+09 -3.41506332494E-01 +8.64576353154E-01 +7.43147725379E-05 -1.96648911044E-05 +6.51679639717E-05 -1.69764368880E-05 -4.34891712290E-01 +8.59970109802E-01
1.28000000000E+09 -3.30535168154E-01 +8.66025567427E-01 +5.58482426301E-05 -1.20886150894E-05 +1.02409890542E-04 -2.46855159679E-05 -4.27901891237E-01 +8.62936407485E-01
1.28500000000E+09 -3.16593589980E-01 +8.69383502436E-01 +6.53740304696E-05 -4.68223749819E-05 +6.47859659524E-05 -4.72441031448E-06 -4.19523529486E-01 +8.66191952279E-01
1.29000000000E+09 -3.01064146704E-01 +8.74129024667E-01 +7.60543057939E-05 -2.89934290732E-05 +1.76462529530E-04 -4.03138072842E-05 -4.10501322255E-01 +8.69558949454E-01
1.29500000000E+09 -2.85961173045E-01 +8.79423116208E-01 +9.00206315804E-05 -7.45189192537E-05 +9.19514448167E-05 -9.52634506970E-05 -4.01402218660E-01 +8.72910318199E-01
1.30000000000E+09 -2.73027150672E-01 +8.84698992465E-01 +7.67098420567E-05 -8.52020484849E-05 +6.68205704096E-05 -1.13771143498E-04 -3.93038038398E-01 +8.76071243252E-01
1.30500000000E+09 -2.63227503737E-01 +8.88624883982E-01 +9.64429766845E-05 -7.13200939581E-05 +8.00361372817E-05 -8.11321731345E-05 -3.85293195727E-01 +8.78769527313E-01
1.31000000000E+09 -2.56861227963E-01 +8.91035576438E-01 +7.09553182101E-05 -1.10551899103E-04 +8.76561187499E-05 -1.11693179045E-04 -3.77516589281E-01 +8.81526049201E-01
1.31500000000E+09 -2.52934417669E-01 +8.91791996943E-01 +7.03925552448E-05 -8.82971510341E-05 +6.10474616061E-05 -1.12075429856E-04 -3.68595978259E-01 +8.84159385442E-01
1.32000000000E+09 -2.49911651888E-01 +8.90911048527E-01 +9.69360796720E-05 -7.99461204747E-05 +7.58838538882E-05 -1.00381277109E-04 -3.58503785917E-01 +8.87058999705E-01
1.32500000000E+09 -2.45932219097E-01 +8.88935674860E-01 +5.28683465902E-05 -1.31603216199E-04 +4.18068816651E-05 -2.03097428469E-04 -3.47532379145E-01 +8.89783886401E-01
1.33000000000E+09 -2.39028886787E-01 +8.87127548837E-01 +2.10873020073E-05 -1.48074971689E-04 -2.12788084235E-07 -1.30706338700E-04 -3.36767272743E-01 +8.92610493604E-01
1.33500000000E+09 -2.28167833058E-01 +8.85577338091E-01 -2.52281595408E-05 -1.43839419296E-04 -3.30753230347E-05 -1.23053887084E-04 -3.26662462526E-01 +8.95386468897E-01
1.34000000000E+09 -2.12885280572E-01 +8.85576484011E-01 -1.58464205913E-05 -1.08127654485E-04 -6.50038383664E-05 -6.35799823129E-05 -3.17075378011E-01 +8.97821725043E-01
1.34500000000E+09 -1.94292032365E-01 +8.86650694156E-01 -3.74442801692E-05 -8.62583873140E-05 -4.24030440782E-05 -1.16181324725E-04 -3.06811985628E-01 +9.00103369447E-01
1.35000000000E+09 -1.73889328813E-01 +8.88884476743E-01 -1.79556118637E-05 -4.56307329754E-05 -3.53538181345E-05 -3.80465472170E-05 -2.95559800004E-01 +9.02085409596E-01
1.35500000000E+09 -1.53598957595E-01 +8.91553810529E-01 -1.37519252510E-05 -4.87413965802E-05 -1.80842650462E-05 -2.50554216365E-05 -2.83046751728E-01 +9.03970989781E-01
1.36000000000E+09 -1.35532114433E-01 +8.93771454602E-01 +3.41322850272E-05 +1.11658837514E-05 +8.67876361627E-05 +2.86634118091E-05 -2.69783478582E-01 +9.05696748363E-01
1.36500000000E+09 -1.20636778907E-01 +8.95387213481E-01 +1.77484212308E-04 -1.27177133267E-05 +1.74912770604E-04 -2.42796476169E-05 -2.56765292297E-01 +9.07552262662E-01
1.37000000000E+09 -1.09070719445E-01 +8.95342162392E-01 +1.62868486032E-04 -1.22082844054E-04 +1.77693315893E-04 -1.07732066556E-04 -2.43894383238E-01 +9.09104096617E-01
1.37500000000E+09 -9.99028086732E-02 +8.93970012080E-01 +1.45217284199E-04 -2.08946814919E-04 +1.97371070373E-04 -2.10131260385E-04 -2.30990581740E-01 +9.10527779732E-01
1.38000000000E+09 -9.14102619192E-02 +8.90926128395E-01 +1.17810609443E-04 -3.04843954314E-04 +1.71342425853E-04 -2.76601880066E-04 -2.17172429314E-01 +9.11575291444E-01
1.38500000000E+09 -8.14507329952E-02 +8.86702621922E-01 +6.71872300789E-05 -3.44078311341E-04 +1.33709875566E-04 -3.56004388590E-04 -2.01685689306E-01 +9.11837543802E-01
1.39000000000E+09 -6.90263618009E-02 +8.81540541422E-01 +5.44220245535E-05 -3.59127128369E-04 +1.16431714129E-04 -3.68260472206E-04 -1.85168908322E-01 +9.11757666586E-01
1.39500000000E+09 -5.27943570924E-02 +8.76381334594E-01 +1.10485495633E-04 -3.90898286558E-04 +7.97239403102E-05 -4.98444153014E-04 -1.67482302827E-01 +9.11348403579E-01
1.40000000000E+09 -3.26283408679E-02 +8.70822866276E-01 -5.11460483573E-07 -5.79132208517E-04 -1.09879116749E-04 -6.47686124611E-04 -1.49609415887E-01 +9.10708208232E-01
1.40500000000E+09 -1.04708647441E-02 +8.66028855293E-01 -2.49042461095E-04 -6.56382723777E-04 -3.01452131236E-04 -7.08833720788E-04 -1.31689904643E-01 +9.09478826387E-01
1.41000000000E+09 +1.27738637845E-02 +8.61761177965E-01 -5.65303275065E-04 -6.09924410183E-04 -5.54306764701E-04 -6.21893131628E-04 -1.13195167867E-01 +9.07567975498E-01
1.41500000000E+09 +3.53498690340E-02 +8.57775994418E-01 -6.91173695080E-04 -3.77522665711E-04 -7.25086262048E-04 -3.73584156372E-04 -9.29257036962E-02 +9.04880664090E-01
1.42000000000E+09 +5.62954480164E-02 +8.53644705813E-01 -6.05096677742E-04 -1.23148451676E-04 -6.23834099980E-04 -2.04333095202E-04 -7.05402946639E-02 +9.00242937174E-01
1.42500000000E+09 +7.49234555698E-02 +8.48008865019E-01 -5.69664206936E-04 -1.78083608295E-04 -6.47671023506E-04 -1.70185615170E-04 -4.65371579114E-02 +8.94713593317E-01
1.43000000000E+09 +9.15856668670E-02 +8.40941733167E-01 -5.75673826708E-04 -1.31129656309E-04 -6.56339640096E-04 -1.04588772648E-04 -2.10330114996E-02 +8.88106122264E-01
1.43500000000E+09 +1.07733745438E-01 +8.31102813929E-01 -5.74565367307E-04 -1.24206277272E-04 -6.05162930267E-04 -4.81019648696E-05 +4.72660133409E-03 +8.79761907511E-01
1.44000000000E+09 +1.25057349174E-01 +8.18622049542E-01 -7.08873993928E-04 -1.86854534758E-04 -7.54434016269E-04 -7.58468659308E-05 +3.07090801745E-02 +8.70217656627E-01
1.44500000000E+09 +1.45308952335E-01 +8.03377485576E-01 -7.35511721768E-04 +2.60536862982E-05 -7.84662676320E-04 +5.64236788127E-05 +5.83001766627E-02 +8.58402456001E-01
1.45000000000E+09 +1.69954546580E-01 +7.85072485128E-01 -8.33566741745E-04 -3.00490391436E-05 -8.71299135419E-04 +3.81632014136E-05 +8.81428775740E-02 +8.42712312542E-01
1.45500000000E+09 +1.98967953495E-01 +7.63387304443E-01 -1.04941995482E-03 +8.80902089142E-05 -1.02219853014E-03 +1.83846092204E-04 +1.19309263529E-01 +8.23077959223E-01
1.46000000000E+09 +2.31720913437E-01 +7.38206649331E-01 -1.29431560359E-03 +2.51602299453E-04 -1.15378459379E-03 +3.71754703626E-04 +1.52251873275E-01 +7.99690957747E-01
1.46500000000E+09 +2.65677794111E-01 +7.09673896672E-01 -1.22909471990E-03 +7.48755374372E-04 -1.07538880258E-03 +7.48311322671E-04 +1.86452423658E-01 +7.71784468231E-01
1.47000000000E+09 +2.99141115815E-01 +6.77607227838E-01 -1.10971808746E-03 +8.51991311418E-04 -1.03089840426E-03 +8.15296147481E-04 +2.21152916395E-01 +7.38148839407E-01
1.47500000000E+09 +3.29236688675E-01 +6.41744407472E-01 -1.45710707640E-03 +9.62411195635E-04 -1.41032529633E-03 +9.49561463090E-04 +2.55419760323E-01 +6.97504564157E-01
1.48000000000E+09 +3.54961310800E-01 +6.01787874674E-01 -1.24968433413E-03 +1.77826832198E-03 -1.26731491896E-03 +1.82948279445E-03 +2.88203739213E-01 +6.48670912631E-01
1.48500000000E+09 +3.75829438361E-01 +5.55618681526E-01 -9.54325094801E-04 +1.92926379856E-03 -9.23436612907E-04 +2.02174500681E-03 +3.18069518573E-01 +5.90197344351E-01
1.49000000000E+09 +3.91242425775E-01 +5.01540871422E-01 -9.15903595981E-04 +2.81586298034E-03 -7.65001206007E-04 +2.85186759316E-03 +3.42842031352E-01 +5.21942202848E-01
1.49500000000E+09 +3.99972973164E-01 +4.38385271739E-01 +3.49873041620E-04 +3.79482775904E-03 +4.69485001478E-04 +3.58083571791E-03 +3.59036967488E-01 +4.43984408418E-01
1.50000000000E+09 +4.01182985211E-01 +3.64983543889E-01 +2.12939934792E-03 +3.13498115308E-03 +2.04478252624E-03 +2.93719706885E-03 +3.62640942209E-01 +3.57409904299E-01
1.50500000000E+09 +3.93124421276E-01 +2.83450485684E-01 +2.60495620576E-03 +2.02852015899E-03 +2.43307096392E-03 +1.95440960158E-03 +3.50487448120E-01 +2.64335525429E-01
1.51000000000E+09 +3.73055118573E-01 +1.95815080781E-01 +2.61077504298E-03 +1.25387318443E-03 +2.48298296570E-03 +1.25477772561E-03 +3.18410851000E-01 +1.67406969858E-01
1.51500000000E+09 +3.38928399165E-01 +1.07412445304E-01 +2.41222382876E-03 +1.00151182468E-03 +2.39876003375E-03 +1.01312830396E-03 +2.64325652485E-01 +7.18231112075E-02
1.52000000000E+09 +2.88245358703E-01 +2.42800436812E-02 +2.94084248417E-03 +7.23983715392E-04 +2.91267839670E-03 +7.67212958588E-04 +1.88180845167E-01 -1.40732501288E-02
1.52500000000E+09 +2.21152641665E-01 -4.88981175161E-02 +3.51196102734E-03 +2.81181258361E-04 +3.52059317767E-03 +3.42351481484E-04 +9.23876212604E-02 -8.36816909851E-02
1.53000000000E+09 +1.36044946821E-01 -1.05147556927E-01 +3.49926637087E-03 -1.02483925890E-03 +3.54591182823E-03 -9.42258606739E-04 -1.53942779586E-02 -1.29211245933E-01
1.53500000000E+09 +3.62398012363E-02 -1.38008614241E-01 +2.99042121355E-03 -2.26336995681E-03 +3.01610082832E-03 -2.25787902403E-03 -1.29551563247E-01 -1.50573237233E-01
1.54000000000E+09 -6.79241118663E-02 -1.45611945321E-01 +1.81472109516E-03 -2.57762810789E-03 +1.75296503327E-03 -2.56521065693E-03 -2.42003849420E-01 -1.45150937538E-01
1.54500000000E+09 -1.74526088939E-01 -1.32317814608E-01 +1.12777846022E-03 -2.68321862819E-03 +1.18606068683E-03 -2.64745564766E-03 -3.43383249268E-01 -1.18473570443E-01
1.55000000000E+09 -2.74969317997E-01 -9.74765744309E-02 +4.07751534363E-05 -2.52247615470E-03 +1.21068116841E-04 -2.52135253044E-03 -4.33202795654E-01 -7.77912372748E-02
1.55500000000E+09 -3.62115567948E-01 -4.88484393586E-02 -6.63283024552E-05 -1.47829578553E-03 -3.05377921356E-05 -1.48638953166E-03 -5.06615815800E-01 -2.49835720249E-02
1.56000000000E+09 -4.33739389093E-01 +7.37909758474E-03 +6.96338049768E-04 -1.64751306876E-03 +7.75586329756E-04 -1.67578780937E-03 -5.64411747399E-01 +3.30215828004E-02
1.56500000000E+09 -4.89872190756E-01 +6.65314519415E-02 +1.37008132942E-04 -2.41137982959E-03 +1.86445698226E-04 -2.58926933768E-03 -6.08182872351E-01 +9.37373492696E-02
1.57000000000E+09 -5.30630626706E-01 +1.27300261312E-01 -7.85190598007E-04 -2.05351157185E-03 -8.60524597513E-04 -2.23290841835E-03 -6.39803167863E-01 +1.53509236492E-01
