# Hz S RI R 50
! CMT, C1220, 16058040, 17.2.0/1
! Date: 15/08/2018 08:59:30
! Data: Format (Calibration Info)
! Freq                      S11: Re/Im (F2)                       S21: Re/Im (F2)                       S12: Re/Im (F2)                       S22: Re/Im (F2)            
1.00000000000E+09 -6.52527021548E-01 +7.00660016261E-01 -2.25108892739E-05 +9.08399472113E-06 +1.58723138357E-05 -4.05424076902E-05 -7.10710392520E-01 +6.71769260407E-01
1.00500000000E+09 -6.45648674315E-01 +7.08002966753E-01 -2.17706733191E-05 +1.14644613885E-05 -6.64255203038E-05 -6.62445268344E-06 -7.07207502566E-01 +6.75137513760E-01
1.01000000000E+09 -6.42181829610E-01 +7.13710691623E-01 -3.40777502961E-05 +2.81916656689E-07 +2.93333741762E-06 -1.81095985804E-05 -7.03421815560E-01 +6.78539702615E-01
1.01500000000E+09 -6.41634478232E-01 +7.17122246252E-01 +2.86088874526E-06 -4.44162891496E-05 -8.25892015375E-06 -3.31814677703E-05 -6.99233635586E-01 +6.82424697560E-01
1.02000000000E+09 -6.42893551401E-01 +7.18611784946E-01 -1.44528516128E-05 +1.63075749619E-06 +2.66797691373E-05 +3.12636515972E-05 -6.94970088027E-01 +6.86537017188E-01
1.02500000000E+09 -6.44685041436E-01 +7.18745096367E-01 -1.16524010456E-05 +2.57252748021E-05 +9.07373111886E-06 +1.06119774531E-06 -6.91498688554E-01 +6.90637266010E-01
1.03000000000E+09 -6.45563915372E-01 +7.18285574740E-01 -4.50235901135E-05 +4.30633120944E-05 -2.06442315804E-05 +2.10404568902E-05 -6.87757060458E-01 +6.94481540163E-01
1.03500000000E+09 -6.43698519578E-01 +7.18516967931E-01 -1.61837669609E-06 +3.21512262852E-05 +2.04012534270E-05 -2.48436025789E-05 -6.84167664445E-01 +6.97748129563E-01
1.04000000000E+09 -6.39014377903E-01 +7.20425200447E-01 -1.77542753914E-06 -1.24137981303E-05 +6.41860642021E-06 +5.07419203865E-05 -6.80322081332E-01 +7.00618558439E-01
1.04500000000E+09 -6.31304906301E-01 +7.24629198639E-01 -2.42011817567E-05 -4.81559976195E-05 -1.16561151148E-05 -4.30004182576E-06 -6.76258355111E-01 +7.03999905559E-01
1.05000000000E+09 -6.21339741431E-01 +7.30933427158E-01 +1.73649702294E-05 +6.17024231938E-05 +6.43407199328E-06 +2.59611730085E-05 -6.71784531720E-01 +7.07867644747E-01
1.05500000000E+09 -6.10266754148E-01 +7.38455269765E-01 +2.51721286310E-07 +5.84042150103E-05 +4.67652975388E-06 +6.03585450656E-05 -6.67451680420E-01 +7.12146586978E-01
1.06000000000E+09 -5.99529598591E-01 +7.46524045448E-01 +3.87795184135E-05 +5.82131958347E-05 +1.32883985008E-05 -1.51169607147E-05 -6.63367300873E-01 +7.16228737178E-01
1.06500000000E+09 -5.90850485950E-01 +7.53919588716E-01 -2.96870403386E-05 +6.75101119954E-06 -2.88363250230E-05 +3.10976814936E-05 -6.59524692444E-01 +7.19800639607E-01
1.07000000000E+09 -5.84555017366E-01 +7.59285004900E-01 +9.91402807667E-06 +6.95950269279E-05 +6.25292701316E-05 +6.20094214577E-05 -6.55723251297E-01 +7.22905675945E-01
1.07500000000E+09 -5.81184693993E-01 +7.62928828736E-01 -5.26875427050E-05 +4.38942740729E-05 +1.66727268956E-05 +4.44547253564E-05 -6.51479635381E-01 +7.25993900854E-01
1.08000000000E+09 -5.79953905331E-01 +7.64539893753E-01 +2.43703306833E-05 +4.05500924606E-05 -4.27349183481E-05 -2.21187957717E-05 -6.46836124621E-01 +7.29711663023E-01
1.08500000000E+09 -5.79588712080E-01 +7.64862956140E-01 +3.86978966412E-05 +2.50895331888E-05 -2.85473716454E-05 +2.93245235861E-05 -6.41913184282E-01 +7.33569008470E-01
1.09000000000E+09 -5.78589382144E-01 +7.64774152200E-01 -7.04138421458E-06 +5.76514583161E-06 +4.88838165019E-06 -1.30704858029E-05 -6.37156966231E-01 +7.37903464562E-01
1.09500000000E+09 -5.76393859091E-01 +7.65094040182E-01 +4.37254700137E-06 +3.89429146047E-05 -1.61665475565E-05 +1.45830413470E-05 -6.32798418433E-01 +7.41708637358E-01
1.10000000000E+09 -5.71674220238E-01 +7.66980349211E-01 +3.73263111875E-05 +4.79473818926E-06 -2.33453104449E-05 -6.07254861323E-07 -6.28851782139E-01 +7.45125945358E-01
1.10500000000E+09 -5.65123555724E-01 +7.70561245840E-01 +4.25174806956E-06 +6.70811824948E-05 +6.94162978011E-05 +9.90335410332E-07 -6.24847428964E-01 +7.48062396775E-01
1.11000000000E+09 -5.56655534367E-01 +7.75912501523E-01 +4.39984985079E-05 +2.45235830124E-05 +3.15867740718E-05 +4.99693817284E-05 -6.20308275773E-01 +7.50902548600E-01
1.11500000000E+09 -5.47739010740E-01 +7.82362025618E-01 +4.06519894194E-05 -2.28920254810E-05 +4.12348045505E-05 +2.11185805071E-05 -6.15774423826E-01 +7.54476817166E-01
1.12000000000E+09 -5.39110605721E-01 +7.89030404256E-01 +5.22087256703E-05 +6.10524951935E-06 +2.54239732810E-05 +2.21707659796E-06 -6.10429845945E-01 +7.58291188364E-01
1.12500000000E+09 -5.31790148953E-01 +7.94555176515E-01 +3.79296658320E-05 +3.50785224819E-05 +2.76446812155E-05 -2.17444406183E-05 -6.05277087239E-01 +7.62509728327E-01
1.13000000000E+09 -5.26519200942E-01 +7.98703566268E-01 -3.58817411158E-05 -1.76413732287E-05 +2.66239706012E-05 -8.11185957072E-06 -6.00324864192E-01 +7.66409408337E-01
1.13500000000E+09 -5.22812162171E-01 +8.00394662004E-01 +2.12186423091E-05 +5.72951845652E-05 +4.64074478656E-05 -5.11155550576E-05 -5.95875594102E-01 +7.69763600177E-01
1.14000000000E+09 -5.19724530688E-01 +8.01007840987E-01 +4.59633954578E-06 -6.23418079237E-05 +3.95337415383E-05 -1.51168166786E-05 -5.91537296550E-01 +7.72567658810E-01
1.14500000000E+09 -5.16654674260E-01 +8.00380977658E-01 -8.00931954735E-06 -2.22737833969E-05 +3.05575744968E-06 +3.17564425788E-05 -5.86624011925E-01 +7.75594632479E-01
1.15000000000E+09 -5.12243905813E-01 +7.99742741943E-01 -5.92316769705E-07 -4.66817618049E-05 -1.69561622914E-05 -1.61149716322E-06 -5.80916457768E-01 +7.79534703112E-01
1.15500000000E+09 -5.05866827693E-01 +8.00275680739E-01 +1.70151955530E-05 +1.36121248582E-05 -5.24946156009E-06 -3.41222113946E-05 -5.75048468376E-01 +7.83323208313E-01
1.16000000000E+09 -4.97361472521E-01 +8.02218360760E-01 -2.25078863503E-05 +2.31145943378E-05 -4.90954175353E-05 +1.64086784439E-05 -5.69296716830E-01 +7.87353460385E-01
1.16500000000E+09 -4.87017980789E-01 +8.06505813383E-01 +5.45925933918E-05 +2.16521002048E-05 +2.60048185036E-05 +7.88309419134E-06 -5.63778369977E-01 +7.90710125003E-01
1.17000000000E+09 -4.76093936842E-01 +8.12275779248E-01 -7.66580576637E-06 +1.99616825340E-05 +5.83723674299E-05 +3.07449546575E-05 -5.58820820687E-01 +7.93571940955E-01
1.17500000000E+09 -4.65444395268E-01 +8.18897066793E-01 -8.15699067450E-06 +7.72110155221E-06 +3.23790789963E-05 +5.56203473473E-05 -5.53469463008E-01 +7.96328322619E-01
1.18000000000E+09 -4.56780924916E-01 +8.25462383993E-01 +5.70786653779E-05 -8.22042626414E-09 +2.87862851864E-05 +1.73500997188E-06 -5.47577931718E-01 +7.99027062236E-01
1.18500000000E+09 -4.50449780185E-01 +8.30586584713E-01 +9.62430321873E-05 +4.18329892286E-06 +6.42377525647E-05 +1.03247750005E-05 -5.40885650458E-01 +8.02099622808E-01
1.19000000000E+09 -4.46755371678E-01 +8.33546420764E-01 +7.21086509191E-05 -1.71598741406E-05 +8.57600450426E-05 -2.78046593773E-05 -5.33579617058E-01 +8.04769621981E-01
1.19500000000E+09 -4.45152850151E-01 +8.34552980186E-01 +9.02886354547E-05 -2.46023674816E-05 +6.04459655684E-05 +1.97011034814E-05 -5.26899681916E-01 +8.06236067159E-01
1.20000000000E+09 -4.44478375708E-01 +8.33202573338E-01 +4.86129765924E-05 -9.25482769512E-05 +7.86617140110E-05 -9.20795623111E-05 -5.21883440244E-01 +8.06172377999E-01
1.20500000000E+09 -4.43488841996E-01 +8.31655909830E-01 -2.61353168536E-06 -7.66056519161E-05 -5.24677633353E-05 -8.24546613704E-05 -5.19434156727E-01 +8.06011069881E-01
1.21000000000E+09 -4.40385015992E-01 +8.30424677894E-01 -5.89382843300E-05 -6.30441708007E-05 -4.13672475546E-05 -9.82778867412E-05 -5.17788096079E-01 +8.08187639266E-01
1.21500000000E+09 -4.33976094784E-01 +8.30634478999E-01 +1.22981477496E-05 -5.20071205078E-07 -1.86660972197E-05 +2.02819065574E-05 -5.14617507752E-01 +8.12553306405E-01
1.22000000000E+09 -4.23806954883E-01 +8.32766381848E-01 +2.19666001842E-05 -3.29971213586E-06 +1.01285295329E-05 -4.69940359508E-05 -5.09289687500E-01 +8.18069736975E-01
1.22500000000E+09 -4.10893660699E-01 +8.37047346244E-01 -3.13398792392E-05 -1.30468354375E-05 +2.15540949896E-05 -7.44247229593E-05 -5.02788131814E-01 +8.23540059540E-01
1.23000000000E+09 -3.96488345392E-01 +8.43009563432E-01 +2.40234189935E-05 -7.50840016904E-06 -4.63071963367E-05 -8.60262273884E-05 -4.96362785922E-01 +8.28192813872E-01
1.23500000000E+09 -3.82382150651E-01 +8.49789125783E-01 +7.29596264212E-06 -2.19108154263E-05 -4.15104460529E-06 -6.24306920661E-05 -4.90706696021E-01 +8.32156353780E-01
1.24000000000E+09 -3.69808245634E-01 +8.56300226908E-01 +1.08771115030E-05 -7.27946269665E-05 +3.02979311820E-06 -3.90064727942E-05 -4.85191639832E-01 +8.35275868705E-01
1.24500000000E+09 -3.60271736697E-01 +8.61725279091E-01 -1.44692971170E-05 -1.16784187721E-04 -6.66707469270E-06 -7.36098567718E-05 -4.78945116033E-01 +8.38627551758E-01
1.25000000000E+09 -3.53712491591E-01 +8.64983058408E-01 -3.69948978887E-05 -7.44274144455E-05 -4.21068122367E-05 -4.02490721127E-05 -4.71750364752E-01 +8.42497625301E-01
1.25500000000E+09 -3.49843760827E-01 +8.65934671175E-01 -1.75509222311E-05 -9.47193731693E-05 -4.73323668346E-05 -8.03677921522E-05 -4.63526147310E-01 +8.46209457463E-01
1.26000000000E+09 -3.47061206818E-01 +8.65387884664E-01 -9.84663908288E-06 -2.82322196089E-05 -6.21380805548E-05 -7.45155827252E-05 -4.55395018752E-01 +8.50428811438E-01
1.26500000000E+09 -3.44167388521E-01 +8.63787000007E-01 -7.58002346082E-05 -1.05730723814E-04 -3.56782684033E-05 -9.95724653379E-05 -4.47882331117E-01 +8.53954753461E-01
1.27000000000E+09 -3.39168653610E-01 +8.62393066298E-01 -3.69117546250E-05 -9.99463204115E-05 -4.77562683220E-05 -1.01232384527E-04 -4.41241390499E-01 +8.57157393207E-01
1.27500000000E+09 -3.31211373112E-01 +8.61995284125E-01 -8.86876618296E-05 -9.13679893868E-05 -3.20354345560E-05 -1.08764491942E-04 -4.34476608632E-01 +8.60112601682E-01
1.28000000000E+09 -3.19868734293E-01 +8.63440083624E-01 -1.04426083062E-04 -9.54012172057E-05 -8.03308128665E-05 -1.37009605092E-04 -4.27417860365E-01 +8.63021526294E-01
1.28500000000E+09 -3.05640148093E-01 +8.66909321372E-01 -1.65359993999E-04 -1.00619439905E-04 -1.35105157615E-04 -6.20574164930E-05 -4.19179645489E-01 +8.66225639911E-01
1.29000000000E+09 -2.90347431901E-01 +8.71906567783E-01 -1.71707323297E-04 +8.05914988650E-06 -2.00783629992E-04 +8.09829719450E-07 -4.10256305610E-01 +8.69605383864E-01
1.29500000000E+09 -2.75420966403E-01 +8.77552323474E-01 -1.61831210275E-04 +3.18228275272E-05 -1.50457237163E-04 +4.05788817058E-05 -4.01188410876E-01 +8.72884267109E-01
1.30000000000E+09 -2.62707141133E-01 +8.82999301986E-01 -1.86518215894E-04 +6.16916646492E-05 -1.63708012203E-04 +6.53241090528E-05 -3.92760747526E-01 +8.76100021067E-01
1.30500000000E+09 -2.53251966769E-01 +8.87222953816E-01 -2.27699794422E-04 +5.26389026761E-05 -1.31687473804E-04 +1.04957051393E-04 -3.84942777682E-01 +8.78901773335E-01
1.31000000000E+09 -2.47102606484E-01 +8.89631233972E-01 -1.34343411801E-04 +1.36979393851E-04 -1.19108423727E-04 +1.13772739309E-04 -3.77162225638E-01 +8.81617487258E-01
1.31500000000E+09 -2.43499249678E-01 +8.90112938958E-01 -1.00455076522E-04 +1.69408499963E-04 -9.60315293370E-05 +1.00069466629E-04 -3.68322437006E-01 +8.84213271238E-01
1.32000000000E+09 -2.40960031792E-01 +8.89088924863E-01 -9.24954163715E-05 +1.64274176242E-04 -1.02490647698E-04 +1.60679302258E-04 -3.58152784791E-01 +8.87075151532E-01
1.32500000000E+09 -2.37296577780E-01 +8.86797333031E-01 -5.59855679346E-05 +1.76865212402E-04 -2.97758437272E-05 +1.78687562452E-04 -3.47200369382E-01 +8.89789856331E-01
1.33000000000E+09 -2.30679810655E-01 +8.84464501046E-01 -4.22270819705E-06 +1.70384878665E-04 +1.68033209033E-06 +2.20561626681E-04 -3.36228290878E-01 +8.92754785293E-01
1.33500000000E+09 -2.20013513631E-01 +8.82877520748E-01 +1.94830130461E-05 +1.37768371182E-04 +6.22486976427E-05 +1.65111108930E-04 -3.26300856172E-01 +8.95340988919E-01
1.34000000000E+09 -2.04919309017E-01 +8.82531893208E-01 +8.91531180550E-05 +1.55320734489E-04 +1.01864274544E-04 +1.30556322075E-04 -3.16664562906E-01 +8.97837315554E-01
1.34500000000E+09 -1.86425808698E-01 +8.83385566582E-01 +1.36504058554E-04 +7.43433735921E-05 +8.14780889006E-05 +9.57996613641E-05 -3.06483535336E-01 +9.00175828993E-01
1.35000000000E+09 -1.66201823740E-01 +8.85309900592E-01 +1.10749554795E-04 +2.27998578460E-05 +1.19418243331E-04 -2.51855989122E-05 -2.95281210481E-01 +9.02163892740E-01
1.35500000000E+09 -1.46048543807E-01 +8.87742031224E-01 +8.54394639025E-05 -2.85577085712E-05 +2.72119731644E-05 -4.10463336368E-05 -2.82710793711E-01 +9.03940666602E-01
1.36000000000E+09 -1.28107051230E-01 +8.89812180378E-01 +5.48136036225E-05 +4.05806403316E-05 +1.32991752158E-05 -1.62751844755E-05 -2.69374648672E-01 +9.05889933060E-01
1.36500000000E+09 -1.13040446765E-01 +8.91273399033E-01 +6.65678496498E-05 +1.39269664751E-05 +2.54209635285E-05 +2.62005582703E-05 -2.56206998710E-01 +9.07454530131E-01
1.37000000000E+09 -1.01455084266E-01 +8.91381540777E-01 +3.70604223224E-05 -6.27032000897E-06 +5.57518677672E-05 +1.86364985007E-06 -2.43509282649E-01 +9.09018390014E-01
1.37500000000E+09 -9.23818754445E-02 +8.89736772704E-01 +4.90318062178E-05 -2.07273004955E-06 +1.17467114977E-05 +8.28963808681E-06 -2.30693754248E-01 +9.10441685509E-01
1.38000000000E+09 -8.38262863718E-02 +8.86816155016E-01 +1.44891509107E-05 -2.03056979532E-06 +1.42386879076E-05 -6.86990001305E-06 -2.16850157307E-01 +9.11515736304E-01
1.38500000000E+09 -7.40220812457E-02 +8.82787457298E-01 +9.88842417816E-06 -5.95377236598E-05 +3.85948309688E-06 -4.92346641858E-05 -2.01383346346E-01 +9.11879362497E-01
1.39000000000E+09 -6.15622796519E-02 +8.77928116471E-01 -4.65932648449E-05 -5.04175352296E-05 -6.10286900104E-05 -2.52169261020E-05 -1.84803334100E-01 +9.11756651819E-01
1.39500000000E+09 -4.54501587920E-02 +8.72977391662E-01 -1.08252305841E-04 -6.74398318417E-06 -1.55968800773E-04 -3.08945848839E-05 -1.67271549121E-01 +9.11201176894E-01
1.40000000000E+09 -2.55839017447E-02 +8.67927089859E-01 -1.58740045119E-04 +1.01446152745E-04 -1.84286306302E-04 +1.30287599237E-04 -1.49318601027E-01 +9.10528589262E-01
1.40500000000E+09 -3.42893557004E-03 +8.63498113658E-01 -9.42586917385E-05 +1.72349428271E-04 -3.92013831991E-05 +1.52699468650E-04 -1.31525263167E-01 +9.09433401338E-01
1.41000000000E+09 +1.97055144550E-02 +8.59171440836E-01 -1.11199441228E-05 +2.39367717744E-04 -6.08149837664E-06 +2.40065918263E-04 -1.12948586718E-01 +9.07678712271E-01
1.41500000000E+09 +4.22817096110E-02 +8.54943641830E-01 +1.37153635796E-04 +1.88173341376E-04 +1.14292479609E-04 +1.79985440326E-04 -9.26288673384E-02 +9.04825848412E-01
1.42000000000E+09 +6.30506438224E-02 +8.50285938433E-01 +1.57669339102E-04 +2.14246954816E-05 +1.64043923364E-04 +2.36276972737E-05 -7.01965582296E-02 +9.00279357370E-01
1.42500000000E+09 +8.16517477063E-02 +8.44350400727E-01 +4.47048403181E-05 -4.22524620880E-05 +2.28421744453E-05 -2.49845632149E-05 -4.62281678867E-02 +8.94710326439E-01
1.43000000000E+09 +9.83088055501E-02 +8.36518089056E-01 -6.76374335894E-05 +2.36920385842E-05 -4.31581488614E-05 -2.47100242118E-05 -2.08064510963E-02 +8.88058066433E-01
1.43500000000E+09 +1.14302042016E-01 +8.26100832224E-01 -9.40910706240E-05 +8.84210181661E-05 -8.51804591747E-05 +1.16194601245E-04 +5.05357177596E-03 +8.79785889493E-01
1.44000000000E+09 +1.31354400084E-01 +8.13246680384E-01 -3.07461824556E-05 +3.05207714514E-04 -2.70011493248E-05 +2.70495975432E-04 +3.12281902311E-02 +8.70103708574E-01
1.44500000000E+09 +1.51739022260E-01 +7.97614709821E-01 +1.69042670110E-04 +3.04704331232E-04 +1.92006582003E-04 +3.07911931545E-04 +5.88455805571E-02 +8.58454368455E-01
1.45000000000E+09 +1.76026984276E-01 +7.78039956564E-01 +2.81847600196E-04 +1.76554240907E-04 +3.71100962597E-04 +1.75542639617E-04 +8.87144907017E-02 +8.42522262887E-01
1.45500000000E+09 +2.03470912963E-01 +7.56246601091E-01 +3.67546945203E-04 -8.84363649658E-06 +3.64688590706E-04 -7.86413731172E-05 +1.19758574824E-01 +8.22812459564E-01
1.46000000000E+09 +2.34362717306E-01 +7.31815755148E-01 +4.14996665702E-06 -1.93090800291E-04 -3.78154924263E-06 -1.76403465213E-04 +1.52724596843E-01 +7.99444675470E-01
1.46500000000E+09 +2.67451153224E-01 +7.05033993403E-01 -5.83335625653E-05 -8.94855201524E-05 -4.35315881719E-05 -6.42618988246E-05 +1.86815907196E-01 +7.71404887128E-01
1.47000000000E+09 +2.99977004348E-01 +6.74502719984E-01 -2.71658661458E-04 +2.27644691044E-04 -2.66126517453E-04 +1.79578422568E-04 +2.21434005322E-01 +7.37813194332E-01
1.47500000000E+09 +3.30348773463E-01 +6.40741212033E-01 +6.79129075592E-05 +6.24785182806E-04 +3.23113002573E-05 +5.84861337923E-04 +2.55553737597E-01 +6.97178315409E-01
1.48000000000E+09 +3.56889362973E-01 +6.00653773825E-01 +3.45730558818E-04 +6.16289558141E-04 +3.60461624895E-04 +6.44574563111E-04 +2.88171353570E-01 +6.48424955646E-01
1.48500000000E+09 +3.76809513789E-01 +5.54086845971E-01 +8.68351121626E-04 +5.09338273115E-04 +9.06455781091E-04 +4.99133182470E-04 +3.17964665390E-01 +5.90054573737E-01
1.49000000000E+09 +3.90897617794E-01 +5.00993845741E-01 +1.01058593500E-03 -1.09253870069E-04 +1.04940498358E-03 -1.42002437794E-04 +3.42652430334E-01 +5.22028598266E-01
1.49500000000E+09 +4.00430755265E-01 +4.39437601150E-01 +6.40302409654E-04 -3.22864494558E-04 +6.01743531471E-04 -3.36342159697E-04 +3.58888869939E-01 +4.44271320748E-01
1.50000000000E+09 +4.03366006924E-01 +3.66358753705E-01 +6.20286955990E-04 -2.90126126889E-04 +6.34225606658E-04 -3.28452085356E-04 +3.62569468968E-01 +3.57940565916E-01
1.50500000000E+09 +3.96711242453E-01 +2.84590060040E-01 +6.28130228169E-04 -1.82459070147E-04 +5.46732447966E-04 -1.78366193566E-04 +3.50810567396E-01 +2.64858602976E-01
1.51000000000E+09 +3.78358685809E-01 +1.95957453769E-01 +1.61142703634E-03 +6.43768167926E-05 +1.58813790622E-03 +1.40438917825E-04 +3.19112022924E-01 +1.67821424812E-01
1.51500000000E+09 +3.44677673558E-01 +1.05882474298E-01 +1.80543755617E-03 -1.70017109376E-03 +1.85987885214E-03 -1.61884915299E-03 +2.65193119040E-01 +7.19132665086E-02
1.52000000000E+09 +2.93589347606E-01 +2.15916654750E-02 +6.26960740666E-04 -2.63722966725E-03 +6.33569094357E-04 -2.61977017121E-03 +1.88979200621E-01 -1.44174352310E-02
1.52500000000E+09 +2.25141425699E-01 -5.05623931185E-02 -4.62132981286E-04 -2.73751780951E-03 -4.27978796544E-04 -2.71476479159E-03 +9.28400791741E-02 -8.44549200618E-02
1.53000000000E+09 +1.40335916452E-01 -1.03936403645E-01 -2.11266463046E-03 -2.57146578186E-03 -2.05732640191E-03 -2.60845478702E-03 -1.54156034621E-02 -1.29957055542E-01
1.53500000000E+09 +4.47358366281E-02 -1.36658137073E-01 -2.87639425609E-03 -6.24914831948E-04 -2.90046837106E-03 -6.17824329894E-04 -1.29896717131E-01 -1.51029707903E-01
1.54000000000E+09 -6.10380652580E-02 -1.46073676467E-01 -1.94767673277E-03 +4.46202282147E-04 -1.92611193291E-03 +4.72467104882E-04 -2.42485739308E-01 -1.45284001103E-01
1.54500000000E+09 -1.67639441560E-01 -1.30953711573E-01 -1.37266165108E-03 +8.38751327782E-04 -1.38304011758E-03 +8.26396445478E-04 -3.43902321013E-01 -1.18304600616E-01
1.55000000000E+09 -2.67385533994E-01 -9.67380103210E-02 -8.17628848589E-04 +9.39782080602E-04 -8.48945199800E-04 +9.19686943441E-04 -4.33534225897E-01 -7.73954581772E-02
1.55500000000E+09 -3.55690487570E-01 -4.80065407360E-02 -5.30058255665E-04 +5.56080845007E-04 -5.02361639729E-04 +5.12506700043E-04 -5.06658069913E-01 -2.44821579584E-02
1.56000000000E+09 -4.26938440317E-01 +8.33391764332E-03 -8.17453680228E-04 +2.25004943876E-04 -8.38206289549E-04 +1.75632882638E-04 -5.64325610248E-01 +3.34621032541E-02
1.56500000000E+09 -4.82259197980E-01 +6.67210537580E-02 -9.01030898717E-04 +8.97642457301E-04 -9.54285377679E-04 +9.12393800206E-04 -6.07937240587E-01 +9.41714751908E-02
1.57000000000E+09 -5.22797365069E-01 +1.24714873719E-01 -3.06791855067E-04 +1.08069664191E-03 -3.47609302666E-04 +1.10613317967E-03 -6.39404150343E-01 +1.53914491366E-01
