# Hz S RI R 50
! CMT, C1220, 16058040, 17.2.0/1
! Date: 15/08/2018 09:04:58
! Data: Format (Calibration Info)
! Freq                      S11: Re/Im (F2)                       S21: Re/Im (F2)                       S12: Re/Im (F2)                       S22: Re/Im (F2)            
1.00000000000E+09 -6.73259658103E-01 +7.04326667700E-01 -3.15086682205E-05 -8.08416831799E-05 -2.18548054550E-05 -3.35416971854E-05 -7.11813088962E-01 +6.69761424497E-01
1.00500000000E+09 -6.67612992059E-01 +7.11189911154E-01 -3.14103640789E-05 -3.48131063861E-05 -2.24177536323E-05 -1.04044498124E-05 -7.08170666650E-01 +6.73092525150E-01
1.01000000000E+09 -6.63928099815E-01 +7.16500171027E-01 +2.03350081298E-06 -1.89745769509E-06 -3.82085072950E-05 +1.60948547171E-05 -7.04370508426E-01 +6.76568555092E-01
1.01500000000E+09 -6.62416380338E-01 +7.20047310246E-01 -1.88892654056E-05 -2.49777049201E-05 -2.97764585381E-06 -9.11563060588E-07 -7.00239632010E-01 +6.80482256848E-01
1.02000000000E+09 -6.61880163570E-01 +7.21756691010E-01 +8.77012518095E-07 -5.71259014858E-05 -8.03072137525E-05 -4.81946522785E-05 -6.96016603274E-01 +6.84660940556E-01
1.02500000000E+09 -6.61687289299E-01 +7.22273722964E-01 +2.78895630068E-06 +1.17852914519E-05 -5.23106905417E-05 +1.04445397436E-05 -6.92565096198E-01 +6.88731469480E-01
1.03000000000E+09 -6.60624200222E-01 +7.22437024928E-01 -4.80157170291E-05 +2.33567811711E-05 -1.04924009712E-04 -7.20736749635E-06 -6.89014244492E-01 +6.92540161420E-01
1.03500000000E+09 -6.57547227780E-01 +7.23269403971E-01 +7.37658540815E-06 -3.77581849310E-05 -7.66856025353E-05 -2.24463559182E-05 -6.85359114175E-01 +6.95698752406E-01
1.04000000000E+09 -6.52311247258E-01 +7.25989632408E-01 -8.86052768033E-05 -6.58044667529E-06 -2.25409026828E-05 +2.64761687945E-05 -6.81467940529E-01 +6.98732450415E-01
1.04500000000E+09 -6.44936340715E-01 +7.30796988465E-01 -5.90199824744E-05 -5.98202359484E-06 -2.48513232415E-05 +2.70493808772E-05 -6.77490461666E-01 +7.02055203989E-01
1.05000000000E+09 -6.35869536794E-01 +7.37271814599E-01 -6.07106828942E-05 +2.27449788033E-05 -2.71436629276E-05 +2.45173761560E-05 -6.73088778167E-01 +7.05976087669E-01
1.05500000000E+09 -6.26594150778E-01 +7.44871556486E-01 -4.15553689961E-05 +5.75759874809E-06 -6.97906890591E-06 +1.37587532908E-05 -6.68689774723E-01 +7.09958719030E-01
1.06000000000E+09 -6.18025572352E-01 +7.52708236397E-01 -4.13311115643E-05 -5.25442371996E-06 -3.46383183840E-05 +8.39037138030E-06 -6.64839988958E-01 +7.14318693487E-01
1.06500000000E+09 -6.11558935782E-01 +7.59562913281E-01 -5.72919662065E-05 +1.26922841482E-05 -2.49221690860E-05 +9.15993913843E-06 -6.60880715903E-01 +7.17789478445E-01
1.07000000000E+09 -6.07528447473E-01 +7.64597497420E-01 -7.99780688230E-05 +2.56428480351E-05 -5.24326742293E-05 +1.26995007863E-05 -6.56995303652E-01 +7.20837877127E-01
1.07500000000E+09 -6.05839377586E-01 +7.67671201985E-01 -4.85450526105E-05 -1.45155612243E-05 -7.09351742681E-05 -3.86928452932E-05 -6.52720906352E-01 +7.23906120081E-01
1.08000000000E+09 -6.05757199668E-01 +7.69037185772E-01 -8.48006328629E-05 +2.38978124777E-06 -8.81473375924E-06 +4.69773027015E-05 -6.48166929810E-01 +7.27648944617E-01
1.08500000000E+09 -6.06043402944E-01 +7.69084542490E-01 -6.61640898154E-05 -2.73950781017E-06 -1.06064109456E-04 +8.13432393730E-06 -6.43268974006E-01 +7.31606057150E-01
1.09000000000E+09 -6.05603171609E-01 +7.68618110955E-01 -5.07073924567E-05 +9.23441910359E-06 -7.93181276676E-05 +3.06026625564E-05 -6.38490894620E-01 +7.35842654540E-01
1.09500000000E+09 -6.03852423891E-01 +7.68851693512E-01 -1.69755097081E-05 -2.05464846372E-05 -9.73967479142E-05 +5.82837834506E-05 -6.34301562917E-01 +7.39719386624E-01
1.10000000000E+09 -5.99402756565E-01 +7.70416848364E-01 -8.33791389039E-05 +1.84432493897E-05 -9.73757574756E-05 +5.00203349524E-06 -6.30305933662E-01 +7.43092064876E-01
1.10500000000E+09 -5.93158941886E-01 +7.74302518300E-01 -8.13151154840E-05 +3.04761825437E-05 -8.94694160183E-05 +2.64616109066E-05 -6.26227121972E-01 +7.45984740536E-01
1.11000000000E+09 -5.85140121408E-01 +7.79606108643E-01 -1.02002819492E-04 +3.94558513672E-05 -9.27547699036E-05 +1.83958895717E-06 -6.21823305088E-01 +7.48956998264E-01
1.11500000000E+09 -5.76632627660E-01 +7.86197867646E-01 -1.20959427533E-04 +4.42091121619E-05 -1.16724537732E-04 +2.27032362132E-05 -6.17142411731E-01 +7.52485060857E-01
1.12000000000E+09 -5.68822161735E-01 +7.92726370588E-01 -1.14578694104E-04 +5.22399551284E-05 -1.51895339967E-04 +2.60212934674E-05 -6.12035387325E-01 +7.56533083631E-01
1.12500000000E+09 -5.62058710106E-01 +7.98463933945E-01 -1.25021529805E-04 +3.41150657327E-05 -1.51381326749E-04 +2.49144765174E-05 -6.06708600267E-01 +7.60716225551E-01
1.13000000000E+09 -5.57520376375E-01 +8.02602534487E-01 -1.35939146982E-04 +4.07711181879E-05 -1.32131876469E-04 +2.67435823143E-05 -6.01839380566E-01 +7.64360427662E-01
1.13500000000E+09 -5.54576546828E-01 +8.04592742563E-01 -1.56473325359E-04 +5.25163172526E-05 -7.92681430754E-05 +1.07946133867E-04 -5.97460872359E-01 +7.67671812043E-01
1.14000000000E+09 -5.52501500616E-01 +8.05411543270E-01 -1.27413184820E-04 +7.84385442986E-05 -1.15006415837E-04 +9.38705665559E-05 -5.93054506229E-01 +7.70648702679E-01
1.14500000000E+09 -5.50575639943E-01 +8.04885213970E-01 -1.19027309236E-04 +9.52737488709E-05 -1.71303092168E-04 +1.23413955780E-04 -5.88167616115E-01 +7.73733887682E-01
1.15000000000E+09 -5.47240771484E-01 +8.04567139548E-01 -1.45815659794E-04 +1.83311089053E-04 -1.94320515717E-04 +1.44456072010E-04 -5.82497939455E-01 +7.77506989605E-01
1.15500000000E+09 -5.42290854682E-01 +8.05352118255E-01 -1.51815076942E-04 +1.24111558635E-04 -1.64903153486E-04 +1.47416096354E-04 -5.76528200962E-01 +7.81464149455E-01
1.16000000000E+09 -5.35073566777E-01 +8.07668013745E-01 -1.25355135462E-04 +1.47679744870E-04 -1.09346767478E-04 +1.27175407447E-04 -5.70920891366E-01 +7.85481247722E-01
1.16500000000E+09 -5.25969549752E-01 +8.12294126908E-01 -1.00865487589E-04 +1.97660855681E-04 -1.50401243693E-04 +2.22644161383E-04 -5.65598965602E-01 +7.88906720316E-01
1.17000000000E+09 -5.15917988514E-01 +8.18462527241E-01 -1.14615690366E-04 +1.94816135646E-04 -1.38440263540E-04 +2.09805032234E-04 -5.60552977428E-01 +7.91755693950E-01
1.17500000000E+09 -5.05901309624E-01 +8.25661541501E-01 -1.16432091341E-04 +2.52195507055E-04 -1.51529506809E-04 +2.69710263590E-04 -5.55108163631E-01 +7.94423446956E-01
1.18000000000E+09 -4.97072033653E-01 +8.32680853717E-01 -9.39421107280E-05 +2.28232689930E-04 -1.03168855001E-04 +2.55069305856E-04 -5.49370101806E-01 +7.97132596559E-01
1.18500000000E+09 -4.90164055918E-01 +8.38311632914E-01 -5.35962180889E-05 +2.38827439478E-04 -6.85968342783E-05 +2.74360200192E-04 -5.42723519602E-01 +8.00174902091E-01
1.19000000000E+09 -4.85505850666E-01 +8.42035683532E-01 -1.23462119343E-04 +2.21794369296E-04 -3.92522858209E-05 +2.10727430718E-04 -5.35452929779E-01 +8.03156188049E-01
1.19500000000E+09 -4.82831632251E-01 +8.43426614853E-01 -1.44208208886E-04 +1.83996698777E-04 -6.93098139366E-05 +1.78294672508E-04 -5.28759368952E-01 +8.04448461050E-01
1.20000000000E+09 -4.81704488035E-01 +8.42558523053E-01 -2.63416200203E-04 +2.44781795360E-04 -1.74607136121E-04 +2.76403045590E-04 -5.23526485715E-01 +8.04374282729E-01
1.20500000000E+09 -4.80398217527E-01 +8.41450618128E-01 -2.72215904282E-04 +4.16265456314E-04 -2.68602300346E-04 +4.11317065127E-04 -5.21190576347E-01 +8.04223382217E-01
1.21000000000E+09 -4.77683723133E-01 +8.40600842887E-01 -1.43023886962E-04 +5.40147089659E-04 -1.45684758314E-04 +5.71975521418E-04 -5.19510518708E-01 +8.06096091376E-01
1.21500000000E+09 -4.72288210105E-01 +8.41199379662E-01 -2.62980848401E-05 +5.76570380074E-04 -2.36998146056E-05 +5.88884357309E-04 -5.16495694415E-01 +8.10579441345E-01
1.22000000000E+09 -4.64345537992E-01 +8.43484807891E-01 +1.03120512903E-04 +5.66212704467E-04 +1.04824297981E-04 +5.82398080406E-04 -5.11037969527E-01 +8.16249646624E-01
1.22500000000E+09 -4.53881102382E-01 +8.48075661584E-01 +1.99429621658E-04 +4.57856313618E-04 +1.75747144266E-04 +5.46701850815E-04 -5.04694720467E-01 +8.21697058385E-01
1.23000000000E+09 -4.42502834302E-01 +8.54183085916E-01 +1.69153148567E-04 +4.72107167321E-04 +2.78725980770E-04 +5.28694807373E-04 -4.98265560929E-01 +8.26339907381E-01
1.23500000000E+09 -4.31443322032E-01 +8.61285105229E-01 +1.90044308577E-04 +4.95490057950E-04 +2.39285673011E-04 +4.83763091668E-04 -4.92690048993E-01 +8.30335448893E-01
1.24000000000E+09 -4.21631597656E-01 +8.68189130209E-01 +2.77572493949E-04 +5.35199625147E-04 +2.72081472099E-04 +4.35475363772E-04 -4.87178341237E-01 +8.33517008071E-01
1.24500000000E+09 -4.14330873409E-01 +8.74057875777E-01 +2.76199373485E-04 +4.41161696051E-04 +2.90661050554E-04 +3.93292045912E-04 -4.81030250376E-01 +8.36773672994E-01
1.25000000000E+09 -4.09354664039E-01 +8.77957720135E-01 +2.87240455154E-04 +4.70577395761E-04 +2.52072010008E-04 +4.52959434256E-04 -4.73834261111E-01 +8.40459388748E-01
1.25500000000E+09 -4.06325548066E-01 +8.79482032365E-01 +3.52725099191E-04 +4.26028520748E-04 +3.11731050559E-04 +4.35375537752E-04 -4.65535882177E-01 +8.44477045149E-01
1.26000000000E+09 -4.04223515140E-01 +8.79456396446E-01 +3.26732702254E-04 +4.44001039098E-04 +3.23388468069E-04 +4.69728966654E-04 -4.57477887980E-01 +8.48749758428E-01
1.26500000000E+09 -4.01364862068E-01 +8.78511461569E-01 +3.60545520446E-04 +4.88815268117E-04 +4.00318933018E-04 +5.17827241353E-04 -4.49906316145E-01 +8.52298271812E-01
1.27000000000E+09 -3.96467003844E-01 +8.77633712657E-01 +4.48855366482E-04 +5.06502300023E-04 +4.48248864659E-04 +5.37150865068E-04 -4.43193994223E-01 +8.55496538902E-01
1.27500000000E+09 -3.88404838905E-01 +8.78160804264E-01 +5.06924779692E-04 +4.51871530408E-04 +5.48747522024E-04 +5.11925210807E-04 -4.36732705829E-01 +8.58399144436E-01
1.28000000000E+09 -3.77034948703E-01 +8.80418189138E-01 +6.12287160652E-04 +4.10953381729E-04 +6.37243263245E-04 +4.66558733508E-04 -4.29783166553E-01 +8.61337786223E-01
1.28500000000E+09 -3.62674285370E-01 +8.84591141163E-01 +5.73952784639E-04 +3.73144208470E-04 +6.22298805277E-04 +4.10462660753E-04 -4.21407995011E-01 +8.64585271869E-01
1.29000000000E+09 -3.47214739153E-01 +8.90445108474E-01 +6.03873155085E-04 +3.90688119388E-04 +6.87572012580E-04 +4.00026883942E-04 -4.12361589153E-01 +8.68035047289E-01
1.29500000000E+09 -3.32043042672E-01 +8.96835174611E-01 +6.36455714973E-04 +3.68437083468E-04 +7.58943234525E-04 +3.47683251728E-04 -4.03265844385E-01 +8.71344870789E-01
1.30000000000E+09 -3.18851166741E-01 +9.02906493090E-01 +7.04824176371E-04 +3.99827367265E-04 +7.59858913348E-04 +3.18533035563E-04 -3.94883011652E-01 +8.74514808660E-01
1.30500000000E+09 -3.08952235664E-01 +9.07626587753E-01 +8.30066084790E-04 +3.62705212203E-04 +8.23542797180E-04 +3.05490103801E-04 -3.87334346489E-01 +8.77358808509E-01
1.31000000000E+09 -3.02639911865E-01 +9.10552237980E-01 +8.81289839395E-04 +2.44715615820E-04 +8.52181680044E-04 +2.41994189408E-04 -3.79528303945E-01 +8.80095104137E-01
1.31500000000E+09 -2.99262844140E-01 +9.12069959421E-01 +8.71139342636E-04 +2.08360737882E-04 +8.53671504875E-04 +2.33752577870E-04 -3.70678833504E-01 +8.82724817595E-01
1.32000000000E+09 -2.96972683177E-01 +9.11871175219E-01 +8.62966836067E-04 +2.26285622084E-04 +9.31473362591E-04 +2.34108725431E-04 -3.60455970447E-01 +8.85596607715E-01
1.32500000000E+09 -2.94003700547E-01 +9.10937446879E-01 +9.25141474674E-04 +2.06223975004E-04 +1.00873206978E-03 +1.99011711692E-04 -3.49427287055E-01 +8.88360462886E-01
1.33000000000E+09 -2.88441840579E-01 +9.10144151279E-01 +9.89688681598E-04 +2.39594270135E-04 +1.03201815593E-03 +2.03123861966E-04 -3.38676657154E-01 +8.91386879075E-01
1.33500000000E+09 -2.79336204166E-01 +9.10016453554E-01 +1.13998022465E-03 +2.37668262090E-04 +1.12221644558E-03 +1.21684797834E-04 -3.28618308766E-01 +8.94134140553E-01
1.34000000000E+09 -2.65960136920E-01 +9.11068563601E-01 +1.27346873072E-03 +1.22799158695E-04 +1.26041164676E-03 +5.93697846941E-05 -3.19088595036E-01 +8.96476316152E-01
1.34500000000E+09 -2.49146522239E-01 +9.13519502748E-01 +1.35548717859E-03 -2.49223341156E-05 +1.29022631439E-03 -2.90117236030E-05 -3.08955312699E-01 +8.98943767150E-01
1.35000000000E+09 -2.30166838190E-01 +9.16492436556E-01 +1.32920142552E-03 -1.10225512488E-04 +1.33347252494E-03 -9.95182105495E-05 -2.97833915104E-01 +9.01036894442E-01
1.35500000000E+09 -2.11242678701E-01 +9.20058709898E-01 +1.34795367785E-03 -1.86557089236E-04 +1.37359679714E-03 -1.95487876849E-04 -2.85205908019E-01 +9.02851049709E-01
1.36000000000E+09 -1.93946345833E-01 +9.22933301478E-01 +1.42227818815E-03 -1.79620080407E-04 +1.36857432308E-03 -1.98848384056E-04 -2.71808824209E-01 +9.04743804938E-01
1.36500000000E+09 -1.79324866212E-01 +9.24903796642E-01 +1.57693578655E-03 -2.84617241567E-04 +1.50008672341E-03 -2.69627038010E-04 -2.58730020804E-01 +9.06478504365E-01
1.37000000000E+09 -1.67911456133E-01 +9.25440262563E-01 +1.64857700022E-03 -4.85886841658E-04 +1.59165481351E-03 -3.66516937582E-04 -2.45948481097E-01 +9.08235223948E-01
1.37500000000E+09 -1.58688145746E-01 +9.24929788993E-01 +1.62157897941E-03 -6.25110021380E-04 +1.66141127932E-03 -4.08546495388E-04 -2.33090181760E-01 +9.09599449863E-01
1.38000000000E+09 -1.50270826428E-01 +9.23324153465E-01 +1.64827307791E-03 -7.15499350323E-04 +1.79277500535E-03 -5.09478272779E-04 -2.19266553414E-01 +9.10563380132E-01
1.38500000000E+09 -1.40469770997E-01 +9.20930517780E-01 +1.68739825772E-03 -7.63367844591E-04 +2.01521702517E-03 -6.69545793423E-04 -2.03779306695E-01 +9.11006335498E-01
1.39000000000E+09 -1.28201563273E-01 +9.18268716461E-01 +1.75844685735E-03 -8.19236377498E-04 +2.08059977722E-03 -9.27625856879E-04 -1.87000297494E-01 +9.10955985021E-01
1.39500000000E+09 -1.11924198681E-01 +9.15622814446E-01 +1.98852366354E-03 -8.71280371117E-04 +2.14785457603E-03 -1.11135840659E-03 -1.69351540057E-01 +9.10598223963E-01
1.40000000000E+09 -9.15824033750E-02 +9.12947219051E-01 +2.29496643214E-03 -1.14466974348E-03 +2.20373106982E-03 -1.35229542875E-03 -1.51591847212E-01 +9.09774664626E-01
1.40500000000E+09 -6.84057326739E-02 +9.10732234334E-01 +2.44989943852E-03 -1.52593383653E-03 +2.27763841012E-03 -1.58826103551E-03 -1.33714689366E-01 +9.08655449741E-01
1.41000000000E+09 -4.35500577638E-02 +9.08086763923E-01 +2.39179210464E-03 -1.91708938687E-03 +2.37691701182E-03 -1.86192508487E-03 -1.15033716197E-01 +9.06971732661E-01
1.41500000000E+09 -1.89508445916E-02 +9.04773327712E-01 +2.20927562420E-03 -2.06958468413E-03 +2.47387583835E-03 -2.11081989419E-03 -9.48062418353E-02 +9.04175004169E-01
1.42000000000E+09 +4.23422400482E-03 +9.00300180660E-01 +2.42589310987E-03 -2.23840513005E-03 +2.70180722397E-03 -2.45690484446E-03 -7.23294607710E-02 +8.99880630611E-01
1.42500000000E+09 +2.50694372515E-02 +8.94313996770E-01 +2.54020122431E-03 -2.51519977296E-03 +2.81012746233E-03 -2.94797304375E-03 -4.82228671577E-02 +8.94181828790E-01
1.43000000000E+09 +4.39100981736E-02 +8.86477017610E-01 +2.90878136235E-03 -2.94827056118E-03 +2.96220511743E-03 -3.51511417825E-03 -2.27883249137E-02 +8.87787770790E-01
1.43500000000E+09 +6.23459597833E-02 +8.76365699533E-01 +3.19850618225E-03 -3.86885392213E-03 +2.97582412205E-03 -4.33858285163E-03 +3.15802471774E-03 +8.79439596511E-01
1.44000000000E+09 +8.18267618082E-02 +8.64275430195E-01 +2.91838500084E-03 -4.87845240652E-03 +2.63729440160E-03 -5.20887633276E-03 +2.93888411330E-02 +8.69857342693E-01
1.44500000000E+09 +1.04374404171E-01 +8.49687833406E-01 +2.31422235835E-03 -5.59466547281E-03 +2.02297193957E-03 -5.86754265135E-03 +5.71633834905E-02 +8.58116825585E-01
1.45000000000E+09 +1.31184465683E-01 +8.32119315109E-01 +2.06151011220E-03 -6.04654593014E-03 +1.65116297579E-03 -6.40553952896E-03 +8.70391584620E-02 +8.42237098815E-01
1.45500000000E+09 +1.62229629154E-01 +8.11730908678E-01 +1.89421881944E-03 -6.80737671994E-03 +1.24706933701E-03 -7.11142900337E-03 +1.18209412985E-01 +8.22539105847E-01
1.46000000000E+09 +1.97305960846E-01 +7.87697125734E-01 +1.48063446575E-03 -8.04914059431E-03 +6.09301726966E-04 -7.78564472358E-03 +1.51431059699E-01 +7.99156079355E-01
1.46500000000E+09 +2.34239577842E-01 +7.59163285179E-01 +7.18455435964E-04 -9.24472855475E-03 +9.23698025340E-05 -8.44661445401E-03 +1.85764155161E-01 +7.70804015787E-01
1.47000000000E+09 +2.69779090420E-01 +7.25919091139E-01 -6.17161466733E-04 -1.04255447695E-02 -5.32704623212E-04 -9.50268250943E-03 +2.20338883787E-01 +7.36973068259E-01
1.47500000000E+09 +3.02014261184E-01 +6.88204083138E-01 -2.10169494968E-03 -1.11992487072E-02 -1.54519933195E-03 -1.07628476998E-02 +2.54632925886E-01 +6.96519521020E-01
1.48000000000E+09 +3.29779455098E-01 +6.45395579032E-01 -3.57249843112E-03 -1.22723965522E-02 -3.26836344265E-03 -1.24526749270E-02 +2.87436534590E-01 +6.47269401615E-01
1.48500000000E+09 +3.52728051877E-01 +5.95871778312E-01 -5.75310565555E-03 -1.33524358050E-02 -6.14873807276E-03 -1.36550448430E-02 +3.17510476038E-01 +5.88850004412E-01
1.49000000000E+09 +3.70598552927E-01 +5.37464774622E-01 -8.47410711726E-03 -1.45118471433E-02 -9.27720817840E-03 -1.39713047232E-02 +3.42374217304E-01 +5.20239674320E-01
1.49500000000E+09 +3.82000358302E-01 +4.69272872342E-01 -1.28470176192E-02 -1.49093634221E-02 -1.28817123741E-02 -1.36343183111E-02 +3.58445138274E-01 +4.41799297384E-01
1.50000000000E+09 +3.85999479609E-01 +3.89131661652E-01 -1.77148555469E-02 -1.38839305347E-02 -1.66819540330E-02 -1.29290121809E-02 +3.61642427589E-01 +3.54726159197E-01
1.50500000000E+09 +3.77368593628E-01 +2.98195647263E-01 -2.31057158643E-02 -1.06820847062E-02 -2.17167265688E-02 -1.08908094692E-02 +3.49212511476E-01 +2.61357245777E-01
1.51000000000E+09 +3.53735529706E-01 +2.02697999001E-01 -2.67038572236E-02 -5.41145899571E-03 -2.60520910860E-02 -6.35737726994E-03 +3.16600019629E-01 +1.63984940336E-01
1.51500000000E+09 +3.13792831145E-01 +1.07528928093E-01 -2.96372535280E-02 +4.64046957996E-04 -2.97169644373E-02 -3.93678435489E-04 +2.61676273783E-01 +6.80812025462E-02
1.52000000000E+09 +2.54916189772E-01 +1.85438246420E-02 -3.07772464111E-02 +8.31060571522E-03 -3.11580511599E-02 +7.81023486607E-03 +1.84251871106E-01 -1.75761485627E-02
1.52500000000E+09 +1.77184040257E-01 -5.54624239830E-02 -2.85796654660E-02 +1.65527203720E-02 -2.89591625437E-02 +1.63932944032E-02 +8.76474184481E-02 -8.68161258409E-02
1.53000000000E+09 +8.54545373301E-02 -1.09104988663E-01 -2.35453001303E-02 +2.31706503489E-02 -2.38748115211E-02 +2.31790234352E-02 -2.17705451292E-02 -1.30868165873E-01
1.53500000000E+09 -1.66362558067E-02 -1.40909506198E-01 -1.74703218187E-02 +2.79530929933E-02 -1.76081936892E-02 +2.80002529872E-02 -1.35852327928E-01 -1.49952096840E-01
1.54000000000E+09 -1.26090398202E-01 -1.49193369011E-01 -9.99109392890E-03 +3.09897172335E-02 -1.01762766446E-02 +3.07810066462E-02 -2.47258228731E-01 -1.43106140568E-01
1.54500000000E+09 -2.34186170680E-01 -1.33615553663E-01 -2.32232575518E-03 +3.14386339324E-02 -2.91269753152E-03 +3.11218194525E-02 -3.47630671993E-01 -1.15638615280E-01
1.55000000000E+09 -3.34538492827E-01 -9.97121942082E-02 +4.90944858057E-03 +2.90496305186E-02 +3.85313168114E-03 +2.92724513906E-02 -4.36025588332E-01 -7.42912774175E-02
1.55500000000E+09 -4.22076703510E-01 -5.22732956673E-02 +1.00190481087E-02 +2.49368936069E-02 +9.12060947241E-03 +2.59280763407E-02 -5.08177043660E-01 -2.16508801859E-02
1.56000000000E+09 -4.93824161762E-01 +1.32440351401E-03 +1.28102623240E-02 +2.06104543644E-02 +1.27224629258E-02 +2.20146124349E-02 -5.64764215696E-01 +3.60781667653E-02
1.56500000000E+09 -5.50292291122E-01 +5.75385375164E-02 +1.46467572113E-02 +1.69014979285E-02 +1.52915209344E-02 +1.80943400854E-02 -6.07698968218E-01 +9.62466885274E-02
1.57000000000E+09 -5.92559058341E-01 +1.13531186661E-01 +1.56754342303E-02 +1.31857903411E-02 +1.68915776881E-02 +1.38663864449E-02 -6.38807771098E-01 +1.55232328746E-01
