# Hz S RI R 50
! CMT, C1220, 16058040, 17.2.0/1
! Date: 15/08/2018 09:00:43
! Data: Format (Calibration Info)
! Freq                      S11: Re/Im (F2)                       S21: Re/Im (F2)                       S12: Re/Im (F2)                       S22: Re/Im (F2)            
1.00000000000E+09 -6.70423793983E-01 +6.94729929111E-01 -2.52095219657E-05 -2.74131777796E-05 -1.06950303440E-05 +1.12071790667E-05 -7.10929190178E-01 +6.71570964958E-01
1.00500000000E+09 -6.63508923221E-01 +7.02709631315E-01 +2.16069654324E-05 +1.20781013395E-05 -1.40481245989E-05 -5.01719151284E-05 -7.07389422104E-01 +6.75015387841E-01
1.01000000000E+09 -6.59371172232E-01 +7.08751352094E-01 +3.23543963795E-05 -1.60837120472E-05 -1.22374667797E-05 -2.88239226010E-05 -7.03522884494E-01 +6.78429343806E-01
1.01500000000E+09 -6.58260446137E-01 +7.12563157158E-01 +1.49272905347E-05 +3.96677850083E-06 +5.42453437960E-05 -4.61556740721E-05 -6.99483859284E-01 +6.82312517394E-01
1.02000000000E+09 -6.58645274113E-01 +7.14193282922E-01 -2.17520081640E-05 -8.21227749714E-06 -1.04876898569E-05 -4.31564146650E-05 -6.95191438257E-01 +6.86507263818E-01
1.02500000000E+09 -6.59524416131E-01 +7.14513034079E-01 +3.55524913165E-05 +8.06184719980E-06 +1.17273436763E-05 +6.31759954616E-07 -6.91790727466E-01 +6.90520650236E-01
1.03000000000E+09 -6.59813085476E-01 +7.14032925691E-01 +3.44140400964E-05 +1.01447246749E-05 -2.17498515278E-05 +4.10792962556E-06 -6.87950122578E-01 +6.94245925655E-01
1.03500000000E+09 -6.57751021529E-01 +7.14204034058E-01 -4.21392200293E-06 -9.01188411330E-06 -1.17612799750E-05 +1.93936201962E-05 -6.84319505312E-01 +6.97469915722E-01
1.04000000000E+09 -6.53143297405E-01 +7.16187180451E-01 -1.58732881663E-05 -1.01005857832E-05 +2.20072069909E-05 -5.40664389083E-05 -6.80745350722E-01 +7.00276906618E-01
1.04500000000E+09 -6.45783718887E-01 +7.19991673678E-01 +6.32930366972E-05 -2.63677005724E-05 +5.46511008482E-05 +2.30524434328E-07 -6.76652247643E-01 +7.03804920202E-01
1.05000000000E+09 -6.36405668700E-01 +7.26253342988E-01 -1.55840091784E-05 -3.29069543186E-05 +3.33499133532E-05 -5.59601706617E-06 -6.72175231538E-01 +7.07640371588E-01
1.05500000000E+09 -6.26201466580E-01 +7.33761826747E-01 -9.11231763849E-06 -5.30213959656E-05 -5.03328963490E-06 -7.02899914343E-05 -6.67726500732E-01 +7.11838393274E-01
1.06000000000E+09 -6.16532873463E-01 +7.41505331493E-01 +3.76656813878E-05 +8.46849968017E-06 +2.77665678553E-05 +1.97819345288E-05 -6.63725429814E-01 +7.16034891937E-01
1.06500000000E+09 -6.08843765941E-01 +7.48694232949E-01 -1.67288467211E-05 -5.99671536116E-06 -1.72480687313E-05 -9.03877938794E-06 -6.59684105956E-01 +7.19440149671E-01
1.07000000000E+09 -6.03732734138E-01 +7.53855407850E-01 +4.12847046029E-05 -3.88549665941E-05 -6.33500443701E-05 -2.03953247717E-05 -6.55956647320E-01 +7.22671855185E-01
1.07500000000E+09 -6.01201361833E-01 +7.56904291034E-01 -1.95478091304E-05 -4.23036613073E-05 -1.86109365693E-05 -2.40623679080E-05 -6.51574873348E-01 +7.25670871959E-01
1.08000000000E+09 -6.00519310867E-01 +7.58296698690E-01 -2.91214482866E-05 -4.13911890202E-05 -7.96179070995E-06 +2.41928775711E-05 -6.47327440399E-01 +7.29349885736E-01
1.08500000000E+09 -6.00254981662E-01 +7.58056817538E-01 -5.37566944521E-05 -4.93610512971E-05 +7.94451171578E-07 -3.15383722224E-05 -6.42248068205E-01 +7.33316983240E-01
1.09000000000E+09 -5.99345954500E-01 +7.57566390152E-01 +1.21276212309E-05 -2.33362477530E-06 -3.50560590833E-05 -5.30899371466E-05 -6.37547401516E-01 +7.37584085972E-01
1.09500000000E+09 -5.96994643192E-01 +7.57660478492E-01 -4.90230588722E-05 +2.87809769738E-08 -1.52244662457E-05 -4.15599194233E-05 -6.32974846002E-01 +7.41611807810E-01
1.10000000000E+09 -5.92064882003E-01 +7.59351406561E-01 -2.33917369983E-05 +2.78117748098E-06 -5.58331193007E-05 -7.96996537508E-05 -6.29190841804E-01 +7.45013692772E-01
1.10500000000E+09 -5.84766088459E-01 +7.63224103860E-01 -1.59814304626E-05 -9.36326387770E-05 -3.67614793044E-05 -7.07145304087E-05 -6.25149057626E-01 +7.47923850918E-01
1.11000000000E+09 -5.75861784240E-01 +7.69017274471E-01 +2.86810637312E-06 -6.03327065609E-05 -2.39225177919E-05 -3.03035646822E-05 -6.20790310861E-01 +7.50730490691E-01
1.11500000000E+09 -5.66312727165E-01 +7.76050480286E-01 -1.27575238194E-05 -1.41015100957E-05 -2.07271939782E-05 -5.04272283118E-05 -6.16088440479E-01 +7.54155534558E-01
1.12000000000E+09 -5.57605865667E-01 +7.82919766721E-01 -3.01490561444E-05 -9.78749037175E-06 -3.74889742745E-05 -8.10521574676E-06 -6.10779212724E-01 +7.58217316411E-01
1.12500000000E+09 -5.50268616767E-01 +7.89045529207E-01 -6.86328512367E-06 -4.98882628259E-05 -2.79237234047E-05 -9.39724815932E-06 -6.05492592517E-01 +7.62369013522E-01
1.13000000000E+09 -5.45286336938E-01 +7.93058725284E-01 -4.67385711832E-05 -4.91925124081E-05 -5.23528941007E-05 -2.15740323100E-05 -6.00579959932E-01 +7.66130979089E-01
1.13500000000E+09 -5.42277445426E-01 +7.94775535220E-01 -4.45077971960E-05 -1.78977261632E-05 -5.70656466140E-05 -8.29825264414E-06 -5.96221903270E-01 +7.69521420014E-01
1.14000000000E+09 -5.40100552483E-01 +7.94956829137E-01 -8.70180046468E-05 +2.41619112756E-05 -6.30714299080E-05 -9.38914374708E-06 -5.91506236432E-01 +7.72303495191E-01
1.14500000000E+09 -5.37980839175E-01 +7.93703811963E-01 -6.98986976694E-05 -2.29766785660E-05 -7.46157108914E-05 -4.19320097290E-05 -5.86822235620E-01 +7.75356292047E-01
1.15000000000E+09 -5.34413322197E-01 +7.92502487583E-01 -8.05072646890E-05 +2.87556889195E-06 -6.62482722251E-05 -1.79847679029E-05 -5.81324883130E-01 +7.79071107205E-01
1.15500000000E+09 -5.28682764120E-01 +7.92437108861E-01 -7.35724171515E-05 +7.54280072322E-06 -7.82964981964E-05 +1.41485434914E-06 -5.75378267586E-01 +7.83119255361E-01
1.16000000000E+09 -5.20324797026E-01 +7.94120603825E-01 -1.26377720848E-05 +6.90213273308E-06 -3.24568812051E-05 -2.71432226810E-06 -5.69449568658E-01 +7.87196534200E-01
1.16500000000E+09 -5.09842965021E-01 +7.98381378011E-01 -7.70303305052E-05 -4.59519698888E-05 -5.22068788596E-05 -4.39000231479E-06 -5.64426355400E-01 +7.90576210505E-01
1.17000000000E+09 -4.98127588349E-01 +8.04611346656E-01 -3.21326705556E-05 -3.76394005398E-05 -1.02430850492E-04 -2.35602540283E-05 -5.59145248157E-01 +7.93598928209E-01
1.17500000000E+09 -4.86653848597E-01 +8.11702063731E-01 -2.68721766441E-05 +2.90725593349E-06 -1.01887025261E-04 +1.55762185103E-05 -5.53730660825E-01 +7.96148014033E-01
1.18000000000E+09 -4.77170859950E-01 +8.18935348250E-01 -9.97940289815E-05 +2.20377058462E-05 -6.82779164380E-05 +2.99829190291E-05 -5.47918415587E-01 +7.98947176394E-01
1.18500000000E+09 -4.69990070140E-01 +8.24862081131E-01 -9.48363750556E-05 +7.42852441477E-05 -3.47356928686E-05 +6.34111024356E-05 -5.41245541145E-01 +8.02004587289E-01
1.19000000000E+09 -4.65731376871E-01 +8.28507594567E-01 -1.05634878130E-04 +2.17520527540E-05 -7.40325502034E-05 +2.86394479171E-05 -5.33939213910E-01 +8.04769354983E-01
1.19500000000E+09 -4.64211525558E-01 +8.29977138922E-01 -1.13944608731E-04 +4.06816922243E-05 -1.28435250348E-04 +2.53051204787E-06 -5.27322273830E-01 +8.06057505061E-01
1.20000000000E+09 -4.64169017277E-01 +8.28817995928E-01 -1.10944014532E-04 +1.10533765326E-04 -1.12166477298E-04 +9.18899389033E-05 -5.22266008407E-01 +8.06044388628E-01
1.20500000000E+09 -4.64072883827E-01 +8.27007036902E-01 -7.78529268160E-05 +1.45334354796E-04 -1.15818574516E-04 +9.63013119228E-05 -5.19764858356E-01 +8.05918649648E-01
1.21000000000E+09 -4.62119362616E-01 +8.25460204869E-01 +3.54637407457E-05 +1.16341150082E-04 +3.61102167416E-05 +8.95232576145E-05 -5.18205238199E-01 +8.08023611358E-01
1.21500000000E+09 -4.56888320377E-01 +8.25100332075E-01 -1.22251034497E-05 +1.95110873089E-05 -2.86148114821E-05 +3.42370543679E-05 -5.14885901488E-01 +8.12245450007E-01
1.22000000000E+09 -4.48196936805E-01 +8.26655451410E-01 +9.36652197257E-06 +5.33649180896E-05 -4.81280812927E-06 +4.82958957469E-05 -5.09690320621E-01 +8.17873430202E-01
1.22500000000E+09 -4.36298727281E-01 +8.30515207236E-01 -1.93643496323E-05 +2.84888764661E-05 -9.22873565367E-05 +2.67724061828E-05 -5.03203650911E-01 +8.23318702120E-01
1.23000000000E+09 -4.22662483273E-01 +8.36374524094E-01 -4.38660771407E-05 +7.87283408199E-05 -6.02703717136E-05 +1.65132965852E-05 -4.96856941620E-01 +8.27946126510E-01
1.23500000000E+09 -4.08822343065E-01 +8.43078178302E-01 -8.29301740957E-05 +5.12484233571E-05 -6.70647456947E-05 +3.12847624143E-05 -4.91147184984E-01 +8.31848751210E-01
1.24000000000E+09 -3.96503863070E-01 +8.49772106162E-01 -5.23671534641E-05 +3.56701569754E-05 -2.61846603087E-05 +1.02501444323E-04 -4.85489655543E-01 +8.35157409834E-01
1.24500000000E+09 -3.86994627685E-01 +8.55481957663E-01 -8.13675912314E-05 +7.23792519121E-05 -7.08330375425E-05 +4.92893086878E-05 -4.79442330325E-01 +8.38461536656E-01
1.25000000000E+09 -3.80566207810E-01 +8.59310459964E-01 -5.19172752613E-05 +9.42634740813E-05 -9.93219096962E-05 +8.89100260371E-05 -4.72088218189E-01 +8.42217106976E-01
1.25500000000E+09 -3.76814737081E-01 +8.60574131792E-01 -2.30867615008E-05 +1.22688729177E-04 -6.30267337428E-05 +1.36284507748E-04 -4.63908208281E-01 +8.46081411080E-01
1.26000000000E+09 -3.74665017978E-01 +8.60378952191E-01 -3.45294605301E-05 +1.25242043048E-04 -6.88774530840E-05 +1.46579176822E-04 -4.55880366658E-01 +8.50314590586E-01
1.26500000000E+09 -3.72625644300E-01 +8.59067108540E-01 +1.80889486621E-05 +1.33286635894E-04 +9.15419910887E-06 +1.29913961252E-04 -4.48229563221E-01 +8.53768422274E-01
1.27000000000E+09 -3.68475824141E-01 +8.57825879653E-01 -5.75618559950E-06 +1.27947594362E-04 +1.18519574847E-05 +1.05668013744E-04 -4.41524731952E-01 +8.57193085141E-01
1.27500000000E+09 -3.61645865149E-01 +8.57888683318E-01 +5.61667873024E-06 +1.13838998627E-04 -2.69427084542E-05 +1.04927410040E-04 -4.34970736693E-01 +8.59998777147E-01
1.28000000000E+09 -3.51091376468E-01 +8.59534043616E-01 +6.10558541125E-05 +1.04978039363E-04 +3.76696113378E-05 +1.54853638843E-04 -4.27973700595E-01 +8.62896625934E-01
1.28500000000E+09 -3.37513147271E-01 +8.63172768803E-01 +3.07805773403E-05 +1.05728190377E-04 +6.55422159896E-05 +9.36874694161E-05 -4.19661477631E-01 +8.66106886893E-01
1.29000000000E+09 -3.22456970486E-01 +8.68306768280E-01 +1.14990472373E-05 +1.13554938173E-04 +4.00283748707E-05 +1.11640568579E-04 -4.10515304883E-01 +8.69570232444E-01
1.29500000000E+09 -3.07508064105E-01 +8.74277615075E-01 +4.76789818240E-05 +1.24216035179E-04 +5.50744597355E-05 +1.28505921463E-04 -4.01455428320E-01 +8.72761570642E-01
1.30000000000E+09 -2.94319052999E-01 +8.79919561874E-01 -5.56907360148E-06 +1.26564794193E-04 -1.21920574885E-05 +1.25108360794E-04 -3.93149154170E-01 +8.76022178700E-01
1.30500000000E+09 -2.84387565405E-01 +8.84293716413E-01 -3.95124516046E-05 +1.56604823687E-04 -3.30100484250E-05 +1.75217197681E-04 -3.85454919938E-01 +8.78881995041E-01
1.31000000000E+09 -2.77784826476E-01 +8.86595336720E-01 -1.64353547904E-05 +1.69008615762E-04 +2.32419672549E-05 +1.73536349688E-04 -3.77609376440E-01 +8.81504133466E-01
1.31500000000E+09 -2.73969803879E-01 +8.87091270561E-01 -4.81303056208E-06 +1.72621959889E-04 +3.74030279670E-05 +1.69708518245E-04 -3.68637560076E-01 +8.84236568984E-01
1.32000000000E+09 -2.71441071497E-01 +8.86039384265E-01 +2.20461700711E-05 +1.60795630485E-04 +4.46055424782E-06 +2.76941769309E-04 -3.58741615167E-01 +8.86877899230E-01
1.32500000000E+09 -2.67981892600E-01 +8.83815852276E-01 +3.41849068523E-05 +2.22128693355E-04 +7.47817922951E-05 +2.32993004242E-04 -3.47551378635E-01 +8.89617383130E-01
1.33000000000E+09 -2.61696001491E-01 +8.81768038971E-01 +1.15348156341E-04 +2.27534401903E-04 +8.55426540653E-05 +2.48129309147E-04 -3.36681860717E-01 +8.92756523319E-01
1.33500000000E+09 -2.51529431787E-01 +8.80391387336E-01 +1.43307326474E-04 +3.02676479884E-04 +1.55743544683E-04 +2.87163826184E-04 -3.26668740874E-01 +8.95217003799E-01
1.34000000000E+09 -2.36791573460E-01 +8.80731348667E-01 +2.16418945004E-04 +2.86876715423E-04 +2.01847067804E-04 +2.61489510400E-04 -3.17081256079E-01 +8.97828081763E-01
1.34500000000E+09 -2.18575849746E-01 +8.82234181479E-01 +2.44704108168E-04 +2.66825125776E-04 +2.72895959027E-04 +2.79860638086E-04 -3.06957475480E-01 +8.99992081233E-01
1.35000000000E+09 -1.98178892305E-01 +8.85137721139E-01 +2.40785336020E-04 +2.79347592629E-04 +2.61614353957E-04 +2.77086769662E-04 -2.95860025490E-01 +9.02203893640E-01
1.35500000000E+09 -1.77637951502E-01 +8.88299739210E-01 +3.18549576302E-04 +3.28685200322E-04 +3.40589316244E-04 +3.02488276502E-04 -2.83151068345E-01 +9.03857097049E-01
1.36000000000E+09 -1.59241044132E-01 +8.91074700122E-01 +4.89874797023E-04 +3.05732630382E-04 +4.42436711954E-04 +2.80809904894E-04 -2.69792384496E-01 +9.05751802120E-01
1.36500000000E+09 -1.43898792497E-01 +8.93029263866E-01 +5.56377340728E-04 +2.60195237853E-04 +5.41742627217E-04 +2.21922017503E-04 -2.56752407986E-01 +9.07369223544E-01
1.37000000000E+09 -1.31934839945E-01 +8.93483344412E-01 +6.63472463954E-04 +1.50932397419E-04 +6.45583753243E-04 +1.41632690180E-04 -2.44035895956E-01 +9.09023100100E-01
1.37500000000E+09 -1.22810026698E-01 +8.92539908611E-01 +7.14820978463E-04 -1.80989435705E-05 +6.96366365200E-04 +5.52037688478E-05 -2.31188976297E-01 +9.10534877580E-01
1.38000000000E+09 -1.14571719279E-01 +8.90266139970E-01 +6.80773751050E-04 -1.09235762795E-04 +7.01912569172E-04 -4.18822013304E-05 -2.17242737047E-01 +9.11423387923E-01
1.38500000000E+09 -1.04898438916E-01 +8.86683862564E-01 +6.38003440482E-04 -1.72063196837E-04 +7.68578187059E-04 -1.18152994451E-04 -2.01785451240E-01 +9.11886364778E-01
1.39000000000E+09 -9.28923256261E-02 +8.82232584947E-01 +6.34742036610E-04 -2.45827777139E-04 +7.42214563547E-04 -3.28197536989E-04 -1.85145457918E-01 +9.11781127020E-01
1.39500000000E+09 -7.74065538239E-02 +8.77608723516E-01 +6.12723593019E-04 -3.07305050338E-04 +6.53305986641E-04 -3.95824805331E-04 -1.67574495590E-01 +9.11210979983E-01
1.40000000000E+09 -5.79453600673E-02 +8.73287280675E-01 +6.27495167757E-04 -3.42844919343E-04 +6.01786243069E-04 -4.04667665035E-04 -1.49781815028E-01 +9.10600620306E-01
1.40500000000E+09 -3.60435290639E-02 +8.69459702640E-01 +6.61301174239E-04 -4.11571234864E-04 +6.47366834881E-04 -4.60213514502E-04 -1.31818208587E-01 +9.09495715209E-01
1.41000000000E+09 -1.27931851385E-02 +8.65824211731E-01 +5.30227515360E-04 -5.37181174146E-04 +5.64641659211E-04 -5.40180236353E-04 -1.13292199684E-01 +9.07696434491E-01
1.41500000000E+09 +9.95126705623E-03 +8.62367121811E-01 +5.36335515804E-04 -5.56529361128E-04 +5.60805429856E-04 -5.69365786425E-04 -9.29970751107E-02 +9.04705467060E-01
1.42000000000E+09 +3.11607324503E-02 +8.58439767970E-01 +5.28155711411E-04 -5.27179004377E-04 +6.00990350201E-04 -5.98651722940E-04 -7.05978022701E-02 +9.00254151829E-01
1.42500000000E+09 +4.97574009811E-02 +8.53462181889E-01 +6.53020816623E-04 -5.68240333628E-04 +6.10024304630E-04 -6.78216549419E-04 -4.66269971808E-02 +8.94649442934E-01
1.43000000000E+09 +6.67536398624E-02 +8.46620849617E-01 +6.58811161211E-04 -6.76167484180E-04 +6.59804440031E-04 -8.31612437058E-04 -2.11336162233E-02 +8.88071692766E-01
1.43500000000E+09 +8.28932796351E-02 +8.37407239152E-01 +8.54960895687E-04 -8.37595118978E-04 +8.26895585895E-04 -9.47899978883E-04 +4.64851827616E-03 +8.79751217761E-01
1.44000000000E+09 +1.00261224214E-01 +8.26240921794E-01 +9.25581024200E-04 -1.26491107782E-03 +8.62165118221E-04 -1.33015250987E-03 +3.05848360592E-02 +8.70134298968E-01
1.44500000000E+09 +1.20943199450E-01 +8.11955151306E-01 +6.67206906076E-04 -1.65204786432E-03 +5.29186341492E-04 -1.76823037037E-03 +5.83551327284E-02 +8.58444665213E-01
1.45000000000E+09 +1.45616647763E-01 +7.94828642238E-01 +4.97266009623E-04 -1.68032400410E-03 +3.89830998366E-04 -1.81773768981E-03 +8.80218703307E-02 +8.42738306203E-01
1.45500000000E+09 +1.74979862297E-01 +7.74724000984E-01 +3.41014150682E-04 -2.18539478331E-03 +7.46541765867E-05 -2.19843096594E-03 +1.19171439378E-01 +8.22973307864E-01
1.46000000000E+09 +2.08255515549E-01 +7.51081890696E-01 -2.05185988468E-04 -2.30230217788E-03 -4.79800702947E-04 -2.18848875095E-03 +1.52089244313E-01 +7.99639092783E-01
1.46500000000E+09 +2.43393579796E-01 +7.24396695644E-01 -4.16096695080E-04 -2.20022938492E-03 -4.91675463228E-04 -1.94747224485E-03 +1.86292278737E-01 +7.71584235497E-01
1.47000000000E+09 +2.78459396000E-01 +6.93714820460E-01 -5.39074592200E-04 -2.62539211204E-03 -5.16317378425E-04 -2.45489489275E-03 +2.20995444162E-01 +7.38062292814E-01
1.47500000000E+09 +3.10783751670E-01 +6.58450401427E-01 -1.27985935807E-03 -2.91186523779E-03 -1.07731968301E-03 -2.79080706329E-03 +2.55143594699E-01 +6.97586758098E-01
1.48000000000E+09 +3.38291422817E-01 +6.17876480018E-01 -1.63457501801E-03 -2.90449613779E-03 -1.51855593040E-03 -2.97759201647E-03 +2.87959224914E-01 +6.48749080299E-01
1.48500000000E+09 +3.60567384617E-01 +5.70805900104E-01 -2.45009074624E-03 -3.54714364259E-03 -2.57845683628E-03 -3.56198996312E-03 +3.17973624164E-01 +5.90515867185E-01
1.49000000000E+09 +3.76996151714E-01 +5.16196904268E-01 -3.91079961993E-03 -3.15587501923E-03 -4.02941969706E-03 -2.95168156998E-03 +3.42874242677E-01 +5.22232588719E-01
1.49500000000E+09 +3.86938559040E-01 +4.52381021140E-01 -4.90536952315E-03 -2.59402971723E-03 -4.77162832830E-03 -2.23990377850E-03 +3.59211366950E-01 +4.44122097551E-01
1.50000000000E+09 +3.90305217763E-01 +3.79208262315E-01 -6.10490551716E-03 -1.36647589906E-03 -5.68529943631E-03 -1.35632041442E-03 +3.62696297696E-01 +3.57499119538E-01
1.50500000000E+09 +3.85078810617E-01 +2.96233034778E-01 -6.68830207521E-03 -4.89743777010E-04 -6.32900337551E-03 -6.82559036534E-04 +3.50546012911E-01 +2.64408388403E-01
1.51000000000E+09 +3.67750157463E-01 +2.06727149203E-01 -7.86602555458E-03 +1.38292597981E-03 -7.83007833009E-03 +9.82344725155E-04 +3.18760852642E-01 +1.67367441570E-01
1.51500000000E+09 +3.36518103114E-01 +1.15122740719E-01 -7.66622889233E-03 +3.84523717091E-03 -7.89803990917E-03 +3.57185559920E-03 +2.64607338021E-01 +7.16148826523E-02
1.52000000000E+09 +2.86721066549E-01 +2.66661809437E-02 -7.39965476240E-03 +6.16387529700E-03 -7.66536010482E-03 +6.14838132571E-03 +1.88426870635E-01 -1.44911537021E-02
1.52500000000E+09 +2.17051810702E-01 -4.86545201672E-02 -5.54182878659E-03 +9.28684229146E-03 -5.75159678235E-03 +9.39757011957E-03 +9.22171430746E-02 -8.44116758114E-02
1.53000000000E+09 +1.33150853257E-01 -1.04338861537E-01 -2.05970732354E-03 +1.09406189448E-02 -2.12834108633E-03 +1.10930719888E-02 -1.60204734433E-02 -1.29578139948E-01
1.53500000000E+09 +3.65417774233E-02 -1.40831059082E-01 +1.86402012399E-03 +1.06162235570E-02 +1.95155964531E-03 +1.07210811453E-02 -1.30274388282E-01 -1.50334691784E-01
1.54000000000E+09 -6.87134391675E-02 -1.53228864443E-01 +4.42442270091E-03 +8.45521045893E-03 +4.45283818563E-03 +8.50762560388E-03 -2.42163954418E-01 -1.44647623587E-01
1.54500000000E+09 -1.75855385446E-01 -1.44148195881E-01 +5.96562888272E-03 +6.62614851573E-03 +5.79150959532E-03 +6.64812456584E-03 -3.43329912059E-01 -1.18229014363E-01
1.55000000000E+09 -2.80076318103E-01 -1.14408163576E-01 +6.27229717591E-03 +4.63753897398E-03 +6.17864837275E-03 +4.78415253613E-03 -4.33061406668E-01 -7.76537941637E-02
1.55500000000E+09 -3.72150189635E-01 -6.76380966556E-02 +6.66509575452E-03 +3.40133376523E-03 +6.68014071225E-03 +3.72450093606E-03 -5.06429288546E-01 -2.51309688782E-02
1.56000000000E+09 -4.47464132293E-01 -1.27623162041E-02 +7.19388779535E-03 +1.65305750749E-03 +7.45959362388E-03 +1.97077394255E-03 -5.64296845044E-01 +3.28421988589E-02
1.56500000000E+09 -5.06737834569E-01 +4.54593931221E-02 +6.48199790774E-03 -1.50343856060E-04 +6.80858079174E-03 -1.07083612904E-04 -6.08199130651E-01 +9.34919834624E-02
1.57000000000E+09 -5.50103798212E-01 +1.05356090644E-01 +5.82352144821E-03 -9.85487952720E-04 +6.14495130594E-03 -1.11324186576E-03 -6.39891834382E-01 +1.53304664666E-01
