# Hz S RI R 50
! CMT, C1220, 16058040, 17.2.0/1
! Date: 15/08/2018 09:01:28
! Data: Format (Calibration Info)
! Freq                      S11: Re/Im (F2)                       S21: Re/Im (F2)                       S12: Re/Im (F2)                       S22: Re/Im (F2)            
1.00000000000E+09 -6.51169399813E-01 +6.94854400468E-01 +1.52260489403E-05 +3.88002651858E-05 -2.52672435240E-05 +5.18880041028E-05 -7.11164976556E-01 +6.71478825109E-01
1.00500000000E+09 -6.43982265981E-01 +7.02122960908E-01 +3.78075205172E-05 +1.37759232303E-05 -3.91631466325E-06 +2.81531731956E-05 -7.07561488472E-01 +6.74830309296E-01
1.01000000000E+09 -6.39568466860E-01 +7.07956532329E-01 +3.34112619107E-05 +3.41278930402E-05 -7.07252773649E-06 +1.81613252002E-05 -7.03705382164E-01 +6.78148023355E-01
1.01500000000E+09 -6.37495955409E-01 +7.11491718899E-01 +2.60683992170E-06 +1.09677569490E-05 +4.70680960630E-06 +4.47478765025E-05 -6.99647584073E-01 +6.82180152448E-01
1.02000000000E+09 -6.37201816312E-01 +7.13034756563E-01 -7.86116996013E-06 +5.63917469314E-06 +2.72088261130E-05 +5.02281140514E-05 -6.95399453727E-01 +6.86213948040E-01
1.02500000000E+09 -6.37058518307E-01 +7.13079598985E-01 +4.10239781020E-05 +3.77297036486E-05 +8.87970081995E-06 +2.25204973843E-05 -6.91808922258E-01 +6.90353647162E-01
1.03000000000E+09 -6.36276313429E-01 +7.12536792074E-01 +3.64677007974E-05 +7.02464779309E-05 +1.42700829335E-05 +4.64981053154E-05 -6.88213610417E-01 +6.94051854233E-01
1.03500000000E+09 -6.33140241317E-01 +7.12614181089E-01 -4.11966880844E-06 +3.37610553960E-05 -3.33017358977E-08 +9.22460393743E-06 -6.84540711409E-01 +6.97450305116E-01
1.04000000000E+09 -6.27544293906E-01 +7.14111499201E-01 +3.28543220744E-06 -1.76049264022E-06 +2.44156952557E-05 +3.91780685650E-05 -6.80860122257E-01 +7.00413105272E-01
1.04500000000E+09 -6.19717801443E-01 +7.17757802911E-01 +8.43559174100E-06 +5.96821838639E-05 +3.81167073928E-05 +8.97059093969E-05 -6.76750852371E-01 +7.03659089179E-01
1.05000000000E+09 -6.10002968277E-01 +7.23565309966E-01 +2.25740894538E-05 -2.17899227576E-05 -1.13630934684E-05 +2.73753451252E-05 -6.72182827693E-01 +7.07552632772E-01
1.05500000000E+09 -5.99868646948E-01 +7.30412856179E-01 +2.30376817480E-05 +2.91348172276E-05 -4.56446224955E-05 +2.05402452440E-05 -6.67938383885E-01 +7.11789088117E-01
1.06000000000E+09 -5.90580507556E-01 +7.37771233011E-01 +1.02581757033E-05 -1.97707794234E-05 +2.24939093535E-05 +7.22246705875E-05 -6.63958463021E-01 +7.16017072407E-01
1.06500000000E+09 -5.83175233010E-01 +7.44283925816E-01 -1.19173609593E-05 +4.10022222646E-05 +3.77667292960E-05 +6.68051408254E-05 -6.60099103865E-01 +7.19523745348E-01
1.07000000000E+09 -5.78201477676E-01 +7.48938859465E-01 +5.19585737737E-05 +4.31090348467E-05 +8.12810196004E-06 +3.12500170931E-05 -6.56209319979E-01 +7.22469889935E-01
1.07500000000E+09 -5.75706305596E-01 +7.51554207154E-01 +6.40807980824E-06 +8.78770680404E-06 +6.83334750689E-05 +3.90342034913E-05 -6.51899826837E-01 +7.25549802624E-01
1.08000000000E+09 -5.74575669068E-01 +7.52601155222E-01 +7.80420443800E-05 +4.67913169086E-05 +3.20226970295E-05 +8.45005574189E-07 -6.47301864011E-01 +7.29203139384E-01
1.08500000000E+09 -5.74072854480E-01 +7.52194328469E-01 +3.55731836597E-05 +5.82577788923E-05 +1.84189577577E-05 -2.76279349457E-05 -6.42412657601E-01 +7.33269678078E-01
1.09000000000E+09 -5.72235948808E-01 +7.51332156979E-01 +9.07976775236E-05 +3.70920977144E-05 +8.70054298631E-05 +5.48595901413E-05 -6.37669814563E-01 +7.37479217282E-01
1.09500000000E+09 -5.69110656083E-01 +7.50927755415E-01 +9.43188825323E-05 +2.99750303718E-05 +5.86813909200E-05 +3.07037549483E-05 -6.33240993350E-01 +7.41318590450E-01
1.10000000000E+09 -5.62881300001E-01 +7.52304615578E-01 +4.37004970804E-05 +9.15281897095E-06 +7.03798382472E-05 +1.75138678498E-05 -6.29384956364E-01 +7.44747260901E-01
1.10500000000E+09 -5.54811442189E-01 +7.55809693095E-01 +8.71420624383E-05 +9.82547936752E-06 +4.04567879577E-05 +9.73251383185E-06 -6.25386295575E-01 +7.47788678523E-01
1.11000000000E+09 -5.45036344442E-01 +7.61091035171E-01 +6.09285247986E-05 +1.25097533454E-05 +1.78217026456E-05 -7.89160580672E-07 -6.21110424183E-01 +7.50654056868E-01
1.11500000000E+09 -5.34878559581E-01 +7.67635643604E-01 +9.81897539592E-05 +1.90211601374E-06 +2.67350876193E-05 +3.22711926258E-05 -6.16218312397E-01 +7.54049658626E-01
1.12000000000E+09 -5.25837187126E-01 +7.74046671676E-01 +4.11151486831E-05 +3.49370835494E-05 +6.36246312559E-05 +5.94607417614E-06 -6.10879184797E-01 +7.58129462920E-01
1.12500000000E+09 -5.18532001654E-01 +7.79629089133E-01 +6.57916789745E-05 -1.47691899135E-05 +5.80494862257E-05 -3.26046102896E-05 -6.05670819949E-01 +7.62298507414E-01
1.13000000000E+09 -5.13519413400E-01 +7.83305942257E-01 +8.06699031482E-05 +2.98927302148E-06 +5.98750480903E-05 +1.67394625922E-05 -6.00807075783E-01 +7.66014219963E-01
1.13500000000E+09 -5.10320276287E-01 +7.84673071652E-01 +9.43501074321E-05 -4.74027945005E-05 +5.93393717947E-05 -3.86230696916E-05 -5.96380673637E-01 +7.69381830322E-01
1.14000000000E+09 -5.08350499292E-01 +7.84261056945E-01 +7.70640363727E-05 -2.64458608355E-05 +8.26096377574E-05 +4.29854069642E-06 -5.91939402919E-01 +7.72015522500E-01
1.14500000000E+09 -5.05911694007E-01 +7.82477793878E-01 +7.98862669738E-05 -4.12280846981E-05 +7.23020355524E-05 -5.55636836698E-05 -5.87196970941E-01 +7.75213890827E-01
1.15000000000E+09 -5.02012271974E-01 +7.80745294653E-01 +1.02741303444E-04 -7.54511615029E-05 +1.30248912290E-04 -3.25180938287E-05 -5.81421155432E-01 +7.79016177810E-01
1.15500000000E+09 -4.95990913130E-01 +7.80059101554E-01 +1.09574992401E-04 -7.58607337434E-05 +1.01332714474E-04 -8.27082157119E-05 -5.75569423961E-01 +7.83044743860E-01
1.16000000000E+09 -4.87194690465E-01 +7.80974738873E-01 +7.48730479674E-05 -6.67303868958E-05 +1.29737639321E-04 -8.51714595812E-05 -5.69797008100E-01 +7.87048637195E-01
1.16500000000E+09 -4.76288430150E-01 +7.84616650162E-01 +8.46499745613E-05 -7.74266177292E-05 +1.03922160981E-04 -6.30338198780E-05 -5.64552613996E-01 +7.90402520554E-01
1.17000000000E+09 -4.63951805876E-01 +7.89871499231E-01 +4.19141973602E-05 -1.51013396222E-04 +1.13420819619E-04 -1.58367369216E-04 -5.59249331064E-01 +7.93284148771E-01
1.17500000000E+09 -4.51940112330E-01 +7.96153247044E-01 +3.66665860403E-05 -1.03277749239E-04 +6.10074323075E-06 -1.18559882830E-04 -5.54005735147E-01 +7.95885468250E-01
1.18000000000E+09 -4.41865031305E-01 +8.02466444892E-01 -1.78521181794E-05 -9.96788130093E-05 +2.22147954462E-05 -8.47042891391E-05 -5.48184890395E-01 +7.98829338958E-01
1.18500000000E+09 -4.34399467718E-01 +8.07553546629E-01 +2.21645401149E-05 -1.05324950520E-04 +3.93073637254E-05 -5.69128008826E-05 -5.41571287969E-01 +8.01831496283E-01
1.19000000000E+09 -4.29727823592E-01 +8.10464464132E-01 +4.17535640274E-05 -3.23265390323E-05 +2.91584925639E-05 -1.00191710394E-04 -5.34160467340E-01 +8.04566352946E-01
1.19500000000E+09 -4.27842963071E-01 +8.11257509142E-01 +6.72297655822E-05 -5.92192308791E-05 +6.94727565558E-05 -3.38160698564E-05 -5.27640508195E-01 +8.06003906144E-01
1.20000000000E+09 -4.27371109674E-01 +8.09642230344E-01 +3.79193871600E-05 -1.12185073074E-04 +5.35617827413E-05 -5.76671770305E-05 -5.22522214786E-01 +8.05823387290E-01
1.20500000000E+09 -4.26797068642E-01 +8.07502615370E-01 +3.54300979101E-05 -1.28424620793E-04 +1.44643160379E-05 -1.27048250567E-04 -5.20142446022E-01 +8.05742370190E-01
1.21000000000E+09 -4.24583252370E-01 +8.05218112486E-01 -3.02833334034E-05 -5.89686366948E-05 -5.72670826467E-06 -4.44154451346E-05 -5.18413009692E-01 +8.07760468211E-01
1.21500000000E+09 -4.18809718935E-01 +8.04330596401E-01 +6.66745123766E-05 -7.16388985384E-05 +9.04245885869E-05 -4.59310672009E-05 -5.15229843574E-01 +8.12225803508E-01
1.22000000000E+09 -4.09819034488E-01 +8.05092100676E-01 +8.87391715394E-05 -1.18963069947E-04 +1.29324727584E-04 -1.12870779089E-04 -5.09791264903E-01 +8.17826940170E-01
1.22500000000E+09 -3.98028923785E-01 +8.07946826333E-01 +1.09692581975E-04 -9.35084873661E-05 +1.36880986877E-04 -1.45378785368E-04 -5.03352596258E-01 +8.23293384181E-01
1.23000000000E+09 -3.84659879806E-01 +8.12867261878E-01 +8.24824473506E-05 -1.23621385230E-04 +9.41613407077E-05 -1.58840728239E-04 -4.96965404118E-01 +8.27830484945E-01
1.23500000000E+09 -3.71647494363E-01 +8.18758255904E-01 +1.09760189875E-04 -1.17320583523E-04 +1.09209289214E-04 -1.93148896685E-04 -4.91314809923E-01 +8.31821372992E-01
1.24000000000E+09 -3.60018461865E-01 +8.24712374626E-01 +1.12596939460E-04 -2.57549530157E-04 +1.08836575179E-04 -2.18818126495E-04 -4.85729800143E-01 +8.34943243213E-01
1.24500000000E+09 -3.51318696973E-01 +8.29920772063E-01 +1.93818899675E-05 -2.52578504830E-04 +6.35966495137E-05 -2.44837261601E-04 -4.79714904947E-01 +8.38217196498E-01
1.25000000000E+09 -3.45435195868E-01 +8.33067565443E-01 -4.29010730899E-06 -2.33793277594E-04 +3.19023690459E-05 -2.65747332386E-04 -4.72313660753E-01 +8.42110229579E-01
1.25500000000E+09 -3.41962295032E-01 +8.34050370763E-01 +1.34134405061E-06 -2.53908459315E-04 -1.71703392816E-05 -2.75118942006E-04 -4.64121139785E-01 +8.45979730176E-01
1.26000000000E+09 -3.39550667664E-01 +8.33378630856E-01 -3.44071158269E-07 -2.96860597947E-04 +2.88930617036E-05 -2.57939976027E-04 -4.56042523375E-01 +8.50133679932E-01
1.26500000000E+09 -3.36554330064E-01 +8.31359678135E-01 +1.10578109922E-05 -2.84199717382E-04 -8.97638957262E-06 -3.18771741426E-04 -4.48498088962E-01 +8.53845148749E-01
1.27000000000E+09 -3.31614164986E-01 +8.29228255249E-01 -2.11629979917E-05 -3.59763601067E-04 -2.32390083537E-05 -3.20910154681E-04 -4.41900900035E-01 +8.56897016105E-01
1.27500000000E+09 -3.23561412426E-01 +8.27875038818E-01 -1.36238780374E-04 -3.55130129116E-04 -1.09969039767E-04 -3.22104308561E-04 -4.35273584050E-01 +8.59880622496E-01
1.28000000000E+09 -3.12088692625E-01 +8.28148388896E-01 -1.58887256939E-04 -3.06172965005E-04 -1.89144262085E-04 -3.71854292658E-04 -4.28241797607E-01 +8.62867948104E-01
1.28500000000E+09 -2.97862517043E-01 +8.30156122457E-01 -1.68944270658E-04 -2.97947814984E-04 -1.60381267446E-04 -3.00891077498E-04 -4.19842605540E-01 +8.66002601439E-01
1.29000000000E+09 -2.82738020547E-01 +8.33933708250E-01 -1.82712516151E-04 -3.35420383144E-04 -2.32497030887E-04 -2.55530615524E-04 -4.10963038902E-01 +8.69479104355E-01
1.29500000000E+09 -2.68201821197E-01 +8.38487244280E-01 -1.59003765389E-04 -3.72569099110E-04 -2.39109109539E-04 -3.74058978372E-04 -4.01687846742E-01 +8.72733392117E-01
1.30000000000E+09 -2.55931716766E-01 +8.43337810089E-01 -2.32967539504E-04 -3.99936831486E-04 -2.57120310912E-04 -3.21194806380E-04 -3.93459201993E-01 +8.76021933497E-01
1.30500000000E+09 -2.47056026468E-01 +8.47304116637E-01 -3.55337423364E-04 -3.49294383623E-04 -3.50441430648E-04 -3.17182814916E-04 -3.85727928013E-01 +8.78789238602E-01
1.31000000000E+09 -2.41381181361E-01 +8.49770243162E-01 -4.20598291567E-04 -3.52795455725E-04 -3.70174079464E-04 -3.47403699006E-04 -3.77943400318E-01 +8.81488211579E-01
1.31500000000E+09 -2.38215256343E-01 +8.50134785965E-01 -4.42511547517E-04 -3.39879306416E-04 -4.56800312174E-04 -3.91535376242E-04 -3.69019744160E-01 +8.84148407406E-01
1.32000000000E+09 -2.35842947399E-01 +8.48778109419E-01 -4.89583223676E-04 -3.52450682705E-04 -5.36384418487E-04 -3.89303459982E-04 -3.58815309782E-01 +8.86752749993E-01
1.32500000000E+09 -2.32790112650E-01 +8.45981083652E-01 -5.39018997026E-04 -2.96217199874E-04 -6.25860773690E-04 -2.55397766835E-04 -3.47854137670E-01 +8.89591550933E-01
1.33000000000E+09 -2.26899823997E-01 +8.43037135589E-01 -6.38815323151E-04 -2.83616346448E-04 -6.84515522526E-04 -2.64766400793E-04 -3.37054439819E-01 +8.92592500092E-01
1.33500000000E+09 -2.16934621754E-01 +8.40555958567E-01 -6.85041248248E-04 -2.34326617978E-04 -7.54174332804E-04 -2.07774589495E-04 -3.26819326281E-01 +8.95221759384E-01
1.34000000000E+09 -2.02657204710E-01 +8.39507935879E-01 -8.02677862803E-04 -1.62672223258E-04 -7.50418331244E-04 -7.31663118318E-05 -3.17431475469E-01 +8.97822991535E-01
1.34500000000E+09 -1.84776965358E-01 +8.39610476414E-01 -8.29655682141E-04 -8.26339399348E-05 -8.15630548709E-04 -9.71986555884E-05 -3.07212235279E-01 +9.00000750882E-01
1.35000000000E+09 -1.65053022331E-01 +8.41189852394E-01 -8.89536004726E-04 +1.92837868407E-05 -8.50338832633E-04 -1.74839711973E-06 -2.95966813042E-01 +9.01831386085E-01
1.35500000000E+09 -1.45373951445E-01 +8.43420144685E-01 -8.52549377450E-04 +8.73766933204E-05 -9.42769989411E-04 +1.13388631631E-04 -2.83411010052E-01 +9.03866641618E-01
1.36000000000E+09 -1.27893774404E-01 +8.45493234206E-01 -9.52912324498E-04 +1.58391265013E-04 -9.58235058278E-04 +1.78872716946E-04 -2.70003801551E-01 +9.05610468700E-01
1.36500000000E+09 -1.13151237997E-01 +8.47235324038E-01 -1.01295770247E-03 +2.93105074784E-04 -9.45004011033E-04 +3.14572932070E-04 -2.56991552950E-01 +9.07375831134E-01
1.37000000000E+09 -1.01855873729E-01 +8.47280397775E-01 -9.64122481041E-04 +4.79602923277E-04 -9.32218868749E-04 +3.50428182925E-04 -2.44292863290E-01 +9.08943754050E-01
1.37500000000E+09 -9.31810471311E-02 +8.45832811594E-01 -8.95424161149E-04 +4.95581594382E-04 -9.29522088191E-04 +3.97775991376E-04 -2.31417964759E-01 +9.10472471036E-01
1.38000000000E+09 -8.56348326029E-02 +8.42713124875E-01 -9.20822069587E-04 +5.52737539222E-04 -1.01576824882E-03 +4.95345786237E-04 -2.17448482446E-01 +9.11340061808E-01
1.38500000000E+09 -7.71163152998E-02 +8.38336988321E-01 -9.25259848264E-04 +5.77273854807E-04 -1.06931594284E-03 +5.74138700382E-04 -2.02046064735E-01 +9.11701226681E-01
1.39000000000E+09 -6.63819650336E-02 +8.33491673615E-01 -1.05302175135E-03 +5.78193359947E-04 -1.14142842342E-03 +6.89620670262E-04 -1.85495563864E-01 +9.11606751978E-01
1.39500000000E+09 -5.21444619580E-02 +8.28545002101E-01 -1.18852331870E-03 +6.98398581640E-04 -1.22702941397E-03 +8.84678021231E-04 -1.67851609757E-01 +9.11143378389E-01
1.40000000000E+09 -3.39158656004E-02 +8.24112287244E-01 -1.29776529959E-03 +9.26640211753E-04 -1.24231577093E-03 +1.01287673704E-03 -1.49963901635E-01 +9.10502480214E-01
1.40500000000E+09 -1.35144600633E-02 +8.20472829404E-01 -1.34697283718E-03 +1.22247871950E-03 -1.28929247978E-03 +1.25650602960E-03 -1.32081071221E-01 +9.09315921683E-01
1.41000000000E+09 +8.77430969026E-03 +8.17688572034E-01 -1.21254095455E-03 +1.58636920528E-03 -1.21574688211E-03 +1.49203724891E-03 -1.13580913630E-01 +9.07549330266E-01
1.41500000000E+09 +3.11185563309E-02 +8.15026986686E-01 -1.12400989499E-03 +1.66736897642E-03 -1.25423958842E-03 +1.69139306580E-03 -9.33519041469E-02 +9.04600649827E-01
1.42000000000E+09 +5.26736984270E-02 +8.11647205771E-01 -1.05473620295E-03 +1.90324657808E-03 -1.19328739653E-03 +2.07206506441E-03 -7.08835863453E-02 +9.00111131080E-01
1.42500000000E+09 +7.17965404641E-02 +8.06018256898E-01 -1.10898052635E-03 +2.12531378922E-03 -1.03021884640E-03 +2.44714688609E-03 -4.69665133697E-02 +8.94602885014E-01
1.43000000000E+09 +8.86537725998E-02 +7.98116964007E-01 -1.18029659290E-03 +2.55652084352E-03 -9.99425758673E-04 +2.87229363042E-03 -2.15263325964E-02 +8.87965903244E-01
1.43500000000E+09 +1.04033643577E-01 +7.87603383846E-01 -9.65505704643E-04 +3.21998323465E-03 -6.53968853174E-04 +3.39603828682E-03 +4.22964568234E-03 +8.79677290022E-01
1.44000000000E+09 +1.20158872152E-01 +7.74659980211E-01 -2.59132846580E-04 +3.72981927666E-03 -5.87697432673E-05 +3.84256206606E-03 +3.03137996109E-02 +8.70171101165E-01
1.44500000000E+09 +1.38953693458E-01 +7.58952447202E-01 +3.47691854853E-04 +3.89236070059E-03 +5.30876751506E-04 +3.99034972502E-03 +5.77883659597E-02 +8.58339653214E-01
1.45000000000E+09 +1.61406600316E-01 +7.40341934712E-01 +7.36587801664E-04 +4.00418849459E-03 +1.06703551615E-03 +4.05001487488E-03 +8.75611645201E-02 +8.42764637525E-01
1.45500000000E+09 +1.87367440395E-01 +7.18923240479E-01 +1.08614877914E-03 +4.31203904345E-03 +1.51591990828E-03 +4.25797705522E-03 +1.18530874347E-01 +8.23173902684E-01
1.46000000000E+09 +2.16616037155E-01 +6.95349120690E-01 +1.66893013234E-03 +4.86141820408E-03 +2.11975634980E-03 +4.51272634529E-03 +1.51522655844E-01 +7.99906236078E-01
1.46500000000E+09 +2.47434579377E-01 +6.70035933678E-01 +2.71109704361E-03 +5.29893786938E-03 +2.85073131015E-03 +4.72674545786E-03 +1.85862516188E-01 +7.72164649986E-01
1.47000000000E+09 +2.78834763858E-01 +6.41688986966E-01 +4.20974686772E-03 +5.46083516425E-03 +3.88260167186E-03 +5.01938138506E-03 +2.20729279030E-01 +7.38593144050E-01
1.47500000000E+09 +3.07609067184E-01 +6.09467039824E-01 +5.49474864070E-03 +4.91159972910E-03 +5.15624146223E-03 +4.88059390552E-03 +2.55166637348E-01 +6.98131427492E-01
1.48000000000E+09 +3.32381890053E-01 +5.72873076212E-01 +6.52853610279E-03 +4.56576438300E-03 +6.53136370541E-03 +4.83810802792E-03 +2.88058801092E-01 +6.49337901520E-01
1.48500000000E+09 +3.52034757056E-01 +5.31065446180E-01 +8.15884594793E-03 +4.22909005174E-03 +8.43406431221E-03 +4.15726297447E-03 +3.18166350859E-01 +5.90904987128E-01
1.49000000000E+09 +3.67052574770E-01 +4.81962911586E-01 +9.88019759568E-03 +2.99727777598E-03 +1.00519510739E-02 +2.46468392726E-03 +3.43133324302E-01 +5.22476801503E-01
1.49500000000E+09 +3.76599675185E-01 +4.24562116920E-01 +1.19811699593E-02 +1.54300940421E-03 +1.14700195633E-02 +9.72647505122E-04 +3.59553438471E-01 +4.44449986503E-01
1.50000000000E+09 +3.81266262298E-01 +3.57403668552E-01 +1.38166664386E-02 -1.54667010814E-03 +1.29223727896E-02 -1.47597660979E-03 +3.63205909401E-01 +3.57626811318E-01
1.50500000000E+09 +3.78454227672E-01 +2.80157027359E-01 +1.44303878713E-02 -5.46122075460E-03 +1.39554148480E-02 -4.81716848818E-03 +3.51221555298E-01 +2.64266495065E-01
1.51000000000E+09 +3.65104940479E-01 +1.94920602286E-01 +1.33134648180E-02 -9.79737168822E-03 +1.34669049000E-02 -9.15983677552E-03 +3.19117140509E-01 +1.67070987870E-01
1.51500000000E+09 +3.36853206651E-01 +1.06756053862E-01 +1.11873889921E-02 -1.31250921230E-02 +1.15576291951E-02 -1.29352024799E-02 +2.64991236432E-01 +7.12589290446E-02
1.52000000000E+09 +2.92528396246E-01 +2.16359885640E-02 +7.82679016229E-03 -1.68716756260E-02 +8.13244107061E-03 -1.69384798751E-02 +1.88575887481E-01 -1.51267380769E-02
1.52500000000E+09 +2.27973826620E-01 -5.36071290829E-02 +2.86446826222E-03 -1.85084723736E-02 +3.06575757281E-03 -1.86367603848E-02 +9.22039797837E-02 -8.46697376039E-02
1.53000000000E+09 +1.46595620624E-01 -1.09687997303E-01 -1.78053384388E-03 -1.82309793959E-02 -1.73402413925E-03 -1.84495196238E-02 -1.57216717929E-02 -1.29818482349E-01
1.53500000000E+09 +5.27785340575E-02 -1.46329462627E-01 -5.74977606619E-03 -1.74150116440E-02 -5.84534950467E-03 -1.74833067046E-02 -1.29820552404E-01 -1.51208281316E-01
1.54000000000E+09 -5.30811194701E-02 -1.57187355073E-01 -9.91650514181E-03 -1.54036465292E-02 -9.85216451326E-03 -1.53056328880E-02 -2.42315739023E-01 -1.45824576531E-01
1.54500000000E+09 -1.57104725408E-01 -1.43208026256E-01 -1.30068105090E-02 -1.24714397699E-02 -1.27120957296E-02 -1.25094551937E-02 -3.43961174026E-01 -1.19358055327E-01
1.55000000000E+09 -2.56616695252E-01 -1.10508239191E-01 -1.55319129795E-02 -8.36454857272E-03 -1.52296380029E-02 -8.83583496480E-03 -4.34121337120E-01 -7.83751190781E-02
1.55500000000E+09 -3.44013945185E-01 -6.24178612799E-02 -1.61934296294E-02 -3.52997863441E-03 -1.62642093007E-02 -4.23839874104E-03 -5.07441126429E-01 -2.53129746203E-02
1.56000000000E+09 -4.15502943061E-01 -4.96378512552E-03 -1.47828205918E-02 +5.60652880421E-04 -1.53701864399E-02 +1.08058171873E-04 -5.65217096518E-01 +3.29207192840E-02
1.56500000000E+09 -4.68910271778E-01 +5.53930176869E-02 -1.24113247858E-02 +3.17978568484E-03 -1.31857244055E-02 +3.16546459752E-03 -6.08931735460E-01 +9.37207868252E-02
1.57000000000E+09 -5.06378227683E-01 +1.15504084356E-01 -1.03045658675E-02 +4.38801885914E-03 -1.08713164649E-02 +4.75064979139E-03 -6.40402337944E-01 +1.53686587763E-01
