# Hz S RI R 50
! CMT, C1220, 16058040, 17.2.0/1
! Date: 15/08/2018 08:59:08
! Data: Format (Calibration Info)
! Freq                      S11: Re/Im (F2)                       S21: Re/Im (F2)                       S12: Re/Im (F2)                       S22: Re/Im (F2)            
1.00000000000E+09 -6.51547222711E-01 +6.96267598947E-01 -4.19351446029E-05 +3.05885172597E-05 -1.05273082565E-05 -6.15166619544E-06 -7.10511030118E-01 +6.71784709565E-01
1.00500000000E+09 -6.44965867004E-01 +7.03789294050E-01 -1.72670821132E-05 +1.68173505977E-05 +4.84629126517E-05 -1.16798553316E-05 -7.06941184093E-01 +6.75262985315E-01
1.01000000000E+09 -6.41480608539E-01 +7.09656377877E-01 +2.79653077990E-05 -1.82266385288E-05 -2.34002745805E-05 -3.22175378730E-07 -7.03225415405E-01 +6.78536167974E-01
1.01500000000E+09 -6.40867803093E-01 +7.13151569327E-01 +3.23223063742E-06 -1.81569680334E-05 -4.95586839923E-06 -4.52087337572E-05 -6.99198894188E-01 +6.82482003778E-01
1.02000000000E+09 -6.42325244626E-01 +7.14674861304E-01 +2.19606773814E-05 -4.74274011996E-06 +1.20467825393E-05 -8.91128619298E-06 -6.94767011690E-01 +6.86545288881E-01
1.02500000000E+09 -6.43974356151E-01 +7.14754055890E-01 -8.99330908410E-06 +2.10637722642E-05 +3.43468343532E-06 -3.05846162383E-05 -6.91358198043E-01 +6.90597147408E-01
1.03000000000E+09 -6.45087229926E-01 +7.14165343361E-01 -2.78245627408E-05 -1.04283725088E-05 -2.73347694418E-05 -3.93208731069E-05 -6.87618017636E-01 +6.94245202736E-01
1.03500000000E+09 -6.43791506063E-01 +7.14115328107E-01 -1.53380121806E-05 -4.00925593286E-06 -2.93659089946E-05 +1.53110376961E-05 -6.84053093901E-01 +6.97595080520E-01
1.04000000000E+09 -6.39862404300E-01 +7.15885132232E-01 -8.01808518691E-06 +3.52492064782E-06 -4.58339446770E-05 +2.83377351524E-05 -6.80301017679E-01 +7.00723561689E-01
1.04500000000E+09 -6.33164935674E-01 +7.19700710499E-01 -2.80698253690E-05 +3.66041947327E-05 -1.43921139889E-05 +2.08875030476E-05 -6.76058376013E-01 +7.03938716044E-01
1.05000000000E+09 -6.24026183841E-01 +7.26238773310E-01 -3.42162599590E-05 +4.24480798931E-05 +6.35702336889E-06 +2.68859655964E-05 -6.71821002358E-01 +7.07790247612E-01
1.05500000000E+09 -6.13736270451E-01 +7.33934588173E-01 -1.29717567339E-05 +3.25884136903E-05 -3.39300741945E-05 +7.33514197195E-05 -6.67334004266E-01 +7.12086424649E-01
1.06000000000E+09 -6.03580375458E-01 +7.42351772908E-01 +7.85096040395E-06 +2.75294587572E-05 -9.60675940370E-06 -3.83809900371E-06 -6.63333525614E-01 +7.16158180825E-01
1.06500000000E+09 -5.94898319905E-01 +7.50016625266E-01 +6.00636497619E-06 +5.66653210722E-05 +7.52264280621E-05 +8.17110793860E-05 -6.59323560862E-01 +7.19612280203E-01
1.07000000000E+09 -5.88617832231E-01 +7.55919109259E-01 +8.32906235972E-06 +1.59614399031E-05 +2.48176301786E-05 +4.25847334477E-05 -6.55605714656E-01 +7.22648486698E-01
1.07500000000E+09 -5.84877964508E-01 +7.59555639418E-01 +1.16611957070E-05 +6.02978610904E-05 +8.79342937427E-06 +3.74673207162E-05 -6.51154982859E-01 +7.25812488278E-01
1.08000000000E+09 -5.83127321130E-01 +7.61460003132E-01 +2.34856891924E-05 +5.77250005151E-05 +2.46450026903E-05 +3.44898686266E-05 -6.46704451085E-01 +7.29668629570E-01
1.08500000000E+09 -5.82284693729E-01 +7.61702300478E-01 -1.13696830957E-05 +3.45092556437E-05 +2.00214498012E-05 +3.42730155389E-05 -6.41801662782E-01 +7.33530508127E-01
1.09000000000E+09 -5.80968496289E-01 +7.61591265821E-01 -8.04560129052E-06 +4.68961969605E-05 -6.80014786253E-06 +5.91087874302E-05 -6.37034483055E-01 +7.37686366849E-01
1.09500000000E+09 -5.78826201053E-01 +7.61525948923E-01 +1.91244873001E-05 +5.90043884747E-05 +2.32725263584E-05 +4.74728093573E-05 -6.32703719213E-01 +7.41572653727E-01
1.10000000000E+09 -5.74524670284E-01 +7.62944320069E-01 +1.31800649441E-05 +3.77300857887E-05 +2.72708297257E-05 +3.01615931297E-05 -6.28875532666E-01 +7.45026602101E-01
1.10500000000E+09 -5.68518871077E-01 +7.66316629822E-01 +3.03620348039E-05 +1.31421268559E-05 +3.13424587924E-05 +2.83431283293E-05 -6.24713248914E-01 +7.47956777950E-01
1.11000000000E+09 -5.61129154362E-01 +7.71424125434E-01 +3.03982246473E-06 +3.63651914668E-05 -2.04005378690E-05 -2.15514675625E-06 -6.20519778344E-01 +7.50982675674E-01
1.11500000000E+09 -5.52920576128E-01 +7.78138822428E-01 +3.96383401470E-05 +3.31582886272E-05 +6.43246913151E-05 -2.32134094005E-05 -6.15606577670E-01 +7.54184525351E-01
1.12000000000E+09 -5.45365148766E-01 +7.84808428011E-01 -4.38023352898E-08 -1.96581342730E-05 +5.73583888331E-05 -7.54061454211E-06 -6.10288997613E-01 +7.58332226067E-01
1.12500000000E+09 -5.38912698512E-01 +7.90643814835E-01 +2.85789984629E-05 +1.67297690546E-05 +2.94869689271E-05 -2.61358609920E-07 -6.04899072624E-01 +7.62578837975E-01
1.13000000000E+09 -5.34246649197E-01 +7.95075918226E-01 +2.30291164380E-05 +2.18775844472E-05 +4.39295652355E-05 -2.47892320344E-06 -6.00332692614E-01 +7.66341317699E-01
1.13500000000E+09 -5.30965148865E-01 +7.97377591599E-01 +3.27420658660E-05 -3.33543470161E-06 +1.31913046861E-05 +3.56996835772E-05 -5.95752819269E-01 +7.69541249065E-01
1.14000000000E+09 -5.28467955851E-01 +7.98368343164E-01 +3.37734520216E-06 +2.77092044461E-05 +6.65834623269E-05 -8.57054252189E-06 -5.91265339729E-01 +7.72455756989E-01
1.14500000000E+09 -5.25738008303E-01 +7.97997899230E-01 +1.71959950200E-05 +1.38012146899E-05 +3.54191518356E-05 +2.59974871241E-05 -5.86565134810E-01 +7.75511944678E-01
1.15000000000E+09 -5.21713033747E-01 +7.97428203202E-01 +4.30391030367E-05 -2.87205999603E-05 +2.63375572705E-05 +2.45102128697E-05 -5.80926033812E-01 +7.79208304982E-01
1.15500000000E+09 -5.16064390837E-01 +7.98018847864E-01 +3.97887110404E-05 +1.69379254762E-05 +3.14582231360E-05 +8.38393948525E-06 -5.74821979593E-01 +7.83261540442E-01
1.16000000000E+09 -5.07985247001E-01 +7.99911841822E-01 +3.45881769979E-05 +5.06136982027E-06 +2.06977464130E-05 +4.33679845302E-05 -5.69087221488E-01 +7.87335625309E-01
1.16500000000E+09 -4.98363102151E-01 +8.04126471124E-01 +8.40140436492E-05 +2.75096117535E-05 +5.99249257638E-05 +2.38360883086E-05 -5.63642974923E-01 +7.90650050105E-01
1.17000000000E+09 -4.87824624448E-01 +8.09866893339E-01 +4.57830040364E-05 -2.82165211228E-05 +7.32119345155E-05 -3.09067756576E-05 -5.58611252009E-01 +7.93544327686E-01
1.17500000000E+09 -4.77711008737E-01 +8.16430317825E-01 +8.57420493503E-05 -1.96309780229E-05 +3.57821184785E-05 -2.75599717263E-05 -5.53298286857E-01 +7.96240712967E-01
1.18000000000E+09 -4.69394105196E-01 +8.22969646755E-01 +6.46143104158E-05 -1.78397603532E-05 +8.92105343767E-05 -4.72649254697E-05 -5.47575086017E-01 +7.98968459432E-01
1.18500000000E+09 -4.63090891753E-01 +8.28327919968E-01 +7.24356966018E-05 -6.30330865539E-05 +1.32121150169E-05 -2.43740621506E-05 -5.40842711805E-01 +8.01993892488E-01
1.19000000000E+09 -4.59587817942E-01 +8.31830337989E-01 +5.75682446652E-05 -4.64892308671E-05 +4.56410020541E-05 -1.33668653732E-04 -5.33677054977E-01 +8.04826689144E-01
1.19500000000E+09 -4.57978877927E-01 +8.33260878921E-01 +3.56648194809E-05 -1.00212735399E-04 +8.79024869676E-05 -9.25481049701E-05 -5.26853602859E-01 +8.06176810710E-01
1.20000000000E+09 -4.57403500076E-01 +8.32602068749E-01 +6.81551757800E-05 -1.89880638483E-04 +4.55409427097E-05 -1.61451506668E-04 -5.21729887397E-01 +8.06227335744E-01
1.20500000000E+09 -4.56616540512E-01 +8.31617619155E-01 -3.58864288546E-05 -1.66967655222E-04 -8.37393598093E-05 -1.79438445232E-04 -5.19284041196E-01 +8.06020179609E-01
1.21000000000E+09 -4.53862883553E-01 +8.30865946308E-01 -8.98323755036E-05 -8.08283588302E-05 -1.28612524498E-04 -2.86381914236E-05 -5.17606685189E-01 +8.08031602303E-01
1.21500000000E+09 -4.47766854168E-01 +8.31364560197E-01 -3.48290347016E-05 +8.72199579174E-06 -8.63181563858E-05 -2.21746998499E-05 -5.14601955993E-01 +8.12473181029E-01
1.22000000000E+09 -4.38678655905E-01 +8.33911689550E-01 -1.98263490265E-05 -9.14513206254E-06 -7.43266757598E-05 +2.94240328680E-05 -5.09031799981E-01 +8.17980355167E-01
1.22500000000E+09 -4.26562491356E-01 +8.38337765656E-01 +9.87704639734E-07 +6.64719129940E-06 +1.96494586174E-06 -3.72872264571E-05 -5.02598548151E-01 +8.23404890566E-01
1.23000000000E+09 -4.13016998015E-01 +8.44357048568E-01 +1.83455337556E-06 -3.77345389904E-05 -4.37987995028E-06 -1.74226589051E-05 -4.96361333238E-01 +8.28155452002E-01
1.23500000000E+09 -3.99423860699E-01 +8.51245150473E-01 +1.58810979990E-05 -4.17994644672E-05 +5.43546527770E-05 -6.81033076702E-05 -4.90551003735E-01 +8.31835717106E-01
1.24000000000E+09 -3.87485553588E-01 +8.57933199319E-01 -1.14876101037E-05 -9.47053343711E-05 +9.68524793102E-06 -9.23560161165E-05 -4.85115328529E-01 +8.35233551746E-01
1.24500000000E+09 -3.77968962736E-01 +8.63471092501E-01 -7.55936941145E-06 -8.48122428407E-05 +2.44615035823E-05 -1.23689380940E-04 -4.79028859810E-01 +8.38532307753E-01
1.25000000000E+09 -3.71168516621E-01 +8.67009404357E-01 -5.79078747947E-05 -1.42833801196E-04 -5.66818630618E-05 -7.62265550220E-05 -4.71597395233E-01 +8.42340422155E-01
1.25500000000E+09 -3.67149225701E-01 +8.68277358929E-01 -6.42348341150E-05 -5.07485745718E-05 -6.71870143066E-05 -1.03385815347E-04 -4.63619677140E-01 +8.46044958969E-01
1.26000000000E+09 -3.64159702971E-01 +8.68034854794E-01 -9.60216038639E-05 -7.79528576847E-05 -1.03541945779E-04 -5.44731187427E-05 -4.55381782784E-01 +8.50392659797E-01
1.26500000000E+09 -3.61062577567E-01 +8.67002647781E-01 -9.54632916842E-05 -6.56028475997E-05 -9.57845647980E-05 -5.20758708804E-05 -4.47764308193E-01 +8.53971871142E-01
1.27000000000E+09 -3.55897401955E-01 +8.66243108505E-01 -7.22829432053E-05 -3.48168610033E-05 -1.37552358991E-04 -4.38174266942E-05 -4.41013880634E-01 +8.57104968816E-01
1.27500000000E+09 -3.47982883743E-01 +8.66547428730E-01 -1.40699986029E-04 -1.80995197150E-05 -1.42330411140E-04 -2.58966256851E-05 -4.34540797854E-01 +8.59979317178E-01
1.28000000000E+09 -3.36862029485E-01 +8.68945014871E-01 -9.73076580095E-05 -1.90465433352E-05 -9.49336911654E-05 -3.63411155954E-06 -4.27472702650E-01 +8.62925036767E-01
1.28500000000E+09 -3.22699386829E-01 +8.73317541147E-01 -1.57116281951E-04 -1.60594033753E-05 -9.75790193157E-05 -8.11501644358E-05 -4.19287552374E-01 +8.66169428781E-01
1.29000000000E+09 -3.07476560868E-01 +8.79127989616E-01 -1.18592525557E-04 +1.57327572718E-05 -1.46392366161E-04 +4.10292549885E-05 -4.10097852425E-01 +8.69462249860E-01
1.29500000000E+09 -2.92491611531E-01 +8.85526950802E-01 -9.85133859485E-05 +4.76500864974E-05 -1.20967890565E-04 +7.08678215206E-05 -4.01149928073E-01 +8.72774858809E-01
1.30000000000E+09 -2.79396552939E-01 +8.91576357414E-01 -9.10210812605E-05 +3.58411664060E-05 -1.07351233540E-04 +4.94817921563E-05 -3.92609050401E-01 +8.76033244151E-01
1.30500000000E+09 -2.69532383321E-01 +8.95998448702E-01 -9.65466136512E-05 +1.76658777931E-05 -1.01473605139E-04 +2.97083969201E-05 -3.84851877808E-01 +8.78741541701E-01
1.31000000000E+09 -2.63064124180E-01 +8.98295430878E-01 -1.12905701226E-04 +1.34425861068E-05 -1.36122618830E-04 +4.19160235364E-05 -3.77114166473E-01 +8.81496371750E-01
1.31500000000E+09 -2.59649341239E-01 +8.98753160205E-01 -1.70060649071E-04 +6.94350202062E-05 -1.32054687624E-04 +4.45166432818E-05 -3.68177111197E-01 +8.84218858111E-01
1.32000000000E+09 -2.57226152513E-01 +8.97856592732E-01 -1.00786478684E-04 +7.27997442944E-05 -1.24991311085E-04 +6.20233589077E-05 -3.58204701522E-01 +8.86893116189E-01
1.32500000000E+09 -2.53847286123E-01 +8.95832652235E-01 -1.11376447384E-04 +6.08107322631E-05 -7.91095251165E-05 +2.45605968744E-05 -3.47151904505E-01 +8.89722784833E-01
1.33000000000E+09 -2.47796093576E-01 +8.93884352933E-01 -1.31410962104E-04 +1.41116111842E-04 -1.61437170091E-04 +9.37833155342E-05 -3.36358656550E-01 +8.92607461463E-01
1.33500000000E+09 -2.37826066034E-01 +8.92516177549E-01 -1.31929906844E-04 +1.36827678844E-04 -1.27853321946E-04 +1.67123073606E-04 -3.26170380848E-01 +8.95189156975E-01
1.34000000000E+09 -2.23567737846E-01 +8.92670047579E-01 -1.18016213536E-04 +1.81433566260E-04 -8.32874415463E-05 +1.92648182008E-04 -3.16580331662E-01 +8.97800661495E-01
1.34500000000E+09 -2.05684410426E-01 +8.94014857999E-01 -5.85218191535E-05 +2.58662150450E-04 -8.60031167897E-05 +2.01161573637E-04 -3.06485584510E-01 +8.99944733081E-01
1.35000000000E+09 -1.85741889023E-01 +8.96597279100E-01 +2.68337548931E-05 +2.24668880010E-04 -1.20044037797E-05 +1.67706835721E-04 -2.95325620361E-01 +9.01982460430E-01
1.35500000000E+09 -1.65393830403E-01 +8.99538745833E-01 -4.21412293945E-06 +1.64357424265E-04 -2.98699852175E-05 +1.34785095477E-04 -2.82733832052E-01 +9.03997744177E-01
1.36000000000E+09 -1.46987996902E-01 +9.02093476016E-01 +1.47367350663E-05 +1.44721615394E-04 -1.18352794358E-05 +1.18120143510E-04 -2.69432039237E-01 +9.05591812265E-01
1.36500000000E+09 -1.31320673787E-01 +9.03961086048E-01 +1.05828179504E-05 +2.05340216762E-04 +7.74469016162E-06 +1.90779576635E-04 -2.56264325682E-01 +9.07324967461E-01
1.37000000000E+09 -1.18731743313E-01 +9.04510674055E-01 +6.03571836493E-05 +2.17947083401E-04 +4.55033686350E-05 +1.98930797405E-04 -2.43490570607E-01 +9.08893601984E-01
1.37500000000E+09 -1.08714836140E-01 +9.03803494176E-01 +1.32675926691E-04 +1.98836988124E-04 +1.36174068142E-04 +1.80092100534E-04 -2.30571706342E-01 +9.10223103682E-01
1.38000000000E+09 -9.91943244665E-02 +9.01705525436E-01 +8.70303585558E-05 +1.28891163371E-04 +7.18138906312E-05 +1.33662838337E-04 -2.16844367264E-01 +9.11378706255E-01
1.38500000000E+09 -8.88289841171E-02 +8.98641114938E-01 +1.25461917154E-04 +1.49380565116E-04 +1.24536947177E-04 +1.37156265373E-04 -2.01171291058E-01 +9.11655951349E-01
1.39000000000E+09 -7.61166998923E-02 +8.95271019623E-01 +8.19309604714E-05 +1.34400937852E-04 +6.60457149632E-05 +1.15444029770E-04 -1.84806768023E-01 +9.11677394093E-01
1.39500000000E+09 -5.94672733205E-02 +8.91750614061E-01 +6.17689620660E-05 +1.49535208751E-04 +6.18876310393E-05 +1.55660809270E-04 -1.67198901207E-01 +9.11085059437E-01
1.40000000000E+09 -3.88709084883E-02 +8.87977938732E-01 +1.03980615158E-04 +1.73691448490E-04 +8.62045807683E-05 +1.75621383478E-04 -1.49358120664E-01 +9.10473913436E-01
1.40500000000E+09 -1.60851229705E-02 +8.84419259131E-01 +1.16125703014E-04 +2.38369024744E-04 +9.50540760695E-05 +2.37574936586E-04 -1.31566328075E-01 +9.09484807543E-01
1.41000000000E+09 +8.22982450897E-03 +8.80597858992E-01 +8.81281198853E-05 +2.37505098867E-04 +1.27701906501E-04 +2.59236649349E-04 -1.12966482407E-01 +9.07618737514E-01
1.41500000000E+09 +3.21033792066E-02 +8.76020480008E-01 +2.55826014293E-04 +3.39136655974E-04 +2.80805980953E-04 +3.70869279118E-04 -9.25810705330E-02 +9.04788923028E-01
1.42000000000E+09 +5.44176449750E-02 +8.70709093933E-01 +4.59940888047E-04 +1.90473623977E-04 +4.27757227634E-04 +2.38714055777E-04 -7.02731982855E-02 +9.00348385125E-01
1.42500000000E+09 +7.45000140566E-02 +8.63769528671E-01 +3.91695105811E-04 +9.31191389769E-05 +4.17228659775E-04 +6.97224386458E-05 -4.62240639158E-02 +8.94680322712E-01
1.43000000000E+09 +9.26134069530E-02 +8.54762469516E-01 +4.08781188227E-04 -1.61140497782E-06 +4.19318598107E-04 -2.59074012004E-05 -2.06468271743E-02 +8.88100864253E-01
1.43500000000E+09 +1.10358450244E-01 +8.43379087247E-01 +3.48088594272E-04 -2.97874335910E-05 +3.27701137362E-04 -6.17504166949E-05 +5.20132694136E-03 +8.79779967645E-01
1.44000000000E+09 +1.29188122874E-01 +8.29582363058E-01 +3.15825210382E-04 +7.43687008784E-05 +3.48995556678E-04 +1.95040745576E-05 +3.13601355535E-02 +8.70085751956E-01
1.44500000000E+09 +1.51087997811E-01 +8.13126515333E-01 +4.94546654494E-04 -6.05121959948E-05 +4.65380300102E-04 -1.50364478671E-04 +5.89611822186E-02 +8.58202003825E-01
1.45000000000E+09 +1.77072697635E-01 +7.93325279034E-01 +3.69200896496E-04 -1.79483991006E-04 +3.84250968120E-04 -1.82811376794E-04 +8.87538457406E-02 +8.42365399172E-01
1.45500000000E+09 +2.06109273543E-01 +7.70413053359E-01 +4.94710080698E-04 -1.85708883695E-04 +4.36226484825E-04 -2.46148475264E-04 +1.19673269267E-01 +8.22660483934E-01
1.46000000000E+09 +2.38199705791E-01 +7.44740392218E-01 +2.62913142805E-04 -2.71791300226E-04 +2.92429556382E-04 -2.22783967392E-04 +1.52394167358E-01 +7.99101718693E-01
1.46500000000E+09 +2.71379380933E-01 +7.15782231165E-01 +4.75402302308E-04 -7.49843531958E-05 +3.88017517467E-04 -1.12728009007E-04 +1.86527846252E-01 +7.71220072725E-01
1.47000000000E+09 +3.03588515434E-01 +6.83270990201E-01 +5.73193336856E-04 -3.33995372320E-04 +5.70396101869E-04 -3.00105353374E-04 +2.20971979208E-01 +7.37679410559E-01
1.47500000000E+09 +3.32553119442E-01 +6.47461535336E-01 +4.53548321644E-04 -3.70911226076E-04 +4.84031817885E-04 -3.36428935724E-04 +2.55173760592E-01 +6.97283772528E-01
1.48000000000E+09 +3.58207984549E-01 +6.06175300220E-01 +6.42081570946E-04 -4.11813457593E-04 +6.66963643264E-04 -3.74672956304E-04 +2.87831664897E-01 +6.48556077777E-01
1.48500000000E+09 +3.77799606649E-01 +5.58343838081E-01 +8.30581969995E-04 -5.63431403813E-04 +7.92444855044E-04 -6.55922995002E-04 +3.17745359813E-01 +5.90532227516E-01
1.49000000000E+09 +3.92698608503E-01 +5.02341140402E-01 +1.13585360142E-03 -8.49427200229E-04 +1.04958710026E-03 -9.57015708433E-04 +3.42583151881E-01 +5.22659614128E-01
1.49500000000E+09 +4.00568835243E-01 +4.37564530059E-01 +1.05674150853E-03 -2.15718260801E-03 +8.76846120161E-04 -2.09429201682E-03 +3.59249407025E-01 +4.44981228156E-01
1.50000000000E+09 +4.02035975487E-01 +3.63701513139E-01 -2.64535043967E-04 -2.76703708335E-03 -3.16894630699E-04 -2.59270490817E-03 +3.63223754778E-01 +3.58361346456E-01
1.50500000000E+09 +3.94698756958E-01 +2.79008285431E-01 -1.46563983857E-03 -2.31171261385E-03 -1.33631014362E-03 -2.23213400557E-03 +3.51710272960E-01 +2.64912730837E-01
1.51000000000E+09 +3.71680783701E-01 +1.88506646467E-01 -1.78801256791E-03 -1.38966371735E-03 -1.73243876019E-03 -1.39473957270E-03 +3.19889712036E-01 +1.67383535917E-01
1.51500000000E+09 +3.33024066542E-01 +1.00574363527E-01 -2.26066175824E-03 -1.48040051503E-03 -2.28071433353E-03 -1.45190856458E-03 +2.65686118574E-01 +7.11177876393E-02
1.52000000000E+09 +2.78985743150E-01 +2.02017983396E-02 -2.78584533402E-03 -5.30298966809E-04 -2.77923953500E-03 -4.56108329994E-04 +1.89122622100E-01 -1.52619965037E-02
1.52500000000E+09 +2.08215237898E-01 -4.90461223077E-02 -2.64664511297E-03 +8.46328874986E-04 -2.60803377268E-03 +8.47889913801E-04 +9.25298193558E-02 -8.52396082900E-02
1.53000000000E+09 +1.18955169946E-01 -9.86346053893E-02 -1.93374389929E-03 +6.81687803345E-04 -1.85954092623E-03 +6.13292024693E-04 -1.63073468582E-02 -1.30344064356E-01
1.53500000000E+09 +2.06699811547E-02 -1.22779538075E-01 -2.38025150594E-03 +1.54409378310E-03 -2.34728569170E-03 +1.56764494484E-03 -1.30848444181E-01 -1.50821585487E-01
1.54000000000E+09 -8.23087174109E-02 -1.24085043857E-01 -1.58408514376E-03 +2.24399034324E-03 -1.53757326416E-03 +2.20405045279E-03 -2.42998795620E-01 -1.44571944693E-01
1.54500000000E+09 -1.83803082976E-01 -1.04651503466E-01 -9.61229486727E-04 +3.13759030659E-03 -9.44911160318E-04 +3.03750235615E-03 -3.43870747323E-01 -1.17634968704E-01
1.55000000000E+09 -2.79746805897E-01 -6.76949404481E-02 +8.66077559155E-04 +3.10053357889E-03 +7.55913428625E-04 +3.08992036488E-03 -4.33160848168E-01 -7.67934508365E-02
1.55500000000E+09 -3.62285392941E-01 -1.64798438544E-02 +1.80465477830E-03 +1.42717805433E-03 +1.79250129872E-03 +1.45512176653E-03 -5.06250155859E-01 -2.40561578241E-02
1.56000000000E+09 -4.28290195607E-01 +4.02855442431E-02 +1.23435824132E-03 +3.47514688884E-04 +1.22530491467E-03 +4.28914870781E-04 -5.63653539490E-01 +3.38115317184E-02
1.56500000000E+09 -4.79090415118E-01 +9.98574207263E-02 +5.80416730421E-04 +2.94705479194E-04 +6.45992794261E-04 +3.29633897517E-04 -6.07190054427E-01 +9.41843527270E-02
1.57000000000E+09 -5.13488711169E-01 +1.59605983505E-01 +7.17714967567E-04 +8.27083627480E-04 +7.49154445887E-04 +8.27385702310E-04 -6.38822789158E-01 +1.53519280904E-01
