# Hz S RI R 50
! CMT, C1220, 16058040, 17.2.0/1
! Date: 15/08/2018 09:00:30
! Data: Format (Calibration Info)
! Freq                      S11: Re/Im (F2)                       S21: Re/Im (F2)                       S12: Re/Im (F2)                       S22: Re/Im (F2)            
1.00000000000E+09 -6.70191406904E-01 +6.96565668839E-01 -1.58758901674E-05 -1.32091543889E-05 +3.12211779195E-05 -1.80944189655E-05 -7.11015418497E-01 +6.71800859082E-01
1.00500000000E+09 -6.63337488586E-01 +7.04480658858E-01 -1.98382100467E-05 -1.79544615236E-05 +2.73796154209E-05 -2.48133378178E-05 -7.07477413279E-01 +6.75030781337E-01
1.01000000000E+09 -6.59433627767E-01 +7.10649735219E-01 -1.20995148867E-05 -4.87699853038E-05 -5.15825380960E-06 +1.45364155921E-05 -7.03487239256E-01 +6.78378398140E-01
1.01500000000E+09 -6.58254758388E-01 +7.14397049673E-01 +5.63365534178E-05 -2.33224057319E-05 -4.40689041595E-05 +1.45413153352E-05 -6.99450206380E-01 +6.82353269360E-01
1.02000000000E+09 -6.58725366382E-01 +7.16184845618E-01 +2.65189532332E-05 -8.96447796217E-06 +2.21893560779E-05 +6.33272739515E-06 -6.95247683120E-01 +6.86333629142E-01
1.02500000000E+09 -6.59565383996E-01 +7.16550468860E-01 +2.75207475903E-06 +2.01661389460E-05 +1.89212754794E-07 -3.87893025513E-05 -6.91661669494E-01 +6.90601152288E-01
1.03000000000E+09 -6.59804607370E-01 +7.16079095074E-01 +4.54280412431E-05 -3.88867812470E-05 +4.06868937127E-06 +1.71570599250E-05 -6.88170067768E-01 +6.94239870026E-01
1.03500000000E+09 -6.57804908123E-01 +7.16520310810E-01 +1.09253555598E-05 +2.38081535659E-05 +3.03693313736E-05 -5.69299885649E-05 -6.84377709752E-01 +6.97539175277E-01
1.04000000000E+09 -6.53262755763E-01 +7.18385238556E-01 -9.43280377366E-06 -1.68075226868E-05 -3.83789423265E-06 -1.14157532634E-05 -6.80479659909E-01 +7.00481464946E-01
1.04500000000E+09 -6.46007111853E-01 +7.22726676346E-01 -2.69617361656E-05 -5.03042723966E-06 +4.02842014825E-05 -4.18542727823E-05 -6.76536451686E-01 +7.03843153515E-01
1.05000000000E+09 -6.36573229619E-01 +7.29157989189E-01 -4.90226864659E-05 -4.15448329073E-07 +2.63139650093E-05 +1.45424985729E-05 -6.72112028724E-01 +7.07796395671E-01
1.05500000000E+09 -6.26416072517E-01 +7.36816852880E-01 -7.73620532820E-06 -5.38659589676E-05 -1.53419843778E-05 -1.37530318857E-05 -6.67744283997E-01 +7.11932285881E-01
1.06000000000E+09 -6.16669491931E-01 +7.45020879417E-01 +3.21569351515E-06 -2.22311517680E-05 +1.49802570826E-05 +3.40694544733E-05 -6.63644947768E-01 +7.16003240039E-01
1.06500000000E+09 -6.08948451549E-01 +7.52271538535E-01 +7.75034316709E-06 -2.48432494110E-05 -3.48449263021E-05 -5.21780795753E-06 -6.59826042861E-01 +7.19683202211E-01
1.07000000000E+09 -6.03684687061E-01 +7.57605359341E-01 -4.73209361493E-06 -8.48277931094E-05 -3.75123750343E-05 +2.01143272180E-05 -6.56058103217E-01 +7.22686688467E-01
1.07500000000E+09 -6.01272724084E-01 +7.60853764174E-01 +4.49031725021E-06 +3.75671068484E-05 -3.15238599093E-05 -2.83183527697E-05 -6.51720654112E-01 +7.25875912980E-01
1.08000000000E+09 -6.00568772624E-01 +7.62326649351E-01 -7.21843766265E-05 +1.86055650305E-05 +1.96927411703E-05 -1.54335590937E-05 -6.47104666682E-01 +7.29448265601E-01
1.08500000000E+09 -6.00655628884E-01 +7.62279263621E-01 +7.68944779727E-06 +3.13098586402E-05 -4.11862381158E-05 -3.34887477439E-05 -6.42311621564E-01 +7.33438161988E-01
1.09000000000E+09 -5.99979934707E-01 +7.61965408101E-01 -2.58614804110E-05 +3.21914284089E-06 -3.16731526400E-05 -1.47261642252E-05 -6.37533545305E-01 +7.37498665219E-01
1.09500000000E+09 -5.97923342277E-01 +7.61890956355E-01 -1.72814286119E-05 -1.45403043839E-05 -2.29074756594E-06 +2.81631395426E-05 -6.32991085963E-01 +7.41700488087E-01
1.10000000000E+09 -5.93071410334E-01 +7.63666266358E-01 +1.35766048816E-05 -2.62750144104E-05 -2.75181082817E-05 +1.04890416779E-05 -6.29121605076E-01 +7.45049574580E-01
1.10500000000E+09 -5.86323718771E-01 +7.67514546974E-01 +4.84342208895E-06 -2.70959119472E-05 -1.88264597751E-05 +4.13939620384E-05 -6.25075009408E-01 +7.47920677229E-01
1.11000000000E+09 -5.77820289090E-01 +7.73297708012E-01 -6.31941898503E-05 +2.36086753260E-05 -4.92647043771E-05 -4.33319045962E-05 -6.20810585909E-01 +7.50763700780E-01
1.11500000000E+09 -5.68482103403E-01 +7.80428698278E-01 -1.89233570672E-05 -1.68455342310E-05 -4.30397200237E-05 +4.78106580804E-06 -6.15955553819E-01 +7.54222196033E-01
1.12000000000E+09 -5.59881815291E-01 +7.87402810588E-01 -2.77759419894E-05 -2.92437654213E-05 -3.22592361040E-05 -1.81242881420E-05 -6.10772014893E-01 +7.58178509583E-01
1.12500000000E+09 -5.52889411242E-01 +7.93517187339E-01 -5.63533673363E-05 -7.18780281665E-06 -1.17088039813E-05 -1.75512670744E-05 -6.05312008202E-01 +7.62344754713E-01
1.13000000000E+09 -5.47896568205E-01 +7.97702081149E-01 -5.12381764075E-05 -2.52831899275E-05 -9.29024424473E-05 -1.61066358931E-05 -6.00596464817E-01 +7.66126019432E-01
1.13500000000E+09 -5.44754723131E-01 +7.99648843622E-01 -2.45328196356E-05 -5.60805313148E-06 -6.14343035249E-05 +2.66909720907E-05 -5.96119578216E-01 +7.69539050883E-01
1.14000000000E+09 -5.42568621962E-01 +8.00064112679E-01 -5.64041315793E-05 +3.73672136594E-05 -4.85150601446E-05 -1.66127838952E-06 -5.91634339158E-01 +7.72370054842E-01
1.14500000000E+09 -5.40290465289E-01 +7.98865724239E-01 -3.45757851305E-05 +3.38731258479E-05 -3.67247004810E-05 +2.37233450721E-05 -5.86805226718E-01 +7.75371421012E-01
1.15000000000E+09 -5.36481039055E-01 +7.98042842770E-01 -5.02059630336E-05 +2.59096827144E-05 -8.32990205941E-05 +1.18815366909E-05 -5.81206505755E-01 +7.79145005521E-01
1.15500000000E+09 -5.30739427048E-01 +7.98216597863E-01 -2.79124623082E-05 +3.86951931895E-06 -6.23298734843E-05 +4.27208468425E-05 -5.75295999203E-01 +7.83229068923E-01
1.16000000000E+09 -5.22291657639E-01 +8.00264278921E-01 -1.61568806857E-05 +2.59887787293E-05 -1.18421287204E-05 +1.42242418359E-05 -5.69612656876E-01 +7.87164625204E-01
1.16500000000E+09 -5.11824110838E-01 +8.04889826413E-01 -4.83268660012E-05 +1.11543001042E-05 -4.28322698328E-05 +1.43084009750E-05 -5.64099530127E-01 +7.90650361666E-01
1.17000000000E+09 -5.00256140419E-01 +8.11279636651E-01 -4.42458539878E-05 +9.72522061350E-05 -5.47201121370E-05 +9.30059260168E-05 -5.59028907102E-01 +7.93430444160E-01
1.17500000000E+09 -4.88909267715E-01 +8.18537212290E-01 +4.49835255918E-06 +8.23221942401E-05 -3.37640084777E-05 +7.20668964531E-05 -5.53717979155E-01 +7.96083726458E-01
1.18000000000E+09 -4.79303171759E-01 +8.25919252146E-01 -2.43304777817E-05 +6.93137884886E-05 -9.43881928107E-05 +6.90435105397E-05 -5.48019811296E-01 +7.98958381294E-01
1.18500000000E+09 -4.72264882330E-01 +8.32031963584E-01 -3.90822156510E-05 +7.88360027672E-05 -3.07710773474E-05 +4.42557520585E-05 -5.41216490236E-01 +8.01888938015E-01
1.19000000000E+09 -4.68143105821E-01 +8.35806977868E-01 -3.93805363307E-05 +6.68957033069E-05 -1.27118832985E-05 +8.45196035000E-05 -5.33991124069E-01 +8.04733692801E-01
1.19500000000E+09 -4.66663006634E-01 +8.37236639167E-01 -4.07986638357E-05 +1.20884203292E-04 -5.04626604804E-05 +1.19979572182E-04 -5.27332629194E-01 +8.06090067052E-01
1.20000000000E+09 -4.66449689910E-01 +8.36324266099E-01 -1.19382889363E-05 +1.86811292970E-04 -3.47281214200E-05 +1.36677183130E-04 -5.22134017383E-01 +8.06091892807E-01
1.20500000000E+09 -4.66502818976E-01 +8.34799289364E-01 +9.95297688135E-05 +9.17222593916E-05 +9.96270594085E-05 +1.46224660345E-04 -5.19699100856E-01 +8.05901142631E-01
1.21000000000E+09 -4.64573088053E-01 +8.33305780050E-01 +1.34879737798E-04 +6.67550377692E-05 +1.72159702009E-04 +6.72164244037E-05 -5.18083770237E-01 +8.08091989592E-01
1.21500000000E+09 -4.59275576292E-01 +8.33178266106E-01 +9.91831146165E-05 -3.00399252927E-05 +9.16755834803E-05 -5.17434185524E-06 -5.14862039897E-01 +8.12328948868E-01
1.22000000000E+09 -4.50533800894E-01 +8.34839712598E-01 +3.86613046109E-05 -2.37866923651E-05 +7.60705269569E-05 -7.51217591165E-06 -5.09610744586E-01 +8.17985956672E-01
1.22500000000E+09 -4.38639431041E-01 +8.39017433062E-01 -5.02921431244E-06 +1.67356031684E-05 +2.27088516774E-05 -3.50470043397E-05 -5.03055750603E-01 +8.23293107572E-01
1.23000000000E+09 -4.24990451551E-01 +8.44808849257E-01 -2.37870501615E-05 +5.96132480592E-06 -2.15097680635E-05 -7.87798998358E-06 -4.96612648265E-01 +8.28067795306E-01
1.23500000000E+09 -4.11373224752E-01 +8.51857350578E-01 -3.42882466198E-05 +7.75462744538E-05 +2.53172678431E-06 +7.95092392897E-05 -4.90998039480E-01 +8.31951777713E-01
1.24000000000E+09 -3.99061132585E-01 +8.58796740068E-01 -8.50647780981E-06 +6.64027008835E-05 +2.65298840661E-05 +8.56172179057E-05 -4.85606452744E-01 +8.35172776193E-01
1.24500000000E+09 -3.89639367963E-01 +8.64956671258E-01 +1.06497920897E-05 +1.20896302321E-04 +4.44145320468E-05 +6.41861426461E-05 -4.79395322253E-01 +8.38436726455E-01
1.25000000000E+09 -3.83128117911E-01 +8.68898064852E-01 +2.36260199636E-05 +1.27400112000E-04 +4.07424506220E-05 +1.04680690718E-04 -4.72109434036E-01 +8.42340315833E-01
1.25500000000E+09 -3.79495871523E-01 +8.70521804454E-01 +5.96194232484E-05 +8.19937565493E-05 +8.36349053494E-05 +6.67812419247E-05 -4.63847649519E-01 +8.46081175427E-01
1.26000000000E+09 -3.77318599975E-01 +8.70677756638E-01 +9.86346484344E-05 +1.02009647385E-04 +6.93428934248E-05 +1.05034457866E-04 -4.55851569004E-01 +8.50322185168E-01
1.26500000000E+09 -3.75095465437E-01 +8.69681568087E-01 +1.09751744565E-04 +9.41945712867E-07 +1.20395951330E-04 +5.81518527093E-05 -4.48184132549E-01 +8.53819952988E-01
1.27000000000E+09 -3.71093928985E-01 +8.68834237823E-01 +1.10519809629E-04 +4.21608364356E-05 +1.02267885774E-04 +3.16567037711E-05 -4.41523409868E-01 +8.57119430552E-01
1.27500000000E+09 -3.63918752040E-01 +8.69309602310E-01 +1.08365858582E-04 +1.22891190660E-05 +8.48476063489E-05 +2.43214305103E-05 -4.34934682677E-01 +8.60068494390E-01
1.28000000000E+09 -3.53196782087E-01 +8.71386783732E-01 +9.34364905461E-05 +1.04867183737E-05 +1.22657090378E-04 +2.81933824638E-05 -4.27913848165E-01 +8.63008853936E-01
1.28500000000E+09 -3.39307394110E-01 +8.75487411252E-01 +1.05039239708E-04 -6.21992186280E-06 +6.83680703773E-05 -1.80463231490E-05 -4.19530139144E-01 +8.66177719775E-01
1.29000000000E+09 -3.23641840513E-01 +8.81053502752E-01 +9.59067280496E-05 +1.54149406627E-05 +7.90202751322E-05 +1.62299226244E-05 -4.10583431370E-01 +8.69639423262E-01
1.29500000000E+09 -3.08064902892E-01 +8.87238407375E-01 +9.15504674761E-05 -2.96192905071E-05 +9.65178933675E-05 -6.80443307490E-06 -4.01393222361E-01 +8.72841493443E-01
1.30000000000E+09 -2.94214562324E-01 +8.93064126509E-01 +9.88439256309E-05 +3.96112382465E-06 +8.06058677090E-05 +2.99578373215E-06 -3.93114047648E-01 +8.76112970846E-01
1.30500000000E+09 -2.83551704798E-01 +8.97357015302E-01 +4.84786635185E-05 -2.99897381792E-06 +1.01502692126E-04 +2.89360779534E-05 -3.85261203995E-01 +8.78785595450E-01
1.31000000000E+09 -2.76354960790E-01 +8.99752693853E-01 +6.84488463454E-05 +3.89492041944E-05 +1.07202145101E-04 +3.58606893343E-05 -3.77475891321E-01 +8.81526481737E-01
1.31500000000E+09 -2.71933356403E-01 +9.00251752454E-01 +1.50567367849E-04 +7.86616566584E-05 +1.22105165463E-04 +3.99621034663E-05 -3.68674890651E-01 +8.84236044269E-01
1.32000000000E+09 -2.68921223114E-01 +8.99222895280E-01 +1.55187181230E-04 +4.20786111919E-06 +1.61155089035E-04 +1.73349628774E-05 -3.58516525959E-01 +8.86879601918E-01
1.32500000000E+09 -2.65174373961E-01 +8.97196067886E-01 +1.97404061076E-04 -1.21016487935E-05 +2.17762121896E-04 +4.70525572907E-05 -3.47653396323E-01 +8.89904186379E-01
1.33000000000E+09 -2.58731154639E-01 +8.95325188237E-01 +2.02425223138E-04 +1.00392785196E-05 +2.14787929185E-04 -6.67814410479E-05 -3.36612939052E-01 +8.92668509380E-01
1.33500000000E+09 -2.48614598860E-01 +8.94033062945E-01 +2.76104704035E-04 -5.42789355061E-05 +2.43063702063E-04 -7.79163736209E-05 -3.26575414002E-01 +8.95351291954E-01
1.34000000000E+09 -2.34141101364E-01 +8.94317470427E-01 +2.81100896100E-04 -1.04128372721E-04 +2.77705717934E-04 -1.18582923696E-04 -3.17116866172E-01 +8.97698442532E-01
1.34500000000E+09 -2.16306794509E-01 +8.95979700083E-01 +2.42291721409E-04 -2.02147507420E-04 +2.51293819452E-04 -1.92613113738E-04 -3.06877165101E-01 +9.00114347010E-01
1.35000000000E+09 -1.96314062563E-01 +8.98815499817E-01 +2.25241459201E-04 -2.10914737216E-04 +1.79040563697E-04 -2.05505697910E-04 -2.95740066485E-01 +9.02252186817E-01
1.35500000000E+09 -1.76433770896E-01 +9.01981561866E-01 +1.61252466918E-04 -2.15826281098E-04 +1.60606314738E-04 -2.26859541033E-04 -2.83013992477E-01 +9.03944424825E-01
1.36000000000E+09 -1.58497355524E-01 +9.05031488644E-01 +1.74488686476E-04 -2.36627082251E-04 +2.04378218990E-04 -2.25551532512E-04 -2.69866389802E-01 +9.05818001446E-01
1.36500000000E+09 -1.43577805080E-01 +9.07148119530E-01 +1.48575889586E-04 -2.77452602063E-04 +1.47816853323E-04 -2.68946276200E-04 -2.56825094924E-01 +9.07467356906E-01
1.37000000000E+09 -1.31868199522E-01 +9.07966487382E-01 +1.18888261363E-04 -3.42123253630E-04 +1.14765433302E-04 -3.45154906735E-04 -2.43881239878E-01 +9.09031969769E-01
1.37500000000E+09 -1.22538114328E-01 +9.07409835579E-01 +8.30398944536E-05 -3.62638097036E-04 +1.55120219322E-04 -3.53266817946E-04 -2.31020999623E-01 +9.10520533583E-01
1.38000000000E+09 -1.14031746724E-01 +9.05451002474E-01 +2.97898126277E-05 -3.66002657304E-04 +3.48134500291E-05 -3.97829278443E-04 -2.17156100526E-01 +9.11566788188E-01
1.38500000000E+09 -1.03916326287E-01 +9.02389904509E-01 +3.01720458626E-05 -3.19595206552E-04 +1.38349037873E-05 -3.51549252405E-04 -2.01742800274E-01 +9.11826269966E-01
1.39000000000E+09 -9.12738080345E-02 +8.98577632836E-01 +8.82631379380E-05 -3.09317752703E-04 +8.02808557156E-05 -3.60531952839E-04 -1.85168200123E-01 +9.11724537312E-01
1.39500000000E+09 -7.45293698134E-02 +8.94825641009E-01 +1.49463365139E-04 -3.98057959955E-04 +1.11852582126E-04 -4.33151139693E-04 -1.67518957796E-01 +9.11276958713E-01
1.40000000000E+09 -5.35611352994E-02 +8.91067899418E-01 +1.25600419652E-04 -5.67419832987E-04 +2.85196715980E-05 -5.89847137778E-04 -1.49686377432E-01 +9.10614759553E-01
1.40500000000E+09 -3.00334092262E-02 +8.87504456794E-01 +3.20457071861E-05 -6.93584333742E-04 -1.59814185411E-05 -6.86919933056E-04 -1.31811785378E-01 +9.09512423031E-01
1.41000000000E+09 -5.01399441177E-03 +8.83835701973E-01 -2.85444711755E-04 -7.31893950532E-04 -3.00701053778E-04 -7.56621215848E-04 -1.13189651911E-01 +9.07757192004E-01
1.41500000000E+09 +1.91620200794E-02 +8.79871467158E-01 -4.28365114005E-04 -5.26769764840E-04 -3.67105286943E-04 -5.20988487734E-04 -9.28454907436E-02 +9.04814637457E-01
1.42000000000E+09 +4.14056237170E-02 +8.75526881285E-01 -3.08675185101E-04 -4.54756254204E-04 -3.28798585540E-04 -4.79799305237E-04 -7.05823645715E-02 +9.00378558084E-01
1.42500000000E+09 +6.10721688006E-02 +8.69988156053E-01 -3.20752295331E-04 -4.36018534503E-04 -3.79507674421E-04 -5.50926818744E-04 -4.64415428364E-02 +8.94716475935E-01
1.43000000000E+09 +7.87920248158E-02 +8.62663118006E-01 -3.51693046112E-04 -5.36786172934E-04 -4.09987691748E-04 -5.93641420413E-04 -2.11121648478E-02 +8.88026371563E-01
1.43500000000E+09 +9.57285210764E-02 +8.52900143321E-01 -3.92749908344E-04 -6.70797531415E-04 -4.61371343125E-04 -6.35163319871E-04 +4.73733997737E-03 +8.79793228188E-01
1.44000000000E+09 +1.13786171939E-01 +8.40957766110E-01 -5.61261176649E-04 -7.89818593442E-04 -6.37852452569E-04 -7.78272633929E-04 +3.07408022611E-02 +8.70164161950E-01
1.44500000000E+09 +1.35328421987E-01 +8.26093161859E-01 -8.36570930015E-04 -7.58125119388E-04 -9.90255288856E-04 -7.67461563363E-04 +5.84245740780E-02 +8.58419254468E-01
1.45000000000E+09 +1.60959788981E-01 +8.07516253558E-01 -1.02092047355E-03 -6.49488992645E-04 -1.14699449682E-03 -5.98941006705E-04 +8.81573736476E-02 +8.42700869501E-01
1.45500000000E+09 +1.90974642806E-01 +7.86258354041E-01 -1.24495278176E-03 -6.41081907560E-04 -1.30894451641E-03 -5.27192092234E-04 +1.19265086588E-01 +8.23039373804E-01
1.46000000000E+09 +2.24929379887E-01 +7.60935121335E-01 -1.64977391589E-03 -4.82927228585E-04 -1.64455276658E-03 -2.78397221609E-04 +1.52191501009E-01 +7.99713156332E-01
1.46500000000E+09 +2.59883650278E-01 +7.32202290557E-01 -1.66091968622E-03 +3.51731918023E-05 -1.50047376363E-03 +1.33963075029E-04 +1.86342548018E-01 +7.71715286612E-01
1.47000000000E+09 +2.94217725136E-01 +7.00031833413E-01 -1.58049593229E-03 -2.42965264694E-04 -1.44132317320E-03 -2.06121998695E-04 +2.20988445028E-01 +7.38138141250E-01
1.47500000000E+09 +3.25969977919E-01 +6.63820423135E-01 -2.48679801676E-03 -9.16050809148E-05 -2.39857121300E-03 -1.66069962950E-04 +2.55284016180E-01 +6.97724795767E-01
1.48000000000E+09 +3.52743681883E-01 +6.22684214618E-01 -2.56152298036E-03 +7.54190513191E-04 -2.62073067403E-03 +7.38891290331E-04 +2.88066437484E-01 +6.48722867713E-01
1.48500000000E+09 +3.74034473579E-01 +5.75971125338E-01 -3.00337065584E-03 +9.94774814437E-04 -3.02075657061E-03 +1.07590561327E-03 +3.18198877968E-01 +5.90387749964E-01
1.49000000000E+09 +3.90331129292E-01 +5.22854228376E-01 -3.35417415534E-03 +2.66466494097E-03 -3.19685212104E-03 +2.81745643802E-03 +3.43158927352E-01 +5.21994565105E-01
1.49500000000E+09 +4.02158391477E-01 +4.60822622324E-01 -2.15025388702E-03 +3.99677202015E-03 -1.86105845303E-03 +3.86190033684E-03 +3.59249358125E-01 +4.43837975377E-01
1.50000000000E+09 +4.08254465377E-01 +3.87575841071E-01 -9.25266062330E-04 +4.31819027743E-03 -8.98685520712E-04 +4.05939525897E-03 +3.62635011139E-01 +3.57170362414E-01
1.50500000000E+09 +4.05418132840E-01 +3.02943124405E-01 +5.10190407289E-05 +4.16628369455E-03 -8.84475623403E-05 +4.00516675333E-03 +3.50396281556E-01 +2.64101675546E-01
1.51000000000E+09 +3.89241781794E-01 +2.10483653006E-01 +3.46941953115E-04 +4.05416582797E-03 +2.28715610506E-04 +3.99917505543E-03 +3.18378497309E-01 +1.67124113918E-01
1.51500000000E+09 +3.57164847541E-01 +1.15964203782E-01 +1.20333195357E-03 +4.58268085024E-03 +1.05674513465E-03 +4.62351400601E-03 +2.64132547763E-01 +7.16338184236E-02
1.52000000000E+09 +3.06165051764E-01 +2.64319320290E-02 +2.48165241927E-03 +4.71541962392E-03 +2.46261797930E-03 +4.84919711567E-03 +1.87892128379E-01 -1.43042190756E-02
1.52500000000E+09 +2.37312997604E-01 -5.15394836404E-02 +4.34766123883E-03 +4.56582271886E-03 +4.38073533505E-03 +4.70384921582E-03 +9.18114095817E-02 -8.37884523964E-02
1.53000000000E+09 +1.50292860942E-01 -1.12217802053E-01 +5.95306566230E-03 +2.77157038857E-03 +6.04592500746E-03 +2.84483853807E-03 -1.58517515625E-02 -1.28822499317E-01
1.53500000000E+09 +4.91989932321E-02 -1.50221156762E-01 +6.42494402935E-03 +3.77491491998E-04 +6.45032563647E-03 +3.18097279945E-04 -1.29690696513E-01 -1.50006954634E-01
1.54000000000E+09 -6.10127703715E-02 -1.64308485462E-01 +5.43720510407E-03 -1.55602572776E-03 +5.33523856803E-03 -1.60378414256E-03 -2.41635664310E-01 -1.44711653735E-01
1.54500000000E+09 -1.75047716763E-01 -1.51876915012E-01 +4.26205960889E-03 -2.41692335267E-03 +4.25657569852E-03 -2.35542349524E-03 -3.43018976996E-01 -1.18619614733E-01
1.55000000000E+09 -2.80895510108E-01 -1.17273774108E-01 +2.96745306607E-03 -2.71425572731E-03 +3.00779108339E-03 -2.58593101692E-03 -4.33085363964E-01 -7.80211178792E-02
1.55500000000E+09 -3.73924234442E-01 -6.66928323090E-02 +2.57044182229E-03 -2.30814837197E-03 +2.63445470150E-03 -2.23103728652E-03 -5.06676295062E-01 -2.51776396232E-02
1.56000000000E+09 -4.48899474794E-01 -6.86913537748E-03 +2.93070192761E-03 -2.79901341331E-03 +3.13100445914E-03 -2.76003251195E-03 -5.64531741250E-01 +3.28313639028E-02
1.56500000000E+09 -5.06314259269E-01 +5.56603953515E-02 +1.90039489134E-03 -3.88431109884E-03 +2.02293156732E-03 -4.03200449822E-03 -6.08379028545E-01 +9.35238342431E-02
1.57000000000E+09 -5.47488596862E-01 +1.18500809007E-01 +7.22947878557E-04 -3.61459657209E-03 +7.51326227011E-04 -3.77673323487E-03 -6.39967226966E-01 +1.53446754568E-01
