# Hz S RI R 50
! CMT, C1220, 16058040, 17.2.0/1
! Date: 15/08/2018 08:55:42
! Data: Format (Calibration Info)
! Freq                      S11: Re/Im (F2)                       S21: Re/Im (F2)                       S12: Re/Im (F2)                       S22: Re/Im (F2)            
1.00000000000E+09 -6.56316386348E-01 +7.01832030142E-01 -4.04389359005E-05 +4.40858673131E-06 +4.72272895455E-05 +4.58601773942E-05 -7.10889980953E-01 +6.71920274460E-01
1.00500000000E+09 -6.49275674442E-01 +7.09561122490E-01 -1.13263727739E-06 -1.96792451835E-05 -1.27382996501E-05 +4.27938458339E-05 -7.07303264700E-01 +6.75378343287E-01
1.01000000000E+09 -6.45727736743E-01 +7.15538084095E-01 -2.75262992921E-05 -4.37681986897E-06 +4.19891581133E-06 -1.78056942148E-06 -7.03577208209E-01 +6.78617816089E-01
1.01500000000E+09 -6.45119898877E-01 +7.18705837481E-01 +2.48742316669E-05 -4.69476995980E-06 +2.77415827928E-05 -7.86085130944E-06 -6.99470069249E-01 +6.82638339216E-01
1.02000000000E+09 -6.46797001427E-01 +7.20181742541E-01 +3.18085418946E-06 -2.82518605537E-05 -5.40152030152E-05 -8.40871418968E-06 -6.95138579610E-01 +6.86752477025E-01
1.02500000000E+09 -6.48804597383E-01 +7.19943018047E-01 -1.70669997116E-05 -9.71886962580E-06 +6.96236649375E-06 -7.68750807566E-06 -6.91591726726E-01 +6.90696315853E-01
1.03000000000E+09 -6.50086937647E-01 +7.19182586924E-01 -1.59461645512E-05 -3.52124971799E-05 +3.98568107401E-06 -1.55058768630E-05 -6.87969098987E-01 +6.94488402793E-01
1.03500000000E+09 -6.48832838359E-01 +7.19054098791E-01 +5.98010107067E-06 +2.16717149458E-06 -5.55185364101E-06 -1.02638506909E-05 -6.84229517751E-01 +6.97834090030E-01
1.04000000000E+09 -6.44642801876E-01 +7.20766978565E-01 +6.14637134351E-06 -4.00644900251E-05 -1.01238848155E-06 +2.27979199305E-05 -6.80454845277E-01 +7.00823110155E-01
1.04500000000E+09 -6.37801823047E-01 +7.24720833797E-01 +1.02285751256E-05 +1.78046973095E-05 -1.75382952602E-05 +1.54790791383E-05 -6.76396853657E-01 +7.04165089863E-01
1.05000000000E+09 -6.28348864541E-01 +7.31360397206E-01 -2.73864533527E-05 +5.46683851509E-05 +1.09393143371E-06 -3.47066184231E-05 -6.72055906819E-01 +7.08048682019E-01
1.05500000000E+09 -6.17961144264E-01 +7.39329574143E-01 -2.97794536112E-05 -4.65309650359E-06 -9.92095299064E-06 +2.57943654332E-05 -6.67537663697E-01 +7.12182602220E-01
1.06000000000E+09 -6.07713074074E-01 +7.48120674075E-01 -1.96370305632E-05 +4.65724107795E-05 -8.36200235398E-06 +5.04518584952E-05 -6.63624238946E-01 +7.16438424103E-01
1.06500000000E+09 -5.99113726516E-01 +7.55880986920E-01 -1.58205567196E-05 +1.39413627035E-05 +8.70128955422E-06 +1.39765459197E-05 -6.59743562977E-01 +7.19972011614E-01
1.07000000000E+09 -5.92781021562E-01 +7.61824201509E-01 -2.43675264529E-05 +6.13846194837E-05 +9.36300885707E-06 +3.44748658901E-05 -6.55981841442E-01 +7.23082570156E-01
1.07500000000E+09 -5.89144240714E-01 +7.65484292592E-01 +1.52871521080E-06 -1.33585355478E-05 -1.76000951271E-05 +3.46366862376E-06 -6.51482858502E-01 +7.26060799275E-01
1.08000000000E+09 -5.87649600658E-01 +7.67149345011E-01 -7.44106678803E-06 +4.53356686615E-05 +5.04395464889E-05 +3.11403529466E-06 -6.47158519550E-01 +7.29838568943E-01
1.08500000000E+09 -5.87067349673E-01 +7.67199816685E-01 +1.75461368103E-05 +3.88661121415E-05 -1.15441845185E-05 +2.78174734603E-05 -6.42032579697E-01 +7.33685765327E-01
1.09000000000E+09 -5.85650830782E-01 +7.66964453751E-01 -1.65557359989E-05 +2.04959998393E-05 +3.47559011941E-05 -1.08494800428E-05 -6.37464946232E-01 +7.37977971610E-01
1.09500000000E+09 -5.83461433488E-01 +7.67023441821E-01 +2.41478079304E-05 +1.48129076891E-06 +2.79152745592E-05 +6.55800331678E-05 -6.33156551586E-01 +7.41875918576E-01
1.10000000000E+09 -5.78767779925E-01 +7.68454126002E-01 +6.71600813154E-05 +2.93043256477E-05 +6.58746046906E-06 +4.30137833030E-05 -6.29128321332E-01 +7.45222654893E-01
1.10500000000E+09 -5.72330961029E-01 +7.72203919437E-01 +1.22964043502E-05 +2.99677896609E-05 +1.68209694648E-05 +2.50750889397E-05 -6.25042213005E-01 +7.48196359003E-01
1.11000000000E+09 -5.64700291598E-01 +7.77773435751E-01 -2.68854660519E-05 +2.18788631642E-06 +8.06151532732E-05 -9.95811576965E-06 -6.20646071260E-01 +7.51161042085E-01
1.11500000000E+09 -5.56341951036E-01 +7.84677618020E-01 +7.61379701211E-05 +3.47666822195E-05 +1.44767195415E-05 +7.99501937166E-05 -6.15759080030E-01 +7.54513237488E-01
1.12000000000E+09 -5.48877983150E-01 +7.91489959191E-01 +1.78966835463E-05 -1.75972252524E-05 +3.01219158483E-05 -3.91351476034E-06 -6.10578721413E-01 +7.58460652168E-01
1.12500000000E+09 -5.42851877156E-01 +7.97560664441E-01 -1.38757986457E-07 +1.09832179898E-06 +5.38178897688E-06 +2.74615896550E-05 -6.05360372533E-01 +7.62748762775E-01
1.13000000000E+09 -5.38875323484E-01 +8.01880304423E-01 -2.46470236659E-05 +6.99323154673E-06 +7.93232807462E-06 +1.29187899064E-05 -6.00621509565E-01 +7.66511451630E-01
1.13500000000E+09 -5.36345477764E-01 +8.04001547204E-01 +1.89043590460E-05 -1.96018049969E-05 +5.09085368404E-05 +7.95387039246E-06 -5.96046390714E-01 +7.69733771316E-01
1.14000000000E+09 -5.34458799992E-01 +8.04514734283E-01 +1.04854863493E-05 +1.75019398991E-05 +7.16671968087E-05 +1.61886215419E-05 -5.91548337910E-01 +7.72598393000E-01
1.14500000000E+09 -5.32167216705E-01 +8.03783334201E-01 -1.17338580688E-06 -2.59819581330E-05 +2.03224820315E-05 -5.30691072288E-05 -5.86776908311E-01 +7.75605191397E-01
1.15000000000E+09 -5.28107150091E-01 +8.03216485803E-01 +5.95267254276E-05 -2.51640105226E-05 +7.47049847007E-05 +1.75609059625E-05 -5.81073137239E-01 +7.79513919782E-01
1.15500000000E+09 -5.21849865683E-01 +8.03477472006E-01 +5.10817355263E-05 -3.91749779972E-05 +2.04296450348E-05 +6.85776932699E-06 -5.75069501019E-01 +7.83558837826E-01
1.16000000000E+09 -5.12912534188E-01 +8.05428691079E-01 +4.36843712687E-05 +2.02692957877E-05 +4.80854832232E-05 +5.74985289501E-06 -5.69415514190E-01 +7.87503016317E-01
1.16500000000E+09 -5.02031746541E-01 +8.09844968090E-01 +4.12596566005E-05 +6.99836775213E-06 +4.55253289572E-05 +2.45602543394E-05 -5.64047351083E-01 +7.90944623136E-01
1.17000000000E+09 -4.90322223632E-01 +8.15927374006E-01 +5.86088274086E-05 -1.06763865067E-05 +1.42115878132E-05 -6.47053145044E-06 -5.58995056332E-01 +7.93818372548E-01
1.17500000000E+09 -4.79114093556E-01 +8.22797948598E-01 +6.06605444413E-05 +1.87375330201E-05 +1.09629341678E-04 -3.02161770196E-05 -5.53561646383E-01 +7.96371606653E-01
1.18000000000E+09 -4.69937328051E-01 +8.29717552778E-01 +5.28930432387E-05 -1.13058859759E-05 +4.28627015373E-05 -9.51974842281E-06 -5.47958934494E-01 +7.99329104156E-01
1.18500000000E+09 -4.63735127592E-01 +8.35177103854E-01 +7.98848262775E-05 -1.35344721871E-05 +6.73096043192E-05 -5.01978552895E-05 -5.41092569295E-01 +8.02250541430E-01
1.19000000000E+09 -4.60538908274E-01 +8.38750372062E-01 +5.34791336057E-05 -5.86207039887E-05 +4.89448572238E-05 -6.69411686816E-05 -5.33761454965E-01 +8.05063052710E-01
1.19500000000E+09 -4.59819532604E-01 +8.40088789692E-01 +8.98343738331E-05 -7.05199890215E-05 +8.84140731362E-05 -8.73867654189E-05 -5.27065989385E-01 +8.06384938843E-01
1.20000000000E+09 -4.60358267200E-01 +8.39201940633E-01 +8.55440362561E-05 -1.53614431093E-04 +5.35481995222E-05 -1.01487688113E-04 -5.22126543102E-01 +8.06422794416E-01
1.20500000000E+09 -4.60657452077E-01 +8.38009727416E-01 -1.60739565320E-05 -1.42150444777E-04 -3.65129667177E-05 -1.26187898128E-04 -5.19681272904E-01 +8.06253541404E-01
1.21000000000E+09 -4.58815912713E-01 +8.37168935745E-01 -6.40369917084E-05 -6.77845461372E-05 -3.29908371897E-05 -5.40714737849E-05 -5.17913044738E-01 +8.08250199362E-01
1.21500000000E+09 -4.53016213342E-01 +8.37502780650E-01 -4.71392237869E-05 -1.91050218428E-05 -1.95406359580E-05 -1.57774427551E-05 -5.14765268564E-01 +8.12483636389E-01
1.22000000000E+09 -4.43610456067E-01 +8.39866748766E-01 -4.38616366158E-06 +1.39155533151E-05 +3.80143432608E-06 -3.96223603126E-06 -5.09470223175E-01 +8.18298581544E-01
1.22500000000E+09 -4.30797536063E-01 +8.44476911676E-01 -2.19020365050E-05 -2.21645778185E-05 -1.37145359010E-05 +3.46397165754E-05 -5.02917276086E-01 +8.23581107679E-01
1.23000000000E+09 -4.16218434888E-01 +8.50822976311E-01 +2.04885429427E-05 -3.46528244031E-05 -2.88519308096E-06 -4.23684156263E-05 -4.96506850278E-01 +8.28324220388E-01
1.23500000000E+09 -4.01676078741E-01 +8.58017708431E-01 +1.88279989877E-05 -7.47474117322E-05 -1.84495695867E-05 -9.44438156752E-05 -4.90997509389E-01 +8.32264920451E-01
1.24000000000E+09 -3.88627659506E-01 +8.65164325457E-01 +1.98559567191E-05 -5.79152000006E-05 +3.86754114237E-06 -1.08146389660E-04 -4.85291954984E-01 +8.35499232864E-01
1.24500000000E+09 -3.78465708893E-01 +8.71249519952E-01 -1.98345347473E-05 -1.35778660505E-04 -4.44294738523E-05 -9.48596970448E-05 -4.79164078427E-01 +8.38684548122E-01
1.25000000000E+09 -3.71507567514E-01 +8.75132022328E-01 -2.30301277430E-05 -8.98328184377E-05 -6.00694378203E-06 -1.01740288937E-04 -4.71940294588E-01 +8.42573037198E-01
1.25500000000E+09 -3.67204238689E-01 +8.76512188080E-01 -5.67257122356E-05 -4.22694909055E-05 -4.08991572854E-05 -1.02906821985E-04 -4.63618964559E-01 +8.46267831180E-01
1.26000000000E+09 -3.64448081585E-01 +8.76357284307E-01 -8.53316615657E-05 -9.25179920843E-05 -4.74634090235E-05 -1.29912251437E-04 -4.55538117785E-01 +8.50637276636E-01
1.26500000000E+09 -3.61585119184E-01 +8.75199769130E-01 -6.33044673950E-05 -5.89929982605E-05 -2.74421363388E-05 -4.41393471088E-05 -4.47954449827E-01 +8.54122529752E-01
1.27000000000E+09 -3.56651765893E-01 +8.74228983107E-01 -5.27000422003E-05 -6.12213603462E-05 -4.77167539390E-05 -4.81004379104E-05 -4.41287090097E-01 +8.57391095894E-01
1.27500000000E+09 -3.48970469492E-01 +8.74530871734E-01 -6.58926766637E-05 -2.11578721491E-05 -5.59811927005E-05 -6.18818311773E-05 -4.34818335788E-01 +8.60210743204E-01
1.28000000000E+09 -3.37736758081E-01 +8.76601335600E-01 -5.66712277968E-05 -6.30701421371E-05 -3.55072335641E-05 -8.04341901786E-05 -4.27698599405E-01 +8.63093764084E-01
1.28500000000E+09 -3.23580467464E-01 +8.80584770321E-01 -9.12451132319E-05 -4.50030905678E-05 -6.19187074267E-05 -6.47026895379E-05 -4.19424265086E-01 +8.66362311305E-01
1.29000000000E+09 -3.08414250075E-01 +8.86161904966E-01 -1.16063893412E-04 -8.05020948940E-05 -8.54657845591E-05 -7.49795623234E-05 -4.10394113277E-01 +8.69805121152E-01
1.29500000000E+09 -2.93427044937E-01 +8.92267024241E-01 -1.08377187761E-04 -3.80595267033E-05 -1.20979802639E-04 -4.79004892396E-05 -4.01206058837E-01 +8.73135082810E-01
1.30000000000E+09 -2.80658556935E-01 +8.98130141680E-01 -1.17874730783E-04 -8.71567361069E-05 -1.79711156581E-04 -4.46044813680E-05 -3.92817845639E-01 +8.76242837083E-01
1.30500000000E+09 -2.71334088437E-01 +9.02405257730E-01 -2.16038384162E-04 -8.67685725836E-05 -1.65843510906E-04 -7.45469228494E-05 -3.85159251855E-01 +8.79104930638E-01
1.31000000000E+09 -2.65531420611E-01 +9.04618287559E-01 -2.46273696330E-04 +3.94232001693E-06 -2.07529972018E-04 -6.24180530509E-06 -3.77306870382E-01 +8.81736075298E-01
1.31500000000E+09 -2.62423514083E-01 +9.05234037582E-01 -2.26321000374E-04 +1.03976971072E-04 -2.12916882702E-04 +7.75757767845E-05 -3.68453534254E-01 +8.84505841680E-01
1.32000000000E+09 -2.60142759151E-01 +9.04381616499E-01 -1.36689590293E-04 +1.12906238163E-04 -1.72306798266E-04 +7.52658265260E-05 -3.58427969948E-01 +8.87100521646E-01
1.32500000000E+09 -2.56394853756E-01 +9.02739783270E-01 -1.73289087553E-04 +1.05347721024E-04 -1.96389687142E-04 +1.15977147419E-04 -3.47235452921E-01 +8.89833779907E-01
1.33000000000E+09 -2.49440333773E-01 +9.01145429962E-01 -1.68172403923E-04 +1.17224627934E-04 -1.80276732416E-04 +1.51767780921E-04 -3.36391788314E-01 +8.92849163513E-01
1.33500000000E+09 -2.38165480126E-01 +9.00182694868E-01 -1.73317783697E-04 +1.85400024828E-04 -1.58556840878E-04 +1.38927342390E-04 -3.26320134715E-01 +8.95669564022E-01
1.34000000000E+09 -2.22172103135E-01 +9.00605736636E-01 -1.43217017216E-04 +1.98490431926E-04 -1.09825185457E-04 +2.04939509083E-04 -3.16803884850E-01 +8.97985743567E-01
1.34500000000E+09 -2.02503569619E-01 +9.02230500383E-01 -6.21105113396E-05 +2.39161078961E-04 -8.92410045283E-05 +2.24394872585E-04 -3.06783165456E-01 +9.00411749590E-01
1.35000000000E+09 -1.81082448566E-01 +9.04920256871E-01 -2.21147238787E-05 +1.90507914258E-04 -1.85010092237E-05 +2.06095971967E-04 -2.95593087053E-01 +9.02289849947E-01
1.35500000000E+09 -1.60077822003E-01 +9.08064788932E-01 -6.58087523226E-06 +1.55111181730E-04 -4.82205353200E-05 +1.65597709328E-04 -2.82857754075E-01 +9.04107708859E-01
1.36000000000E+09 -1.41640201670E-01 +9.10615347826E-01 -1.03411713308E-04 +1.32280600859E-04 -1.36244543807E-05 +1.48813493839E-04 -2.69586613179E-01 +9.05904063350E-01
1.36500000000E+09 -1.26709597875E-01 +9.12406409264E-01 -5.62019736406E-05 +1.64539724459E-04 -2.68060406026E-05 +1.68678519406E-04 -2.56508150805E-01 +9.07724892565E-01
1.37000000000E+09 -1.15101920132E-01 +9.12968741827E-01 -3.78079995059E-05 +1.71057575351E-04 -5.06641345547E-05 +1.81166432794E-04 -2.43678002587E-01 +9.09296223908E-01
1.37500000000E+09 -1.06144609861E-01 +9.11896968301E-01 -3.13390562569E-05 +1.72761416546E-04 -5.30072777762E-05 +1.86397655654E-04 -2.30813628535E-01 +9.10754666111E-01
1.38000000000E+09 -9.75994653576E-02 +9.09504958464E-01 -4.68081782721E-05 +2.15367475466E-04 -9.34644284126E-05 +2.26601920922E-04 -2.16969323197E-01 +9.11668902939E-01
1.38500000000E+09 -8.75279844486E-02 +9.05832313546E-01 -2.87313397614E-05 +2.58144324946E-04 -7.03347764233E-05 +3.17088388699E-04 -2.01476822860E-01 +9.12088638694E-01
1.39000000000E+09 -7.42716616666E-02 +9.01626592021E-01 -7.31590506449E-06 +3.25037217789E-04 -4.83940148444E-06 +4.13791607236E-04 -1.85018163300E-01 +9.12011250326E-01
1.39500000000E+09 -5.64574221031E-02 +8.97137301581E-01 +7.60315220537E-05 +3.55839667655E-04 +8.84254240784E-05 +4.63289295184E-04 -1.67286443885E-01 +9.11377604409E-01
1.40000000000E+09 -3.44090921677E-02 +8.92406028652E-01 +1.38222459804E-04 +3.51386572737E-04 +1.46683224101E-04 +3.36638042140E-04 -1.49475090440E-01 +9.10824356540E-01
1.40500000000E+09 -9.79680278491E-03 +8.87673788777E-01 +1.31698908937E-04 +3.82321684433E-04 +1.53409633587E-04 +3.40126836502E-04 -1.31655989402E-01 +9.09720417710E-01
1.41000000000E+09 +1.58473641721E-02 +8.83121142061E-01 +1.13628415433E-04 +4.14697597023E-04 +1.14940998571E-04 +4.53957914468E-04 -1.13145567826E-01 +9.08015630079E-01
1.41500000000E+09 +4.05259323730E-02 +8.78318867461E-01 +2.93684051999E-04 +5.23386954712E-04 +2.87168358772E-04 +5.82601806202E-04 -9.28011225023E-02 +9.05131418780E-01
1.42000000000E+09 +6.28591091668E-02 +8.72897870226E-01 +5.50038634227E-04 +4.72073500533E-04 +5.18608541760E-04 +5.96847379133E-04 -7.03709248904E-02 +9.00555917297E-01
1.42500000000E+09 +8.23276165986E-02 +8.66234739972E-01 +5.82386198815E-04 +4.41289222405E-04 +6.85259498329E-04 +4.43759308458E-04 -4.62560221453E-02 +8.94767256639E-01
1.43000000000E+09 +9.93819253557E-02 +8.57629226370E-01 +7.73717827008E-04 +3.17218642804E-04 +8.78722681502E-04 +2.73816874644E-04 -2.08281133297E-02 +8.88259614925E-01
1.43500000000E+09 +1.15392146941E-01 +8.46877903983E-01 +8.83540627009E-04 +4.35553788823E-05 +8.77405433912E-04 +9.60245256959E-06 +5.05527818078E-03 +8.79920918689E-01
1.44000000000E+09 +1.32727389339E-01 +8.33767007383E-01 +7.42673716540E-04 -3.05826087088E-05 +7.03359719845E-04 -8.25433436733E-05 +3.10463396896E-02 +8.70385163011E-01
1.44500000000E+09 +1.53939252606E-01 +8.17722289019E-01 +8.64261972258E-04 -1.02241577751E-04 +9.07766783083E-04 -2.04965461788E-04 +5.86235781796E-02 +8.58481207419E-01
1.45000000000E+09 +1.79739769870E-01 +7.98086858807E-01 +7.14535474465E-04 -2.14197913325E-04 +6.99802506531E-04 -2.80522171187E-04 +8.81875419297E-02 +8.42834858086E-01
1.45500000000E+09 +2.10133631119E-01 +7.74862487555E-01 +9.02531246927E-04 -2.41448001399E-04 +8.59385963736E-04 -3.24162170568E-04 +1.19179847046E-01 +8.23222167027E-01
1.46000000000E+09 +2.44687435343E-01 +7.47423098277E-01 +8.60198500945E-04 -3.67902199338E-04 +7.90841766022E-04 -4.35848087957E-04 +1.52274100840E-01 +7.99940064519E-01
1.46500000000E+09 +2.79414981823E-01 +7.15929599563E-01 +1.18968783983E-03 -5.53449415271E-04 +1.09347307079E-03 -5.46962253539E-04 +1.86570559995E-01 +7.71865936313E-01
1.47000000000E+09 +3.12959461037E-01 +6.81329614255E-01 +1.26383872424E-03 -1.38196307266E-03 +1.18401012073E-03 -1.26030621450E-03 +2.21167609079E-01 +7.38275591739E-01
1.47500000000E+09 +3.42633061546E-01 +6.43520124267E-01 +2.60868872699E-04 -1.85259937849E-03 +3.30661242863E-04 -1.75705179545E-03 +2.55310454856E-01 +6.97980583154E-01
1.48000000000E+09 +3.68112819908E-01 +6.00614175121E-01 -2.00424923669E-04 -1.46619071886E-03 -1.54766728849E-04 -1.48971640127E-03 +2.88041100997E-01 +6.49173459334E-01
1.48500000000E+09 +3.86760252923E-01 +5.51892277112E-01 -3.84723463197E-04 -1.07663785656E-03 -4.04227264753E-04 -1.11650219046E-03 +3.17983065641E-01 +5.90938141861E-01
1.49000000000E+09 +4.00967157276E-01 +4.95794276169E-01 +8.40233569044E-05 -6.11310335090E-04 +3.62549281556E-05 -6.20428613889E-04 +3.43139418636E-01 +5.22882765246E-01
1.49500000000E+09 +4.07389445979E-01 +4.29773398261E-01 +4.65964166578E-04 -1.54618050258E-03 +4.13170346263E-04 -1.46555325694E-03 +3.59543465387E-01 +4.44565433400E-01
1.50000000000E+09 +4.06039559951E-01 +3.54084780260E-01 -2.02772843996E-04 -2.34711660299E-03 -2.31610837038E-04 -2.27069171734E-03 +3.63192449753E-01 +3.58033436144E-01
1.50500000000E+09 +3.95445057019E-01 +2.69608549862E-01 -1.28008911623E-03 -2.30957504010E-03 -1.16170856045E-03 -2.28885631633E-03 +3.51434541292E-01 +2.64785246320E-01
1.51000000000E+09 +3.69890862885E-01 +1.78762131671E-01 -2.11619397410E-03 -1.87020265140E-03 -2.03084872785E-03 -1.87879954937E-03 +3.19502884733E-01 +1.67668488166E-01
1.51500000000E+09 +3.28999901304E-01 +9.15039259169E-02 -3.06710934105E-03 -1.44793698157E-03 -3.08610250370E-03 -1.50920994365E-03 +2.65413223117E-01 +7.16115586003E-02
1.52000000000E+09 +2.73343254397E-01 +1.05258393325E-02 -3.25363348420E-03 +8.10043367715E-05 -3.32248780379E-03 +1.29203734949E-05 +1.88811819047E-01 -1.45483914286E-02
1.52500000000E+09 +2.00557618085E-01 -5.77536044346E-02 -2.68181697384E-03 +1.53323349555E-03 -2.66943679059E-03 +1.44182151712E-03 +9.27692946689E-02 -8.42467963118E-02
1.53000000000E+09 +1.10538903534E-01 -1.06521922962E-01 -1.32266432259E-03 +1.08786989928E-03 -1.33636051279E-03 +1.05817931211E-03 -1.55114113250E-02 -1.29944174348E-01
1.53500000000E+09 +9.01099903068E-03 -1.30417324687E-01 -2.11048238690E-03 +1.03876356425E-03 -2.06846928566E-03 +1.05635068176E-03 -1.30273100584E-01 -1.50607181547E-01
1.54000000000E+09 -9.67615423935E-02 -1.27253692931E-01 -2.17273483000E-03 +1.82395818972E-03 -2.18922659401E-03 +1.77219224831E-03 -2.41924998935E-01 -1.44297438285E-01
1.54500000000E+09 -1.97655493910E-01 -1.02645260934E-01 -1.76327088926E-03 +3.41547714483E-03 -1.78488833812E-03 +3.35830406487E-03 -3.42659499459E-01 -1.18010679694E-01
1.55000000000E+09 -2.91567862913E-01 -6.24620621298E-02 +3.82685887052E-04 +3.99338032070E-03 +2.14860047147E-04 +3.99680519564E-03 -4.32469228981E-01 -7.76679810019E-02
1.55500000000E+09 -3.73097002894E-01 -9.43889093274E-03 +2.29393211992E-03 +2.49883581604E-03 +2.25257946996E-03 +2.62663992892E-03 -5.05976097013E-01 -2.50834672426E-02
1.56000000000E+09 -4.37768776895E-01 +5.00527131474E-02 +2.04494467785E-03 +7.29270566352E-04 +2.15794224310E-03 +8.27797872602E-04 -5.64011121249E-01 +3.28727416570E-02
1.56500000000E+09 -4.85135065636E-01 +1.11855723056E-01 +1.26228671375E-03 +1.22055338483E-05 +1.32710636073E-03 +3.14566107807E-05 -6.07652264067E-01 +9.33693698763E-02
1.57000000000E+09 -5.16230333061E-01 +1.71812432425E-01 +7.33444746659E-04 +5.37509611079E-04 +7.77792534420E-04 +5.98133749136E-04 -6.39517517755E-01 +1.52864923587E-01
