# Hz S RI R 50
! CMT, C1220, 16058040, 17.2.0/1
! Date: 15/08/2018 09:02:53
! Data: Format (Calibration Info)
! Freq                      S11: Re/Im (F2)                       S21: Re/Im (F2)                       S12: Re/Im (F2)                       S22: Re/Im (F2)            
1.00000000000E+09 -6.63234864224E-01 +7.05635795271E-01 -1.25234398271E-05 +7.85618407219E-06 -6.36007594933E-06 +2.29296679192E-05 -7.11332901371E-01 +6.70862627508E-01
1.00500000000E+09 -6.57236112197E-01 +7.12954763290E-01 +2.38376756384E-05 -6.62160124555E-05 +2.09817851398E-05 +5.27877859644E-07 -7.07986815643E-01 +6.74264980894E-01
1.01000000000E+09 -6.53801848356E-01 +7.18447452632E-01 -4.10043039934E-05 +1.25793203289E-05 +3.38505347647E-05 -2.69968403477E-05 -7.03917839572E-01 +6.77730101666E-01
1.01500000000E+09 -6.52898452990E-01 +7.21882061479E-01 +4.64132077428E-05 +1.65068737748E-05 +1.47419012532E-05 +9.70044772028E-06 -6.99827146687E-01 +6.81727261173E-01
1.02000000000E+09 -6.53450212509E-01 +7.23418746926E-01 +1.28449682857E-05 -2.04166483124E-05 -2.08711654524E-05 -1.33805691995E-05 -6.95599604002E-01 +6.85839329791E-01
1.02500000000E+09 -6.54025369408E-01 +7.23467004579E-01 -1.97008508764E-05 -2.72652361193E-05 +1.64160239427E-05 -6.10656646174E-05 -6.92019081831E-01 +6.89870007109E-01
1.03000000000E+09 -6.53601579067E-01 +7.23264350140E-01 -8.36311032129E-07 -1.23867808797E-05 +3.31370893748E-05 -4.55913501565E-05 -6.88456001226E-01 +6.93532880884E-01
1.03500000000E+09 -6.50905051071E-01 +7.23795337658E-01 -2.99535688614E-05 -3.37652471207E-05 +1.75036858963E-05 -2.38329769522E-05 -6.84741640775E-01 +6.96812060972E-01
1.04000000000E+09 -6.45341452536E-01 +7.25968984929E-01 -1.52986152221E-05 -2.69686268498E-05 +1.87576766891E-05 -3.13768153199E-05 -6.80908319058E-01 +6.99687184347E-01
1.04500000000E+09 -6.37253711827E-01 +7.30282230103E-01 -2.08371801413E-05 -3.66317361338E-05 +8.45808931331E-06 -8.82640150292E-05 -6.76867431916E-01 +7.03201374086E-01
1.05000000000E+09 -6.27437782790E-01 +7.36847779189E-01 -2.21627445785E-05 -6.18584181401E-05 -1.35444338527E-05 -4.89624240245E-05 -6.72358110825E-01 +7.07079044950E-01
1.05500000000E+09 -6.17179709362E-01 +7.44484593775E-01 -6.24198188964E-05 -8.73009625152E-06 -6.45067222011E-05 -2.16690045969E-05 -6.68126070765E-01 +7.11239893225E-01
1.06000000000E+09 -6.07696397036E-01 +7.52401434045E-01 -2.84969594535E-05 -9.94681261434E-06 -3.55136733659E-05 -1.78181126890E-05 -6.64153207589E-01 +7.15291183788E-01
1.06500000000E+09 -6.00775584758E-01 +7.59286042425E-01 -1.29115126966E-05 -4.33543489217E-06 -7.50540289842E-05 -3.21315637896E-05 -6.60219564873E-01 +7.18735499192E-01
1.07000000000E+09 -5.96568939762E-01 +7.64294530980E-01 -4.57513264163E-06 -2.10420228778E-05 -2.06223059708E-05 +3.39668385336E-05 -6.56487444415E-01 +7.21971827725E-01
1.07500000000E+09 -5.95315871769E-01 +7.67307415382E-01 -3.66404838994E-05 +3.08937192220E-06 +6.25599530730E-06 -6.72075721496E-06 -6.52222058970E-01 +7.25052627063E-01
1.08000000000E+09 -5.95823873293E-01 +7.68565129346E-01 -1.99342989223E-05 -2.33762353400E-05 -1.95125830357E-05 +9.38377038550E-06 -6.47549003863E-01 +7.28684272942E-01
1.08500000000E+09 -5.96949576863E-01 +7.68490089760E-01 -4.06855570056E-05 +1.62363850616E-05 -1.92232846915E-05 -3.87016691850E-05 -6.42575727016E-01 +7.32598303575E-01
1.09000000000E+09 -5.97073219338E-01 +7.68144015297E-01 -4.56214286835E-05 +1.23419883662E-05 -5.04097252201E-05 -2.59540789915E-06 -6.37876878977E-01 +7.37031728750E-01
1.09500000000E+09 -5.95697430213E-01 +7.68286591594E-01 -3.31483553519E-05 +4.70951616599E-05 -3.00193574369E-05 +1.04117493353E-05 -6.33637241871E-01 +7.40824421733E-01
1.10000000000E+09 -5.91445020647E-01 +7.69946841743E-01 -8.19225082711E-05 +3.47530265739E-05 +5.96232466162E-06 -3.08819248453E-05 -6.29702561589E-01 +7.44304050306E-01
1.10500000000E+09 -5.85128861801E-01 +7.73547268429E-01 -5.39809132809E-05 +6.99262727936E-06 -2.89386034709E-05 -1.17569784364E-05 -6.25502238752E-01 +7.47139419754E-01
1.11000000000E+09 -5.76661824083E-01 +7.79047890099E-01 -6.22248423394E-05 +4.54249712795E-05 -2.03010222140E-05 +1.38100401606E-05 -6.21372938510E-01 +7.50032913029E-01
1.11500000000E+09 -5.67698527074E-01 +7.85760970438E-01 -2.31604935602E-05 +3.79113675063E-05 -3.53266128762E-05 +2.24831869449E-05 -6.16362801058E-01 +7.53497160885E-01
1.12000000000E+09 -5.59218366878E-01 +7.92412650599E-01 -5.35800879503E-05 +1.52784657218E-05 -5.38669828725E-05 +5.08704202540E-06 -6.11268799534E-01 +7.57477255579E-01
1.12500000000E+09 -5.52028602563E-01 +7.98142246672E-01 -3.50142959494E-05 -4.27552219068E-06 -3.37925535256E-05 +2.66972028844E-05 -6.05946585916E-01 +7.61763011189E-01
1.13000000000E+09 -5.46959199420E-01 +8.02076721995E-01 -3.38626965850E-05 +3.58571961498E-05 -7.38838585238E-05 -6.80448336680E-06 -6.01222556306E-01 +7.65461626420E-01
1.13500000000E+09 -5.43718371460E-01 +8.03844707424E-01 -4.52582375649E-05 +9.82272466582E-06 -5.58242825677E-05 +5.16376493416E-05 -5.96740749206E-01 +7.68794906869E-01
1.14000000000E+09 -5.41303038170E-01 +8.04230120775E-01 -4.09903342466E-05 +5.40999495495E-05 -7.31298378678E-05 +4.82208301815E-05 -5.92262302484E-01 +7.71588880987E-01
1.14500000000E+09 -5.38750059031E-01 +8.03529802899E-01 -2.12366285143E-05 +4.28840499848E-05 -6.35058997135E-05 +5.60734784145E-05 -5.87484754514E-01 +7.74626578444E-01
1.15000000000E+09 -5.35058381052E-01 +8.02850399123E-01 -2.23361994509E-05 +7.68767219379E-05 -3.04385287542E-05 +4.81688595534E-05 -5.81805707533E-01 +7.78407921056E-01
1.15500000000E+09 -5.29282199118E-01 +8.03176465583E-01 -1.13295781150E-05 +1.16182499159E-04 -1.18614326476E-05 +9.14148294729E-05 -5.75899023790E-01 +7.82578486894E-01
1.16000000000E+09 -5.20968230650E-01 +8.05316528692E-01 -3.77980462914E-05 +5.70271879266E-05 -6.81168133186E-06 +9.85371237903E-05 -5.70100857398E-01 +7.86550207249E-01
1.16500000000E+09 -5.11027121114E-01 +8.09860373221E-01 -1.45216156464E-05 +1.03424077774E-04 +5.08643090941E-05 +1.58260209615E-04 -5.64841051008E-01 +7.90005715366E-01
1.17000000000E+09 -5.00136190982E-01 +8.16109960930E-01 +4.73874770714E-05 +4.58611410794E-05 +1.88126860577E-05 +7.97729562616E-05 -5.59675641493E-01 +7.92852328607E-01
1.17500000000E+09 -4.89659244892E-01 +8.23205690107E-01 +4.62388516133E-05 +2.54871995081E-05 +5.00492203113E-05 +3.72217756663E-05 -5.54397097351E-01 +7.95369769443E-01
1.18000000000E+09 -4.80832165006E-01 +8.30417945093E-01 +7.99560929269E-05 +1.58678312485E-05 +1.71321842093E-05 +5.19747172854E-05 -5.48505253034E-01 +7.98232977833E-01
1.18500000000E+09 -4.74426738745E-01 +8.36111704467E-01 +1.08854552826E-04 +6.00653731853E-05 +1.05194724363E-04 +1.17478987176E-04 -5.41753974454E-01 +8.01241903561E-01
1.19000000000E+09 -4.70609102456E-01 +8.39689181359E-01 +7.15600622087E-05 +6.65843515757E-05 +5.12139838174E-05 +5.55483881836E-05 -5.34535649314E-01 +8.04110342280E-01
1.19500000000E+09 -4.69160910473E-01 +8.41235793688E-01 +8.29291245790E-05 +9.24588513620E-05 +7.61570800681E-05 +1.86257268829E-05 -5.27890205490E-01 +8.05510375485E-01
1.20000000000E+09 -4.68776575607E-01 +8.40307701060E-01 +1.04143077360E-04 +5.38362054533E-05 +1.89748754556E-04 +1.04788395347E-04 -5.22789301974E-01 +8.05318016176E-01
1.20500000000E+09 -4.67979521594E-01 +8.38900579360E-01 +1.34250185276E-04 -3.37145259245E-05 +1.64695023159E-04 -2.90523210789E-05 -5.20464018543E-01 +8.05200158758E-01
1.21000000000E+09 -4.65439453124E-01 +8.37616777132E-01 +1.37362278403E-04 -8.74498697486E-05 +8.82437103848E-05 -1.09406144334E-04 -5.18732871243E-01 +8.07305524731E-01
1.21500000000E+09 -4.59940096104E-01 +8.37755886404E-01 +7.73423237465E-05 -8.48825345610E-05 +4.98348614563E-05 -1.21345479504E-04 -5.15609826223E-01 +8.11611901263E-01
1.22000000000E+09 -4.51164280052E-01 +8.39715889255E-01 -6.23040348121E-06 -1.23793149070E-04 -6.17566239193E-06 -1.41301913983E-04 -5.10227530459E-01 +8.17298504841E-01
1.22500000000E+09 -4.39903271079E-01 +8.44081134542E-01 -1.10794951844E-05 -6.33950032013E-05 -2.06239865573E-05 -6.89466168408E-05 -5.03852412137E-01 +8.22878619092E-01
1.23000000000E+09 -4.27403192101E-01 +8.49936679735E-01 -2.56598492266E-05 -5.43782400503E-05 -3.44253004285E-05 -5.31824983118E-05 -4.97327590090E-01 +8.27442154431E-01
1.23500000000E+09 -4.15321173974E-01 +8.57029047300E-01 -4.04428157557E-05 -2.43164351212E-05 -3.63046547863E-05 -8.11457062980E-06 -4.91715457262E-01 +8.31269169350E-01
1.24000000000E+09 -4.04801601105E-01 +8.64043012435E-01 -7.21037519308E-05 +3.20301456566E-06 -3.66699351397E-05 +7.79609861670E-07 -4.86244315218E-01 +8.34508031629E-01
1.24500000000E+09 -3.97337898753E-01 +8.70089275016E-01 -4.27572198774E-05 +9.29826697597E-06 -4.75873870816E-05 +3.92095629486E-05 -4.80231943152E-01 +8.37787123075E-01
1.25000000000E+09 -3.92590791174E-01 +8.73983057136E-01 -1.47644730701E-05 +4.04062279140E-05 -4.36823304117E-07 +5.62033928869E-05 -4.72936211129E-01 +8.41714742149E-01
1.25500000000E+09 -3.90062007665E-01 +8.75389556536E-01 -7.60838911622E-06 +3.52852520748E-05 +1.83479466389E-05 +3.11055164914E-05 -4.64627274893E-01 +8.45422358569E-01
1.26000000000E+09 -3.88543609075E-01 +8.75141343885E-01 -3.63659808561E-05 +1.12908882657E-05 -3.48700572409E-05 +6.41398487154E-05 -4.56539808001E-01 +8.49745134850E-01
1.26500000000E+09 -3.86259670598E-01 +8.73897466400E-01 +1.70492707409E-06 +7.62118996534E-05 -1.23144757975E-05 +1.38549150630E-04 -4.48883197493E-01 +8.53180701344E-01
1.27000000000E+09 -3.81640457660E-01 +8.72748487445E-01 -3.66911657441E-06 +1.02630365077E-04 -3.13440061344E-05 +6.43630503676E-05 -4.42310676217E-01 +8.56599821354E-01
1.27500000000E+09 -3.73577061816E-01 +8.72848031396E-01 +7.20345149091E-05 +8.84363806597E-05 +4.63032998029E-05 +1.10190723441E-04 -4.35695626823E-01 +8.59390439555E-01
1.28000000000E+09 -3.61808616197E-01 +8.74664006634E-01 +7.30924643258E-05 +8.84542979120E-05 +4.33415526730E-05 +4.05170751481E-05 -4.28834919925E-01 +8.62302259861E-01
1.28500000000E+09 -3.47050096787E-01 +8.78768317574E-01 +5.85381828026E-05 +7.34551969114E-05 +8.58696342488E-05 +7.25632252276E-05 -4.20482673995E-01 +8.65511317443E-01
1.29000000000E+09 -3.30850261064E-01 +8.84169344357E-01 +5.50331328422E-05 +6.57602351587E-05 +3.93136933185E-05 +8.80606870712E-05 -4.11416175465E-01 +8.69103260916E-01
1.29500000000E+09 -3.15330685180E-01 +8.90493074120E-01 +9.86775024613E-05 +6.62298484168E-05 +1.04120935180E-04 +8.56394987471E-05 -4.02162567672E-01 +8.72293360576E-01
1.30000000000E+09 -3.01950078027E-01 +8.96275767459E-01 +1.40163668394E-04 +7.40431640694E-05 +1.35466240055E-04 +7.64068976749E-05 -3.93802239716E-01 +8.75471557359E-01
1.30500000000E+09 -2.92415408460E-01 +9.00757965530E-01 +2.05148108504E-04 +2.32812713463E-05 +1.46998869328E-04 +4.66978625250E-05 -3.86288865308E-01 +8.78364039588E-01
1.31000000000E+09 -2.86736569664E-01 +9.03237492496E-01 +1.12760540527E-04 +7.73685225092E-07 +1.59461138950E-04 +1.33362914177E-05 -3.78461631165E-01 +8.81027987765E-01
1.31500000000E+09 -2.84291086708E-01 +9.03950722777E-01 +1.45765297307E-04 +2.15626895018E-05 +1.19573001369E-04 -5.15236976337E-05 -3.69581638020E-01 +8.83602789705E-01
1.32000000000E+09 -2.83036068485E-01 +9.03333335901E-01 +1.23427484198E-04 -7.85083551648E-06 +1.26291253213E-04 +4.05514650592E-05 -3.59433028669E-01 +8.86466313852E-01
1.32500000000E+09 -2.80787815745E-01 +9.01795556277E-01 +9.75237978990E-05 -3.29976239170E-05 +1.43955037375E-04 -3.06564419653E-05 -3.48283456831E-01 +8.89348081098E-01
1.33000000000E+09 -2.75598412880E-01 +9.00503907097E-01 +9.86565774260E-05 -8.30139364422E-05 +1.40568845069E-04 -6.96233188750E-05 -3.37489386164E-01 +8.92169242829E-01
1.33500000000E+09 -2.66018557962E-01 +8.99918523328E-01 +5.59585534103E-05 -4.94258864496E-05 +9.10061965857E-05 -1.16312309030E-04 -3.27551096740E-01 +8.94944061242E-01
1.34000000000E+09 -2.52088249213E-01 +9.00581553438E-01 +9.95958297080E-06 -5.61825863205E-05 +6.99397115038E-06 -5.96144334693E-05 -3.17933529534E-01 +8.97349639876E-01
1.34500000000E+09 -2.34139256082E-01 +9.02680644374E-01 -6.01587458400E-05 +7.30868111935E-06 -1.41396468211E-05 +3.62703994496E-05 -3.07730172954E-01 +8.99710061164E-01
1.35000000000E+09 -2.14356726626E-01 +9.05807719438E-01 +4.65424669951E-06 +2.67969853044E-05 -1.26750933257E-05 +1.93427056815E-05 -2.96462604700E-01 +9.01696893249E-01
1.35500000000E+09 -1.94475931897E-01 +9.09308095359E-01 -9.65932734868E-06 +6.19815001154E-05 +3.85746482742E-05 +7.35079038507E-05 -2.83867538399E-01 +9.03642380995E-01
1.36000000000E+09 -1.76702222484E-01 +9.12613659635E-01 -6.66424418554E-07 +7.35237971285E-05 +1.91664896608E-06 +4.60398634118E-05 -2.70580652175E-01 +9.05394030957E-01
1.36500000000E+09 -1.62425828555E-01 +9.15165806880E-01 +2.20816229645E-07 +1.66872876859E-04 +2.59994360821E-05 +1.48027362641E-04 -2.57502949720E-01 +9.07066418359E-01
1.37000000000E+09 -1.51582946811E-01 +9.15911299187E-01 +1.39408893099E-04 +2.33821051301E-04 +8.85569962647E-05 +1.78958537996E-04 -2.44659872505E-01 +9.08617546458E-01
1.37500000000E+09 -1.43639009946E-01 +9.15589639914E-01 +2.63686554401E-04 +1.85797555461E-04 +1.96358018260E-04 +2.41915799604E-04 -2.31815815702E-01 +9.10065831871E-01
1.38000000000E+09 -1.36447043113E-01 +9.14003009272E-01 +2.47541485239E-04 +1.39669306882E-04 +2.20871110655E-04 +1.96354203721E-04 -2.17948254086E-01 +9.11131617278E-01
1.38500000000E+09 -1.27522066421E-01 +9.11411317734E-01 +2.57828125229E-04 +1.72979301024E-04 +2.78909803346E-04 +2.22802787246E-04 -2.02453112809E-01 +9.11414141945E-01
1.39000000000E+09 -1.15904495445E-01 +9.08087926608E-01 +3.58116478579E-04 +2.20687442454E-04 +3.95929393747E-04 +2.72752924063E-04 -1.85904606944E-01 +9.11459759791E-01
1.39500000000E+09 -1.00013414206E-01 +9.04811155377E-01 +4.66699508890E-04 +2.15496928517E-04 +5.38986548790E-04 +2.02748804154E-04 -1.68204815390E-01 +9.10834523192E-01
1.40000000000E+09 -7.94143607715E-02 +9.01293116882E-01 +7.00010656387E-04 +1.73465244890E-04 +7.58184263918E-04 +1.49218297244E-04 -1.50283729326E-01 +9.10312993613E-01
1.40500000000E+09 -5.59607018739E-02 +8.97968174912E-01 +8.16378645659E-04 -4.90341261633E-05 +8.06003013859E-04 -1.01919985185E-04 -1.32412485526E-01 +9.09164044702E-01
1.41000000000E+09 -3.05595457946E-02 +8.94237868182E-01 +7.28679621594E-04 -2.58616540147E-04 +6.93373796332E-04 -2.22965685030E-04 -1.14003924062E-01 +9.07286882940E-01
1.41500000000E+09 -5.92280493942E-03 +8.90200973915E-01 +7.00410611279E-04 -2.23137033710E-04 +7.69476661807E-04 -2.21366223486E-04 -9.36927457943E-02 +9.04367657565E-01
1.42000000000E+09 +1.67046038909E-02 +8.85457872977E-01 +8.69363204636E-04 -3.55241242416E-04 +9.31006653966E-04 -3.55203453166E-04 -7.11769931917E-02 +8.99947027274E-01
1.42500000000E+09 +3.67927772693E-02 +8.79562511106E-01 +9.04500036635E-04 -5.51444710092E-04 +1.00849505255E-03 -6.09222407997E-04 -4.71671267497E-02 +8.94273704980E-01
1.43000000000E+09 +5.44550861887E-02 +8.71985041773E-01 +9.24694676528E-04 -7.75460772119E-04 +9.30864737332E-04 -8.62787801742E-04 -2.16206688748E-02 +8.87696292819E-01
1.43500000000E+09 +7.13204219401E-02 +8.62736794117E-01 +9.40857719228E-04 -1.05493891894E-03 +9.26423804492E-04 -1.18054037192E-03 +4.06571213536E-03 +8.79226789101E-01
1.44000000000E+09 +8.91702220728E-02 +8.51291814265E-01 +6.04279206553E-04 -1.43347104757E-03 +4.92306451378E-04 -1.47057261284E-03 +3.01095778920E-02 +8.69627752042E-01
1.44500000000E+09 +1.10243470808E-01 +8.37502814420E-01 +3.72852283403E-04 -1.38037397588E-03 +3.20154598308E-04 -1.45231681385E-03 +5.75987009648E-02 +8.57750032810E-01
1.45000000000E+09 +1.35589550989E-01 +8.21018761739E-01 +2.72734485839E-04 -1.43512506969E-03 +1.80683347963E-04 -1.57567328256E-03 +8.73335001631E-02 +8.42013141450E-01
1.45500000000E+09 +1.65738193135E-01 +8.01528215811E-01 +1.10765868052E-04 -1.53274372702E-03 -1.07287783361E-05 -1.52337799946E-03 +1.18402128326E-01 +8.22414184850E-01
1.46000000000E+09 +1.99552140377E-01 +7.78982231650E-01 +1.57205496717E-04 -1.70008348103E-03 -2.93722033804E-05 -1.62424769909E-03 +1.51261536638E-01 +7.99106315838E-01
1.46500000000E+09 +2.35255043642E-01 +7.53169352728E-01 -4.37352482398E-05 -2.08066302274E-03 -1.41098460759E-04 -1.87834410197E-03 +1.85482675128E-01 +7.71193221165E-01
1.47000000000E+09 +2.71342180757E-01 +7.23403380359E-01 -4.26930642246E-04 -2.55724243496E-03 -4.17772444405E-04 -2.32190743704E-03 +2.19861554521E-01 +7.37665395139E-01
1.47500000000E+09 +3.03908057144E-01 +6.88986471120E-01 -1.47575296807E-03 -2.86461684880E-03 -1.32562503525E-03 -2.81171369192E-03 +2.54258856883E-01 +6.97301452104E-01
1.48000000000E+09 +3.32929838741E-01 +6.49700298298E-01 -2.47252036311E-03 -2.14624296418E-03 -2.44885673501E-03 -2.22634657037E-03 +2.87007309709E-01 +6.48394917905E-01
1.48500000000E+09 +3.56963175381E-01 +6.02902785913E-01 -2.58283059811E-03 -1.28033642650E-03 -2.69097662878E-03 -1.25033508364E-03 +3.16993531753E-01 +5.90214678201E-01
1.49000000000E+09 +3.75438272564E-01 +5.47937859417E-01 -2.57231776616E-03 -1.02585147160E-03 -2.62361050727E-03 -8.86242079203E-04 +3.42007153509E-01 +5.21890502550E-01
1.49500000000E+09 +3.88770009803E-01 +4.82618428294E-01 -2.67721805718E-03 -5.34982703017E-04 -2.53871049319E-03 -4.11468390649E-04 +3.58141279240E-01 +4.43875325771E-01
1.50000000000E+09 +3.95380122771E-01 +4.05243029161E-01 -2.18744780298E-03 -4.56637868299E-04 -2.05866107860E-03 -4.17444673445E-04 +3.61489556902E-01 +3.57100284082E-01
1.50500000000E+09 +3.91619256497E-01 +3.16580801249E-01 -2.70160250293E-03 -1.23132250230E-03 -2.47798540583E-03 -1.32799771973E-03 +3.49162136713E-01 +2.64399132603E-01
1.51000000000E+09 +3.75930967985E-01 +2.20523715011E-01 -4.50518175244E-03 -9.25592057866E-04 -4.35771901797E-03 -1.09659376554E-03 +3.17468726413E-01 +1.67748819389E-01
1.51500000000E+09 +3.43552837977E-01 +1.19938848656E-01 -5.21792834086E-03 +9.28134401250E-04 -5.25031861588E-03 +7.56549918910E-04 +2.63538683539E-01 +7.18405934948E-02
1.52000000000E+09 +2.89851576841E-01 +2.44769209596E-02 -5.28710412040E-03 +2.53413370924E-03 -5.38551280882E-03 +2.42995825662E-03 +1.87040288447E-01 -1.39660336628E-02
1.52500000000E+09 +2.16669210062E-01 -5.63334752619E-02 -4.53583061579E-03 +5.28697397015E-03 -4.65960877407E-03 +5.28237988679E-03 +9.15266500558E-02 -8.36556998298E-02
1.53000000000E+09 +1.25910440454E-01 -1.18288599943E-01 -1.43852502240E-03 +5.85618054264E-03 -1.49256617606E-03 +5.89980623545E-03 -1.70020017491E-02 -1.28680288102E-01
1.53500000000E+09 +2.23747081879E-02 -1.55101652618E-01 -4.63911611072E-04 +4.57410935525E-03 -5.38160075935E-04 +4.62872461866E-03 -1.30413294561E-01 -1.48915848486E-01
1.54000000000E+09 -8.79884999357E-02 -1.67681049400E-01 -3.43022455751E-04 +5.12289169558E-03 -3.30213865890E-04 +5.16114250357E-03 -2.41745964763E-01 -1.43702265455E-01
1.54500000000E+09 -1.99761036656E-01 -1.56510135708E-01 +1.50398776994E-03 +5.62147320610E-03 +1.37307485023E-03 +5.62864568613E-03 -3.42600828385E-01 -1.17479119971E-01
1.55000000000E+09 -3.06645833572E-01 -1.25099565647E-01 +2.88768150948E-03 +4.31902862789E-03 +2.75812113742E-03 +4.43200025017E-03 -4.31855290454E-01 -7.74288542805E-02
1.55500000000E+09 -4.01051863729E-01 -7.80642046580E-02 +3.81955867434E-03 +3.68720361526E-03 +3.78378099066E-03 +3.92708136026E-03 -5.05476802918E-01 -2.55405792066E-02
1.56000000000E+09 -4.78912344322E-01 -2.26423998325E-02 +4.75926230833E-03 +2.04264196619E-03 +4.89078357890E-03 +2.31182246888E-03 -5.63670019270E-01 +3.21691555063E-02
1.56500000000E+09 -5.41214264176E-01 +3.55236192084E-02 +4.09276532156E-03 +3.46697850931E-04 +4.35612420203E-03 +4.45252302844E-04 -6.07657545154E-01 +9.28332056630E-02
1.57000000000E+09 -5.87548355833E-01 +9.52164534260E-02 +3.55053335751E-03 -3.09221101440E-04 +3.80035084642E-03 -3.38590065539E-04 -6.39460121060E-01 +1.52428913880E-01
