# Hz S RI R 50
! CMT, C1220, 16058040, 17.2.0/1
! Date: 15/08/2018 09:07:54
! Data: Format (Calibration Info)
! Freq                      S11: Re/Im (F2)                       S21: Re/Im (F2)                       S12: Re/Im (F2)                       S22: Re/Im (F2)            
1.00000000000E+09 -6.57558690334E-01 +7.05166341291E-01 -4.92895427397E-06 +2.24556555190E-05 -5.64675156667E-05 +1.91636492948E-05 -7.13087303955E-01 +6.69379533594E-01
1.00500000000E+09 -6.54760028578E-01 +7.07510013301E-01 +1.91004627329E-05 -1.38056416193E-05 -4.84032585967E-05 -1.13834689628E-05 -7.09653397005E-01 +6.72917113471E-01
1.01000000000E+09 -6.51088623439E-01 +7.10170674666E-01 -2.16623334529E-05 -2.84862012314E-05 -2.01386942636E-06 +4.59871552993E-05 -7.05681344187E-01 +6.76417540628E-01
1.01500000000E+09 -6.46289884299E-01 +7.13400569536E-01 -8.88439591305E-06 -9.03965623312E-06 -2.06834673153E-05 +2.77938686314E-05 -7.01791451082E-01 +6.80164110354E-01
1.02000000000E+09 -6.40436059347E-01 +7.17532708770E-01 +3.59564156927E-05 -4.40484995241E-05 -2.12297328626E-05 +3.51959297596E-05 -6.97502620810E-01 +6.84193341206E-01
1.02500000000E+09 -6.33708751561E-01 +7.22153078907E-01 +1.93972328642E-05 -1.54502309801E-05 -3.42659697705E-05 -1.31698391631E-05 -6.94031093454E-01 +6.88354602434E-01
1.03000000000E+09 -6.26716954304E-01 +7.26889571927E-01 +2.13644078315E-05 -3.21541525309E-05 +1.29139846848E-05 +4.35529323335E-05 -6.90175887764E-01 +6.92096140747E-01
1.03500000000E+09 -6.19661575276E-01 +7.31478507308E-01 +2.68113225938E-06 +2.43254003514E-05 -6.60137798761E-05 -9.06266462941E-06 -6.86490492221E-01 +6.95363393852E-01
1.04000000000E+09 -6.13913507702E-01 +7.35465019114E-01 -2.05500976562E-05 +6.53527811314E-06 +2.76515221272E-05 -3.54794576145E-05 -6.82825334062E-01 +6.98487185746E-01
1.04500000000E+09 -6.09237871306E-01 +7.39334735360E-01 -3.98386096358E-05 -3.27286772304E-05 -1.13282936780E-05 +2.20053014370E-05 -6.78895872455E-01 +7.01841735655E-01
1.05000000000E+09 -6.05900823748E-01 +7.42298071099E-01 +1.68092193942E-05 +2.39888866852E-05 +1.15039608472E-05 +3.60766084646E-05 -6.74592633835E-01 +7.05568057473E-01
1.05500000000E+09 -6.03177499132E-01 +7.44589121718E-01 -1.79620878806E-05 -5.73508911914E-06 -1.08771433242E-05 +1.19180000007E-05 -6.70063681386E-01 +7.09792752084E-01
1.06000000000E+09 -6.00646101938E-01 +7.46759096484E-01 -6.66051348400E-06 +7.28625769445E-06 +8.98952051822E-06 -3.03713445770E-06 -6.66092978400E-01 +7.13882736236E-01
1.06500000000E+09 -5.97483385280E-01 +7.49036157565E-01 +1.48860224526E-05 -5.66580278552E-05 -4.23321792170E-07 -3.87743218165E-06 -6.62322644221E-01 +7.17370602223E-01
1.07000000000E+09 -5.93395156990E-01 +7.51307764624E-01 -5.01217483103E-05 +2.35971250974E-05 -4.03312980658E-05 +8.53124497501E-07 -6.58367845819E-01 +7.20539988018E-01
1.07500000000E+09 -5.87948190725E-01 +7.54241212030E-01 -5.52972985058E-05 +4.61875298211E-05 -5.33315004434E-06 +1.23991568218E-05 -6.53972658670E-01 +7.23807483336E-01
1.08000000000E+09 -5.81265428230E-01 +7.57937857973E-01 +3.93339465591E-05 +3.73271066973E-05 -3.81715841773E-05 -7.53829236919E-06 -6.49664752064E-01 +7.27400093124E-01
1.08500000000E+09 -5.73829663170E-01 +7.61883610578E-01 +1.41942704062E-05 +2.34074141559E-05 +1.97752402937E-05 +1.22232706556E-05 -6.44879526436E-01 +7.31349641977E-01
1.09000000000E+09 -5.66172263075E-01 +7.66072341472E-01 +2.14343802465E-05 +6.14351639588E-05 -1.44411577443E-05 +1.91713799072E-05 -6.40128692511E-01 +7.35616311672E-01
1.09500000000E+09 -5.59498398770E-01 +7.69886792057E-01 +9.97273107313E-06 +7.87445073991E-06 -2.74500246180E-05 +5.40822463754E-05 -6.35718214916E-01 +7.39342093794E-01
1.10000000000E+09 -5.53563513633E-01 +7.73560591581E-01 -6.68621121408E-06 +1.86259427112E-05 -8.70258994695E-06 +5.96602984023E-05 -6.31661767380E-01 +7.42871890418E-01
1.10500000000E+09 -5.49317997644E-01 +7.76675961992E-01 +1.51126182587E-06 +2.14369019040E-05 +5.96663645505E-05 +4.31324321765E-05 -6.27399469195E-01 +7.45700405831E-01
1.11000000000E+09 -5.46277441169E-01 +7.79503380626E-01 +5.12288840859E-06 +3.35670278054E-05 -3.95217068046E-05 -5.10941196960E-06 -6.23115772118E-01 +7.48672020241E-01
1.11500000000E+09 -5.43614444310E-01 +7.81823333494E-01 -1.41352065088E-05 -8.95146743688E-06 +8.21921005305E-05 +8.07805833443E-06 -6.18541000027E-01 +7.52396707648E-01
1.12000000000E+09 -5.40938653311E-01 +7.83735608407E-01 +2.96682214053E-05 -2.08996374400E-05 +3.85861734074E-05 +6.68749685013E-06 -6.13465431385E-01 +7.56298427535E-01
1.12500000000E+09 -5.37228718890E-01 +7.85630188063E-01 +2.66414993855E-05 +9.58435419680E-06 +3.52927026484E-05 +1.53773541458E-05 -6.08244302516E-01 +7.60507306570E-01
1.13000000000E+09 -5.32258023832E-01 +7.87691436600E-01 +2.48650914322E-05 +7.02808868650E-06 +1.20706631719E-05 -2.47406304701E-05 -6.03559274288E-01 +7.64093462350E-01
1.13500000000E+09 -5.25542013649E-01 +7.89810180313E-01 +2.15324506588E-06 +2.30569725293E-05 +3.49670537992E-05 +4.51802409585E-06 -5.98984939679E-01 +7.67468152776E-01
1.14000000000E+09 -5.17409076517E-01 +7.92659966665E-01 +3.05290715253E-05 +7.05074463198E-06 +1.17198987687E-06 -4.89223794363E-06 -5.94219012001E-01 +7.70249304904E-01
1.14500000000E+09 -5.08727971497E-01 +7.95563247133E-01 -5.16135844365E-06 +2.90279232408E-05 +4.64108890427E-05 +2.09722915142E-05 -5.89473929463E-01 +7.73395031785E-01
1.15000000000E+09 -4.99797104364E-01 +7.98550113925E-01 -2.48098202391E-05 +1.59363950640E-06 +4.59726455904E-05 +8.03188344321E-06 -5.83878119341E-01 +7.77299466319E-01
1.15500000000E+09 -4.92008722939E-01 +8.01878343158E-01 +1.15083498432E-05 -2.43800072964E-05 +1.06427864910E-05 +5.41902210389E-06 -5.77976320766E-01 +7.81368150955E-01
1.16000000000E+09 -4.85278311636E-01 +8.04848312758E-01 +8.42272834175E-06 +3.03473417501E-05 -6.37391638695E-06 +6.69647718747E-05 -5.72403846700E-01 +7.85286772466E-01
1.16500000000E+09 -4.80349407464E-01 +8.07793967342E-01 +3.98970744794E-05 +3.07766890818E-05 +4.85605616754E-05 +5.25814566279E-05 -5.67184693762E-01 +7.88694233991E-01
1.17000000000E+09 -4.76494789116E-01 +8.10536233203E-01 +5.16377646244E-05 +4.95824295388E-05 +3.69690355497E-05 +5.69327508694E-05 -5.62057499163E-01 +7.91535133227E-01
1.17500000000E+09 -4.73051141961E-01 +8.12639081326E-01 +6.44956680865E-05 +8.22527108539E-06 +7.21943761264E-05 +1.13552586188E-05 -5.56703251500E-01 +7.94156184732E-01
1.18000000000E+09 -4.69377481726E-01 +8.14647561139E-01 +6.71392099279E-05 +3.59445098389E-05 +6.23975265446E-05 +2.43433308600E-05 -5.50762203873E-01 +7.97022185318E-01
1.18500000000E+09 -4.64500137939E-01 +8.16333087323E-01 +3.92963595828E-05 -1.42837051319E-05 +6.30428134208E-05 -1.31153325523E-05 -5.44026345809E-01 +8.00100208822E-01
1.19000000000E+09 -4.58071618902E-01 +8.17992707425E-01 +7.16771989987E-05 -2.01801008051E-05 +3.26352765320E-05 +1.00485477534E-05 -5.36789805196E-01 +8.02940555799E-01
1.19500000000E+09 -4.51809450384E-01 +8.20063273454E-01 +5.68471404723E-05 -2.69659869546E-05 +1.17501652931E-04 -3.53842555305E-05 -5.30311013845E-01 +8.04333032246E-01
1.20000000000E+09 -4.43058610471E-01 +8.21484224809E-01 +9.91501191403E-05 -6.94534257946E-05 +5.44991565511E-05 -4.50849593883E-05 -5.25336428976E-01 +8.04184390689E-01
1.20500000000E+09 -4.33622321419E-01 +8.23594730395E-01 +8.66866019750E-05 -1.07843148294E-04 +5.87613561370E-05 -9.17324455819E-05 -5.22954614618E-01 +8.04014550554E-01
1.21000000000E+09 -4.24764213666E-01 +8.26452953209E-01 -1.36151904564E-05 -9.64754543723E-05 +2.80427129476E-05 -4.58608537032E-05 -5.21191619046E-01 +8.06214123127E-01
1.21500000000E+09 -4.16679635161E-01 +8.29435451784E-01 -4.60155661152E-05 -6.43378837324E-05 -1.05940100972E-05 -8.26784682032E-05 -5.17995054113E-01 +8.10525290737E-01
1.22000000000E+09 -4.09707917110E-01 +8.32457590057E-01 +1.14237155039E-05 -1.25713169940E-05 -5.64813294742E-05 -7.48478268696E-05 -5.12521431372E-01 +8.16221980615E-01
1.22500000000E+09 -4.04403231303E-01 +8.35602064676E-01 -2.08056678372E-05 -3.84675086857E-05 -7.05816095848E-05 -1.08389178612E-05 -5.06105091896E-01 +8.21608308743E-01
1.23000000000E+09 -4.00110309179E-01 +8.38396208233E-01 -1.40029630579E-05 -1.14578688670E-06 +2.49838911664E-05 -1.58563962160E-05 -4.99698870498E-01 +8.26361345640E-01
1.23500000000E+09 -3.96254774874E-01 +8.41019673194E-01 -1.09765765399E-05 +3.77174532433E-05 +3.18872327643E-05 +2.84167149713E-05 -4.94204234979E-01 +8.30215307367E-01
1.24000000000E+09 -3.91794891641E-01 +8.43351703885E-01 +8.59686497140E-06 +7.70512649515E-06 -9.64922829801E-06 +2.80500747294E-05 -4.88741061195E-01 +8.33310710750E-01
1.24500000000E+09 -3.86199061302E-01 +8.45591560615E-01 +6.11112590913E-05 -3.45061524922E-05 +4.54229452380E-05 +4.35861208550E-05 -4.82598722934E-01 +8.36666604865E-01
1.25000000000E+09 -3.78762474572E-01 +8.47451493374E-01 -1.85927234622E-05 +2.20703360386E-06 +4.63929793453E-05 -1.38412777625E-05 -4.75197691676E-01 +8.40503923430E-01
1.25500000000E+09 -3.69538430931E-01 +8.49015120085E-01 +2.94231786562E-05 +8.56723139134E-06 +4.31105575559E-05 -1.93657849988E-05 -4.67040214452E-01 +8.44444635047E-01
1.26000000000E+09 -3.59147555782E-01 +8.50553022742E-01 +3.84750205414E-05 -2.98642073569E-05 +3.00423896739E-05 -3.94119763023E-05 -4.58870671220E-01 +8.48667953866E-01
1.26500000000E+09 -3.48203908151E-01 +8.52525846751E-01 +6.00441687109E-05 +5.28491627021E-06 +4.73309615538E-05 -4.01774532877E-05 -4.51366389936E-01 +8.52190986608E-01
1.27000000000E+09 -3.37712026702E-01 +8.54513014649E-01 +6.89197643640E-05 +1.28072074400E-05 +6.03117563918E-05 -4.05210809931E-05 -4.44749772487E-01 +8.55431053547E-01
1.27500000000E+09 -3.28337358121E-01 +8.56789611438E-01 +9.79993691012E-05 -4.25678882702E-05 +4.63146120524E-05 -8.16494187922E-05 -4.38237528964E-01 +8.58330601949E-01
1.28000000000E+09 -3.20438557645E-01 +8.59441416234E-01 +1.14564261478E-04 -6.77269274169E-05 +1.42472318964E-04 -4.27873981917E-05 -4.31202121518E-01 +8.61245037847E-01
1.28500000000E+09 -3.13725324564E-01 +8.62059103426E-01 +5.45853590184E-05 -1.18883470838E-04 +1.00743623795E-04 -1.15446538818E-04 -4.22955564203E-01 +8.64555280017E-01
1.29000000000E+09 -3.08406453722E-01 +8.64738669838E-01 +3.74234829537E-05 -1.29763594888E-04 +1.03068504333E-04 -1.54598280063E-04 -4.13906574190E-01 +8.68132053977E-01
1.29500000000E+09 -3.03128578871E-01 +8.66912564387E-01 +3.63307695701E-05 -1.72429781424E-04 +3.02972187479E-05 -1.77386949954E-04 -4.04743433172E-01 +8.71360411823E-01
1.30000000000E+09 -2.97097860527E-01 +8.68794134970E-01 +3.47391869023E-06 -2.44420901301E-04 -6.78649484796E-06 -2.08305236621E-04 -3.96638922570E-01 +8.74579101921E-01
1.30500000000E+09 -2.90017016864E-01 +8.70095910298E-01 -5.00496340783E-05 -1.91070746197E-04 -3.47753051687E-05 -1.85591347338E-04 -3.88730905026E-01 +8.77153801954E-01
1.31000000000E+09 -2.80968260892E-01 +8.70955957792E-01 -9.40432802939E-05 -1.40588769793E-04 -3.25626949576E-05 -1.33011689324E-04 -3.80994618268E-01 +8.79953658026E-01
1.31500000000E+09 -2.70221277762E-01 +8.71494198142E-01 -3.45811775973E-05 -1.71079985128E-04 -6.28345387731E-05 -1.28982915895E-04 -3.72075875441E-01 +8.82755717353E-01
1.32000000000E+09 -2.58187215998E-01 +8.71978570002E-01 -9.16420374963E-05 -1.52206765102E-04 -9.91370797518E-05 -1.76845645250E-04 -3.61943856365E-01 +8.85598169032E-01
1.32500000000E+09 -2.45682612724E-01 +8.72457480696E-01 -9.10239170251E-05 -1.80789199934E-04 -5.88705575308E-05 -1.56347418594E-04 -3.50955352590E-01 +8.88552492093E-01
1.33000000000E+09 -2.33324376949E-01 +8.73227610996E-01 -1.69250516598E-04 -1.87473092848E-04 -1.75005118626E-04 -1.67371363793E-04 -3.40472604535E-01 +8.91405463669E-01
1.33500000000E+09 -2.21754517366E-01 +8.74190974033E-01 -2.12404331000E-04 -2.07703272695E-04 -2.32679201305E-04 -1.43487368019E-04 -3.30293773838E-01 +8.94042261251E-01
1.34000000000E+09 -2.11283820991E-01 +8.75762434832E-01 -2.58106039687E-04 -1.16797610588E-04 -2.32206233853E-04 -1.01108580425E-04 -3.20706673794E-01 +8.96557033799E-01
1.34500000000E+09 -2.01621749558E-01 +8.77215892432E-01 -2.70408159760E-04 -9.31888113259E-05 -2.10638798918E-04 -6.58769037981E-05 -3.10471739903E-01 +8.98839772616E-01
1.35000000000E+09 -1.92311592891E-01 +8.78704968373E-01 -2.24711506701E-04 -7.12239692747E-05 -1.95666521998E-04 -7.01705363594E-05 -2.99228512263E-01 +9.00844859389E-01
1.35500000000E+09 -1.82653030345E-01 +8.79608507064E-01 -1.90717699855E-04 -9.36769904814E-05 -2.15699033600E-04 -9.72914182083E-05 -2.86554714910E-01 +9.02866500200E-01
1.36000000000E+09 -1.72183430170E-01 +8.79773441583E-01 -2.37007316908E-04 -8.15482697269E-05 -2.52911358507E-04 -7.27175181097E-05 -2.73318502274E-01 +9.04716318896E-01
1.36500000000E+09 -1.59928189577E-01 +8.79381251085E-01 -2.42234968083E-04 -5.14120499458E-05 -2.86442419797E-04 -7.59314508022E-05 -2.60368629580E-01 +9.06439533073E-01
1.37000000000E+09 -1.45764072004E-01 +8.78326406938E-01 -3.42650251209E-04 -2.70391290304E-05 -3.13809548354E-04 -8.36796705316E-05 -2.47661000863E-01 +9.08069550153E-01
1.37500000000E+09 -1.30066936779E-01 +8.76839448748E-01 -3.62213482376E-04 +3.10897692455E-05 -3.63072507918E-04 -3.81977253796E-05 -2.34921051122E-01 +9.09523702003E-01
1.38000000000E+09 -1.13412133622E-01 +8.75067940777E-01 -4.36137007373E-04 +5.56162424217E-05 -4.43251858404E-04 -2.82346659633E-05 -2.20815463089E-01 +9.10456871029E-01
1.38500000000E+09 -9.62605779930E-02 +8.73260911090E-01 -4.31026260111E-04 +1.39462381373E-04 -4.59304708029E-04 +8.78113517704E-05 -2.05228745931E-01 +9.10971396237E-01
1.39000000000E+09 -7.99213068736E-02 +8.71458607129E-01 -4.44068591078E-04 +2.06236206199E-04 -4.70013804379E-04 +2.59477558116E-04 -1.88673380231E-01 +9.10963572546E-01
1.39500000000E+09 -6.45966402255E-02 +8.70344604283E-01 -4.19532407206E-04 +2.37200152954E-04 -4.75954895619E-04 +3.16397303801E-04 -1.71066139914E-01 +9.10511783815E-01
1.40000000000E+09 -4.98463693503E-02 +8.69233514222E-01 -4.65208790371E-04 +2.79698614063E-04 -4.56939356210E-04 +3.45274724129E-04 -1.53120510037E-01 +9.10042380710E-01
1.40500000000E+09 -3.59138932780E-02 +8.67584212321E-01 -5.15089796391E-04 +4.24913386182E-04 -4.96432381753E-04 +4.65658306208E-04 -1.35412348372E-01 +9.08999225105E-01
1.41000000000E+09 -2.21701695908E-02 +8.65161698575E-01 -3.89549380905E-04 +5.58019211732E-04 -4.46900684139E-04 +5.38219638873E-04 -1.16693477493E-01 +9.07347415141E-01
1.41500000000E+09 -7.27328282228E-03 +8.61666406909E-01 -3.61448815780E-04 +5.79881795222E-04 -4.14018973782E-04 +5.51400301025E-04 -9.63867083809E-02 +9.04429075171E-01
1.42000000000E+09 +1.01110333179E-02 +8.56610737061E-01 -3.51800420365E-04 +7.20299440954E-04 -4.04447427827E-04 +8.13616319199E-04 -7.37046420599E-02 +8.99916516813E-01
1.42500000000E+09 +2.97755594807E-02 +8.49181961950E-01 -2.34245440379E-04 +8.25986396909E-04 -2.13441047263E-04 +9.57317873693E-04 -4.96526193796E-02 +8.94358063310E-01
1.43000000000E+09 +5.20088797455E-02 +8.39595645645E-01 -2.18049596278E-04 +9.72093255899E-04 -1.46081587311E-04 +1.06694753049E-03 -2.42611443088E-02 +8.87829995877E-01
1.43500000000E+09 +7.64643570950E-02 +8.27843230993E-01 -5.67182548238E-05 +1.23694742561E-03 +7.75858383240E-05 +1.28180872435E-03 +1.67124272458E-03 +8.79377140004E-01
1.44000000000E+09 +1.02221471074E-01 +8.14821577543E-01 +3.51226258522E-04 +1.30291146398E-03 +4.23092475259E-04 +1.35464898096E-03 +2.77600316760E-02 +8.69941316770E-01
1.44500000000E+09 +1.28822788843E-01 +8.00899081216E-01 +7.23889167122E-04 +1.22930746459E-03 +7.92142427420E-04 +1.24725655978E-03 +5.54768665448E-02 +8.58082152386E-01
1.45000000000E+09 +1.55552061967E-01 +7.85668495458E-01 +7.59330249824E-04 +9.76319283782E-04 +8.35899960927E-04 +9.35409872699E-04 +8.52715299293E-02 +8.42339279709E-01
1.45500000000E+09 +1.81850895595E-01 +7.69442144429E-01 +9.05054007781E-04 +1.12322819036E-03 +1.00129929794E-03 +1.02323248610E-03 +1.16404590557E-01 +8.22759575348E-01
1.46000000000E+09 +2.08210477655E-01 +7.50825896106E-01 +1.23484500170E-03 +9.83259133401E-04 +1.28064932933E-03 +7.84370811992E-04 +1.49406582943E-01 +7.99281718074E-01
1.46500000000E+09 +2.33630201979E-01 +7.29009323772E-01 +1.40962591313E-03 +8.79042203348E-04 +1.34326448540E-03 +6.98712613244E-04 +1.83572862545E-01 +7.71283202430E-01
1.47000000000E+09 +2.60018055813E-01 +7.02772966795E-01 +1.78556509302E-03 +7.86339868299E-04 +1.60748380830E-03 +7.26192170638E-04 +2.18284962411E-01 +7.37550361442E-01
1.47500000000E+09 +2.87096485754E-01 +6.69586264693E-01 +2.20627398926E-03 +3.61127282840E-04 +2.13389482904E-03 +4.55802864393E-04 +2.52485646319E-01 +6.97108496714E-01
1.48000000000E+09 +3.14472670277E-01 +6.28376151733E-01 +2.26386684731E-03 -3.41651334643E-04 +2.30056773971E-03 -2.53723830820E-04 +2.85317025105E-01 +6.48185041345E-01
1.48500000000E+09 +3.41290406973E-01 +5.78023039715E-01 +2.01956570457E-03 -4.25211651152E-04 +2.08133757604E-03 -4.56236331094E-04 +3.15302282060E-01 +5.90084737575E-01
1.49000000000E+09 +3.65629571063E-01 +5.17568941799E-01 +2.44358746524E-03 -9.65984602863E-04 +2.43105508762E-03 -1.04132323122E-03 +3.40519918932E-01 +5.21916072643E-01
1.49500000000E+09 +3.84021278015E-01 +4.49194168469E-01 +2.20718940344E-03 -1.68103782901E-03 +1.99342897670E-03 -1.66905180813E-03 +3.56837890861E-01 +4.43970313705E-01
1.50000000000E+09 +3.95398209457E-01 +3.73100621210E-01 +1.72858367468E-03 -1.90125025873E-03 +1.65742518247E-03 -1.77913419294E-03 +3.60349166813E-01 +3.57028155043E-01
1.50500000000E+09 +3.95300603419E-01 +2.90978536347E-01 +2.12335918680E-03 -2.38182685030E-03 +2.10274877405E-03 -2.21495159253E-03 +3.48244199369E-01 +2.63626780872E-01
1.51000000000E+09 +3.81813293251E-01 +2.05255872026E-01 +1.55673023019E-03 -3.54725709859E-03 +1.69610324657E-03 -3.47899519301E-03 +3.16326131994E-01 +1.66339617749E-01
1.51500000000E+09 +3.49648394814E-01 +1.17280221582E-01 +2.62415561892E-04 -4.08308278890E-03 +4.29041198310E-04 -4.09119087421E-03 +2.62098392805E-01 +7.01992979875E-02
1.52000000000E+09 +2.96775578390E-01 +3.19330501454E-02 -7.28504755582E-04 -4.16475272033E-03 -6.42399732164E-04 -4.22886027304E-03 +1.85374182338E-01 -1.57158838149E-02
1.52500000000E+09 +2.21101765217E-01 -4.50145000160E-02 -2.36456170497E-03 -4.33343601088E-03 -2.37941628348E-03 -4.50079585435E-03 +8.93045157487E-02 -8.52973683627E-02
1.53000000000E+09 +1.25304276100E-01 -1.05361171142E-01 -3.79875983178E-03 -2.58288956742E-03 -3.87620370081E-03 -2.58805985765E-03 -1.97632800159E-02 -1.29855202570E-01
1.53500000000E+09 +1.75749910690E-02 -1.45545223763E-01 -3.03222240157E-03 -1.32162289379E-03 -3.08502828830E-03 -1.33194388308E-03 -1.33613250073E-01 -1.49513469870E-01
1.54000000000E+09 -9.64764721822E-02 -1.62967063035E-01 -3.56502881150E-03 -1.79798438662E-03 -3.54346336371E-03 -1.71146320522E-03 -2.44881057056E-01 -1.43744736907E-01
1.54500000000E+09 -2.07065237628E-01 -1.56642663800E-01 -4.87742394759E-03 -8.05965498927E-05 -4.82283952671E-03 -1.41426138092E-04 -3.45455723407E-01 -1.17125517417E-01
1.55000000000E+09 -3.08801179027E-01 -1.30259755419E-01 -3.86926374914E-03 +1.52865456641E-03 -3.94131353659E-03 +1.35614821389E-03 -4.33978680943E-01 -7.70011704200E-02
1.55500000000E+09 -3.95022947500E-01 -8.69856489309E-02 -3.24714431211E-03 +2.40967355290E-03 -3.34728963040E-03 +2.33432198982E-03 -5.06891892588E-01 -2.52355552413E-02
1.56000000000E+09 -4.65455161711E-01 -3.21680074453E-02 -2.16588540852E-03 +3.26128023583E-03 -2.31473269363E-03 +3.33903407622E-03 -5.64568311070E-01 +3.23779006337E-02
1.56500000000E+09 -5.18624124560E-01 +2.82769425860E-02 -4.79095481841E-04 +2.94494488698E-03 -5.43627224395E-04 +3.11437633597E-03 -6.08263353136E-01 +9.26093232180E-02
1.57000000000E+09 -5.60048823861E-01 +9.25531550532E-02 -3.35834388997E-05 +2.02964655263E-03 -2.41567307706E-05 +2.16162157829E-03 -6.40168775231E-01 +1.52077607036E-01
