# Hz S RI R 50
! CMT, C1220, 16058040, 17.2.0/1
! Date: 15/08/2018 09:07:34
! Data: Format (Calibration Info)
! Freq                      S11: Re/Im (F2)                       S21: Re/Im (F2)                       S12: Re/Im (F2)                       S22: Re/Im (F2)            
1.00000000000E+09 -6.49920656015E-01 +7.10670964788E-01 -2.63905577949E-05 -4.29470358132E-06 -2.52038881901E-05 +3.51755054725E-05 -7.13064731766E-01 +6.69478616100E-01
1.00500000000E+09 -6.46901845616E-01 +7.12941505934E-01 +3.10335954247E-06 -5.11644458815E-05 -1.67789629481E-05 +1.52424024702E-05 -7.09663990600E-01 +6.72972697264E-01
1.01000000000E+09 -6.43134443070E-01 +7.15777031058E-01 -3.89045058525E-05 -3.13682816084E-05 -2.84146492259E-05 -2.94019439953E-06 -7.05685299497E-01 +6.76201864752E-01
1.01500000000E+09 -6.38413989564E-01 +7.19016674641E-01 -6.09148467750E-05 -3.73279675923E-05 -6.23265987402E-05 -9.14266024830E-07 -7.01660121574E-01 +6.80051061066E-01
1.02000000000E+09 -6.32181450770E-01 +7.23295012326E-01 +2.93490327409E-06 -3.74681337809E-05 +4.23527378387E-06 -3.31474555764E-05 -6.97384323231E-01 +6.84249636146E-01
1.02500000000E+09 -6.24976610315E-01 +7.27951549547E-01 -4.69367220126E-05 -2.86867320155E-05 +6.80451902242E-06 +1.56549657366E-05 -6.93981927313E-01 +6.88273814362E-01
1.03000000000E+09 -6.17496418625E-01 +7.32816496266E-01 +3.95465005697E-05 +2.03011358361E-05 +1.23542984531E-05 -2.32237004780E-05 -6.90435523054E-01 +6.92051055758E-01
1.03500000000E+09 -6.10161922656E-01 +7.37433218467E-01 -2.89351713634E-05 -1.00686140166E-05 +2.10245540204E-05 +3.90504903458E-05 -6.86687969223E-01 +6.95469877165E-01
1.04000000000E+09 -6.03615981485E-01 +7.41754109123E-01 +9.76734020610E-06 +2.13991722775E-05 +6.01406980645E-05 -5.07799313833E-06 -6.82900882421E-01 +6.98406530191E-01
1.04500000000E+09 -5.98264478978E-01 +7.45661826360E-01 +1.53735586344E-05 +1.83205868408E-05 -1.96287505070E-06 +1.28077352412E-05 -6.78930579142E-01 +7.01950397962E-01
1.05000000000E+09 -5.94171586192E-01 +7.48953052030E-01 +1.74338649785E-05 +1.34379560976E-05 -4.86192824310E-05 -8.46560231812E-06 -6.74512069569E-01 +7.05620368824E-01
1.05500000000E+09 -5.90824624125E-01 +7.51495496552E-01 -4.93933946727E-05 -1.07503448336E-05 +2.80001384658E-05 +3.79783005295E-05 -6.70230975321E-01 +7.09727541561E-01
1.06000000000E+09 -5.87641603981E-01 +7.53745298724E-01 -2.04676304753E-05 +2.80294114040E-05 +1.40448119682E-05 +3.75206216830E-05 -6.66263920121E-01 +7.13873818400E-01
1.06500000000E+09 -5.84295460655E-01 +7.56158500011E-01 +4.17501406789E-05 +5.35022388326E-05 +2.35774323852E-05 +3.42952745321E-05 -6.62121621725E-01 +7.17475332683E-01
1.07000000000E+09 -5.79667995304E-01 +7.58417322983E-01 -1.39296412785E-05 +4.37624432869E-05 +7.35117754247E-06 +6.99531501304E-06 -6.58242849883E-01 +7.20463336284E-01
1.07500000000E+09 -5.73725416133E-01 +7.61389817014E-01 -1.30923427370E-05 +1.23526261643E-05 +2.27715348300E-05 -7.16128879396E-06 -6.54163103125E-01 +7.23590549460E-01
1.08000000000E+09 -5.66783634253E-01 +7.65098393335E-01 -2.15961499496E-05 -4.29875463206E-06 +9.20796380513E-06 +4.46890877315E-06 -6.49646869852E-01 +7.27524143603E-01
1.08500000000E+09 -5.59064555837E-01 +7.68858161317E-01 -5.31012754132E-06 -9.04962207026E-06 -6.71748365253E-07 -3.38892845604E-05 -6.44948009087E-01 +7.31379968294E-01
1.09000000000E+09 -5.51201832484E-01 +7.72909408390E-01 -1.89165738102E-05 -6.35494065644E-06 +1.98448575218E-05 -6.72950255392E-06 -6.40151025281E-01 +7.35615009441E-01
1.09500000000E+09 -5.44400518598E-01 +7.76693386511E-01 +2.73886488968E-05 +3.15389127906E-05 +3.84871016225E-05 +1.22872281086E-05 -6.35758223009E-01 +7.39368548945E-01
1.10000000000E+09 -5.38527799123E-01 +7.80099777405E-01 -6.45696233133E-06 -3.20301099417E-05 -2.29314553531E-05 -2.09809473179E-05 -6.31746302057E-01 +7.42909542602E-01
1.10500000000E+09 -5.34338052840E-01 +7.83190774665E-01 +3.58517830241E-05 -5.49527453979E-06 +5.73226959940E-06 +5.78522915652E-05 -6.27793081900E-01 +7.45855643863E-01
1.11000000000E+09 -5.31027113666E-01 +7.85716774650E-01 -2.88065228692E-05 +1.23331468070E-05 +1.26011225570E-05 +5.00450609907E-05 -6.23348717042E-01 +7.48943713522E-01
1.11500000000E+09 -5.28274635611E-01 +7.87862394401E-01 +3.06943292724E-05 -5.13838638675E-06 -1.42810698667E-05 +1.25582009844E-05 -6.18673659926E-01 +7.52247954269E-01
1.12000000000E+09 -5.25534894908E-01 +7.89672414123E-01 +1.11820521688E-05 +2.23151444622E-05 +1.28010256320E-05 +5.25584535975E-06 -6.13471057094E-01 +7.56321469401E-01
1.12500000000E+09 -5.21494619342E-01 +7.91434410867E-01 +1.89436740015E-05 -2.84551672014E-05 +1.12675228165E-05 +2.15964484439E-05 -6.08190743490E-01 +7.60488801430E-01
1.13000000000E+09 -5.16119843570E-01 +7.93053882114E-01 +1.22793524260E-05 -1.33306261537E-05 +2.62946131795E-06 -3.86285682148E-07 -6.03462155878E-01 +7.64028635511E-01
1.13500000000E+09 -5.09078825343E-01 +7.94941830027E-01 +1.53687805957E-05 +2.09481890582E-05 +6.10200134257E-05 -2.56468249607E-05 -5.98917702308E-01 +7.67310040377E-01
1.14000000000E+09 -5.00321977053E-01 +7.97447353614E-01 -4.31314132832E-06 +1.58745177348E-05 +1.32728955348E-05 -7.03023918093E-06 -5.94345086650E-01 +7.70332092790E-01
1.14500000000E+09 -4.91182284274E-01 +8.00015235360E-01 +1.29993809545E-05 +1.12237977951E-05 +1.97518608153E-05 -2.21280982993E-06 -5.89444007122E-01 +7.73326677173E-01
1.15000000000E+09 -4.82005967064E-01 +8.02895302957E-01 -7.82210961249E-06 -2.59243557823E-05 +2.76606232563E-05 -1.65137955348E-06 -5.83898665176E-01 +7.77313050990E-01
1.15500000000E+09 -4.73941430389E-01 +8.05882796435E-01 +3.90140451062E-05 -5.18040226857E-06 +2.58005068611E-05 -1.64255078627E-05 -5.78071093689E-01 +7.81286105845E-01
1.16000000000E+09 -4.67258200503E-01 +8.08849384695E-01 +4.05305131637E-05 +1.70198145474E-05 +8.82840993366E-06 -3.89725826755E-05 -5.72481224696E-01 +7.85251584711E-01
1.16500000000E+09 -4.62253559270E-01 +8.11686257126E-01 +6.67847026014E-05 -9.44406440075E-06 +4.11027014334E-05 +1.76115555703E-05 -5.67200102981E-01 +7.88791155925E-01
1.17000000000E+09 -4.58300155980E-01 +8.14199698329E-01 +6.67532719612E-05 +1.03109209648E-05 +9.02517464628E-05 +2.03988615719E-05 -5.62124380710E-01 +7.91397383639E-01
1.17500000000E+09 -4.54980069583E-01 +8.16264312298E-01 +7.21828278406E-05 +3.30702590337E-06 +9.68880082134E-05 -1.05670721924E-05 -5.56827522647E-01 +7.94086424869E-01
1.18000000000E+09 -4.51304213059E-01 +8.18200098867E-01 +5.69149324459E-05 -2.90072027755E-05 +9.15496789880E-05 -2.38311083438E-05 -5.50752160003E-01 +7.96886142164E-01
1.18500000000E+09 -4.46439768092E-01 +8.19564781077E-01 +9.62576155936E-05 -3.56195143392E-05 +7.26599249125E-05 -4.21831941801E-05 -5.43843013226E-01 +7.99971977639E-01
1.19000000000E+09 -4.39825636132E-01 +8.21034742560E-01 +2.07457253156E-05 +9.50897846937E-06 +3.32940429873E-05 -5.85384777197E-05 -5.36921081509E-01 +8.02865658994E-01
1.19500000000E+09 -4.31662136793E-01 +8.22247672941E-01 +9.72220343999E-05 -3.05529170344E-05 +5.64831853660E-05 -5.54983347773E-05 -5.30322509936E-01 +8.04267498944E-01
1.20000000000E+09 -4.22291199758E-01 +8.23302154016E-01 +5.42551130227E-05 -1.17302698162E-04 +4.59815316743E-05 -1.28906791394E-04 -5.25317037485E-01 +8.04140753793E-01
1.20500000000E+09 -4.12389233835E-01 +8.25039741009E-01 -1.86881446228E-05 -9.41801223084E-05 +1.91965633315E-05 -1.00624748766E-04 -5.23026427862E-01 +8.03962496789E-01
1.21000000000E+09 -4.02880869007E-01 +8.27346235537E-01 -4.99018950710E-05 -2.80612249782E-05 -4.70323548925E-05 -6.62475813895E-05 -5.21235868076E-01 +8.06092236176E-01
1.21500000000E+09 -3.94073694363E-01 +8.30096996469E-01 -4.20412984609E-05 -7.06262123527E-05 -2.99011525380E-05 -3.92946046357E-05 -5.17989940120E-01 +8.10526530189E-01
1.22000000000E+09 -3.86575581636E-01 +8.32707533279E-01 -2.91945094140E-05 -3.24832282718E-05 -5.81724659865E-06 -1.85282972402E-05 -5.12531370799E-01 +8.16295599910E-01
1.22500000000E+09 -3.80825459577E-01 +8.35761138698E-01 -2.11159291379E-05 -4.34728387086E-05 -5.34288603314E-05 -1.29342392456E-05 -5.06106078404E-01 +8.21648271415E-01
1.23000000000E+09 -3.76205002685E-01 +8.38187198398E-01 -1.84305137033E-06 -4.10350605973E-06 -1.47079529476E-05 -6.46364833493E-05 -4.99778818245E-01 +8.26203990731E-01
1.23500000000E+09 -3.72193501133E-01 +8.40433424265E-01 +6.25732327616E-06 -3.22302978469E-05 +2.27509338827E-05 -2.00408022194E-05 -4.94140926994E-01 +8.30153425704E-01
1.24000000000E+09 -3.67865893216E-01 +8.42335221870E-01 +6.24676045287E-06 -3.16185269119E-05 +3.58499813531E-05 +1.71469327594E-06 -4.88808004600E-01 +8.33297726969E-01
1.24500000000E+09 -3.62254822878E-01 +8.44218650480E-01 +1.97774125112E-05 +5.32680288982E-06 +1.04834643750E-05 -2.56359850227E-05 -4.82561479184E-01 +8.36623520921E-01
1.25000000000E+09 -3.54940912521E-01 +8.45456794311E-01 +5.65191335308E-06 -9.15854249035E-05 +2.52518071524E-05 -5.48429050440E-05 -4.75222685780E-01 +8.40673600995E-01
1.25500000000E+09 -3.45673464958E-01 +8.46569206597E-01 -2.37392541363E-05 -3.69859802762E-05 +1.23659030221E-05 -5.95525215814E-05 -4.67102205712E-01 +8.44495999364E-01
1.26000000000E+09 -3.34827245358E-01 +8.47822635766E-01 -6.80348633103E-05 -5.74918331592E-05 -9.83878553828E-06 -4.76383060363E-05 -4.59116599764E-01 +8.48602524968E-01
1.26500000000E+09 -3.23313511715E-01 +8.49054135893E-01 +2.16541309855E-06 -4.34034682694E-05 -2.56594917398E-05 -4.02887166691E-05 -4.51488682448E-01 +8.52241829830E-01
1.27000000000E+09 -3.12004491932E-01 +8.50396585287E-01 -2.51498885116E-05 -8.19114309553E-05 -4.48980668121E-05 -4.63190076305E-05 -4.44907031267E-01 +8.55386130510E-01
1.27500000000E+09 -3.01767009160E-01 +8.52163876631E-01 -2.47353574893E-05 -2.84885018934E-05 -3.59053905407E-05 -1.28492454870E-05 -4.38342072146E-01 +8.58324315824E-01
1.28000000000E+09 -2.92894023748E-01 +8.54178326247E-01 +2.98278212403E-05 -6.74798807788E-05 +1.03471171809E-05 -5.86171519152E-05 -4.31333674206E-01 +8.61319160739E-01
1.28500000000E+09 -2.85530713883E-01 +8.56138981090E-01 -1.23358890998E-05 -7.61351163039E-05 +7.85882284169E-06 -8.68693554144E-05 -4.22958786568E-01 +8.64478169080E-01
1.29000000000E+09 -2.79470305304E-01 +8.58106317414E-01 -9.99232752988E-06 -9.87098288625E-05 -8.66795444686E-05 -8.33747579114E-05 -4.14054236928E-01 +8.68195543633E-01
1.29500000000E+09 -2.73956826801E-01 +8.59931878897E-01 -3.80196266311E-05 -1.13633612171E-04 -4.26505720031E-05 -1.00032523602E-04 -4.04881803913E-01 +8.71483143481E-01
1.30000000000E+09 -2.68189879470E-01 +8.61728267059E-01 -6.69471127847E-05 -9.24441053909E-05 -6.50670779939E-05 -8.96041426916E-05 -3.96574868595E-01 +8.74511132041E-01
1.30500000000E+09 -2.61057147501E-01 +8.63059822744E-01 -1.46750438383E-04 -7.75078354048E-05 -1.32172318044E-04 -5.86287179468E-05 -3.88902500608E-01 +8.77328643925E-01
1.31000000000E+09 -2.52242030688E-01 +8.64188362629E-01 -1.19100739655E-04 -4.55965836563E-05 -1.07901974673E-04 -2.16556766219E-05 -3.81049851036E-01 +8.79978570679E-01
1.31500000000E+09 -2.41370326196E-01 +8.64994705353E-01 -7.47961742325E-05 -2.26958846794E-05 -1.00856550211E-04 -1.69827650404E-05 -3.72132050367E-01 +8.82751391023E-01
1.32000000000E+09 -2.29076641290E-01 +8.65481419092E-01 -9.03427545695E-05 -3.82939442059E-05 -4.69711782340E-05 -1.88780308848E-05 -3.62160452425E-01 +8.85598830230E-01
1.32500000000E+09 -2.16430515264E-01 +8.65614723657E-01 -8.06807016554E-05 -2.19801989560E-05 -1.23883456384E-04 -3.09509823332E-05 -3.51060845979E-01 +8.88502198505E-01
1.33000000000E+09 -2.04130566560E-01 +8.65851517765E-01 -9.73446826902E-05 -5.44538841554E-05 -1.34002433650E-04 -8.46853926165E-05 -3.40316323905E-01 +8.91518549807E-01
1.33500000000E+09 -1.92547921266E-01 +8.66332950410E-01 -2.02890738352E-04 -5.16508802162E-05 -2.13748898311E-04 -3.27498292945E-05 -3.30283857660E-01 +8.94023895729E-01
1.34000000000E+09 -1.82204087041E-01 +8.67164452116E-01 -2.00086739729E-04 +1.43992588959E-05 -2.33567009413E-04 +2.21771315696E-05 -3.20819256850E-01 +8.96474712750E-01
1.34500000000E+09 -1.73101635508E-01 +8.67865728494E-01 -1.88020773048E-04 +4.88973176045E-05 -1.74439942275E-04 +5.07344260872E-05 -3.10643962257E-01 +8.98830976260E-01
1.35000000000E+09 -1.64326156931E-01 +8.68372223419E-01 -2.45843428836E-04 +6.78666528563E-05 -2.29345197448E-04 +3.80190381937E-05 -2.99342783166E-01 +9.00926777713E-01
1.35500000000E+09 -1.55595053992E-01 +8.69674918423E-01 -1.81011985855E-04 +1.08093471281E-04 -1.78844337429E-04 +8.38830329369E-05 -2.86703827207E-01 +9.02868992616E-01
1.36000000000E+09 -1.45411298673E-01 +8.69375460932E-01 -2.09172605991E-04 +5.81481295244E-05 -2.11124014704E-04 +7.61004342243E-05 -2.73408555511E-01 +9.04662423138E-01
1.36500000000E+09 -1.33094454666E-01 +8.68252894689E-01 -1.76004346180E-04 +1.17297976405E-04 -1.96141488692E-04 +1.29604038291E-04 -2.60387516934E-01 +9.06610701180E-01
1.37000000000E+09 -1.18867607165E-01 +8.66214750756E-01 -2.91744078604E-04 +1.44584375098E-04 -2.66676020651E-04 +1.58371589032E-04 -2.47752919210E-01 +9.08175325356E-01
1.37500000000E+09 -1.03167984848E-01 +8.63510493479E-01 -2.27416716919E-04 +2.51719476433E-04 -2.76826288808E-04 +2.48106103669E-04 -2.34843165980E-01 +9.09559016479E-01
1.38000000000E+09 -8.64975183849E-02 +8.60444461074E-01 -2.00419876443E-04 +3.52779381633E-04 -2.70533975035E-04 +3.05811124136E-04 -2.21024823840E-01 +9.10561761121E-01
1.38500000000E+09 -6.94963809417E-02 +8.57256767027E-01 -1.96824865488E-04 +3.92749180923E-04 -2.82263766591E-04 +4.09883348565E-04 -2.05346366893E-01 +9.11063884892E-01
1.39000000000E+09 -5.35226448584E-02 +8.54331932897E-01 -1.27344053610E-04 +5.05100356806E-04 -1.53053921965E-04 +5.58700172791E-04 -1.88760310947E-01 +9.11088199101E-01
1.39500000000E+09 -3.87652092874E-02 +8.51995537466E-01 -4.79922488688E-06 +4.61101483247E-04 +4.61884808226E-05 +5.22334874753E-04 -1.70991011644E-01 +9.10619865753E-01
1.40000000000E+09 -2.50313376139E-02 +8.49782206845E-01 +8.88248491753E-05 +4.71728092203E-04 +1.26472445896E-04 +4.27674948702E-04 -1.53212091171E-01 +9.09950946946E-01
1.40500000000E+09 -1.25049194272E-02 +8.47518561000E-01 +5.56577341650E-05 +4.23889307336E-04 +9.45525769905E-05 +4.07763198013E-04 -1.35298015530E-01 +9.08963487074E-01
1.41000000000E+09 -2.66552802271E-04 +8.44960256035E-01 +1.82443730229E-04 +4.76798731545E-04 +1.40835611945E-04 +5.03586322714E-04 -1.16905426412E-01 +9.07253222512E-01
1.41500000000E+09 +1.35034190841E-02 +8.41553635781E-01 +1.70311175893E-04 +4.92408279065E-04 +1.78711264674E-04 +4.47381878776E-04 -9.64693065231E-02 +9.04367154019E-01
1.42000000000E+09 +2.98556217936E-02 +8.36790745900E-01 +2.56802411737E-04 +5.85295600045E-04 +3.02665222414E-04 +6.27206133909E-04 -7.38969372282E-02 +8.99987208282E-01
1.42500000000E+09 +4.93258642099E-02 +8.29608711241E-01 +4.73740921546E-04 +4.87464750826E-04 +6.03302890611E-04 +5.07920201103E-04 -4.97445893510E-02 +8.94365297748E-01
1.43000000000E+09 +7.19112546912E-02 +8.19368984711E-01 +5.57182097726E-04 +4.10197920282E-04 +5.93322588810E-04 +3.55224287146E-04 -2.42354180846E-02 +8.87811231162E-01
1.43500000000E+09 +9.63756407974E-02 +8.06273786841E-01 +6.06071122839E-04 +3.54387448126E-04 +6.26084040916E-04 +2.64471913247E-04 +1.52438717525E-03 +8.79462607780E-01
1.44000000000E+09 +1.21957570494E-01 +7.91856312540E-01 +6.11406035884E-04 +4.19220110089E-04 +6.13179048762E-04 +3.71882165109E-04 +2.77016156405E-02 +8.69905668309E-01
1.44500000000E+09 +1.48359858175E-01 +7.76203293583E-01 +8.03430272414E-04 +2.85898343007E-04 +8.39399071373E-04 +2.69862422834E-04 +5.53714737099E-02 +8.58201554826E-01
1.45000000000E+09 +1.74326446381E-01 +7.58999311600E-01 +8.01702453858E-04 +1.19612156979E-04 +7.89261957965E-04 +8.10240217175E-05 +8.51595781373E-02 +8.42460734770E-01
1.45500000000E+09 +1.99112797216E-01 +7.41055877969E-01 +9.77226062714E-04 +1.85876650183E-04 +9.98258958317E-04 +1.10130630115E-04 +1.16428442536E-01 +8.22866644805E-01
1.46000000000E+09 +2.23212122088E-01 +7.21658306550E-01 +1.11391319479E-03 -2.13774623841E-05 +1.10755532630E-03 -9.44762853716E-05 +1.49491119116E-01 +7.99347000742E-01
1.46500000000E+09 +2.46944433532E-01 +6.99718817760E-01 +1.30040727102E-03 -2.79953314066E-04 +1.13270691036E-03 -3.16608927939E-04 +1.83759163585E-01 +7.71252097351E-01
1.47000000000E+09 +2.71298328976E-01 +6.73222036475E-01 +1.33701413868E-03 -5.85107336809E-04 +1.22663612047E-03 -5.12983230747E-04 +2.18278909213E-01 +7.37555213638E-01
1.47500000000E+09 +2.96172534545E-01 +6.40478143634E-01 +1.33367332905E-03 -9.37849439139E-04 +1.29706900053E-03 -8.02555766057E-04 +2.52642332877E-01 +6.97033648147E-01
1.48000000000E+09 +3.21488693952E-01 +5.99042912563E-01 +1.26923151215E-03 -1.26155659973E-03 +1.27155198746E-03 -1.20917568440E-03 +2.85475110952E-01 +6.47978698268E-01
1.48500000000E+09 +3.45026531828E-01 +5.47788943647E-01 +1.11240187275E-03 -1.50976160133E-03 +1.11747081348E-03 -1.60816136019E-03 +3.15391360439E-01 +5.89859716379E-01
1.49000000000E+09 +3.65030201674E-01 +4.87999826462E-01 +1.08778879198E-03 -2.12578318430E-03 +9.94059031365E-04 -2.13013073807E-03 +3.40261184396E-01 +5.21658176621E-01
1.49500000000E+09 +3.79663563019E-01 +4.20919565877E-01 +4.70353678791E-04 -2.69370356259E-03 +3.48654955961E-04 -2.58718097104E-03 +3.56656823147E-01 +4.43796967393E-01
1.50000000000E+09 +3.86810493883E-01 +3.46331003899E-01 -5.43366983090E-04 -3.21657025771E-03 -4.85546665567E-04 -2.98834414177E-03 +3.60054895101E-01 +3.56783814250E-01
1.50500000000E+09 +3.82501586622E-01 +2.66671387117E-01 -1.48009931655E-03 -3.03379587011E-03 -1.34669511703E-03 -2.94851849585E-03 +3.47829943069E-01 +2.63625875077E-01
1.51000000000E+09 +3.64307322383E-01 +1.83869266353E-01 -2.57615567104E-03 -2.52918488596E-03 -2.40823677648E-03 -2.56472987359E-03 +3.15891379269E-01 +1.66576355502E-01
1.51500000000E+09 +3.27526125522E-01 +1.01825233970E-01 -3.79301080299E-03 -1.60796935578E-03 -3.75806203728E-03 -1.73300754248E-03 +2.61828592195E-01 +7.08118425848E-02
1.52000000000E+09 +2.71744541261E-01 +2.47947091279E-02 -3.36500194845E-03 +1.35975567824E-04 -3.40535532499E-03 +1.22635526236E-04 +1.85519440287E-01 -1.50673894339E-02
1.52500000000E+09 +1.96602793689E-01 -4.19012402913E-02 -3.43673563995E-03 +3.36372968737E-04 -3.49161004944E-03 +3.14246312855E-04 +8.97381761134E-02 -8.48199055721E-02
1.53000000000E+09 +1.05904280027E-01 -9.38215446299E-02 -3.11027598572E-03 +2.16142074566E-03 -3.10833110689E-03 +2.14370502148E-03 -1.91748869920E-02 -1.29591776853E-01
1.53500000000E+09 +3.61954375102E-03 -1.29028650190E-01 -1.47880423930E-03 +2.98593363152E-03 -1.45966629911E-03 +2.96770039905E-03 -1.32895084999E-01 -1.49739937013E-01
1.54000000000E+09 -1.05038894968E-01 -1.40334889116E-01 -3.28680942220E-04 +2.01901653068E-03 -3.35777310965E-04 +1.96201717140E-03 -2.44549601146E-01 -1.44229243856E-01
1.54500000000E+09 -2.08575753382E-01 -1.30761445884E-01 -8.07418147118E-04 +1.72616229159E-03 -8.18936282990E-04 +1.66624030897E-03 -3.45395470038E-01 -1.17696580668E-01
1.55000000000E+09 -3.02470634205E-01 -1.02918355815E-01 -1.04183934189E-04 +2.41648500017E-03 -1.99428850402E-04 +2.40606986627E-03 -4.34248783899E-01 -7.75672517975E-02
1.55500000000E+09 -3.82339427161E-01 -6.12361955438E-02 +8.08539196239E-04 +1.93061771018E-03 +6.99489035955E-04 +1.99580702987E-03 -5.07340281714E-01 -2.54519102922E-02
1.56000000000E+09 -4.47787489408E-01 -9.32865887926E-03 +7.11692614268E-04 +1.32372692686E-03 +6.78061230522E-04 +1.40229206228E-03 -5.64886586305E-01 +3.24429167487E-02
1.56500000000E+09 -4.98005134420E-01 +4.90752115155E-02 +1.13366341360E-03 +1.08990319307E-03 +1.15365140665E-03 +1.14804631390E-03 -6.08534519797E-01 +9.27183975445E-02
1.57000000000E+09 -5.36133557008E-01 +1.09748653152E-01 +1.05536385206E-03 +6.60725537079E-04 +1.10312712239E-03 +6.83864056105E-04 -6.40428793011E-01 +1.52144856274E-01
