# Hz S RI R 50
! CMT, C1220, 16058040, 17.2.0/1
! Date: 15/08/2018 09:06:31
! Data: Format (Calibration Info)
! Freq                      S11: Re/Im (F2)                       S21: Re/Im (F2)                       S12: Re/Im (F2)                       S22: Re/Im (F2)            
1.00000000000E+09 -6.74027055282E-01 +7.01944361958E-01 -4.11047870593E-05 -5.16473642978E-05 +4.14207584501E-05 +4.46310692028E-06 -7.13013343869E-01 +6.69679654898E-01
1.00500000000E+09 -6.68511723516E-01 +7.08756019536E-01 +4.43959084215E-05 -9.48950806506E-07 -5.57058754453E-05 -1.98752638592E-06 -7.09518745651E-01 +6.73257128523E-01
1.01000000000E+09 -6.64676629413E-01 +7.14026857031E-01 -1.15588911995E-05 -2.28417528926E-05 -4.08912477902E-06 -3.99596707795E-05 -7.05638169105E-01 +6.76495899355E-01
1.01500000000E+09 -6.62760410139E-01 +7.17334716071E-01 -1.66264102537E-05 -2.61823098665E-05 +2.21910815749E-05 -5.35637824936E-05 -7.01556008584E-01 +6.80735222548E-01
1.02000000000E+09 -6.61651004750E-01 +7.19118482537E-01 -2.05422771612E-05 -3.32053431682E-05 +2.00058747676E-05 -2.09302028139E-05 -6.97380886756E-01 +6.84562648292E-01
1.02500000000E+09 -6.60631479038E-01 +7.19751378410E-01 -4.33977879902E-05 -2.08658054304E-05 +2.01713541883E-05 -1.58790991782E-05 -6.93714905903E-01 +6.88719554222E-01
1.03000000000E+09 -6.58957596626E-01 +7.20081500917E-01 +7.53024278889E-06 -8.37484449576E-05 -3.04437454346E-06 -5.96555997886E-06 -6.90178646795E-01 +6.92451634450E-01
1.03500000000E+09 -6.55439239381E-01 +7.21134115552E-01 -1.33987447134E-05 -6.30558280143E-05 -4.47057478484E-05 -1.70238580239E-05 -6.86383652625E-01 +6.95820000693E-01
1.04000000000E+09 -6.49797321409E-01 +7.24048773127E-01 -4.12091949985E-05 -3.78644188887E-05 -9.33753509756E-06 -2.96663146790E-05 -6.82747523387E-01 +6.98802726229E-01
1.04500000000E+09 -6.42601859450E-01 +7.28796683687E-01 -4.86182406061E-05 -8.58560582261E-06 -2.47234911323E-05 -4.76598633346E-06 -6.78839523178E-01 +7.02136748111E-01
1.05000000000E+09 -6.33872462566E-01 +7.35335911176E-01 -4.27963871550E-05 -1.52313812793E-05 -3.46797567286E-05 +1.79561527240E-05 -6.74328699558E-01 +7.05905663757E-01
1.05500000000E+09 -6.25023587320E-01 +7.42799424148E-01 -5.58718309939E-05 -1.63436566276E-05 +1.80393244604E-05 -9.78311666809E-05 -6.70094605986E-01 +7.10090337072E-01
1.06000000000E+09 -6.16976749286E-01 +7.50769158810E-01 -2.54882108540E-05 -7.96596472057E-05 -5.18202318335E-06 -4.24089450273E-05 -6.65876607127E-01 +7.14271900798E-01
1.06500000000E+09 -6.10882478973E-01 +7.57705834852E-01 +2.47752091244E-06 -4.37876286370E-05 -5.62843681978E-05 +2.82713635430E-05 -6.62236352190E-01 +7.17698468336E-01
1.07000000000E+09 -6.07114503993E-01 +7.62727852831E-01 -4.40438175644E-05 -7.22262018154E-05 -5.05823989529E-05 -1.09317735339E-04 -6.58251393205E-01 +7.20919333146E-01
1.07500000000E+09 -6.05391134543E-01 +7.65858425350E-01 -1.05901405128E-04 -2.55187996652E-05 -7.46584894767E-05 -6.90756355400E-05 -6.54004856459E-01 +7.23984835177E-01
1.08000000000E+09 -6.05149180046E-01 +7.67268464775E-01 -9.43749835576E-05 -4.08782572126E-05 -7.18484953379E-05 -3.17156081862E-05 -6.49564617950E-01 +7.27639241953E-01
1.08500000000E+09 -6.05208178924E-01 +7.67184764986E-01 -8.27033067733E-05 -4.05440508888E-05 -1.31256508357E-04 -5.21359985917E-05 -6.44600937915E-01 +7.31680592768E-01
1.09000000000E+09 -6.04481905439E-01 +7.66878367296E-01 -7.33012906655E-05 +1.20539496442E-05 -1.14689102472E-04 -3.45992046771E-05 -6.39890243424E-01 +7.35848334841E-01
1.09500000000E+09 -6.02599067287E-01 +7.67079491327E-01 -8.48728635785E-05 -2.98924884942E-06 -1.15283065151E-04 -8.12017021381E-06 -6.35557644784E-01 +7.39727933741E-01
1.10000000000E+09 -5.97988285811E-01 +7.68770436179E-01 -8.01608320344E-05 -5.84771904524E-05 -1.23430811290E-04 -2.49899227077E-05 -6.31546399430E-01 +7.43306303239E-01
1.10500000000E+09 -5.91720992463E-01 +7.72079201488E-01 -1.36361374712E-04 +5.19825555075E-05 -1.07896544174E-04 +3.34371082568E-06 -6.27533140034E-01 +7.46086671692E-01
1.11000000000E+09 -5.83950697875E-01 +7.77434513134E-01 -1.16895584506E-04 +1.58868137574E-05 -1.77979894307E-04 +2.99793740491E-05 -6.23227961841E-01 +7.49113607616E-01
1.11500000000E+09 -5.75824417543E-01 +7.83951095265E-01 -1.70335756542E-04 +1.40734130010E-05 -1.55419376987E-04 -6.35152888433E-06 -6.18414740584E-01 +7.52515289801E-01
1.12000000000E+09 -5.68319320367E-01 +7.90372736192E-01 -1.28952686239E-04 +2.90036176466E-06 -1.51638439282E-04 +3.13501385284E-05 -6.13167902335E-01 +7.56594755562E-01
1.12500000000E+09 -5.61919601869E-01 +7.95994052946E-01 -1.54762044596E-04 +2.67857898322E-05 -1.50994388819E-04 +3.18530519465E-05 -6.07988421965E-01 +7.60732791891E-01
1.13000000000E+09 -5.57671718677E-01 +8.00059055761E-01 -1.29269822942E-04 +4.88797056105E-05 -1.38315422651E-04 +6.50252059559E-05 -6.03186351518E-01 +7.64495095524E-01
1.13500000000E+09 -5.54882471496E-01 +8.02053210906E-01 -1.42916082188E-04 +8.54728804007E-05 -1.30413194928E-04 +6.60881049610E-05 -5.98727060334E-01 +7.67940574046E-01
1.14000000000E+09 -5.52874794831E-01 +8.02919409120E-01 -1.34780255727E-04 +2.40008666050E-05 -1.40188187819E-04 +8.50549511170E-05 -5.94259199248E-01 +7.70688020966E-01
1.14500000000E+09 -5.51064900111E-01 +8.02476464314E-01 -1.90581699533E-04 +5.81817505460E-05 -1.42396199773E-04 +5.45661175053E-05 -5.89364072635E-01 +7.73763333540E-01
1.15000000000E+09 -5.47618893150E-01 +8.02225972668E-01 -1.64525855592E-04 +7.17209129473E-05 -2.36005311281E-04 +1.20779170736E-04 -5.83799332690E-01 +7.77556779530E-01
1.15500000000E+09 -5.42765395383E-01 +8.02903944081E-01 -1.94383300372E-04 +9.55028103685E-05 -1.73492591015E-04 +1.02746017112E-04 -5.77820765043E-01 +7.81625006993E-01
1.16000000000E+09 -5.35457130812E-01 +8.05126872408E-01 -1.37442756688E-04 +9.00877873147E-05 -2.01102589633E-04 +8.46826637720E-05 -5.72283383523E-01 +7.85579220910E-01
1.16500000000E+09 -5.26469034586E-01 +8.09476956634E-01 -2.22237746950E-04 +1.06279422279E-04 -1.97413084004E-04 +1.15136874502E-04 -5.66899197927E-01 +7.88967567377E-01
1.17000000000E+09 -5.16477827617E-01 +8.15592792298E-01 -1.93780983096E-04 +1.06029713608E-04 -1.46105766947E-04 +1.36501243035E-04 -5.61764551521E-01 +7.91888241312E-01
1.17500000000E+09 -5.06440845795E-01 +8.22425547677E-01 -1.83572506925E-04 +1.57310844091E-04 -2.03375458851E-04 +1.11984852945E-04 -5.56335046229E-01 +7.94519877493E-01
1.18000000000E+09 -4.97798623498E-01 +8.29306633678E-01 -1.86461268184E-04 +8.98027509317E-05 -2.03539030351E-04 +1.75198780125E-04 -5.50588152128E-01 +7.97368787090E-01
1.18500000000E+09 -4.91065050635E-01 +8.34981041144E-01 -1.45606828997E-04 +1.25228005483E-04 -1.43525395592E-04 +1.91867134057E-04 -5.43715197661E-01 +8.00411891239E-01
1.19000000000E+09 -4.86576711590E-01 +8.38735725833E-01 -1.63828453129E-04 +9.20818501016E-05 -1.63589092781E-04 +1.73658502294E-04 -5.36668663452E-01 +8.03252249685E-01
1.19500000000E+09 -4.84124583700E-01 +8.40437338087E-01 -2.29402915879E-04 +8.49736639951E-05 -1.54113141594E-04 +8.25530455905E-05 -5.29998975833E-01 +8.04551589819E-01
1.20000000000E+09 -4.82747367363E-01 +8.40002057808E-01 -3.05159590366E-04 -9.25415088116E-06 -2.51406927001E-04 +1.02452535198E-04 -5.25118543665E-01 +8.04456835139E-01
1.20500000000E+09 -4.81526284261E-01 +8.39212410918E-01 -4.20480109758E-04 +1.30836141734E-04 -4.03723091762E-04 +1.37288914977E-04 -5.22547369821E-01 +8.04398720534E-01
1.21000000000E+09 -4.78998160488E-01 +8.38635612623E-01 -5.23016186809E-04 +3.77346666382E-04 -4.80386573119E-04 +3.34411207835E-04 -5.20852364378E-01 +8.06510178706E-01
1.21500000000E+09 -4.73761940594E-01 +8.39359463867E-01 -4.10121117897E-04 +5.86785955999E-04 -4.11830277147E-04 +5.45806993132E-04 -5.17593271504E-01 +8.10859143923E-01
1.22000000000E+09 -4.65908825106E-01 +8.41744699417E-01 -2.86748900940E-04 +6.20668966295E-04 -2.75279949237E-04 +5.94821412009E-04 -5.12170396502E-01 +8.16439987734E-01
1.22500000000E+09 -4.55695278972E-01 +8.46210680002E-01 -1.74974884675E-04 +5.65792744463E-04 -1.98898040000E-04 +6.43268596843E-04 -5.05927290331E-01 +8.21792521298E-01
1.23000000000E+09 -4.44428238137E-01 +8.52309164450E-01 -1.60825672073E-04 +6.14216335136E-04 -1.57431641796E-04 +6.89638721918E-04 -4.99629471745E-01 +8.26535841338E-01
1.23500000000E+09 -4.33209989242E-01 +8.59191130206E-01 -1.12257118866E-04 +6.74332444541E-04 -5.72372948007E-05 +7.01904624229E-04 -4.93896256676E-01 +8.30562511441E-01
1.24000000000E+09 -4.23210531437E-01 +8.65828206046E-01 -4.28470438493E-05 +6.83331249165E-04 -2.30060336533E-05 +6.37295496351E-04 -4.88437864297E-01 +8.33794389811E-01
1.24500000000E+09 -4.15509544982E-01 +8.71661342043E-01 +4.66275533790E-05 +6.40697029163E-04 +3.34676543550E-05 +6.20599002248E-04 -4.82254140816E-01 +8.37016926170E-01
1.25000000000E+09 -4.10061420421E-01 +8.75325674014E-01 +1.28701671752E-04 +6.71407820983E-04 +9.02078240854E-05 +6.36428765567E-04 -4.75075587629E-01 +8.40762141868E-01
1.25500000000E+09 -4.06432122005E-01 +8.76743746872E-01 +1.07589700440E-04 +6.50596195548E-04 +7.52803656164E-05 +6.27316391653E-04 -4.66684987319E-01 +8.44679863379E-01
1.26000000000E+09 -4.03831259349E-01 +8.76903722385E-01 +1.40572497970E-04 +6.71472962059E-04 +1.20122020390E-04 +6.89383055634E-04 -4.58835142097E-01 +8.49066466241E-01
1.26500000000E+09 -4.00770890281E-01 +8.76188908020E-01 +9.86325130949E-05 +6.60142029111E-04 +1.39993037726E-04 +7.13700838216E-04 -4.51248939841E-01 +8.52498605908E-01
1.27000000000E+09 -3.95839593196E-01 +8.75670267036E-01 +1.63049593442E-04 +7.58052829967E-04 +1.94925081677E-04 +7.49700823355E-04 -4.44728452620E-01 +8.55751106196E-01
1.27500000000E+09 -3.88147092974E-01 +8.76084688555E-01 +2.57240442763E-04 +7.45325482224E-04 +2.48641469379E-04 +7.54902163825E-04 -4.38112805000E-01 +8.58597718036E-01
1.28000000000E+09 -3.77390600658E-01 +8.78702325496E-01 +2.85867114072E-04 +6.91032413209E-04 +3.04530952492E-04 +7.53902276847E-04 -4.31126334135E-01 +8.61564750896E-01
1.28500000000E+09 -3.63900194183E-01 +8.82925908733E-01 +3.37971808293E-04 +7.48939985657E-04 +3.57144463428E-04 +7.87470088748E-04 -4.22791570458E-01 +8.64772319426E-01
1.29000000000E+09 -3.49432602766E-01 +8.88634042837E-01 +2.99605685685E-04 +7.11834895593E-04 +4.17833555838E-04 +8.10848100162E-04 -4.13753093734E-01 +8.68312733261E-01
1.29500000000E+09 -3.35040055402E-01 +8.94939770105E-01 +3.21048317148E-04 +7.66989890527E-04 +4.56888574809E-04 +7.75256357010E-04 -4.04633282204E-01 +8.71557354773E-01
1.30000000000E+09 -3.22681798543E-01 +9.01091525774E-01 +3.43224024166E-04 +8.20851505069E-04 +5.05704236178E-04 +8.00722689539E-04 -3.96463862386E-01 +8.74678227627E-01
1.30500000000E+09 -3.12962816113E-01 +9.05825178144E-01 +5.06833534941E-04 +8.83483075873E-04 +5.81265885237E-04 +8.06063455149E-04 -3.88662491755E-01 +8.77697975059E-01
1.31000000000E+09 -3.06544324537E-01 +9.08697050575E-01 +6.10145131294E-04 +8.46585687791E-04 +5.64134262719E-04 +8.32046444824E-04 -3.80828986965E-01 +8.80395168651E-01
1.31500000000E+09 -3.02710053097E-01 +9.10005234303E-01 +6.40976584588E-04 +8.68405499589E-04 +6.03012801757E-04 +8.99320321850E-04 -3.72004378401E-01 +8.83191190571E-01
1.32000000000E+09 -2.99757284231E-01 +9.09740147936E-01 +6.53368972610E-04 +8.76882279761E-04 +7.11166335484E-04 +9.56788496510E-04 -3.61786467960E-01 +8.85876895467E-01
1.32500000000E+09 -2.96068801014E-01 +9.08664905059E-01 +7.02074374005E-04 +8.78259147085E-04 +8.25891603180E-04 +9.56498731811E-04 -3.50880805630E-01 +8.88765711062E-01
1.33000000000E+09 -2.89799725783E-01 +9.07912185189E-01 +7.57705196193E-04 +1.01256198808E-03 +8.68424068809E-04 +1.02015858116E-03 -3.40008620372E-01 +8.91563675242E-01
1.33500000000E+09 -2.80007379174E-01 +9.07630642324E-01 +9.23049821837E-04 +1.15281333011E-03 +1.02565700941E-03 +9.80796754324E-04 -3.29935151645E-01 +8.94454851533E-01
1.34000000000E+09 -2.66340590289E-01 +9.08747231450E-01 +1.20243562875E-03 +1.10928566015E-03 +1.15614846960E-03 +1.03099577064E-03 -3.20515257158E-01 +8.96871681029E-01
1.34500000000E+09 -2.49714579564E-01 +9.11006717108E-01 +1.35453903043E-03 +1.02218269461E-03 +1.27559450338E-03 +9.57639752105E-04 -3.10321881867E-01 +8.99254026539E-01
1.35000000000E+09 -2.31488128102E-01 +9.14348486474E-01 +1.43564770997E-03 +9.37073463497E-04 +1.33907965531E-03 +8.95986962162E-04 -2.99102031970E-01 +9.01294340030E-01
1.35500000000E+09 -2.13017218300E-01 +9.18128358631E-01 +1.48418334938E-03 +9.31815911044E-04 +1.49151686714E-03 +9.78518009277E-04 -2.86555849442E-01 +9.03235548527E-01
1.36000000000E+09 -1.96437169013E-01 +9.21372771183E-01 +1.60020158094E-03 +9.77642768693E-04 +1.55129801094E-03 +8.92779192876E-04 -2.73045351471E-01 +9.05149671269E-01
1.36500000000E+09 -1.82712726133E-01 +9.23722107667E-01 +1.77916156597E-03 +1.01388589665E-03 +1.68314998127E-03 +9.41046197739E-04 -2.60059389957E-01 +9.06900703945E-01
1.37000000000E+09 -1.71754482654E-01 +9.24847548365E-01 +1.99470710504E-03 +9.47340935007E-04 +1.80649755667E-03 +9.14160876931E-04 -2.47241658812E-01 +9.08566268781E-01
1.37500000000E+09 -1.63013825468E-01 +9.24555962367E-01 +2.14684424598E-03 +7.66536906638E-04 +1.99671745537E-03 +9.61680510440E-04 -2.34474089322E-01 +9.10020311569E-01
1.38000000000E+09 -1.54771481360E-01 +9.23180587890E-01 +2.21283015159E-03 +7.00132754646E-04 +2.18508848670E-03 +1.03863023740E-03 -2.20353161852E-01 +9.11068938936E-01
1.38500000000E+09 -1.45029046048E-01 +9.20939558480E-01 +2.30925088503E-03 +7.49768061856E-04 +2.48050439065E-03 +1.08092336494E-03 -2.04864732261E-01 +9.11612299123E-01
1.39000000000E+09 -1.32561153052E-01 +9.18059874141E-01 +2.49151893233E-03 +8.26363910482E-04 +2.88620944115E-03 +9.43892729012E-04 -1.88252172215E-01 +9.11390817438E-01
1.39500000000E+09 -1.16268329845E-01 +9.15428818808E-01 +2.81670441499E-03 +9.56329748679E-04 +3.18641067566E-03 +8.29940582979E-04 -1.70643283002E-01 +9.11104300517E-01
1.40000000000E+09 -9.56827092176E-02 +9.12856959901E-01 +3.27805345252E-03 +1.05657521900E-03 +3.46524361771E-03 +7.11818669069E-04 -1.52751984272E-01 +9.10370843542E-01
1.40500000000E+09 -7.20729333889E-02 +9.10102722427E-01 +3.89902378179E-03 +7.12950918707E-04 +3.85702943643E-03 +5.16473560101E-04 -1.34836608364E-01 +9.09188450536E-01
1.41000000000E+09 -4.69347212156E-02 +9.07287302477E-01 +4.21941418661E-03 +3.35074846890E-04 +4.10519228597E-03 +3.23686866438E-04 -1.16315540914E-01 +9.07390833915E-01
1.41500000000E+09 -2.20789905724E-02 +9.03949644208E-01 +4.37861455795E-03 +1.39335286131E-04 +4.53693410098E-03 +3.52581980400E-04 -9.58647008709E-02 +9.04607661065E-01
1.42000000000E+09 +1.52840870472E-03 +8.99545397213E-01 +4.76123964959E-03 +4.44577949473E-05 +5.29033201748E-03 +1.47063467717E-04 -7.34662540230E-02 +9.00184107688E-01
1.42500000000E+09 +2.28938964228E-02 +8.93734969780E-01 +5.35725278338E-03 -1.15832777463E-04 +5.96710172265E-03 -4.15643961447E-04 -4.96014417105E-02 +8.94710882333E-01
1.43000000000E+09 +4.21938726201E-02 +8.86275520237E-01 +6.31445276326E-03 -3.40879044620E-04 +6.76957126795E-03 -1.00793606849E-03 -2.39880605274E-02 +8.88270974763E-01
1.43500000000E+09 +6.11537525281E-02 +8.76643825677E-01 +7.47185468742E-03 -1.34183337565E-03 +7.63842021607E-03 -2.10772710252E-03 +1.94662143894E-03 +8.79887754201E-01
1.44000000000E+09 +8.10294983015E-02 +8.64894962624E-01 +7.88285324832E-03 -2.99998496793E-03 +7.83008874549E-03 -3.57344562390E-03 +2.81458902023E-02 +8.70412234760E-01
1.44500000000E+09 +1.04311679955E-01 +8.50672220849E-01 +7.81225356290E-03 -4.03824301631E-03 +7.74507563943E-03 -4.61810985251E-03 +5.58462396861E-02 +8.58809946831E-01
1.45000000000E+09 +1.31466381429E-01 +8.33094119883E-01 +8.13175467589E-03 -4.81430697608E-03 +8.01119026448E-03 -5.59149896256E-03 +8.59422440598E-02 +8.42949693307E-01
1.45500000000E+09 +1.62940539681E-01 +8.12411392041E-01 +8.70030399548E-03 -5.96515889669E-03 +8.12234520234E-03 -6.88993708600E-03 +1.17153813707E-01 +8.23252233738E-01
1.46000000000E+09 +1.98218655376E-01 +7.87565296640E-01 +9.40340308636E-03 -7.70340463689E-03 +8.13409971197E-03 -8.26390498778E-03 +1.50352255907E-01 +8.00011209214E-01
1.46500000000E+09 +2.34983631281E-01 +7.58933295699E-01 +9.79154944739E-03 -9.95128197359E-03 +8.34795387441E-03 -9.62754896177E-03 +1.84786694394E-01 +7.71905208373E-01
1.47000000000E+09 +2.71891484251E-01 +7.25071256740E-01 +9.63328659614E-03 -1.29934334632E-02 +8.76988667784E-03 -1.18457470614E-02 +2.19480905967E-01 +7.38114006693E-01
1.47500000000E+09 +3.05010673447E-01 +6.85553632783E-01 +8.16011513100E-03 -1.61757220392E-02 +8.38760701307E-03 -1.52002473865E-02 +2.53875756259E-01 +6.97740324467E-01
1.48000000000E+09 +3.33175015261E-01 +6.40693573864E-01 +6.09823642105E-03 -1.87248837779E-02 +6.67048529370E-03 -1.87479905963E-02 +2.87079172488E-01 +6.48693226017E-01
1.48500000000E+09 +3.56036699594E-01 +5.89361349360E-01 +4.01072942144E-03 -2.11001070930E-02 +3.72953881280E-03 -2.17489129327E-02 +3.17303437303E-01 +5.89996097121E-01
1.49000000000E+09 +3.73465332202E-01 +5.28952074388E-01 +1.61380609126E-03 -2.42258410678E-02 +3.40206833282E-04 -2.42329705337E-02 +3.42357305997E-01 +5.21605123394E-01
1.49500000000E+09 +3.82548561935E-01 +4.58890157538E-01 -2.93261418920E-03 -2.80525570401E-02 -3.93655783918E-03 -2.66488418106E-02 +3.59080169103E-01 +4.43374593866E-01
1.50000000000E+09 +3.83938254850E-01 +3.80455209775E-01 -9.87755029385E-03 -3.00255389299E-02 -9.35520858742E-03 -2.81418622968E-02 +3.62879853300E-01 +3.55662669262E-01
1.50500000000E+09 +3.75292448296E-01 +2.90456467801E-01 -1.73843206574E-02 -3.00335446515E-02 -1.56694254410E-02 -2.92359657565E-02 +3.50559034046E-01 +2.61941562105E-01
1.51000000000E+09 +3.50953167903E-01 +1.95636229498E-01 -2.57422990393E-02 -2.72978224318E-02 -2.43677223779E-02 -2.79528717644E-02 +3.18646880815E-01 +1.64053145300E-01
1.51500000000E+09 +3.09741085521E-01 +9.94312404207E-02 -3.24975456449E-02 -2.23647935337E-02 -3.21854689304E-02 -2.32885866291E-02 +2.63752532963E-01 +6.71416528418E-02
1.52000000000E+09 +2.47925396906E-01 +1.11045232344E-02 -3.87969848794E-02 -1.50566148402E-02 -3.89910512801E-02 -1.56337930165E-02 +1.86398807559E-01 -1.95966638100E-02
1.52500000000E+09 +1.69339725335E-01 -6.17661102634E-02 -4.21790166760E-02 -5.74411426673E-03 -4.24324083928E-02 -6.03941071853E-03 +8.89125466587E-02 -8.99450589242E-02
1.53000000000E+09 +7.42487692228E-02 -1.15585476803E-01 -4.25711777701E-02 +3.68072134123E-03 -4.29073772611E-02 +3.54326663732E-03 -2.13729102596E-02 -1.34092958891E-01
1.53500000000E+09 -2.99957314972E-02 -1.44131448009E-01 -4.11007285495E-02 +1.27441880943E-02 -4.11435532533E-02 +1.27794183252E-02 -1.35897038559E-01 -1.53717912347E-01
1.54000000000E+09 -1.39481603187E-01 -1.49431704738E-01 -3.75421041122E-02 +2.20378657932E-02 -3.73053211134E-02 +2.16693411160E-02 -2.48587287292E-01 -1.47400130013E-01
1.54500000000E+09 -2.45502761899E-01 -1.31434648387E-01 -2.96682569972E-02 +3.02779020845E-02 -2.99315517099E-02 +2.93436340345E-02 -3.50351513606E-01 -1.19473052009E-01
1.55000000000E+09 -3.44586933406E-01 -9.68139977814E-02 -2.06822972755E-02 +3.32394441238E-02 -2.18703003761E-02 +3.24326053199E-02 -4.39463176109E-01 -7.74890621428E-02
1.55500000000E+09 -4.30117693142E-01 -4.81023439979E-02 -1.24649777940E-02 +3.44219598576E-02 -1.43123740821E-02 +3.45654356106E-02 -5.12150508940E-01 -2.40027185480E-02
1.56000000000E+09 -4.99631371856E-01 +6.07656326293E-03 -5.09515864046E-03 +3.26821869962E-02 -6.53858871152E-03 +3.38985256854E-02 -5.68938206287E-01 +3.45932229167E-02
1.56500000000E+09 -5.54591700243E-01 +6.29243420218E-02 -1.67610976540E-04 +3.03475749849E-02 -7.76731868033E-04 +3.21883452724E-02 -6.11843827123E-01 +9.53617887776E-02
1.57000000000E+09 -5.94409089728E-01 +1.19281182877E-01 +4.30185551213E-03 +2.76630603708E-02 +4.77415263992E-03 +2.94233420119E-02 -6.42666402067E-01 +1.55048607346E-01
