# Hz S RI R 50
! CMT, C1220, 16058040, 17.2.0/1
! Date: 15/08/2018 09:03:53
! Data: Format (Calibration Info)
! Freq                      S11: Re/Im (F2)                       S21: Re/Im (F2)                       S12: Re/Im (F2)                       S22: Re/Im (F2)            
1.00000000000E+09 -6.67786078175E-01 +7.04887059108E-01 -5.67321717756E-05 -8.59955527538E-06 -1.23407714102E-05 -2.94804105043E-06 -7.11411378304E-01 +6.70398354633E-01
1.00500000000E+09 -6.61802467791E-01 +7.11927962695E-01 -2.28404707276E-06 +1.94509076071E-05 -6.90103081212E-06 -2.52428398545E-06 -7.07930101594E-01 +6.73887092006E-01
1.01000000000E+09 -6.58335430321E-01 +7.17391975269E-01 +4.29831449495E-05 -3.03187876374E-05 +2.23027416832E-05 +4.89203977021E-06 -7.04065865680E-01 +6.77184998776E-01
1.01500000000E+09 -6.57227651778E-01 +7.20816531536E-01 -9.40888260813E-06 -7.85425163560E-06 +5.05001705932E-05 -2.70360718986E-05 -6.99912141194E-01 +6.81221220806E-01
1.02000000000E+09 -6.57343123864E-01 +7.22492890579E-01 +1.35759327572E-05 -3.91421444239E-05 +8.60335998066E-06 +9.04509038142E-06 -6.95630272187E-01 +6.85372240717E-01
1.02500000000E+09 -6.57623857376E-01 +7.22989879022E-01 -6.34003795959E-06 -7.20755626779E-06 -1.95999508668E-05 +6.44300125981E-05 -6.92231464714E-01 +6.89466430796E-01
1.03000000000E+09 -6.56932805812E-01 +7.23040924986E-01 -5.35387199745E-05 -1.94642557392E-05 -2.30069596635E-05 -1.50694668180E-05 -6.88683414621E-01 +6.93025942416E-01
1.03500000000E+09 -6.54008012946E-01 +7.23757991275E-01 +3.38979344441E-05 -2.15066555828E-05 -1.72376616545E-05 +2.08289690016E-05 -6.84944875160E-01 +6.96285671611E-01
1.04000000000E+09 -6.48397075086E-01 +7.26444293252E-01 +1.38160679606E-06 -7.63509690462E-06 +8.15799414300E-06 +2.96285581137E-05 -6.81117799265E-01 +6.99404976369E-01
1.04500000000E+09 -6.40554458505E-01 +7.31045236185E-01 -4.81168023798E-05 +7.69324597387E-06 -7.96838957497E-05 -1.55306181233E-05 -6.77012665279E-01 +7.02778435103E-01
1.05000000000E+09 -6.30782971931E-01 +7.37404049807E-01 -4.40282592817E-05 +3.84621890473E-06 -1.93457450999E-05 -3.66658123433E-05 -6.72740189132E-01 +7.06527160875E-01
1.05500000000E+09 -6.20865648403E-01 +7.45139466832E-01 -5.72802259030E-06 -1.71631670091E-05 -2.90550525218E-05 +2.79908509577E-05 -6.68403861633E-01 +7.10759267882E-01
1.06000000000E+09 -6.11870341116E-01 +7.52934509009E-01 -2.08389368695E-05 +5.59431604508E-05 -1.78846889988E-05 -5.43384013014E-05 -6.64235959415E-01 +7.14674960234E-01
1.06500000000E+09 -6.04956239511E-01 +7.59767396898E-01 -6.68816758818E-05 +4.18579628590E-05 +1.74048385561E-06 +1.33237780443E-05 -6.60466610614E-01 +7.18385286249E-01
1.07000000000E+09 -6.00536751580E-01 +7.64568639649E-01 -5.67524969635E-05 -1.67811466692E-05 -2.12723617782E-05 +2.01574867045E-05 -6.56641143669E-01 +7.21467574459E-01
1.07500000000E+09 -5.98998362519E-01 +7.67635800352E-01 -4.62918474067E-05 +4.91768773478E-05 -7.12827619315E-05 +1.05257041593E-05 -6.52377702218E-01 +7.24406889285E-01
1.08000000000E+09 -5.99212319204E-01 +7.68952852699E-01 -3.79884546545E-05 +5.45297872889E-05 -2.54974011746E-05 +1.47860830421E-05 -6.47797203034E-01 +7.28151898961E-01
1.08500000000E+09 -5.99816225283E-01 +7.68788716304E-01 -2.78205404455E-05 +7.03582814634E-08 -7.84163768519E-06 +4.03497350711E-05 -6.42890051787E-01 +7.32320484013E-01
1.09000000000E+09 -5.99671202861E-01 +7.68681000770E-01 -4.96444754760E-05 +3.74574634393E-05 -1.68295246791E-05 +4.25323256931E-05 -6.38100361130E-01 +7.36543306868E-01
1.09500000000E+09 -5.98159717528E-01 +7.69005615994E-01 +1.29439549167E-05 +6.12901027931E-05 -4.81022466177E-05 +7.26881455536E-06 -6.33810828323E-01 +7.40442211682E-01
1.10000000000E+09 -5.94085947829E-01 +7.70819377384E-01 -4.70617818058E-05 +3.84501041118E-05 -8.13016879475E-06 +3.84960424062E-05 -6.29874279617E-01 +7.43823000980E-01
1.10500000000E+09 -5.87628929956E-01 +7.74563403504E-01 -3.32613779693E-05 +4.74170058618E-05 -5.11539271472E-05 +1.69807753251E-05 -6.25809900655E-01 +7.46704425431E-01
1.11000000000E+09 -5.79455507765E-01 +7.80225999039E-01 -4.14957542975E-05 +3.14757833488E-05 -1.20628653137E-05 +3.29850501313E-05 -6.21479587713E-01 +7.49574583757E-01
1.11500000000E+09 -5.70399958540E-01 +7.87025072441E-01 -2.10006608039E-05 +5.58135710847E-05 -2.51378304626E-05 +7.63438724753E-05 -6.16699507241E-01 +7.52947183311E-01
1.12000000000E+09 -5.62250514085E-01 +7.93686413657E-01 -2.48336065573E-05 +6.32176185914E-05 -1.04755656275E-05 +1.03999708901E-04 -6.11488524749E-01 +7.57032346217E-01
1.12500000000E+09 -5.55194121982E-01 +7.99455388205E-01 +1.82935673925E-05 +6.12590366253E-05 -5.14056447827E-06 +6.36736346872E-05 -6.06269858401E-01 +7.61279563701E-01
1.13000000000E+09 -5.50179516876E-01 +8.03572057795E-01 -2.48269675767E-05 +1.92784159801E-05 -1.49095727680E-06 +5.67553705597E-05 -6.01469012051E-01 +7.65107791508E-01
1.13500000000E+09 -5.46884477736E-01 +8.05386992057E-01 -4.03285258390E-05 +7.49777126642E-05 +8.85636278601E-06 +9.84221041910E-05 -5.96982813387E-01 +7.68361491731E-01
1.14000000000E+09 -5.44385223555E-01 +8.06054937076E-01 -6.34867560337E-05 +5.20599224333E-05 -3.64390325874E-05 +4.11229028661E-05 -5.92410058968E-01 +7.71228343991E-01
1.14500000000E+09 -5.41889928764E-01 +8.05378218023E-01 -1.10332430719E-05 +6.49691030006E-05 +9.79114178412E-06 +1.90817024514E-05 -5.87622870904E-01 +7.74318118243E-01
1.15000000000E+09 -5.38242330431E-01 +8.05085126244E-01 -1.63517222850E-05 +7.67214624738E-05 +7.25389214534E-06 +7.64068185353E-05 -5.82046172380E-01 +7.78112050495E-01
1.15500000000E+09 -5.32916852278E-01 +8.05784335215E-01 -1.15644119700E-05 +1.04427478294E-04 -1.39646677655E-05 +6.66947886585E-05 -5.76070786807E-01 +7.82216858026E-01
1.16000000000E+09 -5.25209579792E-01 +8.08100885106E-01 -1.93189172338E-05 +7.38644564191E-05 -1.45477415406E-05 +8.44922588687E-05 -5.70404054269E-01 +7.86045139049E-01
1.16500000000E+09 -5.15793405441E-01 +8.12834248081E-01 -3.04411879304E-05 +6.40783452539E-05 -1.19875557166E-04 +1.25679169610E-04 -5.65176633989E-01 +7.89503392790E-01
1.17000000000E+09 -5.05195957687E-01 +8.19188956997E-01 -4.28487782909E-05 +7.37695776197E-05 -4.40830758667E-05 +1.46333276925E-04 -5.59912588553E-01 +7.92294081549E-01
1.17500000000E+09 -4.95133455431E-01 +8.26180823825E-01 -3.56663448822E-05 +8.93852826793E-05 -6.12833715858E-05 +1.53823043273E-04 -5.54483090644E-01 +7.94920652998E-01
1.18000000000E+09 -4.86376496687E-01 +8.33072863301E-01 -6.47193816828E-05 +1.24604153189E-04 -1.88215540159E-05 +1.77515644248E-04 -5.48771446111E-01 +7.97690156285E-01
1.18500000000E+09 -4.79667001624E-01 +8.38636539835E-01 -2.47970192621E-05 +1.74656708087E-04 -3.02799164117E-05 +1.84892948916E-04 -5.42121876577E-01 +8.00884708919E-01
1.19000000000E+09 -4.75496161272E-01 +8.42000603301E-01 +8.16886332677E-06 +1.81742632694E-04 -2.05354451953E-05 +2.19526054508E-04 -5.34811651126E-01 +8.03543809392E-01
1.19500000000E+09 -4.73475223600E-01 +8.43317380735E-01 -3.35281860254E-05 +2.02788531743E-04 -2.20042249924E-05 +1.96067205363E-04 -5.28197427088E-01 +8.04941752275E-01
1.20000000000E+09 -4.72301901354E-01 +8.42334124644E-01 -6.17513867758E-06 +2.71205813348E-04 +8.15987242851E-06 +3.04621478459E-04 -5.23218071016E-01 +8.04886388202E-01
1.20500000000E+09 -4.71244046453E-01 +8.40950080118E-01 +5.30624232650E-05 +4.28422993981E-04 +5.54772369470E-05 +3.93738941217E-04 -5.20831710631E-01 +8.04777710932E-01
1.21000000000E+09 -4.68179863575E-01 +8.39922749230E-01 +2.32407196452E-04 +3.91456626831E-04 +2.44923569924E-04 +4.36460664462E-04 -5.19116646533E-01 +8.06968254391E-01
1.21500000000E+09 -4.62491505492E-01 +8.40247494092E-01 +3.35302236480E-04 +2.27787494721E-04 +2.97401469838E-04 +2.88174689901E-04 -5.15983446253E-01 +8.11235256864E-01
1.22000000000E+09 -4.53737753423E-01 +8.42553854748E-01 +3.68193650546E-04 +1.64763242943E-04 +3.09263720644E-04 +2.34429329458E-04 -5.10529353059E-01 +8.16891902648E-01
1.22500000000E+09 -4.42693639943E-01 +8.47038648136E-01 +2.82642119789E-04 +8.31715618211E-05 +3.60822291047E-04 +7.54381790254E-05 -5.03937863208E-01 +8.22375976398E-01
1.23000000000E+09 -4.30821602640E-01 +8.53370613825E-01 +3.45833070764E-04 +8.16462482535E-05 +3.53009243336E-04 +9.01630914774E-05 -4.97634090648E-01 +8.27078692235E-01
1.23500000000E+09 -4.19144743297E-01 +8.60508360145E-01 +2.96658885562E-04 +8.63748074459E-05 +3.37995735525E-04 +4.49132160642E-05 -4.92064937509E-01 +8.30865533016E-01
1.24000000000E+09 -4.09253141604E-01 +8.67760609993E-01 +3.11707591890E-04 +2.34514063055E-06 +3.02625854877E-04 +4.40461197670E-05 -4.86489299517E-01 +8.34116487191E-01
1.24500000000E+09 -4.02018806260E-01 +8.73813397100E-01 +3.24013510450E-04 -2.49588567118E-05 +3.12408012774E-04 +1.12575903346E-05 -4.80397422476E-01 +8.37336837472E-01
1.25000000000E+09 -3.97386776020E-01 +8.77745222241E-01 +3.28533636740E-04 -1.16402057600E-05 +3.19803051851E-04 -3.77270999062E-06 -4.73095357075E-01 +8.41241171759E-01
1.25500000000E+09 -3.95005847068E-01 +8.79186678538E-01 +2.40280813629E-04 -4.58360199943E-05 +3.02401411468E-04 -9.40026726312E-07 -4.64826080036E-01 +8.45040352343E-01
1.26000000000E+09 -3.93291659051E-01 +8.79079571293E-01 +3.34740321106E-04 -4.77233815726E-05 +3.65621901864E-04 -1.82984160985E-05 -4.56839614141E-01 +8.49315679774E-01
1.26500000000E+09 -3.90620089233E-01 +8.77744369799E-01 +3.37311868862E-04 -3.64186320837E-05 +3.55859537551E-04 -5.70387506772E-05 -4.49308282291E-01 +8.52860164200E-01
1.27000000000E+09 -3.85621037376E-01 +8.76898555474E-01 +3.78129237962E-04 -1.04769136608E-04 +3.53485806304E-04 -8.68668387889E-05 -4.42627366665E-01 +8.56146933575E-01
1.27500000000E+09 -3.77207395291E-01 +8.76934151321E-01 +3.19916163813E-04 -1.24762379578E-04 +3.71822441612E-04 -1.36375702653E-04 -4.36129914930E-01 +8.59007237389E-01
1.28000000000E+09 -3.65021667522E-01 +8.78736013002E-01 +2.84285338689E-04 -1.63029663039E-04 +3.26687108294E-04 -1.83902793873E-04 -4.28973907937E-01 +8.61925666744E-01
1.28500000000E+09 -3.49682922349E-01 +8.82663137692E-01 +2.93338995468E-04 -1.51543450982E-04 +2.91459824498E-04 -1.54253616879E-04 -4.20671719785E-01 +8.65171376590E-01
1.29000000000E+09 -3.33031153341E-01 +8.87952349834E-01 +2.47828699379E-04 -1.35345527222E-04 +2.22297341432E-04 -1.48192790032E-04 -4.11646938801E-01 +8.68560411500E-01
1.29500000000E+09 -3.17045593395E-01 +8.94005292580E-01 +3.04921995120E-04 -1.47487998473E-04 +3.12049917364E-04 -1.72445485244E-04 -4.02483775276E-01 +8.71894166101E-01
1.30000000000E+09 -3.03130725813E-01 +8.99814402403E-01 +2.93426274701E-04 -1.91875960565E-04 +2.54119299258E-04 -2.00726299228E-04 -3.94186882879E-01 +8.75126353539E-01
1.30500000000E+09 -2.92833278247E-01 +9.04402056292E-01 +2.80104853101E-04 -1.93716617064E-04 +2.84130858547E-04 -2.25102569859E-04 -3.86502771329E-01 +8.77854073534E-01
1.31000000000E+09 -2.86519677848E-01 +9.07018880553E-01 +2.65205459218E-04 -2.69564208087E-04 +2.50449910740E-04 -2.37342622363E-04 -3.78696315282E-01 +8.80542759040E-01
1.31500000000E+09 -2.83546366749E-01 +9.08038948367E-01 +2.53612702108E-04 -2.09722449841E-04 +2.52960254890E-04 -2.22655842232E-04 -3.69828443756E-01 +8.83210961500E-01
1.32000000000E+09 -2.81941190130E-01 +9.07804656408E-01 +2.64619192318E-04 -1.71159117137E-04 +2.56697730660E-04 -1.64405335005E-04 -3.59618689453E-01 +8.86046089516E-01
1.32500000000E+09 -2.79632632378E-01 +9.06858212229E-01 +2.99620608381E-04 -1.92629445808E-04 +3.32133118439E-04 -2.09674646799E-04 -3.48773989977E-01 +8.88916784921E-01
1.33000000000E+09 -2.74472003651E-01 +9.05910325499E-01 +4.54891548360E-04 -1.98040625023E-04 +3.76136223277E-04 -2.34835226225E-04 -3.38054489767E-01 +8.91822991602E-01
1.33500000000E+09 -2.65474575658E-01 +9.05631652270E-01 +5.33989027802E-04 -2.81165606009E-04 +4.26038515540E-04 -3.20120433985E-04 -3.27781853934E-01 +8.94460989437E-01
1.34000000000E+09 -2.51932714837E-01 +9.06619370426E-01 +5.23768822480E-04 -4.28817829352E-04 +4.40645278161E-04 -3.54794344931E-04 -3.18277133386E-01 +8.97026840316E-01
1.34500000000E+09 -2.34613445833E-01 +9.08713799476E-01 +4.47835940454E-04 -5.25710781922E-04 +4.39746110740E-04 -4.70693291317E-04 -3.08112519548E-01 +8.99253011151E-01
1.35000000000E+09 -2.15163594070E-01 +9.11687686474E-01 +4.58335424863E-04 -6.28157537101E-04 +3.77947703656E-04 -5.74547081147E-04 -2.96934736758E-01 +9.01418430375E-01
1.35500000000E+09 -1.95317754050E-01 +9.14751772365E-01 +3.85699591228E-04 -6.89354379380E-04 +3.88564022086E-04 -6.80912527460E-04 -2.84309753458E-01 +9.03109324956E-01
1.36000000000E+09 -1.77603747159E-01 +9.17293685983E-01 +3.21956687053E-04 -6.78853476248E-04 +3.17701084221E-04 -6.97262682379E-04 -2.71123163776E-01 +9.04926934193E-01
1.36500000000E+09 -1.62624737458E-01 +9.19200576488E-01 +2.96858347140E-04 -7.72674678160E-04 +3.37229386865E-04 -8.04876685816E-04 -2.57906354302E-01 +9.06732343496E-01
1.37000000000E+09 -1.50993191011E-01 +9.19564696912E-01 +2.37157956618E-04 -9.66780506564E-04 +3.30677955179E-04 -8.50752216241E-04 -2.45232444795E-01 +9.08356239160E-01
1.37500000000E+09 -1.41842531886E-01 +9.19230994431E-01 +7.73259916131E-05 -1.04451896903E-03 +2.06156192827E-04 -1.01594140263E-03 -2.32312175813E-01 +9.09748068987E-01
1.38000000000E+09 -1.33321996501E-01 +9.17442068784E-01 -8.06801356431E-05 -9.57525780949E-04 +4.94956008701E-05 -1.02483968978E-03 -2.18452578596E-01 +9.10802552641E-01
1.38500000000E+09 -1.23678021315E-01 +9.14890391043E-01 -6.35953802110E-05 -9.15038730932E-04 +1.61721193658E-05 -1.01493985293E-03 -2.03062320757E-01 +9.11199967959E-01
1.39000000000E+09 -1.11357785228E-01 +9.12085713214E-01 -4.21567461013E-05 -9.32618162128E-04 -1.27152678381E-04 -1.08414814600E-03 -1.86493882236E-01 +9.11156336157E-01
1.39500000000E+09 -9.50898637181E-02 +9.09216162758E-01 -9.90779723912E-05 -9.65261575640E-04 -1.48095216428E-04 -1.06621300315E-03 -1.68755270147E-01 +9.10506470041E-01
1.40000000000E+09 -7.47134496523E-02 +9.06212259796E-01 -7.56874810663E-05 -1.09276719287E-03 -1.22548801402E-04 -1.14001282385E-03 -1.50949570467E-01 +9.10046101001E-01
1.40500000000E+09 -5.16358379105E-02 +9.03406469614E-01 -1.55213196649E-04 -1.28563001839E-03 -2.53480080277E-04 -1.21806295536E-03 -1.33093026930E-01 +9.08880081930E-01
1.41000000000E+09 -2.68262077120E-02 +9.00157424738E-01 -4.32866401831E-04 -1.26316936692E-03 -4.48475481608E-04 -1.22856541434E-03 -1.14514176231E-01 +9.07110175257E-01
1.41500000000E+09 -2.40610492431E-03 +8.96253622118E-01 -5.74489311807E-04 -1.17467942430E-03 -5.27765701163E-04 -1.20246036189E-03 -9.42884196242E-02 +9.04318048685E-01
1.42000000000E+09 +2.06568083040E-02 +8.91043081808E-01 -5.15453150115E-04 -1.24014235280E-03 -5.70709285142E-04 -1.32440090900E-03 -7.18442321078E-02 +8.99648435060E-01
1.42500000000E+09 +4.10230578805E-02 +8.83995413334E-01 -6.45770899932E-04 -1.28210642667E-03 -7.83253041464E-04 -1.38796833614E-03 -4.77927491110E-02 +8.94127563317E-01
1.43000000000E+09 +5.92878454110E-02 +8.75133583757E-01 -7.39175972153E-04 -1.37647585176E-03 -9.57457683079E-04 -1.39133412772E-03 -2.25339334423E-02 +8.87532540186E-01
1.43500000000E+09 +7.68276728037E-02 +8.64232199681E-01 -8.22193691223E-04 -1.54003701543E-03 -1.01659093182E-03 -1.44178111122E-03 +3.31453117169E-03 +8.79131461924E-01
1.44000000000E+09 +9.56200923817E-02 +8.51560859870E-01 -1.13814805137E-03 -1.71394679341E-03 -1.23273714820E-03 -1.63981668737E-03 +2.93148920950E-02 +8.69692372237E-01
1.44500000000E+09 +1.17861420489E-01 +8.35828504224E-01 -1.53088354650E-03 -1.60824379376E-03 -1.65540866249E-03 -1.59387260291E-03 +5.68482105198E-02 +8.57973084897E-01
1.45000000000E+09 +1.43702592980E-01 +8.17241105547E-01 -1.72159989925E-03 -1.57003853458E-03 -1.84790284270E-03 -1.52080659119E-03 +8.66670939832E-02 +8.42394224992E-01
1.45500000000E+09 +1.73377832905E-01 +7.95839984890E-01 -2.03577512451E-03 -1.56434057141E-03 -2.15509999279E-03 -1.40176039256E-03 +1.17745405984E-01 +8.22816959874E-01
1.46000000000E+09 +2.06649014473E-01 +7.71809223693E-01 -2.28378211717E-03 -1.47748157262E-03 -2.33521562384E-03 -1.21410269856E-03 +1.50808570668E-01 +7.99654748424E-01
1.46500000000E+09 +2.41613450806E-01 +7.43903805340E-01 -2.44453742038E-03 -1.45838848913E-03 -2.33014216346E-03 -1.22911986556E-03 +1.85154227443E-01 +7.71807127680E-01
1.47000000000E+09 +2.75594997100E-01 +7.12429001434E-01 -2.84674847462E-03 -1.70232629009E-03 -2.61175517078E-03 -1.53414490318E-03 +2.19782651294E-01 +7.38177905305E-01
1.47500000000E+09 +3.06581388172E-01 +6.76625501827E-01 -3.65094209935E-03 -1.62040661125E-03 -3.45800655485E-03 -1.70627013962E-03 +2.54202118570E-01 +6.97788080898E-01
1.48000000000E+09 +3.33936929241E-01 +6.35781607364E-01 -4.22811946990E-03 -1.45793282706E-03 -4.20536469388E-03 -1.59647313347E-03 +2.87159839366E-01 +6.48976166624E-01
1.48500000000E+09 +3.56161360434E-01 +5.87665527587E-01 -5.35944446933E-03 -1.37687423560E-03 -5.59761105845E-03 -1.30194063184E-03 +3.17305923576E-01 +5.90510340283E-01
1.49000000000E+09 +3.73444077510E-01 +5.30775354808E-01 -6.82555461822E-03 -3.84667570268E-04 -6.87877833298E-03 -5.67769332834E-05 +3.42389418137E-01 +5.22085485985E-01
1.49500000000E+09 +3.84056827809E-01 +4.62720738296E-01 -7.75477903497E-03 +1.95195801611E-03 -7.31493156637E-03 +2.19556214430E-03 +3.58387442606E-01 +4.43879542667E-01
1.50000000000E+09 +3.85421677429E-01 +3.83438109489E-01 -6.82951691802E-03 +3.41209316800E-03 -6.39629903011E-03 +3.26302791250E-03 +3.61884900029E-01 +3.57067461888E-01
1.50500000000E+09 +3.76493196296E-01 +2.96420874868E-01 -7.42416051725E-03 +4.46761553461E-03 -7.21048886291E-03 +4.11872519190E-03 +3.49454235526E-01 +2.64077404875E-01
1.51000000000E+09 +3.55018763207E-01 +2.02386548048E-01 -7.26341719846E-03 +6.73028461658E-03 -7.39704980070E-03 +6.46178338178E-03 +3.17376303698E-01 +1.67490396051E-01
1.51500000000E+09 +3.16743655509E-01 +1.07840737016E-01 -6.18879292770E-03 +8.99455167326E-03 -6.41092684796E-03 +8.91218107240E-03 +2.63418551387E-01 +7.20953300029E-02
1.52000000000E+09 +2.60433035104E-01 +2.01011330783E-02 -4.55490900488E-03 +1.11687015658E-02 -4.66903588693E-03 +1.12032809836E-02 +1.87450834576E-01 -1.36337420388E-02
1.52500000000E+09 +1.85726770052E-01 -5.49722603526E-02 -1.15508116732E-03 +1.34176648930E-02 -1.19917985293E-03 +1.35308892364E-02 +9.22254996807E-02 -8.34577907632E-02
1.53000000000E+09 +9.53792767580E-02 -1.10036806503E-01 +2.77750858073E-03 +1.28566539037E-02 +2.78618693381E-03 +1.28993583211E-02 -1.59530438240E-02 -1.28834141201E-01
1.53500000000E+09 -8.31997286163E-03 -1.42000169630E-01 +5.37590759511E-03 +1.17217668270E-02 +5.39124569127E-03 +1.16929651795E-02 -1.29402063437E-01 -1.49712403420E-01
1.54000000000E+09 -1.16325471539E-01 -1.47649407652E-01 +8.40579011415E-03 +1.01827871188E-02 +8.34082201368E-03 +1.00663399853E-02 -2.41116124753E-01 -1.44790550388E-01
1.54500000000E+09 -2.23501738853E-01 -1.31019827734E-01 +9.95387478838E-03 +6.81030027775E-03 +9.73457202707E-03 +6.90616405385E-03 -3.42356243993E-01 -1.18894263679E-01
1.55000000000E+09 -3.22778297286E-01 -9.56520414523E-02 +1.00434074806E-02 +4.56748058022E-03 +9.75355950202E-03 +4.87897564911E-03 -4.32262304904E-01 -7.89284708097E-02
1.55500000000E+09 -4.08021194078E-01 -4.80928947241E-02 +1.00485128832E-02 +2.59916140509E-03 +1.00995894182E-02 +3.05407239458E-03 -5.06323526239E-01 -2.65575945077E-02
1.56000000000E+09 -4.79036020840E-01 +4.12811635028E-03 +9.94650866765E-03 +5.22896813003E-04 +1.03009564861E-02 +9.73597159341E-04 -5.64413193622E-01 +3.16348121289E-02
1.56500000000E+09 -5.36154880807E-01 +5.91002891537E-02 +9.09561344109E-03 -1.06226506706E-03 +9.61859695524E-03 -9.07021032304E-04 -6.08335116369E-01 +9.23925255350E-02
1.57000000000E+09 -5.78936145754E-01 +1.14973297593E-01 +8.16844953813E-03 -2.23859432149E-03 +8.67246354766E-03 -2.37811903969E-03 -6.40085372087E-01 +1.52177979459E-01
