# Hz S RI R 50
! CMT, C1220, 16058040, 17.2.0/1
! Date: 15/08/2018 10:31:29
! Data: Format (Calibration Info)
! Freq                      S11: Re/Im (F2)                       S21: Re/Im (F2)                       S12: Re/Im (F2)                       S22: Re/Im (F2)            
2.50000000000E+09 +5.78999218533E-01 +6.66846839765E-01 -3.34693477772E-04 +7.76002099247E-05 -3.96214160617E-04 -1.55657755730E-07 +5.65378395259E-01 +7.21883135621E-01
2.50500000000E+09 +5.86507494343E-01 +6.58796873467E-01 -2.71086836912E-04 +5.01528863964E-05 -3.18551642878E-04 +8.28849378371E-05 +5.70980059202E-01 +7.16423289438E-01
2.51000000000E+09 +5.94160651901E-01 +6.50481617692E-01 -2.83073398021E-04 +7.46882921136E-05 -2.62182547548E-04 +7.45953357523E-05 +5.76575035494E-01 +7.11251018535E-01
2.51500000000E+09 +6.01660415565E-01 +6.42464161147E-01 -3.34925737872E-04 +2.37701451299E-05 -3.32544886288E-04 +1.68102920244E-05 +5.81929089129E-01 +7.05910364385E-01
2.52000000000E+09 +6.08498589556E-01 +6.34499871061E-01 -3.76824902036E-04 +1.59197429740E-04 -3.38308709044E-04 +1.35296820947E-04 +5.87110170254E-01 +7.00036078457E-01
2.52500000000E+09 +6.14494643744E-01 +6.27073934616E-01 -2.79749411539E-04 +1.53371126460E-04 -2.48205153069E-04 +1.43531232467E-04 +5.92839762489E-01 +6.93644742112E-01
2.53000000000E+09 +6.20062233215E-01 +6.19780930302E-01 -2.32947713371E-04 +1.56388738098E-04 -2.34322095328E-04 +1.62062115141E-04 +5.98968904622E-01 +6.86644568888E-01
2.53500000000E+09 +6.24895740054E-01 +6.12595061358E-01 -2.79149736880E-04 +1.63901595709E-04 -2.57752826325E-04 +1.87178050330E-04 +6.04865192776E-01 +6.80033629924E-01
2.54000000000E+09 +6.29481892095E-01 +6.05378792702E-01 -2.10698559941E-04 +1.96729219900E-04 -2.44766868432E-04 +1.64140106679E-04 +6.10886564220E-01 +6.73436372973E-01
2.54500000000E+09 +6.34215961388E-01 +5.98081343565E-01 -2.64057856100E-04 +2.16483576631E-04 -2.88801196832E-04 +2.03653392737E-04 +6.16739037934E-01 +6.67172255766E-01
2.55000000000E+09 +6.39400116756E-01 +5.90525446797E-01 -2.14140616048E-04 +2.69468379593E-04 -2.71010518839E-04 +2.27073940714E-04 +6.22096551817E-01 +6.60843711576E-01
2.55500000000E+09 +6.44958859780E-01 +5.82320672024E-01 -1.92474358474E-04 +3.63257792745E-04 -2.47473383113E-04 +3.80908604414E-04 +6.27119587205E-01 +6.54366572756E-01
2.56000000000E+09 +6.51463108759E-01 +5.74382586932E-01 -1.35024901200E-04 +3.22451409040E-04 -1.62363943814E-04 +3.95766445137E-04 +6.32170404310E-01 +6.47065160466E-01
2.56500000000E+09 +6.58491454718E-01 +5.65964065500E-01 -1.19571800404E-04 +2.98825233268E-04 -8.54552415845E-05 +3.36090496071E-04 +6.37331616387E-01 +6.39663220435E-01
2.57000000000E+09 +6.65497219492E-01 +5.57163498623E-01 -1.52888264059E-04 +3.07323494219E-04 -7.62700611521E-05 +3.18792603179E-04 +6.42551296908E-01 +6.31991011955E-01
2.57500000000E+09 +6.72220403644E-01 +5.48515313228E-01 -1.06886831051E-04 +3.63600418743E-04 -8.77214888088E-05 +3.77065137406E-04 +6.48150089977E-01 +6.24283718055E-01
2.58000000000E+09 +6.77871694645E-01 +5.40380662115E-01 -6.43046876861E-05 +4.15154718213E-04 -7.23491722722E-05 +3.78279013037E-04 +6.53144448249E-01 +6.16618670438E-01
2.58500000000E+09 +6.83230890646E-01 +5.32424142549E-01 -4.01194179505E-06 +4.44834004512E-04 -4.80913244894E-05 +3.80726060031E-04 +6.57821761945E-01 +6.09105324127E-01
2.59000000000E+09 +6.88037481482E-01 +5.24645977411E-01 +3.27936054799E-05 +4.58831924881E-04 -1.62640705016E-05 +4.34752083249E-04 +6.62557331826E-01 +6.01775591020E-01
2.59500000000E+09 +6.92414384482E-01 +5.16355963182E-01 +9.99162286625E-05 +4.37690520477E-04 +8.54066612821E-05 +4.98941910709E-04 +6.67597211355E-01 +5.93894908557E-01
2.60000000000E+09 +6.96369640033E-01 +5.07371522601E-01 +1.98088697881E-04 +4.11035881836E-04 +1.91833800278E-04 +4.09616857477E-04 +6.72697527042E-01 +5.85701325811E-01
2.60500000000E+09 +7.00452352414E-01 +4.97325974085E-01 +2.08886184399E-04 +4.04361208251E-04 +1.54900785579E-04 +3.79102359722E-04 +6.78083525440E-01 +5.77026670719E-01
2.61000000000E+09 +7.04713069419E-01 +4.86515436492E-01 +3.42041256349E-04 +4.55307819763E-04 +3.28811992814E-04 +4.74889240383E-04 +6.83253912020E-01 +5.68204103862E-01
2.61500000000E+09 +7.09673086323E-01 +4.74477344993E-01 +4.61627533497E-04 +2.58457107407E-04 +4.84442860656E-04 +2.64355326655E-04 +6.88112430855E-01 +5.59605391560E-01
2.62000000000E+09 +7.14496368461E-01 +4.61083081102E-01 +3.46046957916E-04 +4.53327695403E-05 +3.65355989560E-04 +5.44175262642E-05 +6.92924497100E-01 +5.50704374856E-01
2.62500000000E+09 +7.19120887542E-01 +4.47080604304E-01 +1.86577056595E-04 +1.62545691922E-04 +2.26750792648E-04 +1.22584795610E-04 +6.97582767942E-01 +5.41911648057E-01
2.63000000000E+09 +7.23604153209E-01 +4.33362323667E-01 +2.34628455616E-04 +2.18891346470E-04 +2.75869840189E-04 +2.12586458760E-04 +7.01994527503E-01 +5.33014712199E-01
2.63500000000E+09 +7.27591913709E-01 +4.19768487859E-01 +3.37571432706E-04 +2.57008079317E-04 +2.80782427589E-04 +1.71970094033E-04 +7.06646778240E-01 +5.23904073924E-01
2.64000000000E+09 +7.31201981571E-01 +4.06932462997E-01 +4.96248646738E-04 +2.42046438018E-04 +4.05969148948E-04 +2.24122686286E-04 +7.11205268725E-01 +5.14417597072E-01
2.64500000000E+09 +7.34511151306E-01 +3.95107551149E-01 +5.70226937666E-04 +1.15771264930E-04 +4.86704057798E-04 +1.68839357721E-04 +7.15822906958E-01 +5.04647526336E-01
2.65000000000E+09 +7.37164562917E-01 +3.83993715412E-01 +5.86469612127E-04 -4.78712171384E-05 +5.43405704534E-04 -9.13944858651E-06 +7.19926738215E-01 +4.94804000865E-01
2.65500000000E+09 +7.40139103503E-01 +3.72940118287E-01 +4.60375740905E-04 -1.61878178561E-04 +5.21894364490E-04 -1.69397351206E-04 +7.23794358856E-01 +4.84577539517E-01
2.66000000000E+09 +7.43036874425E-01 +3.61472358588E-01 +3.93300736872E-04 -1.58274487086E-04 +4.70560808615E-04 -1.36074332256E-04 +7.27964698437E-01 +4.73510828700E-01
2.66500000000E+09 +7.45729729501E-01 +3.49775147325E-01 +4.11204566268E-04 -2.30458527862E-04 +4.62294278262E-04 -2.36810068480E-04 +7.32160176867E-01 +4.62770350671E-01
2.67000000000E+09 +7.48620639859E-01 +3.36930425961E-01 +3.65980818802E-04 -3.04408636976E-04 +3.62085400450E-04 -3.12287825297E-04 +7.36635937654E-01 +4.52097013796E-01
2.67500000000E+09 +7.51139905123E-01 +3.22968896810E-01 +2.20924754296E-04 -1.96838424669E-04 +1.93402441315E-04 -2.57018955993E-04 +7.40885263225E-01 +4.41027094132E-01
2.68000000000E+09 +7.53194628164E-01 +3.08305285655E-01 +3.03214806200E-04 -1.26083964091E-04 +2.91367824689E-04 -1.17009262521E-04 +7.45019002740E-01 +4.30151645795E-01
2.68500000000E+09 +7.54834531523E-01 +2.93505776970E-01 +3.85159005196E-04 -3.56807707622E-04 +3.26376472741E-04 -3.21488106873E-04 +7.48366336787E-01 +4.18527028545E-01
2.69000000000E+09 +7.56278593305E-01 +2.78838676673E-01 +1.89155259488E-04 -4.15988459703E-04 +1.65834245651E-04 -4.37833921176E-04 +7.51048085323E-01 +4.06494940635E-01
2.69500000000E+09 +7.57381882116E-01 +2.64506175197E-01 +1.94078811638E-04 -3.47649164506E-04 +1.81267619143E-04 -3.46344076124E-04 +7.53737033554E-01 +3.94028898681E-01
2.70000000000E+09 +7.58573946048E-01 +2.50664523272E-01 +5.79575887331E-05 -4.49752187888E-04 +8.76796432950E-05 -4.95101872710E-04 +7.56600973904E-01 +3.81097909435E-01
2.70500000000E+09 +7.59608337273E-01 +2.37141410470E-01 -6.47032842250E-05 -3.09139754383E-04 -2.14690856477E-05 -3.20903202923E-04 +7.59809427820E-01 +3.67787403575E-01
2.71000000000E+09 +7.60440047787E-01 +2.23625409055E-01 -7.07377929869E-05 -2.56628652947E-04 -4.96699024713E-05 -2.32485852537E-04 +7.62607889535E-01 +3.54657238812E-01
2.71500000000E+09 +7.61560116323E-01 +2.09935872847E-01 -2.71895714510E-06 -2.22272266789E-04 +2.90290230698E-05 -2.31695952790E-04 +7.64941118497E-01 +3.41868802292E-01
2.72000000000E+09 +7.62513962782E-01 +1.95252687294E-01 -7.64991285144E-05 -3.42385329330E-04 -6.58470408131E-05 -3.90208784969E-04 +7.66356620353E-01 +3.29274602148E-01
2.72500000000E+09 +7.62765766597E-01 +1.79548578173E-01 -1.89228095167E-04 -1.90085659201E-04 -2.12458418319E-04 -1.87694784246E-04 +7.67533991075E-01 +3.16251725401E-01
2.73000000000E+09 +7.62110950627E-01 +1.62831172111E-01 -1.27644776445E-04 -2.09132144463E-04 -1.44025303703E-04 -1.33619031303E-04 +7.68484633853E-01 +3.02513738491E-01
2.73500000000E+09 +7.60372638246E-01 +1.44876532450E-01 -3.12872083426E-04 -8.89243495451E-05 -1.89972361983E-04 -6.06333927275E-05 +7.69637241234E-01 +2.88454518022E-01
2.74000000000E+09 +7.57616490176E-01 +1.27194779986E-01 -7.17793880266E-05 +1.08522561966E-04 -9.08432122020E-05 +8.68541310590E-05 +7.71481062603E-01 +2.73658874744E-01
2.74500000000E+09 +7.53803092178E-01 +1.09137536711E-01 -1.95853300303E-05 +2.88453349910E-05 +2.62309313458E-05 +6.88666621056E-05 +7.72745996777E-01 +2.58568078411E-01
2.75000000000E+09 +7.49469517262E-01 +9.13851123781E-02 +1.22027560325E-04 +5.99398905035E-05 +7.26229874383E-05 +1.11479371719E-04 +7.74003902800E-01 +2.43788113388E-01
2.75500000000E+09 +7.44575674489E-01 +7.39313927828E-02 +1.17565077388E-04 -1.27482806133E-05 +1.17513003989E-04 +3.70587575151E-05 +7.74161535976E-01 +2.29104199066E-01
2.76000000000E+09 +7.40157577569E-01 +5.66115330246E-02 +6.68187901473E-05 +1.31740962170E-04 +7.95228563395E-05 +1.23657933107E-04 +7.74665149820E-01 +2.13850107348E-01
2.76500000000E+09 +7.35318921483E-01 +3.84631726750E-02 +3.12762680172E-04 +9.06929121166E-05 +3.41127178862E-04 +1.03542547627E-04 +7.73960172692E-01 +1.96779455207E-01
2.77000000000E+09 +7.29901787700E-01 +1.99749649593E-02 +3.68400633728E-04 -1.03992931470E-04 +3.17918589545E-04 -1.15361030233E-04 +7.72863286572E-01 +1.79719815700E-01
2.77500000000E+09 +7.24877275056E-01 +8.16101130102E-04 +3.67139679149E-04 -7.78935255740E-06 +3.53344915545E-04 +2.64139109221E-05 +7.71693636597E-01 +1.61485941209E-01
2.78000000000E+09 +7.19417450028E-01 -1.96584472248E-02 +5.99922169528E-04 -1.79118162821E-04 +6.48999447229E-04 -2.26217843677E-04 +7.69994429899E-01 +1.43481397517E-01
2.78500000000E+09 +7.12899032301E-01 -4.10169519521E-02 +6.71954847592E-04 -3.61117403827E-04 +6.31762935104E-04 -4.44977637149E-04 +7.67608364158E-01 +1.25275906206E-01
2.79000000000E+09 +7.05904242805E-01 -6.28593533954E-02 +5.88314982295E-04 -7.91244168337E-04 +4.86522082814E-04 -7.75127241822E-04 +7.64245866129E-01 +1.07829875854E-01
2.79500000000E+09 +6.97605537589E-01 -8.47273551216E-02 +2.78091766145E-04 -8.42107359733E-04 +2.30670659935E-04 -6.84356071995E-04 +7.60030843193E-01 +8.97030398910E-02
2.80000000000E+09 +6.88395210394E-01 -1.05667462673E-01 +2.20897139814E-04 -9.11908518597E-04 +2.09904049502E-04 -8.18642515944E-04 +7.55044203268E-01 +7.15249525719E-02
2.80500000000E+09 +6.78501957539E-01 -1.25358407788E-01 +1.32541425877E-04 -8.61220981245E-04 +9.20224478065E-05 -8.74283370892E-04 +7.49511364554E-01 +5.21340465772E-02
2.81000000000E+09 +6.68053610181E-01 -1.43874601882E-01 +6.81809030502E-05 -1.00175469387E-03 +1.05004451197E-04 -1.00497174986E-03 +7.42670325639E-01 +3.27855207545E-02
2.81500000000E+09 +6.57047031580E-01 -1.61149400009E-01 -1.30308477671E-04 -1.15520315506E-03 -1.38218569641E-04 -1.16514617028E-03 +7.35677181518E-01 +1.36591018103E-02
2.82000000000E+09 +6.45424845400E-01 -1.78046481677E-01 -4.12134490995E-04 -1.03893156348E-03 -3.86103556114E-04 -1.03114215063E-03 +7.28258168535E-01 -5.88705139615E-03
2.82500000000E+09 +6.32205307576E-01 -1.95006242035E-01 -3.14813042665E-04 -1.07682553618E-03 -3.11229774437E-04 -1.04832690447E-03 +7.20267213175E-01 -2.53362645446E-02
2.83000000000E+09 +6.17315435527E-01 -2.12215974021E-01 -6.33064879037E-04 -1.32748499881E-03 -5.97096613941E-04 -1.31445868991E-03 +7.11462568884E-01 -4.53215246496E-02
2.83500000000E+09 +6.01268318376E-01 -2.29734871199E-01 -1.05849693467E-03 -1.35607360580E-03 -9.84320301367E-04 -1.30274301211E-03 +7.01320161375E-01 -6.53973167541E-02
2.84000000000E+09 +5.83018501457E-01 -2.48469017528E-01 -1.54126266836E-03 -1.02620776142E-03 -1.47547500097E-03 -1.08764426787E-03 +6.90662236565E-01 -8.63383750458E-02
2.84500000000E+09 +5.62251530172E-01 -2.67896900957E-01 -1.63944955346E-03 -6.16368518371E-04 -1.63611843463E-03 -6.33167324311E-04 +6.78181149391E-01 -1.07080660567E-01
2.85000000000E+09 +5.39962755766E-01 -2.86556288311E-01 -1.56656130153E-03 -4.18249744278E-04 -1.55993351080E-03 -3.93923402221E-04 +6.64692013628E-01 -1.27771678973E-01
2.85500000000E+09 +5.16415371914E-01 -3.05183849367E-01 -1.71421227521E-03 -2.16120676215E-04 -1.72123242046E-03 -2.07088394077E-04 +6.50162944098E-01 -1.48109878449E-01
2.86000000000E+09 +4.92475781723E-01 -3.22979901739E-01 -1.56455709798E-03 -5.87912637521E-05 -1.55586805055E-03 -6.74945901642E-05 +6.34866489520E-01 -1.69238621982E-01
2.86500000000E+09 +4.67677558716E-01 -3.39628441992E-01 -1.68160733822E-03 +9.01952310343E-05 -1.73455589626E-03 +3.72214766213E-05 +6.17083886565E-01 -1.90794930009E-01
2.87000000000E+09 +4.43466329864E-01 -3.54607797281E-01 -1.79082548048E-03 +1.23517626864E-04 -1.83666543944E-03 +1.37072612859E-04 +5.97175375034E-01 -2.11363771762E-01
2.87500000000E+09 +4.19033235220E-01 -3.69343089884E-01 -2.26723507055E-03 +2.37718864043E-04 -2.22557626722E-03 +2.99359727637E-04 +5.76510712780E-01 -2.30596284337E-01
2.88000000000E+09 +3.93225809671E-01 -3.82109698982E-01 -2.53598990093E-03 +9.33265891084E-04 -2.42228688997E-03 +9.75769831897E-04 +5.54710778680E-01 -2.49923164924E-01
2.88500000000E+09 +3.67535292570E-01 -3.93405658847E-01 -2.38317158501E-03 +1.89512480915E-03 -2.16473738749E-03 +1.87770791650E-03 +5.31314343606E-01 -2.68192294397E-01
2.89000000000E+09 +3.40279389144E-01 -4.04817487675E-01 -1.48955918355E-03 +2.46226653114E-03 -1.46213513078E-03 +2.24187616612E-03 +5.05720001004E-01 -2.86153514970E-01
2.89500000000E+09 +3.09351388935E-01 -4.14609365403E-01 -8.79484803715E-04 +2.02954634689E-03 -9.47182872538E-04 +2.01753222196E-03 +4.78552620060E-01 -3.02862021494E-01
2.90000000000E+09 +2.77392388725E-01 -4.21927512924E-01 -9.80096665779E-04 +2.14500410404E-03 -1.13090759790E-03 +2.09414155262E-03 +4.50110056234E-01 -3.18921523302E-01
2.90500000000E+09 +2.43736316297E-01 -4.27749623702E-01 -7.80864969897E-04 +2.34311118819E-03 -7.27007724076E-04 +2.43504731144E-03 +4.20032351852E-01 -3.34446292011E-01
2.91000000000E+09 +2.09119052950E-01 -4.32183430830E-01 -6.15246014377E-04 +2.50775938281E-03 -5.13948496135E-04 +2.53990275679E-03 +3.88387658109E-01 -3.46907281253E-01
2.91500000000E+09 +1.73128545971E-01 -4.34773127075E-01 -1.15865215023E-04 +2.84094777698E-03 -3.49372289976E-05 +2.64950661518E-03 +3.57635919717E-01 -3.57872293901E-01
2.92000000000E+09 +1.37206742745E-01 -4.34979195438E-01 +1.47338478951E-04 +2.75926386120E-03 +1.26506801111E-04 +2.53384049399E-03 +3.24797113550E-01 -3.68178902673E-01
2.92500000000E+09 +1.01665710057E-01 -4.33897944820E-01 +4.21360338323E-04 +3.31043743091E-03 +2.62185596723E-04 +3.16148967307E-03 +2.89679475542E-01 -3.76092432210E-01
2.93000000000E+09 +6.57915309999E-02 -4.30421553684E-01 +1.57970021532E-03 +3.02851546451E-03 +1.38106984333E-03 +3.07433425573E-03 +2.52472896431E-01 -3.82201873897E-01
2.93500000000E+09 +3.16592796086E-02 -4.24737854119E-01 +1.73243771003E-03 +2.84171066491E-03 +1.62792041025E-03 +2.89382953356E-03 +2.14512388236E-01 -3.85331264873E-01
2.94000000000E+09 -2.63007242103E-03 -4.18046678829E-01 +2.48776409872E-03 +2.62317739144E-03 +2.43495712354E-03 +2.62620808683E-03 +1.76214002640E-01 -3.86926958159E-01
2.94500000000E+09 -3.78642291681E-02 -4.08188450019E-01 +2.65841689925E-03 +2.12980554315E-03 +2.58085710306E-03 +2.19064649693E-03 +1.37841394000E-01 -3.87304225724E-01
2.95000000000E+09 -7.23595560381E-02 -3.94586729129E-01 +3.22224064222E-03 +1.74873923555E-03 +3.12312928434E-03 +1.86656702313E-03 +9.79967741418E-02 -3.85299676934E-01
2.95500000000E+09 -1.05837263597E-01 -3.78121694068E-01 +3.58552404277E-03 +9.30612198493E-04 +3.59777083531E-03 +1.12028121118E-03 +5.74912863994E-02 -3.78858288771E-01
2.96000000000E+09 -1.38300974269E-01 -3.59070996859E-01 +3.13256218815E-03 +4.92979047925E-04 +3.23900869572E-03 +5.56386145031E-04 +1.84645900552E-02 -3.68777229587E-01
2.96500000000E+09 -1.70079219452E-01 -3.37512398342E-01 +3.42599187889E-03 +5.49693732822E-04 +3.57212872714E-03 +5.05667570740E-04 -2.12885166384E-02 -3.57221426849E-01
2.97000000000E+09 -2.00344343169E-01 -3.13082544413E-01 +4.10939928816E-03 -1.27303368640E-04 +4.15325503169E-03 -2.07829477317E-04 -6.02083259524E-02 -3.42078878428E-01
2.97500000000E+09 -2.29323196876E-01 -2.87508135599E-01 +4.26011606160E-03 -1.32602245496E-03 +4.12972508554E-03 -1.33471601063E-03 -9.94958111529E-02 -3.25706278535E-01
2.98000000000E+09 -2.57356812892E-01 -2.59290125315E-01 +3.47456502029E-03 -2.28769378973E-03 +3.46833249445E-03 -2.11785044260E-03 -1.37393887009E-01 -3.04527436748E-01
2.98500000000E+09 -2.82223871276E-01 -2.29110717163E-01 +2.61320951100E-03 -2.44046574920E-03 +2.75069590100E-03 -2.32860741259E-03 -1.72557882179E-01 -2.81264733339E-01
2.99000000000E+09 -3.04909602749E-01 -1.99498893894E-01 +2.50976286719E-03 -2.66257953293E-03 +2.71100272494E-03 -2.69951168818E-03 -2.05660988226E-01 -2.55529425410E-01
2.99500000000E+09 -3.27969588148E-01 -1.69144028006E-01 +2.27162431950E-03 -3.10180628643E-03 +2.30625158182E-03 -3.32313770600E-03 -2.37633534834E-01 -2.27651078063E-01
3.00000000000E+09 -3.48709623329E-01 -1.35652352236E-01 +1.63135620917E-03 -3.61128480362E-03 +1.42981702396E-03 -3.75260509112E-03 -2.68048181668E-01 -1.96485618628E-01
3.00500000000E+09 -3.65897208791E-01 -1.02442998946E-01 +6.69893266977E-04 -3.74996918540E-03 +4.71983730937E-04 -3.64732522294E-03 -2.95755322914E-01 -1.64159596451E-01
3.01000000000E+09 -3.82297713766E-01 -6.88468599816E-02 -1.61066624331E-05 -3.34846685025E-03 -4.83517836390E-05 -3.23311628923E-03 -3.21938672216E-01 -1.29568930763E-01
3.01500000000E+09 -3.94856493315E-01 -3.44484332499E-02 +8.13886701151E-06 -3.28782039136E-03 +3.58693977046E-05 -3.18537737744E-03 -3.44620351114E-01 -9.43757714771E-02
3.02000000000E+09 -4.05682362167E-01 -6.97401851970E-04 -6.09763770428E-04 -3.32886933800E-03 -6.20755097393E-04 -3.39130892866E-03 -3.65059727254E-01 -5.83990092792E-02
3.02500000000E+09 -4.13361933621E-01 +3.37287972185E-02 -1.04329211235E-03 -3.44065308854E-03 -1.13024479391E-03 -3.37116099266E-03 -3.82680396038E-01 -2.00769922881E-02
3.03000000000E+09 -4.17967316864E-01 +6.83069004919E-02 -2.10089645059E-03 -2.86811062704E-03 -2.05177505246E-03 -2.85708150784E-03 -3.96130344983E-01 +1.84377684862E-02
3.03500000000E+09 -4.18254059249E-01 +1.01588630054E-01 -2.06686761203E-03 -1.99800173950E-03 -2.00308525671E-03 -2.01652497144E-03 -4.07466799284E-01 +5.70310994163E-02
3.04000000000E+09 -4.17802306429E-01 +1.32744265383E-01 -1.93994637972E-03 -1.85501037919E-03 -1.95156335294E-03 -1.97866784798E-03 -4.16946379134E-01 +9.60109432558E-02
3.04500000000E+09 -4.16182769134E-01 +1.65627710822E-01 -2.09017827775E-03 -1.74934800373E-03 -2.19657357518E-03 -1.83692516468E-03 -4.23729905866E-01 +1.36064406598E-01
3.05000000000E+09 -4.10757866861E-01 +1.98864190545E-01 -2.32593569397E-03 -1.58848448663E-03 -2.47572029283E-03 -1.53103790614E-03 -4.27069800490E-01 +1.75672529412E-01
3.05500000000E+09 -4.03188469912E-01 +2.31420762332E-01 -2.79890368915E-03 -1.11678686638E-03 -2.85285571354E-03 -9.90839627422E-04 -4.27511617821E-01 +2.14185410062E-01
3.06000000000E+09 -3.93553746033E-01 +2.63411122611E-01 -2.86982758332E-03 -5.41979318944E-04 -2.69229623272E-03 -3.68862678596E-04 -4.25571871870E-01 +2.51855557544E-01
3.06500000000E+09 -3.82031354487E-01 +2.94285496139E-01 -2.52892497592E-03 +2.26465772649E-06 -2.31113450062E-03 -1.40297803124E-05 -4.20820755392E-01 +2.88212867369E-01
3.07000000000E+09 -3.69905193884E-01 +3.23238609704E-01 -2.31224589849E-03 +2.99931416424E-05 -2.19208701487E-03 -1.21019460783E-04 -4.14944524948E-01 +3.23431047156E-01
