# Hz S RI R 50
! CMT, C1220, 16058040, 17.2.0/1
! Date: 15/08/2018 10:35:38
! Data: Format (Calibration Info)
! Freq                      S11: Re/Im (F2)                       S21: Re/Im (F2)                       S12: Re/Im (F2)                       S22: Re/Im (F2)            
2.50000000000E+09 +5.81200408325E-01 +6.67086699799E-01 -1.21375828067E-04 +1.76767073239E-04 -1.65622352696E-04 +1.54282194450E-04 +5.64696146999E-01 +7.22586995487E-01
2.50500000000E+09 +5.88522307396E-01 +6.58996240654E-01 -5.57883278601E-05 +1.50061796678E-04 -4.08475705225E-05 +1.36326789193E-04 +5.70261129797E-01 +7.17084863773E-01
2.51000000000E+09 +5.96295750835E-01 +6.50700076130E-01 +9.22591113879E-06 +1.05469686354E-04 +1.41285744352E-05 +7.85774165385E-05 +5.75876425790E-01 +7.12012367003E-01
2.51500000000E+09 +6.03798061779E-01 +6.42634549044E-01 -6.83778200588E-05 +2.91558388779E-05 -3.32107860900E-05 +3.30396461294E-05 +5.81261510099E-01 +7.06694058080E-01
2.52000000000E+09 +6.10748129817E-01 +6.34617781605E-01 -4.30673198379E-05 +8.63625127969E-05 -8.14606216108E-05 +9.96381558682E-05 +5.86437090814E-01 +7.00828329626E-01
2.52500000000E+09 +6.16797926137E-01 +6.27239712922E-01 +3.62989393315E-05 +1.15207519882E-04 +4.33831556633E-05 +9.35534409341E-05 +5.92175495660E-01 +6.94477706669E-01
2.53000000000E+09 +6.22233227544E-01 +6.20075586181E-01 +1.19284947259E-05 +2.07344199614E-05 -5.86725988469E-06 +9.01647390597E-05 +5.98344053209E-01 +6.87618787230E-01
2.53500000000E+09 +6.26885555571E-01 +6.13078529980E-01 +6.65217122797E-06 +3.63736381441E-05 -2.52064258094E-05 +6.55411373452E-05 +6.04284484544E-01 +6.81003501349E-01
2.54000000000E+09 +6.31306305870E-01 +6.06221602068E-01 -8.72001899907E-06 +2.53353323776E-05 +1.50229160007E-05 +7.15324635531E-05 +6.10389388842E-01 +6.74487647865E-01
2.54500000000E+09 +6.35941032822E-01 +5.99071946840E-01 -1.14254668815E-04 +5.64528310726E-05 -1.33101952670E-04 +2.92908077142E-05 +6.16181217191E-01 +6.68244083691E-01
2.55000000000E+09 +6.41088054578E-01 +5.91538603131E-01 -1.30503866352E-04 +1.15680084663E-04 -1.42076739115E-04 +1.53572833289E-04 +6.21644532110E-01 +6.62107236760E-01
2.55500000000E+09 +6.46554070129E-01 +5.83265207187E-01 -3.88139574958E-05 +2.08795286235E-04 -7.64010902439E-05 +2.29269914006E-04 +6.26867814923E-01 +6.55482465698E-01
2.56000000000E+09 +6.52835590316E-01 +5.75206489698E-01 +5.95841765098E-05 +2.21650676634E-04 +8.19367072578E-05 +2.61457414521E-04 +6.32034723544E-01 +6.48335425524E-01
2.56500000000E+09 +6.59850978190E-01 +5.66413435946E-01 +1.08818315229E-04 +1.36304201699E-04 +1.66620321619E-04 +1.44015814888E-04 +6.37361959668E-01 +6.40906057876E-01
2.57000000000E+09 +6.66944013039E-01 +5.57596241232E-01 +7.43093028818E-05 +8.97258139018E-05 +7.70078041345E-05 +9.39041372120E-05 +6.42552354992E-01 +6.32924805629E-01
2.57500000000E+09 +6.73830776833E-01 +5.48649232578E-01 -1.56772670836E-05 +1.28151698236E-04 +2.69166261616E-05 +1.03847755485E-04 +6.48127336087E-01 +6.25277749341E-01
2.58000000000E+09 +6.79735987119E-01 +5.40136565400E-01 +1.37860586956E-05 +2.47749817784E-04 +3.23941314030E-05 +1.50586179413E-04 +6.53105275499E-01 +6.17562305262E-01
2.58500000000E+09 +6.84958878407E-01 +5.31838936785E-01 +1.08779359563E-04 +2.26851388714E-04 +4.89304011318E-05 +2.22512573068E-04 +6.57796002339E-01 +6.10079970695E-01
2.59000000000E+09 +6.89907512289E-01 +5.24133652948E-01 +2.49585970996E-04 +2.30760923935E-04 +2.14173121340E-04 +2.10519097482E-04 +6.62845463759E-01 +6.02668677654E-01
2.59500000000E+09 +6.94622677217E-01 +5.16056484985E-01 +2.58954690248E-04 +1.37852484201E-04 +2.70685719680E-04 +1.48230957691E-04 +6.67675901628E-01 +5.94645399112E-01
2.60000000000E+09 +6.98678231004E-01 +5.07279523032E-01 +2.47872470708E-04 +7.40010826909E-05 +2.80039529792E-04 +2.81660374733E-05 +6.72792552539E-01 +5.86471854965E-01
2.60500000000E+09 +7.02915916258E-01 +4.97520633209E-01 +2.83853475208E-04 +3.12534489466E-05 +3.08390027527E-04 +3.34425862418E-05 +6.78027713122E-01 +5.77979780635E-01
2.61000000000E+09 +7.07205768356E-01 +4.86657385573E-01 +2.66372214445E-04 -1.81243854273E-05 +2.75762270425E-04 +1.47892385436E-05 +6.83166762055E-01 +5.69434015228E-01
2.61500000000E+09 +7.11829428750E-01 +4.74789290947E-01 +3.20130435775E-04 -1.48634757070E-04 +3.79348055038E-04 -1.00706413610E-04 +6.88249047159E-01 +5.60854302248E-01
2.62000000000E+09 +7.16456658713E-01 +4.61650823185E-01 +1.87023020883E-04 -2.65866581731E-04 +2.02866730778E-04 -2.89266962521E-04 +6.93273625945E-01 +5.51826371841E-01
2.62500000000E+09 +7.21249962186E-01 +4.47852749472E-01 +1.20298155836E-05 -2.04529206368E-04 -7.16440537547E-07 -1.71358055566E-04 +6.97996871443E-01 +5.42940900797E-01
2.63000000000E+09 +7.25788991853E-01 +4.33746400040E-01 +5.18542965976E-05 -6.55174563589E-05 +5.62642633636E-05 -8.38318169507E-05 +7.02679882832E-01 +5.33966468701E-01
2.63500000000E+09 +7.29589422704E-01 +4.20035422265E-01 +8.03203493447E-05 -4.60606963677E-05 +1.10856714738E-04 -2.17341946989E-05 +7.07485203014E-01 +5.24857877980E-01
2.64000000000E+09 +7.33174246585E-01 +4.07289566353E-01 +2.16780514218E-04 -5.24307361128E-05 +1.81235335378E-04 -4.04638636277E-05 +7.12223489844E-01 +5.15262364985E-01
2.64500000000E+09 +7.36463539062E-01 +3.95315498068E-01 +1.84851161442E-04 -2.04158969039E-04 +1.85974478449E-04 -1.88600078448E-04 +7.16945949008E-01 +5.05408355995E-01
2.65000000000E+09 +7.39330146622E-01 +3.84110269578E-01 +6.74061584042E-05 -1.86499175440E-04 +1.25690325437E-04 -1.96735718092E-04 +7.21051399554E-01 +4.95213021233E-01
2.65500000000E+09 +7.42350853756E-01 +3.73044556560E-01 +8.40936126230E-05 -1.72819096465E-04 +1.24313301625E-04 -1.64511208359E-04 +7.25096186372E-01 +4.84724957285E-01
2.66000000000E+09 +7.45389250077E-01 +3.61607661298E-01 +1.55959455559E-04 -1.59812836618E-04 +1.23670318700E-04 -1.88595853927E-04 +7.28940926511E-01 +4.73525070547E-01
2.66500000000E+09 +7.48027890179E-01 +3.49887687137E-01 +1.49162642353E-04 -2.78324332791E-04 +9.98711257386E-05 -2.40907841264E-04 +7.33194723488E-01 +4.62651928714E-01
2.67000000000E+09 +7.50800477255E-01 +3.37222943731E-01 +7.43917268162E-05 -3.21687132769E-04 +5.60300007878E-05 -3.12002747309E-04 +7.37608240264E-01 +4.51657486801E-01
2.67500000000E+09 +7.53388020756E-01 +3.23293623824E-01 -1.45175318443E-05 -3.02874146652E-04 -3.13700786378E-07 -2.64315563079E-04 +7.41590818983E-01 +4.40497020559E-01
2.68000000000E+09 +7.55189484036E-01 +3.08550875760E-01 -3.35936354691E-05 -2.80196655039E-04 +2.62994345725E-05 -2.79356711633E-04 +7.45444339471E-01 +4.29613682425E-01
2.68500000000E+09 +7.56577494345E-01 +2.93732492045E-01 -1.85908895488E-05 -3.98098659924E-04 +1.58428791304E-05 -3.76865392190E-04 +7.48761343843E-01 +4.18038083917E-01
2.69000000000E+09 +7.57803076978E-01 +2.79011290263E-01 -1.82316845629E-04 -4.72352522142E-04 -1.33606990830E-04 -4.45536338604E-04 +7.51230312474E-01 +4.06065221597E-01
2.69500000000E+09 +7.58642365987E-01 +2.64842567800E-01 -2.05055569844E-04 -3.63816422120E-04 -2.28491578487E-04 -3.34308887222E-04 +7.53920890321E-01 +3.93514507456E-01
2.70000000000E+09 +7.59869972781E-01 +2.50945820518E-01 -3.38010820185E-04 -5.00789591258E-04 -2.98578020200E-04 -4.59334641710E-04 +7.56749337019E-01 +3.80418648534E-01
2.70500000000E+09 +7.60952119853E-01 +2.37419465216E-01 -5.45046747817E-04 -2.84680152573E-04 -5.24478193770E-04 -2.96501863047E-04 +7.59744205858E-01 +3.67143545570E-01
2.71000000000E+09 +7.61726359374E-01 +2.23836830112E-01 -5.45940681884E-04 -2.08537177321E-05 -5.53886490560E-04 -4.61506653642E-05 +7.62327265651E-01 +3.54000272585E-01
2.71500000000E+09 +7.62880292924E-01 +2.10073632536E-01 -3.10659084723E-04 -4.51380777175E-05 -3.05390062007E-04 -4.88565133374E-05 +7.64789173389E-01 +3.41398970512E-01
2.72000000000E+09 +7.63717014438E-01 +1.95350885917E-01 -4.86091500963E-04 -2.34345754072E-04 -5.10874760551E-04 -1.98813062505E-04 +7.66472386616E-01 +3.28767623303E-01
2.72500000000E+09 +7.63857691183E-01 +1.79854857324E-01 -6.61048258370E-04 -5.75340130427E-05 -6.54698429158E-04 +2.47603642751E-05 +7.67310703113E-01 +3.15402162981E-01
2.73000000000E+09 +7.63372560785E-01 +1.63226345349E-01 -7.34383482788E-04 +2.01912430925E-04 -6.44019234404E-04 +2.91382264265E-04 +7.68097932961E-01 +3.01702906868E-01
2.73500000000E+09 +7.61598634833E-01 +1.45442621078E-01 -6.55902029705E-04 +5.23104850229E-04 -5.92434648492E-04 +4.25894226809E-04 +7.69038724270E-01 +2.87569528923E-01
2.74000000000E+09 +7.58893044497E-01 +1.27774003803E-01 -3.24316106952E-04 +6.22419716780E-04 -3.52848319813E-04 +5.42793894899E-04 +7.70743641441E-01 +2.72794518472E-01
2.74500000000E+09 +7.55315913662E-01 +1.09572952263E-01 -1.69830105774E-04 +5.08095208459E-04 -2.43277040490E-04 +4.95654678978E-04 +7.72020495647E-01 +2.57753472618E-01
2.75000000000E+09 +7.51021457438E-01 +9.17311899051E-02 -1.36354197824E-04 +5.34028731006E-04 -1.99332716981E-04 +5.52004033047E-04 +7.72829346807E-01 +2.42918481447E-01
2.75500000000E+09 +7.45842951893E-01 +7.41080679320E-02 -6.04500743589E-05 +4.51223125682E-04 -1.17852491957E-04 +4.71229904130E-04 +7.72553334043E-01 +2.28168528340E-01
2.76000000000E+09 +7.41404171762E-01 +5.69054367780E-02 -1.53630195360E-04 +6.94446275945E-04 -1.08000663972E-04 +7.32508649962E-04 +7.72569672775E-01 +2.13257619524E-01
2.76500000000E+09 +7.36489528715E-01 +3.87947409584E-02 +2.71792176584E-04 +6.56057331458E-04 +3.05157368252E-04 +7.27187716186E-04 +7.71763447287E-01 +1.96683617143E-01
2.77000000000E+09 +7.30901966361E-01 +2.04942330841E-02 +3.09092793861E-04 +4.37967761779E-04 +2.99790947290E-04 +4.28757562243E-04 +7.70719110100E-01 +1.79853133011E-01
2.77500000000E+09 +7.25784631394E-01 +1.57212454743E-03 +1.86577135180E-04 +5.65188835034E-04 +2.12948589453E-04 +5.91901472132E-04 +7.69470570877E-01 +1.61976300669E-01
2.78000000000E+09 +7.20274009149E-01 -1.84819677083E-02 +4.54136603883E-04 +5.92525690488E-04 +5.07302678030E-04 +5.72605743125E-04 +7.67797361211E-01 +1.44279552041E-01
2.78500000000E+09 +7.13886021295E-01 -3.95119694985E-02 +6.97210404596E-04 +5.27423976793E-04 +7.69373863069E-04 +4.79529966575E-04 +7.65182722633E-01 +1.26279636375E-01
2.79000000000E+09 +7.07213729688E-01 -6.13631884595E-02 +8.62080995316E-04 +1.59764179754E-04 +7.89672210762E-04 +1.57720684965E-04 +7.61938252432E-01 +1.09076539328E-01
2.79500000000E+09 +6.98617867366E-01 -8.33948691586E-02 +8.46728160414E-04 -1.41393205934E-05 +7.31438346483E-04 -3.66461378247E-05 +7.57651121457E-01 +9.13695033713E-02
2.80000000000E+09 +6.88679740260E-01 -1.04173443171E-01 +6.57789738805E-04 -2.20229559254E-04 +6.47794303938E-04 -1.79420717488E-04 +7.52864377115E-01 +7.35860202866E-02
2.80500000000E+09 +6.78741291116E-01 -1.23275964169E-01 +5.12887136539E-04 -2.01404994102E-04 +5.30905482425E-04 -1.67236757245E-04 +7.47312574486E-01 +5.46118958894E-02
2.81000000000E+09 +6.68710118353E-01 -1.41425823112E-01 +7.43874482619E-04 -2.12772782828E-04 +7.93737194469E-04 -1.60881090145E-04 +7.40851975990E-01 +3.57174677931E-02
2.81500000000E+09 +6.57993757371E-01 -1.58763151094E-01 +6.14820863881E-04 -5.38179799170E-04 +6.45324112217E-04 -5.51891608274E-04 +7.34454874312E-01 +1.66196275535E-02
2.82000000000E+09 +6.46479060200E-01 -1.75973629797E-01 +4.86726276212E-04 -5.74473874712E-04 +4.80606311105E-04 -6.17055158064E-04 +7.27143621806E-01 -2.87435432048E-03
2.82500000000E+09 +6.33176815289E-01 -1.92803998142E-01 +5.24613948677E-04 -7.44553745324E-04 +5.41376558123E-04 -7.52277441969E-04 +7.19266806376E-01 -2.21333056895E-02
2.83000000000E+09 +6.18626505701E-01 -2.09433978513E-01 +3.55505364442E-04 -1.02534422537E-03 +3.58400533021E-04 -9.70939108467E-04 +7.10771420132E-01 -4.19783396125E-02
2.83500000000E+09 +6.02859167947E-01 -2.27046968515E-01 -5.53623076519E-05 -1.16984855818E-03 +5.67987060342E-07 -1.11906280194E-03 +7.00838710926E-01 -6.18872530782E-02
2.84000000000E+09 +5.84933701628E-01 -2.45277394689E-01 -3.83107528600E-04 -1.08516746151E-03 -3.59901415135E-04 -1.06207442689E-03 +6.90314719463E-01 -8.25932029350E-02
2.84500000000E+09 +5.64476908073E-01 -2.64606746407E-01 -6.20909088111E-04 -8.89297770388E-04 -5.95658559022E-04 -9.44025467227E-04 +6.78346223520E-01 -1.03025787345E-01
2.85000000000E+09 +5.42575554681E-01 -2.83300197060E-01 -7.68796402793E-04 -7.00941044806E-04 -7.82449243401E-04 -6.95653445046E-04 +6.65097063703E-01 -1.23764596752E-01
2.85500000000E+09 +5.19090447299E-01 -3.01995721369E-01 -8.94978245911E-04 -3.27307518087E-04 -8.84813911771E-04 -3.44996697109E-04 +6.50880240365E-01 -1.44176764834E-01
2.86000000000E+09 +4.95346587260E-01 -3.19853257966E-01 -5.57350731622E-04 -2.69102125125E-04 -5.45594718984E-04 -2.84457847696E-04 +6.35821439492E-01 -1.65073058949E-01
2.86500000000E+09 +4.70794315807E-01 -3.36801011669E-01 -6.09607010602E-04 -3.90183287581E-04 -6.49707407808E-04 -3.80627998869E-04 +6.18577004336E-01 -1.86245088715E-01
2.87000000000E+09 +4.46309203818E-01 -3.52142333963E-01 -7.14622856354E-04 -6.17282168850E-04 -6.87489308426E-04 -6.33898721744E-04 +5.99227120537E-01 -2.06751803766E-01
2.87500000000E+09 +4.21886753973E-01 -3.66478539711E-01 -1.47697266460E-03 -6.17693559100E-04 -1.48084925823E-03 -5.66710965551E-04 +5.79417900268E-01 -2.25919574298E-01
2.88000000000E+09 +3.96905095924E-01 -3.79381039592E-01 -1.72672238012E-03 +2.02089145524E-04 -1.76708704645E-03 +2.41561695566E-04 +5.58403681473E-01 -2.45681201263E-01
2.88500000000E+09 +3.71303921962E-01 -3.91440492013E-01 -1.53216565586E-03 +9.29137592755E-04 -1.45778265690E-03 +9.19132024795E-04 +5.35214192612E-01 -2.64257581723E-01
2.89000000000E+09 +3.43998164329E-01 -4.02620131342E-01 -7.70719592573E-04 +1.24479298018E-03 -7.30378523698E-04 +1.21271820661E-03 +5.10056434983E-01 -2.82305852993E-01
2.89500000000E+09 +3.14098172425E-01 -4.12423278554E-01 -3.82009362794E-04 +8.18514594726E-04 -3.73545608765E-04 +8.10169875294E-04 +4.83749126383E-01 -2.99401307191E-01
2.90000000000E+09 +2.82735306771E-01 -4.20300955983E-01 -7.07681691825E-04 +7.40419782975E-04 -7.29084355197E-04 +7.62720409170E-04 +4.55794364470E-01 -3.15966372166E-01
2.90500000000E+09 +2.48706712602E-01 -4.26408227129E-01 -5.29810147412E-04 +8.98690520702E-04 -4.79022125559E-04 +9.52488532594E-04 +4.26275535566E-01 -3.31954967137E-01
2.91000000000E+09 +2.14191875340E-01 -4.30334227268E-01 -6.96905452355E-04 +9.47397677104E-04 -6.20033430504E-04 +9.87925505109E-04 +3.95446128456E-01 -3.45653880753E-01
2.91500000000E+09 +1.78637821175E-01 -4.33401622463E-01 -4.28510798547E-04 +1.30914374386E-03 -3.82165739532E-04 +1.27948624899E-03 +3.64257682176E-01 -3.57667376433E-01
2.92000000000E+09 +1.42066355132E-01 -4.33479133042E-01 -4.35415788729E-04 +1.28557736067E-03 -4.05920834142E-04 +1.19320022095E-03 +3.31608875057E-01 -3.68622292986E-01
2.92500000000E+09 +1.06405039201E-01 -4.32037464714E-01 -4.48378966257E-04 +2.02616888717E-03 -4.58867745046E-04 +1.85168778974E-03 +2.96211415862E-01 -3.77352823989E-01
2.93000000000E+09 +7.11727079668E-02 -4.28780840216E-01 +5.48345598653E-04 +2.05458107038E-03 +4.19743111144E-04 +2.01632146238E-03 +2.59171102224E-01 -3.83814693647E-01
2.93500000000E+09 +3.66940606070E-02 -4.23702883832E-01 +8.86925865497E-04 +2.07885150545E-03 +8.12981349073E-04 +2.04936336899E-03 +2.21110961530E-01 -3.88077600437E-01
2.94000000000E+09 +2.62213111964E-03 -4.17457810602E-01 +1.68954497021E-03 +1.56082430714E-03 +1.65085544152E-03 +1.52606919091E-03 +1.82300392397E-01 -3.90478176122E-01
2.94500000000E+09 -3.28311991505E-02 -4.08519882539E-01 +1.32011309921E-03 +1.12864457788E-03 +1.26969036487E-03 +1.09211696273E-03 +1.43358175359E-01 -3.91256340837E-01
2.95000000000E+09 -6.74578228481E-02 -3.95499563656E-01 +1.43551897038E-03 +1.23269452562E-03 +1.33334408538E-03 +1.28248045487E-03 +1.03160883697E-01 -3.89654057397E-01
2.95500000000E+09 -1.00869982192E-01 -3.79380784524E-01 +1.95382602037E-03 +1.09807037873E-03 +1.94791483139E-03 +1.21585655331E-03 +6.23236271685E-02 -3.83832336782E-01
2.96000000000E+09 -1.32881429359E-01 -3.61109380247E-01 +2.10119827767E-03 +6.99867679382E-04 +2.12639122899E-03 +7.68658952189E-04 +2.26892804947E-02 -3.74481268863E-01
2.96500000000E+09 -1.65124659199E-01 -3.40694531259E-01 +2.61821744346E-03 +6.24690955874E-04 +2.68198413882E-03 +6.78514719680E-04 -1.77792336475E-02 -3.63254445545E-01
2.97000000000E+09 -1.96114164601E-01 -3.16296946238E-01 +3.11913230419E-03 -3.69878166866E-04 +3.14188004363E-03 -4.16605408269E-04 -5.73034403092E-02 -3.48152886877E-01
2.97500000000E+09 -2.24650959330E-01 -2.90357938218E-01 +2.80389332728E-03 -1.25476308419E-03 +2.67676108822E-03 -1.28174718346E-03 -9.69640611815E-02 -3.32280608660E-01
2.98000000000E+09 -2.52598856848E-01 -2.63349675432E-01 +2.40052505276E-03 -1.53346765419E-03 +2.42349559910E-03 -1.42530244818E-03 -1.35373996008E-01 -3.11383218257E-01
2.98500000000E+09 -2.78496040891E-01 -2.34117207679E-01 +2.04196449725E-03 -2.22816860294E-03 +2.18617088175E-03 -2.14034443788E-03 -1.71307132707E-01 -2.89143842381E-01
2.99000000000E+09 -3.02618757903E-01 -2.04246780941E-01 +1.21626981438E-03 -2.53163704759E-03 +1.35374001223E-03 -2.66660764752E-03 -2.06337893683E-01 -2.63681030329E-01
2.99500000000E+09 -3.26683916082E-01 -1.73880703605E-01 +6.80888719113E-04 -2.30915168815E-03 +7.04877637508E-04 -2.42823190826E-03 -2.39206352840E-01 -2.35269506840E-01
3.00000000000E+09 -3.48173942263E-01 -1.39770406059E-01 +6.93297511640E-04 -2.21108296772E-03 +6.00723916645E-04 -2.27075022409E-03 -2.71012467106E-01 -2.03743904038E-01
3.00500000000E+09 -3.66021595567E-01 -1.06281915409E-01 +4.86461981238E-04 -2.76174728538E-03 +3.31048054484E-04 -2.67913988225E-03 -2.99562577198E-01 -1.70291268834E-01
3.01000000000E+09 -3.82438532555E-01 -7.27290344354E-02 -4.59288920774E-04 -2.75332555485E-03 -3.89376500306E-04 -2.72656395910E-03 -3.26065893378E-01 -1.35118777492E-01
3.01500000000E+09 -3.95958933192E-01 -3.83850239193E-02 -6.54101813357E-04 -2.60296719410E-03 -5.91997203452E-04 -2.64034437530E-03 -3.49393100488E-01 -9.92135180366E-02
3.02000000000E+09 -4.06864715238E-01 -4.00757165084E-03 -1.40102065875E-03 -2.59974351787E-03 -1.37911030565E-03 -2.62469620521E-03 -3.70202231999E-01 -6.24674589015E-02
3.02500000000E+09 -4.14551272124E-01 +3.01633322345E-02 -1.87487888708E-03 -2.01838704759E-03 -1.89141811569E-03 -2.06052277881E-03 -3.88182084475E-01 -2.32603812851E-02
3.03000000000E+09 -4.19539616187E-01 +6.47545143329E-02 -2.09187812758E-03 -1.32055155186E-03 -2.15354214562E-03 -1.36498200914E-03 -4.01764488281E-01 +1.62836548880E-02
3.03500000000E+09 -4.20400540173E-01 +9.80302091065E-02 -1.95764912012E-03 -6.48545079912E-04 -2.00273436317E-03 -6.98449978488E-04 -4.13217766840E-01 +5.57975958386E-02
3.04000000000E+09 -4.20371632621E-01 +1.30236390515E-01 -1.54127924301E-03 -8.13551431332E-04 -1.62746176642E-03 -8.37597163822E-04 -4.22061093383E-01 +9.59473634556E-02
3.04500000000E+09 -4.18301744855E-01 +1.63591410044E-01 -1.71242338387E-03 -7.68760084405E-04 -1.81805781780E-03 -7.74814102748E-04 -4.28182676639E-01 +1.36336901499E-01
3.05000000000E+09 -4.12797387635E-01 +1.97201679837E-01 -1.94555594414E-03 -6.38623886473E-04 -2.11456476337E-03 -6.60010152708E-04 -4.31154199830E-01 +1.75985664113E-01
3.05500000000E+09 -4.05301327860E-01 +2.29497020128E-01 -2.30174371252E-03 -2.67714794252E-04 -2.36628576716E-03 -1.27419564322E-04 -4.31577798045E-01 +2.14968992506E-01
3.06000000000E+09 -3.96219661643E-01 +2.61915782926E-01 -2.29165325950E-03 +3.42021523634E-04 -2.15660144583E-03 +4.64714740099E-04 -4.29183196873E-01 +2.52873659691E-01
3.06500000000E+09 -3.85675160653E-01 +2.93017583209E-01 -2.02175850596E-03 +5.47879107079E-04 -1.91245015445E-03 +5.75077876039E-04 -4.24349722337E-01 +2.89593807019E-01
3.07000000000E+09 -3.74075874766E-01 +3.23374532778E-01 -1.95676651099E-03 +9.55400795009E-04 -1.93068710162E-03 +8.21007494002E-04 -4.17963515091E-01 +3.25331366023E-01
