# Hz S RI R 50
! CMT, C1220, 16058040, 17.2.0/1
! Date: 15/08/2018 10:31:48
! Data: Format (Calibration Info)
! Freq                      S11: Re/Im (F2)                       S21: Re/Im (F2)                       S12: Re/Im (F2)                       S22: Re/Im (F2)            
2.50000000000E+09 +5.81442883505E-01 +6.63597324165E-01 -3.45736335867E-04 +1.79009249619E-04 -3.68093184028E-04 +1.96605518644E-04 +5.64836186391E-01 +7.22000456398E-01
2.50500000000E+09 +5.88925613404E-01 +6.55242711979E-01 -2.27211785459E-04 +1.59934069275E-04 -2.17068888224E-04 +1.76572595835E-04 +5.70456373684E-01 +7.16514551257E-01
2.51000000000E+09 +5.96635785736E-01 +6.46853466953E-01 -2.35059830928E-04 +1.58179958800E-04 -2.15683800725E-04 +2.07228819057E-04 +5.76147735995E-01 +7.11473423786E-01
2.51500000000E+09 +6.04026817834E-01 +6.38669659188E-01 -2.56108538946E-04 +1.60008663331E-04 -2.72833304210E-04 +1.68143468379E-04 +5.81440487062E-01 +7.06154473378E-01
2.52000000000E+09 +6.10860990601E-01 +6.30844833650E-01 -2.68973457629E-04 +2.73027522406E-04 -2.38464467008E-04 +2.67437677342E-04 +5.86515058598E-01 +7.00088211993E-01
2.52500000000E+09 +6.16709590674E-01 +6.23579069637E-01 -1.60365422219E-04 +2.61191194971E-04 -1.37209069561E-04 +2.72963978638E-04 +5.92260691626E-01 +6.93873740271E-01
2.53000000000E+09 +6.21946588600E-01 +6.16464786559E-01 -1.15964255225E-04 +2.16472355400E-04 -1.26005968511E-04 +2.58442428984E-04 +5.98300103382E-01 +6.86893899912E-01
2.53500000000E+09 +6.26868898796E-01 +6.09468052349E-01 -1.38056954066E-04 +2.64811169661E-04 -1.81943060379E-04 +2.29332333635E-04 +6.04253581911E-01 +6.80378769060E-01
2.54000000000E+09 +6.31145073424E-01 +6.02505872262E-01 -1.05309892884E-04 +1.96731502766E-04 -9.18871526664E-05 +2.40242584694E-04 +6.10234144387E-01 +6.73821939304E-01
2.54500000000E+09 +6.35694040985E-01 +5.95350111654E-01 -1.93381107206E-04 +2.20559801455E-04 -1.58109583252E-04 +2.33626379325E-04 +6.16120126111E-01 +6.67611223423E-01
2.55000000000E+09 +6.40585653247E-01 +5.87723056511E-01 -1.44153596305E-04 +3.29926793343E-04 -2.26467209408E-04 +3.12415644358E-04 +6.21498808919E-01 +6.61467036836E-01
2.55500000000E+09 +6.46219563454E-01 +5.79451196554E-01 -1.28217668595E-04 +3.84312462059E-04 -1.33752976027E-04 +4.07397595785E-04 +6.26576913778E-01 +6.55059649679E-01
2.56000000000E+09 +6.52690375543E-01 +5.71225724521E-01 +1.29281626794E-06 +3.79000892467E-04 +5.30990208526E-05 +4.48172643985E-04 +6.31665764774E-01 +6.47829930268E-01
2.56500000000E+09 +6.59721338270E-01 +5.62386455535E-01 +2.70347961642E-05 +3.06938976628E-04 +1.01135558527E-04 +3.40489322092E-04 +6.36903519501E-01 +6.40540613629E-01
2.57000000000E+09 +6.66992395073E-01 +5.53315174672E-01 +4.85983996998E-06 +3.06695874786E-04 +9.54144110821E-05 +2.50641544749E-04 +6.42268005454E-01 +6.32669427883E-01
2.57500000000E+09 +6.73769627130E-01 +5.44294491935E-01 +3.99526759950E-05 +3.48543967287E-04 +9.32329691746E-05 +3.05535713991E-04 +6.47814413713E-01 +6.25008252467E-01
2.58000000000E+09 +6.79448510083E-01 +5.35840432366E-01 +9.89420795251E-05 +4.23579803356E-04 +8.97271793603E-05 +3.76683806857E-04 +6.52914188044E-01 +6.17227698646E-01
2.58500000000E+09 +6.84759486395E-01 +5.27866580934E-01 +1.71758027058E-04 +3.64492848119E-04 +1.76687508483E-04 +3.48670738260E-04 +6.57606943973E-01 +6.09694845584E-01
2.59000000000E+09 +6.89356357484E-01 +5.20199814313E-01 +1.94505593796E-04 +3.39721339762E-04 +1.95247618421E-04 +3.26106562976E-04 +6.62443206320E-01 +6.02411881415E-01
2.59500000000E+09 +6.93735297337E-01 +5.12041304492E-01 +2.71371068795E-04 +3.06631782719E-04 +2.58557360885E-04 +3.80449926407E-04 +6.67326648005E-01 +5.94495218995E-01
2.60000000000E+09 +6.97588607631E-01 +5.03382532063E-01 +3.78446326661E-04 +2.99404348118E-04 +3.58982519606E-04 +3.41762894270E-04 +6.72444364703E-01 +5.86332441589E-01
2.60500000000E+09 +7.01449026989E-01 +4.93719398366E-01 +3.33644244054E-04 +2.47799448571E-04 +3.40783722967E-04 +2.96126947236E-04 +6.77611253145E-01 +5.77658155820E-01
2.61000000000E+09 +7.05564564109E-01 +4.83015848685E-01 +5.20302517660E-04 +2.71048511896E-04 +5.06059550139E-04 +2.63047920842E-04 +6.82923550222E-01 +5.69089614571E-01
2.61500000000E+09 +7.10431006936E-01 +4.70977746215E-01 +5.44172443806E-04 +4.27495744633E-05 +5.88925232744E-04 +4.46486305572E-05 +6.87795679119E-01 +5.60695982663E-01
2.62000000000E+09 +7.15104101699E-01 +4.57556513021E-01 +3.69658069224E-04 -9.83443998559E-05 +4.21263216854E-04 -1.01255054783E-04 +6.92730006619E-01 +5.51722028278E-01
2.62500000000E+09 +7.19789834534E-01 +4.43613920411E-01 +2.43346151657E-04 -3.01066804202E-05 +2.73172619346E-04 -1.27612161273E-05 +6.97471793602E-01 +5.43040652915E-01
2.63000000000E+09 +7.24237921827E-01 +4.29699015733E-01 +2.95817144917E-04 +6.90843808777E-05 +2.93453578475E-04 +2.99308624246E-05 +7.02141997664E-01 +5.34189698056E-01
2.63500000000E+09 +7.28070025309E-01 +4.16040885668E-01 +3.75712279381E-04 +2.54815321404E-05 +3.16140568896E-04 -1.58364541275E-05 +7.06905346017E-01 +5.25102184779E-01
2.64000000000E+09 +7.31591154925E-01 +4.03136319462E-01 +4.28348439935E-04 +5.68132895341E-05 +3.81587105681E-04 +1.19859927614E-05 +7.11708900244E-01 +5.15687798046E-01
2.64500000000E+09 +7.34729001524E-01 +3.91158834663E-01 +5.50396487931E-04 -1.35590306945E-04 +4.44182745934E-04 -6.26807334376E-05 +7.16472548557E-01 +5.05893740966E-01
2.65000000000E+09 +7.37118661830E-01 +3.80108535687E-01 +3.88491780234E-04 -2.53735866823E-04 +4.46911458458E-04 -2.05116893462E-04 +7.20835062987E-01 +4.95851038550E-01
2.65500000000E+09 +7.40001123385E-01 +3.69117336786E-01 +3.13121332168E-04 -2.60737397665E-04 +3.42318002210E-04 -2.20948402459E-04 +7.24923970256E-01 +4.85423162303E-01
2.66000000000E+09 +7.42598180506E-01 +3.57599039882E-01 +3.76241832713E-04 -2.36579308722E-04 +3.41190337072E-04 -2.22323044293E-04 +7.28899026650E-01 +4.74246589162E-01
2.66500000000E+09 +7.45037859257E-01 +3.45932646417E-01 +3.21375970524E-04 -3.70559198869E-04 +3.35574055163E-04 -4.17035938525E-04 +7.33189253042E-01 +4.63348788511E-01
2.67000000000E+09 +7.47505373212E-01 +3.33029231806E-01 +2.26820768931E-04 -4.97436788273E-04 +1.72585860413E-04 -4.76752862166E-04 +7.37886098287E-01 +4.52513783287E-01
2.67500000000E+09 +7.49913305720E-01 +3.19284811323E-01 +7.45285987817E-05 -3.24044956111E-04 +8.23059898646E-05 -3.29914067011E-04 +7.42132592177E-01 +4.41248806298E-01
2.68000000000E+09 +7.51833179411E-01 +3.04543865419E-01 +1.88927112298E-04 -2.30249477697E-04 +1.46204230978E-04 -2.37952283168E-04 +7.46032613314E-01 +4.30311469920E-01
2.68500000000E+09 +7.53477311161E-01 +2.89794944009E-01 +2.64900367971E-04 -4.80404003473E-04 +2.30892178978E-04 -4.54287397555E-04 +7.49401274782E-01 +4.18496068879E-01
2.69000000000E+09 +7.54744068595E-01 +2.75075224525E-01 +2.83959267485E-06 -5.09486965704E-04 -1.12789916295E-05 -4.90231563136E-04 +7.51929106220E-01 +4.06424626833E-01
2.69500000000E+09 +7.55549474238E-01 +2.61120938448E-01 +2.94744218475E-05 -4.72471248844E-04 +6.01258825135E-05 -4.65771569981E-04 +7.54678954466E-01 +3.93959619584E-01
2.70000000000E+09 +7.56604565647E-01 +2.47689855361E-01 -1.78601028435E-04 -5.48271302948E-04 -2.00196854776E-04 -4.80907215974E-04 +7.57534408931E-01 +3.81012563070E-01
2.70500000000E+09 +7.57652681258E-01 +2.34726812277E-01 -2.86265198341E-04 -3.53390584309E-04 -2.32155396242E-04 -3.38212950813E-04 +7.60716814738E-01 +3.67650033941E-01
2.71000000000E+09 +7.58543065649E-01 +2.21664125030E-01 -2.98882825455E-04 -2.60946583256E-04 -2.64122361547E-04 -2.32887419346E-04 +7.63454808610E-01 +3.54453267419E-01
2.71500000000E+09 +7.59813627500E-01 +2.08346564716E-01 -1.82429517030E-04 -1.48024923166E-04 -1.55627094350E-04 -1.91729985826E-04 +7.65915252605E-01 +3.41789484095E-01
2.72000000000E+09 +7.60458479030E-01 +1.93780032300E-01 -2.48368406888E-04 -2.75698392085E-04 -3.00510278203E-04 -2.65182275358E-04 +7.67626063125E-01 +3.28924483942E-01
2.72500000000E+09 +7.60464892782E-01 +1.78216622289E-01 -3.38022352648E-04 -9.28692044346E-05 -3.69381923238E-04 -8.08334144660E-05 +7.68756068690E-01 +3.15594530468E-01
2.73000000000E+09 +7.59697838054E-01 +1.61600233617E-01 -2.77447604870E-04 -7.21206041098E-06 -2.45190802946E-04 -1.82356246424E-06 +7.69580371127E-01 +3.01743204120E-01
2.73500000000E+09 +7.57906091418E-01 +1.43594776847E-01 -2.91188813101E-04 +8.75458906986E-05 -2.34124115064E-04 +7.45446773615E-05 +7.70717810720E-01 +2.87315678072E-01
2.74000000000E+09 +7.54950139905E-01 +1.25751781327E-01 -7.59247524764E-05 +6.94578966568E-05 -1.03425130767E-04 +7.53133202336E-05 +7.72513161776E-01 +2.72439248759E-01
2.74500000000E+09 +7.50919348025E-01 +1.07827016075E-01 -1.19646314206E-04 +5.39826402338E-06 -1.53079646695E-04 +2.39377148409E-05 +7.73770095043E-01 +2.57162018987E-01
2.75000000000E+09 +7.46594862240E-01 +9.01662448399E-02 -5.05090893842E-05 +8.76636675430E-05 -8.13993289135E-05 +1.52640981321E-04 +7.74709328489E-01 +2.42029096276E-01
2.75500000000E+09 +7.41923279864E-01 +7.29275236792E-02 +1.07850897764E-05 +6.74915959258E-05 -1.32057790824E-05 +8.30446995664E-05 +7.74558987166E-01 +2.27086446290E-01
2.76000000000E+09 +7.37660294755E-01 +5.58485952271E-02 -1.79684428973E-05 +2.37256140429E-04 -2.26922244348E-05 +2.37978601908E-04 +7.74551131996E-01 +2.11729062776E-01
2.76500000000E+09 +7.32695429979E-01 +3.80536517962E-02 +1.90185379196E-04 +1.16925739468E-04 +2.47707345704E-04 +1.27083190521E-04 +7.73505607789E-01 +1.94763042727E-01
2.77000000000E+09 +7.27383963118E-01 +2.01983220624E-02 +2.40879151171E-04 -2.96521122258E-05 +2.81856164026E-04 -4.17636808524E-05 +7.72180278565E-01 +1.77735585829E-01
2.77500000000E+09 +7.22354248699E-01 +1.64390679995E-03 +2.23651561160E-04 +8.80603021185E-07 +2.35725809468E-04 -4.78638632331E-06 +7.70511240485E-01 +1.59647445296E-01
2.78000000000E+09 +7.16996010811E-01 -1.82881113148E-02 +3.41545828802E-04 -1.03310472722E-04 +3.00794870862E-04 -1.71811397924E-04 +7.68737411996E-01 +1.41931587317E-01
2.78500000000E+09 +7.10523287926E-01 -3.92452466376E-02 +4.17650998273E-04 -2.21696556949E-04 +3.91873697218E-04 -2.13897943644E-04 +7.66247227024E-01 +1.24003052150E-01
2.79000000000E+09 +7.03725679253E-01 -6.09445387573E-02 +2.60124057869E-04 -4.14768882964E-04 +2.47794352318E-04 -4.30571251269E-04 +7.62963105658E-01 +1.06606366718E-01
2.79500000000E+09 +6.95261383061E-01 -8.29489555210E-02 +2.25069015347E-04 -3.39598187147E-04 +2.11884533292E-04 -3.58296748395E-04 +7.58481200254E-01 +8.85314416366E-02
2.80000000000E+09 +6.85916727321E-01 -1.03826162577E-01 +2.72969837123E-04 -5.46970811541E-04 +2.67007406075E-04 -5.38710407333E-04 +7.53247561256E-01 +7.02591881286E-02
2.80500000000E+09 +6.76097279898E-01 -1.23575125298E-01 +1.20104613011E-04 -6.63135405789E-04 +1.54567359486E-04 -6.19705753327E-04 +7.47292384023E-01 +5.12999806550E-02
2.81000000000E+09 +6.65750542857E-01 -1.42005324357E-01 +1.29681751355E-04 -6.46535648671E-04 +1.55652208485E-04 -6.78310313098E-04 +7.40464374483E-01 +3.23529407603E-02
2.81500000000E+09 +6.55273127680E-01 -1.59155364599E-01 -7.36994384109E-05 -8.99319998118E-04 -8.51070910071E-05 -9.36229469387E-04 +7.33637492019E-01 +1.33189987484E-02
2.82000000000E+09 +6.44027144356E-01 -1.76305329828E-01 -2.31683094596E-04 -8.76804240607E-04 -3.20952926960E-04 -8.62675454939E-04 +7.26131531776E-01 -6.08663727961E-03
2.82500000000E+09 +6.31109641567E-01 -1.92849974483E-01 -3.18765692191E-04 -9.76371388386E-04 -3.29337773938E-04 -9.40557088818E-04 +7.17991290081E-01 -2.53250752279E-02
2.83000000000E+09 +6.16912312926E-01 -2.09404873294E-01 -4.78969011649E-04 -1.05414062283E-03 -5.06303755745E-04 -1.04705326124E-03 +7.09099870523E-01 -4.53598722252E-02
2.83500000000E+09 +6.01289301109E-01 -2.26947996179E-01 -9.16298402226E-04 -1.21341616308E-03 -8.34274334213E-04 -1.17050487786E-03 +6.98803127032E-01 -6.51261825132E-02
2.84000000000E+09 +5.83418863523E-01 -2.44963493096E-01 -1.37875270664E-03 -9.98634953628E-04 -1.34536753736E-03 -1.01605561633E-03 +6.87974331634E-01 -8.59061271114E-02
2.84500000000E+09 +5.62913321987E-01 -2.64207154633E-01 -1.55192394695E-03 -6.20047963219E-04 -1.48792211555E-03 -6.56613509514E-04 +6.75388237540E-01 -1.06231441332E-01
2.85000000000E+09 +5.40743213069E-01 -2.82662207071E-01 -1.58538676509E-03 -4.41650941655E-04 -1.61808308999E-03 -4.10216591176E-04 +6.61777116301E-01 -1.26524149392E-01
2.85500000000E+09 +5.17376202339E-01 -3.01069227216E-01 -1.87512458339E-03 -1.19871806560E-04 -1.88441519202E-03 -1.32070818668E-04 +6.47153053095E-01 -1.46557376406E-01
2.86000000000E+09 +4.93517038709E-01 -3.18790350562E-01 -1.81093531677E-03 +2.34150697564E-04 -1.78754901643E-03 +2.53949178432E-04 +6.31756306578E-01 -1.67157277629E-01
2.86500000000E+09 +4.69229594265E-01 -3.35436295081E-01 -1.66924212672E-03 +4.83604478269E-04 -1.73149452913E-03 +4.84432712833E-04 +6.14259690728E-01 -1.87934265458E-01
2.87000000000E+09 +4.45266720232E-01 -3.50934313267E-01 -1.81670334282E-03 +4.96432221608E-04 -1.87232025036E-03 +4.89966309378E-04 +5.94762978642E-01 -2.08219866640E-01
2.87500000000E+09 +4.20702490037E-01 -3.65587735338E-01 -2.15856227364E-03 +8.35799615246E-04 -2.18369250789E-03 +8.49222443836E-04 +5.74393150043E-01 -2.26819116807E-01
2.88000000000E+09 +3.95701453643E-01 -3.78155701739E-01 -2.23873429957E-03 +1.53563453128E-03 -2.10214690847E-03 +1.53549351559E-03 +5.53330265940E-01 -2.45682421822E-01
2.88500000000E+09 +3.70786832083E-01 -3.89763159142E-01 -1.93436209475E-03 +2.39701217029E-03 -1.82720519972E-03 +2.32406885486E-03 +5.30364051556E-01 -2.63793117668E-01
2.89000000000E+09 +3.44167936774E-01 -4.01408556443E-01 -8.88122706788E-04 +2.84587185945E-03 -9.04541508508E-04 +2.62018583060E-03 +5.05285510200E-01 -2.81412975509E-01
2.89500000000E+09 +3.14017062178E-01 -4.11279706491E-01 -5.06648050643E-04 +2.40944268273E-03 -5.60395292297E-04 +2.30768918352E-03 +4.78965678765E-01 -2.98114945793E-01
2.90000000000E+09 +2.82554797657E-01 -4.18887343638E-01 -3.97262030068E-04 +2.51514040448E-03 -5.04857787606E-04 +2.46026509435E-03 +4.51288006633E-01 -3.14156175373E-01
2.90500000000E+09 +2.49428130699E-01 -4.24977285005E-01 -6.54629531291E-05 +2.64559789424E-03 -1.21131687758E-04 +2.67598025592E-03 +4.21847148366E-01 -3.29913955015E-01
2.91000000000E+09 +2.14821940624E-01 -4.29709126809E-01 +2.08460445700E-04 +2.84468822359E-03 +3.38553150430E-04 +2.84919077641E-03 +3.91105328755E-01 -3.42942158731E-01
2.91500000000E+09 +1.79259313467E-01 -4.32798837025E-01 +1.08250072492E-03 +2.82595939026E-03 +1.15695417114E-03 +2.67629652770E-03 +3.60192501780E-01 -3.54449890503E-01
2.92000000000E+09 +1.43214699109E-01 -4.33801097448E-01 +1.10373436539E-03 +2.29035093343E-03 +1.05818276830E-03 +2.18738622651E-03 +3.27578342664E-01 -3.64870640122E-01
2.92500000000E+09 +1.07328148696E-01 -4.33354731985E-01 +1.34053449125E-03 +2.77132762353E-03 +1.21763908698E-03 +2.74059845092E-03 +2.92798237005E-01 -3.72795284325E-01
2.93000000000E+09 +7.14521158658E-02 -4.30066649651E-01 +2.22700650407E-03 +2.23560396405E-03 +2.04017749424E-03 +2.28733809767E-03 +2.56335737134E-01 -3.78875613712E-01
2.93500000000E+09 +3.70887556576E-02 -4.25361974763E-01 +2.22186086218E-03 +2.15746721713E-03 +2.14553583517E-03 +2.25163759396E-03 +2.18866483303E-01 -3.82720232636E-01
2.94000000000E+09 +2.69068289595E-03 -4.18935929677E-01 +3.12677787296E-03 +1.81128977191E-03 +3.06290959674E-03 +1.93483985408E-03 +1.80857701883E-01 -3.84789153416E-01
2.94500000000E+09 -3.23456356551E-02 -4.09682653122E-01 +3.07094494493E-03 +1.25149314068E-03 +3.02198899058E-03 +1.29294697356E-03 +1.42744942190E-01 -3.85717781527E-01
2.95000000000E+09 -6.64065853454E-02 -3.96720794451E-01 +3.38010733370E-03 +8.52210543119E-04 +3.32568502678E-03 +9.60820956575E-04 +1.03126332744E-01 -3.84144159007E-01
2.95500000000E+09 -9.97718378989E-02 -3.81221932940E-01 +3.53997495666E-03 +3.57513437305E-05 +3.65634680776E-03 +1.69568948404E-04 +6.31575668149E-02 -3.78107293318E-01
2.96000000000E+09 -1.32676707396E-01 -3.62826132496E-01 +3.18835759025E-03 -2.21749319528E-04 +3.30486263904E-03 -2.38209732937E-04 +2.46489660015E-02 -3.68983158983E-01
2.96500000000E+09 -1.64946606914E-01 -3.41589656056E-01 +3.55749836286E-03 -2.91005376525E-04 +3.66089441665E-03 -4.30156221727E-04 -1.52002765988E-02 -3.58406009571E-01
2.97000000000E+09 -1.95422507355E-01 -3.17070029597E-01 +3.86466458058E-03 -1.23825658218E-03 +3.81687751907E-03 -1.38073106811E-03 -5.42667543689E-02 -3.43961089909E-01
2.97500000000E+09 -2.24386987932E-01 -2.91484736613E-01 +3.58072198535E-03 -2.18938349446E-03 +3.39382784347E-03 -2.10151477850E-03 -9.32715045587E-02 -3.28699709311E-01
2.98000000000E+09 -2.52235790101E-01 -2.63696665308E-01 +2.91698474763E-03 -2.63073810796E-03 +2.87957637818E-03 -2.44104778539E-03 -1.31762476710E-01 -3.08707412786E-01
2.98500000000E+09 -2.77399618881E-01 -2.34413412893E-01 +2.63962498182E-03 -2.90760708504E-03 +2.76843855617E-03 -2.80776902039E-03 -1.67423609560E-01 -2.86690669642E-01
2.99000000000E+09 -3.01014277987E-01 -2.05192138518E-01 +2.15005042477E-03 -3.66302632839E-03 +2.32934980217E-03 -3.77445750188E-03 -2.02014747134E-01 -2.62053314982E-01
2.99500000000E+09 -3.24711328134E-01 -1.74683805828E-01 +1.48288374578E-03 -3.84644155279E-03 +1.44850082616E-03 -4.06109007924E-03 -2.35393144953E-01 -2.34403550139E-01
3.00000000000E+09 -3.45592929047E-01 -1.41586679260E-01 +8.05569404504E-04 -4.19549895217E-03 +5.83155550927E-04 -4.24748979379E-03 -2.67120929894E-01 -2.03413130373E-01
3.00500000000E+09 -3.63828057649E-01 -1.08817004440E-01 -1.32448296086E-04 -4.09677477109E-03 -2.53646158528E-04 -3.95397019071E-03 -2.95854824803E-01 -1.70536090709E-01
3.01000000000E+09 -3.80677222392E-01 -7.48186891361E-02 -6.38008295275E-04 -3.73619414601E-03 -6.34832114817E-04 -3.52176680961E-03 -3.22797542782E-01 -1.35739474106E-01
3.01500000000E+09 -3.94101688796E-01 -4.07661961943E-02 -9.97808621788E-04 -3.77942481010E-03 -8.97835134926E-04 -3.78379730398E-03 -3.46478412709E-01 -1.00163330392E-01
3.02000000000E+09 -4.05480968635E-01 -6.16389926590E-03 -1.66034209689E-03 -3.52334224280E-03 -1.59045178476E-03 -3.57134439772E-03 -3.67394632472E-01 -6.36324302506E-02
3.02500000000E+09 -4.13316170826E-01 +2.82307079801E-02 -2.31713993877E-03 -3.48886829196E-03 -2.27045483295E-03 -3.53468019030E-03 -3.85609672169E-01 -2.46776474374E-02
3.03000000000E+09 -4.18377507895E-01 +6.23507066800E-02 -3.05584270256E-03 -2.59042046343E-03 -2.99690390345E-03 -2.61382667440E-03 -3.99429192792E-01 +1.44789114548E-02
3.03500000000E+09 -4.20086728779E-01 +9.54363619029E-02 -3.09510915226E-03 -1.91526754019E-03 -3.03137536147E-03 -2.04467585307E-03 -4.11113300644E-01 +5.35366378747E-02
3.04000000000E+09 -4.20592157774E-01 +1.27406128168E-01 -3.25410497203E-03 -1.41593260304E-03 -3.24592615542E-03 -1.59209355369E-03 -4.20754971041E-01 +9.33350200320E-02
3.04500000000E+09 -4.19183893349E-01 +1.60862345155E-01 -3.18867411087E-03 -8.65670293665E-04 -3.37419429599E-03 -9.33652505176E-04 -4.27256630746E-01 +1.33935511545E-01
3.05000000000E+09 -4.13938474618E-01 +1.94534115564E-01 -3.13402638070E-03 -6.54570135142E-04 -3.34809071330E-03 -5.84502246682E-04 -4.30476054139E-01 +1.73491221121E-01
3.05500000000E+09 -4.06369267373E-01 +2.27362297501E-01 -3.38059710108E-03 -3.21644349524E-05 -3.41577650695E-03 +2.19984944214E-04 -4.31239362937E-01 +2.12111396884E-01
3.06000000000E+09 -3.96910914048E-01 +2.59465041456E-01 -3.08103873749E-03 +4.93792978051E-04 -2.95366161657E-03 +6.44399089351E-04 -4.29641148774E-01 +2.50137892926E-01
3.06500000000E+09 -3.85757276432E-01 +2.90613888371E-01 -2.64442835580E-03 +8.39256555917E-04 -2.46398116954E-03 +8.29545142129E-04 -4.25220491368E-01 +2.87036614636E-01
3.07000000000E+09 -3.74059130028E-01 +3.20512395803E-01 -2.59152257420E-03 +8.88045385736E-04 -2.57393865235E-03 +6.31188237312E-04 -4.19486767244E-01 +3.23008358484E-01
