# Hz S RI R 50
! CMT, C1220, 16058040, 17.2.0/1
! Date: 15/08/2018 10:32:28
! Data: Format (Calibration Info)
! Freq                      S11: Re/Im (F2)                       S21: Re/Im (F2)                       S12: Re/Im (F2)                       S22: Re/Im (F2)            
2.50000000000E+09 +5.79565589849E-01 +6.62628321574E-01 -2.54676056080E-04 +2.18537440418E-04 -2.82344850453E-04 +2.20597103693E-04 +5.64826912946E-01 +7.21866884819E-01
2.50500000000E+09 +5.87034672221E-01 +6.54486766489E-01 -1.27116448395E-04 +1.55637285987E-04 -1.54153534978E-04 +2.37567084993E-04 +5.70434807377E-01 +7.16528955812E-01
2.51000000000E+09 +5.94768349450E-01 +6.45961496244E-01 -1.32273543193E-04 +1.72608332111E-04 -1.36932956757E-04 +1.81045863836E-04 +5.76018853826E-01 +7.11426977302E-01
2.51500000000E+09 +6.02135194116E-01 +6.37882534749E-01 -1.44385482784E-04 +1.17993260671E-04 -1.26503099028E-04 +1.37044879209E-04 +5.81314618439E-01 +7.05951990828E-01
2.52000000000E+09 +6.08816252108E-01 +6.29889621800E-01 -2.24158459667E-04 +1.89719466144E-04 -1.98223639469E-04 +1.58524907890E-04 +5.86539091341E-01 +7.00095742640E-01
2.52500000000E+09 +6.14552068941E-01 +6.22566668008E-01 -1.18440389904E-04 +2.69807225315E-04 -7.88709359781E-05 +2.68134048790E-04 +5.92139989351E-01 +6.93801283891E-01
2.53000000000E+09 +6.19645959645E-01 +6.15327493287E-01 -1.02793083873E-04 +2.14758458558E-04 -1.00061651018E-04 +2.24519655963E-04 +5.98292265562E-01 +6.87006402742E-01
2.53500000000E+09 +6.24048818242E-01 +6.08656120644E-01 -5.51615544453E-05 +2.63712260043E-04 -4.58763977227E-05 +2.63743832097E-04 +6.04247061317E-01 +6.80452576537E-01
2.54000000000E+09 +6.28296748653E-01 +6.01776572647E-01 -2.36104607548E-05 +2.45284215444E-04 -9.18856496717E-05 +2.02395879528E-04 +6.10324545989E-01 +6.73958512285E-01
2.54500000000E+09 +6.32676815864E-01 +5.94553279638E-01 -1.08422992161E-04 +2.82245866327E-04 -8.75087748898E-05 +2.49935512264E-04 +6.16120609451E-01 +6.67731738459E-01
2.55000000000E+09 +6.37526124151E-01 +5.87174591242E-01 -4.84760982412E-05 +3.60461093587E-04 -1.19336474442E-04 +3.58333160616E-04 +6.21550492366E-01 +6.61484987046E-01
2.55500000000E+09 +6.42931261458E-01 +5.78913363138E-01 +7.52950202384E-05 +4.40445629401E-04 +6.92648599644E-05 +5.05519897723E-04 +6.26573449011E-01 +6.54894219197E-01
2.56000000000E+09 +6.49277409844E-01 +5.70955769285E-01 +2.06994254371E-04 +3.25914653922E-04 +2.53523035561E-04 +3.06320325656E-04 +6.31729687667E-01 +6.47768266248E-01
2.56500000000E+09 +6.56263498884E-01 +5.62261125720E-01 +1.76268412788E-04 +2.01980270191E-04 +2.28008545809E-04 +2.28875911555E-04 +6.36995303938E-01 +6.40398852270E-01
2.57000000000E+09 +6.63363214978E-01 +5.53526460344E-01 +8.17463622757E-05 +1.93552770232E-04 +1.10447113291E-04 +1.77638650683E-04 +6.42275817714E-01 +6.32642051986E-01
2.57500000000E+09 +6.70051430807E-01 +5.44789646895E-01 +1.62049306143E-04 +3.20939972858E-04 +1.71314923156E-04 +2.53767729589E-04 +6.47787107169E-01 +6.25064477376E-01
2.58000000000E+09 +6.75874317863E-01 +5.36450377294E-01 +2.18433455083E-04 +3.20337302413E-04 +2.05135531692E-04 +2.67825307799E-04 +6.52901443405E-01 +6.17426842772E-01
2.58500000000E+09 +6.81054166064E-01 +5.28576864416E-01 +2.73973551546E-04 +2.26944566827E-04 +2.37629126692E-04 +1.99959492121E-04 +6.57644827242E-01 +6.09860195720E-01
2.59000000000E+09 +6.85744245303E-01 +5.20960921571E-01 +3.15151717858E-04 +2.16132684424E-04 +2.49065674784E-04 +2.63291805201E-04 +6.62586746075E-01 +6.02531147190E-01
2.59500000000E+09 +6.90141235139E-01 +5.13083328983E-01 +3.35746364791E-04 +2.48985597436E-04 +3.19360114156E-04 +2.82576764725E-04 +6.67488113348E-01 +5.94475056331E-01
2.60000000000E+09 +6.93918398846E-01 +5.04407540664E-01 +3.34836918607E-04 +2.26332293237E-04 +4.12082558822E-04 +2.03471869531E-04 +6.72424155627E-01 +5.86455934562E-01
2.60500000000E+09 +6.97920857075E-01 +4.94838994035E-01 +4.56576930018E-04 +1.86403552893E-04 +4.47104663064E-04 +1.52259391019E-04 +6.77831004424E-01 +5.77890051724E-01
2.61000000000E+09 +7.01943916870E-01 +4.84040506351E-01 +5.50685309335E-04 -5.79437616886E-06 +5.61016592517E-04 +2.58485428423E-05 +6.83150092109E-01 +5.69332024688E-01
2.61500000000E+09 +7.07052047353E-01 +4.73166202828E-01 +4.76388254563E-04 -1.53010034733E-04 +5.00709916990E-04 -1.67863652987E-04 +6.88122478964E-01 +5.60808809285E-01
2.62000000000E+09 +7.11696798572E-01 +4.60038257421E-01 +3.10253940202E-04 -1.75809987066E-04 +3.23482981908E-04 -2.04305387653E-04 +6.93046721764E-01 +5.51820953581E-01
2.62500000000E+09 +7.16726057080E-01 +4.46281212108E-01 +2.46257996168E-04 -5.14491883214E-05 +2.59206930556E-04 -1.16881747957E-04 +6.97713383911E-01 +5.43083726566E-01
2.63000000000E+09 +7.21017280052E-01 +4.32487876821E-01 +3.39910339021E-04 +1.78533782200E-05 +3.41799469457E-04 -1.90597557234E-05 +7.02448797766E-01 +5.34128403136E-01
2.63500000000E+09 +7.24751490603E-01 +4.19105925236E-01 +4.69611622478E-04 -1.67382662407E-04 +4.30530264051E-04 -1.39721665639E-04 +7.07245426786E-01 +5.25040158614E-01
2.64000000000E+09 +7.28232104460E-01 +4.06767232790E-01 +3.89335677596E-04 -2.48815882529E-04 +3.04044717978E-04 -2.50509161637E-04 +7.12073642915E-01 +5.15550938225E-01
2.64500000000E+09 +7.31470451897E-01 +3.95207489006E-01 +3.24739143586E-04 -2.89149159417E-04 +2.97675904838E-04 -2.92719074243E-04 +7.16831342785E-01 +5.05762917721E-01
2.65000000000E+09 +7.34121882334E-01 +3.84339550613E-01 +3.42064298153E-04 -3.13814864396E-04 +3.26320427994E-04 -1.79507674222E-04 +7.21065079162E-01 +4.95622197534E-01
2.65500000000E+09 +7.37023571740E-01 +3.73370347993E-01 +3.73416066904E-04 -3.01732026931E-04 +3.92504341983E-04 -3.10328868159E-04 +7.25145851747E-01 +4.85137387769E-01
2.66000000000E+09 +7.39681278109E-01 +3.62170507268E-01 +3.17736062867E-04 -4.03271257370E-04 +3.94945219492E-04 -4.56921826469E-04 +7.29175991611E-01 +4.73982934920E-01
2.66500000000E+09 +7.42194354056E-01 +3.50894135964E-01 +2.10568360798E-04 -5.34773978463E-04 +1.67793367744E-04 -6.11874455534E-04 +7.33486188796E-01 +4.63095847140E-01
2.67000000000E+09 +7.44984008703E-01 +3.38280247120E-01 +1.54994691440E-04 -4.82864487546E-04 +8.28064418849E-05 -4.58614122131E-04 +7.37990592190E-01 +4.51994463307E-01
2.67500000000E+09 +7.47569940900E-01 +3.24552444703E-01 +1.30470029166E-04 -4.70932140059E-04 +1.26843442700E-04 -4.95208681196E-04 +7.42125533191E-01 +4.40922071006E-01
2.68000000000E+09 +7.49683012982E-01 +3.10096090149E-01 +1.77728116412E-04 -5.58450769130E-04 +1.60188797595E-04 -4.75299071840E-04 +7.46052465047E-01 +4.29965518120E-01
2.68500000000E+09 +7.51337807558E-01 +2.95635046489E-01 +1.23655257484E-06 -7.48586563979E-04 +4.57663947810E-05 -7.92134362506E-04 +7.49506638161E-01 +4.18219746322E-01
2.69000000000E+09 +7.52812254385E-01 +2.81404343469E-01 -2.78558635798E-04 -6.78757893426E-04 -2.42400041470E-04 -6.27138634795E-04 +7.52027139674E-01 +4.06140938014E-01
2.69500000000E+09 +7.54360597423E-01 +2.67838638161E-01 -1.94648815008E-04 -4.66452265270E-04 -2.03630287603E-04 -5.22005733637E-04 +7.54749178515E-01 +3.93566408524E-01
2.70000000000E+09 +7.56015824840E-01 +2.54196100332E-01 -3.38579085480E-04 -5.95150308049E-04 -2.90428731604E-04 -5.71057442807E-04 +7.57482029752E-01 +3.80549869890E-01
2.70500000000E+09 +7.57294850691E-01 +2.41154351604E-01 -4.44821147788E-04 -5.51316009081E-04 -3.48097150549E-04 -5.64726964014E-04 +7.60520014467E-01 +3.67181400998E-01
2.71000000000E+09 +7.58376752313E-01 +2.28213794861E-01 -5.43784208931E-04 -5.19295461321E-04 -5.15579228186E-04 -5.73983016784E-04 +7.63276769485E-01 +3.54103370795E-01
2.71500000000E+09 +7.59650980487E-01 +2.14776040164E-01 -5.76427482293E-04 -3.92194107267E-04 -6.51594313558E-04 -4.19697206652E-04 +7.65698089174E-01 +3.41392420427E-01
2.72000000000E+09 +7.60727162215E-01 +2.00580193838E-01 -6.80671082392E-04 -3.55178896998E-04 -7.69706707840E-04 -3.75708576423E-04 +7.67492280596E-01 +3.28455340514E-01
2.72500000000E+09 +7.61460163596E-01 +1.85202535861E-01 -8.10629443226E-04 -1.76566701889E-04 -8.19026666027E-04 -6.29963565730E-05 +7.68261926554E-01 +3.15165025141E-01
2.73000000000E+09 +7.61154310942E-01 +1.68457875555E-01 -8.43903737642E-04 -6.74878699117E-05 -7.47119347097E-04 +5.61757747839E-05 +7.69261756441E-01 +3.01442590392E-01
2.73500000000E+09 +7.59615784325E-01 +1.50596195886E-01 -8.76773485417E-04 +2.63978350724E-04 -7.89999646935E-04 +2.39900596301E-04 +7.70311855085E-01 +2.87128967702E-01
2.74000000000E+09 +7.57008082402E-01 +1.32810878023E-01 -6.32194306198E-04 +4.97334409299E-04 -6.40633680874E-04 +4.17231567061E-04 +7.71967866646E-01 +2.72269729307E-01
2.74500000000E+09 +7.53809863216E-01 +1.15130820409E-01 -5.02321662508E-04 +4.82137379008E-04 -5.32262531244E-04 +4.23678537620E-04 +7.73378380258E-01 +2.57162205659E-01
2.75000000000E+09 +7.49969724153E-01 +9.74440022318E-02 -3.18046513774E-04 +5.10583346936E-04 -3.94796502120E-04 +5.66541100364E-04 +7.74180999624E-01 +2.41818210325E-01
2.75500000000E+09 +7.45683367717E-01 +8.01214333175E-02 -2.82081020506E-04 +4.38996394782E-04 -3.33007128511E-04 +4.25573743164E-04 +7.73846023954E-01 +2.26952394930E-01
2.76000000000E+09 +7.41620927295E-01 +6.28439115559E-02 -2.47991014960E-04 +5.89657169831E-04 -3.33624359149E-04 +6.27018190551E-04 +7.73897989005E-01 +2.11905351437E-01
2.76500000000E+09 +7.37217923302E-01 +4.54929239248E-02 -1.63297012593E-04 +6.01527284258E-04 -1.73736490439E-04 +6.40664112024E-04 +7.73037070180E-01 +1.95075876277E-01
2.77000000000E+09 +7.32871208181E-01 +2.73316161952E-02 -1.01944409338E-05 +7.32841114160E-04 +3.36084947407E-05 +7.95057102013E-04 +7.71678115098E-01 +1.78020750965E-01
2.77500000000E+09 +7.28427152199E-01 +8.36454742637E-03 +2.48906020575E-04 +6.70015675428E-04 +2.94626500485E-04 +6.80239099645E-04 +7.70274865874E-01 +1.60148849365E-01
2.78000000000E+09 +7.23815189489E-01 -1.20517773176E-02 +5.22066092753E-04 +5.18042925294E-04 +5.27017279401E-04 +5.55852105138E-04 +7.68515169426E-01 +1.42274401705E-01
2.78500000000E+09 +7.17911132085E-01 -3.36116292272E-02 +6.98691595760E-04 +2.93457554818E-04 +7.20353344491E-04 +2.15294306031E-04 +7.65801976780E-01 +1.24343230959E-01
2.79000000000E+09 +7.11104389997E-01 -5.56861586104E-02 +5.58947573827E-04 -8.80820451059E-05 +4.50856579410E-04 -1.50970124688E-04 +7.62533277780E-01 +1.07146324635E-01
2.79500000000E+09 +7.03509997099E-01 -7.76175844720E-02 +4.71766869565E-04 -1.96877063750E-05 +4.39733834096E-04 -2.25284846243E-05 +7.58128736583E-01 +8.92293262898E-02
2.80000000000E+09 +6.94791333479E-01 -9.89943907742E-02 +4.01361625992E-04 -2.21494264436E-04 +3.67542480933E-04 -2.16929221275E-04 +7.53146955268E-01 +7.10306934931E-02
2.80500000000E+09 +6.85481831565E-01 -1.19316378802E-01 +2.01071952794E-04 -1.29575517526E-04 +2.27505955907E-04 -1.09559523543E-04 +7.47237764464E-01 +5.22932186008E-02
2.81000000000E+09 +6.75741333875E-01 -1.38033572694E-01 +3.69718435527E-04 -1.97472591585E-04 +4.03557538843E-04 -1.96413722436E-04 +7.40772056056E-01 +3.33658812652E-02
2.81500000000E+09 +6.65688554594E-01 -1.55990552827E-01 +3.05684784051E-04 -3.80028123825E-04 +3.00861532737E-04 -3.92339432973E-04 +7.34183960751E-01 +1.37876825303E-02
2.82000000000E+09 +6.54534575212E-01 -1.73422022942E-01 +1.67465332063E-04 -4.73648305897E-04 +1.60578542247E-04 -4.36252607837E-04 +7.26537129221E-01 -5.65522109553E-03
2.82500000000E+09 +6.42229930937E-01 -1.90527024803E-01 +1.63250993731E-04 -5.36547484849E-04 +1.94931713763E-04 -4.58537212491E-04 +7.18364167858E-01 -2.48094614622E-02
2.83000000000E+09 +6.28519877256E-01 -2.08350481640E-01 +1.22647400954E-04 -8.83028959814E-04 +1.54102620983E-04 -7.98208320111E-04 +7.09545514878E-01 -4.48319934359E-02
2.83500000000E+09 +6.12734760295E-01 -2.26690423698E-01 -4.76521025429E-04 -9.47391700076E-04 -4.07511996124E-04 -9.35899642192E-04 +6.99405036228E-01 -6.48248278048E-02
2.84000000000E+09 +5.95181234904E-01 -2.45736523116E-01 -8.20962912679E-04 -5.81848402971E-04 -7.33410446895E-04 -6.02997075572E-04 +6.88289113779E-01 -8.54352241917E-02
2.84500000000E+09 +5.75152218867E-01 -2.65858869953E-01 -8.25643652508E-04 -1.88900551397E-04 -7.81834631938E-04 -2.83858238657E-04 +6.76105463572E-01 -1.05784373466E-01
2.85000000000E+09 +5.53580274092E-01 -2.85746073941E-01 -6.77026507012E-04 -1.61499378032E-04 -7.82574404933E-04 -2.34857956299E-04 +6.62505461839E-01 -1.26555546855E-01
2.85500000000E+09 +5.30159338492E-01 -3.06127553139E-01 -8.42343597423E-04 -1.69664184226E-05 -8.52297650509E-04 +2.53060447442E-05 +6.47590270537E-01 -1.46574323781E-01
2.86000000000E+09 +5.05816090161E-01 -3.24952275220E-01 -5.18747352969E-04 +7.83450273619E-05 -5.20610960964E-04 +1.01481590526E-04 +6.31973825481E-01 -1.66808591584E-01
2.86500000000E+09 +4.81281235676E-01 -3.42692393703E-01 -6.41175731440E-04 -2.05873986838E-04 -6.17418443629E-04 -2.09595165323E-04 +6.14578039746E-01 -1.87379288805E-01
2.87000000000E+09 +4.56673252202E-01 -3.59036477078E-01 -1.16894017574E-03 -1.84085205518E-04 -1.15661900848E-03 -1.69939254623E-04 +5.95394682840E-01 -2.07531280774E-01
2.87500000000E+09 +4.32404873142E-01 -3.74338638519E-01 -1.34258424441E-03 +2.28260230112E-04 -1.30615587349E-03 +2.58701626031E-04 +5.75183102399E-01 -2.26208317361E-01
2.88000000000E+09 +4.07123116041E-01 -3.88906039528E-01 -1.57867085371E-03 +6.92315479455E-04 -1.58857475920E-03 +6.93391002178E-04 +5.54370832116E-01 -2.45277152783E-01
2.88500000000E+09 +3.80460108303E-01 -4.02096269078E-01 -1.24531338446E-03 +1.68076986230E-03 -1.25376285185E-03 +1.62494272956E-03 +5.31453547419E-01 -2.63840888860E-01
2.89000000000E+09 +3.52314852312E-01 -4.13949596824E-01 -3.68268654348E-04 +1.64295032545E-03 -4.58079080744E-04 +1.55507691531E-03 +5.06405870709E-01 -2.81495222185E-01
2.89500000000E+09 +3.21790054027E-01 -4.24679945566E-01 -2.15329005990E-04 +1.30678493159E-03 -2.59997460766E-04 +1.22785424399E-03 +4.79992437203E-01 -2.98455967815E-01
2.90000000000E+09 +2.89029695715E-01 -4.33774358963E-01 -2.23558385209E-04 +1.40540513835E-03 -2.35466476042E-04 +1.45688220702E-03 +4.52059012688E-01 -3.14601606879E-01
2.90500000000E+09 +2.53875804073E-01 -4.40900244908E-01 -6.14444948300E-05 +1.25452992661E-03 -4.80208210266E-05 +1.28216135489E-03 +4.22456604898E-01 -3.29975086164E-01
2.91000000000E+09 +2.17743673837E-01 -4.45741673947E-01 -1.90418861578E-04 +1.52766703037E-03 -1.26533181613E-04 +1.54294975040E-03 +3.92084061585E-01 -3.42835318290E-01
2.91500000000E+09 +1.80629111978E-01 -4.49124523822E-01 +3.04873970010E-04 +1.66507997869E-03 +3.80613836821E-04 +1.58448069346E-03 +3.61540660672E-01 -3.55025320189E-01
2.92000000000E+09 +1.43274901099E-01 -4.49798513783E-01 +2.47014879190E-04 +1.73291483173E-03 +2.32909178845E-04 +1.57852749443E-03 +3.28678546853E-01 -3.65969576641E-01
2.92500000000E+09 +1.06365065589E-01 -4.49250080925E-01 +7.42942237439E-04 +2.21607751912E-03 +5.71271766955E-04 +2.12794472365E-03 +2.93428129369E-01 -3.74057538303E-01
2.93000000000E+09 +6.95426588759E-02 -4.46733158920E-01 +1.57867596071E-03 +2.01017397011E-03 +1.39054285595E-03 +2.03514623950E-03 +2.56415572598E-01 -3.80212801629E-01
2.93500000000E+09 +3.29270890280E-02 -4.41870096556E-01 +1.88275724641E-03 +1.64139930206E-03 +1.80559483204E-03 +1.68093239122E-03 +2.18536399279E-01 -3.83380322666E-01
2.94000000000E+09 -3.02360909645E-03 -4.34624381201E-01 +2.31863830096E-03 +1.04999223856E-03 +2.26498354464E-03 +1.14721228896E-03 +1.81058939526E-01 -3.85045793227E-01
2.94500000000E+09 -3.91007826968E-02 -4.25093093028E-01 +1.97736657148E-03 +8.75539985951E-04 +1.93242047897E-03 +8.88216455138E-04 +1.43163120641E-01 -3.85911799849E-01
2.95000000000E+09 -7.49367883911E-02 -4.11818543507E-01 +2.34110279483E-03 +8.13809485568E-04 +2.36443873085E-03 +8.60485304565E-04 +1.03884849360E-01 -3.84523979266E-01
2.95500000000E+09 -1.10120746269E-01 -3.95515992079E-01 +2.67276346732E-03 +3.78480545676E-04 +2.76342444633E-03 +5.18466008615E-04 +6.40131844893E-02 -3.78743547332E-01
2.96000000000E+09 -1.44422416659E-01 -3.76422288118E-01 +2.87252763660E-03 -1.08819017599E-04 +2.98441086671E-03 -3.37581053977E-06 +2.53138380635E-02 -3.70232330582E-01
2.96500000000E+09 -1.78510957184E-01 -3.53982428842E-01 +2.93558040735E-03 -5.99111343532E-04 +3.07758808186E-03 -6.58565043138E-04 -1.49139405825E-02 -3.59818720574E-01
2.97000000000E+09 -2.10130737074E-01 -3.28253121220E-01 +3.08663986296E-03 -1.14819752773E-03 +2.98428824677E-03 -1.22741809779E-03 -5.41876491552E-02 -3.45156475149E-01
2.97500000000E+09 -2.39927365698E-01 -3.01303592694E-01 +3.06319419994E-03 -1.82113471315E-03 +2.90676050643E-03 -1.79814263119E-03 -9.33783489858E-02 -3.29617721808E-01
2.98000000000E+09 -2.68932493007E-01 -2.72529148025E-01 +2.63892696355E-03 -2.67526435040E-03 +2.66572778779E-03 -2.51184318383E-03 -1.31436862541E-01 -3.09869354542E-01
2.98500000000E+09 -2.95606948548E-01 -2.41502620500E-01 +1.71759273238E-03 -3.26663750495E-03 +1.86051685160E-03 -3.22248494136E-03 -1.67583325391E-01 -2.88095534150E-01
2.99000000000E+09 -3.20163946557E-01 -2.09428593834E-01 +8.18969145316E-04 -3.15694428579E-03 +8.80582972537E-04 -3.31323734602E-03 -2.02694824178E-01 -2.63547644096E-01
2.99500000000E+09 -3.42786425265E-01 -1.76668649705E-01 +7.70429077581E-04 -2.67475485711E-03 +7.49679302718E-04 -2.76838429106E-03 -2.36296984267E-01 -2.35848462792E-01
3.00000000000E+09 -3.63846381183E-01 -1.42816000524E-01 +7.70837195938E-04 -3.41543667573E-03 +5.94314051853E-04 -3.46687003809E-03 -2.68637739028E-01 -2.04304127019E-01
3.00500000000E+09 -3.82757779113E-01 -1.07752973566E-01 -2.23453082206E-04 -3.87522288777E-03 -3.15577064632E-04 -3.72206125492E-03 -2.97302147962E-01 -1.70577681869E-01
3.01000000000E+09 -3.98903164167E-01 -7.18269850026E-02 -1.15889348175E-03 -3.69359855712E-03 -1.10333492811E-03 -3.55439588307E-03 -3.23676100993E-01 -1.35593980584E-01
3.01500000000E+09 -4.12057997540E-01 -3.56609806167E-02 -1.90331388689E-03 -3.09900563304E-03 -1.75209632429E-03 -3.11105967215E-03 -3.46974596736E-01 -1.00045166080E-01
3.02000000000E+09 -4.21709875268E-01 +6.75319584436E-04 -2.21024087773E-03 -2.59484531251E-03 -2.18679766198E-03 -2.64364998617E-03 -3.67949524719E-01 -6.37049514369E-02
3.02500000000E+09 -4.28472806752E-01 +3.56131240297E-02 -2.35632695872E-03 -2.20653456902E-03 -2.41909852124E-03 -2.18397870269E-03 -3.86030452961E-01 -2.46660017845E-02
3.03000000000E+09 -4.32964294114E-01 +7.05389141519E-02 -2.73577909509E-03 -1.81281458928E-03 -2.65380871291E-03 -1.79672243663E-03 -3.99836486706E-01 +1.41012945046E-02
3.03500000000E+09 -4.34425387081E-01 +1.05206335805E-01 -3.01029697684E-03 -1.19194523437E-03 -2.98925968871E-03 -1.29650934736E-03 -4.12212750563E-01 +5.34474959177E-02
3.04000000000E+09 -4.33157015761E-01 +1.39042994276E-01 -2.88996875201E-03 -6.24433476252E-04 -2.90526187574E-03 -8.03296446688E-04 -4.21343761152E-01 +9.37864758976E-02
3.04500000000E+09 -4.29869052054E-01 +1.73221136369E-01 -2.81067351315E-03 -3.73426783079E-04 -2.98311867492E-03 -4.34370139177E-04 -4.27590986282E-01 +1.34146252373E-01
3.05000000000E+09 -4.23113128776E-01 +2.07092020044E-01 -2.80800595441E-03 -1.66652548225E-04 -2.99831065336E-03 +1.86896121325E-05 -4.30966320020E-01 +1.73668082596E-01
3.05500000000E+09 -4.14799164611E-01 +2.40225428989E-01 -2.83825679500E-03 +2.99297673128E-04 -2.85886791452E-03 +6.13799443772E-04 -4.31602681660E-01 +2.12251335551E-01
3.06000000000E+09 -4.04292671707E-01 +2.72981249980E-01 -2.94153381435E-03 +7.76470465570E-04 -2.79102513528E-03 +9.14425586277E-04 -4.30135402250E-01 +2.50019754165E-01
3.06500000000E+09 -3.92269740438E-01 +3.05062842353E-01 -2.50593613861E-03 +1.55868633396E-03 -2.34682069643E-03 +1.49252457214E-03 -4.26207417769E-01 +2.87408240664E-01
3.07000000000E+09 -3.78563905935E-01 +3.35397009050E-01 -1.84462224191E-03 +1.68280943033E-03 -1.82512833837E-03 +1.52252930640E-03 -4.20188753574E-01 +3.23834158668E-01
