# Hz S RI R 50
! CMT, C1220, 16058040, 17.2.0/1
! Date: 15/08/2018 10:32:39
! Data: Format (Calibration Info)
! Freq                      S11: Re/Im (F2)                       S21: Re/Im (F2)                       S12: Re/Im (F2)                       S22: Re/Im (F2)            
2.50000000000E+09 +5.79471203380E-01 +6.64704376133E-01 -2.43530138786E-04 +2.04423150150E-04 -2.89925481409E-04 +2.31729465013E-04 +5.65097172222E-01 +7.22002527309E-01
2.50500000000E+09 +5.86856232982E-01 +6.56672188899E-01 -1.61564575518E-04 +1.69802185217E-04 -1.81979270323E-04 +2.14882116608E-04 +5.70587058875E-01 +7.16474338841E-01
2.51000000000E+09 +5.94497472345E-01 +6.48152099834E-01 -1.42429322283E-04 +2.21749559361E-04 -1.43747877288E-04 +2.07738705613E-04 +5.76199308862E-01 +7.11333026619E-01
2.51500000000E+09 +6.01862354088E-01 +6.40048819154E-01 -8.64896038881E-05 +1.51863288158E-04 -1.10201437533E-04 +1.83312816541E-04 +5.81378596588E-01 +7.05900548589E-01
2.52000000000E+09 +6.08507148272E-01 +6.32130469258E-01 -1.54926180090E-04 +2.37905034149E-04 -1.74084291907E-04 +1.99299791882E-04 +5.86544608475E-01 +6.99927626703E-01
2.52500000000E+09 +6.14325270039E-01 +6.24689106297E-01 -8.48736255260E-05 +2.40790602866E-04 -7.01347416264E-05 +2.78261984326E-04 +5.92197472601E-01 +6.93656923544E-01
2.53000000000E+09 +6.19547031123E-01 +6.17533852523E-01 -2.23991660604E-05 +1.71921312661E-04 -3.96245292672E-06 +1.77619556696E-04 +5.98246957410E-01 +6.86759900818E-01
2.53500000000E+09 +6.24074245925E-01 +6.10648737925E-01 -5.48524306640E-05 +2.20736912709E-04 -4.30182282896E-05 +2.14495249571E-04 +6.04155261453E-01 +6.80226399889E-01
2.54000000000E+09 +6.28487106999E-01 +6.03698497083E-01 -2.24161922188E-05 +1.49284243670E-04 -7.75084557790E-05 +1.52840137210E-04 +6.10325350819E-01 +6.73806653150E-01
2.54500000000E+09 +6.33052952322E-01 +5.96518048232E-01 -1.57764015467E-04 +2.00936965664E-04 -1.57182188407E-04 +2.40976117517E-04 +6.16129772217E-01 +6.67690083405E-01
2.55000000000E+09 +6.37957055249E-01 +5.89027864301E-01 -1.04985959578E-04 +3.88294074684E-04 -1.48782207796E-04 +3.60313760955E-04 +6.21567185331E-01 +6.61508981973E-01
2.55500000000E+09 +6.43328110040E-01 +5.80893785364E-01 +2.36382155123E-05 +4.41024326137E-04 +3.03654980157E-05 +4.97678563973E-04 +6.26585038648E-01 +6.54870855475E-01
2.56000000000E+09 +6.49651918893E-01 +5.72948659778E-01 +1.97267158934E-04 +3.17061257822E-04 +2.64541544240E-04 +3.55196756462E-04 +6.31526422882E-01 +6.47764849604E-01
2.56500000000E+09 +6.56477808757E-01 +5.64475762954E-01 +1.32143625270E-04 +2.28672366014E-04 +2.52759341442E-04 +2.36454453895E-04 +6.36845599598E-01 +6.40332021516E-01
2.57000000000E+09 +6.63371574867E-01 +5.55737224663E-01 +1.09686189222E-04 +1.47573792634E-04 +1.19423001297E-04 +1.47042661692E-04 +6.42100313231E-01 +6.32592642070E-01
2.57500000000E+09 +6.70013983181E-01 +5.47185921619E-01 +7.24707614559E-05 +2.97843876164E-04 +1.28388964290E-04 +2.52537366683E-04 +6.47779469046E-01 +6.25002091474E-01
2.58000000000E+09 +6.75681837050E-01 +5.39080821519E-01 +2.11342857841E-04 +3.39538395229E-04 +1.90887419856E-04 +2.46477477053E-04 +6.52862277216E-01 +6.17260275131E-01
2.58500000000E+09 +6.81033096228E-01 +5.31303640375E-01 +2.22579004743E-04 +2.53267160194E-04 +1.94231441586E-04 +2.20916963112E-04 +6.57761607921E-01 +6.09719577633E-01
2.59000000000E+09 +6.86006766061E-01 +5.23731326303E-01 +2.67246810588E-04 +2.22812636521E-04 +2.12854037704E-04 +2.25864211548E-04 +6.62438510801E-01 +6.02390280557E-01
2.59500000000E+09 +6.90456907879E-01 +5.15558508344E-01 +2.83398925931E-04 +2.28459951472E-04 +2.83184270954E-04 +2.15681791927E-04 +6.67272670161E-01 +5.94406029505E-01
2.60000000000E+09 +6.94496397617E-01 +5.06935461223E-01 +3.52666004338E-04 +1.97134098641E-04 +3.76940439970E-04 +2.07455980577E-04 +6.72302544487E-01 +5.86294149980E-01
2.60500000000E+09 +6.98598331038E-01 +4.97295195735E-01 +4.29388137699E-04 +1.35113365106E-04 +4.17822207646E-04 +9.48357996986E-05 +6.77704944088E-01 +5.77732330806E-01
2.61000000000E+09 +7.02769142670E-01 +4.86414064845E-01 +4.66861577398E-04 +8.77174294976E-05 +4.87670027978E-04 +8.66290882628E-05 +6.82820047877E-01 +5.69133502293E-01
2.61500000000E+09 +7.07440184224E-01 +4.74569190982E-01 +4.78645519471E-04 -1.59945846992E-04 +4.74219672322E-04 -1.10484149156E-04 +6.87883070935E-01 +5.60654616802E-01
2.62000000000E+09 +7.12289199866E-01 +4.61503661626E-01 +3.28494247657E-04 -1.85689204391E-04 +3.77960274908E-04 -1.66095611779E-04 +6.92862703860E-01 +5.51714323114E-01
2.62500000000E+09 +7.16987045606E-01 +4.47574278600E-01 +2.34996849175E-04 -3.79220122385E-05 +2.13949307835E-04 -7.51345511679E-05 +6.97466162342E-01 +5.42914511741E-01
2.63000000000E+09 +7.21153481204E-01 +4.33799138192E-01 +3.62079359294E-04 +1.93008623637E-05 +3.11353000482E-04 -3.66344926255E-05 +7.02061075023E-01 +5.34075198822E-01
2.63500000000E+09 +7.24940529280E-01 +4.20437132986E-01 +4.68286920495E-04 -1.63220664493E-04 +4.05140303089E-04 -1.64886920709E-04 +7.06789010044E-01 +5.25051919165E-01
2.64000000000E+09 +7.28360409735E-01 +4.07915478100E-01 +4.08997711369E-04 -2.39458936753E-04 +3.55653109557E-04 -1.95246383915E-04 +7.11613911931E-01 +5.15611270526E-01
2.64500000000E+09 +7.31653417722E-01 +3.96320235944E-01 +3.55884559891E-04 -2.95045793234E-04 +3.15814394181E-04 -2.30017772813E-04 +7.16365505300E-01 +5.05923004126E-01
2.65000000000E+09 +7.34369218118E-01 +3.85498823849E-01 +3.18166188322E-04 -2.47849633353E-04 +3.47394866672E-04 -2.12972792958E-04 +7.20755646468E-01 +4.95782150758E-01
2.65500000000E+09 +7.37139517332E-01 +3.74589432553E-01 +3.47169215762E-04 -3.24805415626E-04 +4.04550717191E-04 -2.72021546716E-04 +7.24833438154E-01 +4.85291697846E-01
2.66000000000E+09 +7.39806808589E-01 +3.63500788825E-01 +3.67998776057E-04 -4.25562791501E-04 +3.83257475896E-04 -4.57752766174E-04 +7.28937031874E-01 +4.74198357106E-01
2.66500000000E+09 +7.42758941669E-01 +3.52351349841E-01 +2.60656898486E-04 -5.46804195856E-04 +2.11642956107E-04 -5.64276979019E-04 +7.33180981780E-01 +4.63171656239E-01
2.67000000000E+09 +7.45693404221E-01 +3.39738703442E-01 +1.93224199891E-04 -5.12859961794E-04 +9.24223114181E-05 -5.11321703948E-04 +7.37875656637E-01 +4.52191394976E-01
2.67500000000E+09 +7.48246883227E-01 +3.25930119852E-01 +2.10479032973E-04 -4.92635468332E-04 +7.20224668397E-05 -4.56295881498E-04 +7.41773659375E-01 +4.41101607255E-01
2.68000000000E+09 +7.50205808685E-01 +3.11613251276E-01 +6.50689988183E-05 -6.44905494742E-04 +1.06950214177E-04 -5.91082851059E-04 +7.45703381790E-01 +4.30206044352E-01
2.68500000000E+09 +7.51951933048E-01 +2.97019775427E-01 +8.79206678574E-09 -7.86451226008E-04 -1.49632391743E-05 -7.85427958974E-04 +7.49159731074E-01 +4.18508348469E-01
2.69000000000E+09 +7.53414421860E-01 +2.82593566579E-01 -3.40122142669E-04 -6.87431051355E-04 -3.16026801512E-04 -6.80307094112E-04 +7.51624442301E-01 +4.06400840687E-01
2.69500000000E+09 +7.54936255606E-01 +2.68849160261E-01 -3.32852394895E-04 -5.50701039331E-04 -3.42436389331E-04 -5.17407076377E-04 +7.54390815995E-01 +3.93851904986E-01
2.70000000000E+09 +7.56348464622E-01 +2.55045990270E-01 -4.93365379957E-04 -5.36894989694E-04 -4.35627729108E-04 -5.17879792326E-04 +7.57146020339E-01 +3.80746937885E-01
2.70500000000E+09 +7.57475939972E-01 +2.41657780870E-01 -4.32447429079E-04 -3.79540156139E-04 -4.46360246651E-04 -3.88561254661E-04 +7.60224806101E-01 +3.67491975944E-01
2.71000000000E+09 +7.58476968374E-01 +2.28539015746E-01 -5.25545677088E-04 -3.79888747243E-04 -4.77269936023E-04 -3.94956737396E-04 +7.62791674207E-01 +3.54475440482E-01
2.71500000000E+09 +7.59736993837E-01 +2.15002708487E-01 -5.87222793497E-04 -3.20497019554E-04 -5.82950469540E-04 -3.14145643065E-04 +7.65414557353E-01 +3.42084453985E-01
2.72000000000E+09 +7.60689260524E-01 +2.00817103746E-01 -7.09177387325E-04 -2.54631526231E-04 -7.76675700518E-04 -2.43779212112E-04 +7.67216258353E-01 +3.29247568500E-01
2.72500000000E+09 +7.61320172761E-01 +1.85742531368E-01 -7.70505819875E-04 -2.59834588938E-05 -7.47736782671E-04 +3.42411622824E-05 +7.68161124456E-01 +3.15976092558E-01
2.73000000000E+09 +7.61048853598E-01 +1.69233735546E-01 -7.39604821100E-04 +1.45879309808E-04 -6.66455586791E-04 +1.77686865837E-04 +7.69293732017E-01 +3.02272026096E-01
2.73500000000E+09 +7.59623970010E-01 +1.51687151479E-01 -6.77852180727E-04 +3.22305136707E-04 -6.12711988199E-04 +3.05826310521E-04 +7.70381069960E-01 +2.87926139736E-01
2.74000000000E+09 +7.56942778651E-01 +1.34237693182E-01 -5.00847767821E-04 +4.48356523222E-04 -4.58637014234E-04 +4.13391909044E-04 +7.72359651409E-01 +2.72993149776E-01
2.74500000000E+09 +7.53747214416E-01 +1.16726256079E-01 -3.26055315879E-04 +4.98904356085E-04 -3.02228660978E-04 +3.86086095699E-04 +7.73693166888E-01 +2.57717595286E-01
2.75000000000E+09 +7.50033062921E-01 +9.89128506563E-02 -7.58314805454E-05 +4.98907626308E-04 -1.86166007700E-04 +4.33146223159E-04 +7.74653092277E-01 +2.42540640907E-01
2.75500000000E+09 +7.45564176280E-01 +8.14871272816E-02 -1.11043933065E-04 +2.23051250671E-04 -1.38004165554E-04 +2.17331160026E-04 +7.74585251821E-01 +2.27723929624E-01
2.76000000000E+09 +7.41258097546E-01 +6.43139931718E-02 -2.35876608295E-04 +3.60654215780E-04 -3.05984389034E-04 +3.65581741170E-04 +7.74629441047E-01 +2.12447381902E-01
2.76500000000E+09 +7.36706094843E-01 +4.68831008978E-02 -2.77866873325E-04 +3.97414672518E-04 -2.18649700460E-04 +3.60569316751E-04 +7.73738407060E-01 +1.95423741872E-01
2.77000000000E+09 +7.32325552354E-01 +2.87376039584E-02 -1.95118551051E-04 +6.02142075039E-04 -2.08535016493E-04 +5.49869178630E-04 +7.72335968680E-01 +1.78319590411E-01
2.77500000000E+09 +7.28007742518E-01 +9.74354211781E-03 +5.82958409119E-05 +6.34973818920E-04 +5.91276763114E-05 +7.42440195752E-04 +7.70868982125E-01 +1.60344050073E-01
2.78000000000E+09 +7.23409585364E-01 -1.05384526918E-02 +2.77874063372E-04 +5.28613336085E-04 +3.35135818508E-04 +5.15513330764E-04 +7.69072219643E-01 +1.42392699901E-01
2.78500000000E+09 +7.17644515340E-01 -3.20031528829E-02 +5.20103214457E-04 +3.15418608078E-04 +5.36187372418E-04 +3.12386524267E-04 +7.66388107018E-01 +1.24360611008E-01
2.79000000000E+09 +7.11164155578E-01 -5.39970109591E-02 +3.73209003617E-04 -1.95932158859E-05 +3.99981052480E-04 -4.13218079280E-05 +7.63017168519E-01 +1.07227709913E-01
2.79500000000E+09 +7.03524468409E-01 -7.58523007959E-02 +3.01573986444E-04 +1.15092009426E-04 +2.51705083817E-04 +1.11104054316E-04 +7.58703727597E-01 +8.94332020685E-02
2.80000000000E+09 +6.94842809263E-01 -9.70991019308E-02 +2.98104593296E-04 +1.08951319082E-05 +2.33937627931E-04 +3.49584128694E-05 +7.53680015362E-01 +7.11019146573E-02
2.80500000000E+09 +6.85759519013E-01 -1.17175846574E-01 +3.31798974167E-04 +1.46471898371E-04 +2.94335049765E-04 +1.41762590842E-04 +7.47812059846E-01 +5.22729552936E-02
2.81000000000E+09 +6.75912950318E-01 -1.35763909690E-01 +5.93494699027E-04 -9.74091610388E-05 +5.63907022433E-04 -6.62471353772E-05 +7.41393592297E-01 +3.32223765302E-02
2.81500000000E+09 +6.65774192302E-01 -1.53584200685E-01 +4.15857188934E-04 -3.01200979657E-04 +4.81364476618E-04 -3.32271561223E-04 +7.34706054228E-01 +1.37553985800E-02
2.82000000000E+09 +6.54622818570E-01 -1.71201563517E-01 +3.29280153977E-04 -3.45712285642E-04 +3.44100131807E-04 -3.07345484870E-04 +7.27089042204E-01 -5.78463408555E-03
2.82500000000E+09 +6.42144137599E-01 -1.88303971004E-01 +5.50579611390E-04 -4.78132762009E-04 +4.97422555505E-04 -4.52185788543E-04 +7.19238304746E-01 -2.49916524922E-02
2.83000000000E+09 +6.28292739240E-01 -2.06256725974E-01 +3.73054700876E-04 -9.67626309051E-04 +3.71889797823E-04 -1.01407480444E-03 +7.10417495380E-01 -4.51711410737E-02
2.83500000000E+09 +6.12374979339E-01 -2.24551780174E-01 -3.35265652339E-04 -1.20438165405E-03 -2.67338802419E-04 -1.17969064504E-03 +7.00262514709E-01 -6.51630144385E-02
2.84000000000E+09 +5.95004237570E-01 -2.43005263500E-01 -7.66886946383E-04 -8.38439328830E-04 -6.96500807891E-04 -8.50419566180E-04 +6.89212627191E-01 -8.59984105391E-02
2.84500000000E+09 +5.75441732213E-01 -2.63117482458E-01 -8.70675881491E-04 -4.72812834209E-04 -8.75944944900E-04 -4.68741514778E-04 +6.76843734387E-01 -1.06445566643E-01
2.85000000000E+09 +5.54118891339E-01 -2.82909233268E-01 -8.02109077886E-04 -2.75797289055E-04 -8.01581996391E-04 -3.20970342547E-04 +6.63230805136E-01 -1.27447393010E-01
2.85500000000E+09 +5.30903177029E-01 -3.03119980537E-01 -8.32613767588E-04 -1.74929456074E-04 -8.19167668416E-04 -1.49401649743E-04 +6.48009511468E-01 -1.47809503671E-01
2.86000000000E+09 +5.06739271714E-01 -3.21933225252E-01 -6.74858188931E-04 -1.67575609201E-04 -6.37972516425E-04 -1.77135562693E-04 +6.32190338342E-01 -1.68203922815E-01
2.86500000000E+09 +4.82676412547E-01 -3.39287615904E-01 -8.72564533342E-04 -2.14000689615E-04 -9.19912361643E-04 -2.65119496147E-04 +6.14574184656E-01 -1.88667863051E-01
2.87000000000E+09 +4.58447037524E-01 -3.55776093497E-01 -1.20658619766E-03 -1.33146628070E-04 -1.19406702926E-03 -1.69176457765E-04 +5.95260529242E-01 -2.08756516159E-01
2.87500000000E+09 +4.34276183834E-01 -3.71360236552E-01 -1.49268446273E-03 +2.34055629783E-04 -1.47075754974E-03 +3.29629887336E-04 +5.74953746161E-01 -2.27526860011E-01
2.88000000000E+09 +4.08917554785E-01 -3.85938042913E-01 -1.60023203499E-03 +7.69231948566E-04 -1.56736842479E-03 +7.29662235290E-04 +5.53749183982E-01 -2.46640403898E-01
2.88500000000E+09 +3.82365641601E-01 -3.98994221465E-01 -1.38617482416E-03 +1.59647351994E-03 -1.32635026841E-03 +1.57995243361E-03 +5.30515464672E-01 -2.64826615158E-01
2.89000000000E+09 +3.54670191009E-01 -4.10933642738E-01 -4.62718856820E-04 +1.70071360345E-03 -4.63013206445E-04 +1.67206452282E-03 +5.05240446506E-01 -2.82303632145E-01
2.89500000000E+09 +3.24467939776E-01 -4.22082187312E-01 -1.97265462464E-04 +1.37405705401E-03 -2.38878896434E-04 +1.37052371969E-03 +4.78780262279E-01 -2.98862979662E-01
2.90000000000E+09 +2.91831793388E-01 -4.31492394505E-01 -9.05221302101E-05 +1.39299296371E-03 -2.36735947906E-04 +1.41280867751E-03 +4.51000407612E-01 -3.14785900436E-01
2.90500000000E+09 +2.56747184294E-01 -4.38561456653E-01 +6.93574801141E-05 +1.18089930257E-03 +8.28477650557E-05 +1.23908270331E-03 +4.21606362920E-01 -3.30186408162E-01
2.91000000000E+09 +2.21181581085E-01 -4.43265019169E-01 -2.37928636048E-04 +1.33083236917E-03 -2.33537423939E-04 +1.30527984272E-03 +3.91295389098E-01 -3.43038833708E-01
2.91500000000E+09 +1.84595557952E-01 -4.47116421614E-01 +2.08851011384E-04 +1.61158090350E-03 +2.03971244688E-04 +1.49814617368E-03 +3.60958761138E-01 -3.54991067783E-01
2.92000000000E+09 +1.47330619780E-01 -4.48203356310E-01 +9.83630766522E-05 +1.57386777162E-03 +9.55470233727E-05 +1.45636032333E-03 +3.28161658356E-01 -3.66020404820E-01
2.92500000000E+09 +1.10523816566E-01 -4.47997196542E-01 +5.33206852908E-04 +2.17901530391E-03 +4.29605423863E-04 +2.10067353547E-03 +2.92719601852E-01 -3.74134232389E-01
2.93000000000E+09 +7.36503986647E-02 -4.45498258501E-01 +1.41547373490E-03 +1.97326054558E-03 +1.19882671355E-03 +2.06491436655E-03 +2.55780854909E-01 -3.80343378670E-01
2.93500000000E+09 +3.76034990889E-02 -4.40898302848E-01 +1.83979599880E-03 +1.65364551910E-03 +1.75974576896E-03 +1.67777462860E-03 +2.17847509010E-01 -3.83793840994E-01
2.94000000000E+09 +1.52531075832E-03 -4.34619227856E-01 +2.16254022534E-03 +1.05035372281E-03 +2.11040300419E-03 +1.13319621243E-03 +1.79827741390E-01 -3.85719956613E-01
2.94500000000E+09 -3.51677799802E-02 -4.25294696987E-01 +1.84723104257E-03 +8.07020306715E-04 +1.81707142153E-03 +9.21514675637E-04 +1.41573617581E-01 -3.86290667910E-01
2.95000000000E+09 -7.10086619832E-02 -4.12308559040E-01 +2.11629910031E-03 +8.31973907846E-04 +2.08407617368E-03 +9.56589126783E-04 +1.01956392684E-01 -3.84511304371E-01
2.95500000000E+09 -1.06482409612E-01 -3.96433620183E-01 +2.55326868647E-03 +4.95664569653E-04 +2.61102698737E-03 +6.38838595842E-04 +6.19484396124E-02 -3.78077279978E-01
2.96000000000E+09 -1.40936611227E-01 -3.77291238340E-01 +2.56393796636E-03 +4.39603892490E-05 +2.67910243455E-03 +7.80518274119E-05 +2.33035914404E-02 -3.68943636965E-01
2.96500000000E+09 -1.74872232073E-01 -3.55245564642E-01 +2.76159510406E-03 -2.30944942431E-04 +2.88079254069E-03 -3.01781792455E-04 -1.67108690340E-02 -3.57890634621E-01
2.97000000000E+09 -2.06606659343E-01 -3.29754895199E-01 +3.03160156321E-03 -7.21888064842E-04 +2.99544755724E-03 -8.75999268602E-04 -5.55704615225E-02 -3.42754575202E-01
2.97500000000E+09 -2.36464493224E-01 -3.03231022780E-01 +3.07936119075E-03 -1.48770573312E-03 +2.98510087019E-03 -1.52909031134E-03 -9.39746513550E-02 -3.26837394749E-01
2.98000000000E+09 -2.65768905678E-01 -2.74706888052E-01 +2.80959359928E-03 -2.43801604605E-03 +2.81066189571E-03 -2.31151116437E-03 -1.31261783940E-01 -3.07218587333E-01
2.98500000000E+09 -2.92716672383E-01 -2.43783290428E-01 +1.68467129798E-03 -3.11209581350E-03 +1.79461267552E-03 -3.05765884718E-03 -1.66838632302E-01 -2.85793898673E-01
2.99000000000E+09 -3.17300725585E-01 -2.11984867741E-01 +8.63093830515E-04 -2.78314215543E-03 +9.78445825370E-04 -2.89560446797E-03 -2.01292998045E-01 -2.61384539440E-01
2.99500000000E+09 -3.40505241540E-01 -1.79696527095E-01 +1.12490776261E-03 -2.30034910547E-03 +1.05377196695E-03 -2.43991268301E-03 -2.34616330118E-01 -2.34307732761E-01
3.00000000000E+09 -3.61817390978E-01 -1.45991498501E-01 +1.26647490141E-03 -3.26145364456E-03 +1.08613498469E-03 -3.29877987928E-03 -2.66702802625E-01 -2.03299322012E-01
3.00500000000E+09 -3.81151725087E-01 -1.11416771897E-01 +1.36819805541E-04 -3.95832112402E-03 +8.67888587155E-05 -3.86783052056E-03 -2.95635144599E-01 -1.70101134736E-01
3.01000000000E+09 -3.97784395330E-01 -7.55792371353E-02 -9.14892249541E-04 -3.79987290859E-03 -8.61962877275E-04 -3.56645665690E-03 -3.22301398913E-01 -1.35424634264E-01
3.01500000000E+09 -4.11021021293E-01 -3.96515678613E-02 -1.67609271449E-03 -3.30176549501E-03 -1.56392261359E-03 -3.25672848187E-03 -3.45827635610E-01 -1.00117035720E-01
3.02000000000E+09 -4.21360009387E-01 -3.86130866624E-03 -2.17617433455E-03 -2.71537817289E-03 -2.05648702940E-03 -2.70895986568E-03 -3.67121432981E-01 -6.38580624550E-02
3.02500000000E+09 -4.28858768128E-01 +3.13792472225E-02 -2.16586043901E-03 -2.38145967826E-03 -2.09664375190E-03 -2.41778053525E-03 -3.85355057862E-01 -2.48312208118E-02
3.03000000000E+09 -4.33593189294E-01 +6.64890932628E-02 -2.81109596572E-03 -2.10815421040E-03 -2.67994246382E-03 -2.08202933033E-03 -3.99318693285E-01 +1.41129118248E-02
3.03500000000E+09 -4.35350642276E-01 +1.01243982641E-01 -3.07786186157E-03 -1.33983867518E-03 -3.03351577320E-03 -1.38919019154E-03 -4.11649428573E-01 +5.38051189209E-02
3.04000000000E+09 -4.34378489683E-01 +1.35256197926E-01 -2.92411977671E-03 -7.72963585174E-04 -2.94794016560E-03 -9.57232140600E-04 -4.20562675381E-01 +9.44835696421E-02
3.04500000000E+09 -4.31805155870E-01 +1.69673733938E-01 -2.91967950626E-03 -5.21328142649E-04 -3.09965222890E-03 -6.33331887334E-04 -4.26482461728E-01 +1.34807492990E-01
3.05000000000E+09 -4.25542451927E-01 +2.04255577174E-01 -2.96864990246E-03 -1.89733738930E-04 -3.20226315955E-03 -6.66327481167E-05 -4.29446762828E-01 +1.74127231389E-01
3.05500000000E+09 -4.17304509900E-01 +2.37808872888E-01 -3.10582182404E-03 +4.02574564676E-04 -3.15379586769E-03 +6.09927114493E-04 -4.29970716887E-01 +2.12553538975E-01
3.06000000000E+09 -4.07134715160E-01 +2.70811852904E-01 -2.99439473378E-03 +1.02956734376E-03 -2.80477843928E-03 +1.16049297819E-03 -4.28306100897E-01 +2.49761237166E-01
3.06500000000E+09 -3.95308319231E-01 +3.03402435699E-01 -2.54849578749E-03 +1.76920591217E-03 -2.37811529461E-03 +1.60655603545E-03 -4.24429925001E-01 +2.86633333266E-01
3.07000000000E+09 -3.81653018284E-01 +3.33949548522E-01 -1.59104539032E-03 +1.87229383298E-03 -1.70119581203E-03 +1.74083929572E-03 -4.18613064729E-01 +3.22652023424E-01
