# Hz S RI R 50
! CMT, C1220, 16058040, 17.2.0/1
! Date: 15/08/2018 10:31:40
! Data: Format (Calibration Info)
! Freq                      S11: Re/Im (F2)                       S21: Re/Im (F2)                       S12: Re/Im (F2)                       S22: Re/Im (F2)            
2.50000000000E+09 +5.79243758825E-01 +6.66468535361E-01 -3.53697068877E-04 +1.19943775497E-04 -4.15289640546E-04 +9.14762333580E-05 +5.65119842548E-01 +7.21889829636E-01
2.50500000000E+09 +5.86684471316E-01 +6.58363149900E-01 -2.66560035873E-04 +8.32177932349E-05 -2.92241116156E-04 +1.00926383898E-04 +5.70634366018E-01 +7.16432893595E-01
2.51000000000E+09 +5.94385347594E-01 +6.50170956674E-01 -2.64584093682E-04 +5.03348142144E-05 -2.91714124741E-04 +9.89341660172E-05 +5.76250344644E-01 +7.11262369480E-01
2.51500000000E+09 +6.01832089111E-01 +6.42094001729E-01 -3.02452032717E-04 +8.59299530229E-05 -2.73427577734E-04 +7.66624238745E-05 +5.81642118566E-01 +7.06010799691E-01
2.52000000000E+09 +6.08654053564E-01 +6.34186181331E-01 -3.07872160470E-04 +1.94346473746E-04 -3.51197040679E-04 +1.92561635805E-04 +5.86775498258E-01 +6.99949473234E-01
2.52500000000E+09 +6.14743867142E-01 +6.26743955509E-01 -2.03010541155E-04 +1.98812659957E-04 -2.18021771117E-04 +2.01434830055E-04 +5.92500242548E-01 +6.93547030731E-01
2.53000000000E+09 +6.20335136753E-01 +6.19272692040E-01 -2.01828627754E-04 +1.78738801414E-04 -2.37687392789E-04 +1.74274258830E-04 +5.98594038122E-01 +6.86693684866E-01
2.53500000000E+09 +6.25103369536E-01 +6.12104045670E-01 -2.21351231475E-04 +2.22214386712E-04 -2.33924016808E-04 +2.26231560563E-04 +6.04511843258E-01 +6.80022142760E-01
2.54000000000E+09 +6.29735301177E-01 +6.04946180854E-01 -1.64614805265E-04 +2.39361113267E-04 -1.75109686626E-04 +2.03252766166E-04 +6.10456183872E-01 +6.73493682110E-01
2.54500000000E+09 +6.34513352558E-01 +5.97450003012E-01 -1.96993983458E-04 +2.37454555146E-04 -2.45137744784E-04 +1.40078505615E-04 +6.16241052869E-01 +6.67211548952E-01
2.55000000000E+09 +6.39612996113E-01 +5.89802213728E-01 -1.86991674252E-04 +3.01045728618E-04 -2.59524221444E-04 +2.70370795940E-04 +6.21590030487E-01 +6.61024347340E-01
2.55500000000E+09 +6.45233674832E-01 +5.81563824616E-01 -1.47472821181E-04 +3.67491758594E-04 -2.36709280724E-04 +4.13456795608E-04 +6.26558579925E-01 +6.54605085332E-01
2.56000000000E+09 +6.51615041698E-01 +5.73642864333E-01 -7.48179376582E-05 +3.36990977578E-04 -1.07968525975E-04 +3.96531314063E-04 +6.31753255965E-01 +6.47456579510E-01
2.56500000000E+09 +6.58613954805E-01 +5.65053364091E-01 -3.50335987092E-05 +3.34303304668E-04 -6.08276762350E-06 +3.42346642693E-04 +6.36832155235E-01 +6.40040203634E-01
2.57000000000E+09 +6.65649506805E-01 +5.56393323847E-01 -6.61177283321E-05 +3.11003041859E-04 +5.29562739139E-06 +3.54430222415E-04 +6.42226814748E-01 +6.32356889007E-01
2.57500000000E+09 +6.72240795489E-01 +5.47707803044E-01 -1.50434283197E-05 +3.80039806327E-04 -1.53005242943E-05 +3.27716418314E-04 +6.47842577450E-01 +6.24690766562E-01
2.58000000000E+09 +6.77926633042E-01 +5.39446220606E-01 +1.01516590257E-06 +4.01555621731E-04 -2.59406227264E-05 +3.20978698019E-04 +6.52856669079E-01 +6.17039795766E-01
2.58500000000E+09 +6.82978314332E-01 +5.31445864206E-01 +3.36322766675E-05 +4.05601298751E-04 +7.11197806711E-05 +3.53660908054E-04 +6.57627365077E-01 +6.09430761010E-01
2.59000000000E+09 +6.87640363492E-01 +5.23569597835E-01 +1.41521745933E-04 +4.09202095220E-04 +6.29487272317E-05 +3.73846803620E-04 +6.62350539426E-01 +6.02055356699E-01
2.59500000000E+09 +6.92044038926E-01 +5.15400332359E-01 +1.57984127987E-04 +4.33944989691E-04 +1.82505293432E-04 +4.83130943261E-04 +6.67403290647E-01 +5.94050972779E-01
2.60000000000E+09 +6.96003204987E-01 +5.06419660539E-01 +3.19570076257E-04 +3.49289797240E-04 +2.54396893750E-04 +3.32883323906E-04 +6.72355411120E-01 +5.86031256009E-01
2.60500000000E+09 +7.00069894241E-01 +4.96592452842E-01 +2.54826218533E-04 +3.50186963188E-04 +2.66831052246E-04 +3.12264807528E-04 +6.77672008278E-01 +5.77314588069E-01
2.61000000000E+09 +7.04294241731E-01 +4.85664841942E-01 +4.09879130388E-04 +3.88090316888E-04 +4.19856506361E-04 +4.08469493049E-04 +6.82821587331E-01 +5.68571915929E-01
2.61500000000E+09 +7.09303822408E-01 +4.73716791234E-01 +4.92861799180E-04 +1.78465306566E-04 +5.18420898668E-04 +2.19104567915E-04 +6.87703868748E-01 +5.60102867532E-01
2.62000000000E+09 +7.14135503504E-01 +4.60339165497E-01 +3.53265771599E-04 +1.74302760911E-06 +3.44964659727E-04 +1.75441118860E-05 +6.92428909857E-01 +5.51150687657E-01
2.62500000000E+09 +7.18752968586E-01 +4.46399621022E-01 +2.26915735994E-04 +1.03918240062E-04 +2.58994391113E-04 +6.61813403558E-05 +6.97141299555E-01 +5.42486671877E-01
2.63000000000E+09 +7.23332165698E-01 +4.32522392943E-01 +3.11406852638E-04 +2.18243931405E-04 +3.48496024838E-04 +1.35120157568E-04 +7.01745443770E-01 +5.33689407507E-01
2.63500000000E+09 +7.27330504348E-01 +4.18948028559E-01 +3.73248840052E-04 +1.38651456784E-04 +3.31175584477E-04 +1.24517193646E-04 +7.06411047146E-01 +5.24588441609E-01
2.64000000000E+09 +7.30882101290E-01 +4.06107019881E-01 +4.81108587795E-04 +1.69038939252E-04 +3.76190529429E-04 +1.43617301753E-04 +7.11084819284E-01 +5.15129400914E-01
2.64500000000E+09 +7.34256032626E-01 +3.94070603679E-01 +5.99438886946E-04 -1.22267387706E-05 +5.50679690992E-04 +5.38086733868E-05 +7.15850400023E-01 +5.05543501793E-01
2.65000000000E+09 +7.36648496560E-01 +3.82876590947E-01 +4.96936880408E-04 -1.76625935950E-04 +4.97387621640E-04 -8.93858210813E-05 +7.20094891312E-01 +4.95705497922E-01
2.65500000000E+09 +7.39578712996E-01 +3.71867741385E-01 +4.21985111907E-04 -2.24395773690E-04 +4.43367721214E-04 -1.54220053366E-04 +7.24239303770E-01 +4.85256351288E-01
2.66000000000E+09 +7.42375671838E-01 +3.60253379516E-01 +3.96886867810E-04 -1.67980906203E-04 +5.14538598675E-04 -1.70068839457E-04 +7.28203621708E-01 +4.74158110704E-01
2.66500000000E+09 +7.44853090898E-01 +3.48507713139E-01 +3.47877737818E-04 -2.95993208428E-04 +4.34992473539E-04 -3.46149398137E-04 +7.32539828441E-01 +4.63379879439E-01
2.67000000000E+09 +7.47556639952E-01 +3.35758884709E-01 +3.39607408417E-04 -4.67365740542E-04 +2.73824530413E-04 -4.27725845538E-04 +7.37225877675E-01 +4.52699397083E-01
2.67500000000E+09 +7.49939765394E-01 +3.21876432394E-01 +2.10461947527E-04 -3.67907885441E-04 +1.89448975441E-04 -3.01888564319E-04 +7.41521078441E-01 +4.41461430674E-01
2.68000000000E+09 +7.51936417641E-01 +3.07291505903E-01 +2.22371563330E-04 -2.37390315645E-04 +1.95655868466E-04 -2.37606723762E-04 +7.45573650186E-01 +4.30341600184E-01
2.68500000000E+09 +7.53406137647E-01 +2.92568183417E-01 +2.79771515706E-04 -4.65315568400E-04 +3.17252414366E-04 -4.10411945436E-04 +7.48902066875E-01 +4.18650179762E-01
2.69000000000E+09 +7.54819961663E-01 +2.77956100888E-01 +7.00854323073E-05 -5.27172977883E-04 +1.13985383411E-04 -4.93544121458E-04 +7.51458348943E-01 +4.06616284662E-01
2.69500000000E+09 +7.55766575805E-01 +2.63740831847E-01 +8.65092224374E-05 -4.59985755189E-04 +5.31199111934E-05 -4.66504075775E-04 +7.54057361084E-01 +3.94157429990E-01
2.70000000000E+09 +7.56957222974E-01 +2.50152080213E-01 -1.06273056675E-04 -5.55869084121E-04 -1.34929602838E-04 -5.19541647014E-04 +7.56905274290E-01 +3.81200716223E-01
2.70500000000E+09 +7.57991487363E-01 +2.36795818582E-01 -2.54263361263E-04 -3.25288822206E-04 -2.21160593588E-04 -3.04492313929E-04 +7.60091948850E-01 +3.67927024139E-01
2.71000000000E+09 +7.58889919302E-01 +2.23361835236E-01 -2.92956152097E-04 -2.39569542031E-04 -2.20006194240E-04 -2.08229561982E-04 +7.62807237202E-01 +3.54735904608E-01
2.71500000000E+09 +7.60225141660E-01 +2.09689338177E-01 -1.24916205905E-04 -1.09586776477E-04 -1.45186582397E-04 -1.28074695655E-04 +7.65259311074E-01 +3.42211462405E-01
2.72000000000E+09 +7.61118322817E-01 +1.94985044205E-01 -1.80169059455E-04 -2.20448005268E-04 -1.84226293156E-04 -2.36422853767E-04 +7.66996698531E-01 +3.29623464865E-01
2.72500000000E+09 +7.61240204811E-01 +1.79288191496E-01 -2.72491591718E-04 -6.44508353161E-05 -2.80909659632E-04 -1.98687517077E-05 +7.68133758418E-01 +3.16396434195E-01
2.73000000000E+09 +7.60585802481E-01 +1.62639034827E-01 -1.64331119728E-04 -1.63986082068E-06 -2.14394529807E-04 +3.71428177626E-06 +7.69248608862E-01 +3.02657911832E-01
2.73500000000E+09 +7.58830442002E-01 +1.44808507212E-01 -2.12926734445E-04 +1.46040339394E-04 -2.21780977882E-04 +9.77192602096E-05 +7.70403202284E-01 +2.88382200058E-01
2.74000000000E+09 +7.56015387116E-01 +1.27164182516E-01 +7.17487250457E-07 +1.75220019801E-04 +3.36185379316E-06 +1.29085797890E-04 +7.72402418043E-01 +2.73443861414E-01
2.74500000000E+09 +7.52221526469E-01 +1.09121959779E-01 +6.20481563710E-05 +1.30666991183E-04 +7.37455074927E-05 +2.06132786462E-05 +7.73765199273E-01 +2.58178992705E-01
2.75000000000E+09 +7.47766834084E-01 +9.15962625443E-02 +1.42539219062E-04 +9.04102107365E-05 +1.06099490590E-04 +1.04103844424E-04 +7.74904270543E-01 +2.43122255349E-01
2.75500000000E+09 +7.42911542126E-01 +7.42017325999E-02 +1.58553842959E-04 +1.21419735731E-05 +1.87098553120E-04 +3.41834754880E-06 +7.74981441587E-01 +2.28106637228E-01
2.76000000000E+09 +7.38516447402E-01 +5.68597094186E-02 +1.40558363527E-04 +6.05662133822E-05 +1.36585686376E-04 +1.11311937703E-04 +7.75155718155E-01 +2.12709779161E-01
2.76500000000E+09 +7.33573066737E-01 +3.87909525449E-02 +3.76503243879E-04 +1.50589469058E-05 +3.94774935276E-04 -2.70707094860E-05 +7.74264231346E-01 +1.95537211957E-01
2.77000000000E+09 +7.28051805228E-01 +2.04706773977E-02 +3.09824609953E-04 -1.78620225277E-04 +2.72713784930E-04 -1.79987988844E-04 +7.72940968829E-01 +1.78424702660E-01
2.77500000000E+09 +7.22981367295E-01 +1.50488261911E-03 +3.36446227757E-04 -9.43091435898E-05 +3.18649877264E-04 -1.17557217303E-04 +7.71405610800E-01 +1.60319044944E-01
2.78000000000E+09 +7.17510251973E-01 -1.88029390346E-02 +4.50781735577E-04 -2.65696866039E-04 +4.51265071304E-04 -3.01316112968E-04 +7.69522548836E-01 +1.42415672423E-01
2.78500000000E+09 +7.11101739390E-01 -3.99177244387E-02 +4.71641258501E-04 -4.40793434732E-04 +4.31449036164E-04 -4.19467154519E-04 +7.67094047338E-01 +1.24427164491E-01
2.79000000000E+09 +7.04397820643E-01 -6.16067452394E-02 +3.43329362937E-04 -7.45901515330E-04 +2.68789411088E-04 -6.65426500513E-04 +7.63834802856E-01 +1.07037252613E-01
2.79500000000E+09 +6.96014011347E-01 -8.34659873270E-02 +1.71884866009E-04 -6.59266408820E-04 +1.59152556031E-04 -5.93607500111E-04 +7.59441751901E-01 +8.90225245160E-02
2.80000000000E+09 +6.86851258341E-01 -1.04216563453E-01 +8.70791233286E-05 -6.99736126601E-04 +7.19695008571E-05 -7.10843717953E-04 +7.54339289458E-01 +7.06996834356E-02
2.80500000000E+09 +6.77129691456E-01 -1.23821576281E-01 -2.00736110573E-06 -6.87626137625E-04 +5.28887845863E-05 -6.78061166728E-04 +7.48571961200E-01 +5.16431394620E-02
2.81000000000E+09 +6.66717093069E-01 -1.42211774875E-01 +2.76314296396E-05 -7.58434448813E-04 +1.63107534139E-05 -8.34772030288E-04 +7.41739207495E-01 +3.24632432047E-02
2.81500000000E+09 +6.55891814073E-01 -1.59219385767E-01 -1.40199894569E-04 -9.74600891343E-04 -1.27042054269E-04 -9.73070460249E-04 +7.34905488476E-01 +1.33089065086E-02
2.82000000000E+09 +6.44384166280E-01 -1.76163600899E-01 -3.14728538541E-04 -9.45552527158E-04 -3.65555769511E-04 -9.20059805904E-04 +7.27571204809E-01 -6.20831151618E-03
2.82500000000E+09 +6.31309401796E-01 -1.93114406093E-01 -2.91892341137E-04 -1.05103160969E-03 -3.46264868352E-04 -9.50811797964E-04 +7.19679111002E-01 -2.56980558627E-02
2.83000000000E+09 +6.16590201668E-01 -2.10225834802E-01 -5.83056948229E-04 -1.15155365872E-03 -5.81813829331E-04 -1.12877046986E-03 +7.10784583256E-01 -4.59442954549E-02
2.83500000000E+09 +6.00453326801E-01 -2.27819857899E-01 -1.02455242041E-03 -1.19878063664E-03 -9.45638578267E-04 -1.15611007400E-03 +7.00411265909E-01 -6.60662970908E-02
2.84000000000E+09 +5.82325338809E-01 -2.46284928177E-01 -1.37796588413E-03 -9.30827887804E-04 -1.34850249661E-03 -9.71684669826E-04 +6.89498838918E-01 -8.68253791931E-02
2.84500000000E+09 +5.61673263444E-01 -2.65631482372E-01 -1.50601630524E-03 -5.92002406916E-04 -1.49057031692E-03 -5.79046910580E-04 +6.76882548006E-01 -1.07659855724E-01
2.85000000000E+09 +5.39476071763E-01 -2.84213105347E-01 -1.49112689295E-03 -4.90032378488E-04 -1.53133328061E-03 -4.62627665478E-04 +6.62955079767E-01 -1.28177760684E-01
2.85500000000E+09 +5.16219444566E-01 -3.02710748969E-01 -1.75985572685E-03 -2.88587332994E-04 -1.73214886040E-03 -2.89544523225E-04 +6.48153598480E-01 -1.48221072074E-01
2.86000000000E+09 +4.92612328035E-01 -3.20395609599E-01 -1.73858353441E-03 +5.57389091330E-06 -1.72507051134E-03 -6.99101344913E-05 +6.32670919999E-01 -1.69083604919E-01
2.86500000000E+09 +4.68059813768E-01 -3.36865494524E-01 -1.77330812924E-03 +1.55122929265E-04 -1.79629926918E-03 +1.16655447224E-04 +6.14877159114E-01 -1.89987398715E-01
2.87000000000E+09 +4.44235999133E-01 -3.52098052573E-01 -1.90724016792E-03 +1.68037264157E-04 -1.89705629812E-03 +1.81940237983E-04 +5.95040576632E-01 -2.10084169584E-01
2.87500000000E+09 +4.19759447057E-01 -3.66850397766E-01 -2.36265034844E-03 +4.15844454867E-04 -2.36113647945E-03 +4.89556509450E-04 +5.74618527914E-01 -2.28975402385E-01
2.88000000000E+09 +3.94273899166E-01 -3.79411606135E-01 -2.58846930377E-03 +1.18437827245E-03 -2.45651351535E-03 +1.25763964409E-03 +5.53168286602E-01 -2.47901736574E-01
2.88500000000E+09 +3.68783478189E-01 -3.90813622766E-01 -2.38438030744E-03 +2.14826667429E-03 -2.27650889363E-03 +2.04813302929E-03 +5.30080545189E-01 -2.66115213501E-01
2.89000000000E+09 +3.41819127116E-01 -4.02327972280E-01 -1.47869335362E-03 +2.65853253701E-03 -1.43161326463E-03 +2.48377354871E-03 +5.04715347204E-01 -2.83883012952E-01
2.89500000000E+09 +3.11203424851E-01 -4.12243092414E-01 -9.69013921463E-04 +2.37093707685E-03 -9.89506605106E-04 +2.19734300422E-03 +4.77966200880E-01 -3.00317445887E-01
2.90000000000E+09 +2.79474625173E-01 -4.19553716482E-01 -9.20771454473E-04 +2.50512070168E-03 -1.02558915982E-03 +2.48595776744E-03 +4.49948853693E-01 -3.16329542171E-01
2.90500000000E+09 +2.46249810399E-01 -4.25580389201E-01 -6.21512881491E-04 +2.79511202315E-03 -6.19943961699E-04 +2.86806834622E-03 +4.20329391938E-01 -3.31934386277E-01
2.91000000000E+09 +2.11661627265E-01 -4.30271351882E-01 -3.06814203401E-04 +3.12234775432E-03 -2.04773020266E-04 +3.11891999589E-03 +3.89279346960E-01 -3.44824970744E-01
2.91500000000E+09 +1.75986834509E-01 -4.33089642517E-01 +6.35689014180E-04 +3.21350411141E-03 +6.96623743754E-04 +3.06633453430E-03 +3.58248428242E-01 -3.56221708861E-01
2.92000000000E+09 +1.40316887582E-01 -4.33477146303E-01 +9.03738427870E-04 +2.82653810011E-03 +8.71700529886E-04 +2.68106929559E-03 +3.25389325225E-01 -3.66379896145E-01
2.92500000000E+09 +1.04877730070E-01 -4.32666693270E-01 +1.23659372529E-03 +3.29046236121E-03 +9.99845194005E-04 +3.17928927019E-03 +2.90368500038E-01 -3.74231208973E-01
2.93000000000E+09 +6.91805156688E-02 -4.29302378503E-01 +2.20453969809E-03 +2.81105786056E-03 +1.99178299405E-03 +2.87257160273E-03 +2.53422034040E-01 -3.80108184739E-01
2.93500000000E+09 +3.52955841575E-02 -4.23954105765E-01 +2.30442842776E-03 +2.56705052206E-03 +2.20469034897E-03 +2.60608402802E-03 +2.15789675548E-01 -3.83501530593E-01
2.94000000000E+09 +1.13132601994E-03 -4.17638252739E-01 +3.17324847145E-03 +2.22139219757E-03 +3.16376752335E-03 +2.32105608184E-03 +1.77579164050E-01 -3.85216373087E-01
2.94500000000E+09 -3.40827300490E-02 -4.08078888228E-01 +3.15475551158E-03 +1.56352445947E-03 +3.17904342371E-03 +1.65922006972E-03 +1.39293817546E-01 -3.85528589600E-01
2.95000000000E+09 -6.83979255415E-02 -3.94779085654E-01 +3.51300466954E-03 +1.03369119486E-03 +3.53956907457E-03 +1.19976006134E-03 +9.97680632135E-02 -3.83521597959E-01
2.95500000000E+09 -1.01723772832E-01 -3.78914261393E-01 +3.70642462924E-03 +2.26476386467E-04 +3.81871546358E-03 +3.51061473689E-04 +5.97965892066E-02 -3.77094609843E-01
2.96000000000E+09 -1.34557945442E-01 -3.60392477311E-01 +3.13197250834E-03 -1.63090194387E-04 +3.33565233398E-03 -1.32172795698E-04 +2.12694447415E-02 -3.67440385751E-01
2.96500000000E+09 -1.66656959687E-01 -3.39276530464E-01 +3.38040564480E-03 -9.88910275961E-05 +3.46431465464E-03 -1.57336758603E-04 -1.82154813035E-02 -3.56359330547E-01
2.97000000000E+09 -1.97232906853E-01 -3.14936198376E-01 +3.91042423444E-03 -8.59208343198E-04 +3.87059747702E-03 -9.53024909613E-04 -5.69566683676E-02 -3.41555272645E-01
2.97500000000E+09 -2.26204971872E-01 -2.89414142302E-01 +3.79824398881E-03 -1.85724932204E-03 +3.70636867776E-03 -1.84658496460E-03 -9.58320305845E-02 -3.25810605655E-01
2.98000000000E+09 -2.54045953924E-01 -2.61423605361E-01 +2.98517341931E-03 -2.44933583027E-03 +2.96070383224E-03 -2.36938256240E-03 -1.33785204265E-01 -3.05383181201E-01
2.98500000000E+09 -2.79122199054E-01 -2.31880166216E-01 +2.48809163887E-03 -2.59280411603E-03 +2.68561078135E-03 -2.56267244462E-03 -1.68987192008E-01 -2.82888394700E-01
2.99000000000E+09 -3.02401251954E-01 -2.02507305915E-01 +2.31887866559E-03 -2.99852503837E-03 +2.46483940965E-03 -3.14463818479E-03 -2.02822993284E-01 -2.57942043183E-01
2.99500000000E+09 -3.25922025512E-01 -1.72010100625E-01 +1.86118945674E-03 -3.37361084507E-03 +1.81956750332E-03 -3.58292423469E-03 -2.35467541143E-01 -2.30483924148E-01
3.00000000000E+09 -3.46636969513E-01 -1.38631453905E-01 +1.28626785782E-03 -3.78130828050E-03 +1.03378788482E-03 -3.85947741875E-03 -2.66553178040E-01 -1.99528741849E-01
3.00500000000E+09 -3.64016730354E-01 -1.05770981797E-01 +4.24278878159E-04 -3.82268929752E-03 +2.56655191571E-04 -3.71158556756E-03 -2.94930794284E-01 -1.66892247476E-01
3.01000000000E+09 -3.80625449226E-01 -7.20760701009E-02 -1.62047984027E-04 -3.45775739318E-03 -1.55322325594E-04 -3.31591232061E-03 -3.21453473299E-01 -1.32253952026E-01
3.01500000000E+09 -3.93213840462E-01 -3.80529670583E-02 -2.90980857107E-04 -3.63269742763E-03 -2.20049419027E-04 -3.52550817545E-03 -3.44542556104E-01 -9.69239528835E-02
3.02000000000E+09 -4.04486146049E-01 -4.05635049891E-03 -9.26003572099E-04 -3.61829901342E-03 -8.29963914359E-04 -3.56703010579E-03 -3.65319826807E-01 -6.08109763738E-02
3.02500000000E+09 -4.12221968516E-01 +3.01981379034E-02 -1.56402048043E-03 -3.67202691514E-03 -1.46008651093E-03 -3.68812597099E-03 -3.82874003618E-01 -2.22249208231E-02
3.03000000000E+09 -4.16955137348E-01 +6.45243690767E-02 -2.56055795800E-03 -2.94957667032E-03 -2.42754473993E-03 -2.91394570661E-03 -3.96487002802E-01 +1.64381053377E-02
3.03500000000E+09 -4.17663811276E-01 +9.74379122361E-02 -2.52196594809E-03 -2.15587332544E-03 -2.38303150214E-03 -2.23876343721E-03 -4.08110045763E-01 +5.50659035380E-02
3.04000000000E+09 -4.17816128981E-01 +1.28721978532E-01 -2.63898785099E-03 -1.91320750018E-03 -2.59177457459E-03 -2.08416527791E-03 -4.17627797364E-01 +9.44071828749E-02
3.04500000000E+09 -4.16548065068E-01 +1.61632721421E-01 -2.76684398100E-03 -1.58559085473E-03 -2.83293414261E-03 -1.72491769675E-03 -4.24287259481E-01 +1.34446477779E-01
3.05000000000E+09 -4.11553475932E-01 +1.95029879404E-01 -2.92904588944E-03 -1.34900308350E-03 -3.13748095203E-03 -1.31446652776E-03 -4.27517324868E-01 +1.73801408749E-01
3.05500000000E+09 -4.04182126192E-01 +2.27875788818E-01 -3.36376632651E-03 -7.94973428086E-04 -3.36960773524E-03 -5.29660962892E-04 -4.28290407691E-01 +2.12238398037E-01
3.06000000000E+09 -3.94842983129E-01 +2.59867018932E-01 -3.25055516231E-03 -2.44510431204E-05 -3.18713897123E-03 +1.20234780020E-04 -4.26779439832E-01 +2.49914158184E-01
3.06500000000E+09 -3.83727552282E-01 +2.90845447979E-01 -2.88586988029E-03 +4.97942269229E-04 -2.69770575759E-03 +4.16007864627E-04 -4.22196500482E-01 +2.86374644174E-01
3.07000000000E+09 -3.72088853008E-01 +3.20183107534E-01 -2.70577270326E-03 +5.42197392680E-04 -2.69836808171E-03 +4.21830804597E-04 -4.16638739697E-01 +3.21838796199E-01
