# Hz S RI R 50
! CMT, C1220, 16058040, 17.2.0/1
! Date: 15/08/2018 10:31:16
! Data: Format (Calibration Info)
! Freq                      S11: Re/Im (F2)                       S21: Re/Im (F2)                       S12: Re/Im (F2)                       S22: Re/Im (F2)            
2.50000000000E+09 +5.78468912704E-01 +6.66564246534E-01 -3.52510200224E-04 +6.50298956439E-05 -3.46787278548E-04 +2.25432725275E-05 +5.65862312921E-01 +7.21703518627E-01
2.50500000000E+09 +5.85829906146E-01 +6.58540050292E-01 -2.60055307836E-04 +4.26052136923E-05 -2.76623996770E-04 +3.46766593841E-05 +5.71344499676E-01 +7.16344659772E-01
2.51000000000E+09 +5.93658994480E-01 +6.50229771311E-01 -2.70664569924E-04 +1.16227756139E-05 -2.71369722164E-04 +2.31474346019E-05 +5.76891625038E-01 +7.11274965581E-01
2.51500000000E+09 +6.01020879965E-01 +6.42306092959E-01 -3.31463709085E-04 +2.81353565565E-05 -2.74426314432E-04 -1.28844738620E-05 +5.82273538849E-01 +7.05923417570E-01
2.52000000000E+09 +6.07913849088E-01 +6.34295961716E-01 -3.14736415372E-04 +1.14777971404E-04 -3.37297431689E-04 +1.32958466897E-04 +5.87473390630E-01 +6.99982234986E-01
2.52500000000E+09 +6.13812701522E-01 +6.26864213949E-01 -2.17345353553E-04 +9.83251510690E-05 -2.09710327660E-04 +1.29330707198E-04 +5.93234570190E-01 +6.93642660508E-01
2.53000000000E+09 +6.19368193498E-01 +6.19655107982E-01 -2.41864234247E-04 +5.27571028240E-05 -2.37572229891E-04 +1.06951216855E-04 +5.99405839245E-01 +6.86582078330E-01
2.53500000000E+09 +6.24257798215E-01 +6.12664140562E-01 -2.65334509422E-04 +1.56109141646E-04 -2.29855786932E-04 +9.97398203190E-05 +6.05264001338E-01 +6.79924490606E-01
2.54000000000E+09 +6.28819747484E-01 +6.05588764512E-01 -2.36156208922E-04 +1.37274617608E-04 -2.50406545556E-04 +1.35271654709E-04 +6.11372220264E-01 +6.73353913454E-01
2.54500000000E+09 +6.33575392779E-01 +5.98351309370E-01 -3.00333749971E-04 +1.70799338387E-04 -2.67808290824E-04 +1.52746229545E-04 +6.17212385222E-01 +6.67091376849E-01
2.55000000000E+09 +6.38778053587E-01 +5.90714350192E-01 -2.42231291579E-04 +1.78159927681E-04 -3.21322900263E-04 +1.94044890123E-04 +6.22623090838E-01 +6.60788943920E-01
2.55500000000E+09 +6.44540964835E-01 +5.82616241159E-01 -2.19293026780E-04 +2.43183244955E-04 -2.75593110677E-04 +3.02515794587E-04 +6.27594734406E-01 +6.54285530155E-01
2.56000000000E+09 +6.51070902454E-01 +5.74650388901E-01 -1.43647158345E-04 +2.38066500346E-04 -2.31940991386E-04 +3.01928176718E-04 +6.32632919543E-01 +6.46947126612E-01
2.56500000000E+09 +6.58061034005E-01 +5.66186407174E-01 -1.71752265367E-04 +2.34053412355E-04 -2.20203096384E-04 +2.76295451931E-04 +6.37828109499E-01 +6.39456790937E-01
2.57000000000E+09 +6.65197683118E-01 +5.57595479275E-01 -2.22542570109E-04 +2.67110910246E-04 -1.65163607993E-04 +3.28484590734E-04 +6.43107343822E-01 +6.31665705677E-01
2.57500000000E+09 +6.71850015972E-01 +5.48904496812E-01 -1.32483997997E-04 +3.68781207713E-04 -8.08532127322E-05 +2.88602719287E-04 +6.48661924579E-01 +6.23977468397E-01
2.58000000000E+09 +6.77492745125E-01 +5.40821170310E-01 -1.56210560773E-04 +3.99559770368E-04 -9.85045856074E-05 +3.48496719606E-04 +6.53598351145E-01 +6.16222817241E-01
2.58500000000E+09 +6.82822578000E-01 +5.32946118901E-01 -9.28923388354E-05 +4.30038077722E-04 -9.10887616757E-05 +4.06367928894E-04 +6.58276118968E-01 +6.08732632761E-01
2.59000000000E+09 +6.87603883429E-01 +5.25144525803E-01 +2.20528458017E-05 +4.63523273597E-04 -5.36763337486E-05 +3.76484551080E-04 +6.62949287942E-01 +6.01430175981E-01
2.59500000000E+09 +6.92075781161E-01 +5.16900227497E-01 +3.93528200278E-05 +4.73069078766E-04 +2.91624958186E-05 +4.74923899114E-04 +6.67826408986E-01 +5.93464612578E-01
2.60000000000E+09 +6.96124552440E-01 +5.07964781197E-01 +1.64572161411E-04 +4.01971138247E-04 +1.37527991311E-04 +3.74132855136E-04 +6.72949305421E-01 +5.85247551131E-01
2.60500000000E+09 +7.00179059104E-01 +4.98105254835E-01 +1.53154119696E-04 +3.83511883619E-04 +1.43548373458E-04 +4.47191910037E-04 +6.78277938269E-01 +5.76709995908E-01
2.61000000000E+09 +7.04401728629E-01 +4.87201175437E-01 +2.59690112073E-04 +4.72082864397E-04 +1.97048817466E-04 +4.58031618583E-04 +6.83554473500E-01 +5.67849663890E-01
2.61500000000E+09 +7.09486762633E-01 +4.75196203522E-01 +4.23558896178E-04 +2.82693349565E-04 +4.14448917364E-04 +3.42993765388E-04 +6.88387171713E-01 +5.59277808544E-01
2.62000000000E+09 +7.14301648119E-01 +4.61859448996E-01 +2.96115293148E-04 +5.71052165346E-05 +3.34718930231E-04 +1.29859217898E-04 +6.93244071150E-01 +5.50361642205E-01
2.62500000000E+09 +7.18991569629E-01 +4.47856899435E-01 +2.07322715208E-04 +1.71508817823E-04 +1.92440387161E-04 +1.85017324596E-04 +6.97770829512E-01 +5.41540555432E-01
2.63000000000E+09 +7.23606636414E-01 +4.34111631350E-01 +2.17317001181E-04 +2.76567556666E-04 +2.36342440800E-04 +2.35775640630E-04 +7.02370973748E-01 +5.32639875709E-01
2.63500000000E+09 +7.27646022150E-01 +4.20644248401E-01 +2.89211872625E-04 +2.61949652394E-04 +2.31270545392E-04 +2.18957682174E-04 +7.07011102273E-01 +5.23566686233E-01
2.64000000000E+09 +7.31385435897E-01 +4.07786687265E-01 +3.95730118424E-04 +2.93226788768E-04 +3.64364947447E-04 +2.44197589146E-04 +7.11766076949E-01 +5.13886518894E-01
2.64500000000E+09 +7.34597863646E-01 +3.95865870490E-01 +5.12149483418E-04 +2.06728591844E-04 +4.49305918979E-04 +2.14912358774E-04 +7.16147465169E-01 +5.04159256824E-01
2.65000000000E+09 +7.37489987730E-01 +3.84789238166E-01 +5.65836223262E-04 +4.72023062099E-05 +5.56508941868E-04 +1.15258038772E-04 +7.20195974073E-01 +4.94145508515E-01
2.65500000000E+09 +7.40308138259E-01 +3.73655347988E-01 +4.05323125474E-04 -1.32148180061E-04 +4.85149604704E-04 -3.42648237527E-05 +7.24149959357E-01 +4.83853543485E-01
2.66000000000E+09 +7.43313894486E-01 +3.62307488954E-01 +3.97075792106E-04 -6.89864320500E-05 +4.21200521751E-04 -3.12512041108E-05 +7.28057190555E-01 +4.72859786847E-01
2.66500000000E+09 +7.46075224224E-01 +3.50426346926E-01 +3.88609870875E-04 -1.15694393274E-04 +4.36294183743E-04 -1.04328682188E-04 +7.32263474954E-01 +4.62047789251E-01
2.67000000000E+09 +7.48865172051E-01 +3.37586429140E-01 +3.80618261504E-04 -2.19753012188E-04 +3.62081413449E-04 -2.49156909899E-04 +7.36721346910E-01 +4.51262853803E-01
2.67500000000E+09 +7.51559435159E-01 +3.23685812733E-01 +2.82623813498E-04 -1.56809902189E-04 +2.10769169392E-04 -1.90762757250E-04 +7.40843044556E-01 +4.40298319409E-01
2.68000000000E+09 +7.53642967764E-01 +3.09014078636E-01 +3.10558963747E-04 -1.17993142935E-04 +2.97798398621E-04 -9.77577334501E-05 +7.44767902809E-01 +4.29586438097E-01
2.68500000000E+09 +7.55236279249E-01 +2.94200681549E-01 +3.46579859235E-04 -2.82934895790E-04 +3.53787996980E-04 -2.55782648625E-04 +7.48219266409E-01 +4.17961303650E-01
2.69000000000E+09 +7.56635074489E-01 +2.79637627182E-01 +2.09987922581E-04 -3.07785841081E-04 +1.81064908247E-04 -3.24728608798E-04 +7.50818950947E-01 +4.06052323097E-01
2.69500000000E+09 +7.57926669635E-01 +2.65485303991E-01 +1.92021494281E-04 -2.55404403752E-04 +2.08549476678E-04 -2.88331479941E-04 +7.53335942985E-01 +3.93539309149E-01
2.70000000000E+09 +7.59255200589E-01 +2.51581655722E-01 +1.37990742720E-04 -4.08953143884E-04 +1.01155963249E-04 -3.48117503231E-04 +7.56201653930E-01 +3.80707848914E-01
2.70500000000E+09 +7.60405223013E-01 +2.37990261919E-01 -3.17025784711E-05 -2.95187744550E-04 +2.03825353203E-05 -2.30145182036E-04 +7.59483964665E-01 +3.67534189222E-01
2.71000000000E+09 +7.61283205908E-01 +2.24426689938E-01 -1.93988263513E-05 -1.51546854271E-04 -3.32427437114E-05 -1.83734451093E-04 +7.62245635130E-01 +3.54447185421E-01
2.71500000000E+09 +7.62418904136E-01 +2.10758074546E-01 +7.70728573849E-05 -1.65862159776E-04 +7.04392289299E-05 -1.46871906992E-04 +7.64752091274E-01 +3.41747145944E-01
2.72000000000E+09 +7.63408897901E-01 +1.96110447710E-01 +2.85749138418E-07 -2.88093933809E-04 -5.84467044463E-05 -3.22977629186E-04 +7.66321099640E-01 +3.28996768971E-01
2.72500000000E+09 +7.63764704859E-01 +1.80355767861E-01 -1.27191948716E-04 -1.68097802802E-04 -1.47556196433E-04 -1.84049017570E-04 +7.67305218365E-01 +3.16003798080E-01
2.73000000000E+09 +7.63186444704E-01 +1.63603754156E-01 -1.28880431355E-04 -1.42249019064E-04 -1.48614231056E-04 -9.62466638292E-05 +7.68299380688E-01 +3.02312159434E-01
2.73500000000E+09 +7.61529207873E-01 +1.45537465031E-01 -1.85675115212E-04 +4.10304478559E-05 -1.48818692290E-04 +7.46244991731E-05 +7.69381993650E-01 +2.88106481077E-01
2.74000000000E+09 +7.58693456729E-01 +1.27734411120E-01 +6.52100417713E-05 +1.73672105442E-04 -9.61895738479E-07 +1.19510081969E-04 +7.71281853055E-01 +2.73242013602E-01
2.74500000000E+09 +7.54937404735E-01 +1.09688645517E-01 +1.43202816500E-04 +7.87502909182E-05 +2.57302689008E-05 +1.10840895519E-04 +7.72485195203E-01 +2.58095857813E-01
2.75000000000E+09 +7.50642789358E-01 +9.17806996810E-02 +2.41738805984E-04 +9.50988294021E-05 +1.63860509688E-04 +9.18892449450E-05 +7.73524265427E-01 +2.43184308571E-01
2.75500000000E+09 +7.45760294232E-01 +7.43734701723E-02 +2.57167200311E-04 +6.91323603115E-06 +2.66756685253E-04 +3.04772106456E-05 +7.73554071231E-01 +2.28736208422E-01
2.76000000000E+09 +7.41359500031E-01 +5.70362612568E-02 +1.88290449560E-04 +7.25061340318E-05 +1.85671919044E-04 +7.06500371283E-05 +7.73758979386E-01 +2.13653500740E-01
2.76500000000E+09 +7.36619508344E-01 +3.88560295734E-02 +4.72182334360E-04 +4.42749814448E-05 +5.10935152601E-04 +2.35350562634E-05 +7.72927300446E-01 +1.96913496560E-01
2.77000000000E+09 +7.31191146428E-01 +2.02605573249E-02 +3.89070728089E-04 -2.18909223459E-04 +4.20672003862E-04 -2.35701947230E-04 +7.72128523991E-01 +1.80047670778E-01
2.77500000000E+09 +7.26215739350E-01 +1.22806000282E-03 +3.90361525399E-04 -7.74975939464E-05 +4.20739943369E-04 -9.87999847925E-05 +7.70916626005E-01 +1.61971213685E-01
2.78000000000E+09 +7.20857652174E-01 -1.94299516438E-02 +5.55490076993E-04 -2.23496218745E-04 +6.01175573712E-04 -3.13230172938E-04 +7.69304717133E-01 +1.44041450941E-01
2.78500000000E+09 +7.14412594256E-01 -4.08458805129E-02 +6.89959972417E-04 -4.27938679206E-04 +6.96037274009E-04 -5.08942704992E-04 +7.67065812921E-01 +1.26250093203E-01
2.79000000000E+09 +7.07335405093E-01 -6.28944856355E-02 +5.82338434455E-04 -7.77107299618E-04 +4.95685694277E-04 -7.84898495177E-04 +7.63965672334E-01 +1.08708061967E-01
2.79500000000E+09 +6.99047739077E-01 -8.48232317091E-02 +3.50529096611E-04 -8.40280492006E-04 +2.36824927717E-04 -6.94607340729E-04 +7.59923026020E-01 +9.07294509375E-02
2.80000000000E+09 +6.89770595345E-01 -1.05641771601E-01 +2.37746957762E-04 -8.21812970608E-04 +2.36990637997E-04 -7.64902422749E-04 +7.55104274134E-01 +7.25677417750E-02
2.80500000000E+09 +6.80202852079E-01 -1.25456667506E-01 +1.92839610285E-04 -8.07256091129E-04 +2.06834317918E-04 -7.76820430657E-04 +7.49657060944E-01 +5.32873038161E-02
2.81000000000E+09 +6.69860474256E-01 -1.44072457378E-01 +2.05870748206E-04 -9.37956959086E-04 +1.86206715086E-04 -9.65360243436E-04 +7.43160564580E-01 +3.38965009791E-02
2.81500000000E+09 +6.58906247047E-01 -1.61450027869E-01 +2.63112421955E-05 -1.14172113258E-03 -1.30544608256E-05 -1.16669991867E-03 +7.36477058332E-01 +1.43194086878E-02
2.82000000000E+09 +6.47324406912E-01 -1.78572011777E-01 -2.38401763982E-04 -1.06155216003E-03 -2.97659315691E-04 -1.03389497834E-03 +7.29121831370E-01 -5.31141470516E-03
2.82500000000E+09 +6.34210175842E-01 -1.95759918618E-01 -1.16565683906E-04 -1.15097785986E-03 -1.51044831297E-04 -1.05356906881E-03 +7.20896340378E-01 -2.48162021552E-02
2.83000000000E+09 +6.19289518827E-01 -2.13097686171E-01 -3.56648191189E-04 -1.49480606181E-03 -3.00237491655E-04 -1.43416005794E-03 +7.12150780176E-01 -4.49053882171E-02
2.83500000000E+09 +6.03107566848E-01 -2.30670361283E-01 -8.91245435593E-04 -1.56497711535E-03 -8.02781287734E-04 -1.58970961894E-03 +7.02160720197E-01 -6.49414603971E-02
2.84000000000E+09 +5.85012237682E-01 -2.49442014057E-01 -1.40327970947E-03 -1.31714602590E-03 -1.39670249263E-03 -1.29661653097E-03 +6.91384841119E-01 -8.57860008449E-02
2.84500000000E+09 +5.64164638853E-01 -2.69084363274E-01 -1.49163461393E-03 -8.85767582591E-04 -1.45423351098E-03 -9.46779777625E-04 +6.79254712670E-01 -1.06659211354E-01
2.85000000000E+09 +5.41898568702E-01 -2.88009681916E-01 -1.48482523733E-03 -7.92000757751E-04 -1.48692885046E-03 -8.54352952136E-04 +6.65556918779E-01 -1.27606996389E-01
2.85500000000E+09 +5.17959646186E-01 -3.06923159464E-01 -1.84134170514E-03 -6.77806086572E-04 -1.76903051046E-03 -6.23874406198E-04 +6.50880892666E-01 -1.47815058829E-01
2.86000000000E+09 +4.93919080930E-01 -3.24743384146E-01 -1.70240172409E-03 -4.77445109321E-04 -1.69974812398E-03 -4.86530062033E-04 +6.35808309244E-01 -1.68909683950E-01
2.86500000000E+09 +4.69102228889E-01 -3.41587250568E-01 -2.03618749369E-03 -3.10700948149E-04 -2.01182191715E-03 -3.47736920768E-04 +6.18198500193E-01 -1.90353052612E-01
2.87000000000E+09 +4.44570471042E-01 -3.56679752960E-01 -2.07768185292E-03 -1.14730942837E-04 -2.08980813717E-03 -2.00015160491E-04 +5.98797571574E-01 -2.10973111634E-01
2.87500000000E+09 +4.20104546158E-01 -3.71254198904E-01 -2.58467281408E-03 -2.43385249736E-05 -2.68247943402E-03 +4.62441014986E-05 +5.78399948249E-01 -2.30659174869E-01
2.88000000000E+09 +3.94372357237E-01 -3.84310215833E-01 -2.99163710661E-03 +8.89176759747E-04 -2.92050716924E-03 +9.37776987391E-04 +5.56634528183E-01 -2.50273993075E-01
2.88500000000E+09 +3.68234854782E-01 -3.95764270031E-01 -2.74845455064E-03 +1.94794998172E-03 -2.59344254494E-03 +1.87769714957E-03 +5.33296088154E-01 -2.68946241160E-01
2.89000000000E+09 +3.40916960481E-01 -4.07028322625E-01 -1.87287248357E-03 +2.51448654943E-03 -1.78695881200E-03 +2.35115336997E-03 +5.07419536921E-01 -2.87229518546E-01
2.89500000000E+09 +3.09842566622E-01 -4.17114403876E-01 -1.18630883357E-03 +2.24423680898E-03 -1.29265703854E-03 +2.13479547249E-03 +4.80328827901E-01 -3.04222826751E-01
2.90000000000E+09 +2.77703889637E-01 -4.24378801674E-01 -1.27999095943E-03 +2.26366745250E-03 -1.34463842363E-03 +2.27024733752E-03 +4.51608733481E-01 -3.20799048576E-01
2.90500000000E+09 +2.43741532801E-01 -4.30342583508E-01 -1.01951640127E-03 +2.52447244243E-03 -9.80852305272E-04 +2.54148584039E-03 +4.21405456821E-01 -3.36482996596E-01
2.91000000000E+09 +2.08950094490E-01 -4.34740337484E-01 -8.02345791297E-04 +2.78447039201E-03 -7.17410927560E-04 +2.73761620627E-03 +3.89318210260E-01 -3.49526122730E-01
2.91500000000E+09 +1.72759468296E-01 -4.37588177606E-01 -2.57523052273E-04 +2.90704091293E-03 -1.97485459535E-04 +2.83615239081E-03 +3.57756311695E-01 -3.60422916729E-01
2.92000000000E+09 +1.36446079930E-01 -4.37569922226E-01 +1.06022955286E-04 +2.93716410404E-03 +8.80414644430E-05 +2.72520183898E-03 +3.24671951551E-01 -3.70565215544E-01
2.92500000000E+09 +1.00868159174E-01 -4.36408822670E-01 +3.22426280392E-04 +3.35986965492E-03 +1.79342937712E-04 +3.18192364969E-03 +2.89335812213E-01 -3.78477346949E-01
2.93000000000E+09 +6.48735498413E-02 -4.33116736184E-01 +1.38356271905E-03 +3.17831338083E-03 +1.23398872524E-03 +3.11261062147E-03 +2.51652875417E-01 -3.84488700966E-01
2.93500000000E+09 +3.03091436359E-02 -4.27461714711E-01 +1.56754975062E-03 +2.88118102354E-03 +1.46580362639E-03 +2.88883952792E-03 +2.13403482461E-01 -3.87396894587E-01
2.94000000000E+09 -4.36485002287E-03 -4.20597339479E-01 +2.29162201462E-03 +2.67029480485E-03 +2.32762359050E-03 +2.81464656650E-03 +1.74974379758E-01 -3.88613638641E-01
2.94500000000E+09 -3.97251093998E-02 -4.10639294517E-01 +2.41521425660E-03 +2.25067365494E-03 +2.38967612801E-03 +2.28488106547E-03 +1.36473244194E-01 -3.88829632354E-01
2.95000000000E+09 -7.43534733683E-02 -3.96959634688E-01 +2.84272669934E-03 +1.92433299351E-03 +2.73819229137E-03 +2.05048751576E-03 +9.64456260404E-02 -3.86637300523E-01
2.95500000000E+09 -1.08126129480E-01 -3.80357361004E-01 +3.26196543854E-03 +1.36227742545E-03 +3.29596590650E-03 +1.52317034392E-03 +5.59508432912E-02 -3.79918654949E-01
2.96000000000E+09 -1.40942379005E-01 -3.61146382730E-01 +2.92012298583E-03 +9.47224099153E-04 +3.10886660997E-03 +9.93395735676E-04 +1.70118698544E-02 -3.69643743137E-01
2.96500000000E+09 -1.73047244801E-01 -3.39029465277E-01 +3.27380282576E-03 +1.06863636844E-03 +3.45975229153E-03 +1.07056744519E-03 -2.26793497751E-02 -3.57984645165E-01
2.97000000000E+09 -2.03280934570E-01 -3.14267090334E-01 +4.16190732143E-03 +5.48599420775E-04 +4.12020158758E-03 +3.10707210938E-04 -6.17752295410E-02 -3.43011300251E-01
2.97500000000E+09 -2.32270383240E-01 -2.88560857024E-01 +4.42313445967E-03 -7.48305124030E-04 +4.25626926651E-03 -7.85154077627E-04 -1.01346199518E-01 -3.26432026359E-01
2.98000000000E+09 -2.60551960598E-01 -2.60241126823E-01 +3.78399224378E-03 -1.80100787515E-03 +3.66984529607E-03 -1.66692379723E-03 -1.39321887874E-01 -3.04957832947E-01
2.98500000000E+09 -2.85756375338E-01 -2.29633301936E-01 +2.91567444393E-03 -2.01115293581E-03 +3.01586329813E-03 -1.88702118763E-03 -1.74339449469E-01 -2.81572827061E-01
2.99000000000E+09 -3.08490723211E-01 -1.99239402212E-01 +2.91290886041E-03 -2.14369619249E-03 +3.05543001484E-03 -2.23879788577E-03 -2.07790224168E-01 -2.55965688263E-01
2.99500000000E+09 -3.31291988074E-01 -1.68511319603E-01 +2.88325113274E-03 -2.74427651901E-03 +2.85402922190E-03 -2.89781586562E-03 -2.40085390975E-01 -2.27808255031E-01
3.00000000000E+09 -3.52061386394E-01 -1.34965015615E-01 +2.33310586840E-03 -3.45750415131E-03 +2.16506440579E-03 -3.58028804074E-03 -2.70661648031E-01 -1.96002707732E-01
3.00500000000E+09 -3.69083788165E-01 -1.01177892045E-01 +1.35571159277E-03 -3.85330761649E-03 +1.13133439340E-03 -3.79652364761E-03 -2.98272002937E-01 -1.63150772895E-01
3.01000000000E+09 -3.85217702209E-01 -6.76704031252E-02 +4.13080447937E-04 -3.64861933362E-03 +4.40698933074E-04 -3.40506118243E-03 -3.24311734951E-01 -1.28075542511E-01
3.01500000000E+09 -3.97888923477E-01 -3.26978531774E-02 +3.89730865221E-04 -3.48213534906E-03 +5.16776894084E-04 -3.35137807173E-03 -3.46784441769E-01 -9.26614902551E-02
3.02000000000E+09 -4.08225025958E-01 +1.31014840276E-03 -2.91474468934E-04 -3.69234918939E-03 -1.62681716809E-04 -3.75591233679E-03 -3.67028769092E-01 -5.62227016950E-02
3.02500000000E+09 -4.15770102181E-01 +3.58809858043E-02 -8.57263583378E-04 -3.69245500769E-03 -7.51375609639E-04 -3.75605692911E-03 -3.83961595618E-01 -1.75993579643E-02
3.03000000000E+09 -4.20364976038E-01 +7.04625777589E-02 -1.91830904153E-03 -3.33059722212E-03 -1.88045739453E-03 -3.27024219769E-03 -3.96944411470E-01 +2.09550067825E-02
3.03500000000E+09 -4.20650344738E-01 +1.04222757245E-01 -2.16698676490E-03 -2.31468774633E-03 -2.01300860487E-03 -2.37124826268E-03 -4.08014537484E-01 +5.97972112003E-02
3.04000000000E+09 -4.19741228511E-01 +1.35542911292E-01 -2.08150159040E-03 -2.07450063034E-03 -2.00469230181E-03 -2.21023071834E-03 -4.16804334653E-01 +9.88688901851E-02
3.04500000000E+09 -4.17792645793E-01 +1.68535580264E-01 -2.12769747220E-03 -1.84236505393E-03 -2.20267872691E-03 -1.95812345555E-03 -4.23066744551E-01 +1.38678400907E-01
3.05000000000E+09 -4.12106117448E-01 +2.01794664571E-01 -2.39107970633E-03 -1.68747314361E-03 -2.58958119684E-03 -1.67176765316E-03 -4.26024444244E-01 +1.77705529445E-01
3.05500000000E+09 -4.04380217967E-01 +2.34285107313E-01 -2.85656404119E-03 -1.17925435194E-03 -2.90372041113E-03 -1.02036358685E-03 -4.26292091634E-01 +2.15727060657E-01
3.06000000000E+09 -3.94515882709E-01 +2.66592428597E-01 -2.91232044401E-03 -4.84500996662E-04 -2.77052174079E-03 -3.24634232540E-04 -4.24558175541E-01 +2.53106387808E-01
3.06500000000E+09 -3.82594980446E-01 +2.97662100409E-01 -2.45349045595E-03 +1.41799751165E-04 -2.31521987026E-03 +1.28356602440E-04 -4.19906877802E-01 +2.89575785927E-01
3.07000000000E+09 -3.69945874238E-01 +3.26749828232E-01 -2.02192977762E-03 +1.30838214908E-04 -2.03661769929E-03 -4.45313228440E-05 -4.13892840146E-01 +3.24616750653E-01
