# Hz S RI R 50
! CMT, C1220, 16058040, 17.2.0/1
! Date: 15/08/2018 10:34:10
! Data: Format (Calibration Info)
! Freq                      S11: Re/Im (F2)                       S21: Re/Im (F2)                       S12: Re/Im (F2)                       S22: Re/Im (F2)            
2.50000000000E+09 +5.78532513428E-01 +6.66327113168E-01 -2.99401255927E-04 +5.45548188119E-05 -3.20534344505E-04 +1.40849110816E-04 +5.65460350279E-01 +7.22357495005E-01
2.50500000000E+09 +5.86039763674E-01 +6.58281781801E-01 -1.76524797956E-04 +1.04072046018E-04 -1.79643496227E-04 +1.00405833685E-04 +5.70927654292E-01 +7.16806410176E-01
2.51000000000E+09 +5.93730578916E-01 +6.49986407586E-01 -1.70226412693E-04 +5.22784275571E-05 -1.43777405441E-04 +6.13021905848E-05 +5.76579065974E-01 +7.11729296986E-01
2.51500000000E+09 +6.01257827665E-01 +6.42012490026E-01 -2.41639996514E-04 +4.08768260534E-05 -2.96521727791E-04 +4.90557967888E-05 +5.81960435245E-01 +7.06379031654E-01
2.52000000000E+09 +6.08070544617E-01 +6.33990215205E-01 -2.31126743530E-04 +1.60509714910E-04 -2.60236752424E-04 +1.49336937111E-04 +5.87120597314E-01 +7.00418170516E-01
2.52500000000E+09 +6.14023957808E-01 +6.26613604663E-01 -1.57857993519E-04 +2.09160068818E-04 -1.52923324721E-04 +1.58243495742E-04 +5.93006697056E-01 +6.94083972062E-01
2.53000000000E+09 +6.19450423644E-01 +6.19471436975E-01 -1.60933741845E-04 +1.41633416652E-04 -1.37039401676E-04 +1.83531969548E-04 +5.99120913984E-01 +6.87136573467E-01
2.53500000000E+09 +6.24128423372E-01 +6.12511902191E-01 -1.76390894880E-04 +2.32730096984E-04 -1.32150004023E-04 +2.04514691857E-04 +6.05063566106E-01 +6.80379607559E-01
2.54000000000E+09 +6.28676634648E-01 +6.05563114422E-01 -9.12843366605E-05 +2.47477307223E-04 -5.57170418591E-05 +2.49836515926E-04 +6.10993148367E-01 +6.73804954588E-01
2.54500000000E+09 +6.33449392292E-01 +5.98472319290E-01 -4.91405175793E-05 +1.98778062064E-04 -8.66459397613E-05 +1.89787352768E-04 +6.16871443561E-01 +6.67612703893E-01
2.55000000000E+09 +6.38417496494E-01 +5.90903923450E-01 -2.66242339154E-05 +1.87129975003E-04 -9.44934060242E-05 +2.27431154394E-04 +6.22242162349E-01 +6.61300378408E-01
2.55500000000E+09 +6.44055151525E-01 +5.82765106423E-01 -4.72791142129E-06 +2.09667080224E-04 -6.49040016698E-05 +2.85464207386E-04 +6.27370006938E-01 +6.54790932352E-01
2.56000000000E+09 +6.50503179752E-01 +5.74703595975E-01 +3.51449851342E-05 +2.37065494908E-04 +2.69040652563E-05 +2.49333780442E-04 +6.32380254010E-01 +6.47473328299E-01
2.56500000000E+09 +6.57640435509E-01 +5.66184794214E-01 +4.93431548094E-05 +1.99261210650E-04 +8.44309170193E-05 +1.61706925701E-04 +6.37516625129E-01 +6.39976653558E-01
2.57000000000E+09 +6.64982393185E-01 +5.57426752867E-01 -5.04262732031E-05 +1.92840616652E-04 +3.25276594591E-05 +1.51067795317E-04 +6.42805095317E-01 +6.32239494429E-01
2.57500000000E+09 +6.71889004383E-01 +5.48572803966E-01 +3.35258804981E-05 +2.04248510736E-04 +1.01197356707E-05 +1.79280163709E-04 +6.48445213204E-01 +6.24589212501E-01
2.58000000000E+09 +6.77779146788E-01 +5.40025053009E-01 -1.39585788492E-05 +2.58206667213E-04 +1.12361025891E-06 +1.99283515306E-04 +6.53402318400E-01 +6.16928324676E-01
2.58500000000E+09 +6.83253485713E-01 +5.32023978760E-01 -7.78292032611E-06 +2.43123262540E-04 +1.90522752365E-06 +2.20866025743E-04 +6.58108550637E-01 +6.09358492624E-01
2.59000000000E+09 +6.88123074542E-01 +5.24215617249E-01 +6.43701256812E-05 +2.29167231548E-04 +3.12856801336E-05 +2.04435190001E-04 +6.63044162650E-01 +6.02022847218E-01
2.59500000000E+09 +6.92693517547E-01 +5.16077026775E-01 +1.21788101472E-04 +2.32926229109E-04 +6.52205017215E-05 +2.39157642842E-04 +6.67909960938E-01 +5.93930139887E-01
2.60000000000E+09 +6.96573994541E-01 +5.07138216037E-01 +1.38476231337E-04 +2.03527037624E-04 +1.46273972330E-04 +1.60458992859E-04 +6.73064275507E-01 +5.85729822379E-01
2.60500000000E+09 +7.00607264279E-01 +4.97478818923E-01 +1.71721113413E-04 +2.11911388835E-04 +1.61685798296E-04 +2.27597133339E-04 +6.78422369462E-01 +5.77187526386E-01
2.61000000000E+09 +7.04779811711E-01 +4.86774567436E-01 +2.77798623934E-04 +2.74720991575E-04 +2.73836992102E-04 +2.42674679437E-04 +6.83595391695E-01 +5.68292655514E-01
2.61500000000E+09 +7.09788414025E-01 +4.74877671793E-01 +4.24809363231E-04 +1.37680830405E-04 +4.11206986295E-04 +1.62984887616E-04 +6.88492865796E-01 +5.59600359853E-01
2.62000000000E+09 +7.14779860697E-01 +4.61558301640E-01 +3.44380927775E-04 -9.99377936613E-05 +3.17109416554E-04 -1.01060570335E-04 +6.93211103717E-01 +5.50551038829E-01
2.62500000000E+09 +7.19360883995E-01 +4.47521987941E-01 +1.78908301985E-04 -1.83625865714E-06 +1.63754762086E-04 +4.74233461899E-06 +6.97734795489E-01 +5.41719001284E-01
2.63000000000E+09 +7.23853878439E-01 +4.33654482177E-01 +2.40372833992E-04 +6.75268695497E-05 +2.02866121140E-04 +4.84944665344E-05 +7.02283204464E-01 +5.32783873660E-01
2.63500000000E+09 +7.27913853288E-01 +4.20170809127E-01 +2.01213076520E-04 +3.13225313029E-05 +1.93819576766E-04 +2.63436856617E-07 +7.06938956929E-01 +5.23698627223E-01
2.64000000000E+09 +7.31539797278E-01 +4.07339992574E-01 +3.50728498191E-04 +6.91420908644E-05 +2.69400571913E-04 +8.25895317341E-05 +7.11501388443E-01 +5.14197680099E-01
2.64500000000E+09 +7.34892384676E-01 +3.95390991974E-01 +4.48249894014E-04 -6.58602894524E-05 +3.48469861839E-04 -6.65233636499E-05 +7.16040519065E-01 +5.04425915708E-01
2.65000000000E+09 +7.37544459183E-01 +3.84277311710E-01 +3.45036503979E-04 -2.26067216019E-04 +3.62979260981E-04 -1.59109114440E-04 +7.20107250877E-01 +4.94432915231E-01
2.65500000000E+09 +7.40473755445E-01 +3.73222361892E-01 +2.49781766509E-04 -2.68510915520E-04 +3.43986415704E-04 -2.59318147761E-04 +7.23981641114E-01 +4.84123300747E-01
2.66000000000E+09 +7.43458314610E-01 +3.61872227555E-01 +2.39225010874E-04 -2.20260103361E-04 +1.73741943134E-04 -2.15489192534E-04 +7.27881781282E-01 +4.73118971462E-01
2.66500000000E+09 +7.46219905737E-01 +3.50115221807E-01 +2.02423284501E-04 -2.90763263961E-04 +1.79189791835E-04 -3.14520428593E-04 +7.32124787346E-01 +4.62310301799E-01
2.67000000000E+09 +7.48943059963E-01 +3.37354661639E-01 +1.35745585154E-04 -3.76500785070E-04 +1.18076119611E-04 -3.80554532051E-04 +7.36526691636E-01 +4.51583634390E-01
2.67500000000E+09 +7.51619458388E-01 +3.23431529289E-01 -8.80959050378E-06 -2.90834598013E-04 -2.07599884775E-05 -2.99797982393E-04 +7.40733040856E-01 +4.40545232208E-01
2.68000000000E+09 +7.53708987329E-01 +3.08651584132E-01 +1.08835937601E-05 -2.65012197170E-04 -5.30201890242E-06 -2.67082186326E-04 +7.44648477528E-01 +4.29712004102E-01
2.68500000000E+09 +7.55280641094E-01 +2.93805437260E-01 +6.04883747720E-06 -3.58495942287E-04 +2.41790736352E-05 -3.54988121847E-04 +7.48084399742E-01 +4.18024240496E-01
2.69000000000E+09 +7.56730306501E-01 +2.79072489804E-01 -8.44071162985E-05 -3.45952998802E-04 -7.32486466688E-05 -3.60414134087E-04 +7.50512972463E-01 +4.05941631940E-01
2.69500000000E+09 +7.58037315932E-01 +2.64773420612E-01 -1.08425807630E-04 -2.98053836654E-04 -7.27020169295E-05 -2.98081689288E-04 +7.53144935865E-01 +3.93520098227E-01
2.70000000000E+09 +7.59087371582E-01 +2.50770458219E-01 -2.00901664212E-04 -3.87530440212E-04 -1.86497504348E-04 -3.87676310073E-04 +7.55767885808E-01 +3.80493637684E-01
2.70500000000E+09 +7.60367361955E-01 +2.37283124094E-01 -3.75403861263E-04 -2.62749947600E-04 -3.32618902603E-04 -2.48911123447E-04 +7.58921610424E-01 +3.67535576625E-01
2.71000000000E+09 +7.61171236381E-01 +2.23808033361E-01 -3.85260080069E-04 -1.01940239373E-04 -3.93943073891E-04 -1.08298432727E-04 +7.61431342643E-01 +3.54532349751E-01
2.71500000000E+09 +7.62279226482E-01 +2.10308799039E-01 -3.12262405263E-04 -2.29837700694E-05 -3.30166292791E-04 +6.04216565191E-06 +7.64006242692E-01 +3.41926956654E-01
2.72000000000E+09 +7.63377191230E-01 +1.95824917765E-01 -3.16155349459E-04 -5.39330724646E-05 -3.29299017273E-04 -2.68267972768E-05 +7.65501050154E-01 +3.29332099849E-01
2.72500000000E+09 +7.63701483071E-01 +1.80133659904E-01 -5.07517965923E-04 +3.33537329429E-05 -4.54503831555E-04 +8.87509939469E-05 +7.66513490018E-01 +3.16316571154E-01
2.73000000000E+09 +7.63339555591E-01 +1.63247829345E-01 -4.17750730356E-04 +2.77070546655E-04 -3.56816931643E-04 +3.23963809326E-04 +7.67462441003E-01 +3.02742036887E-01
2.73500000000E+09 +7.61664831787E-01 +1.45250723390E-01 -3.61775960771E-04 +4.46992656607E-04 -3.04882072807E-04 +4.14859138016E-04 +7.68451960917E-01 +2.88711731455E-01
2.74000000000E+09 +7.58994328316E-01 +1.27415165084E-01 -2.68030809088E-05 +5.30025453758E-04 -3.70876182504E-05 +4.67741717964E-04 +7.70413004363E-01 +2.74139628482E-01
2.74500000000E+09 +7.55328535720E-01 +1.09075783866E-01 +4.82801704440E-05 +3.38228956910E-04 +5.27358315716E-05 +3.85034351483E-04 +7.71771725129E-01 +2.59109494574E-01
2.75000000000E+09 +7.51060413413E-01 +9.10889602345E-02 +1.15007467597E-04 +3.45451107591E-04 +8.09263107876E-05 +3.63347409160E-04 +7.73010721349E-01 +2.44160224934E-01
2.75500000000E+09 +7.46170162415E-01 +7.36041466549E-02 +1.93121834857E-04 +3.33594878465E-04 +1.61912770865E-04 +3.04483409766E-04 +7.72918258879E-01 +2.29508602713E-01
2.76000000000E+09 +7.41778147339E-01 +5.62156637959E-02 +1.33327349757E-04 +4.68144574627E-04 +1.56842409455E-04 +4.60810083307E-04 +7.73159726865E-01 +2.14474875848E-01
2.76500000000E+09 +7.37130487643E-01 +3.81808271285E-02 +4.80522495820E-04 +2.91260997309E-04 +5.22525486622E-04 +3.49650798128E-04 +7.72504546219E-01 +1.97804328569E-01
2.77000000000E+09 +7.31929205677E-01 +1.96725396998E-02 +4.42608572922E-04 +1.29203287875E-04 +4.39538732354E-04 +1.28571866185E-04 +7.71583217793E-01 +1.80903860197E-01
2.77500000000E+09 +7.26999598319E-01 +6.14559730860E-04 +4.52889321869E-04 +2.32312645218E-04 +4.68075712076E-04 +2.05471064783E-04 +7.70398648241E-01 +1.63018966671E-01
2.78000000000E+09 +7.21897062891E-01 -2.00291219482E-02 +6.90859007593E-04 +7.79846389994E-05 +6.73621862588E-04 -1.54597397956E-06 +7.68823915096E-01 +1.45214383579E-01
2.78500000000E+09 +7.15333346324E-01 -4.15588255277E-02 +7.68630233568E-04 -6.86119039579E-05 +7.33671209173E-04 -1.08782243271E-04 +7.66522788547E-01 +1.27132471466E-01
2.79000000000E+09 +7.08249610077E-01 -6.34924147321E-02 +6.70893860901E-04 -4.62349186285E-04 +5.96611607734E-04 -4.34184081514E-04 +7.63320861946E-01 +1.09933300995E-01
2.79500000000E+09 +6.99855905997E-01 -8.55669423815E-02 +4.36530987214E-04 -4.31815757521E-04 +4.06311240951E-04 -4.35488968102E-04 +7.59168215005E-01 +9.20825931912E-02
2.80000000000E+09 +6.90381234853E-01 -1.06744238576E-01 +3.81868691782E-04 -5.58708069259E-04 +3.85708219132E-04 -4.72612018695E-04 +7.54556191261E-01 +7.39383023613E-02
2.80500000000E+09 +6.80640243804E-01 -1.26769567212E-01 +3.31554189254E-04 -4.95526814691E-04 +3.51792574021E-04 -4.20020568144E-04 +7.49049704277E-01 +5.48818955755E-02
2.81000000000E+09 +6.70064854977E-01 -1.45400549351E-01 +4.00650752758E-04 -5.40250901830E-04 +3.79627411437E-04 -5.35304998902E-04 +7.42594876862E-01 +3.58695103860E-02
2.81500000000E+09 +6.58968659179E-01 -1.62866913769E-01 +3.88069254690E-04 -7.38476992054E-04 +3.72100514522E-04 -7.52483051496E-04 +7.36205845347E-01 +1.66411687719E-02
2.82000000000E+09 +6.47347382344E-01 -1.80064870852E-01 +1.53547858495E-04 -8.33979829863E-04 +1.39141166550E-04 -7.94170565428E-04 +7.29084222894E-01 -2.93624147193E-03
2.82500000000E+09 +6.34185879529E-01 -1.97177038750E-01 +2.59998758759E-04 -9.12691058125E-04 +1.97998956634E-04 -8.61264440328E-04 +7.21325127066E-01 -2.25557437552E-02
2.83000000000E+09 +6.19203077565E-01 -2.14318404453E-01 -1.75778239072E-05 -1.23118606652E-03 +3.55656629094E-05 -1.13812333743E-03 +7.12711069570E-01 -4.25831437325E-02
2.83500000000E+09 +6.03266412078E-01 -2.31781054314E-01 -4.16221515249E-04 -1.29865173816E-03 -3.40357648794E-04 -1.30523439967E-03 +7.02884600265E-01 -6.26990047146E-02
2.84000000000E+09 +5.85429428602E-01 -2.50472090638E-01 -7.10783144500E-04 -1.02756314346E-03 -6.87468297750E-04 -1.04175285053E-03 +6.92375587943E-01 -8.35837707823E-02
2.84500000000E+09 +5.64823030037E-01 -2.70260538600E-01 -7.79232205754E-04 -8.79639773038E-04 -7.33358778585E-04 -8.90896800571E-04 +6.80454883254E-01 -1.04278275993E-01
2.85000000000E+09 +5.42346493785E-01 -2.89506052140E-01 -8.65360882560E-04 -9.05840861604E-04 -8.33215180221E-04 -9.03533241583E-04 +6.67281246832E-01 -1.25360980350E-01
2.85500000000E+09 +5.18229468226E-01 -3.08401127759E-01 -1.12290868442E-03 -7.54271934057E-04 -1.17034730546E-03 -7.55402586352E-04 +6.52832745025E-01 -1.45891230014E-01
2.86000000000E+09 +4.94014128265E-01 -3.26239533701E-01 -1.11635159104E-03 -7.11834876415E-04 -1.02318006370E-03 -6.93662046939E-04 +6.37886539171E-01 -1.67072247115E-01
2.86500000000E+09 +4.69034949114E-01 -3.43109786141E-01 -1.40065720551E-03 -5.56829292875E-04 -1.41018500996E-03 -6.44780242598E-04 +6.20588310535E-01 -1.88842250604E-01
2.87000000000E+09 +4.44464715917E-01 -3.58226051011E-01 -1.51354860972E-03 -5.37838847875E-04 -1.51284039800E-03 -5.50643837867E-04 +6.01090634922E-01 -2.09713513584E-01
2.87500000000E+09 +4.20116482556E-01 -3.73059923087E-01 -2.10484109825E-03 -4.79997618342E-04 -2.13538166539E-03 -4.39564409008E-04 +5.80716322392E-01 -2.29283615627E-01
2.88000000000E+09 +3.94328105760E-01 -3.86184622684E-01 -2.47854961183E-03 +2.90517867224E-04 -2.44728935255E-03 +3.52569898777E-04 +5.59190370079E-01 -2.49317539714E-01
2.88500000000E+09 +3.68103200531E-01 -3.97787088954E-01 -2.38093205972E-03 +1.21873456673E-03 -2.26901948033E-03 +1.16367057980E-03 +5.35721228343E-01 -2.67964054352E-01
2.89000000000E+09 +3.40740948246E-01 -4.09020047626E-01 -1.66061532105E-03 +1.88283877350E-03 -1.58121495749E-03 +1.71993248508E-03 +5.10215563999E-01 -2.86310725829E-01
2.89500000000E+09 +3.09809303836E-01 -4.18865589131E-01 -1.00793037424E-03 +1.46265348699E-03 -1.04149265018E-03 +1.37248221331E-03 +4.83247800475E-01 -3.03628803218E-01
2.90000000000E+09 +2.77517049361E-01 -4.26229904247E-01 -1.40801699152E-03 +1.45717853032E-03 -1.41540915538E-03 +1.41758398146E-03 +4.54772110646E-01 -3.20483463966E-01
2.90500000000E+09 +2.43397946990E-01 -4.31801483128E-01 -1.15754142555E-03 +1.85090250715E-03 -1.21937795487E-03 +1.86934431385E-03 +4.24610508054E-01 -3.36495591169E-01
2.91000000000E+09 +2.08673975790E-01 -4.36022063773E-01 -1.08622272172E-03 +2.19252823556E-03 -9.40817770823E-04 +2.23385353227E-03 +3.92708104011E-01 -3.50061512639E-01
2.91500000000E+09 +1.72349644980E-01 -4.38675323087E-01 -4.35219544518E-04 +2.49993198130E-03 -3.85135244943E-04 +2.39037146443E-03 +3.60893340926E-01 -3.61186586535E-01
2.92000000000E+09 +1.35887706498E-01 -4.38563360896E-01 -2.05761113516E-04 +2.35780216282E-03 -1.64147945870E-04 +2.28831664339E-03 +3.27905748911E-01 -3.71462762274E-01
2.92500000000E+09 +1.00074507593E-01 -4.37196439005E-01 +5.11300196858E-06 +3.01258066909E-03 -1.21961648768E-04 +2.77351687711E-03 +2.92580261395E-01 -3.79742724177E-01
2.93000000000E+09 +6.40968299064E-02 -4.33824181908E-01 +1.11727120184E-03 +2.85383444554E-03 +9.33353985161E-04 +2.80932032446E-03 +2.55113007545E-01 -3.86338889887E-01
2.93500000000E+09 +2.92934915620E-02 -4.28420505991E-01 +1.29045802471E-03 +2.56611469369E-03 +1.15847840084E-03 +2.65387519162E-03 +2.16475386249E-01 -3.89892824246E-01
2.94000000000E+09 -5.36561084295E-03 -4.21455612240E-01 +2.00238541121E-03 +2.49463301979E-03 +1.99119799666E-03 +2.56064910478E-03 +1.77735173788E-01 -3.91652018315E-01
2.94500000000E+09 -4.05405263629E-02 -4.11599844455E-01 +2.31431587532E-03 +1.88665055675E-03 +2.29498086107E-03 +1.90415672577E-03 +1.38508789454E-01 -3.92249700765E-01
2.95000000000E+09 -7.52481143879E-02 -3.98427151325E-01 +2.55705836428E-03 +1.47905784080E-03 +2.46303198804E-03 +1.55565041945E-03 +9.81271236541E-02 -3.90083777442E-01
2.95500000000E+09 -1.09170895930E-01 -3.82026832590E-01 +2.82869420795E-03 +9.09344599066E-04 +2.86007868400E-03 +1.08573589631E-03 +5.70319408934E-02 -3.83503504952E-01
2.96000000000E+09 -1.41947168883E-01 -3.62863940269E-01 +2.51034147520E-03 +5.88682641036E-04 +2.63212352655E-03 +6.87715365907E-04 +1.75001321031E-02 -3.73614337318E-01
2.96500000000E+09 -1.74054034089E-01 -3.40752712427E-01 +2.80383108476E-03 +7.64034889308E-04 +2.93445233355E-03 +7.61465054431E-04 -2.31226042722E-02 -3.61703802239E-01
2.97000000000E+09 -2.04414943545E-01 -3.15981777052E-01 +3.67760198033E-03 +7.56037945677E-05 +3.71113053183E-03 -3.77051769833E-05 -6.24778358923E-02 -3.46011999500E-01
2.97500000000E+09 -2.33441818759E-01 -2.89913351093E-01 +3.62363561150E-03 -1.11700002273E-03 +3.49308615115E-03 -1.13048410221E-03 -1.02300643158E-01 -3.29182333609E-01
2.98000000000E+09 -2.61607548355E-01 -2.61486866295E-01 +2.95589044002E-03 -1.90192878096E-03 +2.89699799899E-03 -1.70821653125E-03 -1.40311872036E-01 -3.07446001846E-01
2.98500000000E+09 -2.86941735676E-01 -2.30623649443E-01 +2.06733787985E-03 -1.97375269437E-03 +2.16366223793E-03 -1.93833889151E-03 -1.75697468941E-01 -2.84081037613E-01
2.99000000000E+09 -3.09742078379E-01 -1.99926392658E-01 +2.07593572502E-03 -1.89345478732E-03 +2.19717295911E-03 -1.95239649820E-03 -2.09679890283E-01 -2.57607318550E-01
2.99500000000E+09 -3.32313150700E-01 -1.69308299426E-01 +2.11927890258E-03 -2.40914907634E-03 +2.13386630355E-03 -2.55890765770E-03 -2.41270552186E-01 -2.29041046392E-01
3.00000000000E+09 -3.53543697220E-01 -1.35489895791E-01 +1.60284648418E-03 -3.02982381481E-03 +1.51749900712E-03 -3.11642969716E-03 -2.71936639417E-01 -1.97478231590E-01
3.00500000000E+09 -3.70788375475E-01 -1.01406851263E-01 +6.23399884939E-04 -3.30717836764E-03 +4.40691790121E-04 -3.23463469080E-03 -2.99601938223E-01 -1.64111550086E-01
3.01000000000E+09 -3.86898945717E-01 -6.73139359151E-02 -6.78733855499E-05 -2.77555075580E-03 -7.02398974273E-05 -2.64369718847E-03 -3.25353079774E-01 -1.29224190536E-01
3.01500000000E+09 -3.99148620189E-01 -3.22235573557E-02 +2.15093736279E-04 -2.70045309592E-03 +2.66608707891E-04 -2.60912290726E-03 -3.47875503218E-01 -9.38167520394E-02
3.02000000000E+09 -4.09359075434E-01 +1.89439120434E-03 -4.02199825756E-04 -3.07201260599E-03 -3.17810286451E-04 -3.05121621919E-03 -3.68314942872E-01 -5.72303271481E-02
3.02500000000E+09 -4.16543702046E-01 +3.62653743210E-02 -8.12011758188E-04 -2.97964054850E-03 -7.77337516991E-04 -2.96830775707E-03 -3.85425684910E-01 -1.85420312082E-02
3.03000000000E+09 -4.21224584063E-01 +7.07864008018E-02 -1.78748425385E-03 -2.75390187071E-03 -1.72617320493E-03 -2.73423844026E-03 -3.98432426033E-01 +2.02490666459E-02
3.03500000000E+09 -4.21399811496E-01 +1.04611205521E-01 -1.98838020299E-03 -1.78481869204E-03 -1.98914705460E-03 -1.82514437550E-03 -4.09566336319E-01 +5.91837902871E-02
3.04000000000E+09 -4.20372378714E-01 +1.36196489642E-01 -1.81392927116E-03 -1.72703074719E-03 -1.78894590709E-03 -1.81834759056E-03 -4.18404263615E-01 +9.85279310150E-02
3.04500000000E+09 -4.18098990114E-01 +1.69344299108E-01 -2.07648038911E-03 -1.52648793430E-03 -2.09526432986E-03 -1.61680126228E-03 -4.24496415494E-01 +1.38516484088E-01
3.05000000000E+09 -4.12191100854E-01 +2.02529316204E-01 -2.21527414167E-03 -1.36316327557E-03 -2.43841794042E-03 -1.32106420189E-03 -4.27589018170E-01 +1.77829250191E-01
3.05500000000E+09 -4.04478474742E-01 +2.35208585862E-01 -2.70189185290E-03 -9.32614994739E-04 -2.77816083678E-03 -7.67631845843E-04 -4.27866457184E-01 +2.16187761872E-01
3.06000000000E+09 -3.94454386322E-01 +2.67440665062E-01 -2.76638259722E-03 -2.77455972399E-04 -2.70207444080E-03 -1.30100868488E-04 -4.25705980675E-01 +2.53988435116E-01
3.06500000000E+09 -3.82466273380E-01 +2.98679741872E-01 -2.49924928946E-03 +3.93147184433E-04 -2.33061191379E-03 +3.81464919798E-04 -4.20549747523E-01 +2.90508609558E-01
3.07000000000E+09 -3.69637970401E-01 +3.27760835398E-01 -2.10530091684E-03 +5.19660937008E-04 -2.05554600319E-03 +3.42291802986E-04 -4.14021908442E-01 +3.25561073240E-01
