# Hz S RI R 50
! CMT, C1220, 16058040, 17.2.0/1
! Date: 15/08/2018 10:36:52
! Data: Format (Calibration Info)
! Freq                      S11: Re/Im (F2)                       S21: Re/Im (F2)                       S12: Re/Im (F2)                       S22: Re/Im (F2)            
2.50000000000E+09 +5.78102398982E-01 +6.67151471947E-01 -2.71757359518E-04 -5.82317341748E-05 -3.03876134443E-04 -7.17397953363E-05 +5.65201650635E-01 +7.22346718935E-01
2.50500000000E+09 +5.85312314219E-01 +6.59230478078E-01 -2.47401746906E-04 -4.84239467802E-05 -2.41200655363E-04 -2.92024109547E-05 +5.70836915944E-01 +7.16698005859E-01
2.51000000000E+09 +5.93008551208E-01 +6.50959924867E-01 -2.43341401845E-04 -5.92750365923E-05 -1.93220531444E-04 -1.89428636279E-05 +5.76384402557E-01 +7.11533150841E-01
2.51500000000E+09 +6.00541367392E-01 +6.42931895632E-01 -2.77233674636E-04 -1.21993224530E-04 -2.58914479607E-04 -1.08202903967E-04 +5.81720645111E-01 +7.06174791532E-01
2.52000000000E+09 +6.07489746831E-01 +6.35129667676E-01 -3.49548700209E-04 -1.03353306267E-05 -3.65726033629E-04 +1.02803492934E-05 +5.86827433068E-01 +7.00239820273E-01
2.52500000000E+09 +6.13454461829E-01 +6.27632550074E-01 -2.50984840490E-04 +5.00809555305E-05 -2.21213476441E-04 +8.39175161343E-05 +5.92588741813E-01 +6.93912152481E-01
2.53000000000E+09 +6.18889766880E-01 +6.20572088525E-01 -2.25695805369E-04 +1.64058197701E-05 -1.92634345316E-04 +4.83853494359E-05 +5.98760191427E-01 +6.87021033518E-01
2.53500000000E+09 +6.23658909505E-01 +6.13679869239E-01 -2.38146303997E-04 -2.49111209957E-05 -2.87836374694E-04 +5.75036531240E-06 +6.04685925266E-01 +6.80354560187E-01
2.54000000000E+09 +6.28075214815E-01 +6.06799836636E-01 -3.72378629968E-04 +1.60669068242E-05 -3.70318737347E-04 +8.67879836867E-07 +6.10742238136E-01 +6.73828594786E-01
2.54500000000E+09 +6.32795896707E-01 +5.99787198415E-01 -4.17424800148E-04 +2.11682561803E-04 -4.34465762875E-04 +1.33879530314E-04 +6.16450903230E-01 +6.67613573610E-01
2.55000000000E+09 +6.37815364981E-01 +5.92332707060E-01 -3.09531198320E-04 +3.08692813637E-04 -4.21805767241E-04 +3.10654053233E-04 +6.22020521914E-01 +6.61254621668E-01
2.55500000000E+09 +6.43420435013E-01 +5.84181894622E-01 -2.13726998392E-04 +3.48796593126E-04 -2.21078406190E-04 +4.08139206718E-04 +6.27040767162E-01 +6.54558028939E-01
2.56000000000E+09 +6.49756569048E-01 +5.76185739220E-01 -1.39482777666E-04 +2.40591984016E-04 -1.40886888060E-04 +2.66274706440E-04 +6.32053966110E-01 +6.47417043024E-01
2.56500000000E+09 +6.56632261685E-01 +5.67560122042E-01 -1.29398697489E-04 +1.80550559142E-04 -1.08405437605E-04 +2.68075179464E-04 +6.37103750251E-01 +6.39846855951E-01
2.57000000000E+09 +6.63842288122E-01 +5.58826438100E-01 -2.61105339803E-04 +2.17871314581E-04 -2.05339132498E-04 +2.51331553717E-04 +6.42387617394E-01 +6.32234673816E-01
2.57500000000E+09 +6.70646912479E-01 +5.49763911634E-01 -2.33873531744E-04 +3.24538975605E-04 -1.48805813194E-04 +3.75086298857E-04 +6.47898585654E-01 +6.24650903823E-01
2.58000000000E+09 +6.76274020334E-01 +5.41248851189E-01 -1.21043753366E-04 +4.14139629562E-04 -7.24197707806E-05 +3.61640837440E-04 +6.52962642129E-01 +6.16914328013E-01
2.58500000000E+09 +6.81799983192E-01 +5.33388778761E-01 -8.54160904479E-05 +4.32312906040E-04 -1.01200233945E-04 +3.64695018337E-04 +6.57599471711E-01 +6.09317363201E-01
2.59000000000E+09 +6.86703908972E-01 +5.25788781763E-01 +1.00237244604E-05 +4.26026754474E-04 -6.76240658829E-05 +4.30193688359E-04 +6.62331405307E-01 +6.01939061589E-01
2.59500000000E+09 +6.91269666189E-01 +5.17703486452E-01 +5.38988549198E-05 +4.75521474585E-04 +5.08978471583E-05 +4.25475149626E-04 +6.67101419411E-01 +5.94013925294E-01
2.60000000000E+09 +6.95450742033E-01 +5.08972689930E-01 +8.55437020618E-05 +4.19554049916E-04 +8.67999116780E-05 +4.06060381816E-04 +6.72219322014E-01 +5.85972796234E-01
2.60500000000E+09 +6.99316153306E-01 +4.99352474366E-01 +1.11205581313E-04 +4.41726449537E-04 +1.39786128682E-04 +4.38389335329E-04 +6.77465746788E-01 +5.77489935641E-01
2.61000000000E+09 +7.03502152542E-01 +4.89001902093E-01 +2.18315330448E-04 +4.48010042796E-04 +1.96875993252E-04 +4.50468767892E-04 +6.82655835601E-01 +5.68886001924E-01
2.61500000000E+09 +7.08443152795E-01 +4.77427653470E-01 +3.63542850817E-04 +3.24784638861E-04 +3.60339099438E-04 +3.66757281951E-04 +6.87629681297E-01 +5.60305695848E-01
2.62000000000E+09 +7.13211195606E-01 +4.64449789253E-01 +2.56952922666E-04 +2.26380260133E-04 +2.94239792741E-04 +1.82096694083E-04 +6.92577915468E-01 +5.51327171305E-01
2.62500000000E+09 +7.18037348096E-01 +4.50676194217E-01 +1.77722578039E-04 +2.52304430847E-04 +2.06493579973E-04 +3.15927412892E-04 +6.97152069811E-01 +5.42396230455E-01
2.63000000000E+09 +7.22462450819E-01 +4.36839271205E-01 +2.78517372284E-04 +3.69916561324E-04 +3.04075371787E-04 +3.16703691333E-04 +7.01591239843E-01 +5.33547061735E-01
2.63500000000E+09 +7.26471825461E-01 +4.23319081798E-01 +3.70239650178E-04 +3.11946300461E-04 +3.94667577495E-04 +2.34335832606E-04 +7.06320950181E-01 +5.24639388920E-01
2.64000000000E+09 +7.30177915660E-01 +4.10668210151E-01 +4.28156946964E-04 +3.49573257966E-04 +4.11986566419E-04 +2.80366060333E-04 +7.11045296269E-01 +5.15228801977E-01
2.64500000000E+09 +7.33657825542E-01 +3.98786709823E-01 +6.14609422652E-04 +1.50115232113E-04 +4.59822001144E-04 +1.51500734177E-04 +7.15817527112E-01 +5.05504022771E-01
2.65000000000E+09 +7.36457535762E-01 +3.87852890081E-01 +5.43096560855E-04 +2.94120380744E-06 +5.22365029418E-04 +1.27100084707E-04 +7.19929114793E-01 +4.95401189827E-01
2.65500000000E+09 +7.39649186456E-01 +3.76874674738E-01 +5.33162406931E-04 +3.01552322511E-06 +5.37445070219E-04 +7.07308007158E-06 +7.23797915279E-01 +4.85031116181E-01
2.66000000000E+09 +7.42589745150E-01 +3.65770013611E-01 +5.24621631241E-04 -1.10927636103E-05 +5.35519408321E-04 -5.02084792500E-05 +7.27768643377E-01 +4.74030704295E-01
2.66500000000E+09 +7.45455839849E-01 +3.54167342514E-01 +5.38403538771E-04 -5.25544122527E-05 +5.04176390159E-04 -7.05606017569E-05 +7.32021218190E-01 +4.63271076140E-01
2.67000000000E+09 +7.48338186253E-01 +3.41613141857E-01 +6.28605459584E-04 -1.97891539055E-04 +5.64359682401E-04 -2.11942566299E-04 +7.36502054250E-01 +4.52421525824E-01
2.67500000000E+09 +7.51024357825E-01 +3.28041558085E-01 +5.39513495083E-04 -3.71531029037E-04 +4.86076226525E-04 -3.09725451355E-04 +7.40672408146E-01 +4.41574585792E-01
2.68000000000E+09 +7.53159037337E-01 +3.13569698294E-01 +5.08447821069E-04 -4.52886150695E-04 +4.99252115462E-04 -4.20030783297E-04 +7.44769793910E-01 +4.30858809132E-01
2.68500000000E+09 +7.54768926793E-01 +2.98663694216E-01 +2.43183653753E-04 -5.73750075957E-04 +2.86469968730E-04 -6.15170943340E-04 +7.48235613745E-01 +4.19170267886E-01
2.69000000000E+09 +7.56057179125E-01 +2.84128570275E-01 +9.56056041848E-05 -4.85453095469E-04 +1.22552792895E-04 -5.05808778220E-04 +7.50999793164E-01 +4.07107188132E-01
2.69500000000E+09 +7.57457204831E-01 +2.70131468986E-01 +5.95912359449E-05 -4.57076263299E-04 +9.35402175205E-05 -4.47386872445E-04 +7.53594738417E-01 +3.94563685345E-01
2.70000000000E+09 +7.58909849006E-01 +2.56200835326E-01 +6.18767278206E-05 -4.87235609093E-04 +5.79923602482E-05 -4.44604322556E-04 +7.56449873253E-01 +3.81685103904E-01
2.70500000000E+09 +7.60239886501E-01 +2.42730246153E-01 -6.65793384687E-05 -4.86793849555E-04 -3.41663876123E-05 -4.33309262488E-04 +7.59493091514E-01 +3.68389546519E-01
2.71000000000E+09 +7.61550224690E-01 +2.29220105431E-01 -1.67958119387E-04 -3.42301140450E-04 -1.64504502830E-04 -4.16816941071E-04 +7.62076732619E-01 +3.55499094131E-01
2.71500000000E+09 +7.62950827241E-01 +2.15576310240E-01 -1.36579635357E-04 -3.71565383587E-04 -1.41705521699E-04 -3.69430777184E-04 +7.64808999467E-01 +3.42983915321E-01
2.72000000000E+09 +7.64214574036E-01 +2.01052899565E-01 -2.91301460662E-04 -3.91162411099E-04 -2.65367968259E-04 -4.05127870003E-04 +7.66565459733E-01 +3.30039000151E-01
2.72500000000E+09 +7.64786557252E-01 +1.85614752749E-01 -3.85183834052E-04 -2.46530792136E-04 -4.12371711216E-04 -1.66421419621E-04 +7.67468500726E-01 +3.16988354882E-01
2.73000000000E+09 +7.64659873631E-01 +1.69209490707E-01 -3.91397328209E-04 -9.35051350182E-05 -3.66089201923E-04 -2.77272504534E-06 +7.68493599746E-01 +3.03271463364E-01
2.73500000000E+09 +7.63332797103E-01 +1.51405067345E-01 -4.06904304380E-04 +2.04439150683E-04 -3.54455117702E-04 +2.11500895527E-04 +7.69619857762E-01 +2.89318265809E-01
2.74000000000E+09 +7.60913666836E-01 +1.33844639133E-01 -6.76268118097E-05 +3.83293510118E-04 -1.33414997203E-04 +2.95175663407E-04 +7.71567313537E-01 +2.74504373333E-01
2.74500000000E+09 +7.57803451157E-01 +1.15869696161E-01 +8.89099026908E-05 +2.15573165619E-04 +7.10685687982E-05 +2.47234530525E-04 +7.72802523404E-01 +2.59485558566E-01
2.75000000000E+09 +7.53959009304E-01 +9.78080174091E-02 +2.48003100459E-04 +1.60663970644E-04 +2.85250291370E-04 +1.20265020639E-04 +7.73942024910E-01 +2.44726146783E-01
2.75500000000E+09 +7.49467877434E-01 +7.99047944155E-02 +1.59398725590E-04 -1.36677258157E-04 +2.32254397789E-04 -3.92410152539E-05 +7.74275900665E-01 +2.29938490439E-01
2.76000000000E+09 +7.45065946462E-01 +6.24734430843E-02 -6.49507845134E-06 +5.20729202731E-05 +3.39097976439E-05 +3.17697886050E-05 +7.74526051016E-01 +2.14785669328E-01
2.76500000000E+09 +7.40587328096E-01 +4.44277296146E-02 +2.11730348356E-04 +1.43047621778E-04 +2.00367135466E-04 +1.41889514423E-04 +7.73939716233E-01 +1.97818089557E-01
2.77000000000E+09 +7.35773582283E-01 +2.57685578673E-02 +2.70780661877E-04 -4.48234326709E-05 +2.38077188542E-04 -5.23122102676E-05 +7.73022977129E-01 +1.80717175296E-01
2.77500000000E+09 +7.31157649818E-01 +6.75198199811E-03 +2.34047981901E-04 +9.18641652206E-06 +2.48086775871E-04 +1.85006100441E-05 +7.71697047149E-01 +1.62671829711E-01
2.78000000000E+09 +7.26481158590E-01 -1.38820426293E-02 +4.24238743090E-04 +3.88005550514E-06 +4.61365147178E-04 -7.89381758485E-06 +7.70144776644E-01 +1.44699801810E-01
2.78500000000E+09 +7.20422352177E-01 -3.54988617615E-02 +6.70555442583E-04 -2.18224659958E-04 +6.33375890865E-04 -1.55641463650E-04 +7.67707011919E-01 +1.26502891562E-01
2.79000000000E+09 +7.13954243777E-01 -5.76424841896E-02 +5.86376326268E-04 -6.02970151992E-04 +5.03801638937E-04 -5.94143112683E-04 +7.64549046134E-01 +1.09190430588E-01
2.79500000000E+09 +7.05940349925E-01 -7.98810761184E-02 +3.29190940777E-04 -7.05843286248E-04 +3.24866568675E-04 -6.51694008736E-04 +7.60392479224E-01 +9.11970405370E-02
2.80000000000E+09 +6.96704387618E-01 -1.01212190140E-01 +1.28262619613E-04 -7.65923690589E-04 +9.20056763847E-05 -7.26790714507E-04 +7.55771078064E-01 +7.28833329806E-02
2.80500000000E+09 +6.87263373945E-01 -1.21077120136E-01 +2.35885405675E-05 -6.05529912104E-04 +2.46302792203E-05 -5.79861582124E-04 +7.50091122277E-01 +5.36228161818E-02
2.81000000000E+09 +6.77041236872E-01 -1.39890247212E-01 +1.54579272160E-04 -5.74186501347E-04 +1.53160904847E-04 -5.37822667828E-04 +7.43409473726E-01 +3.42743536356E-02
2.81500000000E+09 +6.66587700293E-01 -1.57773241819E-01 +2.19955134871E-04 -7.34292730583E-04 +1.91492684663E-04 -7.97808340410E-04 +7.36699973284E-01 +1.49421265562E-02
2.82000000000E+09 +6.55263808005E-01 -1.75526847742E-01 +1.20489915705E-04 -8.75852722784E-04 +6.11609351916E-05 -8.65159735537E-04 +7.29427952895E-01 -4.48661033893E-03
2.82500000000E+09 +6.42728268226E-01 -1.93020475597E-01 +2.29756221192E-04 -1.09627671593E-03 +1.52097207568E-04 -1.05106220439E-03 +7.21538207200E-01 -2.40313110851E-02
2.83000000000E+09 +6.28298468984E-01 -2.11125411803E-01 -1.92987041520E-04 -1.60612109707E-03 -1.60170025601E-04 -1.53154385317E-03 +7.12849468648E-01 -4.43126743222E-02
2.83500000000E+09 +6.12153381359E-01 -2.29426352975E-01 -9.93536789338E-04 -1.52029332976E-03 -9.03285813554E-04 -1.48114796540E-03 +7.02642270174E-01 -6.45993054471E-02
2.84000000000E+09 +5.94399631594E-01 -2.48343332068E-01 -1.29502778468E-03 -1.04380704835E-03 -1.25520760920E-03 -1.06696620498E-03 +6.91916079755E-01 -8.53780739917E-02
2.84500000000E+09 +5.74155950290E-01 -2.68529048707E-01 -1.30342887540E-03 -6.62281762721E-04 -1.34423535805E-03 -7.13518497944E-04 +6.79792002082E-01 -1.06141081742E-01
2.85000000000E+09 +5.52308395981E-01 -2.88280607738E-01 -1.13979250288E-03 -7.42209013751E-04 -1.14518699497E-03 -7.20855878792E-04 +6.66278824580E-01 -1.27350572434E-01
2.85500000000E+09 +5.28384024518E-01 -3.08122101844E-01 -1.48427966869E-03 -7.33820071929E-04 -1.47467940744E-03 -7.10743755643E-04 +6.51334721602E-01 -1.47852090690E-01
2.86000000000E+09 +5.03965927506E-01 -3.26470105429E-01 -1.52871817645E-03 -5.52051577243E-04 -1.49926544172E-03 -5.29839356726E-04 +6.35685976855E-01 -1.68632265008E-01
2.86500000000E+09 +4.79496530882E-01 -3.44085801107E-01 -1.87901880038E-03 -4.69295843638E-04 -1.84356879241E-03 -4.48627681893E-04 +6.18161333314E-01 -1.89637529122E-01
2.87000000000E+09 +4.54351064123E-01 -3.60395604024E-01 -2.09729531537E-03 -1.27822557080E-04 -2.10774560410E-03 -1.05500050971E-04 +5.98600919632E-01 -2.10392061192E-01
2.87500000000E+09 +4.29467867184E-01 -3.75268779456E-01 -2.42305110605E-03 -9.31449259453E-06 -2.34146996104E-03 +1.31436494123E-04 +5.78139877147E-01 -2.29574147266E-01
2.88000000000E+09 +4.03736482514E-01 -3.88989738020E-01 -2.83003489656E-03 +7.20096205909E-04 -2.70902816154E-03 +8.10449355408E-04 +5.56592831873E-01 -2.49310115476E-01
2.88500000000E+09 +3.77587109103E-01 -4.01185991543E-01 -2.53200840626E-03 +1.88007377557E-03 -2.35569694068E-03 +1.82697397568E-03 +5.32986146561E-01 -2.67632668605E-01
2.89000000000E+09 +3.50035785976E-01 -4.13344715975E-01 -1.66166345756E-03 +2.21348625207E-03 -1.56469112721E-03 +2.03530915858E-03 +5.07366326362E-01 -2.85282933001E-01
2.89500000000E+09 +3.19309338544E-01 -4.24123292482E-01 -1.17157393024E-03 +1.97639456640E-03 -1.21867587721E-03 +1.90097199462E-03 +4.80682982615E-01 -3.01844306341E-01
2.90000000000E+09 +2.86584947796E-01 -4.32751305327E-01 -1.28040133856E-03 +2.00227225895E-03 -1.37091972015E-03 +1.96967663924E-03 +4.52638877923E-01 -3.18266682019E-01
2.90500000000E+09 +2.51686613706E-01 -4.39383447150E-01 -1.21485850999E-03 +2.35622604163E-03 -1.24125752906E-03 +2.37908141593E-03 +4.22832917810E-01 -3.33769931244E-01
2.91000000000E+09 +2.16151880823E-01 -4.43959064763E-01 -9.67337963762E-04 +2.78083100332E-03 -8.75614688476E-04 +2.77944821475E-03 +3.91543049926E-01 -3.47078274658E-01
2.91500000000E+09 +1.79210598720E-01 -4.47282958195E-01 -3.59800160658E-04 +3.03638685390E-03 -2.50451400673E-04 +2.95106639056E-03 +3.60336662531E-01 -3.58520462814E-01
2.92000000000E+09 +1.41794947034E-01 -4.47452331201E-01 +1.54506995279E-04 +3.14797532239E-03 -1.83316252914E-05 +2.93527224270E-03 +3.27370440926E-01 -3.69380817140E-01
2.92500000000E+09 +1.05151518799E-01 -4.46511647945E-01 +5.46691004394E-04 +3.38487692095E-03 +4.25844899232E-04 +3.22911382476E-03 +2.91568032996E-01 -3.77384196999E-01
2.93000000000E+09 +6.85726177265E-02 -4.43362157405E-01 +1.51298171050E-03 +3.24799331974E-03 +1.33014578259E-03 +3.28265787553E-03 +2.54306419258E-01 -3.83183919805E-01
2.93500000000E+09 +3.29288007444E-02 -4.38550268040E-01 +1.97293400818E-03 +2.77986141440E-03 +1.81466664970E-03 +2.85532904808E-03 +2.16352573522E-01 -3.86203036808E-01
2.94000000000E+09 -3.09897593827E-03 -4.32201925518E-01 +2.28447290576E-03 +2.44858078379E-03 +2.23470455888E-03 +2.50350051815E-03 +1.78195619339E-01 -3.87758105058E-01
2.94500000000E+09 -3.95142588619E-02 -4.22361639697E-01 +2.53860242512E-03 +2.41836025993E-03 +2.47607153107E-03 +2.40791351158E-03 +1.39937954200E-01 -3.88573435873E-01
2.95000000000E+09 -7.49080684913E-02 -4.09228242469E-01 +3.15424363635E-03 +1.86941121658E-03 +3.07554247042E-03 +1.94051501381E-03 +9.95284819470E-02 -3.86662434538E-01
2.95500000000E+09 -1.09909454327E-01 -3.92868561990E-01 +3.47172701688E-03 +1.40206393200E-03 +3.55206936371E-03 +1.55245659683E-03 +5.89387247038E-02 -3.79816181502E-01
2.96000000000E+09 -1.43608010207E-01 -3.73697925229E-01 +3.61271932827E-03 +5.87281052906E-04 +3.81092475086E-03 +6.79494906874E-04 +2.00921919423E-02 -3.69794925987E-01
2.96500000000E+09 -1.76876103163E-01 -3.51441827727E-01 +3.52055049391E-03 +2.17757577258E-04 +3.66031367870E-03 +9.34308948081E-05 -1.94997552734E-02 -3.58018597310E-01
2.97000000000E+09 -2.08056444344E-01 -3.26226939068E-01 +3.95087585374E-03 -1.84134695246E-04 +3.96883171268E-03 -3.15302958225E-04 -5.80331032428E-02 -3.42909374261E-01
2.97500000000E+09 -2.37399483436E-01 -2.99750455324E-01 +4.13137799614E-03 -1.25055493133E-03 +4.02011074104E-03 -1.23914110492E-03 -9.68558122269E-02 -3.26827767135E-01
2.98000000000E+09 -2.66342429428E-01 -2.71550312755E-01 +3.34683114306E-03 -2.19676315524E-03 +3.38146177883E-03 -2.07405582901E-03 -1.34158068207E-01 -3.06518310237E-01
2.98500000000E+09 -2.93209385087E-01 -2.40588278567E-01 +2.58032940998E-03 -2.39717036730E-03 +2.71702591018E-03 -2.31142691062E-03 -1.70111687004E-01 -2.84621317087E-01
2.99000000000E+09 -3.17623377995E-01 -2.08861865815E-01 +2.26315114345E-03 -2.33485282011E-03 +2.43961939138E-03 -2.40773853881E-03 -2.04183820527E-01 -2.59320475598E-01
2.99500000000E+09 -3.40550512771E-01 -1.76947093729E-01 +2.54813704534E-03 -2.54701773441E-03 +2.55742290959E-03 -2.80379550543E-03 -2.37264569021E-01 -2.31321009558E-01
3.00000000000E+09 -3.62215332779E-01 -1.43100125670E-01 +2.07844307901E-03 -3.55962755926E-03 +1.89648926965E-03 -3.70187803867E-03 -2.68293643108E-01 -1.99662604777E-01
3.00500000000E+09 -3.80689518710E-01 -1.08367829692E-01 +1.02845524511E-03 -3.93305938188E-03 +8.73851517697E-04 -3.89236546765E-03 -2.96202315801E-01 -1.66547830111E-01
3.01000000000E+09 -3.97182004400E-01 -7.34334859605E-02 -2.77460911736E-05 -3.71271732652E-03 -1.83462312584E-05 -3.59143267193E-03 -3.22020965256E-01 -1.31838794273E-01
3.01500000000E+09 -4.10475106503E-01 -3.77895972774E-02 -2.47057887763E-04 -3.20195447492E-03 -1.32429910732E-04 -3.12396552999E-03 -3.44961425549E-01 -9.68673758746E-02
3.02000000000E+09 -4.20880519152E-01 -2.27126423749E-03 -5.08184532967E-04 -3.28039992190E-03 -4.38714242270E-04 -3.26297088649E-03 -3.65715416506E-01 -6.05284207642E-02
3.02500000000E+09 -4.28201402410E-01 +3.31009588558E-02 -9.33950387635E-04 -3.19337884019E-03 -8.83051455973E-04 -3.18932890939E-03 -3.83314276608E-01 -2.18985530568E-02
3.03000000000E+09 -4.32781343656E-01 +6.82113934126E-02 -1.62531140317E-03 -3.08420196473E-03 -1.55569040194E-03 -3.06218736235E-03 -3.97009070251E-01 +1.69197487018E-02
3.03500000000E+09 -4.33650190596E-01 +1.03192892740E-01 -2.22782702214E-03 -2.41176820666E-03 -2.15089364783E-03 -2.39917352007E-03 -4.08371130198E-01 +5.62699493062E-02
3.04000000000E+09 -4.32402081611E-01 +1.36509631615E-01 -2.14720568380E-03 -1.95856432786E-03 -2.09455500863E-03 -2.08505132241E-03 -4.16892307461E-01 +9.56709518033E-02
3.04500000000E+09 -4.29570351397E-01 +1.70752424287E-01 -2.27324751470E-03 -1.75981103936E-03 -2.27885519380E-03 -1.93402700888E-03 -4.22731565740E-01 +1.35283238510E-01
3.05000000000E+09 -4.23423032979E-01 +2.04775887120E-01 -2.45941729703E-03 -1.50259632877E-03 -2.63264906215E-03 -1.47615920871E-03 -4.26067441878E-01 +1.73728686406E-01
3.05500000000E+09 -4.15349548207E-01 +2.37888542594E-01 -2.75342207906E-03 -9.54929051091E-04 -2.81648236090E-03 -8.02785062107E-04 -4.26853457698E-01 +2.12047801708E-01
3.06000000000E+09 -4.05587455710E-01 +2.70965758495E-01 -2.63660981052E-03 -4.67835044937E-04 -2.52238542189E-03 -3.49578946349E-04 -4.25481490506E-01 +2.49058691914E-01
3.06500000000E+09 -3.93932048384E-01 +3.03327001717E-01 -2.61450348595E-03 -9.66980809194E-05 -2.39491559529E-03 -1.03409932544E-04 -4.21585740879E-01 +2.85999186316E-01
3.07000000000E+09 -3.80452527849E-01 +3.33699530914E-01 -2.32869370398E-03 +1.34120429190E-04 -2.29972725547E-03 +2.79886642827E-05 -4.15616010964E-01 +3.21769168451E-01
