# Hz S RI R 50
! CMT, C1220, 16058040, 17.2.0/1
! Date: 15/08/2018 10:32:07
! Data: Format (Calibration Info)
! Freq                      S11: Re/Im (F2)                       S21: Re/Im (F2)                       S12: Re/Im (F2)                       S22: Re/Im (F2)            
2.50000000000E+09 +5.80322726141E-01 +6.64916870496E-01 -2.72860116593E-04 +2.04424859158E-04 -3.35899836436E-04 +2.61722553437E-04 +5.64752589249E-01 +7.22160060294E-01
2.50500000000E+09 +5.87683696380E-01 +6.56597951699E-01 -1.80411723526E-04 +2.10063980885E-04 -1.59228808480E-04 +1.72968097683E-04 +5.70228965800E-01 +7.16694823911E-01
2.51000000000E+09 +5.95259589308E-01 +6.48138180294E-01 -1.58880566069E-04 +2.25700257272E-04 -1.71516114394E-04 +1.90598134027E-04 +5.75839289319E-01 +7.11612962210E-01
2.51500000000E+09 +6.02651740250E-01 +6.40118685305E-01 -1.53929118681E-04 +1.26664914084E-04 -1.72353791348E-04 +1.37344448660E-04 +5.81172252268E-01 +7.06283528548E-01
2.52000000000E+09 +6.09430052355E-01 +6.32261898966E-01 -2.13488562796E-04 +2.11035569591E-04 -2.11640943132E-04 +2.08635706968E-04 +5.86442594852E-01 +7.00347918291E-01
2.52500000000E+09 +6.15295794973E-01 +6.24829229213E-01 -1.12261584088E-04 +2.90618845518E-04 -8.69328936431E-05 +3.20029915579E-04 +5.92225488870E-01 +6.94107157068E-01
2.53000000000E+09 +6.20552594185E-01 +6.17695571306E-01 -4.52942150362E-05 +2.47486161325E-04 -8.28507125107E-05 +2.47761124851E-04 +5.98311057450E-01 +6.87221682487E-01
2.53500000000E+09 +6.25229156773E-01 +6.10734300918E-01 -5.61381647301E-05 +2.86837374113E-04 -6.46944066858E-05 +2.40844352539E-04 +6.04197227280E-01 +6.80715880477E-01
2.54000000000E+09 +6.29674394984E-01 +6.03753329175E-01 -2.96485262146E-05 +2.03563212686E-04 -1.96536504481E-05 +1.84059997362E-04 +6.10250087632E-01 +6.74085842355E-01
2.54500000000E+09 +6.34205177323E-01 +5.96464714604E-01 -9.56286113336E-05 +2.00266703485E-04 -1.14500905291E-04 +1.96452517030E-04 +6.15985532098E-01 +6.68025335587E-01
2.55000000000E+09 +6.39096595557E-01 +5.88988125672E-01 -1.30043052218E-04 +2.84184738539E-04 -1.07176214644E-04 +2.86333151062E-04 +6.21476564699E-01 +6.61833849385E-01
2.55500000000E+09 +6.44444690371E-01 +5.80725697575E-01 +1.17666869889E-05 +3.58597244385E-04 -5.89090005465E-05 +4.26629171399E-04 +6.26571231135E-01 +6.55318956622E-01
2.56000000000E+09 +6.50823036695E-01 +5.72789156900E-01 +6.34742041107E-05 +2.78377769759E-04 +1.40546163913E-04 +3.67227776416E-04 +6.31726738550E-01 +6.48211640901E-01
2.56500000000E+09 +6.57789615750E-01 +5.64163943946E-01 +1.18630676096E-04 +2.80379496553E-04 +1.51351501063E-04 +2.76478323904E-04 +6.36977974260E-01 +6.40818179851E-01
2.57000000000E+09 +6.64710325418E-01 +5.55454045844E-01 +1.01166401173E-05 +2.33429411588E-04 +7.01544527214E-05 +1.85659371461E-04 +6.42440128866E-01 +6.32961825735E-01
2.57500000000E+09 +6.71426789184E-01 +5.46608116677E-01 -1.87325659608E-05 +3.62487080105E-04 +1.15842656775E-04 +2.81974831620E-04 +6.48057107246E-01 +6.25434001043E-01
2.58000000000E+09 +6.77317234551E-01 +5.38376678843E-01 +1.57414837010E-04 +4.10924175075E-04 +1.34213909081E-04 +3.03485007682E-04 +6.53081890829E-01 +6.17757924367E-01
2.58500000000E+09 +6.82384988137E-01 +5.30303407107E-01 +2.45521889071E-04 +2.61236398268E-04 +1.86665648422E-04 +2.80265791547E-04 +6.57895118533E-01 +6.10034520280E-01
2.59000000000E+09 +6.87110601146E-01 +5.22762032611E-01 +2.69663815376E-04 +2.67922925408E-04 +1.86808823127E-04 +2.48101175415E-04 +6.62762392046E-01 +6.02683017861E-01
2.59500000000E+09 +6.91568407549E-01 +5.14615556732E-01 +2.96729577212E-04 +3.06985144658E-04 +2.71740848415E-04 +3.72471784466E-04 +6.67718340713E-01 +5.94725016475E-01
2.60000000000E+09 +6.95592901138E-01 +5.05877051292E-01 +3.65987631274E-04 +1.89516657157E-04 +3.57388980398E-04 +2.75030090969E-04 +6.72715875573E-01 +5.86560628231E-01
2.60500000000E+09 +6.99565777464E-01 +4.96091649911E-01 +3.87850074232E-04 +2.56245442482E-04 +4.31069005694E-04 +2.77479350619E-04 +6.77994721674E-01 +5.78007556515E-01
2.61000000000E+09 +7.03779535327E-01 +4.85379759785E-01 +6.33269873692E-04 +1.95731845661E-04 +5.71147580590E-04 +2.24916760387E-04 +6.83310005914E-01 +5.69416400376E-01
2.61500000000E+09 +7.08589409701E-01 +4.73538894598E-01 +5.64589968969E-04 -1.14296663269E-04 +5.72826746452E-04 -5.59334695350E-05 +6.88283694032E-01 +5.60811766665E-01
2.62000000000E+09 +7.13314310993E-01 +4.60216751506E-01 +3.71073863091E-04 -1.33472670335E-04 +4.14028500524E-04 -1.62353359730E-04 +6.93115442128E-01 +5.52027252258E-01
2.62500000000E+09 +7.17996745491E-01 +4.46475529172E-01 +2.89773108093E-04 -5.88381746780E-05 +3.05715083955E-04 -9.72429875821E-05 +6.97936514408E-01 +5.43107609617E-01
2.63000000000E+09 +7.22354610729E-01 +4.32622575780E-01 +4.02688084227E-04 +6.12179943707E-05 +3.14225717761E-04 -1.18320132155E-05 +7.02737318920E-01 +5.34320991043E-01
2.63500000000E+09 +7.26022110320E-01 +4.19166953887E-01 +4.38388300158E-04 -5.99680483249E-05 +4.25142176743E-04 -1.18752478036E-04 +7.07452741589E-01 +5.25211522703E-01
2.64000000000E+09 +7.29487714397E-01 +4.06576929720E-01 +4.45728719539E-04 -1.56701456308E-04 +3.38957214422E-04 -1.20958663619E-04 +7.12386999412E-01 +5.15586238911E-01
2.64500000000E+09 +7.32805698345E-01 +3.94759248510E-01 +4.62573051755E-04 -1.98189524749E-04 +4.48039127379E-04 -1.54740793941E-04 +7.17190688366E-01 +5.05767070167E-01
2.65000000000E+09 +7.35394255506E-01 +3.83857765842E-01 +4.47643423603E-04 -2.80219260893E-04 +4.14947894467E-04 -2.29720008864E-04 +7.21439364898E-01 +4.95638282543E-01
2.65500000000E+09 +7.38232039059E-01 +3.72957238945E-01 +3.74787990388E-04 -2.94446834084E-04 +4.05686981490E-04 -2.97532011802E-04 +7.25489107262E-01 +4.85008932110E-01
2.66000000000E+09 +7.40885836407E-01 +3.61485665499E-01 +4.31254891800E-04 -3.38587090784E-04 +4.54722432974E-04 -3.62532321849E-04 +7.29568665578E-01 +4.73874535915E-01
2.66500000000E+09 +7.43329097671E-01 +3.50136949237E-01 +3.81118599996E-04 -5.34552373946E-04 +3.92161520434E-04 -5.86115759144E-04 +7.33770727130E-01 +4.62913568685E-01
2.67000000000E+09 +7.46054210608E-01 +3.37596149571E-01 +1.84663888000E-04 -5.63828723284E-04 +1.64950714482E-04 -5.80844220165E-04 +7.38407555934E-01 +4.52007491181E-01
2.67500000000E+09 +7.48572057629E-01 +3.24030980387E-01 +1.74457872201E-04 -5.03960660770E-04 +8.59623407238E-05 -4.97458250022E-04 +7.42494690756E-01 +4.40663202082E-01
2.68000000000E+09 +7.50638779168E-01 +3.09489421114E-01 +1.79625413918E-04 -4.35373323927E-04 +1.73156724408E-04 -4.64855281252E-04 +7.46402244866E-01 +4.29586084835E-01
2.68500000000E+09 +7.52336785852E-01 +2.94877731758E-01 +1.16707098249E-04 -7.53706874109E-04 +1.71791757361E-04 -7.28218655033E-04 +7.49687849641E-01 +4.17826356371E-01
2.69000000000E+09 +7.53574859318E-01 +2.80216298045E-01 -1.69972618311E-04 -7.23220589775E-04 -1.60205790622E-04 -7.06889923591E-04 +7.52187255485E-01 +4.05744876782E-01
2.69500000000E+09 +7.54524317571E-01 +2.66467738518E-01 -9.06947072290E-05 -6.81528270645E-04 -9.32605286661E-05 -6.72952570875E-04 +7.54789315808E-01 +3.93291175007E-01
2.70000000000E+09 +7.55995085301E-01 +2.52987380725E-01 -3.41763408329E-04 -7.15870684619E-04 -3.66771514169E-04 -6.94004411660E-04 +7.57583158385E-01 +3.80114216000E-01
2.70500000000E+09 +7.57240228580E-01 +2.39764644648E-01 -4.75266930251E-04 -5.57357862320E-04 -3.96870429728E-04 -6.34775979523E-04 +7.60738724295E-01 +3.66704012467E-01
2.71000000000E+09 +7.58246057431E-01 +2.26711454030E-01 -6.22610900981E-04 -4.29201494412E-04 -5.75155780999E-04 -5.08127855609E-04 +7.63286179260E-01 +3.53460139394E-01
2.71500000000E+09 +7.59446517100E-01 +2.13159889119E-01 -5.66174884351E-04 -2.62463092868E-04 -5.80620426472E-04 -3.48786900516E-04 +7.65660682527E-01 +3.40773657066E-01
2.72000000000E+09 +7.60370242949E-01 +1.98898046450E-01 -5.82070310447E-04 -3.15168815626E-04 -7.18901149274E-04 -2.80005187568E-04 +7.67313415752E-01 +3.28007298376E-01
2.72500000000E+09 +7.60781248201E-01 +1.83539840974E-01 -7.01752291074E-04 -1.46462373736E-04 -7.03457541475E-04 -4.84691496357E-05 +7.68250668411E-01 +3.14673013408E-01
2.73000000000E+09 +7.60433918802E-01 +1.67050316875E-01 -6.50917899100E-04 +3.21455703430E-05 -6.28842829191E-04 +1.18422107317E-04 +7.69035770706E-01 +3.00854742188E-01
2.73500000000E+09 +7.58752434153E-01 +1.49286315022E-01 -5.74459495522E-04 +1.82733621429E-04 -5.39309067169E-04 +1.74942997416E-04 +7.69958699031E-01 +2.86610698403E-01
2.74000000000E+09 +7.56017237978E-01 +1.31819996505E-01 -4.77116464957E-04 +2.53625940881E-04 -3.81945803216E-04 +2.49641293084E-04 +7.71626084586E-01 +2.71732617810E-01
2.74500000000E+09 +7.52315248809E-01 +1.14208310402E-01 -4.47192064412E-04 +2.51029542568E-04 -4.73499906164E-04 +1.75105280836E-04 +7.72915923998E-01 +2.56527936152E-01
2.75000000000E+09 +7.48307108020E-01 +9.67736001736E-02 -3.33385617445E-04 +4.02461412812E-04 -3.58727825417E-04 +3.46162657547E-04 +7.73634522181E-01 +2.41328169855E-01
2.75500000000E+09 +7.43975665885E-01 +7.97164392264E-02 -2.87216929208E-04 +3.12156546295E-04 -2.81231790051E-04 +3.60006321306E-04 +7.73267239891E-01 +2.26509282972E-01
2.76000000000E+09 +7.40024117421E-01 +6.22676916684E-02 -2.04311816893E-04 +4.51350892719E-04 -2.46530145779E-04 +4.96903122009E-04 +7.73094440444E-01 +2.11381606646E-01
2.76500000000E+09 +7.35326560703E-01 +4.44602905450E-02 -6.94036579426E-05 +3.88913731631E-04 -5.68261523924E-05 +4.10101699719E-04 +7.72229175445E-01 +1.94667905361E-01
2.77000000000E+09 +7.30329123306E-01 +2.63104790864E-02 +7.56235285946E-05 +3.86564238049E-04 +8.28589631018E-05 +3.81621868886E-04 +7.70774824323E-01 +1.77842952864E-01
2.77500000000E+09 +7.25673174737E-01 +7.57291341102E-03 +5.59308676564E-05 +3.43394388148E-04 +5.55088530004E-05 +3.72686527531E-04 +7.69275634713E-01 +1.60011854301E-01
2.78000000000E+09 +7.20847052837E-01 -1.23985658183E-02 +1.72326490732E-04 +3.23959694444E-04 +2.29754927619E-04 +3.01584525576E-04 +7.67392917550E-01 +1.42282981359E-01
2.78500000000E+09 +7.14939753158E-01 -3.36821853452E-02 +3.75015961601E-04 +2.20746930446E-04 +3.67574878326E-04 +1.91474415547E-04 +7.64794038113E-01 +1.24432913906E-01
2.79000000000E+09 +7.08396965626E-01 -5.54846740660E-02 +2.41844119102E-04 +4.18908302085E-06 +1.85668379793E-04 +2.08433778060E-05 +7.61404165509E-01 +1.07258924015E-01
2.79500000000E+09 +7.00428313224E-01 -7.74026694577E-02 +3.60120809137E-04 +1.09182820394E-04 +3.26898513160E-04 +8.96394890072E-05 +7.57101737557E-01 +8.93693734734E-02
2.80000000000E+09 +6.91638160357E-01 -9.84231882234E-02 +3.29603501475E-04 -1.63048124103E-04 +2.95817083277E-04 -9.76420835798E-05 +7.51869217849E-01 +7.14677741176E-02
2.80500000000E+09 +6.82318114147E-01 -1.18203425799E-01 +1.96137341448E-04 -1.42875689708E-04 +2.24788164307E-04 -1.29996287206E-04 +7.45885673007E-01 +5.28060296910E-02
2.81000000000E+09 +6.72415537889E-01 -1.36747439410E-01 +3.38542498296E-04 -7.84396449176E-05 +3.44699124429E-04 -1.09367834443E-04 +7.39368185016E-01 +3.42437955027E-02
2.81500000000E+09 +6.62133551126E-01 -1.54412108917E-01 +3.34817856603E-04 -4.26099562614E-04 +3.62907786302E-04 -4.33784332316E-04 +7.32919067962E-01 +1.50496989519E-02
2.82000000000E+09 +6.50803578933E-01 -1.71759580806E-01 +1.69440953859E-04 -5.36681537921E-04 +1.33955636270E-04 -4.93774960355E-04 +7.25536293945E-01 -4.40821109686E-03
2.82500000000E+09 +6.38057980513E-01 -1.88398270031E-01 +1.00992636261E-04 -6.55907560214E-04 +1.08513419766E-04 -6.04943317435E-04 +7.17557929693E-01 -2.35371408619E-02
2.83000000000E+09 +6.24253445151E-01 -2.05599812958E-01 +2.94053406283E-05 -8.96055043650E-04 +3.62844215098E-05 -8.35298273208E-04 +7.08781603208E-01 -4.33824594642E-02
2.83500000000E+09 +6.08825395450E-01 -2.23698134967E-01 -4.55265155325E-04 -1.05278076144E-03 -3.92976523169E-04 -1.01622808087E-03 +6.98828520256E-01 -6.30286630804E-02
2.84000000000E+09 +5.91181117303E-01 -2.42478979705E-01 -8.97735475960E-04 -8.63684673081E-04 -8.35504071481E-04 -9.25603789696E-04 +6.88184171613E-01 -8.36758302949E-02
2.84500000000E+09 +5.71006919971E-01 -2.62219756890E-01 -1.06400797012E-03 -5.12454081151E-04 -1.08073210402E-03 -5.48295864937E-04 +6.76033142306E-01 -1.03845524441E-01
2.85000000000E+09 +5.49339491101E-01 -2.81352609815E-01 -1.10725302349E-03 -3.89656648092E-04 -1.07303670618E-03 -4.50309682172E-04 +6.62785694941E-01 -1.24499545372E-01
2.85500000000E+09 +5.26195211714E-01 -3.00710197156E-01 -1.37534166815E-03 -1.47526110709E-04 -1.35190650131E-03 -8.68749371544E-05 +6.48335852350E-01 -1.44644488673E-01
2.86000000000E+09 +5.02626620844E-01 -3.18821632910E-01 -1.16053845404E-03 +1.64540017069E-04 -1.13154767869E-03 +1.50799085052E-04 +6.33136398503E-01 -1.65249610080E-01
2.86500000000E+09 +4.78581437730E-01 -3.36255480186E-01 -1.12313363755E-03 +1.59732620107E-04 -1.14517806517E-03 +9.96698039746E-05 +6.15908705684E-01 -1.86215356015E-01
2.87000000000E+09 +4.54657881484E-01 -3.52343642453E-01 -1.53582226341E-03 +3.08809826709E-04 -1.57191780762E-03 +2.71419856405E-04 +5.96626251019E-01 -2.06490011097E-01
2.87500000000E+09 +4.30299838222E-01 -3.67339239112E-01 -1.70880859104E-03 +6.82394203358E-04 -1.73586932320E-03 +7.10549792845E-04 +5.76451844597E-01 -2.25272043861E-01
2.88000000000E+09 +4.05535221109E-01 -3.81042858519E-01 -1.81126474907E-03 +1.22571099351E-03 -1.77951782871E-03 +1.26217355240E-03 +5.55794635933E-01 -2.44429340115E-01
2.88500000000E+09 +3.80035273099E-01 -3.93936332055E-01 -1.41190078065E-03 +2.17655229583E-03 -1.32967209703E-03 +2.12292471150E-03 +5.32938889792E-01 -2.62998919270E-01
2.89000000000E+09 +3.52507546580E-01 -4.06318451762E-01 -3.47139038993E-04 +2.29134265501E-03 -4.05816387596E-04 +2.12933894169E-03 +5.08067000383E-01 -2.80891168891E-01
2.89500000000E+09 +3.22027811656E-01 -4.16780120193E-01 -1.73965471613E-04 +1.90512142979E-03 -2.78214774837E-04 +1.84255029339E-03 +4.81695305854E-01 -2.98095238492E-01
2.90000000000E+09 +2.90153415781E-01 -4.25219584863E-01 -1.62176765599E-05 +1.92757631593E-03 -1.23741092481E-04 +1.97103622731E-03 +4.53858934268E-01 -3.14436849340E-01
2.90500000000E+09 +2.56311278659E-01 -4.32336004115E-01 +2.37727381251E-04 +1.98577313308E-03 +2.03030802708E-04 +2.04062504624E-03 +4.24376368887E-01 -3.30133206026E-01
2.91000000000E+09 +2.21106307739E-01 -4.37393150695E-01 +4.08039062013E-04 +2.18760249518E-03 +4.54421076963E-04 +2.20271027443E-03 +3.93986085974E-01 -3.43368208960E-01
2.91500000000E+09 +1.85067302278E-01 -4.41196165039E-01 +1.06377316999E-03 +2.01483219761E-03 +1.13440089218E-03 +1.88848607088E-03 +3.63375951385E-01 -3.55519791697E-01
2.92000000000E+09 +1.47866233760E-01 -4.42744047946E-01 +9.14744496482E-04 +1.64548220494E-03 +9.02005851394E-04 +1.61442910900E-03 +3.30437685786E-01 -3.66660690031E-01
2.92500000000E+09 +1.11329585770E-01 -4.41999408065E-01 +1.26466530757E-03 +2.14928687683E-03 +1.13308608379E-03 +2.08353755146E-03 +2.95230744703E-01 -3.75066655777E-01
2.93000000000E+09 +7.53320143482E-02 -4.39262046729E-01 +2.00462350526E-03 +1.73164898095E-03 +1.84640048575E-03 +1.75934754244E-03 +2.58350112019E-01 -3.81547152255E-01
2.93500000000E+09 +3.95159850207E-02 -4.34913204134E-01 +2.09688679829E-03 +1.65977105473E-03 +2.05948096789E-03 +1.72165361865E-03 +2.20446167497E-01 -3.85334640090E-01
2.94000000000E+09 +4.29225676291E-03 -4.28167106108E-01 +2.87836774507E-03 +1.03467896391E-03 +2.88285076839E-03 +1.02896107896E-03 +1.82330050445E-01 -3.87532829888E-01
2.94500000000E+09 -3.13156281641E-02 -4.19124709131E-01 +2.42702177230E-03 +5.35976768216E-04 +2.40145787724E-03 +6.20668280286E-04 +1.43833886629E-01 -3.88794964215E-01
2.95000000000E+09 -6.64453302104E-02 -4.06354133049E-01 +2.67961009555E-03 +4.91964882063E-04 +2.61467230458E-03 +5.30369474096E-04 +1.03843035045E-01 -3.87327709502E-01
2.95500000000E+09 -1.00729587485E-01 -3.90950640094E-01 +2.87689639708E-03 -5.36906987726E-06 +2.96957366302E-03 +5.68249300158E-05 +6.34841166538E-02 -3.81325054837E-01
2.96000000000E+09 -1.34741084689E-01 -3.73011960672E-01 +2.86926063547E-03 -3.70474138260E-04 +2.96583868092E-03 -3.86940291208E-04 +2.43712660480E-02 -3.72597310000E-01
2.96500000000E+09 -1.68776279591E-01 -3.51490198403E-01 +3.05570542838E-03 -8.12265694934E-04 +3.10068192266E-03 -9.72831346041E-04 -1.62312956818E-02 -3.61927120525E-01
2.97000000000E+09 -2.00134103468E-01 -3.26577271250E-01 +3.01825936542E-03 -1.54975884964E-03 +2.90088354855E-03 -1.65170316897E-03 -5.57934811399E-02 -3.46891729721E-01
2.97500000000E+09 -2.29748748151E-01 -3.00415910080E-01 +2.75946801450E-03 -2.04133866437E-03 +2.58410132105E-03 -1.94887238436E-03 -9.50098981798E-02 -3.31260452327E-01
2.98000000000E+09 -2.58410099180E-01 -2.72493795036E-01 +2.50443053129E-03 -2.52766979796E-03 +2.44700897412E-03 -2.34803930380E-03 -1.33620563174E-01 -3.10944680425E-01
2.98500000000E+09 -2.85008632247E-01 -2.42778391510E-01 +2.12405813068E-03 -3.09902535423E-03 +2.22921384497E-03 -3.03308420152E-03 -1.69599824831E-01 -2.88753289161E-01
2.99000000000E+09 -3.09745769720E-01 -2.12158917328E-01 +1.26277753416E-03 -3.52851328130E-03 +1.30168170050E-03 -3.67813015064E-03 -2.04504063403E-01 -2.63922310386E-01
2.99500000000E+09 -3.33377733157E-01 -1.80569556066E-01 +8.06492161510E-04 -3.33682935413E-03 +7.80959491624E-04 -3.40693353962E-03 -2.38102524260E-01 -2.35989366508E-01
3.00000000000E+09 -3.54967036645E-01 -1.46992438729E-01 +3.82634576588E-04 -3.70822383157E-03 +2.15136463693E-04 -3.70967171991E-03 -2.70223805934E-01 -2.04440519464E-01
3.00500000000E+09 -3.73924571817E-01 -1.12924071824E-01 -4.39436182786E-04 -3.75703832549E-03 -5.21254214375E-04 -3.56816565665E-03 -2.98929102969E-01 -1.70797227184E-01
3.01000000000E+09 -3.90693559634E-01 -7.82099443598E-02 -1.11113753132E-03 -3.57679670791E-03 -9.96924563251E-04 -3.40931731762E-03 -3.25575329961E-01 -1.35793455284E-01
3.01500000000E+09 -4.04814786622E-01 -4.30905427364E-02 -1.68051985742E-03 -3.29855526099E-03 -1.51629196540E-03 -3.26985901292E-03 -3.49071881639E-01 -9.97853460255E-02
3.02000000000E+09 -4.15608691113E-01 -7.02901079900E-03 -2.15489564309E-03 -2.96569852215E-03 -2.00581676206E-03 -3.02156141402E-03 -3.70057633596E-01 -6.30043921366E-02
3.02500000000E+09 -4.23031053867E-01 +2.76260382016E-02 -2.59087351419E-03 -2.53923236286E-03 -2.57075965054E-03 -2.60157853283E-03 -3.88035330298E-01 -2.36742334258E-02
3.03000000000E+09 -4.28431881114E-01 +6.21851547069E-02 -2.84302467801E-03 -1.97711554206E-03 -2.71616326054E-03 -1.99203120332E-03 -4.01659804869E-01 +1.56101708356E-02
3.03500000000E+09 -4.30298253917E-01 +9.64649492391E-02 -3.17874903970E-03 -1.62686454538E-03 -3.06712721469E-03 -1.69433669222E-03 -4.13325236979E-01 +5.50118488496E-02
3.04000000000E+09 -4.30425518740E-01 +1.29780081045E-01 -3.30178229243E-03 -9.69989634269E-04 -3.35370157533E-03 -1.18508223187E-03 -4.22588962925E-01 +9.53878520643E-02
3.04500000000E+09 -4.28262788901E-01 +1.64292147258E-01 -3.20981091432E-03 -2.57834973158E-04 -3.50399707680E-03 -3.48807211453E-04 -4.28588022228E-01 +1.35986949944E-01
3.05000000000E+09 -4.22368060884E-01 +1.98386317508E-01 -3.08788984232E-03 -7.77020640498E-06 -3.28757097508E-03 +5.44368224857E-05 -4.31562082502E-01 +1.75565427446E-01
3.05500000000E+09 -4.14923582847E-01 +2.31788861314E-01 -2.99506017828E-03 +5.47100032888E-04 -3.04986507479E-03 +7.69307720623E-04 -4.31941003637E-01 +2.14215925672E-01
3.06000000000E+09 -4.05023075355E-01 +2.64811930825E-01 -2.88551308537E-03 +8.80627655729E-04 -2.71710549111E-03 +9.82441649739E-04 -4.30004274125E-01 +2.52203267550E-01
3.06500000000E+09 -3.93661164124E-01 +2.96548010297E-01 -2.53523438103E-03 +1.32805856260E-03 -2.39151803978E-03 +1.23673007022E-03 -4.25572857083E-01 +2.89046683600E-01
3.07000000000E+09 -3.81292541396E-01 +3.27247482526E-01 -2.25925943828E-03 +1.52340331965E-03 -2.25683808975E-03 +1.35363068163E-03 -4.19345645853E-01 +3.25072575785E-01
