# Hz S RI R 50
! CMT, C1220, 16058040, 17.2.0/1
! Date: 15/08/2018 10:34:00
! Data: Format (Calibration Info)
! Freq                      S11: Re/Im (F2)                       S21: Re/Im (F2)                       S12: Re/Im (F2)                       S22: Re/Im (F2)            
2.50000000000E+09 +5.79133699004E-01 +6.65091950354E-01 -2.51303272968E-04 +5.63583415545E-05 -2.77889198635E-04 +6.60020592303E-05 +5.65305301758E-01 +7.22329962262E-01
2.50500000000E+09 +5.86719247107E-01 +6.57051953598E-01 -1.29751369111E-04 +3.10866727546E-05 -1.68181340188E-04 +3.68786367150E-05 +5.70972359349E-01 +7.16888523034E-01
2.51000000000E+09 +5.94410293221E-01 +6.48770050313E-01 -1.31211765362E-04 +2.70224780506E-05 -1.10385320874E-04 +6.01021263548E-05 +5.76625915515E-01 +7.11754594463E-01
2.51500000000E+09 +6.01677702950E-01 +6.40725154846E-01 -2.20069113771E-04 -2.16722667473E-05 -1.94245810851E-04 -2.80999438418E-05 +5.81975563643E-01 +7.06544280719E-01
2.52000000000E+09 +6.08203824986E-01 +6.32717150365E-01 -2.66136224393E-04 +1.14987470579E-04 -3.10802591796E-04 +1.10284382758E-04 +5.87290789492E-01 +7.00503088846E-01
2.52500000000E+09 +6.13924820227E-01 +6.25137764024E-01 -1.57708745698E-04 +1.24044380521E-04 -1.85324905250E-04 +1.24312279635E-04 +5.93031525406E-01 +6.94146221503E-01
2.53000000000E+09 +6.19110479830E-01 +6.17839810093E-01 -1.35019937372E-04 +8.11265463493E-05 -1.92741233902E-04 +1.01000821292E-04 +5.99202924408E-01 +6.87157320120E-01
2.53500000000E+09 +6.23615822820E-01 +6.10919975258E-01 -2.00423691165E-04 +9.16273295275E-05 -1.79684112249E-04 +1.61666602827E-04 +6.05184233678E-01 +6.80343003888E-01
2.54000000000E+09 +6.27961997571E-01 +6.04018012768E-01 -1.50199701292E-04 +1.20197663047E-04 -1.02531848906E-04 +1.40395244266E-04 +6.11137552478E-01 +6.73851415729E-01
2.54500000000E+09 +6.32687349791E-01 +5.96964296444E-01 -1.51429020076E-04 +1.71817184445E-04 -1.50390484013E-04 +1.18794721476E-04 +6.16858773630E-01 +6.67515229694E-01
2.55000000000E+09 +6.37850712965E-01 +5.89637551962E-01 -1.09789602046E-04 +1.48131988003E-04 -1.14166295606E-04 +1.40709954389E-04 +6.22279605588E-01 +6.61395438864E-01
2.55500000000E+09 +6.43603255652E-01 +5.81561516285E-01 -8.64602928826E-05 +2.17385783196E-04 -9.54903920755E-05 +2.47714298498E-04 +6.27439085256E-01 +6.54810995636E-01
2.56000000000E+09 +6.50189198088E-01 +5.73722118543E-01 -2.29743000633E-05 +1.89842813074E-04 -1.01885060779E-06 +1.98922113390E-04 +6.32467708741E-01 +6.47600778306E-01
2.56500000000E+09 +6.57528441067E-01 +5.65145147329E-01 -2.49170516809E-05 +1.08809534980E-04 -1.17244535165E-05 +1.59364962506E-04 +6.37691101975E-01 +6.40075162736E-01
2.57000000000E+09 +6.64889177636E-01 +5.56357027707E-01 -8.43287687743E-05 +1.59422297095E-04 -6.65106749084E-05 +1.45342654943E-04 +6.42953016673E-01 +6.32292852216E-01
2.57500000000E+09 +6.71670007070E-01 +5.47382114135E-01 -4.57112775592E-05 +2.23908537216E-04 +2.84756163792E-05 +1.86359981653E-04 +6.48542294426E-01 +6.24649263912E-01
2.58000000000E+09 +6.77421187781E-01 +5.39060966071E-01 -5.49083880266E-05 +2.33425375604E-04 -1.33815706265E-05 +1.99743157725E-04 +6.53658615221E-01 +6.16945512855E-01
2.58500000000E+09 +6.82741211594E-01 +5.30846246651E-01 -4.72917631120E-05 +2.07030245885E-04 -4.55359716834E-05 +1.95020968610E-04 +6.58325805715E-01 +6.09273044364E-01
2.59000000000E+09 +6.87511715273E-01 +5.22809388199E-01 +2.81178724566E-05 +2.36522877400E-04 +3.27775256052E-06 +2.60635956315E-04 +6.63185919595E-01 +6.01945069901E-01
2.59500000000E+09 +6.92013839208E-01 +5.14610033114E-01 +7.71599006690E-05 +2.46474773719E-04 +1.21443521427E-04 +2.62584388125E-04 +6.68138120824E-01 +5.93905173503E-01
2.60000000000E+09 +6.95838515633E-01 +5.05758163490E-01 +1.09511888095E-04 +2.20200469128E-04 +8.34780635132E-05 +2.10525025332E-04 +6.73179740586E-01 +5.85690015971E-01
2.60500000000E+09 +6.99874490497E-01 +4.95988400229E-01 +1.27382226419E-04 +2.66943461339E-04 +8.97094298643E-05 +2.40398966190E-04 +6.78481190519E-01 +5.77024090888E-01
2.61000000000E+09 +7.04197430969E-01 +4.85421082102E-01 +1.62485732638E-04 +2.82681720306E-04 +1.82599669744E-04 +2.64462510523E-04 +6.83628626122E-01 +5.68260344763E-01
2.61500000000E+09 +7.09174619749E-01 +4.73600568970E-01 +3.53620351000E-04 +1.72706767411E-04 +4.25120777051E-04 +1.78757642000E-04 +6.88552011908E-01 +5.59578108582E-01
2.62000000000E+09 +7.14004145219E-01 +4.60419451664E-01 +3.02762921943E-04 -3.12852902345E-05 +2.31016225799E-04 -8.88660630042E-05 +6.93299254411E-01 +5.50477491024E-01
2.62500000000E+09 +7.18721913426E-01 +4.46711363449E-01 +8.72377798213E-05 -7.23503667011E-06 +6.92244620804E-05 +3.57042580203E-05 +6.97870256340E-01 +5.41651582311E-01
2.63000000000E+09 +7.23213895898E-01 +4.33074587903E-01 +1.17359549123E-04 +1.48182738743E-04 +1.68969151644E-04 +1.04013322811E-04 +7.02358824632E-01 +5.32694307823E-01
2.63500000000E+09 +7.26921963285E-01 +4.19565117766E-01 +1.81631707099E-04 +1.58715002819E-04 +1.80554657141E-04 +9.82303089323E-05 +7.06869732312E-01 +5.23693533403E-01
2.64000000000E+09 +7.30437775928E-01 +4.06972246399E-01 +3.25462048200E-04 +2.05618529290E-04 +2.73444225264E-04 +1.66478386364E-04 +7.11590106600E-01 +5.14129627819E-01
2.64500000000E+09 +7.33613127672E-01 +3.95268553833E-01 +4.22899853025E-04 -7.29326071240E-06 +3.84229598024E-04 +5.77815796147E-05 +7.16173988501E-01 +5.04326251177E-01
2.65000000000E+09 +7.36369496059E-01 +3.84184363072E-01 +3.45846586835E-04 -8.65123768772E-05 +3.62841179013E-04 -3.57205298404E-05 +7.20277904275E-01 +4.94335858834E-01
2.65500000000E+09 +7.39309631010E-01 +3.73083979627E-01 +2.90618870060E-04 -2.01016641228E-04 +3.60595042012E-04 -1.70534255660E-04 +7.24122631364E-01 +4.84111060259E-01
2.66000000000E+09 +7.42308685357E-01 +3.61716392607E-01 +2.69806557670E-04 -1.86647579252E-04 +3.31703526446E-04 -1.97019459218E-04 +7.28099308477E-01 +4.72966997956E-01
2.66500000000E+09 +7.45195796498E-01 +3.49864070198E-01 +2.07264918222E-04 -1.97229184182E-04 +2.04737386936E-04 -2.71480613780E-04 +7.32293793846E-01 +4.62295704516E-01
2.67000000000E+09 +7.48127429252E-01 +3.36941520519E-01 +1.74212690273E-04 -2.94100636868E-04 +1.55288835250E-04 -3.01567348918E-04 +7.36851557480E-01 +4.51436817609E-01
2.67500000000E+09 +7.50934323178E-01 +3.22890536306E-01 +4.79092340235E-05 -2.55300831091E-04 +5.16645410017E-05 -2.49151721850E-04 +7.40926342992E-01 +4.40392524623E-01
2.68000000000E+09 +7.53100913364E-01 +3.08088257383E-01 +5.36884889635E-05 -1.97956318150E-04 +8.20496398971E-05 -2.29393503085E-04 +7.44897782252E-01 +4.29495114634E-01
2.68500000000E+09 +7.54753998981E-01 +2.93278823984E-01 +9.47442909910E-05 -3.50185426922E-04 +7.93888322505E-05 -3.35657502058E-04 +7.48266481059E-01 +4.17819876686E-01
2.69000000000E+09 +7.56171090862E-01 +2.78716782531E-01 -8.13594317329E-05 -3.13584885547E-04 -8.56405002614E-05 -3.40541013674E-04 +7.50617119367E-01 +4.05676127259E-01
2.69500000000E+09 +7.57437812101E-01 +2.64673716251E-01 -1.00691753647E-04 -2.20692985600E-04 -1.49210715387E-04 -2.13326479814E-04 +7.53206435546E-01 +3.93262543647E-01
2.70000000000E+09 +7.58520030585E-01 +2.50948100732E-01 -1.80964910206E-04 -2.82908566580E-04 -1.77339207256E-04 -2.73336873236E-04 +7.55910980240E-01 +3.80199094695E-01
2.70500000000E+09 +7.59487065933E-01 +2.37793124645E-01 -2.61275895892E-04 -1.48903887587E-04 -2.42419497030E-04 -1.69257006851E-04 +7.58798111394E-01 +3.67166819875E-01
2.71000000000E+09 +7.60187861394E-01 +2.24405569165E-01 -2.62960360994E-04 -8.69367827691E-05 -2.83467825074E-04 -1.35183267440E-04 +7.61365830216E-01 +3.54186654241E-01
2.71500000000E+09 +7.61240643687E-01 +2.10812056647E-01 -2.03370808158E-04 +2.24107525685E-05 -2.68736186030E-04 +1.95823261068E-05 +7.63931891877E-01 +3.41811705475E-01
2.72000000000E+09 +7.62245269762E-01 +1.96390765190E-01 -2.52158866667E-04 -3.90434171632E-06 -2.87003247549E-04 +5.40161122326E-06 +7.65355875443E-01 +3.28993152437E-01
2.72500000000E+09 +7.62907348204E-01 +1.80624265289E-01 -3.50993922125E-04 +1.30585891609E-04 -3.65418660508E-04 +1.81157887783E-04 +7.66462009199E-01 +3.15992225026E-01
2.73000000000E+09 +7.62688186538E-01 +1.63660128638E-01 -2.68706122698E-04 +2.78771876299E-04 -1.80982454497E-04 +2.91221141820E-04 +7.67354332852E-01 +3.02524110210E-01
2.73500000000E+09 +7.61218550251E-01 +1.45443915330E-01 -1.91255364844E-04 +3.97948239783E-04 -1.77983664929E-04 +3.54330157541E-04 +7.68262141293E-01 +2.88617678454E-01
2.74000000000E+09 +7.58761747526E-01 +1.27494304774E-01 +6.26201056061E-05 +5.06782457399E-04 +2.44920720830E-05 +4.73638394665E-04 +7.70370399594E-01 +2.74152233565E-01
2.74500000000E+09 +7.55537077467E-01 +1.09334641353E-01 +1.98956919961E-04 +3.43506418582E-04 +1.27262711019E-04 +3.13856543952E-04 +7.71911101396E-01 +2.59084285498E-01
2.75000000000E+09 +7.51557261044E-01 +9.13970732994E-02 +2.32291856048E-04 +2.69037239417E-04 +2.12082087434E-04 +3.23401760287E-04 +7.73082374385E-01 +2.44048079246E-01
2.75500000000E+09 +7.46956366304E-01 +7.38747736933E-02 +2.31778463075E-04 +1.73532321375E-04 +2.65167243070E-04 +2.19797550807E-04 +7.73014585488E-01 +2.29373833748E-01
2.76000000000E+09 +7.42662573586E-01 +5.68817265424E-02 +1.31826396447E-04 +2.81488546246E-04 +1.81171172340E-04 +3.44258374563E-04 +7.73207438008E-01 +2.14214337469E-01
2.76500000000E+09 +7.37974175913E-01 +3.90971247461E-02 +4.64452443370E-04 +2.60866119063E-04 +5.06886663037E-04 +3.25000942846E-04 +7.72443620061E-01 +1.97409812822E-01
2.77000000000E+09 +7.32793489514E-01 +2.09397207159E-02 +4.46666636748E-04 +5.63553023096E-05 +5.25064237959E-04 +1.88909606706E-05 +7.71487532413E-01 +1.80491995733E-01
2.77500000000E+09 +7.28040279613E-01 +2.09779727985E-03 +3.94014169581E-04 +1.52005837631E-04 +4.08832241599E-04 +1.73765854849E-04 +7.70021212115E-01 +1.62617379131E-01
2.78000000000E+09 +7.22838175846E-01 -1.85813464242E-02 +6.90574354024E-04 +8.38202355320E-05 +7.14850208363E-04 -1.82837881158E-05 +7.68495412606E-01 +1.44843883637E-01
2.78500000000E+09 +7.16294453971E-01 -4.02903904009E-02 +6.79808206618E-04 -7.16749593003E-05 +7.49850221060E-04 -1.75022314910E-04 +7.66042081263E-01 +1.26868094856E-01
2.79000000000E+09 +7.09228544882E-01 -6.24863453911E-02 +6.66996667396E-04 -4.09736538709E-04 +6.44334141863E-04 -3.96706912825E-04 +7.62815765656E-01 +1.09730827805E-01
2.79500000000E+09 +7.00719844210E-01 -8.49711054321E-02 +5.62661134015E-04 -4.29240682127E-04 +5.38078169428E-04 -4.52050978830E-04 +7.58646654524E-01 +9.20489119578E-02
2.80000000000E+09 +6.91220574394E-01 -1.06289365377E-01 +4.41057353157E-04 -5.30108096232E-04 +4.11364134771E-04 -5.40897955550E-04 +7.53865563748E-01 +7.40621525561E-02
2.80500000000E+09 +6.81542321587E-01 -1.26481074891E-01 +4.28724235214E-04 -4.00688522470E-04 +3.51069479495E-04 -4.49968740088E-04 +7.48437005474E-01 +5.52531982917E-02
2.81000000000E+09 +6.71302131311E-01 -1.45462640898E-01 +6.29483429536E-04 -5.50105319684E-04 +5.71455262576E-04 -5.04603934090E-04 +7.42188331513E-01 +3.63524941553E-02
2.81500000000E+09 +6.60615395429E-01 -1.63381838151E-01 +5.71933087857E-04 -8.24972350117E-04 +6.10093244506E-04 -7.96284673491E-04 +7.36078307511E-01 +1.71369447741E-02
2.82000000000E+09 +6.49148730781E-01 -1.80925252322E-01 +3.89130030246E-04 -9.95605142015E-04 +3.74450025972E-04 -9.87091724044E-04 +7.29029805833E-01 -2.63293686531E-03
2.82500000000E+09 +6.36297482309E-01 -1.98127964983E-01 +4.02137328532E-04 -1.17381227482E-03 +3.79703161562E-04 -1.08612004077E-03 +7.21403043843E-01 -2.21607658287E-02
2.83000000000E+09 +6.21586984486E-01 -2.15301660842E-01 +1.17518549797E-04 -1.57882423089E-03 +1.53368167129E-04 -1.48594101718E-03 +7.12853842259E-01 -4.23495552883E-02
2.83500000000E+09 +6.05698031601E-01 -2.32723972908E-01 -3.53334062447E-04 -1.63699123561E-03 -3.12311102783E-04 -1.58875508905E-03 +7.02882123990E-01 -6.25069049103E-02
2.84000000000E+09 +5.88169558902E-01 -2.51336295834E-01 -8.08787188653E-04 -1.50656489082E-03 -7.18437737211E-04 -1.41684078849E-03 +6.92315045306E-01 -8.34819997655E-02
2.84500000000E+09 +5.67639665081E-01 -2.71168382265E-01 -9.97569847992E-04 -1.25964076359E-03 -9.71419343122E-04 -1.27089151895E-03 +6.80332953514E-01 -1.04077502164E-01
2.85000000000E+09 +5.45208608976E-01 -2.90536987581E-01 -1.05082204175E-03 -1.18787247976E-03 -1.02419525903E-03 -1.17590552061E-03 +6.67359211097E-01 -1.25212238053E-01
2.85500000000E+09 +5.21110515799E-01 -3.09692059223E-01 -1.49560804191E-03 -9.72831258659E-04 -1.50131275018E-03 -9.89770266007E-04 +6.52794172606E-01 -1.45870460301E-01
2.86000000000E+09 +4.96726889058E-01 -3.27723307600E-01 -1.40820242356E-03 -7.05502677642E-04 -1.36136196718E-03 -7.81108983069E-04 +6.37652627992E-01 -1.67111666985E-01
2.86500000000E+09 +4.71738607416E-01 -3.45036663901E-01 -1.67584486621E-03 -6.53178505646E-04 -1.66538492120E-03 -6.99298236138E-04 +6.19992950633E-01 -1.88698107190E-01
2.87000000000E+09 +4.46724338064E-01 -3.60576877069E-01 -1.79411505403E-03 -5.36604661480E-04 -1.79309497914E-03 -6.08945106357E-04 +6.00462625487E-01 -2.09307101063E-01
2.87500000000E+09 +4.22253198171E-01 -3.75410701565E-01 -2.39723878828E-03 -3.99294894960E-04 -2.39882211392E-03 -3.80618330574E-04 +5.80253108705E-01 -2.28622865522E-01
2.88000000000E+09 +3.96308438430E-01 -3.88956574766E-01 -2.65871084712E-03 +3.51286049908E-04 -2.65110347204E-03 +4.46639537765E-04 +5.58853331953E-01 -2.48344654549E-01
2.88500000000E+09 +3.70090826811E-01 -4.01085072664E-01 -2.57504124236E-03 +1.24195267313E-03 -2.45065320881E-03 +1.21588347878E-03 +5.35742501973E-01 -2.66802018511E-01
2.89000000000E+09 +3.42319168256E-01 -4.12674279600E-01 -1.81811492647E-03 +1.90913226336E-03 -1.74338296628E-03 +1.70681556456E-03 +5.10637576728E-01 -2.85132432108E-01
2.89500000000E+09 +3.11292183948E-01 -4.22818635368E-01 -1.19918533480E-03 +1.54381579899E-03 -1.22388581995E-03 +1.48868438480E-03 +4.84008346471E-01 -3.02686288840E-01
2.90000000000E+09 +2.78672173449E-01 -4.30523286669E-01 -1.47632136585E-03 +1.53450619121E-03 -1.57576025960E-03 +1.52547028851E-03 +4.55662947904E-01 -3.19573285423E-01
2.90500000000E+09 +2.44074859371E-01 -4.36126398444E-01 -1.38051048709E-03 +1.95558250801E-03 -1.45549180051E-03 +2.02936815768E-03 +4.25638825066E-01 -3.35599235358E-01
2.91000000000E+09 +2.09168029815E-01 -4.40185355688E-01 -1.08344879936E-03 +2.31835512910E-03 -1.03760321256E-03 +2.37684252547E-03 +3.94144636043E-01 -3.49420346343E-01
2.91500000000E+09 +1.72523711720E-01 -4.42884436426E-01 -5.71493732336E-04 +2.40845339879E-03 -4.86827474437E-04 +2.38349086158E-03 +3.62638637313E-01 -3.61030839700E-01
2.92000000000E+09 +1.35854716737E-01 -4.42897862250E-01 -4.60004350541E-04 +2.47046524178E-03 -4.24008639361E-04 +2.31318081037E-03 +3.29467471201E-01 -3.72039168184E-01
2.92500000000E+09 +9.96456664583E-02 -4.41737016209E-01 -2.92984243931E-04 +3.08012774821E-03 -3.88391592174E-04 +2.96835424046E-03 +2.93769504088E-01 -3.80583395540E-01
2.93000000000E+09 +6.33411758601E-02 -4.38513820760E-01 +8.98936376787E-04 +3.06175635231E-03 +7.54404501489E-04 +3.11257348479E-03 +2.55942726105E-01 -3.87388127450E-01
2.93500000000E+09 +2.81306577747E-02 -4.33372408606E-01 +1.20875203893E-03 +2.72735816569E-03 +1.10454905319E-03 +2.80208412436E-03 +2.16945935701E-01 -3.90854061997E-01
2.94000000000E+09 -7.16890653554E-03 -4.26590106343E-01 +1.76805593192E-03 +2.62618284878E-03 +1.81801261047E-03 +2.65432917524E-03 +1.77930469765E-01 -3.92617993345E-01
2.94500000000E+09 -4.27372525433E-02 -4.16778858681E-01 +1.96208883150E-03 +2.16564715428E-03 +1.96739162925E-03 +2.15238002262E-03 +1.38459513701E-01 -3.93045904959E-01
2.95000000000E+09 -7.77942519313E-02 -4.03649339128E-01 +2.27199278029E-03 +1.97067613509E-03 +2.19762687258E-03 +2.03573578858E-03 +9.80040520900E-02 -3.90589132708E-01
2.95500000000E+09 -1.12152977403E-01 -3.87040989009E-01 +2.73371111919E-03 +1.54837023058E-03 +2.73756982655E-03 +1.73538029694E-03 +5.69846494840E-02 -3.84024384962E-01
2.96000000000E+09 -1.45233606577E-01 -3.67644273469E-01 +2.69615245392E-03 +1.09602209358E-03 +2.75510302798E-03 +1.20414555202E-03 +1.72990099923E-02 -3.73761862957E-01
2.96500000000E+09 -1.77784473523E-01 -3.45035846946E-01 +2.93929230327E-03 +1.11477962873E-03 +3.10460955465E-03 +1.09921906830E-03 -2.29569235982E-02 -3.61494943229E-01
2.97000000000E+09 -2.08226220957E-01 -3.19601540551E-01 +3.73299446948E-03 +6.76640535747E-04 +3.74289573462E-03 +5.04796120924E-04 -6.19814138955E-02 -3.45859370178E-01
2.97500000000E+09 -2.37271489824E-01 -2.93072166510E-01 +4.03452165310E-03 -4.85832597922E-04 +3.86893773028E-03 -5.47523649539E-04 -1.01299280113E-01 -3.29268877468E-01
2.98000000000E+09 -2.65838735349E-01 -2.64112443730E-01 +3.51901681742E-03 -1.49230964761E-03 +3.47107518737E-03 -1.36650201352E-03 -1.39242256550E-01 -3.08243535684E-01
2.98500000000E+09 -2.91615165655E-01 -2.32591938191E-01 +2.55180428210E-03 -1.82289125229E-03 +2.70484708005E-03 -1.74309703304E-03 -1.74965717624E-01 -2.85224154357E-01
2.99000000000E+09 -3.14564397945E-01 -2.01017880841E-01 +2.54629813665E-03 -1.81839636716E-03 +2.66014029760E-03 -1.81643634003E-03 -2.09038665214E-01 -2.59025051530E-01
2.99500000000E+09 -3.37057107829E-01 -1.69912230191E-01 +2.61104799925E-03 -2.22482866278E-03 +2.65615781932E-03 -2.40342470473E-03 -2.41093730548E-01 -2.30866495303E-01
3.00000000000E+09 -3.58299642752E-01 -1.36099186464E-01 +2.29342243391E-03 -2.85017400267E-03 +2.08916731848E-03 -3.04510712719E-03 -2.72295992653E-01 -1.99284729274E-01
3.00500000000E+09 -3.76106785863E-01 -1.01756555371E-01 +1.35827046121E-03 -3.53604697543E-03 +1.21623524272E-03 -3.43481254568E-03 -3.00307753642E-01 -1.65738023398E-01
3.01000000000E+09 -3.92075256766E-01 -6.72832724197E-02 +3.63012259012E-04 -3.23905065742E-03 +4.00446941427E-04 -3.05172612517E-03 -3.26560434003E-01 -1.30585452800E-01
3.01500000000E+09 -4.04369973863E-01 -3.19652073164E-02 +4.53312127887E-04 -2.98847552276E-03 +6.02567065442E-04 -2.88932646759E-03 -3.49291314955E-01 -9.48799446366E-02
3.02000000000E+09 -4.14195747952E-01 +2.30083370008E-03 -6.86901194659E-05 -3.42226615857E-03 -3.54591270468E-05 -3.38291141719E-03 -3.69931825887E-01 -5.79467123199E-02
3.02500000000E+09 -4.21105263742E-01 +3.69204312818E-02 -5.68213736050E-04 -3.38764541468E-03 -5.64894403100E-04 -3.31282457595E-03 -3.87115988330E-01 -1.86478964958E-02
3.03000000000E+09 -4.25503044729E-01 +7.15435732438E-02 -1.56502623009E-03 -3.15151107395E-03 -1.52495112437E-03 -3.13477498709E-03 -3.99916996372E-01 +2.04473531685E-02
3.03500000000E+09 -4.25729403408E-01 +1.05937180117E-01 -2.00640356913E-03 -2.27471706226E-03 -1.93249991192E-03 -2.29881033118E-03 -4.10833566601E-01 +5.95805505422E-02
3.04000000000E+09 -4.24125959984E-01 +1.38118429462E-01 -1.83385767165E-03 -2.01335664389E-03 -1.76138118008E-03 -2.10079972682E-03 -4.19588270339E-01 +9.91703118422E-02
3.04500000000E+09 -4.21422839426E-01 +1.71831676866E-01 -1.95981489335E-03 -1.81205254394E-03 -2.00557926832E-03 -1.94668695295E-03 -4.25433741969E-01 +1.39376113955E-01
3.05000000000E+09 -4.15175439920E-01 +2.05477683121E-01 -2.25136223009E-03 -1.69031232147E-03 -2.40257571411E-03 -1.70181669854E-03 -4.28158544120E-01 +1.78677419069E-01
3.05500000000E+09 -4.07314628860E-01 +2.38315406007E-01 -2.70988051521E-03 -1.25167148540E-03 -2.88426459923E-03 -1.06614131559E-03 -4.28074581460E-01 +2.17480071137E-01
3.06000000000E+09 -3.97470663680E-01 +2.70979769465E-01 -2.80977964704E-03 -5.76025801195E-04 -2.74096712730E-03 -4.42688772304E-04 -4.25426274028E-01 +2.54611621394E-01
3.06500000000E+09 -3.85475149793E-01 +3.02803040880E-01 -2.65267185496E-03 +9.12279603941E-05 -2.48211061671E-03 +8.50222557787E-05 -4.20472355918E-01 +2.90738010637E-01
3.07000000000E+09 -3.72418660086E-01 +3.32094283048E-01 -2.18685271278E-03 +2.47368032660E-04 -2.13297607763E-03 +2.16940639936E-04 -4.14115941120E-01 +3.25493995539E-01
