# Hz S RI R 50
! CMT, C1220, 16058040, 17.2.0/1
! Date: 15/08/2018 10:35:17
! Data: Format (Calibration Info)
! Freq                      S11: Re/Im (F2)                       S21: Re/Im (F2)                       S12: Re/Im (F2)                       S22: Re/Im (F2)            
2.50000000000E+09 +5.81757601093E-01 +6.65863024435E-01 -1.70037389749E-04 +9.27866865019E-05 -1.40358514938E-04 +1.39359247755E-04 +5.64620257923E-01 +7.22241040494E-01
2.50500000000E+09 +5.88955313570E-01 +6.57688578298E-01 -2.31107757098E-05 +1.03016763661E-04 -4.10551406115E-07 +1.31527736694E-04 +5.70136879479E-01 +7.16894151830E-01
2.51000000000E+09 +5.96826346380E-01 +6.49272438973E-01 +3.00090157633E-05 +7.43751710362E-05 -1.20794687417E-06 +2.21214662600E-05 +5.75714070428E-01 +7.11823506482E-01
2.51500000000E+09 +6.04344896778E-01 +6.41260870985E-01 -2.72839611808E-05 -2.61936164944E-05 -3.72218147772E-05 +2.00439510697E-05 +5.81088119988E-01 +7.06459157244E-01
2.52000000000E+09 +6.11209213231E-01 +6.33104296744E-01 -9.08391437207E-05 +6.39701097042E-05 -3.58318709557E-05 +5.36682553901E-05 +5.86208508244E-01 +7.00566082310E-01
2.52500000000E+09 +6.17074443156E-01 +6.25726457590E-01 -1.25908701959E-05 +5.68758240630E-05 -1.12342501857E-05 +2.83337784187E-05 +5.91943315341E-01 +6.94158903692E-01
2.53000000000E+09 +6.22418272808E-01 +6.18526882221E-01 -5.46556337329E-05 +4.41193356347E-05 -4.16235020885E-05 +2.49642062258E-05 +5.97977630593E-01 +6.87377450501E-01
2.53500000000E+09 +6.27111925020E-01 +6.11582549834E-01 -8.12229955660E-05 +2.30796340290E-05 -3.99309924341E-05 +2.45384695119E-05 +6.03964048794E-01 +6.80733115401E-01
2.54000000000E+09 +6.31573460055E-01 +6.04663153370E-01 -8.25375293830E-06 +1.39602982623E-06 -3.91473781925E-05 -1.79720886538E-05 +6.10013507375E-01 +6.74390677049E-01
2.54500000000E+09 +6.36166342931E-01 +5.97539751781E-01 -9.03667811196E-05 -6.02596919221E-06 -1.14233147534E-04 -6.60368526225E-05 +6.15815053429E-01 +6.68030426522E-01
2.55000000000E+09 +6.41168233989E-01 +5.89926153395E-01 -1.30702629401E-04 +9.98258841508E-05 -1.61299503545E-04 +1.11800166327E-04 +6.21331590602E-01 +6.61934547500E-01
2.55500000000E+09 +6.46674563440E-01 +5.81640218100E-01 -8.85207289199E-05 +2.06130047630E-04 -7.47388275203E-05 +2.43084799283E-04 +6.26466957734E-01 +6.55429967260E-01
2.56000000000E+09 +6.52847695317E-01 +5.73514255187E-01 +7.19696239675E-05 +1.83218259085E-04 +5.32001381192E-05 +2.04379086298E-04 +6.31532365593E-01 +6.48261243557E-01
2.56500000000E+09 +6.59708042423E-01 +5.64742555195E-01 +7.59660453133E-05 +6.80574459663E-05 +8.35371973247E-05 +8.91948535922E-05 +6.36778201240E-01 +6.40816207915E-01
2.57000000000E+09 +6.66849512703E-01 +5.55718348558E-01 -2.92506195117E-05 +1.20725854338E-06 -5.03694725155E-05 -1.19616658872E-05 +6.42081616695E-01 +6.32967140845E-01
2.57500000000E+09 +6.73560315869E-01 +5.46782103714E-01 -1.00256232742E-04 +1.32095072325E-04 -4.64507947816E-05 +1.39018653477E-04 +6.47586664269E-01 +6.25319701822E-01
2.58000000000E+09 +6.79380682018E-01 +5.38261128085E-01 -3.75553868907E-05 +2.43937041171E-04 -3.36155191344E-05 +2.05426994713E-04 +6.52672489332E-01 +6.17617823114E-01
2.58500000000E+09 +6.84639910336E-01 +5.30058566176E-01 +1.06978247774E-04 +2.29996865838E-04 +2.47848839853E-05 +2.48111040020E-04 +6.57241278324E-01 +6.10127821446E-01
2.59000000000E+09 +6.89459457438E-01 +5.22192673970E-01 +2.13096359695E-04 +2.04375765115E-04 +1.82778692538E-04 +1.62662257010E-04 +6.62055756516E-01 +6.02824806280E-01
2.59500000000E+09 +6.93912786679E-01 +5.14054663116E-01 +2.35214709907E-04 +1.33074358973E-04 +2.37195334472E-04 +1.47300680485E-04 +6.67062329754E-01 +5.94932471955E-01
2.60000000000E+09 +6.97886673484E-01 +5.05260959469E-01 +2.16121994525E-04 +8.75816193336E-05 +2.21371331733E-04 +6.69393359889E-05 +6.72154158669E-01 +5.86667829511E-01
2.60500000000E+09 +7.01898080636E-01 +4.95579741170E-01 +2.31695496577E-04 +9.56701792981E-05 +2.13089723799E-04 +4.54054019941E-05 +6.77437757967E-01 +5.78100879935E-01
2.61000000000E+09 +7.05964194657E-01 +4.84767486099E-01 +2.79014288951E-04 +6.13150196734E-05 +2.73183517445E-04 +6.04325867870E-05 +6.82529167308E-01 +5.69499658399E-01
2.61500000000E+09 +7.10617937293E-01 +4.73028762096E-01 +3.66292662540E-04 -1.60889119244E-04 +3.78191491562E-04 -1.59915033936E-04 +6.87447548307E-01 +5.61188079946E-01
2.62000000000E+09 +7.15296562140E-01 +4.59903997287E-01 +1.41068125626E-04 -2.44015092704E-04 +1.55922937552E-04 -2.73494898052E-04 +6.92465513255E-01 +5.52316593507E-01
2.62500000000E+09 +7.20153066938E-01 +4.46110000567E-01 +2.00722346291E-05 -1.15645265029E-04 +1.61956754151E-05 -1.54374935783E-04 +6.97226324153E-01 +5.43489866953E-01
2.63000000000E+09 +7.24606223812E-01 +4.31985330930E-01 +7.41290089050E-05 -1.93210180148E-05 +6.48252201675E-05 -3.68349819476E-05 +7.01912527427E-01 +5.34536819090E-01
2.63500000000E+09 +7.28229316351E-01 +4.18320173606E-01 +1.62183663656E-04 -3.60815837555E-05 +1.60589693220E-04 -4.60881025997E-05 +7.06709533710E-01 +5.25585504744E-01
2.64000000000E+09 +7.31785855424E-01 +4.05503467815E-01 +2.53906538174E-04 -9.53751107347E-05 +1.92907372389E-04 -1.01245487703E-04 +7.11536091113E-01 +5.16144702139E-01
2.64500000000E+09 +7.34978745559E-01 +3.93491159373E-01 +1.37942295151E-04 -2.37007021171E-04 +1.51181565330E-04 -2.03381808359E-04 +7.16273112424E-01 +5.06278828990E-01
2.65000000000E+09 +7.37794018932E-01 +3.82393150668E-01 +5.18116569374E-05 -1.57216498688E-04 +3.34057223291E-05 -1.78498637088E-04 +7.20629703279E-01 +4.96283412667E-01
2.65500000000E+09 +7.40814390489E-01 +3.71208245701E-01 +7.42000571141E-05 -6.24482094543E-05 +7.77925124369E-05 -8.26992315164E-05 +7.24716946735E-01 +4.85824880288E-01
2.66000000000E+09 +7.43607184600E-01 +3.59747132571E-01 +1.78829660903E-04 -8.77347268776E-05 +2.06089336100E-04 -1.27400669731E-04 +7.28644126371E-01 +4.74573947353E-01
2.66500000000E+09 +7.45986462101E-01 +3.48114942469E-01 +1.82196269638E-04 -2.51361701504E-04 +1.34263048670E-04 -2.79847896172E-04 +7.32894135113E-01 +4.63777673917E-01
2.67000000000E+09 +7.48551354244E-01 +3.35451918289E-01 +4.96169614292E-05 -3.25739219402E-04 +3.93913952956E-05 -3.31688762477E-04 +7.37590181735E-01 +4.52951515925E-01
2.67500000000E+09 +7.50905288618E-01 +3.21741504462E-01 -2.42558607881E-05 -3.04735551629E-04 -2.78495333846E-05 -2.48719616132E-04 +7.41706140432E-01 +4.41685729532E-01
2.68000000000E+09 +7.52526870023E-01 +3.07186095010E-01 +4.29303984995E-05 -1.99345094473E-04 +6.59789908087E-05 -1.95627241475E-04 +7.45574154270E-01 +4.30680091766E-01
2.68500000000E+09 +7.54005053044E-01 +2.92585334365E-01 +1.17143014431E-04 -3.78820224160E-04 +1.32713274749E-04 -4.27132189285E-04 +7.48993622741E-01 +4.19135514479E-01
2.69000000000E+09 +7.55027372759E-01 +2.77910692662E-01 -1.19335212720E-04 -4.90174726813E-04 -1.08911689923E-04 -5.32925422831E-04 +7.51525880149E-01 +4.07147967243E-01
2.69500000000E+09 +7.55782677913E-01 +2.64067275279E-01 -1.50952535278E-04 -4.13533327327E-04 -1.89700220627E-04 -4.21944022344E-04 +7.54275741891E-01 +3.94583799632E-01
2.70000000000E+09 +7.56991090458E-01 +2.50488163925E-01 -3.24755400229E-04 -4.62180750637E-04 -3.12966414909E-04 -4.58835761929E-04 +7.57285536335E-01 +3.81495210039E-01
2.70500000000E+09 +7.57963078982E-01 +2.37086681705E-01 -4.85046432411E-04 -2.69600864019E-04 -4.35076145975E-04 -2.58870972822E-04 +7.60316477992E-01 +3.68116731930E-01
2.71000000000E+09 +7.58857508041E-01 +2.23712139435E-01 -4.77184677076E-04 -1.59670482613E-04 -4.44430281494E-04 -1.81772656599E-04 +7.63029639954E-01 +3.54998059490E-01
2.71500000000E+09 +7.59906111305E-01 +2.10209660015E-01 -3.57521043123E-04 -2.30678879918E-04 -4.68880982880E-04 -2.50259225454E-04 +7.65577118445E-01 +3.42351454944E-01
2.72000000000E+09 +7.60526083630E-01 +1.95691833488E-01 -6.51569414404E-04 -1.92096280576E-04 -7.24221602595E-04 -1.67159942478E-04 +7.67303002149E-01 +3.29571285858E-01
2.72500000000E+09 +7.60826240859E-01 +1.80506191003E-01 -7.84492322052E-04 +7.57678345076E-05 -7.95006953011E-04 +1.39957890609E-04 +7.68393783775E-01 +3.16177227250E-01
2.73000000000E+09 +7.60378439011E-01 +1.64077410014E-01 -7.13943606499E-04 +3.76941246985E-04 -6.25921202036E-04 +3.96566935587E-04 +7.69254694493E-01 +3.02460772278E-01
2.73500000000E+09 +7.58830482203E-01 +1.46268366470E-01 -5.75569199381E-04 +5.26214743620E-04 -5.13506165552E-04 +4.70274800020E-04 +7.70176174242E-01 +2.88118978842E-01
2.74000000000E+09 +7.56245237710E-01 +1.28541656882E-01 -3.56056020177E-04 +6.17298664829E-04 -3.31821159059E-04 +5.18003932905E-04 +7.71982779300E-01 +2.73243668838E-01
2.74500000000E+09 +7.52529518201E-01 +1.10500597869E-01 -2.81866998261E-04 +5.61910290557E-04 -3.06334689241E-04 +5.21816405375E-04 +7.73240820696E-01 +2.58084264737E-01
2.75000000000E+09 +7.48021941778E-01 +9.28978058950E-02 -1.80198509875E-04 +6.61551495019E-04 -2.52832742082E-04 +6.25781323215E-04 +7.74302831263E-01 +2.43008178643E-01
2.75500000000E+09 +7.42985380891E-01 +7.56528136961E-02 -2.39443369444E-05 +5.74347575525E-04 -9.15616267421E-05 +6.79994253918E-04 +7.74097142337E-01 +2.28071946475E-01
2.76000000000E+09 +7.38679500875E-01 +5.86895523705E-02 -2.60131328155E-05 +7.38726722408E-04 -6.24599591191E-05 +8.03506949856E-04 +7.74174709737E-01 +2.12887494085E-01
2.76500000000E+09 +7.33659433937E-01 +4.06901870793E-02 +3.53283540351E-04 +6.29598933370E-04 +2.91561518165E-04 +6.77256257342E-04 +7.73283937226E-01 +1.96209716066E-01
2.77000000000E+09 +7.28419690798E-01 +2.27740536140E-02 +2.73449648639E-04 +5.10776459145E-04 +2.75372932763E-04 +4.71836226347E-04 +7.72034157232E-01 +1.79190483079E-01
2.77500000000E+09 +7.23363235100E-01 +4.07929654726E-03 +2.95163528175E-04 +6.23066148769E-04 +3.53681765622E-04 +6.22832279587E-04 +7.70622209677E-01 +1.61175084524E-01
2.78000000000E+09 +7.18101073581E-01 -1.57146730826E-02 +6.32642893095E-04 +5.37576346634E-04 +6.92987269710E-04 +4.82366495062E-04 +7.68875945349E-01 +1.43356844812E-01
2.78500000000E+09 +7.11990692104E-01 -3.67156968993E-02 +8.45131056985E-04 +3.61423881949E-04 +8.41076398424E-04 +2.93352764650E-04 +7.66515273447E-01 +1.25412443760E-01
2.79000000000E+09 +7.05138913403E-01 -5.83938442510E-02 +7.97319820802E-04 +1.84402504903E-05 +7.84064025024E-04 -5.57252479413E-05 +7.63178684556E-01 +1.07878134541E-01
2.79500000000E+09 +6.96616783688E-01 -7.99090440291E-02 +7.06090830161E-04 +6.08521637836E-06 +6.85931053841E-04 -1.34302011143E-07 +7.58814726604E-01 +8.99787591962E-02
2.80000000000E+09 +6.87196081844E-01 -1.00358407291E-01 +7.24136737122E-04 -2.08961010138E-04 +6.70164015911E-04 -1.51902596782E-04 +7.53765413409E-01 +7.18604757276E-02
2.80500000000E+09 +6.77903889011E-01 -1.19413790083E-01 +6.22864121004E-04 -2.26684881265E-04 +6.74929853687E-04 -1.99783334798E-04 +7.47904828693E-01 +5.27628391472E-02
2.81000000000E+09 +6.68192057506E-01 -1.37796402451E-01 +8.09657454240E-04 -3.23231749833E-04 +8.30503127382E-04 -3.22583581657E-04 +7.41046652388E-01 +3.37978994777E-02
2.81500000000E+09 +6.57702397967E-01 -1.55129806409E-01 +6.68918564583E-04 -6.48647545365E-04 +6.86450443746E-04 -6.24753635067E-04 +7.34378361823E-01 +1.48333319817E-02
2.82000000000E+09 +6.46362142005E-01 -1.72425690150E-01 +6.23262637656E-04 -6.99374837147E-04 +5.95701591624E-04 -7.37427158618E-04 +7.27067446224E-01 -4.74819769243E-03
2.82500000000E+09 +6.33164446060E-01 -1.88965059019E-01 +5.00915432578E-04 -9.46417708700E-04 +5.18226416558E-04 -8.82161324993E-04 +7.18793986046E-01 -2.40368741805E-02
2.83000000000E+09 +6.19209999890E-01 -2.05390622592E-01 +2.50073920102E-04 -1.18295605914E-03 +2.94951630495E-04 -1.14964224270E-03 +7.10209635320E-01 -4.37539203885E-02
2.83500000000E+09 +6.03814657487E-01 -2.23165841513E-01 -1.75630736940E-04 -1.29004511533E-03 -1.48470321060E-04 -1.28379412736E-03 +7.00132234804E-01 -6.36773057082E-02
2.84000000000E+09 +5.86265767822E-01 -2.41534873617E-01 -5.27605604083E-04 -1.11349215508E-03 -5.71549704033E-04 -1.14212128074E-03 +6.89428704264E-01 -8.44839545587E-02
2.84500000000E+09 +5.66040850762E-01 -2.61008194333E-01 -7.08406436087E-04 -8.83236191572E-04 -7.47848150656E-04 -8.94121362550E-04 +6.76964722706E-01 -1.05008684663E-01
2.85000000000E+09 +5.44129303417E-01 -2.79658233821E-01 -7.57213628014E-04 -7.41064117528E-04 -7.27210333868E-04 -6.94736988428E-04 +6.63548343718E-01 -1.25236582091E-01
2.85500000000E+09 +5.21067356801E-01 -2.98407482002E-01 -9.61080100125E-04 -4.87310678005E-04 -9.60010776862E-04 -5.12471044668E-04 +6.49290780991E-01 -1.45491676776E-01
2.86000000000E+09 +4.97516248242E-01 -3.16594932778E-01 -7.45639631893E-04 -3.83370809906E-04 -7.39126865472E-04 -3.69595607219E-04 +6.33953655967E-01 -1.66467860174E-01
2.86500000000E+09 +4.73161297385E-01 -3.33319522068E-01 -8.08798675737E-04 -4.66591805076E-04 -8.39377192873E-04 -4.25372431662E-04 +6.16449697258E-01 -1.87484164829E-01
2.87000000000E+09 +4.48910865246E-01 -3.48721517096E-01 -1.06925941040E-03 -6.41514461667E-04 -1.11443409943E-03 -6.37855422209E-04 +5.96935359557E-01 -2.07991958298E-01
2.87500000000E+09 +4.24726206464E-01 -3.62856762307E-01 -1.73396399640E-03 -3.18324433162E-04 -1.76788973437E-03 -2.51370096140E-04 +5.76562812691E-01 -2.26934567763E-01
2.88000000000E+09 +4.00504958566E-01 -3.75736224538E-01 -1.84935024590E-03 +3.69735192904E-04 -1.74405339668E-03 +3.96392102289E-04 +5.55351324977E-01 -2.46007646261E-01
2.88500000000E+09 +3.75585355767E-01 -3.88107317002E-01 -1.67556320071E-03 +1.16341365970E-03 -1.58880410961E-03 +1.16151002083E-03 +5.32316493756E-01 -2.64345466477E-01
2.89000000000E+09 +3.48559102928E-01 -3.99825073065E-01 -7.51954720377E-04 +1.41722166260E-03 -7.23550331492E-04 +1.35892188542E-03 +5.07035083281E-01 -2.82186503376E-01
2.89500000000E+09 +3.18998898108E-01 -4.09784542788E-01 -4.46357993449E-04 +9.39452553211E-04 -4.53354987623E-04 +9.13768663378E-04 +4.80662600538E-01 -2.98718578037E-01
2.90000000000E+09 +2.87888512089E-01 -4.18092219465E-01 -8.44971696871E-04 +1.01684868944E-03 -8.21819148255E-04 +1.02130934054E-03 +4.52761690497E-01 -3.15020982027E-01
2.90500000000E+09 +2.54335438596E-01 -4.24468833062E-01 -4.54753853588E-04 +1.16204152862E-03 -4.81208240973E-04 +1.21810674071E-03 +4.23190033747E-01 -3.30652491111E-01
2.91000000000E+09 +2.20352614287E-01 -4.28957532093E-01 -7.16178059499E-04 +1.25927066624E-03 -6.52798518821E-04 +1.32343190872E-03 +3.92328973715E-01 -3.43798228932E-01
2.91500000000E+09 +1.84932312090E-01 -4.32742661998E-01 -1.88244255388E-04 +1.55962281030E-03 -1.81397334392E-04 +1.49552684322E-03 +3.61371887013E-01 -3.55150816767E-01
2.92000000000E+09 +1.48653016584E-01 -4.33535008334E-01 -2.36080365401E-04 +1.33889139580E-03 -2.40181610702E-04 +1.23415376055E-03 +3.29100409341E-01 -3.65438788878E-01
2.92500000000E+09 +1.13230276008E-01 -4.32857280813E-01 -2.60565118938E-04 +2.13277261359E-03 -3.30120964127E-04 +1.98001725429E-03 +2.94392257200E-01 -3.73878141224E-01
2.93000000000E+09 +7.77168441514E-02 -4.30164107091E-01 +7.07137910194E-04 +2.19035350694E-03 +5.60586423772E-04 +2.15869390308E-03 +2.57742287320E-01 -3.80342050701E-01
2.93500000000E+09 +4.32182159884E-02 -4.26071695355E-01 +1.11943474738E-03 +2.13710302318E-03 +1.02788038566E-03 +2.13640861842E-03 +2.19872981924E-01 -3.84272454444E-01
2.94000000000E+09 +8.43210248708E-03 -4.20333635052E-01 +1.95942909701E-03 +1.51814999381E-03 +1.92947527173E-03 +1.54021465118E-03 +1.81703841487E-01 -3.86453653401E-01
2.94500000000E+09 -2.70845178943E-02 -4.11366522073E-01 +1.53146063457E-03 +9.98701743925E-04 +1.49806655971E-03 +9.99548630856E-04 +1.43240794190E-01 -3.87147779019E-01
2.95000000000E+09 -6.14924631433E-02 -3.98802785945E-01 +1.60591710140E-03 +1.22679662249E-03 +1.52824272671E-03 +1.29807348959E-03 +1.03730941661E-01 -3.85484865345E-01
2.95500000000E+09 -9.49727035960E-02 -3.83553914903E-01 +2.27034873670E-03 +9.33553725212E-04 +2.27231027839E-03 +9.79123834915E-04 +6.34801466354E-02 -3.79770164290E-01
2.96000000000E+09 -1.27413088620E-01 -3.65974858881E-01 +2.26284985187E-03 +6.47813901378E-04 +2.34119154846E-03 +7.55415278958E-04 +2.46481007501E-02 -3.70395298688E-01
2.96500000000E+09 -1.60535947960E-01 -3.46147409706E-01 +2.94950927100E-03 +3.87719942994E-04 +3.08457150045E-03 +3.61078069574E-04 -1.50637395185E-02 -3.59753093223E-01
2.97000000000E+09 -1.91880685438E-01 -3.21840536478E-01 +3.16160532615E-03 -9.25599729200E-04 +3.11032679379E-03 -9.80028729046E-04 -5.43639784570E-02 -3.45301273381E-01
2.97500000000E+09 -2.20761266008E-01 -2.96488205790E-01 +2.38886118390E-03 -1.48024004884E-03 +2.31697334174E-03 -1.45428398801E-03 -9.38926480389E-02 -3.29867075756E-01
2.98000000000E+09 -2.49408510187E-01 -2.69688479647E-01 +2.23286280643E-03 -1.45816825695E-03 +2.30629525226E-03 -1.34935439711E-03 -1.32272293207E-01 -3.09240344742E-01
2.98500000000E+09 -2.75777691260E-01 -2.40696553282E-01 +2.14802115287E-03 -2.31282529986E-03 +2.27189276991E-03 -2.26867667894E-03 -1.67706419485E-01 -2.87111792158E-01
2.99000000000E+09 -3.00553807549E-01 -2.11113121735E-01 +1.16895791995E-03 -2.76616602366E-03 +1.29342518922E-03 -2.91178379268E-03 -2.02283779134E-01 -2.62276050329E-01
2.99500000000E+09 -3.25167390584E-01 -1.80287092220E-01 +6.68148789810E-04 -2.36310343646E-03 +5.82360938556E-04 -2.48776432657E-03 -2.35087671572E-01 -2.34507914667E-01
3.00000000000E+09 -3.46532483422E-01 -1.46752694458E-01 +6.37584790326E-04 -2.45807197363E-03 +5.33164864441E-04 -2.53182419695E-03 -2.66700685163E-01 -2.03834192670E-01
3.00500000000E+09 -3.65371211754E-01 -1.13960590536E-01 +1.13007556597E-04 -2.82757015393E-03 -7.07501914076E-05 -2.83796766413E-03 -2.95712973140E-01 -1.71096889791E-01
3.01000000000E+09 -3.82969814066E-01 -8.02038851757E-02 -5.45629976681E-04 -2.57929151903E-03 -4.66378329575E-04 -2.48731244116E-03 -3.22560530389E-01 -1.36102677063E-01
3.01500000000E+09 -3.97095860547E-01 -4.55091508572E-02 -7.86599392107E-04 -2.74764608536E-03 -7.14079282347E-04 -2.74285993967E-03 -3.45976167654E-01 -1.00379986396E-01
3.02000000000E+09 -4.08543846502E-01 -1.05044611756E-02 -1.73293026008E-03 -2.48147511296E-03 -1.66246018171E-03 -2.59631767834E-03 -3.66676682216E-01 -6.40691423308E-02
3.02500000000E+09 -4.16411707512E-01 +2.38410113890E-02 -2.01333990803E-03 -1.80912011130E-03 -2.02505514440E-03 -1.75239581227E-03 -3.84810404008E-01 -2.53180860551E-02
3.03000000000E+09 -4.21534280190E-01 +5.82543609958E-02 -2.12925736457E-03 -1.10557335082E-03 -2.18612455454E-03 -1.08333637002E-03 -3.98681158874E-01 +1.35309701356E-02
3.03500000000E+09 -4.23492642555E-01 +9.14031703926E-02 -1.75254262041E-03 -5.80108667359E-04 -1.81748333022E-03 -5.73923883437E-04 -4.10620950181E-01 +5.24178850473E-02
3.04000000000E+09 -4.24116342818E-01 +1.24329144747E-01 -1.56306105140E-03 -7.89141705441E-04 -1.56859163836E-03 -8.11462567484E-04 -4.20550337389E-01 +9.21275957348E-02
3.04500000000E+09 -4.22395807254E-01 +1.58220173127E-01 -1.77162132754E-03 -6.30135161729E-04 -1.96703662501E-03 -6.88441588715E-04 -4.27076472592E-01 +1.32862910145E-01
3.05000000000E+09 -4.17128872106E-01 +1.92099204534E-01 -1.93594441261E-03 -4.83629125253E-04 -2.03042296386E-03 -4.68127440468E-04 -4.30221518833E-01 +1.72490719200E-01
3.05500000000E+09 -4.10144355491E-01 +2.25019053312E-01 -2.16650704327E-03 -1.67437255938E-04 -2.14163520240E-03 +1.99444869918E-05 -4.31034217316E-01 +2.11138806011E-01
3.06000000000E+09 -4.01079011655E-01 +2.57825725600E-01 -2.14197101101E-03 +1.84944441310E-04 -1.98007276350E-03 +3.52868903369E-04 -4.29262598435E-01 +2.49090477415E-01
3.06500000000E+09 -3.90891297011E-01 +2.89635974188E-01 -2.14222982521E-03 +5.60460461676E-04 -1.97491842830E-03 +4.86976388486E-04 -4.24908000935E-01 +2.85751331343E-01
3.07000000000E+09 -3.79166928248E-01 +3.20544224860E-01 -1.80389789239E-03 +1.01953794967E-03 -1.81396958328E-03 +8.82773891503E-04 -4.19245598574E-01 +3.21462235218E-01
