# Hz S RI R 50
! CMT, C1220, 16058040, 17.2.0/1
! Date: 15/08/2018 10:36:05
! Data: Format (Calibration Info)
! Freq                      S11: Re/Im (F2)                       S21: Re/Im (F2)                       S12: Re/Im (F2)                       S22: Re/Im (F2)            
2.50000000000E+09 +5.80006567616E-01 +6.67733214757E-01 -2.46348801949E-04 +9.81237687960E-05 -2.46518065972E-04 +1.43984926294E-04 +5.64466126041E-01 +7.23321830757E-01
2.50500000000E+09 +5.87291998195E-01 +6.59646196727E-01 -1.56199671983E-04 +1.38546740331E-04 -1.33704712448E-04 +1.41057595743E-04 +5.70107122733E-01 +7.17863993684E-01
2.51000000000E+09 +5.95111442962E-01 +6.51373214805E-01 -1.11474551537E-04 +1.69973599322E-04 -8.98539443170E-05 +1.59008673530E-04 +5.75767544448E-01 +7.12644102775E-01
2.51500000000E+09 +6.02597056794E-01 +6.43533905182E-01 -1.00439288961E-04 +9.85953145154E-05 -9.98903371515E-05 +1.19608213857E-04 +5.81175799639E-01 +7.07336962144E-01
2.52000000000E+09 +6.09687951372E-01 +6.35659025508E-01 -1.17693112573E-04 +1.63411833967E-04 -1.39392589282E-04 +1.77742477557E-04 +5.86360918209E-01 +7.01399426208E-01
2.52500000000E+09 +6.15707536332E-01 +6.28267078554E-01 -1.14430118141E-05 +1.44302608877E-04 -3.27931410941E-06 +1.69167438714E-04 +5.92250104038E-01 +6.95029111830E-01
2.53000000000E+09 +6.21231957996E-01 +6.21231198959E-01 -1.27611187990E-07 +9.52300023525E-05 +7.21440971836E-06 +1.24477203104E-04 +5.98359967617E-01 +6.88294199897E-01
2.53500000000E+09 +6.25920540783E-01 +6.14305877127E-01 -2.63818576992E-05 +1.19609591429E-04 -2.28602629918E-05 +8.80964596079E-05 +6.04445387025E-01 +6.81555839503E-01
2.54000000000E+09 +6.30453725467E-01 +6.07377902645E-01 -2.94542549893E-05 +9.30663539873E-05 -6.74281660403E-05 +5.08230886666E-05 +6.10560168961E-01 +6.75107671033E-01
2.54500000000E+09 +6.35077598279E-01 +6.00352253969E-01 -9.73561293204E-05 +1.12367862354E-04 -1.05806020600E-04 +1.19067807955E-04 +6.16359841037E-01 +6.68770720702E-01
2.55000000000E+09 +6.40155962986E-01 +5.92752875067E-01 -8.41848388235E-05 +1.86545710097E-04 -6.02525957884E-05 +2.00585898762E-04 +6.21955832204E-01 +6.62429241163E-01
2.55500000000E+09 +6.45771368458E-01 +5.84581487402E-01 -2.29072945411E-05 +2.41095624112E-04 +9.72187893076E-06 +2.25983720139E-04 +6.26996130887E-01 +6.55879135303E-01
2.56000000000E+09 +6.52190734107E-01 +5.76523333447E-01 +5.42917765783E-05 +1.47749763510E-04 +5.45150841237E-05 +2.27766297290E-04 +6.32113441879E-01 +6.48601093211E-01
2.56500000000E+09 +6.59307911296E-01 +5.67667412954E-01 +9.75239317816E-05 +1.46911746507E-04 +1.30848636513E-04 +1.71114678656E-04 +6.37404817574E-01 +6.41269421756E-01
2.57000000000E+09 +6.66404117219E-01 +5.58767342906E-01 +4.67308203501E-05 +1.67949844360E-04 +8.18080019965E-05 +8.51532394832E-05 +6.42791066699E-01 +6.33353302563E-01
2.57500000000E+09 +6.73197778498E-01 +5.49813105799E-01 +4.47757367751E-05 +1.69610148217E-04 +7.40887070209E-05 +9.68985589763E-05 +6.48374192889E-01 +6.25712240025E-01
2.58000000000E+09 +6.79074186784E-01 +5.41511727526E-01 +5.12799175423E-05 +1.74266082933E-04 +3.00187272994E-05 +1.51960270483E-04 +6.53408389635E-01 +6.18013232447E-01
2.58500000000E+09 +6.84542713546E-01 +5.33479369941E-01 +3.13503592102E-05 +2.05491420463E-04 +1.86670838385E-05 +1.56310912065E-04 +6.58163717881E-01 +6.10408330957E-01
2.59000000000E+09 +6.89496717690E-01 +5.25604112373E-01 +1.50220105997E-04 +2.36327589021E-04 +1.07124969344E-04 +2.21411270054E-04 +6.63171386465E-01 +6.02845258276E-01
2.59500000000E+09 +6.94161738957E-01 +5.17620494428E-01 +2.60831892691E-04 +2.21288378006E-04 +2.13706181015E-04 +2.25631858515E-04 +6.68078186988E-01 +5.94924352947E-01
2.60000000000E+09 +6.98252295800E-01 +5.08973791199E-01 +2.20329508456E-04 +1.46865413349E-04 +2.34088023415E-04 +1.13019897288E-04 +6.73166896667E-01 +5.86560007850E-01
2.60500000000E+09 +7.02440658465E-01 +4.99403180914E-01 +2.86495927456E-04 +1.01398192194E-04 +2.78036031975E-04 +1.43538778289E-04 +6.78532950498E-01 +5.78044756962E-01
2.61000000000E+09 +7.06820748516E-01 +4.88691766418E-01 +3.62463172343E-04 +2.73889566443E-05 +3.39984554843E-04 +6.30219681102E-05 +6.83735496418E-01 +5.69196215772E-01
2.61500000000E+09 +7.11788098558E-01 +4.76800363833E-01 +4.04626139337E-04 -6.91540409108E-05 +3.98217904291E-04 -1.61449210233E-05 +6.88670447211E-01 +5.60437329573E-01
2.62000000000E+09 +7.16363277069E-01 +4.63680983714E-01 +2.58596552017E-04 -1.66667117395E-04 +2.93240305699E-04 -1.72538898716E-04 +6.93445701498E-01 +5.51380222287E-01
2.62500000000E+09 +7.21292598954E-01 +4.49897958822E-01 +1.22432993526E-04 -7.42606827759E-05 +6.49080958338E-05 -1.25523685623E-04 +6.98081731922E-01 +5.42490261600E-01
2.63000000000E+09 +7.25880608445E-01 +4.35915318240E-01 +2.02782513953E-04 +2.07766756122E-05 +1.52926999042E-04 -6.54250869348E-06 +7.02582016170E-01 +5.33425452988E-01
2.63500000000E+09 +7.29969197159E-01 +4.22308760879E-01 +2.03347952668E-04 -6.62827110497E-05 +2.34325478489E-04 -3.40573462752E-05 +7.07246070049E-01 +5.24403238991E-01
2.64000000000E+09 +7.33766288800E-01 +4.09417797782E-01 +3.96884294576E-04 +1.58905239549E-05 +2.93953799993E-04 +1.95901833726E-05 +7.11835301299E-01 +5.14777396683E-01
2.64500000000E+09 +7.37284426343E-01 +3.97254454900E-01 +4.12854209364E-04 -2.75706236929E-04 +3.30857910914E-04 -1.67784455191E-04 +7.16583733663E-01 +5.05044821658E-01
2.65000000000E+09 +7.39944369048E-01 +3.86176061931E-01 +2.30571552246E-04 -3.30865680675E-04 +2.48600206881E-04 -2.30190556934E-04 +7.20751960020E-01 +4.94894423178E-01
2.65500000000E+09 +7.43188633145E-01 +3.75036698457E-01 +1.73036242993E-04 -3.12903481833E-04 +2.03691712749E-04 -2.78059207865E-04 +7.24656396912E-01 +4.84375251545E-01
2.66000000000E+09 +7.46195177021E-01 +3.63630585229E-01 +1.53310278502E-04 -2.54493560829E-04 +2.05439408191E-04 -2.94280814768E-04 +7.28526867300E-01 +4.73191261874E-01
2.66500000000E+09 +7.48933869707E-01 +3.51861796117E-01 +1.63697042860E-04 -3.16742479968E-04 +2.03284816101E-04 -3.24441513282E-04 +7.32788929188E-01 +4.62309132882E-01
2.67000000000E+09 +7.51741382537E-01 +3.39233147281E-01 +2.32253169668E-04 -4.09489039824E-04 +1.64132464118E-04 -4.04870373720E-04 +7.37201563766E-01 +4.51388278696E-01
2.67500000000E+09 +7.54382803009E-01 +3.25385693560E-01 +4.10974513770E-05 -4.45222049035E-04 +7.21680720070E-05 -4.18943961310E-04 +7.41268805679E-01 +4.40302164068E-01
2.68000000000E+09 +7.56332582686E-01 +3.10652003938E-01 +2.59426952889E-05 -4.73933406225E-04 -1.49981329662E-07 -4.64198754179E-04 +7.44981194826E-01 +4.29166182482E-01
2.68500000000E+09 +7.57900013792E-01 +2.95878585929E-01 -8.90098966865E-05 -5.24228560804E-04 -3.86520599567E-05 -5.46183101912E-04 +7.48338478036E-01 +4.17575140920E-01
2.69000000000E+09 +7.59298635158E-01 +2.81118672801E-01 -2.42170355879E-04 -4.92326668970E-04 -2.29789133691E-04 -5.03886994092E-04 +7.50518247928E-01 +4.05511748734E-01
2.69500000000E+09 +7.60480687978E-01 +2.66817700218E-01 -3.15065018858E-04 -4.52165088490E-04 -2.74669345957E-04 -4.48588852253E-04 +7.53133305417E-01 +3.92956833800E-01
2.70000000000E+09 +7.61741888219E-01 +2.52949853783E-01 -3.53168521319E-04 -5.26412654115E-04 -4.05892359592E-04 -4.91875197282E-04 +7.55724700380E-01 +3.79987386406E-01
2.70500000000E+09 +7.63038994832E-01 +2.39264843054E-01 -6.17642469232E-04 -3.71683521886E-04 -6.12228036908E-04 -3.69046914858E-04 +7.58471930471E-01 +3.66797349179E-01
2.71000000000E+09 +7.64043656943E-01 +2.25735778361E-01 -6.01811361034E-04 -1.73749270359E-05 -6.42379520723E-04 -6.45720822858E-05 +7.60899061730E-01 +3.53875814316E-01
2.71500000000E+09 +7.65483885464E-01 +2.11965787819E-01 -3.80077447453E-04 -2.21380762439E-06 -3.79892287518E-04 -2.08236484625E-05 +7.63340152950E-01 +3.41510661708E-01
2.72000000000E+09 +7.66485614931E-01 +1.97022302141E-01 -4.09176239882E-04 -1.71895031283E-04 -4.55008325949E-04 -1.70572224190E-04 +7.64901727673E-01 +3.28979916179E-01
2.72500000000E+09 +7.66986740880E-01 +1.81105492008E-01 -6.20364317615E-04 -8.41658844603E-05 -6.50431198601E-04 -2.89281853577E-05 +7.65798319596E-01 +3.16130786121E-01
2.73000000000E+09 +7.66502364597E-01 +1.64317059325E-01 -8.01245584904E-04 +1.82971884912E-04 -7.16672835499E-04 +2.12008091812E-04 +7.66811374688E-01 +3.02450798827E-01
2.73500000000E+09 +7.64933283640E-01 +1.46390634982E-01 -7.36880747056E-04 +5.41810464198E-04 -6.27484098979E-04 +4.63983288347E-04 +7.67808594527E-01 +2.88408870272E-01
2.74000000000E+09 +7.62258600414E-01 +1.28502762253E-01 -3.73159912411E-04 +7.03363210599E-04 -3.70955710698E-04 +5.67172977878E-04 +7.69617654926E-01 +2.73780360227E-01
2.74500000000E+09 +7.58814012891E-01 +1.10104846834E-01 -9.95127042061E-05 +6.16312382469E-04 -2.43611780913E-04 +5.60541468804E-04 +7.70979662466E-01 +2.58814542947E-01
2.75000000000E+09 +7.54572672498E-01 +9.19422831905E-02 +3.64484622898E-05 +5.04886185662E-04 -4.67740285620E-05 +4.78530290861E-04 +7.71866183809E-01 +2.43979092009E-01
2.75500000000E+09 +7.49679441009E-01 +7.39835195835E-02 +6.58439704330E-05 +3.52504163671E-04 +1.01689617149E-05 +3.61168932814E-04 +7.71765347988E-01 +2.29334047982E-01
2.76000000000E+09 +7.44878711132E-01 +5.65978755180E-02 -9.19197149493E-05 +4.22767640340E-04 -1.14751648099E-04 +4.80516957894E-04 +7.71836119441E-01 +2.14381206576E-01
2.76500000000E+09 +7.39955400664E-01 +3.85372799510E-02 +1.50284102888E-04 +5.37174421276E-04 +1.64025872860E-04 +5.70532965824E-04 +7.71126120605E-01 +1.97747174386E-01
2.77000000000E+09 +7.34562960456E-01 +1.99674596021E-02 +1.89730667102E-04 +3.49053788868E-04 +2.13758307456E-04 +3.69082309575E-04 +7.69935377763E-01 +1.81021986517E-01
2.77500000000E+09 +7.29432872680E-01 +1.05570792081E-03 +4.44347736215E-05 +4.04031470489E-04 +8.28372678278E-05 +4.23052452683E-04 +7.68637100949E-01 +1.63224506484E-01
2.78000000000E+09 +7.24040425765E-01 -1.94066191424E-02 +2.97027255599E-04 +5.28682466359E-04 +3.63652242361E-04 +5.44277755900E-04 +7.66942952902E-01 +1.45575238019E-01
2.78500000000E+09 +7.17564637709E-01 -4.06809220385E-02 +5.82104164358E-04 +4.38096537780E-04 +5.96980572230E-04 +3.61825738150E-04 +7.64387817385E-01 +1.27864590661E-01
2.79000000000E+09 +7.10807597344E-01 -6.25760328349E-02 +5.94256613920E-04 +4.58323119752E-05 +5.74488075182E-04 +4.02281206381E-05 +7.61297406928E-01 +1.10935621184E-01
2.79500000000E+09 +7.02532408106E-01 -8.48976078846E-02 +4.57309324093E-04 -4.99095654281E-05 +4.82438933873E-04 -5.69940982758E-05 +7.57209658283E-01 +9.34592421992E-02
2.80000000000E+09 +6.92669270751E-01 -1.06173573805E-01 +3.12780655444E-04 -1.18645618493E-04 +2.75801918124E-04 -1.74069397901E-04 +7.52584074028E-01 +7.57778000490E-02
2.80500000000E+09 +6.82578059744E-01 -1.25745627021E-01 +3.00467290573E-04 +1.28081933583E-04 +3.11610118485E-04 +6.32583435182E-05 +7.47358800829E-01 +5.70665012153E-02
2.81000000000E+09 +6.72227976506E-01 -1.44182461889E-01 +5.79027938114E-04 +1.10645677870E-04 +5.30942811669E-04 +9.84339945268E-05 +7.41344929424E-01 +3.81631449368E-02
2.81500000000E+09 +6.61519919055E-01 -1.61712447197E-01 +6.11741196130E-04 -1.60355915430E-04 +6.51180809409E-04 -2.03505079940E-04 +7.35146274233E-01 +1.89641833011E-02
2.82000000000E+09 +6.49917776660E-01 -1.79160990417E-01 +5.50948564232E-04 -3.73378186995E-04 +5.04101368511E-04 -4.00680295722E-04 +7.28206742406E-01 -6.08087813863E-04
2.82500000000E+09 +6.36855360654E-01 -1.96327458734E-01 +5.93665457093E-04 -5.45665236737E-04 +5.55642970920E-04 -5.09696807211E-04 +7.20557497583E-01 -1.99437289775E-02
2.83000000000E+09 +6.22101680291E-01 -2.13769776683E-01 +4.14095941600E-04 -8.61794719662E-04 +3.66660128624E-04 -8.47255802918E-04 +7.12333353782E-01 -3.99239262744E-02
2.83500000000E+09 +6.05768764070E-01 -2.31629644905E-01 -3.44477005252E-05 -8.91326042778E-04 -3.75204328769E-05 -8.50434062011E-04 +7.02755178241E-01 -6.01560604896E-02
2.84000000000E+09 +5.87576410099E-01 -2.50324309312E-01 -2.20678619016E-04 -7.27899005551E-04 -1.66285631349E-04 -6.78097530967E-04 +6.92433233260E-01 -8.09669712223E-02
2.84500000000E+09 +5.66922557950E-01 -2.69937956149E-01 -2.97102781180E-04 -6.64521566063E-04 -2.11646448716E-04 -6.72223521562E-04 +6.80719561134E-01 -1.01700193737E-01
2.85000000000E+09 +5.44565715314E-01 -2.88903710083E-01 -4.87263740081E-04 -6.97280233615E-04 -4.60459564209E-04 -6.94873082035E-04 +6.67763242920E-01 -1.22970568954E-01
2.85500000000E+09 +5.20604024730E-01 -3.07879239200E-01 -6.46997756062E-04 -4.62952226864E-04 -6.12525475242E-04 -4.65835810613E-04 +6.53263027413E-01 -1.43506110269E-01
2.86000000000E+09 +4.96283496946E-01 -3.25877234952E-01 -3.58569009217E-04 -3.46518955146E-04 -3.28037766061E-04 -3.83048031107E-04 +6.38200999771E-01 -1.64629714954E-01
2.86500000000E+09 +4.71514529723E-01 -3.42908859869E-01 -5.48421742457E-04 -6.00895678017E-04 -4.98055602435E-04 -5.73076484764E-04 +6.21117244007E-01 -1.85949416651E-01
2.87000000000E+09 +4.46458800017E-01 -3.58631625868E-01 -7.29516901836E-04 -7.49756390406E-04 -6.89463417587E-04 -7.93603886182E-04 +6.01894126965E-01 -2.06811724381E-01
2.87500000000E+09 +4.21430769054E-01 -3.72994524549E-01 -1.49625157839E-03 -8.59021596965E-04 -1.55602098950E-03 -8.22269105727E-04 +5.81950855012E-01 -2.26288401637E-01
2.88000000000E+09 +3.95796177784E-01 -3.85977330488E-01 -2.00551375059E-03 +1.14086116893E-04 -1.90899565397E-03 +1.20295193240E-04 +5.60886944821E-01 -2.46301319942E-01
2.88500000000E+09 +3.69436328215E-01 -3.97687924840E-01 -1.76352423705E-03 +1.05544371463E-03 -1.63670654296E-03 +9.60847500703E-04 +5.37715699783E-01 -2.65150640888E-01
2.89000000000E+09 +3.41731291019E-01 -4.08571813854E-01 -8.97749103738E-04 +1.31861187354E-03 -8.85926101613E-04 +1.22216221089E-03 +5.12686285663E-01 -2.83455138960E-01
2.89500000000E+09 +3.11616749472E-01 -4.18097474781E-01 -5.20786417727E-04 +1.02089709595E-03 -5.37602302261E-04 +9.43024812801E-04 +4.86184143625E-01 -3.00987797987E-01
2.90000000000E+09 +2.79862826737E-01 -4.25966521337E-01 -7.36672824043E-04 +9.84441077653E-04 -7.93968081218E-04 +9.88595818657E-04 +4.58103148453E-01 -3.17902985092E-01
2.90500000000E+09 +2.45518424528E-01 -4.32226594405E-01 -5.34933696625E-04 +1.28729480936E-03 -6.05232401855E-04 +1.30013471380E-03 +4.28498693293E-01 -3.33911884960E-01
2.91000000000E+09 +2.10289129479E-01 -4.36133343574E-01 -4.58347841092E-04 +1.25224974304E-03 -4.63500358134E-04 +1.29647955227E-03 +3.97733268996E-01 -3.48092727082E-01
2.91500000000E+09 +1.74168524401E-01 -4.38788841108E-01 -2.07588809566E-04 +1.43249479707E-03 -1.43273106281E-04 +1.40059729266E-03 +3.66484945841E-01 -3.60759787682E-01
2.92000000000E+09 +1.37321136334E-01 -4.38776322978E-01 -1.76846201659E-04 +1.54950513076E-03 -1.31681050378E-04 +1.50284395101E-03 +3.33179021909E-01 -3.72418035833E-01
2.92500000000E+09 +1.01181610815E-01 -4.37136390742E-01 +2.19890606053E-05 +1.95044088274E-03 -9.63590796981E-06 +1.85142728024E-03 +2.97233273636E-01 -3.81574165939E-01
2.93000000000E+09 +6.54186545029E-02 -4.33765777380E-01 +8.57448995980E-04 +1.98801063368E-03 +7.57858712551E-04 +1.95293712449E-03 +2.59275710202E-01 -3.88472072993E-01
2.93500000000E+09 +3.01431229144E-02 -4.28511617456E-01 +1.18678906860E-03 +1.76686691467E-03 +1.14707532802E-03 +1.85615098788E-03 +2.20320298393E-01 -3.92247380655E-01
2.94000000000E+09 -4.59699364914E-03 -4.21443140033E-01 +1.93509456424E-03 +1.37320986869E-03 +2.01093449952E-03 +1.45339347873E-03 +1.81362039387E-01 -3.94765325270E-01
2.94500000000E+09 -4.02115188819E-02 -4.12075773803E-01 +1.85334189507E-03 +6.29202398052E-04 +1.85391891058E-03 +6.70308410903E-04 +1.41553757987E-01 -3.95862325798E-01
2.95000000000E+09 -7.55759183736E-02 -3.98892031873E-01 +1.55896338142E-03 +3.55869567849E-04 +1.60343849022E-03 +4.33306755292E-04 +1.00373652872E-01 -3.94122932676E-01
2.95500000000E+09 -1.09930084616E-01 -3.81673574025E-01 +1.67733617989E-03 +4.41850763851E-04 +1.71035563204E-03 +4.17943572153E-04 +5.87390642057E-02 -3.87990662800E-01
2.96000000000E+09 -1.42427460811E-01 -3.62077119206E-01 +1.66524479760E-03 +1.73903138543E-04 +1.71837598058E-03 +1.94679473460E-04 +1.79089416203E-02 -3.77854073477E-01
2.96500000000E+09 -1.74467485136E-01 -3.40307327816E-01 +1.87145384873E-03 +2.04134668023E-04 +1.94912155283E-03 +2.19538092600E-04 -2.32119736865E-02 -3.65404497749E-01
2.97000000000E+09 -2.05165002073E-01 -3.15032534545E-01 +2.41172452664E-03 -2.74439299806E-04 +2.47941132642E-03 -4.10448627764E-04 -6.28468628563E-02 -3.49182221400E-01
2.97500000000E+09 -2.33323754043E-01 -2.88289356786E-01 +2.36900062720E-03 -1.08198477472E-03 +2.31167978979E-03 -1.16847419398E-03 -1.02271803499E-01 -3.31970861441E-01
2.98000000000E+09 -2.61125807964E-01 -2.60412483375E-01 +1.74701120679E-03 -1.44076006130E-03 +1.73903468222E-03 -1.40848711990E-03 -1.40143461427E-01 -3.10607394105E-01
2.98500000000E+09 -2.86423515814E-01 -2.29921726243E-01 +1.42971201788E-03 -1.64169672030E-03 +1.57902627659E-03 -1.63660540897E-03 -1.75871729239E-01 -2.87722892670E-01
2.99000000000E+09 -3.09788007928E-01 -1.99494408015E-01 +1.20696222161E-03 -1.79529154613E-03 +1.26282323501E-03 -1.88141679471E-03 -2.10680284923E-01 -2.61861857558E-01
2.99500000000E+09 -3.32554450268E-01 -1.68701744467E-01 +1.10771743552E-03 -1.94271575366E-03 +1.04529584026E-03 -2.06739027287E-03 -2.43432098524E-01 -2.32999783219E-01
3.00000000000E+09 -3.53839066465E-01 -1.34751969211E-01 +8.06501537649E-04 -2.26855405980E-03 +6.97879157470E-04 -2.26912815885E-03 -2.74715806354E-01 -2.00818289145E-01
3.00500000000E+09 -3.71263296547E-01 -1.00877943409E-01 +3.92552535468E-04 -2.55480007027E-03 +2.84166017647E-04 -2.43172830248E-03 -3.02821603614E-01 -1.66825657331E-01
3.01000000000E+09 -3.87235602921E-01 -6.68721231958E-02 -2.85717341688E-04 -2.57403071146E-03 -3.38427313615E-04 -2.48143068130E-03 -3.28766242612E-01 -1.31394430951E-01
3.01500000000E+09 -3.99987582723E-01 -3.24963741685E-02 -4.96563156660E-04 -2.31924587223E-03 -3.86394967299E-04 -2.29762422330E-03 -3.51455102204E-01 -9.53809254159E-02
3.02000000000E+09 -4.10426830847E-01 +1.76208662033E-03 -1.13428727698E-03 -2.59376146230E-03 -1.00855328481E-03 -2.62482129838E-03 -3.72099144048E-01 -5.83369954790E-02
3.02500000000E+09 -4.17970475116E-01 +3.59127992007E-02 -1.62314319666E-03 -2.14384289824E-03 -1.59818246596E-03 -2.14590855647E-03 -3.89478567856E-01 -1.87181188858E-02
3.03000000000E+09 -4.23156598733E-01 +7.05708424547E-02 -2.13127859556E-03 -1.66600042871E-03 -1.99472272669E-03 -1.66446897802E-03 -4.02397822418E-01 +2.08198413977E-02
3.03500000000E+09 -4.23602980706E-01 +1.04719367380E-01 -2.28036642290E-03 -7.07486480445E-04 -2.21879780601E-03 -7.44461950722E-04 -4.13591256807E-01 +6.05546358804E-02
3.04000000000E+09 -4.22802830542E-01 +1.37126122645E-01 -1.73580493630E-03 -5.98991660547E-04 -1.71513988131E-03 -7.85504065819E-04 -4.21519481388E-01 +1.01081848802E-01
3.04500000000E+09 -4.20159276950E-01 +1.70494126433E-01 -1.78632166254E-03 -6.20404804551E-04 -1.82788453471E-03 -6.59946212561E-04 -4.26612797106E-01 +1.41443828236E-01
3.05000000000E+09 -4.14414149669E-01 +2.04153496045E-01 -2.05246468939E-03 -5.91825576307E-04 -2.21389591521E-03 -4.85029971109E-04 -4.28451867532E-01 +1.80869953165E-01
3.05500000000E+09 -4.06338776070E-01 +2.36758841984E-01 -2.39183046795E-03 -4.15612272625E-05 -2.44724762961E-03 +9.58763964868E-05 -4.27692997810E-01 +2.18976567236E-01
3.06000000000E+09 -3.96770005130E-01 +2.69141766621E-01 -2.26892237928E-03 +6.65546247147E-04 -2.17727000533E-03 +7.78732018482E-04 -4.24825190587E-01 +2.55656881655E-01
3.06500000000E+09 -3.85110286939E-01 +3.00481635351E-01 -1.73100058143E-03 +1.02859576100E-03 -1.63203015672E-03 +9.86510995309E-04 -4.20007033967E-01 +2.91395952009E-01
3.07000000000E+09 -3.72872683792E-01 +3.30456715782E-01 -1.47754898924E-03 +1.06893289634E-03 -1.48553212092E-03 +9.55984802727E-04 -4.13770568421E-01 +3.26356893135E-01
