# Hz S RI R 50
! CMT, C1220, 16058040, 17.2.0/1
! Date: 15/08/2018 10:33:02
! Data: Format (Calibration Info)
! Freq                      S11: Re/Im (F2)                       S21: Re/Im (F2)                       S12: Re/Im (F2)                       S22: Re/Im (F2)            
2.50000000000E+09 +5.80591172117E-01 +6.66303247963E-01 -2.22952860942E-04 +1.61185547341E-04 -2.76530219004E-04 +2.03955729231E-04 +5.65307081083E-01 +7.22150442420E-01
2.50500000000E+09 +5.87826957296E-01 +6.58069524901E-01 -1.82580442335E-04 +1.57037340385E-04 -1.46188217966E-04 +1.65945423032E-04 +5.70998078067E-01 +7.16594947325E-01
2.51000000000E+09 +5.95651277203E-01 +6.49822677037E-01 -1.34000767761E-04 +1.81203413663E-04 -1.39249581015E-04 +1.61005603265E-04 +5.76462575915E-01 +7.11403276301E-01
2.51500000000E+09 +6.03080661769E-01 +6.41674887056E-01 -7.98910531430E-05 +1.11427487753E-04 -1.35747311719E-04 +9.49513489815E-05 +5.81822615965E-01 +7.05955168003E-01
2.52000000000E+09 +6.09898439921E-01 +6.33552871763E-01 -1.36533225880E-04 +1.18457822550E-04 -1.27342364810E-04 +1.42894294387E-04 +5.87012405927E-01 +6.99907265583E-01
2.52500000000E+09 +6.15694718568E-01 +6.26054618799E-01 -6.82913518256E-05 +1.72648671977E-04 -1.18915198401E-04 +1.41458855106E-04 +5.92604708644E-01 +6.93601889856E-01
2.53000000000E+09 +6.21194628542E-01 +6.18758906892E-01 -9.06089294641E-05 +1.60900389276E-04 -6.99128630011E-05 +1.27681424471E-04 +5.98608386721E-01 +6.86758522373E-01
2.53500000000E+09 +6.25760957101E-01 +6.11689280597E-01 -8.27206548376E-05 +1.17302347218E-04 -7.07026637336E-05 +1.18027280211E-04 +6.04519626996E-01 +6.80021178690E-01
2.54000000000E+09 +6.30225119390E-01 +6.04822409182E-01 -1.28665973650E-04 +8.28862766876E-05 -1.21079568417E-04 +7.62012488239E-05 +6.10519821687E-01 +6.73563901598E-01
2.54500000000E+09 +6.34868013504E-01 +5.97544625889E-01 -2.33708600690E-04 +1.46431101880E-04 -2.18974351561E-04 +1.00681571280E-04 +6.16331079822E-01 +6.67524741176E-01
2.55000000000E+09 +6.39967056707E-01 +5.89930333425E-01 -1.98946114996E-04 +2.70039740053E-04 -2.55340996093E-04 +3.23096550690E-04 +6.21781680204E-01 +6.61222288587E-01
2.55500000000E+09 +6.45396826764E-01 +5.81728872685E-01 -7.72371861187E-05 +3.84113499049E-04 -1.58366461167E-04 +4.13621065117E-04 +6.26907458143E-01 +6.54797224731E-01
2.56000000000E+09 +6.51768210206E-01 +5.73672705738E-01 +6.49298348851E-05 +3.58003291605E-04 +1.18994721069E-04 +3.94866434893E-04 +6.31910046913E-01 +6.47571357388E-01
2.56500000000E+09 +6.58718973082E-01 +5.65028840683E-01 +1.05193127851E-04 +2.70225631843E-04 +1.84074557086E-04 +2.62194125781E-04 +6.37084158154E-01 +6.40130734889E-01
2.57000000000E+09 +6.65751418829E-01 +5.56290371553E-01 +8.93489141534E-05 +1.12482279564E-04 +4.99486262523E-05 +7.68976239697E-05 +6.42358130181E-01 +6.32196270511E-01
2.57500000000E+09 +6.72576667223E-01 +5.47343780187E-01 -6.65852027881E-05 +2.08515351285E-04 -1.98657153335E-06 +2.21200762728E-04 +6.47892585441E-01 +6.24675900194E-01
2.58000000000E+09 +6.78243846677E-01 +5.38979923176E-01 -1.53625379859E-06 +3.43013146503E-04 +4.74934006249E-05 +3.27097908720E-04 +6.52993073392E-01 +6.16926188496E-01
2.58500000000E+09 +6.83496124851E-01 +5.30889942008E-01 +1.15255254160E-04 +3.61076736619E-04 +8.17940856579E-05 +3.45543741871E-04 +6.57777233947E-01 +6.09374664233E-01
2.59000000000E+09 +6.88324845610E-01 +5.23275511914E-01 +2.19441527475E-04 +3.26879909273E-04 +1.77030266612E-04 +3.26944323476E-04 +6.62602724708E-01 +6.01886810697E-01
2.59500000000E+09 +6.93000714742E-01 +5.14949529999E-01 +3.25586324105E-04 +2.57801875372E-04 +3.06728910846E-04 +2.62686180002E-04 +6.67435504102E-01 +5.93930303891E-01
2.60000000000E+09 +6.96953591232E-01 +5.06079547828E-01 +2.92357922052E-04 +2.13705413415E-04 +3.13551864167E-04 +2.03467586526E-04 +6.72255789943E-01 +5.85679775546E-01
2.60500000000E+09 +7.00960206554E-01 +4.96248315497E-01 +3.19042817289E-04 +1.86859308436E-04 +3.75382002828E-04 +1.30282080003E-04 +6.77472002668E-01 +5.77214618384E-01
2.61000000000E+09 +7.05133837222E-01 +4.85283909986E-01 +4.11652881406E-04 +1.84046318595E-04 +4.08314653481E-04 +1.60001921616E-04 +6.82744641060E-01 +5.68628378964E-01
2.61500000000E+09 +7.09855553114E-01 +4.73298689474E-01 +5.01688029258E-04 -5.41748616119E-05 +5.14397608691E-04 -6.63265327676E-06 +6.87660556871E-01 +5.60163324585E-01
2.62000000000E+09 +7.14503245807E-01 +4.60185630683E-01 +2.75051262685E-04 -9.64078397439E-05 +3.86533253585E-04 -1.41068685318E-04 +6.92507421987E-01 +5.51280393130E-01
2.62500000000E+09 +7.19266309707E-01 +4.46193328240E-01 +2.15005129543E-04 -2.80143566000E-05 +1.90025562989E-04 -7.20677766553E-05 +6.97180526401E-01 +5.42384121490E-01
2.63000000000E+09 +7.23544135068E-01 +4.32251481601E-01 +3.22345118528E-04 +8.74154456427E-05 +3.21264292976E-04 +4.96984107296E-05 +7.01762353940E-01 +5.33633119392E-01
2.63500000000E+09 +7.27283821576E-01 +4.18715392653E-01 +4.33505106655E-04 -2.35698084870E-06 +3.79247672924E-04 -7.32748308342E-05 +7.06345941927E-01 +5.24642034129E-01
2.64000000000E+09 +7.30733996641E-01 +4.06089804859E-01 +5.18966006965E-04 -1.65566388745E-04 +4.24849817640E-04 -1.15200114574E-04 +7.11082672371E-01 +5.15272082831E-01
2.64500000000E+09 +7.34029757635E-01 +3.94340867880E-01 +4.19977933648E-04 -3.98413457671E-04 +3.52308027950E-04 -2.98992989108E-04 +7.15840645677E-01 +5.05684116668E-01
2.65000000000E+09 +7.36698667020E-01 +3.83055373301E-01 +2.20272586386E-04 -3.18809169016E-04 +2.82414524827E-04 -2.67029045248E-04 +7.20212835405E-01 +4.95573508222E-01
2.65500000000E+09 +7.39411867862E-01 +3.72001641389E-01 +2.53948520113E-04 -3.14915950632E-04 +2.67805659212E-04 -3.19458327392E-04 +7.24261784779E-01 +4.85075284980E-01
2.66000000000E+09 +7.42056127935E-01 +3.60657910325E-01 +2.40310236599E-04 -3.42560496685E-04 +2.42050245861E-04 -3.29561667083E-04 +7.28170602284E-01 +4.73965358113E-01
2.66500000000E+09 +7.44639943452E-01 +3.49220839101E-01 +2.48745892762E-04 -3.86492108302E-04 +1.81255754365E-04 -4.15007746848E-04 +7.32595888883E-01 +4.63124240866E-01
2.67000000000E+09 +7.47516968976E-01 +3.36522487733E-01 +9.89877870409E-05 -4.73601199925E-04 +5.38504078266E-05 -4.43294325337E-04 +7.37120606421E-01 +4.52299722153E-01
2.67500000000E+09 +7.50067704099E-01 +3.22494664546E-01 +6.60025835914E-05 -4.05749596034E-04 -4.31179970110E-06 -3.83054746742E-04 +7.41202749812E-01 +4.41195623878E-01
2.68000000000E+09 +7.51640789093E-01 +3.07754703610E-01 +3.02815957403E-05 -4.37101963764E-04 +2.17406533738E-05 -3.88253457015E-04 +7.45122207538E-01 +4.30462861891E-01
2.68500000000E+09 +7.53224192850E-01 +2.93056985125E-01 -1.05498891368E-05 -4.79684218339E-04 -2.14201739380E-05 -4.18957417523E-04 +7.48490234590E-01 +4.18741925536E-01
2.69000000000E+09 +7.54382287602E-01 +2.78379055276E-01 -1.08854482868E-04 -4.57607844307E-04 -1.33739110618E-04 -5.13263624206E-04 +7.50958488615E-01 +4.06692848321E-01
2.69500000000E+09 +7.55482724509E-01 +2.64440559012E-01 -2.37214435805E-04 -4.38101554907E-04 -2.17448919411E-04 -3.73072582581E-04 +7.53767234991E-01 +3.94298086216E-01
2.70000000000E+09 +7.56734863589E-01 +2.50625204011E-01 -3.72929507458E-04 -4.66675364965E-04 -3.17509592860E-04 -4.19935440829E-04 +7.56647239307E-01 +3.81313752065E-01
2.70500000000E+09 +7.57692190571E-01 +2.37035912284E-01 -4.13195623566E-04 -1.75364071761E-04 -4.03596172509E-04 -1.92726307626E-04 +7.59760773852E-01 +3.68147108214E-01
2.71000000000E+09 +7.58527056893E-01 +2.23690930445E-01 -2.63993691716E-04 -1.60342362004E-04 -2.83633254976E-04 -1.79795506016E-04 +7.62367581025E-01 +3.55164169637E-01
2.71500000000E+09 +7.59605018333E-01 +2.10033916614E-01 -2.60171523823E-04 -3.22771791216E-04 -2.43286329467E-04 -3.23081719374E-04 +7.65069559404E-01 +3.42718231805E-01
2.72000000000E+09 +7.60358730480E-01 +1.95609821976E-01 -4.72571103594E-04 -4.05013910552E-04 -5.38843828749E-04 -3.95957503362E-04 +7.67026564964E-01 +3.29997576176E-01
2.72500000000E+09 +7.60445704700E-01 +1.80155170772E-01 -6.88897654066E-04 -1.81434777495E-04 -7.30496389428E-04 -1.07504037770E-04 +7.68054282375E-01 +3.16631528386E-01
2.73000000000E+09 +7.59914842103E-01 +1.63664844726E-01 -7.24227184854E-04 +1.47288280152E-04 -6.64044581497E-04 +1.69313827683E-04 +7.69165145421E-01 +3.02753292653E-01
2.73500000000E+09 +7.57856489204E-01 +1.45829379282E-01 -6.19811227006E-04 +3.69770491354E-04 -5.35980241007E-04 +3.35986435107E-04 +7.70263568839E-01 +2.88512086488E-01
2.74000000000E+09 +7.54852911179E-01 +1.28426177502E-01 -3.08516386684E-04 +4.46031842664E-04 -3.11236762655E-04 +3.02073212397E-04 +7.72148671850E-01 +2.73492387863E-01
2.74500000000E+09 +7.51054657803E-01 +1.10894407440E-01 -3.05064025809E-04 +3.89854793240E-04 -3.66133380907E-04 +2.77398403134E-04 +7.73427495201E-01 +2.58314291054E-01
2.75000000000E+09 +7.46870312326E-01 +9.31977926558E-02 -1.81581546564E-04 +4.79134986018E-04 -2.44199274906E-04 +4.48001579060E-04 +7.74391105229E-01 +2.43328885135E-01
2.75500000000E+09 +7.41882893292E-01 +7.57742655228E-02 -1.34535538963E-04 +3.26542378451E-04 -1.69803555540E-04 +3.40734328831E-04 +7.74342556304E-01 +2.28519056239E-01
2.76000000000E+09 +7.37302003879E-01 +5.85970948221E-02 -1.65044217474E-04 +5.36401502210E-04 -2.05210137943E-04 +5.56353788236E-04 +7.74337103416E-01 +2.13394872345E-01
2.76500000000E+09 +7.32173837845E-01 +4.09769173352E-02 +1.21526598674E-04 +5.00146213545E-04 +9.72693443700E-05 +5.51287373719E-04 +7.73737684511E-01 +1.96630655692E-01
2.77000000000E+09 +7.26828459793E-01 +2.29445122074E-02 +4.27101341095E-05 +3.88033539167E-04 +5.64096708347E-05 +4.19131654319E-04 +7.72616226977E-01 +1.79535265084E-01
2.77500000000E+09 +7.21846057619E-01 +4.46160930740E-03 +1.08382087813E-04 +6.36917799978E-04 +8.90001483490E-05 +6.86707035737E-04 +7.71155436014E-01 +1.61427245893E-01
2.78000000000E+09 +7.16607374538E-01 -1.54607299529E-02 +4.24906718984E-04 +6.31848038383E-04 +4.86771109994E-04 +6.71961369533E-04 +7.69663596880E-01 +1.43733627358E-01
2.78500000000E+09 +7.10459076394E-01 -3.63718729874E-02 +8.23079177679E-04 +4.68759617980E-04 +8.44699505519E-04 +4.19739348487E-04 +7.67144542236E-01 +1.25600716710E-01
2.79000000000E+09 +7.03724207506E-01 -5.80794481603E-02 +8.35484896982E-04 -1.00716307599E-04 +8.12909691397E-04 -1.47263741480E-04 +7.64052547384E-01 +1.08319105554E-01
2.79500000000E+09 +6.95307518577E-01 -7.96342294517E-02 +6.24824534467E-04 -1.92631638004E-04 +5.75374644151E-04 -2.15393147953E-04 +7.59945219112E-01 +9.04552191682E-02
2.80000000000E+09 +6.86000039493E-01 -1.00062736490E-01 +4.04060085356E-04 -2.63160361446E-04 +4.02894090250E-04 -2.15064197690E-04 +7.55240663545E-01 +7.20191640841E-02
2.80500000000E+09 +6.76540371006E-01 -1.19295078019E-01 +5.20200491064E-04 -1.28888919428E-04 +5.08623768053E-04 -1.34229321450E-04 +7.49452765980E-01 +5.27581969906E-02
2.81000000000E+09 +6.66526994482E-01 -1.37354245202E-01 +8.00859712997E-04 -3.71186377287E-04 +8.01484296789E-04 -3.88856823554E-04 +7.42984173947E-01 +3.34553572656E-02
2.81500000000E+09 +6.56015791646E-01 -1.54391815852E-01 +5.18479881291E-04 -7.85199861142E-04 +5.08309651078E-04 -8.68667601068E-04 +7.36193912048E-01 +1.38831602418E-02
2.82000000000E+09 +6.44897778651E-01 -1.71288841411E-01 +2.22701048311E-04 -7.39340535076E-04 +1.38867045445E-04 -7.53840857137E-04 +7.28604823293E-01 -5.78446387449E-03
2.82500000000E+09 +6.32173278433E-01 -1.87860117560E-01 +2.90022717194E-04 -7.79305972301E-04 +2.65960191970E-04 -6.70464875997E-04 +7.20561206837E-01 -2.52363467999E-02
2.83000000000E+09 +6.18226621682E-01 -2.04931238017E-01 +2.82993870800E-04 -1.11112337495E-03 +2.35580402304E-04 -1.00836499512E-03 +7.11745331878E-01 -4.54039444236E-02
2.83500000000E+09 +6.02344746471E-01 -2.22787445724E-01 -2.06891522765E-04 -1.39992119848E-03 -1.72451963301E-04 -1.33324453364E-03 +7.01346531482E-01 -6.55153789123E-02
2.84000000000E+09 +5.84351708286E-01 -2.40796877878E-01 -7.27236937778E-04 -1.29324478294E-03 -7.13260946700E-04 -1.28063512456E-03 +6.90250345175E-01 -8.61895681392E-02
2.84500000000E+09 +5.64380817548E-01 -2.59475607506E-01 -1.20905721230E-03 -9.16093340748E-04 -1.23058257287E-03 -8.86656947705E-04 +6.77989329566E-01 -1.06581511463E-01
2.85000000000E+09 +5.43309533267E-01 -2.78191728486E-01 -1.15745595243E-03 -4.11733985984E-04 -1.19809974574E-03 -3.89511968871E-04 +6.64528852214E-01 -1.27549658491E-01
2.85500000000E+09 +5.20398812922E-01 -2.97302969384E-01 -1.08010504979E-03 -1.97697573026E-04 -1.02576243870E-03 -1.74096531927E-04 +6.49633970545E-01 -1.47965918283E-01
2.86000000000E+09 +4.96782959010E-01 -3.15278107211E-01 -8.49778556777E-04 -1.94440142525E-04 -7.87202854518E-04 -2.09954604984E-04 +6.34044256811E-01 -1.68684514276E-01
2.86500000000E+09 +4.72585705630E-01 -3.31949008405E-01 -1.10895275476E-03 -2.78261919283E-04 -1.04386990455E-03 -2.87986846867E-04 +6.16594409795E-01 -1.89506189372E-01
2.87000000000E+09 +4.48870152284E-01 -3.47209109508E-01 -1.16773728423E-03 -2.71896373701E-04 -1.21217834214E-03 -3.16397290601E-04 +5.97199461900E-01 -2.10034369029E-01
2.87500000000E+09 +4.25077197570E-01 -3.61762360428E-01 -1.83503373687E-03 -1.51309112865E-04 -1.80679077510E-03 -1.16260146174E-04 +5.76711875991E-01 -2.29268395270E-01
2.88000000000E+09 +4.00324771982E-01 -3.75326162114E-01 -1.98620860413E-03 +7.29044963062E-04 -1.92562930816E-03 +7.73519379214E-04 +5.55381709764E-01 -2.48661591800E-01
2.88500000000E+09 +3.74439078429E-01 -3.87045653056E-01 -1.59015028062E-03 +1.58542710021E-03 -1.46125573851E-03 +1.50772113560E-03 +5.31917550243E-01 -2.67214513509E-01
2.89000000000E+09 +3.48080859798E-01 -3.97915711600E-01 -6.71196486476E-04 +1.69110569291E-03 -6.70065414144E-04 +1.51230080493E-03 +5.06175897579E-01 -2.85158788795E-01
2.89500000000E+09 +3.18909514170E-01 -4.08251337028E-01 -4.00285291061E-04 +1.30670376979E-03 -4.49549952889E-04 +1.27986842444E-03 +4.79267672127E-01 -3.01786159590E-01
2.90000000000E+09 +2.87756333586E-01 -4.16900360974E-01 -4.83591407158E-04 +1.42296590053E-03 -5.34617067707E-04 +1.32634310412E-03 +4.50937329420E-01 -3.18046682275E-01
2.90500000000E+09 +2.54096704706E-01 -4.23577990092E-01 -1.75390983509E-04 +1.32422651507E-03 -1.65078882338E-04 +1.34171253159E-03 +4.20985772390E-01 -3.33388725591E-01
2.91000000000E+09 +2.19831949871E-01 -4.28091161957E-01 -4.76078029426E-04 +1.20040670656E-03 -4.37053498168E-04 +1.17724528635E-03 +3.89782401408E-01 -3.46221136486E-01
2.91500000000E+09 +1.84615360291E-01 -4.31635007102E-01 -2.30766228908E-04 +1.56392800894E-03 -2.48611439223E-04 +1.49689988833E-03 +3.58877208832E-01 -3.57676565996E-01
2.92000000000E+09 +1.48705554995E-01 -4.32448031587E-01 -2.54291320802E-04 +1.56345988316E-03 -2.70384057209E-04 +1.54645348037E-03 +3.25796029763E-01 -3.68269629118E-01
2.92500000000E+09 +1.13351822493E-01 -4.32038065345E-01 -6.79535585053E-05 +2.38297187063E-03 -1.50163663352E-04 +2.21937853796E-03 +2.90035257426E-01 -3.75818380750E-01
2.93000000000E+09 +7.80474355497E-02 -4.29559019876E-01 +9.67258744849E-04 +2.33027019245E-03 +8.13300203573E-04 +2.32228407114E-03 +2.53141837817E-01 -3.81426471802E-01
2.93500000000E+09 +4.39690064263E-02 -4.24727720109E-01 +1.47586573505E-03 +2.12568348104E-03 +1.35045836904E-03 +2.19361821683E-03 +2.15275038276E-01 -3.84548978177E-01
2.94000000000E+09 +1.01337108829E-02 -4.19778677097E-01 +1.98154971681E-03 +1.34481420599E-03 +1.95597733947E-03 +1.38355797117E-03 +1.77337230177E-01 -3.85897888967E-01
2.94500000000E+09 -2.56880843622E-02 -4.11387478271E-01 +1.45488983578E-03 +1.14197143463E-03 +1.39745642675E-03 +1.20464975395E-03 +1.39427688227E-01 -3.86382260750E-01
2.95000000000E+09 -6.02892368654E-02 -3.98932759269E-01 +1.64712711590E-03 +1.39197824425E-03 +1.58050616022E-03 +1.39192527326E-03 +9.97552429087E-02 -3.84639163064E-01
2.95500000000E+09 -9.38989642901E-02 -3.83914797357E-01 +2.34406280273E-03 +1.39496083557E-03 +2.35489857408E-03 +1.49547037865E-03 +5.93824223010E-02 -3.78143850043E-01
2.96000000000E+09 -1.26985209008E-01 -3.66429113312E-01 +2.57571376923E-03 +7.99270580306E-04 +2.67058835429E-03 +8.30637708624E-04 +2.08957233040E-02 -3.68487532983E-01
2.96500000000E+09 -1.59909220936E-01 -3.45831176841E-01 +2.93725150005E-03 +5.85001816411E-04 +3.15219036025E-03 +5.36804643983E-04 -1.89791032689E-02 -3.57311697814E-01
2.97000000000E+09 -1.90691527830E-01 -3.21863139174E-01 +3.45921184019E-03 -2.10155180858E-04 +3.46502017141E-03 -3.82011735047E-04 -5.78495421650E-02 -3.42027379708E-01
2.97500000000E+09 -2.19851796232E-01 -2.97139543859E-01 +3.38760139399E-03 -1.20118047784E-03 +3.31550991969E-03 -1.26481534869E-03 -9.64782612475E-02 -3.25886290788E-01
2.98000000000E+09 -2.48627660277E-01 -2.70564249462E-01 +3.00818793166E-03 -1.98687802711E-03 +3.00662232596E-03 -1.87056871124E-03 -1.33794961231E-01 -3.05697008363E-01
2.98500000000E+09 -2.75393248074E-01 -2.41615010107E-01 +2.26796012366E-03 -2.71208287592E-03 +2.35890011502E-03 -2.69063520661E-03 -1.69542426315E-01 -2.83873083209E-01
2.99000000000E+09 -3.00189633755E-01 -2.11727882791E-01 +1.36188144502E-03 -2.62547078376E-03 +1.45215546022E-03 -2.81040511320E-03 -2.03609752628E-01 -2.58706914178E-01
2.99500000000E+09 -3.24162650701E-01 -1.81033221371E-01 +1.36033641905E-03 -2.36202011216E-03 +1.32907558134E-03 -2.47366915201E-03 -2.36459472122E-01 -2.31126314041E-01
3.00000000000E+09 -3.45725692799E-01 -1.47954241503E-01 +1.37851940905E-03 -2.98081170065E-03 +1.25067482271E-03 -3.04496400556E-03 -2.68002197231E-01 -1.99579649711E-01
3.00500000000E+09 -3.64698022461E-01 -1.15072604208E-01 +4.79276195570E-04 -3.78066442346E-03 +3.42286353903E-04 -3.58072517123E-03 -2.96108305086E-01 -1.66064443861E-01
3.01000000000E+09 -3.82187116941E-01 -8.10397905814E-02 -7.22791176736E-04 -3.34100197787E-03 -6.64444400439E-04 -3.17501104621E-03 -3.21744056845E-01 -1.31370120696E-01
3.01500000000E+09 -3.95876721291E-01 -4.65411131160E-02 -9.47420857407E-04 -3.03694355118E-03 -8.42590124150E-04 -2.92020565920E-03 -3.44520379126E-01 -9.65045631943E-02
3.02000000000E+09 -4.07523267881E-01 -1.22994749226E-02 -1.68676584880E-03 -2.64012917640E-03 -1.59018663956E-03 -2.67891976223E-03 -3.65323623414E-01 -6.04395346199E-02
3.02500000000E+09 -4.16370589574E-01 +2.21463485190E-02 -1.75724316056E-03 -2.15447858652E-03 -1.71388133096E-03 -2.22582423539E-03 -3.82952368528E-01 -2.19992354667E-02
3.03000000000E+09 -4.21732272038E-01 +5.70903912663E-02 -2.22111427259E-03 -1.85198517915E-03 -2.17365652163E-03 -1.87485682381E-03 -3.96679703997E-01 +1.66187103907E-02
3.03500000000E+09 -4.23627532780E-01 +9.04108376651E-02 -2.18580580743E-03 -1.01120556201E-03 -2.06817313712E-03 -1.12867434823E-03 -4.08463081578E-01 +5.57264081224E-02
3.04000000000E+09 -4.24434292762E-01 +1.23264350965E-01 -1.97097803803E-03 -1.06995617118E-03 -1.94479601986E-03 -1.25371831750E-03 -4.17304012601E-01 +9.54229172018E-02
3.04500000000E+09 -4.23079127842E-01 +1.56926114973E-01 -2.06024666320E-03 -9.68292120857E-04 -2.13563301198E-03 -1.10141262297E-03 -4.23359315461E-01 +1.35136504332E-01
3.05000000000E+09 -4.18147007884E-01 +1.91067621260E-01 -2.44241726965E-03 -7.88011050823E-04 -2.65350123062E-03 -7.96499281746E-04 -4.26632252358E-01 +1.73752793220E-01
3.05500000000E+09 -4.10978781752E-01 +2.24188325203E-01 -2.70947971972E-03 -1.83634363105E-04 -2.75677812189E-03 -9.51357925583E-06 -4.27664700416E-01 +2.12081928089E-01
3.06000000000E+09 -4.02053943669E-01 +2.56651548955E-01 -2.46770039401E-03 +5.73815623907E-04 -2.34854430268E-03 +6.73144316898E-04 -4.26244631777E-01 +2.49361187291E-01
3.06500000000E+09 -3.91987301863E-01 +2.88494761100E-01 -1.99328968253E-03 +7.95789034864E-04 -1.90660090658E-03 +7.88359759571E-04 -4.22369151836E-01 +2.86019472240E-01
3.07000000000E+09 -3.80216190783E-01 +3.19622320288E-01 -1.61403932358E-03 +9.81952156803E-04 -1.65345623766E-03 +8.79201434311E-04 -4.16706456752E-01 +3.21996083427E-01
