# Hz S RI R 50
! CMT, C1220, 16058040, 17.2.0/1
! Date: 15/08/2018 10:32:51
! Data: Format (Calibration Info)
! Freq                      S11: Re/Im (F2)                       S21: Re/Im (F2)                       S12: Re/Im (F2)                       S22: Re/Im (F2)            
2.50000000000E+09 +5.80174604163E-01 +6.65208368800E-01 -3.30693327221E-04 +1.74658830483E-04 -3.58236032743E-04 +1.89302392578E-04 +5.65143675083E-01 +7.22104944296E-01
2.50500000000E+09 +5.87487061796E-01 +6.57096185676E-01 -2.09520999375E-04 +1.75855491051E-04 -2.18749806897E-04 +1.76525551513E-04 +5.70731471016E-01 +7.16594173810E-01
2.51000000000E+09 +5.95197654109E-01 +6.48757393783E-01 -2.02761877651E-04 +2.25095969181E-04 -1.79410933006E-04 +2.65733455713E-04 +5.76321650807E-01 +7.11375506075E-01
2.51500000000E+09 +6.02641390217E-01 +6.40554117727E-01 -1.06092712045E-04 +1.58563810139E-04 -1.03266965841E-04 +1.61138347003E-04 +5.81562980805E-01 +7.06071420267E-01
2.52000000000E+09 +6.09335373100E-01 +6.32533014260E-01 -1.52262343049E-04 +2.38884958013E-04 -1.57494065995E-04 +1.90082367973E-04 +5.86801930902E-01 +7.00025763789E-01
2.52500000000E+09 +6.15064495718E-01 +6.25073607070E-01 -7.32783770961E-05 +2.37531903251E-04 -1.05570171474E-04 +2.10277683499E-04 +5.92345970670E-01 +6.93683028556E-01
2.53000000000E+09 +6.20325510989E-01 +6.17886031217E-01 -1.83786788156E-05 +2.41394490199E-04 -1.64123835183E-05 +2.39432347998E-04 +5.98502898571E-01 +6.86777778532E-01
2.53500000000E+09 +6.24895880455E-01 +6.10932746502E-01 -4.13675280938E-05 +1.92932752950E-04 +1.89500027031E-05 +1.39396799299E-04 +6.04496548418E-01 +6.80196709763E-01
2.54000000000E+09 +6.29307031224E-01 +6.03897878904E-01 -6.66688923612E-05 +1.05724836740E-04 -1.86687595488E-05 +9.41613116739E-05 +6.10419264373E-01 +6.73765706938E-01
2.54500000000E+09 +6.33914034314E-01 +5.96734308300E-01 -1.64798855421E-04 +1.59355782807E-04 -1.55108084291E-04 +1.95687336406E-04 +6.16173023692E-01 +6.67590558363E-01
2.55000000000E+09 +6.38873913639E-01 +5.89239102132E-01 -1.19632627890E-04 +2.95290257775E-04 -1.65417131656E-04 +3.04288150520E-04 +6.21652296219E-01 +6.61361757635E-01
2.55500000000E+09 +6.44336636896E-01 +5.81018513088E-01 -1.28706230012E-05 +3.61683013113E-04 -7.17683272807E-05 +4.43124090975E-04 +6.26736894579E-01 +6.54718883137E-01
2.56000000000E+09 +6.50716428914E-01 +5.73022145737E-01 +1.56828527721E-04 +3.22135601632E-04 +1.72996355867E-04 +3.44572509515E-04 +6.31639319937E-01 +6.47590283304E-01
2.56500000000E+09 +6.57553378028E-01 +5.64472033135E-01 +1.67898770094E-04 +1.84147578119E-04 +2.10720125933E-04 +1.41685799528E-04 +6.36863350014E-01 +6.40273612351E-01
2.57000000000E+09 +6.64546946551E-01 +5.55665488796E-01 +3.08469370795E-05 +1.15694640306E-04 +9.86329426486E-05 +8.85263878088E-05 +6.42176771405E-01 +6.32495682938E-01
2.57500000000E+09 +6.71267430923E-01 +5.47021345902E-01 -4.23344802661E-05 +2.48506993132E-04 +3.10037966605E-05 +2.40502936879E-04 +6.47801345349E-01 +6.24891617651E-01
2.58000000000E+09 +6.76999766648E-01 +5.38669601064E-01 +1.06954060475E-04 +3.46169391957E-04 +8.53492972229E-05 +2.43355010879E-04 +6.52945173939E-01 +6.17205795671E-01
2.58500000000E+09 +6.82157382698E-01 +5.30718239682E-01 +1.70682855206E-04 +2.92628820849E-04 +8.66736026360E-05 +2.48332520232E-04 +6.57727039299E-01 +6.09728873744E-01
2.59000000000E+09 +6.87036668904E-01 +5.23056100239E-01 +2.34531623616E-04 +2.73462439721E-04 +1.87306765376E-04 +2.66500343727E-04 +6.62536652510E-01 +6.02315573999E-01
2.59500000000E+09 +6.91553115078E-01 +5.14943934612E-01 +2.38737898079E-04 +2.27271501278E-04 +1.80359866012E-04 +2.14574279859E-04 +6.67347699073E-01 +5.94243521108E-01
2.60000000000E+09 +6.95585427279E-01 +5.06148058230E-01 +3.08400160083E-04 +2.56351523292E-04 +2.72044909587E-04 +2.15476178344E-04 +6.72340620031E-01 +5.86141675683E-01
2.60500000000E+09 +6.99582559145E-01 +4.96319476812E-01 +3.60974219269E-04 +1.38805154816E-04 +3.94403982348E-04 +2.30811441477E-04 +6.77555045551E-01 +5.77529833454E-01
2.61000000000E+09 +7.03624616695E-01 +4.85468559392E-01 +4.32379778913E-04 +1.26828339416E-04 +3.99714126177E-04 +1.57375525756E-04 +6.82876441732E-01 +5.68943861327E-01
2.61500000000E+09 +7.08428001071E-01 +4.73589459051E-01 +4.74944252500E-04 -6.87982947600E-05 +4.43734532448E-04 -7.47232174915E-05 +6.87895689215E-01 +5.60479309693E-01
2.62000000000E+09 +7.13113526628E-01 +4.60446823647E-01 +3.08778428243E-04 -1.20311120583E-04 +3.08022408396E-04 -1.38363266245E-04 +6.92736162611E-01 +5.51517788782E-01
2.62500000000E+09 +7.17803245595E-01 +4.46529535262E-01 +2.00982062174E-04 -6.03827412569E-05 +2.30261807546E-04 -5.35975018287E-05 +6.97376137569E-01 +5.42675907345E-01
2.63000000000E+09 +7.22030057687E-01 +4.32649557319E-01 +3.47221742444E-04 +7.35603053124E-05 +3.12887869843E-04 +2.06107086412E-05 +7.01867431079E-01 +5.33774307270E-01
2.63500000000E+09 +7.25890054346E-01 +4.19353635766E-01 +4.61380862291E-04 -7.39321644039E-05 +4.18689914543E-04 -6.26749898430E-05 +7.06482234410E-01 +5.24708408609E-01
2.64000000000E+09 +7.29381208728E-01 +4.06610497721E-01 +4.43858868697E-04 -2.02877649053E-04 +3.81998390281E-04 -1.53348173951E-04 +7.11160040563E-01 +5.15335149802E-01
2.64500000000E+09 +7.32513445462E-01 +3.94957370635E-01 +3.46598046605E-04 -2.75262528412E-04 +3.08443790972E-04 -1.91591261007E-04 +7.15983395707E-01 +5.05780840387E-01
2.65000000000E+09 +7.35173985113E-01 +3.83904744647E-01 +2.97277595704E-04 -2.39346473968E-04 +2.62800468818E-04 -2.07136772716E-04 +7.20316551144E-01 +4.95632796593E-01
2.65500000000E+09 +7.37982119161E-01 +3.72900635606E-01 +3.37398136644E-04 -2.19359336305E-04 +3.93436882572E-04 -1.81644884801E-04 +7.24288693699E-01 +4.85356299406E-01
2.66000000000E+09 +7.40604286849E-01 +3.61686226123E-01 +3.30470676524E-04 -2.89541845963E-04 +4.26834482955E-04 -3.04695985320E-04 +7.28308400790E-01 +4.74153426091E-01
2.66500000000E+09 +7.43258995057E-01 +3.50437637763E-01 +3.25647868467E-04 -4.61621570403E-04 +2.20426590751E-04 -4.74515202003E-04 +7.32786408845E-01 +4.63470053394E-01
2.67000000000E+09 +7.46063111830E-01 +3.37676430310E-01 +2.33758911645E-04 -4.71521114698E-04 +1.33885221420E-04 -4.53655909474E-04 +7.37310286816E-01 +4.52477126585E-01
2.67500000000E+09 +7.48604582383E-01 +3.23803747009E-01 +1.69588706871E-04 -4.15144567163E-04 +1.23127339617E-04 -4.02654325925E-04 +7.41387729399E-01 +4.41435481587E-01
2.68000000000E+09 +7.50144105454E-01 +3.09190764489E-01 +1.32788756683E-04 -5.41097866684E-04 +1.75936625773E-04 -4.96938204705E-04 +7.45525710399E-01 +4.30608090987E-01
2.68500000000E+09 +7.51967833476E-01 +2.94747577533E-01 +8.69502308144E-05 -6.39224334559E-04 +3.87534545258E-05 -6.80099552872E-04 +7.49072941399E-01 +4.18937396338E-01
2.69000000000E+09 +7.53121563820E-01 +2.80169374910E-01 -1.67564182164E-04 -6.69793383455E-04 -1.71135398258E-04 -6.33850548469E-04 +7.51542706316E-01 +4.06786243245E-01
2.69500000000E+09 +7.54366594851E-01 +2.66405029585E-01 -2.32500284366E-04 -5.13539866883E-04 -1.70575634274E-04 -5.22676168224E-04 +7.54341523537E-01 +3.94108356925E-01
2.70000000000E+09 +7.55847415002E-01 +2.52524720144E-01 -4.04923405872E-04 -5.71382224965E-04 -4.01823277698E-04 -5.86465969894E-04 +7.56985980275E-01 +3.81068205707E-01
2.70500000000E+09 +7.56842890631E-01 +2.39244397933E-01 -4.41354358894E-04 -3.39505634469E-04 -4.40267608119E-04 -3.25814877425E-04 +7.60101703143E-01 +3.67728901348E-01
2.71000000000E+09 +7.57686317076E-01 +2.25923970075E-01 -4.39153303516E-04 -3.17285305846E-04 -3.86179956503E-04 -3.79184282807E-04 +7.62694795105E-01 +3.54782484870E-01
2.71500000000E+09 +7.58939852841E-01 +2.12354923614E-01 -4.74848792715E-04 -3.70159023835E-04 -4.47718714908E-04 -3.81752700395E-04 +7.65153787343E-01 +3.42354484444E-01
2.72000000000E+09 +7.59708168434E-01 +1.98088062455E-01 -6.41154947655E-04 -3.63783912033E-04 -7.40949055802E-04 -3.81466441636E-04 +7.67129068319E-01 +3.29603173540E-01
2.72500000000E+09 +7.59982593040E-01 +1.82792486143E-01 -8.19202977843E-04 -1.08963681120E-04 -8.07666523036E-04 -4.51159993574E-06 +7.68075764765E-01 +3.16465317570E-01
2.73000000000E+09 +7.59547677937E-01 +1.66379168088E-01 -7.84861360592E-04 +2.19560873149E-04 -6.46479495816E-04 +2.46371876859E-04 +7.69149299409E-01 +3.02731005030E-01
2.73500000000E+09 +7.57706382536E-01 +1.48757885671E-01 -6.48356860496E-04 +4.14562136117E-04 -5.49441481584E-04 +3.53323124706E-04 +7.70351794908E-01 +2.88500799662E-01
2.74000000000E+09 +7.54874630070E-01 +1.31350346164E-01 -3.27459693158E-04 +5.01692703697E-04 -3.58967427795E-04 +4.40308568654E-04 +7.72324715730E-01 +2.73495177698E-01
2.74500000000E+09 +7.51300687106E-01 +1.13822448216E-01 -1.94761002893E-04 +4.81461410227E-04 -2.85541124350E-04 +4.11326114786E-04 +7.73663334090E-01 +2.58240896565E-01
2.75000000000E+09 +7.47245480467E-01 +9.62463154640E-02 +1.40827598576E-05 +4.82941038410E-04 -1.19946674115E-04 +4.76548717975E-04 +7.74646889033E-01 +2.43131126935E-01
2.75500000000E+09 +7.42487720802E-01 +7.89335027455E-02 -1.03360558239E-06 +2.62800569811E-04 +2.10522390860E-06 +2.28895244780E-04 +7.74621759943E-01 +2.28334213127E-01
2.76000000000E+09 +7.37955276598E-01 +6.18035991164E-02 -1.15433407230E-04 +3.27719396280E-04 -9.98044638381E-05 +3.92607121626E-04 +7.74691489552E-01 +2.13073942610E-01
2.76500000000E+09 +7.33168953948E-01 +4.44844842707E-02 +6.22192680738E-05 +2.82545299728E-04 +2.76542372389E-05 +3.05272296818E-04 +7.74001500523E-01 +1.96036311784E-01
2.77000000000E+09 +7.28307385985E-01 +2.65653879566E-02 -4.20813726125E-05 +2.88652945514E-04 -4.65429023217E-05 +3.35005266358E-04 +7.72778689923E-01 +1.78785630640E-01
2.77500000000E+09 +7.23772968365E-01 +7.98836347652E-03 +6.39997723595E-05 +4.61954651118E-04 +1.10647181761E-04 +4.91031633735E-04 +7.71194204368E-01 +1.60694270379E-01
2.78000000000E+09 +7.19001663941E-01 -1.20905396827E-02 +3.14175698338E-04 +4.12752034925E-04 +3.21750015384E-04 +3.34971586586E-04 +7.69382827719E-01 +1.42833520551E-01
2.78500000000E+09 +7.13073885106E-01 -3.32385290091E-02 +5.67811522463E-04 +1.83299434639E-04 +5.89201465151E-04 +1.21125602276E-04 +7.66768090929E-01 +1.24795264887E-01
2.79000000000E+09 +7.06477638757E-01 -5.50100898486E-02 +4.05056832428E-04 -2.45551233169E-04 +3.87131861280E-04 -2.38738416751E-04 +7.63380135794E-01 +1.07692567364E-01
2.79500000000E+09 +6.98546036081E-01 -7.64864874507E-02 +7.96820903240E-05 -1.20788707112E-04 +1.47144662006E-04 -6.83352152483E-05 +7.59262750926E-01 +8.98034949625E-02
2.80000000000E+09 +6.89700534792E-01 -9.72844890150E-02 +4.02189187143E-05 -4.81509052872E-05 +2.37722650415E-05 -3.50901985503E-05 +7.54276725777E-01 +7.14700482572E-02
2.80500000000E+09 +6.80487769934E-01 -1.16861195147E-01 +1.63672289940E-04 +1.33162527407E-04 +1.50871737983E-04 +1.91884681021E-04 +7.48505382787E-01 +5.24378915106E-02
2.81000000000E+09 +6.70479587410E-01 -1.35151077707E-01 +4.98827433569E-04 -2.15764193577E-06 +4.80360150102E-04 -5.39106248494E-05 +7.41936262283E-01 +3.33842946833E-02
2.81500000000E+09 +6.60314615322E-01 -1.52252722215E-01 +2.64596754141E-04 -2.98470007834E-04 +2.97786206677E-04 -3.52146370869E-04 +7.35213379056E-01 +1.40066906539E-02
2.82000000000E+09 +6.49305331310E-01 -1.69535386572E-01 +1.31074708739E-04 -2.23597746976E-04 +1.00599530759E-04 -2.00220305944E-04 +7.27759362227E-01 -5.50135128833E-03
2.82500000000E+09 +6.36881027606E-01 -1.86267864587E-01 +3.59974232890E-04 -2.15443696366E-04 +3.62880920409E-04 -2.12936413796E-04 +7.20004307103E-01 -2.48584644485E-02
2.83000000000E+09 +6.23094261898E-01 -2.03781152434E-01 +5.01923961727E-04 -7.15894268519E-04 +4.56001267243E-04 -6.82526348455E-04 +7.11170085656E-01 -4.51372725245E-02
2.83500000000E+09 +6.07219115392E-01 -2.21741041455E-01 -6.50794731053E-05 -1.04322502449E-03 -2.11103130485E-05 -1.06036186821E-03 +7.00932858641E-01 -6.53815932114E-02
2.84000000000E+09 +5.89678447022E-01 -2.39851131377E-01 -5.76433643847E-04 -8.53021700927E-04 -5.48820960470E-04 -8.64405900258E-04 +6.89792078952E-01 -8.61128368864E-02
2.84500000000E+09 +5.70287540609E-01 -2.59174176167E-01 -7.29432217938E-04 -5.02166778735E-04 -7.80095204401E-04 -5.53233700091E-04 +6.77369384423E-01 -1.06637973509E-01
2.85000000000E+09 +5.49228339999E-01 -2.78619818342E-01 -6.04688873313E-04 -2.77693625776E-04 -6.43750927447E-04 -3.37628443134E-04 +6.63829267574E-01 -1.27632809383E-01
2.85500000000E+09 +5.26426231849E-01 -2.98255952344E-01 -6.18455002194E-04 -3.41613029200E-04 -6.38309817756E-04 -2.91819658080E-04 +6.48721398621E-01 -1.47899463464E-01
2.86000000000E+09 +5.02643251280E-01 -3.16712183929E-01 -5.78536469823E-04 -4.01734438400E-04 -5.62864017756E-04 -4.17255049683E-04 +6.32955738603E-01 -1.68472140035E-01
2.86500000000E+09 +4.78697853227E-01 -3.33672687156E-01 -8.83888433269E-04 -4.43300453919E-04 -9.62550894149E-04 -4.69879399925E-04 +6.15466394152E-01 -1.89026801417E-01
2.87000000000E+09 +4.54975235150E-01 -3.49693536358E-01 -1.17153922613E-03 -3.74376458996E-04 -1.23143724177E-03 -4.14133466297E-04 +5.96146093878E-01 -2.09267166566E-01
2.87500000000E+09 +4.31152164171E-01 -3.64904221222E-01 -1.74812621765E-03 -9.67012109710E-05 -1.74731849211E-03 -5.62248660216E-05 +5.75746616076E-01 -2.28214893570E-01
2.88000000000E+09 +4.06130260620E-01 -3.79085458465E-01 -1.94854383231E-03 +6.35316004296E-04 -1.86702756234E-03 +6.63436125648E-04 +5.54453845022E-01 -2.47367403329E-01
2.88500000000E+09 +3.80159573959E-01 -3.91309285044E-01 -1.68533970607E-03 +1.54078133760E-03 -1.53873815928E-03 +1.52061766437E-03 +5.31291982488E-01 -2.65812626842E-01
2.89000000000E+09 +3.53451171076E-01 -4.02933930618E-01 -7.12032463799E-04 +1.81742488157E-03 -7.37951726114E-04 +1.68068049692E-03 +5.05892077404E-01 -2.83576763292E-01
2.89500000000E+09 +3.24054738196E-01 -4.13802961183E-01 -3.57873440348E-04 +1.47949163904E-03 -4.13209747259E-04 +1.40327533781E-03 +4.79126867696E-01 -3.00367165595E-01
2.90000000000E+09 +2.92225654568E-01 -4.23127014417E-01 -2.91469437450E-04 +1.58905638597E-03 -3.27210758434E-04 +1.57709749161E-03 +4.50959031625E-01 -3.16327943520E-01
2.90500000000E+09 +2.57949496234E-01 -4.30174229766E-01 -2.74295251641E-05 +1.41375184397E-03 +3.42997024810E-05 +1.43096139799E-03 +4.21391849553E-01 -3.31659848874E-01
2.91000000000E+09 +2.23284054459E-01 -4.34903831896E-01 -3.05274321572E-04 +1.45779941644E-03 -2.54289549188E-04 +1.46134701867E-03 +3.90574608370E-01 -3.44484295241E-01
2.91500000000E+09 +1.87579076102E-01 -4.38972213803E-01 +3.00386759418E-04 +1.79823626226E-03 +2.94723947091E-04 +1.67798617344E-03 +3.60121866781E-01 -3.56281601189E-01
2.92000000000E+09 +1.51052182244E-01 -4.40203104133E-01 +2.84500356712E-04 +1.54178602721E-03 +1.98329647389E-04 +1.42509529261E-03 +3.27081128339E-01 -3.67169963997E-01
2.92500000000E+09 +1.14967717055E-01 -4.40212736703E-01 +5.28966865947E-04 +2.21747634675E-03 +4.36293390128E-04 +2.09377694948E-03 +2.91347055035E-01 -3.75022518758E-01
2.93000000000E+09 +7.88508104120E-02 -4.37823924636E-01 +1.42750511002E-03 +1.94282961422E-03 +1.32431089827E-03 +2.01003126497E-03 +2.54503714541E-01 -3.80821032127E-01
2.93500000000E+09 +4.42027661944E-02 -4.33434695344E-01 +1.83991219861E-03 +1.58383220730E-03 +1.82710747278E-03 +1.68552975857E-03 +2.16526470052E-01 -3.84067509838E-01
2.94000000000E+09 +9.03511495833E-03 -4.28558685085E-01 +2.18202839537E-03 +8.12383665022E-04 +2.15351181863E-03 +8.46989388262E-04 +1.78664669586E-01 -3.85663083893E-01
2.94500000000E+09 -2.74736535941E-02 -4.19783803728E-01 +1.63665765209E-03 +6.51854839783E-04 +1.59959853141E-03 +7.01417410128E-04 +1.40649267619E-01 -3.86249983943E-01
2.95000000000E+09 -6.26854403348E-02 -4.07278922912E-01 +1.91792841998E-03 +7.15865207473E-04 +1.82632527111E-03 +8.11064492317E-04 +1.01116739103E-01 -3.84638302352E-01
2.95500000000E+09 -9.74397534692E-02 -3.92337050202E-01 +2.24205275442E-03 +5.16362976018E-04 +2.31150294716E-03 +6.22539149613E-04 +6.09412067473E-02 -3.78229418103E-01
2.96000000000E+09 -1.31599323835E-01 -3.74275583092E-01 +2.22074106691E-03 +6.11166839114E-05 +2.22992152906E-03 +1.48725588116E-04 +2.24518831815E-02 -3.68969229111E-01
2.96500000000E+09 -1.65072313428E-01 -3.53076097774E-01 +2.47152316254E-03 +1.88545631027E-05 +2.53663063276E-03 +6.39757700503E-05 -1.77330828661E-02 -3.57914495063E-01
2.97000000000E+09 -1.96591639884E-01 -3.28776235190E-01 +2.79721197381E-03 -5.19446513510E-04 +2.84524183935E-03 -5.59694775798E-04 -5.66866940589E-02 -3.42729247862E-01
2.97500000000E+09 -2.26414540474E-01 -3.03377106384E-01 +2.90438457522E-03 -1.18598461608E-03 +2.85686426487E-03 -1.19958318483E-03 -9.53638468047E-02 -3.26696819122E-01
2.98000000000E+09 -2.55882422320E-01 -2.75962149872E-01 +2.67792305001E-03 -2.11922196314E-03 +2.64397519867E-03 -1.98478507529E-03 -1.32665634816E-01 -3.06720754670E-01
2.98500000000E+09 -2.83098931313E-01 -2.46037003228E-01 +1.64842027587E-03 -2.67109407556E-03 +1.83384111015E-03 -2.64411428519E-03 -1.68518203585E-01 -2.85134089615E-01
2.99000000000E+09 -3.07991289509E-01 -2.15357799665E-01 +1.05321791694E-03 -2.40223909453E-03 +1.13593879029E-03 -2.50335599463E-03 -2.02986891294E-01 -2.60175441230E-01
2.99500000000E+09 -3.32058273310E-01 -1.83925673965E-01 +1.20867025944E-03 -2.05706360233E-03 +1.26252790692E-03 -2.19085699739E-03 -2.35973050445E-01 -2.32650410756E-01
3.00000000000E+09 -3.53775570150E-01 -1.50563526134E-01 +1.41095018738E-03 -2.92631605493E-03 +1.33011310102E-03 -2.99777035415E-03 -2.67833591757E-01 -2.01207762043E-01
3.00500000000E+09 -3.73281864889E-01 -1.16719242674E-01 +3.77682214905E-04 -3.75210946438E-03 +1.99545933409E-04 -3.66620051530E-03 -2.96100232801E-01 -1.67700085232E-01
3.01000000000E+09 -3.90552850336E-01 -8.16968037316E-02 -7.54532078362E-04 -3.46125363731E-03 -7.51988468258E-04 -3.31016942166E-03 -3.22056963699E-01 -1.33018675551E-01
3.01500000000E+09 -4.04348525994E-01 -4.64106687018E-02 -1.20181622245E-03 -3.12102281584E-03 -1.11844570117E-03 -3.04287358823E-03 -3.45215086347E-01 -9.79181101350E-02
3.02000000000E+09 -4.15698773306E-01 -1.14186880912E-02 -1.82947270598E-03 -2.71298614018E-03 -1.76171790243E-03 -2.72607610577E-03 -3.66222084075E-01 -6.19363895945E-02
3.02500000000E+09 -4.24162706848E-01 +2.36964920370E-02 -1.88909993672E-03 -2.29322231799E-03 -1.87006444942E-03 -2.35677587525E-03 -3.84062521497E-01 -2.31892367971E-02
3.03000000000E+09 -4.29421737963E-01 +5.88690700989E-02 -2.56978790349E-03 -2.00363064929E-03 -2.53996194302E-03 -2.00751509222E-03 -3.97807558772E-01 +1.55512716497E-02
3.03500000000E+09 -4.31508863179E-01 +9.31002962402E-02 -2.68332812554E-03 -1.17569740954E-03 -2.64236265192E-03 -1.24100716553E-03 -4.09830350631E-01 +5.48532862541E-02
3.04000000000E+09 -4.31521712056E-01 +1.26807098302E-01 -2.47090511494E-03 -8.36588794342E-04 -2.48158695892E-03 -9.84002528490E-04 -4.18773130131E-01 +9.48545933639E-02
3.04500000000E+09 -4.29751585468E-01 +1.60873862303E-01 -2.48385512671E-03 -7.31987720286E-04 -2.65161098293E-03 -7.74871367807E-04 -4.24798434881E-01 +1.34812580104E-01
3.05000000000E+09 -4.24461768163E-01 +1.95698012000E-01 -2.84207615344E-03 -4.61496281456E-04 -3.05893728211E-03 -3.53585835700E-04 -4.28032029710E-01 +1.73691669836E-01
3.05500000000E+09 -4.16716618139E-01 +2.29359518695E-01 -3.03833785430E-03 +1.99631601149E-04 -3.06236207036E-03 +4.37977476357E-04 -4.29028712489E-01 +2.12111654673E-01
3.06000000000E+09 -4.07214995707E-01 +2.62274204775E-01 -2.84609991306E-03 +1.06004694915E-03 -2.64147863159E-03 +1.16976759387E-03 -4.27550563208E-01 +2.49485370290E-01
3.06500000000E+09 -3.96449414298E-01 +2.94832586051E-01 -2.24932332073E-03 +1.56687770331E-03 -2.14040878043E-03 +1.38563437658E-03 -4.23682252687E-01 +2.86485958522E-01
3.07000000000E+09 -3.83598591184E-01 +3.25935455213E-01 -1.49218996009E-03 +1.66624590454E-03 -1.54889211456E-03 +1.44594156985E-03 -4.17750468260E-01 +3.22600323959E-01
