# Hz S RI R 50
! CMT, C1220, 16058040, 17.2.0/1
! Date: 15/08/2018 10:33:22
! Data: Format (Calibration Info)
! Freq                      S11: Re/Im (F2)                       S21: Re/Im (F2)                       S12: Re/Im (F2)                       S22: Re/Im (F2)            
2.50000000000E+09 +5.79279496769E-01 +6.67494906260E-01 -2.49260470554E-04 +6.81714305838E-05 -2.74564588032E-04 +9.00811672607E-05 +5.65518794549E-01 +7.22327451924E-01
2.50500000000E+09 +5.86703355899E-01 +6.59376174863E-01 -1.53703047328E-04 +6.76672221117E-05 -1.71756691287E-04 +7.74008648154E-05 +5.71016680330E-01 +7.16798462730E-01
2.51000000000E+09 +5.94534610814E-01 +6.51197328813E-01 -1.17727395842E-04 +8.04635021725E-05 -1.38174164834E-04 +7.51743507270E-05 +5.76624175932E-01 +7.11653119252E-01
2.51500000000E+09 +6.01959229190E-01 +6.43234956931E-01 -1.35272254544E-04 -6.22560354964E-06 -1.45467993576E-04 -5.96516156475E-06 +5.82048724446E-01 +7.06246206217E-01
2.52000000000E+09 +6.08966768332E-01 +6.35268013287E-01 -1.99676464981E-04 +1.13579643505E-04 -2.06160255003E-04 +1.31452598386E-04 +5.87380352303E-01 +7.00264697679E-01
2.52500000000E+09 +6.14901268172E-01 +6.27946102829E-01 -1.12435178251E-04 +1.53504997706E-04 -1.09290264593E-04 +1.68537754463E-04 +5.93138119947E-01 +6.93824466469E-01
2.53000000000E+09 +6.20441797484E-01 +6.20556980198E-01 -8.57808890977E-05 +1.20491947184E-04 -9.35938600346E-05 +1.32008761652E-04 +5.99135263059E-01 +6.86727537239E-01
2.53500000000E+09 +6.25232125609E-01 +6.13577656359E-01 -8.04911906447E-05 +1.19348442977E-04 -6.04381136193E-05 +1.09396464314E-04 +6.05253871522E-01 +6.80139049778E-01
2.54000000000E+09 +6.29721014874E-01 +6.06566650386E-01 -9.89527504041E-05 +2.04042391997E-05 -6.90115469722E-05 +1.50028951441E-05 +6.11127912159E-01 +6.73553277742E-01
2.54500000000E+09 +6.34468317987E-01 +5.99432794272E-01 -1.95834147528E-04 +5.62935627617E-05 -2.04908985327E-04 +6.25727532430E-05 +6.16903479179E-01 +6.67377192746E-01
2.55000000000E+09 +6.39572482035E-01 +5.91794696622E-01 -1.71749698060E-04 +1.65603099358E-04 -2.10514899760E-04 +1.87423284621E-04 +6.22381806370E-01 +6.61169853624E-01
2.55500000000E+09 +6.45215566019E-01 +5.83546987534E-01 -8.98805746558E-05 +2.02992065915E-04 -1.15130112153E-04 +2.71182829237E-04 +6.27399797086E-01 +6.54436736391E-01
2.56000000000E+09 +6.51553363106E-01 +5.75504438494E-01 +6.85122495756E-06 +2.30016015256E-04 +1.92053947811E-06 +2.30491362727E-04 +6.32359188781E-01 +6.47261887548E-01
2.56500000000E+09 +6.58639445523E-01 +5.66839312555E-01 +3.64152051113E-05 +1.63163187573E-04 +9.71306916671E-05 +1.82837173562E-04 +6.37572248832E-01 +6.39726541016E-01
2.57000000000E+09 +6.65577788974E-01 +5.58050082118E-01 +2.68536471145E-05 +7.08231583589E-05 +7.54494695684E-05 +4.98986839254E-05 +6.42847239628E-01 +6.31815246155E-01
2.57500000000E+09 +6.72210343040E-01 +5.49180609451E-01 -6.30014296436E-05 +1.12680921208E-04 -5.62832433678E-05 +6.65665708692E-05 +6.48320385405E-01 +6.24277305162E-01
2.58000000000E+09 +6.78016667364E-01 +5.41135611649E-01 -7.74630815793E-05 +1.80099603656E-04 -8.49110253554E-05 +1.50410420848E-04 +6.53369382694E-01 +6.16628657548E-01
2.58500000000E+09 +6.83397235566E-01 +5.33044413515E-01 -4.27437385707E-05 +3.23583974088E-04 -7.38491154981E-05 +2.27975377249E-04 +6.58109761908E-01 +6.09048200794E-01
2.59000000000E+09 +6.88112341005E-01 +5.25461523736E-01 +1.06270565201E-04 +3.43677117131E-04 +8.15172599962E-05 +2.72675371628E-04 +6.62838464755E-01 +6.01626220494E-01
2.59500000000E+09 +6.92680817386E-01 +5.17341506433E-01 +1.50073964684E-04 +2.17153779939E-04 +1.79485244190E-04 +2.56243649722E-04 +6.67731809692E-01 +5.93573322571E-01
2.60000000000E+09 +6.96753036549E-01 +5.08639940669E-01 +1.62679099180E-04 +1.51799234819E-04 +1.78722162551E-04 +1.26438817528E-04 +6.72725149797E-01 +5.85393289046E-01
2.60500000000E+09 +7.01000238214E-01 +4.98830592734E-01 +2.74026647284E-04 +1.76455148988E-04 +2.58072465595E-04 +1.67995103115E-04 +6.77836911748E-01 +5.76817159768E-01
2.61000000000E+09 +7.05418583081E-01 +4.88126157095E-01 +1.94347213458E-04 +6.95033874939E-05 +2.62421953874E-04 +7.63701897425E-05 +6.83007424213E-01 +5.68178843872E-01
2.61500000000E+09 +7.10224951825E-01 +4.76167239884E-01 +3.07247307758E-04 -5.41081194009E-05 +2.72115177580E-04 -5.52736343410E-05 +6.88025900908E-01 +5.59630588663E-01
2.62000000000E+09 +7.15067832767E-01 +4.63027991362E-01 +1.63018565854E-04 -1.32132106990E-04 +1.57338114057E-04 -2.00943577879E-04 +6.92837960409E-01 +5.50586680318E-01
2.62500000000E+09 +7.20062032872E-01 +4.49325066987E-01 -2.49303207441E-05 -4.13333818345E-05 +9.51570314620E-07 -2.60090880809E-05 +6.97481908179E-01 +5.41715613733E-01
2.63000000000E+09 +7.24582417104E-01 +4.35266868105E-01 +4.75364031333E-05 +1.00677124070E-04 +1.05479763780E-05 +6.42680753810E-05 +7.01876386916E-01 +5.32816683681E-01
2.63500000000E+09 +7.28592582183E-01 +4.21711211306E-01 +1.59611666864E-04 +9.03278202843E-05 +1.57870844579E-04 +5.96151779050E-05 +7.06512976430E-01 +5.23884039753E-01
2.64000000000E+09 +7.32300493954E-01 +4.08958281655E-01 +2.91455276029E-04 +3.48296346264E-05 +2.55864208872E-04 +2.22747745193E-05 +7.11141350815E-01 +5.14520610193E-01
2.64500000000E+09 +7.35742411119E-01 +3.96937474543E-01 +2.20741332038E-04 -1.84804901291E-04 +1.79007128253E-04 -1.24493660041E-04 +7.15799530464E-01 +5.04849200218E-01
2.65000000000E+09 +7.38404516156E-01 +3.85946970377E-01 +4.46443549336E-05 -1.39185365810E-04 +9.59340864065E-05 -8.30013975415E-05 +7.19964081407E-01 +4.94840496817E-01
2.65500000000E+09 +7.41334294223E-01 +3.74831327672E-01 +1.04008845067E-04 -3.33941061583E-05 +1.00624040105E-04 -1.22955252911E-04 +7.23853537107E-01 +4.84472734264E-01
2.66000000000E+09 +7.44234534657E-01 +3.63477983995E-01 +6.97850846907E-05 -7.82240051535E-05 +1.23592210495E-04 -4.50193580639E-05 +7.27941580357E-01 +4.73425434982E-01
2.66500000000E+09 +7.46991686577E-01 +3.51749366938E-01 +7.09262030984E-05 -4.64487052493E-05 +1.13256317140E-04 -9.94539578274E-05 +7.32156027984E-01 +4.62761120494E-01
2.67000000000E+09 +7.49837879665E-01 +3.38972295296E-01 +1.81731771429E-04 -1.17493764856E-04 +1.65213851634E-04 -2.07247657012E-04 +7.36644989886E-01 +4.51852787499E-01
2.67500000000E+09 +7.52392773884E-01 +3.25128759941E-01 +1.04603731456E-04 -1.30482855766E-04 +7.34061186864E-05 -1.44125146119E-04 +7.40712325008E-01 +4.40876035647E-01
2.68000000000E+09 +7.54374312900E-01 +3.10315127134E-01 +1.12170112205E-04 -2.45679469550E-04 +1.04227810816E-04 -2.53300513526E-04 +7.44673692780E-01 +4.30070510339E-01
2.68500000000E+09 +7.55941732192E-01 +2.95504356009E-01 -3.67006178979E-05 -2.99582081736E-04 -4.56763796887E-05 -2.80783181657E-04 +7.48137727699E-01 +4.18575842287E-01
2.69000000000E+09 +7.57409405565E-01 +2.81065754873E-01 -1.71528392564E-04 -2.13240624889E-04 -1.18165115355E-04 -1.96228010611E-04 +7.50735117290E-01 +4.06445832878E-01
2.69500000000E+09 +7.58709032461E-01 +2.66768133697E-01 -1.67864419127E-04 -1.63732046637E-04 -1.03856811947E-04 -1.12086536848E-04 +7.53424003585E-01 +3.94001616471E-01
2.70000000000E+09 +7.60052367794E-01 +2.53063009839E-01 -1.99910824334E-04 -2.50309625190E-04 -1.91676485958E-04 -1.92416868065E-04 +7.56307480471E-01 +3.81058974504E-01
2.70500000000E+09 +7.61500654994E-01 +2.39562842011E-01 -3.24269157309E-04 -7.82837466885E-05 -3.31580945955E-04 -1.01638638288E-04 +7.59380284578E-01 +3.67816425967E-01
2.71000000000E+09 +7.62629700941E-01 +2.25915843456E-01 -2.46000736094E-04 +6.70127480236E-05 -2.87123937242E-04 +1.31871496523E-04 +7.62066843417E-01 +3.54854572484E-01
2.71500000000E+09 +7.64005591940E-01 +2.12201801674E-01 -1.15526492687E-04 -1.35640338130E-05 -8.55111841159E-05 -4.19627791933E-06 +7.64601244591E-01 +3.42395485553E-01
2.72000000000E+09 +7.64993733021E-01 +1.97514980330E-01 -2.79211315403E-04 -1.09114182888E-04 -2.63562358819E-04 -7.18592944994E-05 +7.66262641171E-01 +3.29594242196E-01
2.72500000000E+09 +7.65487177890E-01 +1.81719442838E-01 -4.36805101731E-04 -1.84530290191E-05 -4.70042616464E-04 +8.31058692942E-05 +7.67326751156E-01 +3.16514712993E-01
2.73000000000E+09 +7.64996930098E-01 +1.64881539452E-01 -5.29328942657E-04 +2.31429233410E-04 -4.74370640228E-04 +2.86934928608E-04 +7.68177899931E-01 +3.02737145882E-01
2.73500000000E+09 +7.63440422181E-01 +1.46932336851E-01 -4.83927606689E-04 +6.49074754967E-04 -3.85922734223E-04 +5.16543762457E-04 +7.69274454243E-01 +2.88745263086E-01
2.74000000000E+09 +7.60774291646E-01 +1.29085792868E-01 -3.49119098875E-05 +6.99774887417E-04 -1.08040885928E-04 +6.20688004500E-04 +7.71215104958E-01 +2.73918960205E-01
2.74500000000E+09 +7.57177278669E-01 +1.10879946511E-01 +1.67262240333E-04 +6.03461659782E-04 +9.31756799469E-05 +5.38468553102E-04 +7.72590960883E-01 +2.58906160738E-01
2.75000000000E+09 +7.52946547816E-01 +9.27177234567E-02 +2.16552654838E-04 +5.83236199474E-04 +1.64518502407E-04 +6.43231103643E-04 +7.73754249604E-01 +2.43915308618E-01
2.75500000000E+09 +7.47999874807E-01 +7.48530929926E-02 +3.24305324177E-04 +5.10842761088E-04 +3.29876803200E-04 +5.25545120400E-04 +7.73688015035E-01 +2.29167118164E-01
2.76000000000E+09 +7.43405396339E-01 +5.74622262969E-02 +3.88128366198E-04 +6.40674549977E-04 +4.14568049398E-04 +6.77122717129E-04 +7.73753051455E-01 +2.14076041273E-01
2.76500000000E+09 +7.38470385655E-01 +3.93671857727E-02 +7.73794088153E-04 +5.10187178411E-04 +8.12675986380E-04 +5.09125137107E-04 +7.73126216000E-01 +1.97403008242E-01
2.77000000000E+09 +7.33232248012E-01 +2.07926627576E-02 +7.92820446907E-04 +1.75167795310E-04 +8.29501466751E-04 +1.13475991458E-04 +7.72216636449E-01 +1.80418140772E-01
2.77500000000E+09 +7.28340458654E-01 +1.74012498677E-03 +6.48304084590E-04 +2.07962779250E-04 +7.24249495164E-04 +1.43402084295E-04 +7.70970932307E-01 +1.62406732007E-01
2.78000000000E+09 +7.22980390369E-01 -1.87707406506E-02 +8.81274762167E-04 +1.78483560583E-04 +8.93017939650E-04 +1.39999046537E-04 +7.69457355473E-01 +1.44524087322E-01
2.78500000000E+09 +7.16600579275E-01 -4.01432975001E-02 +1.08768977541E-03 -2.83437795070E-05 +1.07600728090E-03 -9.87668586803E-05 +7.67064235172E-01 +1.26404645217E-01
2.79000000000E+09 +7.10017931027E-01 -6.22118938814E-02 +1.13532111852E-03 -4.36971039034E-04 +1.07094758135E-03 -4.77429496462E-04 +7.63815758697E-01 +1.09076316879E-01
2.79500000000E+09 +7.01520913259E-01 -8.46037120615E-02 +1.02179079982E-03 -7.78139222813E-04 +8.77489258180E-04 -7.30963254702E-04 +7.59620526322E-01 +9.12556475609E-02
2.80000000000E+09 +6.91851286057E-01 -1.05665435413E-01 +6.05736774274E-04 -1.01851997872E-03 +6.22805861863E-04 -9.26947901769E-04 +7.54960184661E-01 +7.30752686275E-02
2.80500000000E+09 +6.81920390873E-01 -1.25221168440E-01 +4.86021218370E-04 -8.49593744206E-04 +4.65923472662E-04 -8.23655854218E-04 +7.49385391899E-01 +5.39152166709E-02
2.81000000000E+09 +6.71602489193E-01 -1.43686813763E-01 +5.31405907092E-04 -9.23771002844E-04 +5.63332825122E-04 -8.94839299768E-04 +7.42956247789E-01 +3.47092073639E-02
2.81500000000E+09 +6.60875709020E-01 -1.61319073093E-01 +4.09352014642E-04 -1.12572431267E-03 +3.83493193268E-04 -1.09894053711E-03 +7.36399416211E-01 +1.52142349482E-02
2.82000000000E+09 +6.49428702303E-01 -1.78743278721E-01 +1.64167851061E-04 -1.19642814112E-03 +1.92882272449E-04 -1.19220235844E-03 +7.28867162500E-01 -4.45193039370E-03
2.82500000000E+09 +6.36184721781E-01 -1.96002685170E-01 +2.03202761422E-04 -1.27215856289E-03 +1.84874416853E-04 -1.23889663805E-03 +7.20926035755E-01 -2.37442196451E-02
2.83000000000E+09 +6.21402439726E-01 -2.13552884413E-01 -1.12224815919E-04 -1.57942198771E-03 -7.11588438534E-05 -1.52672874600E-03 +7.12478649832E-01 -4.37252108995E-02
2.83500000000E+09 +6.04980025165E-01 -2.31568087421E-01 -5.14777997131E-04 -1.46623082394E-03 -4.17736921048E-04 -1.43079980218E-03 +7.02495035140E-01 -6.39068442088E-02
2.84000000000E+09 +5.86628235742E-01 -2.50182631469E-01 -7.73617516210E-04 -1.46911936967E-03 -6.61558323667E-04 -1.50129363325E-03 +6.91693479162E-01 -8.47556948926E-02
2.84500000000E+09 +5.65762322877E-01 -2.69644610164E-01 -1.05867711566E-03 -1.41405401442E-03 -1.08236764103E-03 -1.44426391039E-03 +6.79748168600E-01 -1.05326958482E-01
2.85000000000E+09 +5.43731530151E-01 -2.88668005342E-01 -1.39051575568E-03 -1.06256001687E-03 -1.38697704508E-03 -1.11733778962E-03 +6.66660217846E-01 -1.26407150627E-01
2.85500000000E+09 +5.19995610301E-01 -3.07692800332E-01 -1.56466045210E-03 -7.67071555887E-04 -1.57206666934E-03 -7.56117050794E-04 +6.51988320417E-01 -1.47208292583E-01
2.86000000000E+09 +4.95838855183E-01 -3.25857618649E-01 -1.35343820788E-03 -5.89747811448E-04 -1.32273595963E-03 -4.91525171806E-04 +6.36477021303E-01 -1.68436811334E-01
2.86500000000E+09 +4.70781111543E-01 -3.43196442843E-01 -1.48934511896E-03 -5.59471789180E-04 -1.49001027344E-03 -6.26121107771E-04 +6.18762572062E-01 -1.89709284946E-01
2.87000000000E+09 +4.45439227969E-01 -3.58451121773E-01 -1.59460532572E-03 -6.44863595328E-04 -1.60458082126E-03 -6.26575886480E-04 +5.99423735834E-01 -2.10154431995E-01
2.87500000000E+09 +4.20629836464E-01 -3.72763545998E-01 -2.29458303345E-03 -7.65975253386E-04 -2.26722100360E-03 -7.25881875149E-04 +5.79046989855E-01 -2.29650642335E-01
2.88000000000E+09 +3.94927401414E-01 -3.85687392293E-01 -2.99538810811E-03 +1.80431257572E-04 -2.86100498222E-03 +2.46560194965E-04 +5.57635067573E-01 -2.49367441162E-01
2.88500000000E+09 +3.68666668330E-01 -3.97447197409E-01 -2.67913227760E-03 +1.37306149141E-03 -2.56582016700E-03 +1.27167947720E-03 +5.34128041607E-01 -2.68198520293E-01
2.89000000000E+09 +3.40832369211E-01 -4.08382231479E-01 -1.79117449779E-03 +1.75894423439E-03 -1.79157521192E-03 +1.61926074932E-03 +5.08375270055E-01 -2.86316952977E-01
2.89500000000E+09 +3.10607804571E-01 -4.18137112747E-01 -1.42270589254E-03 +1.49085677301E-03 -1.51137142716E-03 +1.39562490723E-03 +4.81300743370E-01 -3.03464792746E-01
2.90000000000E+09 +2.78252242323E-01 -4.25891969447E-01 -1.60033094846E-03 +1.85201458328E-03 -1.70871487837E-03 +1.79537596488E-03 +4.52757439932E-01 -3.19846519883E-01
2.90500000000E+09 +2.43864995276E-01 -4.31867215229E-01 -1.18054448053E-03 +2.01522068297E-03 -1.23424074786E-03 +2.03131918854E-03 +4.22747602414E-01 -3.35165446981E-01
2.91000000000E+09 +2.08680876164E-01 -4.35716248034E-01 -1.16211355845E-03 +2.07174013242E-03 -1.04867501422E-03 +2.14901736508E-03 +3.91290907448E-01 -3.48490946743E-01
2.91500000000E+09 +1.72730273621E-01 -4.38366998081E-01 -1.00759206568E-03 +2.45198337323E-03 -8.30140513940E-04 +2.38058387205E-03 +3.60001990813E-01 -3.59881272875E-01
2.92000000000E+09 +1.36013350602E-01 -4.38333597208E-01 -6.68337292326E-04 +2.83094204462E-03 -6.19808551636E-04 +2.67152807133E-03 +3.26918142890E-01 -3.70578184710E-01
2.92500000000E+09 +9.98407205254E-02 -4.36852301509E-01 -2.09373449678E-04 +3.34243436323E-03 -3.78769637163E-04 +3.21850797232E-03 +2.91048761116E-01 -3.78538968653E-01
2.93000000000E+09 +6.40496219883E-02 -4.33114931207E-01 +8.61397673862E-04 +3.28534076746E-03 +6.93118352024E-04 +3.32618102990E-03 +2.53678690392E-01 -3.84601979301E-01
2.93500000000E+09 +2.90548408028E-02 -4.27453206075E-01 +1.45445188223E-03 +3.15828544744E-03 +1.31399534305E-03 +3.23656662012E-03 +2.15371890361E-01 -3.87652629565E-01
2.94000000000E+09 -5.22728966885E-03 -4.20490544587E-01 +2.39017894669E-03 +2.68892105772E-03 +2.32743267572E-03 +2.70281267538E-03 +1.77017298476E-01 -3.89190770277E-01
2.94500000000E+09 -4.09838397364E-02 -4.10955304477E-01 +2.31488166662E-03 +2.05280228680E-03 +2.31307504131E-03 +2.07802858476E-03 +1.38521453996E-01 -3.89674792106E-01
2.95000000000E+09 -7.62074057627E-02 -3.97354999081E-01 +2.49125602436E-03 +1.50703116005E-03 +2.45126351983E-03 +1.49581563404E-03 +9.84740495333E-02 -3.87898262696E-01
2.95500000000E+09 -1.10063966464E-01 -3.79969097601E-01 +2.46421701259E-03 +1.43715521287E-03 +2.45772973041E-03 +1.45551710940E-03 +5.74754188201E-02 -3.81305133425E-01
2.96000000000E+09 -1.42342959235E-01 -3.60620314968E-01 +2.82918546663E-03 +1.21121826343E-03 +2.89759944572E-03 +1.24559262377E-03 +1.83137316639E-02 -3.71173673169E-01
2.96500000000E+09 -1.74505633225E-01 -3.38802154153E-01 +3.21564750333E-03 +9.99899349706E-04 +3.29225160275E-03 +9.84303624067E-04 -2.17425266580E-02 -3.59442485994E-01
2.97000000000E+09 -2.05111555095E-01 -3.13338188394E-01 +3.96751968387E-03 +1.86468528517E-04 +3.96588079701E-03 +6.62789297963E-05 -6.07570031871E-02 -3.43959458645E-01
2.97500000000E+09 -2.33064265946E-01 -2.86779728808E-01 +3.87140330470E-03 -1.10857563194E-03 +3.65824495599E-03 -1.10383205737E-03 -9.99184932339E-02 -3.27395603176E-01
2.98000000000E+09 -2.60728668715E-01 -2.59059790829E-01 +2.91407414703E-03 -1.72470557128E-03 +2.81707809697E-03 -1.61240246256E-03 -1.37525328760E-01 -3.06428729447E-01
2.98500000000E+09 -2.85953383122E-01 -2.28690802236E-01 +2.49732990559E-03 -1.80873204607E-03 +2.53562644713E-03 -1.65810116516E-03 -1.73121248914E-01 -2.83907439404E-01
2.99000000000E+09 -3.08965778010E-01 -1.98327775030E-01 +2.20541642497E-03 -2.11746318105E-03 +2.36207231789E-03 -2.15187508013E-03 -2.07103571893E-01 -2.58062629915E-01
2.99500000000E+09 -3.31852904227E-01 -1.67531143038E-01 +2.01080925863E-03 -2.17869436622E-03 +2.07704417073E-03 -2.25834653327E-03 -2.39690344600E-01 -2.29975663231E-01
3.00000000000E+09 -3.52416813834E-01 -1.33539160475E-01 +1.87596464472E-03 -2.67028224377E-03 +1.79928140464E-03 -2.75205743618E-03 -2.70690929082E-01 -1.97966531779E-01
3.00500000000E+09 -3.69658313679E-01 -1.00027232045E-01 +1.28406989496E-03 -3.26392019591E-03 +1.11871778715E-03 -3.07815994357E-03 -2.98364363650E-01 -1.64503894813E-01
3.01000000000E+09 -3.85514102208E-01 -6.62598034821E-02 +3.24309749620E-04 -3.05135396891E-03 +3.91355995638E-04 -2.88213654074E-03 -3.23944996552E-01 -1.29416514250E-01
3.01500000000E+09 -3.98315255014E-01 -3.16288995169E-02 +2.63961677167E-04 -2.92719750410E-03 +4.22010819651E-04 -2.90754640183E-03 -3.46196798061E-01 -9.43543402873E-02
3.02000000000E+09 -4.08438041807E-01 +2.49252586606E-03 -4.83683345509E-04 -3.22321205034E-03 -3.44366110509E-04 -3.32228118955E-03 -3.66721449095E-01 -5.83083460968E-02
3.02500000000E+09 -4.15969340381E-01 +3.65266059763E-02 -9.87221690217E-04 -2.82930331640E-03 -9.48267544219E-04 -2.94911129138E-03 -3.84126337962E-01 -1.98260039416E-02
3.03000000000E+09 -4.20774440117E-01 +7.11987483761E-02 -1.55199276078E-03 -2.48028209075E-03 -1.49808652144E-03 -2.53540705894E-03 -3.97538393907E-01 +1.87972969423E-02
3.03500000000E+09 -4.21137291324E-01 +1.04796428550E-01 -1.61993142652E-03 -1.62982115252E-03 -1.55964904729E-03 -1.68507175871E-03 -4.09185704506E-01 +5.78589121647E-02
3.04000000000E+09 -4.20727841764E-01 +1.36854406692E-01 -1.30525507574E-03 -1.82341569781E-03 -1.27868644133E-03 -1.98835828807E-03 -4.18020231655E-01 +9.78143016455E-02
3.04500000000E+09 -4.18034943426E-01 +1.70052339089E-01 -1.55473462205E-03 -1.79852858109E-03 -1.69500069355E-03 -2.00055392822E-03 -4.23757722034E-01 +1.37691569589E-01
3.05000000000E+09 -4.12247505466E-01 +2.03414952241E-01 -2.05789318377E-03 -1.78622872118E-03 -2.24447717247E-03 -1.85629807280E-03 -4.26803316321E-01 +1.76392698940E-01
3.05500000000E+09 -4.04390461089E-01 +2.35717478179E-01 -2.62949384155E-03 -1.18652331205E-03 -2.72318373816E-03 -9.96049658594E-04 -4.27275347771E-01 +2.14856230678E-01
3.06000000000E+09 -3.94903582983E-01 +2.67846857823E-01 -2.71058187853E-03 -4.60508763398E-04 -2.63567756267E-03 -2.41678876164E-04 -4.25303173322E-01 +2.51937207157E-01
3.06500000000E+09 -3.83361923788E-01 +2.98835338599E-01 -2.35170807549E-03 +4.94895849661E-05 -2.19231496510E-03 +1.85611968126E-05 -4.21129202303E-01 +2.88362474608E-01
3.07000000000E+09 -3.71208718296E-01 +3.28603679966E-01 -2.04179747102E-03 +1.90601425171E-04 -1.95572060575E-03 +1.83566122292E-04 -4.15356088118E-01 +3.24131039444E-01
