# Hz S RI R 50
! CMT, C1220, 16058040, 17.2.0/1
! Date: 15/08/2018 10:30:21
! Data: Format (Calibration Info)
! Freq                      S11: Re/Im (F2)                       S21: Re/Im (F2)                       S12: Re/Im (F2)                       S22: Re/Im (F2)            
2.50000000000E+09 +5.78562041808E-01 +6.66318764076E-01 -3.61469303701E-04 -6.60482159889E-05 -3.19203287374E-04 -5.46986325827E-05 +5.65690982611E-01 +7.21779972084E-01
2.50500000000E+09 +5.85961926836E-01 +6.58448133060E-01 -2.48996839510E-04 -5.94117639573E-05 -2.70720237074E-04 -1.58330604750E-05 +5.71340694436E-01 +7.16312543292E-01
2.51000000000E+09 +5.93585753206E-01 +6.50362298692E-01 -2.39159964032E-04 -1.16335708407E-05 -2.72393640596E-04 +1.88312545903E-05 +5.76978577236E-01 +7.11138156064E-01
2.51500000000E+09 +6.01121690061E-01 +6.42511896994E-01 -2.76324032225E-04 -6.32316519379E-05 -2.45223632447E-04 -1.02553525100E-04 +5.82267643235E-01 +7.05921404216E-01
2.52000000000E+09 +6.08120532470E-01 +6.34805439890E-01 -3.39107151040E-04 +6.17880294679E-06 -3.34159930021E-04 +7.44357860148E-06 +5.87482071459E-01 +6.99804962743E-01
2.52500000000E+09 +6.14055636776E-01 +6.27440691387E-01 -2.89075850177E-04 +4.88247951803E-05 -2.39298715933E-04 +5.99492489802E-05 +5.93327690208E-01 +6.93363648244E-01
2.53000000000E+09 +6.19607910721E-01 +6.20338376448E-01 -2.64093151568E-04 +1.51070601045E-05 -2.55388240020E-04 -8.44695874625E-06 +5.99384932449E-01 +6.86457865339E-01
2.53500000000E+09 +6.24534119605E-01 +6.13379382932E-01 -2.78971532298E-04 -2.01002825767E-05 -2.91707935950E-04 +3.62657447925E-05 +6.05320043068E-01 +6.79705720279E-01
2.54000000000E+09 +6.29095991508E-01 +6.06393481636E-01 -3.18362076507E-04 +1.69204064711E-05 -3.51159317138E-04 +8.64821145426E-06 +6.11454940802E-01 +6.73153221585E-01
2.54500000000E+09 +6.34031579498E-01 +5.99223709109E-01 -4.18008885750E-04 +1.54914724344E-04 -4.00374548161E-04 +1.27489807829E-04 +6.17117135660E-01 +6.67004600229E-01
2.55000000000E+09 +6.39292795905E-01 +5.91737154515E-01 -3.33701007413E-04 +2.47960077720E-04 -3.53505512243E-04 +2.10031544588E-04 +6.22620610676E-01 +6.60629125305E-01
2.55500000000E+09 +6.44974626356E-01 +5.83611878456E-01 -2.18938184113E-04 +2.75179028023E-04 -2.70939424096E-04 +3.00050105023E-04 +6.27602924592E-01 +6.53996900279E-01
2.56000000000E+09 +6.51390283728E-01 +5.75654212846E-01 -2.00989607821E-04 +2.10392725083E-04 -1.87034997858E-04 +3.18424169886E-04 +6.32533028453E-01 +6.46742286604E-01
2.56500000000E+09 +6.58296223236E-01 +5.67277892556E-01 -2.16796523324E-04 +2.25306348793E-04 -2.15998196368E-04 +2.46010791753E-04 +6.37717573975E-01 +6.39367192828E-01
2.57000000000E+09 +6.65370657906E-01 +5.58933296277E-01 -2.81194743187E-04 +1.80428383489E-04 -2.51525518914E-04 +2.77780271665E-04 +6.43015298491E-01 +6.31482113470E-01
2.57500000000E+09 +6.72096857969E-01 +5.50456509046E-01 -2.77420412320E-04 +3.54462669695E-04 -2.11023417339E-04 +3.72199282497E-04 +6.48593988672E-01 +6.23887529820E-01
2.58000000000E+09 +6.77644266294E-01 +5.42594334153E-01 -2.17604603397E-04 +4.20284634561E-04 -1.41831862579E-04 +3.84217544238E-04 +6.53724322285E-01 +6.16187587602E-01
2.58500000000E+09 +6.83088244823E-01 +5.35012909683E-01 -1.58582929524E-04 +4.21130516590E-04 -1.01485333338E-04 +3.70422723951E-04 +6.58367488410E-01 +6.08635351808E-01
2.59000000000E+09 +6.87978894048E-01 +5.27447405729E-01 -8.47583447464E-05 +4.96483718410E-04 -1.09504490330E-04 +4.43581495710E-04 +6.63077226606E-01 +6.01132827187E-01
2.59500000000E+09 +6.92660803070E-01 +5.19237894319E-01 -1.34204913484E-05 +5.09445939492E-04 -1.90383130042E-05 +4.95086240268E-04 +6.67870343363E-01 +5.93247178595E-01
2.60000000000E+09 +6.96570467609E-01 +5.10304920056E-01 +5.43462464028E-05 +3.88217773188E-04 +4.71984781654E-05 +4.37585051476E-04 +6.72978871977E-01 +5.84958561406E-01
2.60500000000E+09 +7.00604734548E-01 +5.00288232765E-01 +1.64723285735E-05 +4.92688413518E-04 +3.24912555293E-05 +4.49099971258E-04 +6.78114376522E-01 +5.76496904295E-01
2.61000000000E+09 +7.04731104088E-01 +4.89379880560E-01 +2.47425902545E-04 +5.29329231718E-04 +2.43570145666E-04 +5.12909366572E-04 +6.83475174562E-01 +5.67915060290E-01
2.61500000000E+09 +7.09624708385E-01 +4.77381061711E-01 +4.01378595722E-04 +3.99786939968E-04 +4.01826959717E-04 +3.59289697648E-04 +6.88409466292E-01 +5.59214950206E-01
2.62000000000E+09 +7.14432984396E-01 +4.64162030440E-01 +3.19940036922E-04 +1.75475569279E-04 +3.59957185573E-04 +1.84755247468E-04 +6.93228461813E-01 +5.50164093435E-01
2.62500000000E+09 +7.19310233724E-01 +4.50221080778E-01 +1.86923453708E-04 +2.89317978207E-04 +1.62886649868E-04 +2.91501674036E-04 +6.97804818338E-01 +5.41263184996E-01
2.63000000000E+09 +7.23835476475E-01 +4.36406729942E-01 +2.26565549099E-04 +4.03280027015E-04 +2.84345773883E-04 +3.46667166605E-04 +7.02245369505E-01 +5.32377669306E-01
2.63500000000E+09 +7.28084113194E-01 +4.23077747665E-01 +3.65415293090E-04 +3.36259769248E-04 +3.59398712977E-04 +2.79534086530E-04 +7.06901646844E-01 +5.23412596505E-01
2.64000000000E+09 +7.31938149285E-01 +4.10579345252E-01 +4.65424566787E-04 +3.97424430163E-04 +4.31602866411E-04 +2.58579049728E-04 +7.11590502609E-01 +5.14012682184E-01
2.64500000000E+09 +7.35585698802E-01 +3.98808238106E-01 +5.60537349663E-04 +2.06519125176E-04 +4.91391980938E-04 +1.81783747155E-04 +7.16286533347E-01 +5.04212457001E-01
2.65000000000E+09 +7.38521303744E-01 +3.87864520829E-01 +5.38646550760E-04 +9.43949870103E-05 +4.89778038626E-04 +1.11320247197E-04 +7.20324047343E-01 +4.94140400704E-01
2.65500000000E+09 +7.41846445883E-01 +3.76987779027E-01 +4.94297149922E-04 -3.67648061852E-05 +4.94891368269E-04 -1.86374054474E-05 +7.24327360224E-01 +4.83780639627E-01
2.66000000000E+09 +7.44943369069E-01 +3.65582502328E-01 +4.42388555607E-04 -1.61132249535E-05 +4.92430175362E-04 -5.31216546175E-06 +7.28332875618E-01 +4.72850945602E-01
2.66500000000E+09 +7.47890563492E-01 +3.53867938319E-01 +4.81292862018E-04 -2.77670866183E-05 +4.83852435888E-04 -4.41355409330E-05 +7.32591258181E-01 +4.61793137089E-01
2.67000000000E+09 +7.50601841899E-01 +3.40996844328E-01 +5.85301811545E-04 -1.63644066020E-04 +5.19998062524E-04 -1.48408511044E-04 +7.36990015585E-01 +4.50994496644E-01
2.67500000000E+09 +7.53196812286E-01 +3.27332279780E-01 +4.57595583535E-04 -2.01196954073E-04 +4.26127815034E-04 -2.20096312896E-04 +7.40932499820E-01 +4.40020385566E-01
2.68000000000E+09 +7.55366866243E-01 +3.12772703501E-01 +4.86820706027E-04 -3.19517047129E-04 +4.55757342269E-04 -2.53409279136E-04 +7.44937792702E-01 +4.29277590759E-01
2.68500000000E+09 +7.57079384009E-01 +2.98173478447E-01 +3.17693432245E-04 -4.53887775624E-04 +3.04588063857E-04 -4.54156200986E-04 +7.48242129941E-01 +4.17503723876E-01
2.69000000000E+09 +7.58497772350E-01 +2.83854317024E-01 +1.92261150536E-04 -3.84382932923E-04 +2.02819695440E-04 -3.52802932586E-04 +7.50881302803E-01 +4.05626696298E-01
2.69500000000E+09 +7.60202245400E-01 +2.69964846165E-01 +1.87702497987E-04 -2.87279548431E-04 +1.71478530661E-04 -3.13512725566E-04 +7.53592556667E-01 +3.92915016759E-01
2.70000000000E+09 +7.61727562804E-01 +2.56288745935E-01 +1.83176424287E-04 -3.80151221926E-04 +2.20744339637E-04 -4.13844885634E-04 +7.56282613056E-01 +3.80017030233E-01
2.70500000000E+09 +7.63263155877E-01 +2.42833004309E-01 +7.85401021816E-05 -3.99262644160E-04 +9.58266446816E-05 -4.13642407418E-04 +7.59194618779E-01 +3.66865588810E-01
2.71000000000E+09 +7.64480982988E-01 +2.29264358201E-01 -1.90478783394E-05 -3.56145927786E-04 +1.58980648291E-05 -3.57201838647E-04 +7.61885597134E-01 +3.53855589310E-01
2.71500000000E+09 +7.65835821580E-01 +2.15646525384E-01 -7.57587167577E-06 -2.92637113504E-04 -6.54614598615E-06 -3.07245470943E-04 +7.64557291711E-01 +3.41427452724E-01
2.72000000000E+09 +7.66851949279E-01 +2.01000311599E-01 -6.10612204249E-05 -3.86318602024E-04 -1.48909600971E-04 -4.00582902314E-04 +7.66114560389E-01 +3.28578458078E-01
2.72500000000E+09 +7.67207604018E-01 +1.85465775589E-01 -2.34541949389E-04 -2.37059505825E-04 -2.38353643554E-04 -2.06101966582E-04 +7.66864366575E-01 +3.15580069783E-01
2.73000000000E+09 +7.66867378133E-01 +1.68753510080E-01 -2.44441400877E-04 -1.54841999359E-04 -2.52396070502E-04 -1.27200317948E-04 +7.67990661697E-01 +3.01910147044E-01
2.73500000000E+09 +7.65277650064E-01 +1.51026550235E-01 -3.48481644202E-04 +9.32480027380E-05 -3.18842796609E-04 +1.57455310597E-04 +7.69142443733E-01 +2.87797131771E-01
2.74000000000E+09 +7.62897325027E-01 +1.33364343858E-01 +2.96070298807E-05 +2.43121696748E-04 -2.88222235868E-05 +2.45717814368E-04 +7.71070697086E-01 +2.72960444519E-01
2.74500000000E+09 +7.59536052597E-01 +1.15407284326E-01 +9.54453839060E-05 +8.76028503542E-05 +1.14163273207E-04 +1.18768816729E-04 +7.72271812161E-01 +2.57878976176E-01
2.75000000000E+09 +7.55632558778E-01 +9.74493502454E-02 +1.45774189550E-04 +6.04577742383E-05 +1.93682541670E-04 +5.58900381331E-05 +7.73244097695E-01 +2.43170097461E-01
2.75500000000E+09 +7.51079032582E-01 +7.96103951815E-02 +1.44850481043E-04 -5.10010193424E-05 +1.37066223514E-04 -4.67946584200E-05 +7.73383696800E-01 +2.28478671016E-01
2.76000000000E+09 +7.46851970510E-01 +6.21166620610E-02 +5.42598241835E-05 +5.11794800096E-05 +4.54325468833E-05 +5.14912002981E-05 +7.73654321358E-01 +2.13280130539E-01
2.76500000000E+09 +7.42403872285E-01 +4.39426079505E-02 +3.10186683322E-04 +1.19897791793E-04 +3.05913372447E-04 +1.34527743034E-04 +7.72982988908E-01 +1.96481360183E-01
2.77000000000E+09 +7.37464419463E-01 +2.51891074844E-02 +3.23808657763E-04 -7.72276225604E-05 +2.69238047066E-04 -1.24817948676E-04 +7.72094326817E-01 +1.79416715972E-01
2.77500000000E+09 +7.32770890943E-01 +5.98771393532E-03 +2.87863749100E-04 +9.90893461696E-05 +2.45917349418E-04 +8.78957649322E-05 +7.70729552230E-01 +1.61443894215E-01
2.78000000000E+09 +7.27898760643E-01 -1.47839527424E-02 +5.43053847359E-04 +3.25534698112E-05 +5.48392154598E-04 +7.25269341823E-05 +7.69217317527E-01 +1.43408072182E-01
2.78500000000E+09 +7.21710436112E-01 -3.65945567184E-02 +8.41766240882E-04 -1.38545180563E-04 +7.77559309774E-04 -2.11395739452E-04 +7.66706871549E-01 +1.25274377236E-01
2.79000000000E+09 +7.15060256115E-01 -5.88064341736E-02 +7.22773502138E-04 -6.55886859953E-04 +7.03104324935E-04 -6.72233089460E-04 +7.63360727594E-01 +1.08076829174E-01
2.79500000000E+09 +7.07054208265E-01 -8.09208214312E-02 +4.87862119375E-04 -7.80662491915E-04 +4.41048657760E-04 -7.46677287356E-04 +7.59120871553E-01 +9.03315081641E-02
2.80000000000E+09 +6.97905715371E-01 -1.02089080753E-01 +2.98608501985E-04 -8.49559141029E-04 +3.49763182395E-04 -7.81765771613E-04 +7.54452365560E-01 +7.22062142107E-02
2.80500000000E+09 +6.88679105159E-01 -1.21907436577E-01 +2.56797779713E-04 -7.85595762514E-04 +2.94746618031E-04 -7.64130701943E-04 +7.48959288268E-01 +5.30005577320E-02
2.81000000000E+09 +6.78874055158E-01 -1.40625319429E-01 +3.01303883777E-04 -8.16084499673E-04 +3.58178301243E-04 -8.42667248035E-04 +7.42357854360E-01 +3.36837637186E-02
2.81500000000E+09 +6.68460143407E-01 -1.58572426020E-01 +2.49951505165E-04 -1.03862245112E-03 +1.68974107360E-04 -1.09410327508E-03 +7.35740589553E-01 +1.43508037661E-02
2.82000000000E+09 +6.57199670818E-01 -1.76198499355E-01 +2.36075688476E-05 -1.15441699901E-03 -7.13603796295E-05 -1.19275757135E-03 +7.28564929639E-01 -5.28975173179E-03
2.82500000000E+09 +6.44289999581E-01 -1.93621489691E-01 +9.46005737929E-05 -1.25597378910E-03 +5.54177960094E-05 -1.19530939520E-03 +7.20667793691E-01 -2.48228496973E-02
2.83000000000E+09 +6.29609003437E-01 -2.11475597514E-01 -2.29665681286E-04 -1.84948945548E-03 -2.42649988896E-04 -1.73931194879E-03 +7.12230012359E-01 -4.49868602151E-02
2.83500000000E+09 +6.13061361430E-01 -2.29664147509E-01 -1.07399236142E-03 -1.80192201262E-03 -9.76806319779E-04 -1.74532797057E-03 +7.02008445422E-01 -6.53714522265E-02
2.84000000000E+09 +5.95097009977E-01 -2.48318681232E-01 -1.48132916606E-03 -1.25030306910E-03 -1.41409205047E-03 -1.28594277580E-03 +6.90986964063E-01 -8.61683051811E-02
2.84500000000E+09 +5.74662626260E-01 -2.68403181434E-01 -1.42032171393E-03 -8.30984117174E-04 -1.45902900472E-03 -8.24411777919E-04 +6.79014955707E-01 -1.06928359084E-01
2.85000000000E+09 +5.52577529407E-01 -2.88054634932E-01 -1.33226879459E-03 -8.15750997878E-04 -1.40998574500E-03 -7.97902490575E-04 +6.65381044578E-01 -1.28446571939E-01
2.85500000000E+09 +5.28673062729E-01 -3.07854821183E-01 -1.64520728882E-03 -7.61207259347E-04 -1.64600254002E-03 -7.82389302526E-04 +6.50178096193E-01 -1.48933287601E-01
2.86000000000E+09 +5.04249413257E-01 -3.26273341242E-01 -1.65599481653E-03 -6.09088781024E-04 -1.63731580779E-03 -6.30185537778E-04 +6.34537880019E-01 -1.69678647746E-01
2.86500000000E+09 +4.79648901900E-01 -3.43924016648E-01 -2.03892202600E-03 -4.83622177815E-04 -1.97927863774E-03 -5.15051448952E-04 +6.16888217724E-01 -1.90650205633E-01
2.87000000000E+09 +4.54782789558E-01 -3.59973251182E-01 -2.14684477328E-03 -1.39075615792E-04 -2.16942956818E-03 -1.77443671656E-04 +5.97464328670E-01 -2.11092987634E-01
2.87500000000E+09 +4.29982885727E-01 -3.74956287387E-01 -2.55128907314E-03 -9.59433877241E-05 -2.52693328974E-03 -2.08640842014E-05 +5.76998189256E-01 -2.30333254555E-01
2.88000000000E+09 +4.04132179998E-01 -3.88719967790E-01 -2.98921594228E-03 +6.32616735613E-04 -2.88939441502E-03 +7.20481546794E-04 +5.55500620911E-01 -2.49959312921E-01
2.88500000000E+09 +3.77469532962E-01 -4.00799451526E-01 -2.71071730465E-03 +1.85060798832E-03 -2.54755383527E-03 +1.70654152653E-03 +5.32032324552E-01 -2.68431897077E-01
2.89000000000E+09 +3.49653540431E-01 -4.12433214711E-01 -1.79343839502E-03 +2.15235700848E-03 -1.76427344012E-03 +1.97202279963E-03 +5.06393508600E-01 -2.86357526274E-01
2.89500000000E+09 +3.18558176972E-01 -4.22966007634E-01 -1.42391112006E-03 +1.78813373790E-03 -1.45300539939E-03 +1.64903789316E-03 +4.79532679194E-01 -3.03223417796E-01
2.90000000000E+09 +2.85652710653E-01 -4.31139168631E-01 -1.66723794061E-03 +1.97313664932E-03 -1.76415643860E-03 +1.97561242528E-03 +4.51301018249E-01 -3.19734864697E-01
2.90500000000E+09 +2.50632140885E-01 -4.37604891253E-01 -1.45470102514E-03 +2.36095327631E-03 -1.45637010486E-03 +2.42372023159E-03 +4.21675224792E-01 -3.35478410142E-01
2.91000000000E+09 +2.15086863580E-01 -4.42033287184E-01 -1.29611802483E-03 +2.68561195276E-03 -1.24054236724E-03 +2.75872572998E-03 +3.89922086998E-01 -3.49260152117E-01
2.91500000000E+09 +1.78287206764E-01 -4.45153298739E-01 -7.64505695815E-04 +3.00349265506E-03 -7.09909589165E-04 +2.92473343215E-03 +3.58217766263E-01 -3.60659799673E-01
2.92000000000E+09 +1.41248738867E-01 -4.45349559349E-01 -4.46811913247E-04 +3.29600483523E-03 -4.35387972757E-04 +3.11280785407E-03 +3.24847551334E-01 -3.71306191787E-01
2.92500000000E+09 +1.05081680043E-01 -4.44580267212E-01 +1.15207525039E-04 +3.79489114546E-03 -7.54969939938E-05 +3.67610462577E-03 +2.88664974333E-01 -3.79098316561E-01
2.93000000000E+09 +6.87517279027E-02 -4.41633023233E-01 +1.29234714775E-03 +3.63912050031E-03 +1.11648612063E-03 +3.69592308893E-03 +2.50811770922E-01 -3.84860927623E-01
2.93500000000E+09 +3.34178156352E-02 -4.36669670390E-01 +1.68552382066E-03 +3.20515320929E-03 +1.55247089412E-03 +3.25631975279E-03 +2.12196691793E-01 -3.87305739643E-01
2.94000000000E+09 -2.25438744231E-03 -4.29865843072E-01 +2.07684220455E-03 +2.97654870988E-03 +2.04386200477E-03 +2.96535105629E-03 +1.74017733746E-01 -3.88376745050E-01
2.94500000000E+09 -3.82522128837E-02 -4.19586722496E-01 +2.34151690156E-03 +2.91148799406E-03 +2.27339487685E-03 +2.97627844866E-03 +1.35860504635E-01 -3.88741128774E-01
2.95000000000E+09 -7.33848242476E-02 -4.05894622068E-01 +3.25651820937E-03 +2.57276204710E-03 +3.11609265061E-03 +2.63508443551E-03 +9.54261218022E-02 -3.86510887236E-01
2.95500000000E+09 -1.08199489679E-01 -3.89086978410E-01 +3.69526992817E-03 +1.84521339038E-03 +3.74800723784E-03 +1.97090662637E-03 +5.48561831560E-02 -3.79495313405E-01
2.96000000000E+09 -1.41718960945E-01 -3.69465452323E-01 +3.72525254516E-03 +1.15022953859E-03 +3.84500761087E-03 +1.21398203666E-03 +1.59804899151E-02 -3.69028785618E-01
2.96500000000E+09 -1.74928470164E-01 -3.46959760722E-01 +3.79957917686E-03 +8.31817448566E-04 +3.95701179152E-03 +6.96914008899E-04 -2.36063149337E-02 -3.57011365332E-01
2.97000000000E+09 -2.05906601824E-01 -3.21615771592E-01 +4.33584236235E-03 +3.54082189776E-04 +4.37302872183E-03 +2.04614959182E-04 -6.22374556109E-02 -3.41732911970E-01
2.97500000000E+09 -2.35338532489E-01 -2.95191257689E-01 +4.76260953240E-03 -8.42140378404E-04 +4.54236192956E-03 -8.27845938769E-04 -1.01285306805E-01 -3.25338489843E-01
2.98000000000E+09 -2.64494944950E-01 -2.66921913280E-01 +3.93625160837E-03 -2.12277051045E-03 +3.84969420284E-03 -1.99480667472E-03 -1.38572101972E-01 -3.04613343480E-01
2.98500000000E+09 -2.91039354487E-01 -2.35812819356E-01 +2.99535496102E-03 -2.32603264144E-03 +3.04696844737E-03 -2.19308078467E-03 -1.74425940764E-01 -2.82272353947E-01
2.99000000000E+09 -3.14902876663E-01 -2.04376133704E-01 +2.69764781164E-03 -2.17994629962E-03 +2.79609312575E-03 -2.27630334869E-03 -2.08494413192E-01 -2.56366466635E-01
2.99500000000E+09 -3.37569497189E-01 -1.72743172200E-01 +2.96271294017E-03 -2.45304341304E-03 +2.96818228622E-03 -2.71841069170E-03 -2.41293558126E-01 -2.27921597836E-01
3.00000000000E+09 -3.58761033231E-01 -1.38925869762E-01 +2.53767908667E-03 -3.53081364733E-03 +2.36369405415E-03 -3.60034130624E-03 -2.71972864745E-01 -1.95518539669E-01
3.00500000000E+09 -3.76807175418E-01 -1.04388343688E-01 +1.45003500697E-03 -3.99914260375E-03 +1.30063789496E-03 -3.84793128524E-03 -2.99402623139E-01 -1.62112664850E-01
3.01000000000E+09 -3.92799226264E-01 -6.97191153016E-02 +4.69854602292E-04 -3.74688977462E-03 +5.04942086211E-04 -3.53034293321E-03 -3.24879728138E-01 -1.27023524011E-01
3.01500000000E+09 -4.05997625844E-01 -3.41485618210E-02 +2.98660627651E-04 -3.32267955600E-03 +4.48924969112E-04 -3.27846754744E-03 -3.47238338182E-01 -9.17979680763E-02
3.02000000000E+09 -4.16255332782E-01 +1.09537767687E-03 -1.58735292398E-05 -3.56772119106E-03 +7.42358642132E-05 -3.51414588847E-03 -3.67439958808E-01 -5.54044068757E-02
3.02500000000E+09 -4.23688806540E-01 +3.63704541696E-02 -5.31629059015E-04 -3.54963307048E-03 -4.34994762524E-04 -3.60998241510E-03 -3.84554312010E-01 -1.68043603115E-02
3.03000000000E+09 -4.28243624566E-01 +7.12684995278E-02 -1.37332156809E-03 -3.47538851044E-03 -1.29740646092E-03 -3.48684633559E-03 -3.97895626301E-01 +2.20049484979E-02
3.03500000000E+09 -4.28953114120E-01 +1.05716332511E-01 -1.91679032877E-03 -2.68997447837E-03 -1.82995283168E-03 -2.82611482180E-03 -4.08578440925E-01 +6.12819575403E-02
3.04000000000E+09 -4.27919482034E-01 +1.38415427517E-01 -1.87081240118E-03 -2.40822947193E-03 -1.82765019243E-03 -2.52190423051E-03 -4.17008263714E-01 +1.00389573036E-01
3.04500000000E+09 -4.25364270298E-01 +1.72039719836E-01 -1.99652722224E-03 -2.23133666381E-03 -2.08036795199E-03 -2.46619419001E-03 -4.22836234904E-01 +1.39936631263E-01
3.05000000000E+09 -4.19280974494E-01 +2.05595639724E-01 -2.34010065482E-03 -2.07531509771E-03 -2.55042080657E-03 -2.13644916892E-03 -4.25971722010E-01 +1.78698448601E-01
3.05500000000E+09 -4.11335252207E-01 +2.38377274393E-01 -2.71409453093E-03 -1.57925822035E-03 -2.96679490390E-03 -1.43466671637E-03 -4.26223797466E-01 +2.16999070668E-01
3.06000000000E+09 -4.01580188488E-01 +2.71003448689E-01 -2.83566221814E-03 -1.07622828612E-03 -2.77229172868E-03 -7.88372590224E-04 -4.24469731248E-01 +2.53829500757E-01
3.06500000000E+09 -3.89666233048E-01 +3.03117725372E-01 -2.81254614693E-03 -5.18581268257E-04 -2.57754105547E-03 -4.26645602048E-04 -4.20162064226E-01 +2.90605933923E-01
3.07000000000E+09 -3.76283355890E-01 +3.33268393399E-01 -2.53338441228E-03 -2.75031358622E-04 -2.42149164931E-03 -4.32416730297E-04 -4.13984425618E-01 +3.26216512273E-01
