# Hz S RI R 50
! CMT, C1220, 16058040, 17.2.0/1
! Date: 15/08/2018 10:34:58
! Data: Format (Calibration Info)
! Freq                      S11: Re/Im (F2)                       S21: Re/Im (F2)                       S12: Re/Im (F2)                       S22: Re/Im (F2)            
2.50000000000E+09 +5.79814943927E-01 +6.65728143339E-01 -2.26608461694E-04 +1.41002564208E-04 -2.19939083120E-04 +1.32641643626E-04 +5.64448354170E-01 +7.22597166761E-01
2.50500000000E+09 +5.87150003236E-01 +6.57508652154E-01 -6.72933770637E-05 +1.38635532110E-04 -4.08808645613E-05 +1.66725417203E-04 +5.70096030191E-01 +7.17021852987E-01
2.51000000000E+09 +5.94903293030E-01 +6.49209806049E-01 -4.42922704168E-05 +2.12860680063E-05 -3.16000489285E-05 +8.06190566175E-05 +5.75688447396E-01 +7.12054170568E-01
2.51500000000E+09 +6.02321068786E-01 +6.41056609460E-01 -7.21057879763E-05 +5.68440883342E-05 -9.41355876062E-05 +5.67745479189E-05 +5.81107692917E-01 +7.06659757572E-01
2.52000000000E+09 +6.09142540486E-01 +6.32974824455E-01 -1.20295162894E-04 +1.17263776391E-04 -1.23610941449E-04 +9.31670880634E-05 +5.86320456570E-01 +7.00876855064E-01
2.52500000000E+09 +6.14979221607E-01 +6.25455029208E-01 -3.46291359893E-05 +1.29033358324E-04 -5.53387800162E-05 +8.89827925640E-05 +5.92019454224E-01 +6.94499625384E-01
2.53000000000E+09 +6.20361841808E-01 +6.18148667704E-01 -5.27071978095E-05 +7.56333006717E-05 -3.25397444284E-05 +9.27570162876E-05 +5.98232069059E-01 +6.87497230817E-01
2.53500000000E+09 +6.24865057274E-01 +6.11151095960E-01 -1.02558736801E-04 +1.35443239599E-04 -8.22814163480E-05 +6.43428831251E-05 +6.04226912544E-01 +6.80892450369E-01
2.54000000000E+09 +6.29461150462E-01 +6.04144993733E-01 -4.04951108108E-06 +9.55063640645E-05 -4.36176308259E-05 +8.96775345226E-05 +6.10102656689E-01 +6.74278774655E-01
2.54500000000E+09 +6.34263730558E-01 +5.96788907741E-01 -8.29321163425E-05 +8.86634277873E-05 -1.05242509980E-04 +7.24210323698E-05 +6.15961359537E-01 +6.68055311719E-01
2.55000000000E+09 +6.39221117820E-01 +5.89169899349E-01 -6.05925684455E-05 +1.59406949803E-04 -1.20839398246E-04 +1.63801642302E-04 +6.21311411972E-01 +6.61727720454E-01
2.55500000000E+09 +6.44612502235E-01 +5.80786403056E-01 -2.91435643359E-05 +2.04350828320E-04 -1.40057176171E-05 +3.20975646910E-04 +6.26301233835E-01 +6.55313599002E-01
2.56000000000E+09 +6.50964055267E-01 +5.72726069156E-01 +8.05901737920E-05 +2.22605460809E-04 +8.04168190094E-05 +2.37393549353E-04 +6.31500624045E-01 +6.47995251401E-01
2.56500000000E+09 +6.57973155264E-01 +5.64026808819E-01 +1.08977304782E-04 +1.12387416033E-04 +1.66027672130E-04 +1.02383920149E-04 +6.36577112047E-01 +6.40511568129E-01
2.57000000000E+09 +6.65098828876E-01 +5.55109707301E-01 +6.37274630392E-05 +6.66058745239E-05 +4.78568566191E-05 +6.04426411493E-05 +6.41930450305E-01 +6.32764656112E-01
2.57500000000E+09 +6.71844453648E-01 +5.46238620210E-01 +9.97673282525E-06 +1.75075072915E-04 +1.58413728500E-05 +1.19835595186E-04 +6.47428418394E-01 +6.25082333657E-01
2.58000000000E+09 +6.77606081579E-01 +5.37797751306E-01 +3.67445462004E-05 +2.36981232155E-04 +3.16633292174E-05 +1.86329468326E-04 +6.52399657871E-01 +6.17468876387E-01
2.58500000000E+09 +6.82904537570E-01 +5.29477462110E-01 +1.71142855194E-04 +2.24525608956E-04 +1.64141333260E-04 +1.75146170854E-04 +6.57098579960E-01 +6.09996669291E-01
2.59000000000E+09 +6.87361195912E-01 +5.21703380170E-01 +2.21587300465E-04 +1.31732559463E-04 +2.20030865624E-04 +1.40432981792E-04 +6.61900418118E-01 +6.02553681484E-01
2.59500000000E+09 +6.91733567748E-01 +5.13613898412E-01 +2.04380702979E-04 +1.34398356765E-04 +2.21728723275E-04 +9.97343490695E-05 +6.66750582923E-01 +5.94752301215E-01
2.60000000000E+09 +6.95630598444E-01 +5.04798495455E-01 +2.45930685821E-04 +8.59085148985E-05 +2.36187450865E-04 +7.17981946965E-05 +6.71795209884E-01 +5.86554791320E-01
2.60500000000E+09 +6.99550548953E-01 +4.95091564608E-01 +2.27242308859E-04 +6.42392169740E-05 +2.14623372897E-04 +3.48450208899E-05 +6.77125586318E-01 +5.77902407748E-01
2.61000000000E+09 +7.03683269928E-01 +4.84327763779E-01 +3.36201007634E-04 +1.11143793552E-04 +3.48853023793E-04 +1.09669827109E-04 +6.82285003424E-01 +5.69219230134E-01
2.61500000000E+09 +7.08405941048E-01 +4.72491980966E-01 +3.79724069428E-04 -1.47621980535E-04 +4.50431368979E-04 -1.87428983420E-04 +6.87200858996E-01 +5.60836847303E-01
2.62000000000E+09 +7.13115823331E-01 +4.59389555186E-01 +1.87005165488E-04 -2.78984590699E-04 +1.99416236881E-04 -2.84521340978E-04 +6.91941869282E-01 +5.52004812667E-01
2.62500000000E+09 +7.17920130662E-01 +4.45573500642E-01 +3.96376633263E-05 -1.32657497754E-04 +2.35787301858E-05 -1.53452482969E-04 +6.96639392549E-01 +5.43229500296E-01
2.63000000000E+09 +7.22444172637E-01 +4.31544086632E-01 +1.05519503614E-04 -2.66445864808E-05 +7.13891267127E-05 -7.05899210810E-05 +7.01228350774E-01 +5.34307447717E-01
2.63500000000E+09 +7.26178168427E-01 +4.17942692672E-01 +1.99209644980E-04 -1.36576881786E-05 +1.42777651138E-04 -7.95240207195E-05 +7.05877726974E-01 +5.25256652989E-01
2.64000000000E+09 +7.29582358973E-01 +4.05166230079E-01 +2.71612641185E-04 -1.07040003976E-04 +1.95096165118E-04 -8.62433293204E-05 +7.10532596576E-01 +5.15748983612E-01
2.64500000000E+09 +7.32896374220E-01 +3.93359874907E-01 +2.31504689961E-04 -2.68341284593E-04 +1.88949120868E-04 -1.87959456837E-04 +7.15181008442E-01 +5.06187032260E-01
2.65000000000E+09 +7.35489708364E-01 +3.82288046056E-01 +9.25463076700E-05 -2.41801184285E-04 +1.42871994291E-04 -2.51081039182E-04 +7.19423846779E-01 +4.96397617291E-01
2.65500000000E+09 +7.38365717178E-01 +3.71107379952E-01 +3.08484054426E-05 -2.53599376735E-04 +9.64992815503E-05 -2.04446355642E-04 +7.23474635351E-01 +4.86063314336E-01
2.66000000000E+09 +7.41119268495E-01 +3.59649666139E-01 +1.65749469307E-04 -1.87319173398E-04 +1.49012877691E-04 -2.18013905231E-04 +7.27569003140E-01 +4.74901269269E-01
2.66500000000E+09 +7.43419868104E-01 +3.47879035373E-01 +8.94524352599E-05 -3.65770568715E-04 +1.21405118024E-04 -3.83672713124E-04 +7.31774456551E-01 +4.64222475511E-01
2.67000000000E+09 +7.45965522851E-01 +3.35045483859E-01 -1.98447702955E-05 -4.11516448424E-04 -8.36070412158E-05 -4.02224554003E-04 +7.36395892668E-01 +4.53495491798E-01
2.67500000000E+09 +7.48246568927E-01 +3.21329380995E-01 -1.20090690954E-04 -2.62536532023E-04 -1.55346179795E-04 -2.21239447821E-04 +7.40777470988E-01 +4.42405917587E-01
2.68000000000E+09 +7.50053200745E-01 +3.06739659386E-01 -6.89230884692E-05 -1.77848859966E-04 -3.06145042462E-05 -2.05247814773E-04 +7.44711720326E-01 +4.31471246979E-01
2.68500000000E+09 +7.51475109725E-01 +2.92007228417E-01 +9.14130544148E-07 -3.07937612573E-04 +4.24901643846E-05 -3.36692149085E-04 +7.48186788108E-01 +4.19901427255E-01
2.69000000000E+09 +7.52613159570E-01 +2.77309205381E-01 -2.08728318912E-04 -4.27194002423E-04 -2.38138886313E-04 -4.07715085347E-04 +7.50858805965E-01 +4.07916393023E-01
2.69500000000E+09 +7.53477827330E-01 +2.63317801295E-01 -2.46161220681E-04 -2.56754802959E-04 -2.54408446759E-04 -2.21102983517E-04 +7.53688403066E-01 +3.95520457200E-01
2.70000000000E+09 +7.54563004254E-01 +2.49698862379E-01 -3.70623307991E-04 -3.17997540478E-04 -3.47928893668E-04 -3.19790525145E-04 +7.56693005440E-01 +3.82462366858E-01
2.70500000000E+09 +7.55517359629E-01 +2.36360845436E-01 -3.96832372363E-04 -1.58486152727E-04 -3.57859229707E-04 -1.40457094614E-04 +7.59736656254E-01 +3.69045541896E-01
2.71000000000E+09 +7.56324211649E-01 +2.23149358761E-01 -4.05758368553E-04 -7.72087357270E-05 -3.90071971827E-04 -1.03421296172E-04 +7.62495015516E-01 +3.55908929899E-01
2.71500000000E+09 +7.57444006699E-01 +2.09678194180E-01 -3.52792690049E-04 -1.25641206151E-04 -3.83690055739E-04 -1.32094571826E-04 +7.65035627808E-01 +3.43411393072E-01
2.72000000000E+09 +7.58141146848E-01 +1.95299690575E-01 -5.33344269220E-04 -1.12014851598E-04 -5.91391558629E-04 -1.41744214435E-04 +7.66681532942E-01 +3.30648005519E-01
2.72500000000E+09 +7.58366579906E-01 +1.80158286409E-01 -6.88113989686E-04 +1.03439567230E-04 -5.97419180334E-04 +2.06378289350E-04 +7.67918242845E-01 +3.17441552037E-01
2.73000000000E+09 +7.57928035364E-01 +1.63730119129E-01 -5.43695432066E-04 +3.28678017984E-04 -4.37695307342E-04 +3.32274917586E-04 +7.68890201280E-01 +3.03715615057E-01
2.73500000000E+09 +7.56340978040E-01 +1.46023250838E-01 -4.59197483843E-04 +3.98944817367E-04 -4.18153256715E-04 +3.74254868408E-04 +7.70131954131E-01 +2.89521005704E-01
2.74000000000E+09 +7.53559298608E-01 +1.28220752000E-01 -2.38965451315E-04 +5.53589362669E-04 -2.86039023347E-04 +4.73827886057E-04 +7.71897898045E-01 +2.74684839772E-01
2.74500000000E+09 +7.49590801288E-01 +1.10403934464E-01 -1.26812284190E-04 +4.33487465824E-04 -1.52455307399E-04 +4.45047399566E-04 +7.73311088369E-01 +2.59686906447E-01
2.75000000000E+09 +7.45142231243E-01 +9.26958609942E-02 -1.42115822536E-04 +5.06218424364E-04 -2.08180728448E-04 +4.96528112426E-04 +7.74603331502E-01 +2.44609479328E-01
2.75500000000E+09 +7.40223950799E-01 +7.58602197095E-02 +4.07928914587E-06 +5.24395047944E-04 -3.35124706263E-05 +5.66232080462E-04 +7.74767839953E-01 +2.29646434836E-01
2.76000000000E+09 +7.36108423068E-01 +5.88460620601E-02 -4.77131179154E-06 +7.05747994716E-04 -1.17083908788E-05 +7.37850200594E-04 +7.74959918647E-01 +2.14331559426E-01
2.76500000000E+09 +7.31164313753E-01 +4.08799926759E-02 +3.00356502681E-04 +5.97869849352E-04 +3.43316292471E-04 +6.28737162944E-04 +7.74220943924E-01 +1.97297598237E-01
2.77000000000E+09 +7.25899610976E-01 +2.29599094341E-02 +3.84190910633E-04 +5.39203446853E-04 +3.64051232721E-04 +5.05553941322E-04 +7.73192520178E-01 +1.80177693383E-01
2.77500000000E+09 +7.20972654257E-01 +4.33971062426E-03 +5.68977436590E-04 +5.24722471894E-04 +5.75068971493E-04 +5.05916993101E-04 +7.71745153348E-01 +1.61876941247E-01
2.78000000000E+09 +7.15747590883E-01 -1.55100516114E-02 +6.98701207942E-04 +2.67530482819E-04 +7.74421547912E-04 +2.58952820949E-04 +7.69911991366E-01 +1.44021919415E-01
2.78500000000E+09 +7.09671867344E-01 -3.64264494287E-02 +8.07405126596E-04 +1.56074564528E-04 +8.69985924028E-04 +1.10133599422E-04 +7.67508591578E-01 +1.26123346567E-01
2.79000000000E+09 +7.02833384552E-01 -5.81576924744E-02 +7.28540357622E-04 -1.89926534693E-04 +6.62526615175E-04 -2.74878396392E-04 +7.64304585588E-01 +1.08557070839E-01
2.79500000000E+09 +6.94384749932E-01 -7.96086933711E-02 +5.83769338410E-04 -1.28497152351E-04 +5.97393102613E-04 -1.23499530791E-04 +7.60108420857E-01 +9.05052178211E-02
2.80000000000E+09 +6.85270880731E-01 -1.00016558695E-01 +6.14436238928E-04 -2.96485741774E-04 +5.91262238933E-04 -3.09430117675E-04 +7.55052985426E-01 +7.21778308362E-02
2.80500000000E+09 +6.75946095446E-01 -1.19194580547E-01 +5.31342244140E-04 -3.41845676488E-04 +5.72634086581E-04 -3.44254657877E-04 +7.49201182378E-01 +5.28883241788E-02
2.81000000000E+09 +6.66056676896E-01 -1.37383972447E-01 +6.29222569313E-04 -4.56698920298E-04 +6.97788365642E-04 -5.02411737427E-04 +7.42374991525E-01 +3.36920671377E-02
2.81500000000E+09 +6.55658456195E-01 -1.54555247453E-01 +4.47144748282E-04 -7.22409493575E-04 +4.80615444660E-04 -7.80712332549E-04 +7.35632345514E-01 +1.47738260483E-02
2.82000000000E+09 +6.44259787708E-01 -1.71790004442E-01 +2.98854495107E-04 -7.37850918787E-04 +2.94687384993E-04 -7.02537983052E-04 +7.28306668468E-01 -4.88604409996E-03
2.82500000000E+09 +6.31089779284E-01 -1.88113489944E-01 +3.46315502090E-04 -8.64594229345E-04 +2.63942502843E-04 -8.99506322717E-04 +7.20197316115E-01 -2.44133960191E-02
2.83000000000E+09 +6.17488359483E-01 -2.04466175914E-01 +7.53617502386E-05 -1.16727785029E-03 +1.35626366976E-04 -1.13868292702E-03 +7.11468323978E-01 -4.44394008486E-02
2.83500000000E+09 +6.02196775360E-01 -2.22142229870E-01 -3.69321202656E-04 -1.16926288061E-03 -3.54408981634E-04 -1.23642596250E-03 +7.01265226374E-01 -6.44839019317E-02
2.84000000000E+09 +5.84817685880E-01 -2.40542182617E-01 -6.91445903403E-04 -9.87040956628E-04 -6.89207283664E-04 -1.03404210146E-03 +6.90579885287E-01 -8.53809231392E-02
2.84500000000E+09 +5.64876791204E-01 -2.60219755028E-01 -8.17840088781E-04 -7.30736593715E-04 -8.91756615351E-04 -6.99251965771E-04 +6.77959955003E-01 -1.06213835076E-01
2.85000000000E+09 +5.42953036935E-01 -2.78882380818E-01 -7.65249168509E-04 -4.96355836206E-04 -7.80893696445E-04 -5.29811522642E-04 +6.64245331706E-01 -1.26613780599E-01
2.85500000000E+09 +5.20184849740E-01 -2.97518250073E-01 -9.05217226944E-04 -4.05849593685E-04 -9.61174873541E-04 -4.42422060958E-04 +6.49884858752E-01 -1.46784009640E-01
2.86000000000E+09 +4.96780417464E-01 -3.15764106173E-01 -8.53801346378E-04 -3.28761246209E-04 -8.81654432750E-04 -3.26519722548E-04 +6.34646875715E-01 -1.67771563663E-01
2.86500000000E+09 +4.72835280864E-01 -3.32451061329E-01 -8.58234772062E-04 -2.84940326743E-04 -8.39288383584E-04 -2.76012008815E-04 +6.16987158084E-01 -1.89166296553E-01
2.87000000000E+09 +4.49083488119E-01 -3.48031137906E-01 -1.16295751686E-03 -5.71928013850E-04 -1.15176388037E-03 -5.21889066817E-04 +5.97146763404E-01 -2.09754769823E-01
2.87500000000E+09 +4.25042061081E-01 -3.62559773836E-01 -1.82600446673E-03 -1.86232003496E-04 -1.79347881718E-03 -1.45581244055E-04 +5.76603272048E-01 -2.28851870539E-01
2.88000000000E+09 +4.00714535351E-01 -3.75569487305E-01 -1.78862268879E-03 +4.65138307167E-04 -1.75128837287E-03 +5.36886151948E-04 +5.54966240513E-01 -2.48022944592E-01
2.88500000000E+09 +3.75856448688E-01 -3.87973193750E-01 -1.74011274357E-03 +1.26266231925E-03 -1.58419284857E-03 +1.21879445061E-03 +5.31642487647E-01 -2.66015454874E-01
2.89000000000E+09 +3.48944794910E-01 -3.99909094030E-01 -7.58327347157E-04 +1.48985359761E-03 -7.38224010133E-04 +1.47009903388E-03 +5.06363777854E-01 -2.83885108428E-01
2.89500000000E+09 +3.19150117585E-01 -4.10070353748E-01 -5.02871221844E-04 +9.68706425842E-04 -5.04621294254E-04 +8.95374105177E-04 +4.79626477986E-01 -3.00612741367E-01
2.90000000000E+09 +2.87814118451E-01 -4.18246255591E-01 -9.25343520746E-04 +1.09116150061E-03 -9.52325102233E-04 +1.05160387661E-03 +4.51502417632E-01 -3.16779096321E-01
2.90500000000E+09 +2.54485164736E-01 -4.24644101196E-01 -6.73261552015E-04 +1.47505914483E-03 -7.16775805283E-04 +1.51597439583E-03 +4.21602572014E-01 -3.32599498263E-01
2.91000000000E+09 +2.20405646811E-01 -4.29647228695E-01 -6.19853312455E-04 +1.71722923710E-03 -5.77602877481E-04 +1.71984822167E-03 +3.89987813452E-01 -3.45410587453E-01
2.91500000000E+09 +1.84968256002E-01 -4.33397550436E-01 +1.06314158706E-04 +1.94671901241E-03 +9.15375200922E-05 +1.88420516585E-03 +3.58952283917E-01 -3.56213933439E-01
2.92000000000E+09 +1.48869392124E-01 -4.34552126895E-01 +1.39304278925E-04 +1.51496729151E-03 +9.61030936494E-05 +1.41799178740E-03 +3.26527140918E-01 -3.66226923325E-01
2.92500000000E+09 +1.12922141740E-01 -4.34239217763E-01 +1.43033864726E-04 +2.15802885487E-03 -3.39538924209E-05 +2.10498389177E-03 +2.91682489802E-01 -3.74285008802E-01
2.93000000000E+09 +7.76403202914E-02 -4.31239745540E-01 +9.87082253830E-04 +2.07672631327E-03 +8.50976093729E-04 +2.10184285790E-03 +2.54995374600E-01 -3.80333618346E-01
2.93500000000E+09 +4.34339149262E-02 -4.27281543123E-01 +1.24814528170E-03 +2.08984293245E-03 +1.18759321728E-03 +2.12902270061E-03 +2.17358316448E-01 -3.83911715198E-01
2.94000000000E+09 +8.57406560652E-03 -4.21488039590E-01 +2.18753214183E-03 +1.58134692525E-03 +2.21959415742E-03 +1.65052735875E-03 +1.79095065286E-01 -3.85894874493E-01
2.94500000000E+09 -2.63876927172E-02 -4.12568600302E-01 +1.88701291598E-03 +8.80001417679E-04 +1.86777216972E-03 +9.24120537085E-04 +1.40668983071E-01 -3.86283500782E-01
2.95000000000E+09 -6.06915888900E-02 -4.00246144624E-01 +1.97220562333E-03 +9.43053948136E-04 +1.88449906115E-03 +1.00335978473E-03 +1.01259347615E-01 -3.84323101748E-01
2.95500000000E+09 -9.44299541056E-02 -3.85417028399E-01 +2.32787424898E-03 +4.34417239368E-04 +2.44824006281E-03 +5.83506553848E-04 +6.10984985644E-02 -3.78183882585E-01
2.96000000000E+09 -1.27050477485E-01 -3.67765350137E-01 +2.16987845097E-03 +4.20322181607E-04 +2.27717520577E-03 +4.72746074695E-04 +2.24287019616E-02 -3.68596379937E-01
2.96500000000E+09 -1.60157451101E-01 -3.47867449533E-01 +2.87433706397E-03 +1.20643032237E-04 +3.00606475259E-03 +1.38128638849E-04 -1.68772790332E-02 -3.57696397920E-01
2.97000000000E+09 -1.91476505183E-01 -3.23626579094E-01 +3.00568409434E-03 -1.10492212748E-03 +2.99252414861E-03 -1.15826950090E-03 -5.59253258966E-02 -3.43246052641E-01
2.97500000000E+09 -2.20578950624E-01 -2.98390124675E-01 +2.26657103431E-03 -1.65916177929E-03 +2.17861130455E-03 -1.67677490934E-03 -9.53334980442E-02 -3.27626688757E-01
2.98000000000E+09 -2.49112598517E-01 -2.71586298788E-01 +1.90869505416E-03 -1.67839434804E-03 +1.89846678167E-03 -1.58220156188E-03 -1.33684788117E-01 -3.06828245885E-01
2.98500000000E+09 -2.75561708488E-01 -2.42617342944E-01 +1.75430342137E-03 -1.96268515424E-03 +1.86850276583E-03 -1.92404224048E-03 -1.69007024787E-01 -2.84301464700E-01
2.99000000000E+09 -3.00123428178E-01 -2.13113837089E-01 +1.34343198027E-03 -2.52345395851E-03 +1.42974023426E-03 -2.67405027005E-03 -2.03108462649E-01 -2.58981392912E-01
2.99500000000E+09 -3.24539392179E-01 -1.82290401804E-01 +6.65672407678E-04 -2.37171297032E-03 +6.17582861991E-04 -2.47985185021E-03 -2.35238012113E-01 -2.31041841851E-01
3.00000000000E+09 -3.45848341731E-01 -1.49063053370E-01 +5.93674471784E-04 -2.50926718823E-03 +4.37832774852E-04 -2.59185390120E-03 -2.66279438073E-01 -2.00383176028E-01
3.00500000000E+09 -3.64858741227E-01 -1.16319492889E-01 -1.04316442844E-04 -2.61159550774E-03 -2.18940506531E-04 -2.46903595856E-03 -2.94494683935E-01 -1.67663354924E-01
3.01000000000E+09 -3.82297536975E-01 -8.21085725357E-02 -3.18003647305E-04 -2.23754769329E-03 -3.23104240348E-04 -2.12951635991E-03 -3.20886514881E-01 -1.33174766338E-01
3.01500000000E+09 -3.96245273519E-01 -4.77414676108E-02 -3.97268139164E-04 -2.68177283420E-03 -3.67182742954E-04 -2.63115176514E-03 -3.44010500654E-01 -9.79799524766E-02
3.02000000000E+09 -4.07905083716E-01 -1.25573947194E-02 -1.24714302407E-03 -2.66953431000E-03 -1.23572047300E-03 -2.68521536134E-03 -3.64474414680E-01 -6.19400480750E-02
3.02500000000E+09 -4.15732972425E-01 +2.20540178026E-02 -1.88262716525E-03 -2.20031406080E-03 -1.89829090650E-03 -2.24669550127E-03 -3.82361149818E-01 -2.37191439660E-02
3.03000000000E+09 -4.20782773449E-01 +5.62516057000E-02 -2.27283298038E-03 -1.28096339416E-03 -2.19659190340E-03 -1.32532145590E-03 -3.95942525409E-01 +1.47986413430E-02
3.03500000000E+09 -4.23166618489E-01 +8.93644234181E-02 -1.79529579002E-03 -8.47489240393E-04 -1.76735692408E-03 -8.52814007220E-04 -4.07839245140E-01 +5.30211260854E-02
3.04000000000E+09 -4.23662588331E-01 +1.22336505465E-01 -1.73910348142E-03 -1.07060751440E-03 -1.74767600197E-03 -1.10654212967E-03 -4.17999871618E-01 +9.22644045531E-02
3.04500000000E+09 -4.22007112435E-01 +1.56274904806E-01 -2.10235819024E-03 -8.22621502521E-04 -2.19736881068E-03 -9.31666061760E-04 -4.24873229848E-01 +1.32562274198E-01
3.05000000000E+09 -4.16716796374E-01 +1.90076236716E-01 -2.28173226690E-03 -6.01854519201E-04 -2.42216592818E-03 -5.40383266981E-04 -4.28248662682E-01 +1.72159941403E-01
3.05500000000E+09 -4.09568094727E-01 +2.22550786170E-01 -2.45079347711E-03 -8.87570554759E-06 -2.40659949829E-03 +1.86450679727E-04 -4.29292108056E-01 +2.10790761346E-01
3.06000000000E+09 -4.00756491363E-01 +2.55155251439E-01 -2.21477616671E-03 +3.95086866332E-04 -2.04799387430E-03 +5.10582768478E-04 -4.27791504370E-01 +2.48812167998E-01
3.06500000000E+09 -3.90434201383E-01 +2.86876312028E-01 -2.09889750882E-03 +7.35302032634E-04 -1.94219924410E-03 +6.79346566397E-04 -4.23208535393E-01 +2.85534745592E-01
3.07000000000E+09 -3.78725397521E-01 +3.17304316019E-01 -1.79266724012E-03 +1.13904122458E-03 -1.82095917571E-03 +9.17256244686E-04 -4.17351304505E-01 +3.20921571648E-01
