# Hz S RI R 50
! CMT, C1220, 16058040, 17.2.0/1
! Date: 15/08/2018 10:36:32
! Data: Format (Calibration Info)
! Freq                      S11: Re/Im (F2)                       S21: Re/Im (F2)                       S12: Re/Im (F2)                       S22: Re/Im (F2)            
2.50000000000E+09 +5.78706965151E-01 +6.67438920918E-01 -2.64553877867E-04 +3.41728732908E-05 -3.24770969355E-04 +3.92444479484E-05 +5.64656948047E-01 +7.22373367704E-01
2.50500000000E+09 +5.85998075884E-01 +6.59302997877E-01 -2.41780777110E-04 +9.50717270132E-05 -2.70093772596E-04 +7.41281557410E-05 +5.70328860364E-01 +7.16901949049E-01
2.51000000000E+09 +5.93652733844E-01 +6.51056298457E-01 -1.99912359599E-04 +1.10466040999E-04 -1.86972765180E-04 +9.43763490823E-05 +5.75955288555E-01 +7.11763097890E-01
2.51500000000E+09 +6.01080094406E-01 +6.43074927665E-01 -2.14241345060E-04 +6.46212122976E-05 -2.08188275863E-04 +4.49430222013E-05 +5.81163563743E-01 +7.06356641659E-01
2.52000000000E+09 +6.08118131376E-01 +6.35266533081E-01 -2.63505544491E-04 +1.34836223434E-04 -2.44306296606E-04 +1.39255038794E-04 +5.86334728297E-01 +7.00393349560E-01
2.52500000000E+09 +6.14107239858E-01 +6.27877258008E-01 -1.33967063524E-04 +1.77688953414E-04 -1.40749978658E-04 +1.69000170952E-04 +5.92029310970E-01 +6.94108634187E-01
2.53000000000E+09 +6.19560089027E-01 +6.20759370262E-01 -1.07258306185E-04 +8.27108295663E-05 -1.08865184418E-04 +9.21621811252E-05 +5.98070338614E-01 +6.87292232577E-01
2.53500000000E+09 +6.24376811171E-01 +6.13765045023E-01 -1.51232792943E-04 +4.69065646035E-05 -1.54275320949E-04 +7.87492923793E-05 +6.03928742965E-01 +6.80627465717E-01
2.54000000000E+09 +6.28618697817E-01 +6.06886973026E-01 -2.48084547183E-04 +9.62644688639E-05 -2.50352224625E-04 +6.97896967149E-05 +6.10054678417E-01 +6.74222694951E-01
2.54500000000E+09 +6.33394202853E-01 +5.99932891090E-01 -3.07969244838E-04 +2.41634364162E-04 -3.06669564011E-04 +1.94432193881E-04 +6.15807539814E-01 +6.67969341711E-01
2.55000000000E+09 +6.38394063913E-01 +5.92424187191E-01 -1.53199195647E-04 +3.32934267241E-04 -2.20928437425E-04 +3.32416488148E-04 +6.21200957040E-01 +6.61727360749E-01
2.55500000000E+09 +6.43871047112E-01 +5.84319856735E-01 -1.02423745457E-05 +3.32710025471E-04 -8.26155639153E-05 +4.10746601336E-04 +6.26397384516E-01 +6.55342506606E-01
2.56000000000E+09 +6.50101660184E-01 +5.76300331384E-01 -2.20298797210E-05 +2.49399990702E-04 +1.47454063339E-05 +2.77455902617E-04 +6.31299219487E-01 +6.48099938658E-01
2.56500000000E+09 +6.57078674774E-01 +5.67758593467E-01 +4.38448044421E-06 +2.05713119467E-04 +3.20820877905E-05 +2.61591436120E-04 +6.36631781603E-01 +6.40743050977E-01
2.57000000000E+09 +6.64293794583E-01 +5.58992619968E-01 -8.78100122888E-05 +2.15153637454E-04 -6.61531972200E-05 +1.92574381951E-04 +6.41975490260E-01 +6.32984216445E-01
2.57500000000E+09 +6.71144851502E-01 +5.50098507007E-01 -6.88185849261E-05 +3.07328553451E-04 -2.50926322805E-05 +2.93989782687E-04 +6.47507362551E-01 +6.25410704027E-01
2.58000000000E+09 +6.76879388446E-01 +5.41798875505E-01 +1.45398651743E-05 +4.03247075185E-04 +2.06735876886E-05 +3.48591589515E-04 +6.52551862618E-01 +6.17694761411E-01
2.58500000000E+09 +6.82411060514E-01 +5.33963076449E-01 +6.52024012892E-05 +3.79321876489E-04 +5.68990986314E-05 +3.46023366627E-04 +6.57436859854E-01 +6.10149981794E-01
2.59000000000E+09 +6.87381996784E-01 +5.26263932148E-01 +1.33138826721E-04 +4.15992247022E-04 +6.72384761097E-05 +4.09360712543E-04 +6.62018600966E-01 +6.02669622224E-01
2.59500000000E+09 +6.91978336492E-01 +5.18273395724E-01 +1.93417501386E-04 +4.08516247936E-04 +1.89915761198E-04 +4.11234928059E-04 +6.66960834300E-01 +5.94735699444E-01
2.60000000000E+09 +6.96223954621E-01 +5.09471700991E-01 +2.36281728969E-04 +3.43827395302E-04 +2.54770294526E-04 +3.18136968796E-04 +6.71993806019E-01 +5.86646018048E-01
2.60500000000E+09 +7.00290951916E-01 +4.99796928755E-01 +2.58771356219E-04 +3.65226822013E-04 +3.19789705458E-04 +3.40341504889E-04 +6.77338697877E-01 +5.78183698253E-01
2.61000000000E+09 +7.04561427816E-01 +4.89417192800E-01 +3.99093686226E-04 +2.69653653811E-04 +3.86252167492E-04 +2.78070759135E-04 +6.82568621202E-01 +5.69594522821E-01
2.61500000000E+09 +7.09406941860E-01 +4.77655964099E-01 +4.90626685682E-04 +1.60215227044E-04 +4.73796687202E-04 +1.46417820822E-04 +6.87445837696E-01 +5.61124325402E-01
2.62000000000E+09 +7.14101621526E-01 +4.64486607232E-01 +3.96370403954E-04 +1.81029208449E-05 +4.43900572793E-04 +9.88317365013E-06 +6.92399497974E-01 +5.52144926008E-01
2.62500000000E+09 +7.18815768689E-01 +4.50823770741E-01 +2.63662938026E-04 +4.12581197340E-05 +3.43765262640E-04 +4.27291984380E-05 +6.97038014489E-01 +5.43383697446E-01
2.63000000000E+09 +7.23444878109E-01 +4.37004222970E-01 +3.82281206683E-04 +1.38256885117E-04 +3.73522724151E-04 +9.63572739293E-05 +7.01563758091E-01 +5.34523595017E-01
2.63500000000E+09 +7.27368062068E-01 +4.23648421380E-01 +4.67536670101E-04 +3.05021174616E-05 +3.92562659912E-04 -4.24572034242E-05 +7.06377753338E-01 +5.25603693205E-01
2.64000000000E+09 +7.31029934075E-01 +4.10948006506E-01 +4.50104137289E-04 +8.38113279847E-06 +4.07038261859E-04 -3.61615832911E-05 +7.11267175606E-01 +5.16216575906E-01
2.64500000000E+09 +7.34535798000E-01 +3.99056339491E-01 +5.18723745637E-04 -2.04808033206E-04 +5.17938353779E-04 -1.62590652742E-04 +7.16214715398E-01 +5.06478306327E-01
2.65000000000E+09 +7.37465669677E-01 +3.88177408685E-01 +3.94084062116E-04 -2.48915407844E-04 +3.99612655225E-04 -2.60082721476E-04 +7.20488228636E-01 +4.96358500723E-01
2.65500000000E+09 +7.40567506084E-01 +3.77155512398E-01 +3.52115303462E-04 -3.54199751851E-04 +3.89789147861E-04 -2.96671642281E-04 +7.24559247787E-01 +4.85825773330E-01
2.66000000000E+09 +7.43649388525E-01 +3.65980696846E-01 +2.75702857716E-04 -2.95273663881E-04 +2.83855974786E-04 -3.29108556201E-04 +7.28517057768E-01 +4.74740947359E-01
2.66500000000E+09 +7.46529927031E-01 +3.54612662096E-01 +2.27230925343E-04 -3.01761952557E-04 +2.05021732692E-04 -3.49676625279E-04 +7.32900246501E-01 +4.63792971774E-01
2.67000000000E+09 +7.49447539013E-01 +3.42009688862E-01 +2.43174636313E-04 -3.10763240032E-04 +2.46587962969E-04 -3.50463978309E-04 +7.37286263428E-01 +4.52976096230E-01
2.67500000000E+09 +7.52320350250E-01 +3.28384644486E-01 +2.46044547511E-04 -3.75574865181E-04 +1.80515067764E-04 -3.29673976858E-04 +7.41563114359E-01 +4.41806783355E-01
2.68000000000E+09 +7.54439629754E-01 +3.13630399091E-01 +1.93680274051E-04 -5.38927275671E-04 +1.87987628300E-04 -4.64186309032E-04 +7.45642132027E-01 +4.30941660856E-01
2.68500000000E+09 +7.56061410398E-01 +2.98856813668E-01 -1.24545113786E-05 -6.05793345337E-04 +3.25257153753E-05 -5.80057842964E-04 +7.49040963366E-01 +4.19139578119E-01
2.69000000000E+09 +7.57471463311E-01 +2.84235944706E-01 -1.33449279356E-04 -4.64436919089E-04 -8.61720599362E-05 -4.70201303614E-04 +7.51554681499E-01 +4.07174684450E-01
2.69500000000E+09 +7.58860790697E-01 +2.70044290192E-01 -1.47180582121E-04 -4.18282614038E-04 -1.30765482166E-04 -3.72070105759E-04 +7.54153183361E-01 +3.94631273969E-01
2.70000000000E+09 +7.60299200055E-01 +2.56116088153E-01 -1.67171609535E-04 -3.99865181711E-04 -7.40402837689E-05 -4.07977222104E-04 +7.56956393753E-01 +3.81620042948E-01
2.70500000000E+09 +7.61703554515E-01 +2.42653635793E-01 -2.81713172296E-04 -4.37917822476E-04 -2.18824966883E-04 -3.98661247093E-04 +7.60092921128E-01 +3.68413752788E-01
2.71000000000E+09 +7.62964688315E-01 +2.29072572679E-01 -3.04138426602E-04 -2.73709822150E-04 -2.39618151704E-04 -3.20492198734E-04 +7.62804046099E-01 +3.55519336939E-01
2.71500000000E+09 +7.64285416943E-01 +2.15344479734E-01 -2.33041741512E-04 -3.31386735396E-04 -2.19332658946E-04 -3.27832481545E-04 +7.65654969873E-01 +3.43006140589E-01
2.72000000000E+09 +7.65504238676E-01 +2.00778615421E-01 -4.19529219256E-04 -4.12028828769E-04 -4.70859319828E-04 -4.27511599435E-04 +7.67403701824E-01 +3.29874520024E-01
2.72500000000E+09 +7.66172775207E-01 +1.85236002898E-01 -5.81158180336E-04 -2.58894111244E-04 -5.59468831648E-04 -2.19160516407E-04 +7.68484179449E-01 +3.16608017325E-01
2.73000000000E+09 +7.66077594489E-01 +1.68576807234E-01 -6.89344540714E-04 -6.27241421662E-05 -6.24366543526E-04 -4.25952773483E-05 +7.69427993116E-01 +3.02743279755E-01
2.73500000000E+09 +7.64598562391E-01 +1.50658671382E-01 -6.64743579726E-04 +2.59665256914E-04 -5.51335771475E-04 +2.32990039027E-04 +7.70485366231E-01 +2.88453036634E-01
2.74000000000E+09 +7.62220778821E-01 +1.33144994610E-01 -3.48262374888E-04 +3.92505767846E-04 -3.54201811668E-04 +3.48425505048E-04 +7.72130169591E-01 +2.73609541373E-01
2.74500000000E+09 +7.59117377001E-01 +1.15104369653E-01 -2.07327178249E-04 +3.62805888999E-04 -2.46162112278E-04 +3.28407561831E-04 +7.73477844451E-01 +2.58397223070E-01
2.75000000000E+09 +7.55270541616E-01 +9.70018956257E-02 -8.48043694373E-05 +2.85718946742E-04 -4.27820739242E-05 +3.08985634982E-04 +7.74505512626E-01 +2.43498665539E-01
2.75500000000E+09 +7.50791081746E-01 +7.90159892329E-02 -8.15896765516E-05 +1.13907717659E-04 -7.73753780839E-05 +1.85356698108E-04 +7.74498714467E-01 +2.28517667700E-01
2.76000000000E+09 +7.46241484817E-01 +6.15188241681E-02 -2.30366987428E-04 +2.88750452236E-04 -2.46814442771E-04 +3.15504248892E-04 +7.74521292637E-01 +2.13220352379E-01
2.76500000000E+09 +7.41793570066E-01 +4.34697040116E-02 -4.52563157668E-05 +4.50480888230E-04 -6.46891197070E-05 +5.29923130869E-04 +7.73804115067E-01 +1.96254394448E-01
2.77000000000E+09 +7.36818218254E-01 +2.47986081745E-02 +1.17414360100E-04 +4.29639700954E-04 +1.92889296541E-04 +4.55467191991E-04 +7.72591557485E-01 +1.79169141970E-01
2.77500000000E+09 +7.32113897522E-01 +5.69209515887E-03 +2.69673056863E-04 +4.54941257989E-04 +1.98232522029E-04 +4.85308923319E-04 +7.71070259474E-01 +1.61174319755E-01
2.78000000000E+09 +7.27317306586E-01 -1.49580768835E-02 +4.81242662546E-04 +4.28939670910E-04 +5.03699894164E-04 +4.70828745133E-04 +7.69286073429E-01 +1.43377119268E-01
2.78500000000E+09 +7.21244266201E-01 -3.65422093157E-02 +7.57249057561E-04 +2.44518809911E-04 +7.70336315239E-04 +1.99858678706E-04 +7.66745682083E-01 +1.25413533641E-01
2.79000000000E+09 +7.14666093240E-01 -5.86820890910E-02 +7.18207606838E-04 -2.17510482014E-04 +6.72416253910E-04 -2.75596832983E-04 +7.63586158677E-01 +1.08006937158E-01
2.79500000000E+09 +7.06767905071E-01 -8.10468166324E-02 +4.68911699726E-04 -3.17244904901E-04 +4.99531048352E-04 -3.37068820805E-04 +7.59448943272E-01 +9.00326204308E-02
2.80000000000E+09 +6.97419608349E-01 -1.02557753483E-01 +2.88169043883E-04 -3.80063633062E-04 +2.82465731399E-04 -3.80656818552E-04 +7.54517948030E-01 +7.15643910733E-02
2.80500000000E+09 +6.87593596678E-01 -1.22431594992E-01 +3.69156535699E-04 -2.96697164354E-04 +3.10244555561E-04 -2.31174895169E-04 +7.48641509660E-01 +5.24042232038E-02
2.81000000000E+09 +6.77425514080E-01 -1.41151814693E-01 +4.51213881837E-04 -3.15431726141E-04 +5.24640013237E-04 -3.40257973293E-04 +7.41762621499E-01 +3.31405929304E-02
2.81500000000E+09 +6.66939629459E-01 -1.59015925656E-01 +5.08382972519E-04 -6.74764532230E-04 +4.27390045414E-04 -6.84520778586E-04 +7.34791366627E-01 +1.41463051777E-02
2.82000000000E+09 +6.55538730922E-01 -1.76676962462E-01 +2.70531052464E-04 -8.04088392626E-04 +2.43850558447E-04 -8.17736101364E-04 +7.27348314842E-01 -5.24007016042E-03
2.82500000000E+09 +6.42776455053E-01 -1.94190235515E-01 +2.62391705174E-04 -1.00298874332E-03 +2.33365775699E-04 -9.95163218508E-04 +7.19373552916E-01 -2.46129420685E-02
2.83000000000E+09 +6.28460941803E-01 -2.12270340350E-01 -1.54960844016E-04 -1.38075761999E-03 -1.21771762367E-04 -1.28320222146E-03 +7.10657270964E-01 -4.48187399653E-02
2.83500000000E+09 +6.12224189336E-01 -2.30555621078E-01 -7.49898878501E-04 -1.16141378613E-03 -6.85176267796E-04 -1.12405658453E-03 +7.00083255283E-01 -6.49482426506E-02
2.84000000000E+09 +5.94276206436E-01 -2.49543610368E-01 -9.45130912243E-04 -8.17054538190E-04 -9.23956247294E-04 -8.62971874269E-04 +6.89003143823E-01 -8.55637286175E-02
2.84500000000E+09 +5.73887181573E-01 -2.69605036073E-01 -9.81461610332E-04 -5.97885972876E-04 -9.81532554749E-04 -5.94542072984E-04 +6.76484372763E-01 -1.05781151971E-01
2.85000000000E+09 +5.51957466660E-01 -2.89227404879E-01 -1.08518921837E-03 -5.35908944639E-04 -1.07752008680E-03 -5.41445181957E-04 +6.62931969130E-01 -1.26391396893E-01
2.85500000000E+09 +5.28160666393E-01 -3.08859368076E-01 -1.24166231589E-03 -3.62805022575E-04 -1.25207796551E-03 -3.39797909290E-04 +6.48102349651E-01 -1.46331668225E-01
2.86000000000E+09 +5.03920192102E-01 -3.27284005480E-01 -1.15177610863E-03 -1.20283329150E-04 -1.09591139862E-03 -9.35901923002E-05 +6.32679643600E-01 -1.66801769804E-01
2.86500000000E+09 +4.79453878138E-01 -3.45043148673E-01 -1.20301710351E-03 -1.44652372409E-04 -1.23045137130E-03 -1.29000379464E-04 +6.15323804686E-01 -1.87456524952E-01
2.87000000000E+09 +4.54269170655E-01 -3.61552456593E-01 -1.38169523320E-03 -1.87489973484E-05 -1.36075564439E-03 +3.33215769678E-06 +5.95911250480E-01 -2.07581416459E-01
2.87500000000E+09 +4.29066692886E-01 -3.76667036482E-01 -1.71503324155E-03 +5.20004318039E-05 -1.64840548213E-03 +1.06826634216E-04 +5.75850313154E-01 -2.26629223636E-01
2.88000000000E+09 +4.03173778058E-01 -3.90265950298E-01 -2.05558110793E-03 +7.21064884554E-04 -2.00662053847E-03 +7.77110311415E-04 +5.54567430223E-01 -2.45780048312E-01
2.88500000000E+09 +3.76759164668E-01 -4.02564366739E-01 -1.63169405158E-03 +1.68614085937E-03 -1.49996087138E-03 +1.63444797034E-03 +5.31322087801E-01 -2.63741435397E-01
2.89000000000E+09 +3.48933885297E-01 -4.14477174693E-01 -8.35142606515E-04 +1.72388984482E-03 -7.88888180063E-04 +1.63217893436E-03 +5.06269584365E-01 -2.81313551194E-01
2.89500000000E+09 +3.18292558573E-01 -4.24925778101E-01 -5.53546473585E-04 +1.50554818994E-03 -5.72494676824E-04 +1.47147176095E-03 +4.80110088513E-01 -2.97612165053E-01
2.90000000000E+09 +2.85710119918E-01 -4.33384277746E-01 -6.48207111167E-04 +1.46840660547E-03 -7.43715258483E-04 +1.39023920139E-03 +4.52557307410E-01 -3.14028042176E-01
2.90500000000E+09 +2.50839837829E-01 -4.40143827013E-01 -5.45159879175E-04 +1.62447696565E-03 -5.87174209590E-04 +1.64858940434E-03 +4.23050113174E-01 -3.29556837688E-01
2.91000000000E+09 +2.15150708067E-01 -4.44628873936E-01 -4.35673604224E-04 +1.88564825879E-03 -4.03379970855E-04 +1.86668751902E-03 +3.92581951140E-01 -3.42774296341E-01
2.91500000000E+09 +1.78142807529E-01 -4.47856879895E-01 +1.02275529156E-05 +2.02452685077E-03 +5.74806047069E-05 +1.91914809899E-03 +3.61710130136E-01 -3.54407197556E-01
2.92000000000E+09 +1.40478657078E-01 -4.48032634887E-01 +1.18691883406E-04 +2.06524631670E-03 +1.11008586281E-04 +1.95568824811E-03 +3.29020591927E-01 -3.65070318196E-01
2.92500000000E+09 +1.03788413745E-01 -4.46893307388E-01 +4.40078640935E-04 +2.39965965972E-03 +3.19828501331E-04 +2.30579557745E-03 +2.94202955723E-01 -3.72823852240E-01
2.93000000000E+09 +6.72052240440E-02 -4.43655247384E-01 +1.34582585778E-03 +2.30131304832E-03 +1.15975863482E-03 +2.32368590758E-03 +2.58006115689E-01 -3.79197681769E-01
2.93500000000E+09 +3.14124499859E-02 -4.38795553133E-01 +1.51758761962E-03 +1.79815274989E-03 +1.43601945255E-03 +1.88395193743E-03 +2.20346203088E-01 -3.83001427615E-01
2.94000000000E+09 -4.41401680879E-03 -4.32114613628E-01 +1.69484873119E-03 +1.69719835898E-03 +1.72720111646E-03 +1.69392683926E-03 +1.82598607239E-01 -3.85101428682E-01
2.94500000000E+09 -4.07222527822E-02 -4.22496478005E-01 +1.99584034129E-03 +1.78021130958E-03 +1.97019000530E-03 +1.76159995341E-03 +1.44591559106E-01 -3.86347534551E-01
2.95000000000E+09 -7.64484086759E-02 -4.09475947636E-01 +2.60702154737E-03 +1.21270394903E-03 +2.53440763719E-03 +1.34042535698E-03 +1.04824398816E-01 -3.84881830038E-01
2.95500000000E+09 -1.11960455555E-01 -3.92903478822E-01 +2.94702656544E-03 +7.60923949613E-04 +2.96098362302E-03 +8.87468648450E-04 +6.47955766387E-02 -3.79019397095E-01
2.96000000000E+09 -1.45849317930E-01 -3.73317738081E-01 +2.80986302026E-03 +1.63637114434E-04 +2.92658275401E-03 +2.00760798578E-04 +2.59740360111E-02 -3.70232757214E-01
2.96500000000E+09 -1.78924473697E-01 -3.50830154624E-01 +2.81496133791E-03 -8.55666761014E-05 +2.93806985716E-03 -6.41494212822E-05 -1.39720515624E-02 -3.59447913068E-01
2.97000000000E+09 -2.10291156201E-01 -3.25372507642E-01 +3.31734761100E-03 -5.25962809825E-04 +3.32952195650E-03 -6.65307081946E-04 -5.27823846698E-02 -3.44895274054E-01
2.97500000000E+09 -2.39537366088E-01 -2.98442665292E-01 +3.21115289540E-03 -1.60650569844E-03 +3.14368497513E-03 -1.57658588232E-03 -9.16936055004E-02 -3.29483340598E-01
2.98000000000E+09 -2.68276293064E-01 -2.70148927036E-01 +2.46182819720E-03 -2.35849515628E-03 +2.44416076617E-03 -2.20337619736E-03 -1.29688224435E-01 -3.10345284094E-01
2.98500000000E+09 -2.95118241715E-01 -2.39060664731E-01 +1.62019153253E-03 -2.33899376028E-03 +1.66580356669E-03 -2.33846904694E-03 -1.66266843091E-01 -2.88562268688E-01
2.99000000000E+09 -3.19503239646E-01 -2.07108712630E-01 +1.44503605061E-03 -2.13414926219E-03 +1.62814317780E-03 -2.21288743042E-03 -2.00980353622E-01 -2.63836746621E-01
2.99500000000E+09 -3.42236984157E-01 -1.75044780380E-01 +1.80381246879E-03 -2.41173640215E-03 +1.77541016015E-03 -2.55572276167E-03 -2.34675338616E-01 -2.36388223203E-01
3.00000000000E+09 -3.63825411065E-01 -1.40894500056E-01 +1.18294874500E-03 -3.36289227169E-03 +9.68582532587E-04 -3.37186291863E-03 -2.66539435945E-01 -2.04968418389E-01
3.00500000000E+09 -3.82064199606E-01 -1.06104537539E-01 +1.39898740999E-04 -3.52741708506E-03 -3.35713967655E-05 -3.39696436468E-03 -2.95125822707E-01 -1.72203706130E-01
3.01000000000E+09 -3.98247474811E-01 -7.10142076526E-02 -7.88809604656E-04 -3.03203369756E-03 -7.44562945974E-04 -2.91687642597E-03 -3.22181513272E-01 -1.37602712018E-01
3.01500000000E+09 -4.11183902420E-01 -3.52698249675E-02 -8.00090115848E-04 -2.57275314835E-03 -7.50748559247E-04 -2.50196285041E-03 -3.45880813711E-01 -1.02018607158E-01
3.02000000000E+09 -4.21404884885E-01 +1.40814894566E-04 -1.16094767011E-03 -2.57974634988E-03 -1.09175063312E-03 -2.58614744679E-03 -3.67320382266E-01 -6.55756867085E-02
3.02500000000E+09 -4.28638034149E-01 +3.52571228123E-02 -1.43598744217E-03 -2.40690581731E-03 -1.46261591217E-03 -2.35370796120E-03 -3.85500531982E-01 -2.65271136018E-02
3.03000000000E+09 -4.33413087309E-01 +7.03602867750E-02 -2.02776722709E-03 -2.18493963100E-03 -1.98913292130E-03 -2.24841770175E-03 -3.99748292818E-01 +1.27694993179E-02
3.03500000000E+09 -4.34247145381E-01 +1.05684109156E-01 -2.49925467605E-03 -1.34263332368E-03 -2.40378555354E-03 -1.45945732269E-03 -4.11405194608E-01 +5.25255000581E-02
3.04000000000E+09 -4.32822536742E-01 +1.39145100151E-01 -2.15486655069E-03 -1.01610564248E-03 -2.22433561108E-03 -1.07858591741E-03 -4.20554045649E-01 +9.22943519573E-02
3.04500000000E+09 -4.29698217961E-01 +1.73303851121E-01 -2.13429997117E-03 -7.41985847238E-04 -2.22606967143E-03 -8.62157277033E-04 -4.26812051174E-01 +1.32627299507E-01
3.05000000000E+09 -4.23346858519E-01 +2.07300840008E-01 -2.26138263415E-03 -6.41765488657E-04 -2.43943059028E-03 -5.80540754913E-04 -4.30222991555E-01 +1.71901560190E-01
3.05500000000E+09 -4.15087179065E-01 +2.40545131115E-01 -2.49144260138E-03 -6.87803805982E-05 -2.55320446969E-03 +1.70175052512E-04 -4.30898614150E-01 +2.10519898935E-01
3.06000000000E+09 -4.05216515929E-01 +2.73314195549E-01 -2.27960863853E-03 +4.62903664310E-04 -2.12558637250E-03 +5.31060059848E-04 -4.29785299354E-01 +2.48012654564E-01
3.06500000000E+09 -3.93301017338E-01 +3.05618411463E-01 -1.92080291585E-03 +8.22688129194E-04 -1.83426063529E-03 +7.22422006879E-04 -4.25679589717E-01 +2.85333947854E-01
3.07000000000E+09 -3.80022479057E-01 +3.35949377359E-01 -1.52077302793E-03 +8.22577587485E-04 -1.50915696868E-03 +7.14934006076E-04 -4.19734749794E-01 +3.21443506789E-01
