# Hz S RI R 50
! CMT, C1220, 16058040, 17.2.0/1
! Date: 15/08/2018 10:33:41
! Data: Format (Calibration Info)
! Freq                      S11: Re/Im (F2)                       S21: Re/Im (F2)                       S12: Re/Im (F2)                       S22: Re/Im (F2)            
2.50000000000E+09 +5.78243574769E-01 +6.66889530371E-01 -1.72213012416E-04 +4.64355013408E-05 -1.58135251833E-04 +4.80916959138E-05 +5.65463601281E-01 +7.22500969056E-01
2.50500000000E+09 +5.85495915675E-01 +6.58829499107E-01 -5.53233273491E-05 +2.99742493348E-05 -6.45217664175E-05 -1.42592824773E-05 +5.71031619821E-01 +7.16822595460E-01
2.51000000000E+09 +5.93320926135E-01 +6.50515986458E-01 -1.75919234835E-05 -7.29658510872E-06 -1.92956326214E-05 -3.27156633294E-05 +5.76675071502E-01 +7.11689272249E-01
2.51500000000E+09 +6.00697573442E-01 +6.42605374334E-01 -1.47440514479E-04 -1.28893159200E-04 -1.43798004930E-04 -1.45039140525E-04 +5.82044386172E-01 +7.06381682621E-01
2.52000000000E+09 +6.07705137766E-01 +6.34641424874E-01 -1.63385066141E-04 -4.53632821786E-06 -2.18087947425E-04 +1.97313039492E-05 +5.87399884794E-01 +7.00443713265E-01
2.52500000000E+09 +6.13634919112E-01 +6.27195946235E-01 -9.73216756422E-05 +2.13603243857E-05 -1.26724744784E-04 -6.44949757767E-06 +5.92985528376E-01 +6.94059395508E-01
2.53000000000E+09 +6.19092685650E-01 +6.20228608742E-01 -1.12410491286E-04 -7.20373763761E-06 -1.15781512044E-04 -3.15014601154E-05 +5.99272390079E-01 +6.87115660069E-01
2.53500000000E+09 +6.23901236167E-01 +6.13104274877E-01 -1.58335099218E-04 -1.55559691192E-05 -1.18904979726E-04 -1.81616676381E-05 +6.05198987270E-01 +6.80244939721E-01
2.54000000000E+09 +6.28407217910E-01 +6.06259792200E-01 -1.66761469036E-04 -2.70007523609E-06 -1.61087415582E-04 -7.08648093152E-05 +6.11270250414E-01 +6.73831425461E-01
2.54500000000E+09 +6.33135774374E-01 +5.99192152896E-01 -2.59370792232E-04 +2.01027321486E-05 -1.88250734005E-04 +3.15851074719E-05 +6.17052626195E-01 +6.67586093710E-01
2.55000000000E+09 +6.38212294686E-01 +5.91619118339E-01 -2.30728933334E-04 +7.64634428011E-05 -2.48829384748E-04 +6.08294389362E-05 +6.22417366786E-01 +6.61312744946E-01
2.55500000000E+09 +6.43697116206E-01 +5.83441764817E-01 -1.33658556207E-04 +1.67248442561E-04 -1.71361400366E-04 +1.57002705536E-04 +6.27555568240E-01 +6.54752679162E-01
2.56000000000E+09 +6.50087723180E-01 +5.75479464593E-01 -6.87564255323E-05 +1.35750705298E-04 -8.93361769206E-05 +1.26677627398E-04 +6.32816367536E-01 +6.47446298427E-01
2.56500000000E+09 +6.57130317266E-01 +5.66952750499E-01 -5.16672407492E-05 +7.45964683127E-05 -3.38258093720E-05 +1.49631581858E-04 +6.37860705391E-01 +6.39836199575E-01
2.57000000000E+09 +6.64285244433E-01 +5.58290068110E-01 -1.06165774723E-04 +1.12661400648E-04 -1.28273408460E-04 +8.94527133563E-05 +6.43037667933E-01 +6.32000350994E-01
2.57500000000E+09 +6.71004882613E-01 +5.49422551884E-01 -1.28105663359E-04 +1.34920022145E-04 -9.50517128630E-05 +1.55435224604E-04 +6.48677517252E-01 +6.24373376082E-01
2.58000000000E+09 +6.76824902560E-01 +5.41186791890E-01 -1.36881197990E-04 +2.00201052705E-04 -9.00789525803E-05 +1.33109533287E-04 +6.53697501166E-01 +6.16574734699E-01
2.58500000000E+09 +6.82050000536E-01 +5.33183777946E-01 -7.13095909477E-05 +2.36660956366E-04 -8.98767563394E-05 +1.88341460504E-04 +6.58361006759E-01 +6.09021443202E-01
2.59000000000E+09 +6.87065234571E-01 +5.25621694553E-01 +2.92638538766E-05 +2.41874264083E-04 -3.78504538848E-05 +2.33041549804E-04 +6.63085883912E-01 +6.01573391126E-01
2.59500000000E+09 +6.91557671549E-01 +5.17515116145E-01 +5.74013731817E-05 +2.28688255593E-04 +3.98659910835E-05 +2.39481625775E-04 +6.67977181136E-01 +5.93623477525E-01
2.60000000000E+09 +6.95569160074E-01 +5.08614141415E-01 +7.65796569422E-05 +1.53816833898E-04 +3.50638395437E-05 +1.65293302419E-04 +6.72842553945E-01 +5.85344028426E-01
2.60500000000E+09 +6.99562942421E-01 +4.98978438903E-01 +3.92991045409E-05 +1.76525388221E-04 +5.70575206349E-05 +1.59638667832E-04 +6.78135484737E-01 +5.76810891079E-01
2.61000000000E+09 +7.03913924391E-01 +4.88425037330E-01 +6.77735549267E-05 +1.79156595275E-04 +7.16179986022E-05 +1.11918104538E-04 +6.83339913912E-01 +5.68105886812E-01
2.61500000000E+09 +7.08867026499E-01 +4.76718907810E-01 +1.81532849743E-04 +8.41359121447E-05 +1.25005983153E-04 +1.36658952450E-04 +6.88292959286E-01 +5.59543021114E-01
2.62000000000E+09 +7.13745155576E-01 +4.63469016413E-01 +9.32839366380E-05 -4.35419352385E-05 +5.49130868873E-05 -2.10059762308E-05 +6.93127430320E-01 +5.50570672203E-01
2.62500000000E+09 +7.18440516509E-01 +4.49749187830E-01 -1.02774596991E-04 +9.29426167852E-05 -3.97252605853E-05 +7.62531169330E-05 +6.97752362615E-01 +5.41550362937E-01
2.63000000000E+09 +7.23046371669E-01 +4.35852427277E-01 -3.22667348304E-05 +2.06388394009E-04 -3.02976507279E-06 +2.26812719915E-04 +7.02340739896E-01 +5.32582872538E-01
2.63500000000E+09 +7.26983266204E-01 +4.22358478823E-01 +3.75552360789E-05 +2.30341551319E-04 +1.02561054177E-04 +2.02567230420E-04 +7.06910309727E-01 +5.23673957810E-01
2.64000000000E+09 +7.30677685044E-01 +4.09792294119E-01 +1.70296834822E-04 +3.23288847113E-04 +2.03836483476E-04 +2.10193576130E-04 +7.11421274111E-01 +5.14168293630E-01
2.64500000000E+09 +7.34096750052E-01 +3.97987881197E-01 +3.07500135758E-04 +9.64888519476E-05 +2.10965533170E-04 +6.86886296223E-05 +7.16036673385E-01 +5.04343948765E-01
2.65000000000E+09 +7.36887690870E-01 +3.87034333323E-01 +2.22487710318E-04 +5.16767547140E-05 +2.09209490952E-04 +7.79551381273E-05 +7.20189357329E-01 +4.94300314490E-01
2.65500000000E+09 +7.39856380133E-01 +3.75855746479E-01 +1.87816191784E-04 -7.21313822528E-06 +1.88352568621E-04 +2.53189166466E-05 +7.23975331883E-01 +4.83850767652E-01
2.66000000000E+09 +7.42841327486E-01 +3.64666511279E-01 +1.66949175723E-04 +5.68415046123E-06 +2.03530417050E-04 +1.15347036119E-05 +7.27804253258E-01 +4.72899644514E-01
2.66500000000E+09 +7.45634977088E-01 +3.53232903748E-01 +1.09153076969E-04 -4.00764703196E-06 +1.34139231958E-04 -1.07899841974E-05 +7.32062472515E-01 +4.62174606325E-01
2.67000000000E+09 +7.48555142808E-01 +3.40568178923E-01 +2.73551742859E-04 -4.96556798588E-06 +2.26882112113E-04 -5.11806377068E-05 +7.36547095176E-01 +4.51399543859E-01
2.67500000000E+09 +7.51215913033E-01 +3.26834656081E-01 +1.80874543794E-04 -1.20701526207E-04 +1.40105659414E-04 -7.69734954016E-05 +7.40544212771E-01 +4.40479265231E-01
2.68000000000E+09 +7.53467452855E-01 +3.12175834660E-01 +1.85088802020E-04 -1.48522842152E-04 +1.71587437090E-04 -1.35116209621E-04 +7.44485028691E-01 +4.29651483348E-01
2.68500000000E+09 +7.55069661804E-01 +2.97326333366E-01 +8.06031042964E-05 -2.67797098700E-04 +1.21275819970E-04 -2.31338489305E-04 +7.47865238720E-01 +4.18028150707E-01
2.69000000000E+09 +7.56453941874E-01 +2.82828718131E-01 -4.07299536937E-05 -1.80410984269E-04 -7.28311788742E-05 -1.58280568007E-04 +7.50354208008E-01 +4.06049723023E-01
2.69500000000E+09 +7.58005844629E-01 +2.68753614683E-01 -6.64556117176E-05 -1.10741926018E-04 -5.08607937059E-05 -1.29950550098E-04 +7.53065658173E-01 +3.93688538665E-01
2.70000000000E+09 +7.59437000188E-01 +2.54926128091E-01 -7.02875307330E-05 -1.30451072892E-04 -8.93373239834E-05 -1.49319562695E-04 +7.55853789030E-01 +3.80752418689E-01
2.70500000000E+09 +7.60882475020E-01 +2.41452699955E-01 -2.05384371850E-04 -3.42727151082E-05 -1.54180536406E-04 -9.67930948794E-05 +7.58974822883E-01 +3.67561767679E-01
2.71000000000E+09 +7.61951242550E-01 +2.27918922049E-01 -1.74084444781E-04 +3.86335129478E-05 -1.78438214103E-04 +1.99791615098E-05 +7.61672938160E-01 +3.54642216812E-01
2.71500000000E+09 +7.63322193613E-01 +2.14348084135E-01 -9.21613162617E-05 +1.95541695618E-05 -9.22169327618E-05 +4.12527331297E-05 +7.64179125784E-01 +3.41976441640E-01
2.72000000000E+09 +7.64436729221E-01 +1.99832186164E-01 -1.39486620932E-04 +1.17554157343E-05 -1.79778036766E-04 +8.61922630599E-06 +7.65787344314E-01 +3.29358286308E-01
2.72500000000E+09 +7.65073590396E-01 +1.84374246177E-01 -2.28495677290E-04 +9.84624251947E-05 -1.91501028600E-04 +1.33270066733E-04 +7.66763258052E-01 +3.16280590703E-01
2.73000000000E+09 +7.64924478238E-01 +1.67579635967E-01 -2.23611655752E-04 +2.32792968420E-04 -1.52763365852E-04 +2.60214237414E-04 +7.67602745394E-01 +3.02574719742E-01
2.73500000000E+09 +7.63411772317E-01 +1.49747624495E-01 -1.38852108158E-04 +4.15613935135E-04 -1.31023970873E-04 +3.76708119696E-04 +7.68632486603E-01 +2.88603687855E-01
2.74000000000E+09 +7.60919834749E-01 +1.32054265504E-01 +1.01221187360E-04 +5.01183772950E-04 +4.31601690032E-05 +4.65729238875E-04 +7.70573007155E-01 +2.73999686694E-01
2.74500000000E+09 +7.57581695078E-01 +1.14070360491E-01 +2.41654740643E-04 +4.30573198807E-04 +1.47401357312E-04 +4.28646111074E-04 +7.71955026097E-01 +2.58967649658E-01
2.75000000000E+09 +7.53673105441E-01 +9.59924065410E-02 +3.79665956134E-04 +3.92788310824E-04 +3.00227994803E-04 +4.52839990216E-04 +7.72999760973E-01 +2.43973672546E-01
2.75500000000E+09 +7.49021428647E-01 +7.82367840745E-02 +4.18996434531E-04 +2.67451120331E-04 +4.46763180376E-04 +3.28418110983E-04 +7.72954797885E-01 +2.29378027532E-01
2.76000000000E+09 +7.44696891770E-01 +6.07045591854E-02 +4.00976013376E-04 +3.28025513092E-04 +3.96691942002E-04 +3.60372201076E-04 +7.73121435203E-01 +2.14515958811E-01
2.76500000000E+09 +7.40125134874E-01 +4.25442425167E-02 +6.77681728395E-04 +3.40713776423E-04 +7.11644000098E-04 +3.18995414478E-04 +7.72484460382E-01 +1.97805169358E-01
2.77000000000E+09 +7.35065648470E-01 +2.40753728210E-02 +7.62254667551E-04 +7.67828943856E-06 +7.50105863939E-04 -1.07534096160E-05 +7.71675536230E-01 +1.80883872603E-01
2.77500000000E+09 +7.30506927023E-01 +5.00778265053E-03 +6.44378264151E-04 -1.48988920497E-06 +6.51928078698E-04 -6.71464929618E-05 +7.70442368659E-01 +1.62917400747E-01
2.78000000000E+09 +7.25769439632E-01 -1.57261783723E-02 +8.06556531537E-04 -6.87278478553E-05 +8.10496285488E-04 -1.16926875179E-04 +7.68922432798E-01 +1.45033115250E-01
2.78500000000E+09 +7.19472904634E-01 -3.73624458297E-02 +9.56085819314E-04 -2.19352182746E-04 +8.84410761279E-04 -2.88182135876E-04 +7.66570191129E-01 +1.27076111310E-01
2.79000000000E+09 +7.12966463203E-01 -5.94950390272E-02 +9.10425421720E-04 -4.90528000470E-04 +8.25491046083E-04 -5.61177857181E-04 +7.63396737010E-01 +1.09749296488E-01
2.79500000000E+09 +7.04976297771E-01 -8.18092647461E-02 +8.79876048665E-04 -6.88451081182E-04 +7.85758972550E-04 -6.76141478942E-04 +7.59215276287E-01 +9.19282733673E-02
2.80000000000E+09 +6.95656950268E-01 -1.03142557675E-01 +6.55920736509E-04 -9.47447515500E-04 +6.13485552905E-04 -8.52389263213E-04 +7.54541309828E-01 +7.38213115468E-02
2.80500000000E+09 +6.86176502162E-01 -1.22961739647E-01 +3.97096119734E-04 -8.86663110245E-04 +4.74954386157E-04 -8.99347438407E-04 +7.48904925722E-01 +5.46134177865E-02
2.81000000000E+09 +6.76046357723E-01 -1.41987059453E-01 +4.96644229615E-04 -9.59580718018E-04 +5.15965458330E-04 -8.98729717068E-04 +7.42544785193E-01 +3.58776481443E-02
2.81500000000E+09 +6.65474463457E-01 -1.59861475468E-01 +4.07106260582E-04 -1.11481435156E-03 +4.52528409340E-04 -1.12411154619E-03 +7.36253677035E-01 +1.65807431757E-02
2.82000000000E+09 +6.53946469153E-01 -1.77536857544E-01 +2.60381497010E-04 -1.27907817996E-03 +2.20798491433E-04 -1.29677797054E-03 +7.29216013673E-01 -3.17697451251E-03
2.82500000000E+09 +6.41093887768E-01 -1.95019235476E-01 +2.18890483012E-04 -1.38739003617E-03 +1.10131454818E-04 -1.37996346022E-03 +7.21313423360E-01 -2.27357410364E-02
2.83000000000E+09 +6.26380167297E-01 -2.12949764644E-01 -1.79817955476E-04 -1.72101767213E-03 -1.51406635066E-04 -1.67337419958E-03 +7.12747779409E-01 -4.28285520517E-02
2.83500000000E+09 +6.10224377413E-01 -2.31033304855E-01 -6.40512413544E-04 -1.69971064001E-03 -6.35175632834E-04 -1.68174570817E-03 +7.02832314841E-01 -6.28641155494E-02
2.84000000000E+09 +5.92280824732E-01 -2.50088652595E-01 -1.03465041426E-03 -1.50860897342E-03 -9.77304719070E-04 -1.50700813390E-03 +6.92265937091E-01 -8.36303927350E-02
2.84500000000E+09 +5.71554360806E-01 -2.70177385485E-01 -1.25131489465E-03 -1.27365722902E-03 -1.23323825289E-03 -1.28716943797E-03 +6.80365903769E-01 -1.04164996847E-01
2.85000000000E+09 +5.49396377212E-01 -2.89661492171E-01 -1.39334805443E-03 -1.11437624883E-03 -1.39006314481E-03 -1.15877285721E-03 +6.67402732094E-01 -1.25535814879E-01
2.85500000000E+09 +5.25547158680E-01 -3.09150755185E-01 -1.73203209390E-03 -9.10736945616E-04 -1.70183747352E-03 -8.91252420220E-04 +6.52829917366E-01 -1.46375275702E-01
2.86000000000E+09 +5.01400285360E-01 -3.27367758873E-01 -1.55094818330E-03 -6.00587014118E-04 -1.56827563145E-03 -5.82546794800E-04 +6.37481586968E-01 -1.67611545271E-01
2.86500000000E+09 +4.76568559204E-01 -3.45135333416E-01 -1.74467245213E-03 -5.15473655143E-04 -1.72973440418E-03 -5.02791968053E-04 +6.19821635536E-01 -1.89032636771E-01
2.87000000000E+09 +4.51237024708E-01 -3.60988396798E-01 -1.74907108395E-03 -4.08923744335E-04 -1.76459080556E-03 -4.16660376449E-04 +6.00370120601E-01 -2.09561159822E-01
2.87500000000E+09 +4.26474546291E-01 -3.75565255001E-01 -2.19307943096E-03 -5.80541534351E-04 -2.26672725210E-03 -4.92427793753E-04 +5.80354713144E-01 -2.29029402167E-01
2.88000000000E+09 +4.00806312591E-01 -3.88957149309E-01 -2.89675106216E-03 +1.62520085148E-04 -2.80134352333E-03 +2.52104026238E-04 +5.59100308640E-01 -2.48801626606E-01
2.88500000000E+09 +3.74718259840E-01 -4.01363269682E-01 -2.74563001464E-03 +1.39850779807E-03 -2.61443297615E-03 +1.29403476124E-03 +5.35754132602E-01 -2.67782353782E-01
2.89000000000E+09 +3.46799487484E-01 -4.13272834059E-01 -1.85600938472E-03 +1.87476988955E-03 -1.79124393386E-03 +1.68245586985E-03 +5.10104740592E-01 -2.86038637604E-01
2.89500000000E+09 +3.15935638032E-01 -4.23547989846E-01 -1.34181358511E-03 +1.56129599424E-03 -1.32895518529E-03 +1.46859694534E-03 +4.83220864310E-01 -3.03363984765E-01
2.90000000000E+09 +2.83185661578E-01 -4.32083776966E-01 -1.57537700334E-03 +1.62351296340E-03 -1.67379636423E-03 +1.52376337770E-03 +4.54760993024E-01 -3.20108412806E-01
2.90500000000E+09 +2.48352498322E-01 -4.38425497256E-01 -1.44833526202E-03 +1.91757787616E-03 -1.38029607314E-03 +1.94169125138E-03 +4.24750649864E-01 -3.35854200073E-01
2.91000000000E+09 +2.12758757052E-01 -4.42992391056E-01 -1.29978770086E-03 +2.21512518746E-03 -1.19725431330E-03 +2.20324317969E-03 +3.93264261593E-01 -3.49556611065E-01
2.91500000000E+09 +1.75820406123E-01 -4.46002186322E-01 -1.00880390963E-03 +2.39369408757E-03 -8.68035746255E-04 +2.30924793801E-03 +3.61840457377E-01 -3.61039135215E-01
2.92000000000E+09 +1.38572491402E-01 -4.46011012882E-01 -8.81042330305E-04 +2.74865501724E-03 -8.59504359939E-04 +2.53979391583E-03 +3.28873350610E-01 -3.72016269000E-01
2.92500000000E+09 +1.02075649525E-01 -4.44802480862E-01 -4.48640080497E-04 +3.39149208851E-03 -6.22190546526E-04 +3.17605964467E-03 +2.92929825129E-01 -3.80577213755E-01
2.93000000000E+09 +6.56724502811E-02 -4.41384872499E-01 +6.58138679349E-04 +3.48498070470E-03 +4.42772241672E-04 +3.44910986860E-03 +2.55004268986E-01 -3.87067980896E-01
2.93500000000E+09 +3.00338030552E-02 -4.36231886287E-01 +1.09275304435E-03 +3.22981010396E-03 +1.04354956582E-03 +3.31175579005E-03 +2.16180333659E-01 -3.90402591519E-01
2.94000000000E+09 -5.60433475455E-03 -4.29305888011E-01 +2.00284892114E-03 +3.07087629850E-03 +2.00566252215E-03 +3.10767600946E-03 +1.77228028198E-01 -3.91951691971E-01
2.94500000000E+09 -4.18747261429E-02 -4.19240300628E-01 +2.31365726715E-03 +2.39255360734E-03 +2.29268892804E-03 +2.43085660661E-03 +1.38226505642E-01 -3.92355842838E-01
2.95000000000E+09 -7.72366884461E-02 -4.05750865564E-01 +2.65518536696E-03 +1.89659852727E-03 +2.52224293106E-03 +2.00131201824E-03 +9.78138045613E-02 -3.90154233828E-01
2.95500000000E+09 -1.11872435455E-01 -3.88609319000E-01 +2.84020420093E-03 +1.61653368290E-03 +2.76279081826E-03 +1.72512814662E-03 +5.67477850265E-02 -3.83540145605E-01
2.96000000000E+09 -1.45134460877E-01 -3.69291127809E-01 +2.86521992655E-03 +1.15884205445E-03 +2.97440147862E-03 +1.30169163112E-03 +1.72197739320E-02 -3.73401913043E-01
2.96500000000E+09 -1.78051362367E-01 -3.47002225833E-01 +3.12502864832E-03 +1.14770426658E-03 +3.34161543227E-03 +1.07057178103E-03 -2.32884170243E-02 -3.61333547433E-01
2.97000000000E+09 -2.09174656258E-01 -3.21623100998E-01 +3.97660099917E-03 +4.78410256181E-04 +3.96348497449E-03 +3.89007794527E-04 -6.24268704545E-02 -3.45530808389E-01
2.97500000000E+09 -2.38120740605E-01 -2.94956382548E-01 +4.15619267305E-03 -7.53627323697E-04 +4.06879198470E-03 -8.45922163177E-04 -1.01674855085E-01 -3.28814033976E-01
2.98000000000E+09 -2.66786293163E-01 -2.66561994174E-01 +3.20185189329E-03 -1.81025650901E-03 +3.15053790064E-03 -1.68859942186E-03 -1.39520908887E-01 -3.07423710114E-01
2.98500000000E+09 -2.92980080983E-01 -2.35460622366E-01 +2.39172373309E-03 -1.84107905601E-03 +2.50005104761E-03 -1.72112963314E-03 -1.74865268639E-01 -2.84573991544E-01
2.99000000000E+09 -3.16398801052E-01 -2.03859794528E-01 +2.26572845851E-03 -1.79195672637E-03 +2.40321600341E-03 -1.83159203539E-03 -2.08925914198E-01 -2.58839948245E-01
2.99500000000E+09 -3.39041862789E-01 -1.72545315449E-01 +2.26934894200E-03 -2.07589255361E-03 +2.34967991227E-03 -2.23205937132E-03 -2.41471107287E-01 -2.30626446117E-01
3.00000000000E+09 -3.60569459001E-01 -1.38423223223E-01 +2.07301683062E-03 -2.64355376417E-03 +1.91636668382E-03 -2.75699024809E-03 -2.72849441465E-01 -1.98768362371E-01
3.00500000000E+09 -3.78563736254E-01 -1.03678191755E-01 +1.20852075197E-03 -3.12045746906E-03 +1.10216083439E-03 -3.02504429930E-03 -3.01074952753E-01 -1.64830973276E-01
3.01000000000E+09 -3.94486033045E-01 -6.86557185043E-02 +5.16345238996E-04 -2.81890677030E-03 +4.59924295891E-04 -2.71869958655E-03 -3.26700074670E-01 -1.29200306991E-01
3.01500000000E+09 -4.07165036585E-01 -3.32603683269E-02 +5.01876457404E-04 -2.65471378025E-03 +5.47578460750E-04 -2.59074906211E-03 -3.48909592060E-01 -9.36514318164E-02
3.02000000000E+09 -4.16994099901E-01 +1.91767970538E-03 +2.57095931825E-05 -3.01631076688E-03 +3.71644242835E-05 -3.02366202145E-03 -3.69242667174E-01 -5.69005273289E-02
3.02500000000E+09 -4.24349685553E-01 +3.67273609023E-02 -4.82076740605E-04 -2.87721911451E-03 -4.90452231317E-04 -2.85953820315E-03 -3.86232200865E-01 -1.79384099861E-02
3.03000000000E+09 -4.28935788150E-01 +7.18068743415E-02 -1.20411420486E-03 -2.59146794760E-03 -1.10730684936E-03 -2.55035601171E-03 -3.99237393913E-01 +2.08380270422E-02
3.03500000000E+09 -4.29308368599E-01 +1.06493244838E-01 -1.45743665751E-03 -1.79029038948E-03 -1.42434732383E-03 -1.80292412712E-03 -4.10318515679E-01 +6.00368821057E-02
3.04000000000E+09 -4.28055670820E-01 +1.39046157900E-01 -9.28511733953E-04 -1.78784747185E-03 -8.42595642070E-04 -1.91135275070E-03 -4.18717594190E-01 +9.99036057311E-02
3.04500000000E+09 -4.25054070162E-01 +1.72848643661E-01 -1.16778370886E-03 -2.03321984667E-03 -1.24173498155E-03 -2.13585942673E-03 -4.24164983807E-01 +1.39927534352E-01
3.05000000000E+09 -4.18602602322E-01 +2.06450317789E-01 -1.66816305249E-03 -1.99273519889E-03 -1.78545261590E-03 -1.99710112748E-03 -4.26704367195E-01 +1.78646188893E-01
3.05500000000E+09 -4.10630511960E-01 +2.39007569603E-01 -2.24641540125E-03 -1.55511150167E-03 -2.32073415165E-03 -1.46659861637E-03 -4.26959520268E-01 +2.16788735237E-01
3.06000000000E+09 -4.00817609972E-01 +2.71714351782E-01 -2.40236483394E-03 -1.03376986485E-03 -2.32232706766E-03 -8.63753325599E-04 -4.24796975986E-01 +2.53967831788E-01
3.06500000000E+09 -3.88719195660E-01 +3.03614817922E-01 -2.36698676436E-03 -4.06104806317E-04 -2.17140961428E-03 -4.23392606950E-04 -4.20036418217E-01 +2.90111356687E-01
3.07000000000E+09 -3.75403610246E-01 +3.33450345343E-01 -2.08048899021E-03 -2.59011979623E-04 -1.99422310995E-03 -3.12104957784E-04 -4.14089804707E-01 +3.25188207312E-01
