# Hz S RI R 50
! CMT, C1220, 16058040, 17.2.0/1
! Date: 15/08/2018 10:37:02
! Data: Format (Calibration Info)
! Freq                      S11: Re/Im (F2)                       S21: Re/Im (F2)                       S12: Re/Im (F2)                       S22: Re/Im (F2)            
2.50000000000E+09 +5.78069671474E-01 +6.67373512640E-01 -2.73666611673E-04 -6.94493939275E-05 -3.54549767746E-04 -8.24382906231E-05 +5.65067081186E-01 +7.22560567206E-01
2.50500000000E+09 +5.85337942220E-01 +6.59446577408E-01 -2.58276529348E-04 -1.25587026318E-04 -2.74892452889E-04 -6.24977868333E-05 +5.70597390889E-01 +7.17002901354E-01
2.51000000000E+09 +5.93161605761E-01 +6.51252877316E-01 -2.55115876157E-04 -4.29211702291E-06 -2.23434213202E-04 -1.88999365981E-05 +5.76279585261E-01 +7.11835590813E-01
2.51500000000E+09 +6.00527542884E-01 +6.43180667895E-01 -2.71502310548E-04 -1.20995832824E-04 -2.97410382951E-04 -1.39506632359E-04 +5.81638219140E-01 +7.06405919214E-01
2.52000000000E+09 +6.07487943724E-01 +6.35356734504E-01 -3.68613183730E-04 +2.44708878524E-05 -4.35408406791E-04 -6.28675016488E-06 +5.86952072606E-01 +7.00456308296E-01
2.52500000000E+09 +6.13509714181E-01 +6.28005747112E-01 -2.38482747554E-04 +6.54970014422E-05 -2.74935748091E-04 +5.70623392276E-05 +5.92629436344E-01 +6.94246273074E-01
2.53000000000E+09 +6.18891990391E-01 +6.20958519895E-01 -2.58841261277E-04 +3.04243638919E-05 -2.62040550996E-04 -1.67750994157E-05 +5.98670662919E-01 +6.87221887413E-01
2.53500000000E+09 +6.23707755438E-01 +6.13959612333E-01 -2.75468766689E-04 +2.34553899359E-05 -2.76789449048E-04 +2.04916063703E-05 +6.04600591473E-01 +6.80520117114E-01
2.54000000000E+09 +6.28271511810E-01 +6.07053399413E-01 -3.27104149974E-04 -1.67282274532E-07 -3.22355745992E-04 +2.46193303021E-05 +6.10574251322E-01 +6.74074102284E-01
2.54500000000E+09 +6.32881658965E-01 +6.00048666110E-01 -4.42053422368E-04 +1.56510250505E-04 -3.97742936052E-04 +9.77554900703E-05 +6.16424124060E-01 +6.67801835940E-01
2.55000000000E+09 +6.38028358083E-01 +5.92706006423E-01 -3.84830607096E-04 +2.76598571893E-04 -4.36594888182E-04 +2.18206747439E-04 +6.21876101536E-01 +6.61493421143E-01
2.55500000000E+09 +6.43570947666E-01 +5.84474660886E-01 -2.46944630713E-04 +3.02957821974E-04 -3.11107509043E-04 +2.65061650886E-04 +6.27029575096E-01 +6.54998350770E-01
2.56000000000E+09 +6.49981344804E-01 +5.76527245865E-01 -2.00610949700E-04 +2.42896754709E-04 -1.68429781417E-04 +3.11466750711E-04 +6.31958830834E-01 +6.47668099019E-01
2.56500000000E+09 +6.56935458226E-01 +5.67905262066E-01 -2.04798744754E-04 +2.11468099893E-04 -1.61958427186E-04 +2.65696651732E-04 +6.37108042114E-01 +6.40297652659E-01
2.57000000000E+09 +6.64108114649E-01 +5.59093248049E-01 -2.99496062305E-04 +2.01066954208E-04 -2.51050772232E-04 +2.69015987302E-04 +6.42473565189E-01 +6.32560998779E-01
2.57500000000E+09 +6.71009684651E-01 +5.50082594881E-01 -2.93060224047E-04 +3.68543053616E-04 -2.33544850633E-04 +3.94792898869E-04 +6.47990139663E-01 +6.24937263546E-01
2.58000000000E+09 +6.76836775372E-01 +5.41640513274E-01 -1.92983373254E-04 +4.58382598272E-04 -1.26965636190E-04 +4.16390757212E-04 +6.52996057732E-01 +6.17175734759E-01
2.58500000000E+09 +6.82193871997E-01 +5.33646000019E-01 -1.14496459299E-04 +5.01904251267E-04 -1.28063124844E-04 +4.14941690290E-04 +6.57756264456E-01 +6.09661298004E-01
2.59000000000E+09 +6.87141719162E-01 +5.26015356723E-01 -4.88194544286E-05 +4.61259151654E-04 -2.13406359272E-05 +4.59859563246E-04 +6.62539419627E-01 +6.02070398193E-01
2.59500000000E+09 +6.91849030819E-01 +5.17879406331E-01 -1.46788239287E-05 +5.34497976013E-04 +2.64558265948E-05 +4.81250440831E-04 +6.67455447650E-01 +5.94184585660E-01
2.60000000000E+09 +6.95918619548E-01 +5.09056233568E-01 +8.75929421425E-05 +4.27550859306E-04 +6.90767129641E-05 +4.64083272787E-04 +6.72425116608E-01 +5.85955057667E-01
2.60500000000E+09 +6.99916141649E-01 +4.99518746105E-01 +1.39713042184E-04 +5.04893945447E-04 +8.52027948387E-05 +5.01835397586E-04 +6.77681020769E-01 +5.77471813555E-01
2.61000000000E+09 +7.04134748218E-01 +4.89092865133E-01 +2.01317045783E-04 +4.84715189041E-04 +2.25360036882E-04 +4.86516240437E-04 +6.82959805929E-01 +5.68781147326E-01
2.61500000000E+09 +7.08929003982E-01 +4.77500915219E-01 +4.03725519361E-04 +3.82803232622E-04 +3.73582021726E-04 +3.64998054624E-04 +6.87745805715E-01 +5.60269262456E-01
2.62000000000E+09 +7.13806580052E-01 +4.64442185029E-01 +2.98506440105E-04 +1.95267134008E-04 +3.27766780127E-04 +1.92024659550E-04 +6.92596759124E-01 +5.51323686628E-01
2.62500000000E+09 +7.18589311483E-01 +4.50611501096E-01 +1.75525126338E-04 +2.66176328737E-04 +2.14567510970E-04 +2.89505593293E-04 +6.97218005834E-01 +5.42375717999E-01
2.63000000000E+09 +7.23060757973E-01 +4.36853947550E-01 +2.51820858724E-04 +3.87611348173E-04 +3.13991497515E-04 +3.29323322407E-04 +7.01701154210E-01 +5.33566065722E-01
2.63500000000E+09 +7.27119203510E-01 +4.23396354071E-01 +3.48869228889E-04 +3.23311964609E-04 +3.04493201049E-04 +2.41172721772E-04 +7.06321119366E-01 +5.24576938137E-01
2.64000000000E+09 +7.30789903244E-01 +4.10571533613E-01 +4.47586193629E-04 +3.47265222650E-04 +3.72224070041E-04 +2.72333242033E-04 +7.11026723768E-01 +5.15284577223E-01
2.64500000000E+09 +7.34216843604E-01 +3.98622960484E-01 +5.19934318561E-04 +2.11425459928E-04 +4.43503874014E-04 +1.80446721974E-04 +7.15958005286E-01 +5.05503217861E-01
2.65000000000E+09 +7.37006054376E-01 +3.87659883051E-01 +4.85753831557E-04 +8.35025744619E-05 +4.50462496198E-04 +1.64213923578E-04 +7.20007689605E-01 +4.95345648977E-01
2.65500000000E+09 +7.40148202726E-01 +3.76692043402E-01 +4.42529165135E-04 +5.16881252712E-05 +5.23311826277E-04 +6.81567493536E-05 +7.23968447761E-01 +4.85000368223E-01
2.66000000000E+09 +7.43102495632E-01 +3.65427220179E-01 +4.34777602499E-04 +3.22830721266E-05 +4.48124202433E-04 +3.71056710303E-05 +7.27882106974E-01 +4.73962221391E-01
2.66500000000E+09 +7.46062544950E-01 +3.53860764775E-01 +4.55979252354E-04 +4.50174104273E-05 +4.90514567127E-04 -4.77677659221E-05 +7.32158660609E-01 +4.63070025287E-01
2.67000000000E+09 +7.48757965681E-01 +3.41244666319E-01 +5.59437264267E-04 -4.18463180486E-05 +5.45906554003E-04 -9.90937275502E-05 +7.36620798734E-01 +4.52219686309E-01
2.67500000000E+09 +7.51507670141E-01 +3.27608001888E-01 +5.27920827544E-04 -1.56619084809E-04 +4.91623874219E-04 -1.62635462398E-04 +7.40733394092E-01 +4.41210706330E-01
2.68000000000E+09 +7.53515495426E-01 +3.12952843311E-01 +5.25678144006E-04 -2.79259987188E-04 +4.99835585335E-04 -2.48571855778E-04 +7.44675313015E-01 +4.30344466307E-01
2.68500000000E+09 +7.55161337228E-01 +2.98194838480E-01 +3.86670585968E-04 -4.70537097155E-04 +4.42854516059E-04 -4.70389087264E-04 +7.47954999538E-01 +4.18794393297E-01
2.69000000000E+09 +7.56444810057E-01 +2.83524110477E-01 +2.33979191419E-04 -4.15446886278E-04 +2.07160997851E-04 -4.41927026063E-04 +7.50504918598E-01 +4.06769169977E-01
2.69500000000E+09 +7.57715348919E-01 +2.69419983309E-01 +1.95924378754E-04 -4.07552266644E-04 +1.46244515385E-04 -4.17463464306E-04 +7.53155685742E-01 +3.94396078680E-01
2.70000000000E+09 +7.59224104961E-01 +2.55514541151E-01 +1.50271800242E-04 -4.75108287418E-04 +1.74089018657E-04 -4.76280818380E-04 +7.55909099377E-01 +3.81540224175E-01
2.70500000000E+09 +7.60534256639E-01 +2.41995116954E-01 +3.22648002124E-05 -4.25128263477E-04 +2.41806331404E-05 -4.53224586195E-04 +7.58989177548E-01 +3.68363219478E-01
2.71000000000E+09 +7.61670340250E-01 +2.28462176923E-01 -6.06606879950E-05 -4.06158555003E-04 -2.45932371729E-05 -4.23139521874E-04 +7.61689452261E-01 +3.55522741376E-01
2.71500000000E+09 +7.62982385962E-01 +2.14861114086E-01 -6.03328451890E-05 -3.68854559399E-04 -8.69988070626E-05 -3.37197676122E-04 +7.64434598038E-01 +3.42913578324E-01
2.72000000000E+09 +7.64281044915E-01 +2.00346499876E-01 -2.29430700224E-04 -4.00546432919E-04 -2.06674502396E-04 -4.24712175414E-04 +7.66025701336E-01 +3.30098999640E-01
2.72500000000E+09 +7.64935273195E-01 +1.84825265409E-01 -3.44002294078E-04 -2.32405228177E-04 -3.53923736995E-04 -1.84644013852E-04 +7.67128723731E-01 +3.17009123429E-01
2.73000000000E+09 +7.64739987780E-01 +1.68258117484E-01 -4.06288995523E-04 -8.92302812682E-05 -3.02978561276E-04 -6.91854722347E-05 +7.68142377268E-01 +3.03334178753E-01
2.73500000000E+09 +7.63459327518E-01 +1.50575726444E-01 -4.12686909577E-04 +1.40533649926E-04 -3.32536940159E-04 +1.73012155404E-04 +7.69270890532E-01 +2.89354017140E-01
2.74000000000E+09 +7.60891851823E-01 +1.32950573184E-01 -2.92014648758E-05 +3.62898474339E-04 -7.51403948083E-05 +3.31222161217E-04 +7.71172794213E-01 +2.74447100192E-01
2.74500000000E+09 +7.57603825434E-01 +1.14968899911E-01 +1.86098003503E-04 +2.42451559724E-04 +1.11663048433E-04 +2.94672253388E-04 +7.72364494041E-01 +2.59329768378E-01
2.75000000000E+09 +7.53736326766E-01 +9.68745707728E-02 +2.93271825992E-04 +1.30193703293E-04 +3.50213389305E-04 +2.07223397559E-04 +7.73413679718E-01 +2.44586202781E-01
2.75500000000E+09 +7.49108869254E-01 +7.91200618584E-02 +2.79075787854E-04 -2.26152806109E-05 +2.89684313476E-04 -9.83582482377E-05 +7.73423468876E-01 +2.29910087501E-01
2.76000000000E+09 +7.44712049530E-01 +6.16840937242E-02 +1.57451513054E-04 +2.73401427789E-05 +1.32757372785E-04 +1.61823819677E-05 +7.73615917624E-01 +2.14842158846E-01
2.76500000000E+09 +7.40193819365E-01 +4.36723434091E-02 +3.42352410670E-04 +6.82553172158E-05 +3.77345552872E-04 +7.69362576000E-05 +7.73061128104E-01 +1.98126352519E-01
2.77000000000E+09 +7.35245634440E-01 +2.50111466578E-02 +3.35094145379E-04 -1.01910113576E-04 +3.89754281409E-04 -9.28297443145E-05 +7.72144589563E-01 +1.81250637893E-01
2.77500000000E+09 +7.30591646271E-01 +5.98514445333E-03 +2.88632373729E-04 -1.28643516598E-05 +3.67592968595E-04 -4.25525631402E-05 +7.70967351372E-01 +1.63257676015E-01
2.78000000000E+09 +7.25896013089E-01 -1.45596190384E-02 +5.78215011743E-04 -9.73977368637E-05 +5.54166969956E-04 -1.22819455082E-04 +7.69484350844E-01 +1.45508531450E-01
2.78500000000E+09 +7.19948995731E-01 -3.62176458089E-02 +7.81520151624E-04 -2.67269621839E-04 +7.13124508472E-04 -3.12052104454E-04 +7.66991929839E-01 +1.27408236413E-01
2.79000000000E+09 +7.13238391310E-01 -5.82731220891E-02 +7.11498424342E-04 -6.78407737215E-04 +5.98047485343E-04 -6.30396670377E-04 +7.64046493720E-01 +1.10224405394E-01
2.79500000000E+09 +7.05158319828E-01 -8.06070594697E-02 +4.36124570452E-04 -7.73458311636E-04 +4.15103572215E-04 -7.40332055436E-04 +7.59918494411E-01 +9.23348428377E-02
2.80000000000E+09 +6.95864533507E-01 -1.01836716776E-01 +2.02698622300E-04 -8.44690154928E-04 +2.29097369361E-04 -7.86227425600E-04 +7.55520991692E-01 +7.40950135691E-02
2.80500000000E+09 +6.86398237771E-01 -1.21574793923E-01 +1.32335602249E-04 -7.67943875166E-04 +2.04929558052E-04 -7.37817418255E-04 +7.50144448863E-01 +5.46941707530E-02
2.81000000000E+09 +6.76283857144E-01 -1.40437652835E-01 +2.42432416362E-04 -7.81353285830E-04 +2.61740091378E-04 -7.91464989818E-04 +7.43768108986E-01 +3.52781441555E-02
2.81500000000E+09 +6.65690852360E-01 -1.58303530110E-01 +2.37286477795E-04 -9.88091332309E-04 +1.61467856438E-04 -1.03256473385E-03 +7.37032054166E-01 +1.56746070559E-02
2.82000000000E+09 +6.54422799077E-01 -1.75894271441E-01 -1.29700306559E-05 -1.09909939079E-03 -2.55394083673E-05 -1.07396425664E-03 +7.29578408618E-01 -3.76683004764E-03
2.82500000000E+09 +6.41614637153E-01 -1.93335280714E-01 +8.67770917390E-05 -1.21021160112E-03 +5.08375357179E-05 -1.14975686665E-03 +7.21549018640E-01 -2.32938663400E-02
2.83000000000E+09 +6.27157914771E-01 -2.11325390610E-01 -1.96420522933E-04 -1.69298361638E-03 -1.69604090481E-04 -1.57922900741E-03 +7.12888240043E-01 -4.34910231585E-02
2.83500000000E+09 +6.11066454830E-01 -2.29384381063E-01 -9.22642650901E-04 -1.73596073903E-03 -8.39325578353E-04 -1.71162711907E-03 +7.02820712103E-01 -6.36493037217E-02
2.84000000000E+09 +5.93395825705E-01 -2.48248038170E-01 -1.38980813264E-03 -1.31761529258E-03 -1.36778288537E-03 -1.33156372492E-03 +6.91922776367E-01 -8.44054880114E-02
2.84500000000E+09 +5.73228158146E-01 -2.68482541635E-01 -1.49673855305E-03 -8.18740466221E-04 -1.47680113459E-03 -8.43714655830E-04 +6.79952736464E-01 -1.04952689318E-01
2.85000000000E+09 +5.51382696167E-01 -2.88234035973E-01 -1.24578720547E-03 -7.82449853595E-04 -1.25777378014E-03 -8.26970600016E-04 +6.66730907532E-01 -1.26081115798E-01
2.85500000000E+09 +5.27492998140E-01 -3.08030254911E-01 -1.61392470098E-03 -7.95972260942E-04 -1.55887205572E-03 -7.92387487388E-04 +6.52084265641E-01 -1.46445894037E-01
2.86000000000E+09 +5.03086060689E-01 -3.26443428823E-01 -1.59526982475E-03 -6.13409745450E-04 -1.57388055014E-03 -5.75784298957E-04 +6.36763211073E-01 -1.67399230796E-01
2.86500000000E+09 +4.78493162503E-01 -3.43963121997E-01 -1.87147480689E-03 -5.93351632725E-04 -1.90983796678E-03 -6.48763096412E-04 +6.19369372246E-01 -1.88528337383E-01
2.87000000000E+09 +4.53493600109E-01 -3.60081982783E-01 -2.17731845226E-03 -3.96961275506E-04 -2.20270342680E-03 -4.04309881954E-04 +6.00378884421E-01 -2.09316578852E-01
2.87500000000E+09 +4.28611109822E-01 -3.75158596984E-01 -2.59780920920E-03 -2.01270645316E-04 -2.59476795820E-03 -1.30886774404E-04 +5.80061657191E-01 -2.29110507896E-01
2.88000000000E+09 +4.02851922020E-01 -3.88784598854E-01 -3.03099877327E-03 +5.16752359391E-04 -2.90953579171E-03 +5.95157459777E-04 +5.58520172226E-01 -2.49000639689E-01
2.88500000000E+09 +3.76507239576E-01 -4.00986182693E-01 -2.87216321313E-03 +1.65895786622E-03 -2.67323135610E-03 +1.64185586681E-03 +5.34997571291E-01 -2.67940317175E-01
2.89000000000E+09 +3.49042521824E-01 -4.12912465676E-01 -1.99421225915E-03 +2.10131206003E-03 -1.96125408012E-03 +1.95654419722E-03 +5.09162121163E-01 -2.85998606653E-01
2.89500000000E+09 +3.18205688253E-01 -4.23740378437E-01 -1.52184185322E-03 +1.92065338637E-03 -1.59998881966E-03 +1.75089523230E-03 +4.82137763881E-01 -3.02842854065E-01
2.90000000000E+09 +2.85538642414E-01 -4.32127373836E-01 -1.71040692667E-03 +2.02158186231E-03 -1.80071103401E-03 +1.94559319652E-03 +4.53783642899E-01 -3.19315821178E-01
2.90500000000E+09 +2.50715628954E-01 -4.38776291411E-01 -1.59648713407E-03 +2.44278369889E-03 -1.62650540236E-03 +2.41387501794E-03 +4.23912378315E-01 -3.35044238431E-01
2.91000000000E+09 +2.15261017726E-01 -4.43148898401E-01 -1.39151150315E-03 +2.87611929485E-03 -1.27105861109E-03 +2.91342929326E-03 +3.92232965932E-01 -3.48470054108E-01
2.91500000000E+09 +1.78368556600E-01 -4.46405896051E-01 -8.06170142403E-04 +3.18038033908E-03 -6.89374033537E-04 +3.14877084657E-03 +3.60797773905E-01 -3.59634338279E-01
2.92000000000E+09 +1.41190779325E-01 -4.46436795619E-01 -4.11125898915E-04 +3.48331516240E-03 -3.45942552789E-04 +3.22577054259E-03 +3.27770165528E-01 -3.70339480605E-01
2.92500000000E+09 +1.04660941058E-01 -4.45665502011E-01 +2.53767315249E-04 +3.85137890598E-03 +1.14389069863E-04 +3.70580478620E-03 +2.92159381125E-01 -3.78385951705E-01
2.93000000000E+09 +6.79774350120E-02 -4.42661369892E-01 +1.40609138899E-03 +3.67448320382E-03 +1.21868478602E-03 +3.68506547153E-03 +2.54814966582E-01 -3.84408371374E-01
2.93500000000E+09 +3.23920197117E-02 -4.37831588093E-01 +1.73238777141E-03 +3.12355503391E-03 +1.65196867827E-03 +3.17473188633E-03 +2.16761238842E-01 -3.87422934426E-01
2.94000000000E+09 -3.65639346422E-03 -4.31410496066E-01 +2.24907311187E-03 +2.85292215479E-03 +2.14219447214E-03 +2.89040051534E-03 +1.78491842212E-01 -3.89129299016E-01
2.94500000000E+09 -4.02108552601E-02 -4.21477768030E-01 +2.36507592545E-03 +2.70106631705E-03 +2.28758925715E-03 +2.72554474218E-03 +1.40096284913E-01 -3.90040060788E-01
2.95000000000E+09 -7.54950537707E-02 -4.08230043367E-01 +2.98946261950E-03 +2.38957189485E-03 +2.87781031040E-03 +2.54515523724E-03 +9.95441301070E-02 -3.88290592208E-01
2.95500000000E+09 -1.10499308937E-01 -3.91849832553E-01 +3.61086896058E-03 +1.96389165424E-03 +3.55347958585E-03 +2.09227014880E-03 +5.86836393808E-02 -3.81792920139E-01
2.96000000000E+09 -1.44294442566E-01 -3.72561793319E-01 +3.64276625792E-03 +1.14937591217E-03 +3.79345786877E-03 +1.24295496702E-03 +1.93431407607E-02 -3.71721491231E-01
2.96500000000E+09 -1.77510247974E-01 -3.50103928044E-01 +3.70557259569E-03 +8.41593430869E-04 +3.83018956689E-03 +7.51922770377E-04 -2.06760704951E-02 -3.59823898281E-01
2.97000000000E+09 -2.08470710246E-01 -3.24737704869E-01 +4.18861147894E-03 +4.58121658234E-04 +4.24484175007E-03 +2.56667826416E-04 -5.95648829084E-02 -3.44399964490E-01
2.97500000000E+09 -2.37846168367E-01 -2.98270097847E-01 +4.66700650828E-03 -7.18852303176E-04 +4.43864230734E-03 -7.20573011631E-04 -9.87025300013E-02 -3.28084453342E-01
2.98000000000E+09 -2.66913701349E-01 -2.69862122920E-01 +3.97284725111E-03 -1.92061111200E-03 +3.93516045820E-03 -1.75808932222E-03 -1.36277353809E-01 -3.07113821294E-01
2.98500000000E+09 -2.93456706328E-01 -2.38550294890E-01 +3.06327103336E-03 -2.14440816265E-03 +3.13406294851E-03 -2.03911505303E-03 -1.71892816954E-01 -2.84655536505E-01
2.99000000000E+09 -3.17429825822E-01 -2.06729056662E-01 +2.84806646078E-03 -2.17668706578E-03 +2.98771244808E-03 -2.19860996437E-03 -2.05863219438E-01 -2.59185254272E-01
2.99500000000E+09 -3.40086262187E-01 -1.74932946439E-01 +3.03984292637E-03 -2.49023840464E-03 +3.07401434065E-03 -2.67831401133E-03 -2.38784754973E-01 -2.31025161187E-01
3.00000000000E+09 -3.61464401659E-01 -1.41158155755E-01 +2.69624532121E-03 -3.45600751272E-03 +2.57324798723E-03 -3.57381233620E-03 -2.69602801985E-01 -1.99093639216E-01
3.00500000000E+09 -3.79710417496E-01 -1.06600891193E-01 +1.64629457786E-03 -3.98082773792E-03 +1.47016071597E-03 -3.85230365162E-03 -2.97261962931E-01 -1.66008870615E-01
3.01000000000E+09 -3.96015209270E-01 -7.18759778233E-02 +6.62752822215E-04 -3.84213191302E-03 +6.82198508388E-04 -3.68275543778E-03 -3.23041387310E-01 -1.31352871739E-01
3.01500000000E+09 -4.09208862859E-01 -3.61870716586E-02 +4.40496611819E-04 -3.50583521572E-03 +4.83180635142E-04 -3.38522071979E-03 -3.45828427421E-01 -9.63670840292E-02
3.02000000000E+09 -4.19409681232E-01 -1.07978097301E-03 -3.02423415044E-05 -3.68857138139E-03 +2.05011714713E-05 -3.71275974980E-03 -3.66656098745E-01 -6.00004156151E-02
3.02500000000E+09 -4.26720169509E-01 +3.41830800957E-02 -5.06936340193E-04 -3.65411855164E-03 -4.71098269017E-04 -3.69142145114E-03 -3.84097924243E-01 -2.13141262788E-02
3.03000000000E+09 -4.31219244981E-01 +6.93407067470E-02 -1.36322168882E-03 -3.61931161202E-03 -1.31803209903E-03 -3.63178907593E-03 -3.97863622789E-01 +1.74503465213E-02
3.03500000000E+09 -4.31875110204E-01 +1.04044348938E-01 -2.02446729066E-03 -2.77649265974E-03 -1.97291954199E-03 -2.88569465262E-03 -4.09367053861E-01 +5.67928337923E-02
3.04000000000E+09 -4.30583626279E-01 +1.37003107230E-01 -1.89928082998E-03 -2.37040718997E-03 -1.90439329507E-03 -2.55863417063E-03 -4.17863317155E-01 +9.63769392404E-02
3.04500000000E+09 -4.27878390113E-01 +1.71036076803E-01 -2.08890688030E-03 -2.22148645181E-03 -2.19375388668E-03 -2.39953830071E-03 -4.23836132379E-01 +1.36204594354E-01
3.05000000000E+09 -4.21754691846E-01 +2.05052196723E-01 -2.39388565943E-03 -1.98176798993E-03 -2.61317059130E-03 -2.01496142550E-03 -4.27118071255E-01 +1.74931760810E-01
3.05500000000E+09 -4.13809761964E-01 +2.38206460140E-01 -2.81891217828E-03 -1.45242383277E-03 -2.94826708947E-03 -1.32189671294E-03 -4.27483029936E-01 +2.13509520283E-01
3.06000000000E+09 -4.04092388325E-01 +2.71075636639E-01 -2.84156406277E-03 -9.23680446867E-04 -2.72932587199E-03 -7.00086448783E-04 -4.25753463608E-01 +2.50656402126E-01
3.06500000000E+09 -3.92189438580E-01 +3.03289898343E-01 -2.72034744414E-03 -3.83754099095E-04 -2.52994697790E-03 -3.66171206200E-04 -4.21415902212E-01 +2.87362534482E-01
3.07000000000E+09 -3.78814750223E-01 +3.33479213452E-01 -2.39104833773E-03 -2.02652395420E-04 -2.31056640940E-03 -2.65770011153E-04 -4.15421360350E-01 +3.22949926736E-01
