# Hz S RI R 50
! CMT, C1220, 16058040, 17.2.0/1
! Date: 15/08/2018 12:39:44
! Data: Format (Calibration Info)
! Freq                      S11: Re/Im (F2)                       S21: Re/Im (F2)                       S12: Re/Im (F2)                       S22: Re/Im (F2)            
4.00000000000E+09 +6.57513256675E-01 -3.59412511718E-01 +1.68569403474E-03 -9.01453650648E-04 +1.77412818419E-03 -8.64390077183E-04 +7.86839326790E-01 -3.14116852599E-01
4.00500000000E+09 +6.49082731095E-01 -3.65045620557E-01 +1.46481542924E-03 -1.20641986039E-03 +1.51553621977E-03 -1.15916237448E-03 +7.78652554512E-01 -3.25636890135E-01
4.01000000000E+09 +6.40368529528E-01 -3.70681588723E-01 +1.20831822089E-03 -1.38048354458E-03 +1.28495143426E-03 -1.38185237054E-03 +7.70140528944E-01 -3.37590178789E-01
4.01500000000E+09 +6.30646120263E-01 -3.77243431382E-01 +9.22114663554E-04 -1.31120764156E-03 +1.01896270594E-03 -1.31575034224E-03 +7.61660955103E-01 -3.48875723120E-01
4.02000000000E+09 +6.20613327838E-01 -3.84806072489E-01 +9.74573152586E-04 -1.38715783042E-03 +1.05701792371E-03 -1.39165881091E-03 +7.52802765802E-01 -3.59911879568E-01
4.02500000000E+09 +6.10112196194E-01 -3.94007515220E-01 +9.33329501008E-04 -1.48536057349E-03 +9.89867751694E-04 -1.48750340788E-03 +7.43245808605E-01 -3.70694997030E-01
4.03000000000E+09 +5.98902422500E-01 -4.04483567440E-01 +7.38306921832E-04 -1.59400566875E-03 +7.97131148567E-04 -1.59333151142E-03 +7.33004881501E-01 -3.81223008592E-01
4.03500000000E+09 +5.87336660496E-01 -4.14913431814E-01 +5.98941251931E-04 -1.67865635264E-03 +6.73768783107E-04 -1.73329613850E-03 +7.21974741652E-01 -3.92369357759E-01
4.04000000000E+09 +5.76310764439E-01 -4.24904963860E-01 +4.20254102902E-04 -1.60747087025E-03 +5.14885636937E-04 -1.69554372798E-03 +7.10926959198E-01 -4.03632796099E-01
4.04500000000E+09 +5.65309012255E-01 -4.34739030124E-01 +3.41732409910E-04 -1.69376779889E-03 +4.40945090334E-04 -1.73374061416E-03 +7.00009681994E-01 -4.14792023106E-01
4.05000000000E+09 +5.53603038958E-01 -4.42605726065E-01 +2.35886356196E-04 -1.76745803477E-03 +3.39231440627E-04 -1.81549293060E-03 +6.89187322037E-01 -4.25525980804E-01
4.05500000000E+09 +5.42164686382E-01 -4.48908188757E-01 +2.01436724161E-04 -1.94525190962E-03 +2.82011653252E-04 -1.98297406317E-03 +6.77865323545E-01 -4.35461641883E-01
4.06000000000E+09 +5.30102254163E-01 -4.54004289251E-01 -1.65068269868E-04 -2.18630821991E-03 -1.18632780588E-04 -2.23253960000E-03 +6.66503822579E-01 -4.44870681740E-01
4.06500000000E+09 +5.16995737999E-01 -4.57954835333E-01 -4.94104707966E-04 -1.95931986812E-03 -4.81830180913E-04 -2.01589945362E-03 +6.54081624489E-01 -4.54730103342E-01
4.07000000000E+09 +5.03755617835E-01 -4.62113297909E-01 -5.31510617408E-04 -1.80009599230E-03 -5.43468200698E-04 -1.85569599281E-03 +6.40619228156E-01 -4.64642857271E-01
4.07500000000E+09 +4.89166942028E-01 -4.66954941342E-01 -6.68782947744E-04 -1.89066720332E-03 -6.45609864902E-04 -1.98487976696E-03 +6.26908603848E-01 -4.75277858657E-01
4.08000000000E+09 +4.73612240161E-01 -4.72220618367E-01 -9.60637796407E-04 -1.76756570943E-03 -9.31506280648E-04 -1.83169077027E-03 +6.13328160416E-01 -4.85218531775E-01
4.08500000000E+09 +4.57332696255E-01 -4.78817219296E-01 -9.12202964049E-04 -1.72835432456E-03 -8.86603466706E-04 -1.86305771566E-03 +5.99736169991E-01 -4.95149407245E-01
4.09000000000E+09 +4.40317542628E-01 -4.85466016963E-01 -1.29332056550E-03 -1.97528453953E-03 -1.26720730814E-03 -2.07426199299E-03 +5.85822475842E-01 -5.03717285926E-01
4.09500000000E+09 +4.23651777812E-01 -4.92153083313E-01 -1.70587616414E-03 -1.60380016182E-03 -1.72398892509E-03 -1.70050758881E-03 +5.71455653659E-01 -5.12288269616E-01
4.10000000000E+09 +4.06510109882E-01 -4.98163263806E-01 -1.64067623575E-03 -1.27825128541E-03 -1.69399777746E-03 -1.31351730418E-03 +5.55440863836E-01 -5.19924416580E-01
4.10500000000E+09 +3.89483946135E-01 -5.02584368300E-01 -1.77812299761E-03 -1.35288714014E-03 -1.86475603747E-03 -1.38171548246E-03 +5.39905473992E-01 -5.27741602783E-01
4.11000000000E+09 +3.73021157250E-01 -5.04646936365E-01 -2.20518355621E-03 -1.05523726470E-03 -2.15865845548E-03 -1.12846564457E-03 +5.23422902391E-01 -5.36238905858E-01
4.11500000000E+09 +3.57674044690E-01 -5.05837419986E-01 -2.07656910144E-03 -5.46284184690E-04 -2.08351069769E-03 -5.97676863947E-04 +5.06989107580E-01 -5.44062048094E-01
4.12000000000E+09 +3.41972152885E-01 -5.06758475856E-01 -1.94070670154E-03 -4.98985561827E-04 -1.97046086630E-03 -5.12772590393E-04 +4.90668856046E-01 -5.52016345867E-01
4.12500000000E+09 +3.25306314963E-01 -5.07937710209E-01 -1.88739800539E-03 -4.79108638741E-04 -1.96646550787E-03 -5.01378042769E-04 +4.73305294947E-01 -5.58564210821E-01
4.13000000000E+09 +3.07564752379E-01 -5.09242525309E-01 -1.86657747191E-03 -2.64685061080E-04 -1.96752467716E-03 -3.30724784465E-04 +4.56003932548E-01 -5.64475782139E-01
4.13500000000E+09 +2.88383006404E-01 -5.11781459409E-01 -1.77786707738E-03 -2.63910519405E-04 -1.79786739726E-03 -3.60950043799E-04 +4.37747474936E-01 -5.69997599744E-01
4.14000000000E+09 +2.68038918719E-01 -5.14219753838E-01 -2.06221745083E-03 -6.00494415402E-04 -2.07390617805E-03 -6.51357276325E-04 +4.19243969818E-01 -5.75938806752E-01
4.14500000000E+09 +2.48343344357E-01 -5.16873267923E-01 -2.65956291047E-03 -1.89501604875E-04 -2.79119030950E-03 -3.17254206247E-04 +3.99840301017E-01 -5.81836361743E-01
4.15000000000E+09 +2.28573387881E-01 -5.20463471802E-01 -2.62968903802E-03 +4.76614772686E-04 -2.74739131568E-03 +4.22956608032E-04 +3.81558989791E-01 -5.86747941817E-01
4.15500000000E+09 +2.08761375090E-01 -5.23220267545E-01 -2.42151686097E-03 +8.37284081221E-04 -2.53305983979E-03 +7.75867025897E-04 +3.63134299846E-01 -5.91455121698E-01
4.16000000000E+09 +1.90192743543E-01 -5.23828647811E-01 -2.16543993687E-03 +9.73736715594E-04 -2.23223351802E-03 +9.72771364488E-04 +3.44142504242E-01 -5.94751731075E-01
4.16500000000E+09 +1.73098552735E-01 -5.23887073212E-01 -1.97555293646E-03 +9.45028067841E-04 -2.05088559633E-03 +8.53032658337E-04 +3.24824935119E-01 -5.97394370803E-01
4.17000000000E+09 +1.55883924530E-01 -5.21641720237E-01 -2.10330522011E-03 +1.14910109501E-03 -2.22177233718E-03 +1.08631399037E-03 +3.04304436308E-01 -5.99700844474E-01
4.17500000000E+09 +1.39723650148E-01 -5.17632177168E-01 -2.03895894289E-03 +1.01816231887E-03 -2.14486621240E-03 +9.97508548088E-04 +2.83027852743E-01 -6.01086314871E-01
4.18000000000E+09 +1.22496108360E-01 -5.13110489167E-01 -2.35650227481E-03 +1.63174235226E-03 -2.43503613756E-03 +1.67948077944E-03 +2.62081963902E-01 -6.02306608181E-01
4.18500000000E+09 +1.05300400173E-01 -5.07305855945E-01 -1.84151099582E-03 +1.90337346422E-03 -1.93902678551E-03 +1.89945685080E-03 +2.41365451824E-01 -6.03696017771E-01
4.19000000000E+09 +8.68851720414E-02 -5.01925672943E-01 -2.00851195585E-03 +1.98865149434E-03 -2.12599209460E-03 +2.03575446245E-03 +2.19983931733E-01 -6.03738537153E-01
4.19500000000E+09 +6.80907503705E-02 -4.96297784270E-01 -1.91721610921E-03 +2.53035967530E-03 -1.99009271739E-03 +2.58860457283E-03 +1.98966051849E-01 -6.02232019922E-01
4.20000000000E+09 +4.93695221907E-02 -4.91869703875E-01 -1.22731003926E-03 +2.96958761175E-03 -1.31486368568E-03 +3.03828502662E-03 +1.77523122472E-01 -6.00118739897E-01
4.20500000000E+09 +2.99646258727E-02 -4.87852485405E-01 -7.29081130630E-04 +2.77104642157E-03 -7.94952141566E-04 +2.79643784935E-03 +1.56353825951E-01 -5.96848600590E-01
4.21000000000E+09 +1.11855196612E-02 -4.83367918898E-01 -8.33007688018E-04 +2.43382432758E-03 -9.07047297698E-04 +2.43471458475E-03 +1.34523251566E-01 -5.95644060224E-01
4.21500000000E+09 -7.13465016759E-03 -4.77511726677E-01 -6.94100491949E-04 +2.84525029417E-03 -7.30041053978E-04 +2.97853425969E-03 +1.11368533790E-01 -5.93390862424E-01
4.22000000000E+09 -2.34190775615E-02 -4.69360907368E-01 -2.94721720465E-04 +2.81741272378E-03 -3.36174518455E-04 +2.85802865823E-03 +8.89743324622E-02 -5.89570209645E-01
4.22500000000E+09 -3.82120243519E-02 -4.59928381350E-01 -4.10286629013E-04 +2.77194896118E-03 -4.53677078754E-04 +2.84999533885E-03 +6.74209004392E-02 -5.84886685804E-01
4.23000000000E+09 -5.22119181568E-02 -4.48749397298E-01 -1.33553642922E-04 +3.28434920391E-03 -1.97084180665E-04 +3.37797829358E-03 +4.58915095589E-02 -5.78354190135E-01
4.23500000000E+09 -6.61435864237E-02 -4.37390668080E-01 +2.45707502591E-04 +3.29107184347E-03 +2.28218711699E-04 +3.41783023440E-03 +2.45065342091E-02 -5.71233084627E-01
4.24000000000E+09 -8.22029398647E-02 -4.25177888833E-01 +6.97168099739E-04 +3.42268482050E-03 +6.63759509170E-04 +3.49699682153E-03 +2.80979952276E-03 -5.62836428170E-01
4.24500000000E+09 -1.00482472204E-01 -4.12127354611E-01 +1.18541504820E-03 +3.26806022493E-03 +1.23314521225E-03 +3.38844426730E-03 -1.86546437493E-02 -5.54780872575E-01
4.25000000000E+09 -1.20136108915E-01 -3.98200616759E-01 +1.35100857914E-03 +3.30230462692E-03 +1.38914992470E-03 +3.33581342182E-03 -4.03191847294E-02 -5.46272987443E-01
4.25500000000E+09 -1.40041985026E-01 -3.84563186443E-01 +2.02522219607E-03 +3.21651898276E-03 +2.08183797965E-03 +3.30746687183E-03 -6.12719294963E-02 -5.37423189580E-01
4.26000000000E+09 -1.60721320631E-01 -3.72290517437E-01 +2.23611407074E-03 +2.61533334612E-03 +2.29923562517E-03 +2.67626416326E-03 -8.23604885469E-02 -5.27492389221E-01
4.26500000000E+09 -1.80222433073E-01 -3.59139197676E-01 +1.98277768891E-03 +2.86638633120E-03 +2.05846810724E-03 +3.01997862921E-03 -1.03140775531E-01 -5.16127615629E-01
4.27000000000E+09 -1.96938700312E-01 -3.46995702927E-01 +2.95371805118E-03 +2.88158253459E-03 +3.04623668216E-03 +2.94551533584E-03 -1.24584744894E-01 -5.03118100630E-01
4.27500000000E+09 -2.12601614051E-01 -3.35236562255E-01 +3.20560056311E-03 +2.32848985473E-03 +3.29087749151E-03 +2.32708140952E-03 -1.45691033134E-01 -4.89006379290E-01
4.28000000000E+09 -2.25992374715E-01 -3.21912896927E-01 +3.44603773494E-03 +2.24562773902E-03 +3.52718761400E-03 +2.26052009197E-03 -1.66208031508E-01 -4.75062051086E-01
4.28500000000E+09 -2.37875551351E-01 -3.07275044484E-01 +3.94649352655E-03 +1.88516208056E-03 +4.03854132756E-03 +1.87382270099E-03 -1.86991853074E-01 -4.60554538854E-01
4.29000000000E+09 -2.48763393843E-01 -2.90903594539E-01 +4.39015759367E-03 +9.18602150293E-04 +4.43804683307E-03 +9.27333700943E-04 -2.05640841784E-01 -4.45803965373E-01
4.29500000000E+09 -2.59802599950E-01 -2.72236228660E-01 +3.84811215002E-03 +5.33115020810E-04 +3.92279255270E-03 +5.29544207709E-04 -2.24609631669E-01 -4.30142612972E-01
4.30000000000E+09 -2.70635651529E-01 -2.51647267629E-01 +4.13549481251E-03 +3.21451450183E-04 +4.25144433272E-03 +2.61636373656E-04 -2.41667528582E-01 -4.13409717148E-01
4.30500000000E+09 -2.81808090176E-01 -2.30994383421E-01 +4.09571397068E-03 -3.12655661530E-04 +4.15540854763E-03 -2.83813750559E-04 -2.59979532143E-01 -3.96131332080E-01
4.31000000000E+09 -2.93903145698E-01 -2.10875923951E-01 +3.69097368842E-03 -8.49591372010E-05 +3.75806149911E-03 -1.45738817712E-04 -2.77093399718E-01 -3.76726766766E-01
4.31500000000E+09 -3.06991048922E-01 -1.91927222529E-01 +4.57141974729E-03 -2.80943733123E-04 +4.65210146888E-03 -3.07374347443E-04 -2.93882111959E-01 -3.57410339159E-01
4.32000000000E+09 -3.19996560010E-01 -1.73623461663E-01 +4.79839350760E-03 -1.53069525524E-03 +4.83040550280E-03 -1.59991244454E-03 -3.09881485490E-01 -3.37456297454E-01
4.32500000000E+09 -3.31374769657E-01 -1.56429668110E-01 +4.00493434553E-03 -2.09501013729E-03 +4.09169576384E-03 -2.26937769570E-03 -3.24728579544E-01 -3.16109444957E-01
4.33000000000E+09 -3.41234990843E-01 -1.40388673367E-01 +4.15228941442E-03 -2.16591426593E-03 +4.23954836157E-03 -2.33144343932E-03 -3.37712272728E-01 -2.94443526254E-01
4.33500000000E+09 -3.47828506696E-01 -1.23203420230E-01 +4.01063010743E-03 -3.06274491459E-03 +4.02556680027E-03 -3.18969616741E-03 -3.50055100683E-01 -2.72179704000E-01
4.34000000000E+09 -3.50161016919E-01 -1.07158630631E-01 +3.24291075921E-03 -3.89512969061E-03 +3.23171421019E-03 -3.88741453463E-03 -3.62611259277E-01 -2.49901863917E-01
4.34500000000E+09 -3.51866102425E-01 -9.07610870900E-02 +2.41567199261E-03 -3.52305083481E-03 +2.35890229744E-03 -3.55161376885E-03 -3.75146872229E-01 -2.25716074282E-01
4.35000000000E+09 -3.52273513910E-01 -7.20429402057E-02 +2.73329459505E-03 -3.65826360480E-03 +2.73910633397E-03 -3.66704907936E-03 -3.85921052927E-01 -2.02501838233E-01
4.35500000000E+09 -3.53141525533E-01 -5.20672620270E-02 +2.28940563535E-03 -4.11402374978E-03 +2.37450852450E-03 -4.17637598835E-03 -3.96144886941E-01 -1.79890114197E-01
4.36000000000E+09 -3.54240279625E-01 -2.95020740426E-02 +1.84731311020E-03 -4.34074092444E-03 +1.86672992582E-03 -4.33472381191E-03 -4.05922129408E-01 -1.56648560528E-01
4.36500000000E+09 -3.56888388394E-01 -6.60840033770E-03 +1.78725956622E-03 -4.52028274789E-03 +1.77947873219E-03 -4.62373645233E-03 -4.13871514913E-01 -1.31740186233E-01
4.37000000000E+09 -3.60493992254E-01 +1.73771840269E-02 +1.36229851414E-03 -5.01936671426E-03 +1.40822797595E-03 -5.15031368252E-03 -4.19819830700E-01 -1.07022481375E-01
4.37500000000E+09 -3.63678637612E-01 +4.01589452348E-02 +7.26774585779E-04 -5.79122579468E-03 +6.57031209552E-04 -5.89618769100E-03 -4.25520999615E-01 -8.10895984834E-02
4.38000000000E+09 -3.67751807029E-01 +5.94106077120E-02 -4.62497485833E-04 -5.67693330488E-03 -6.35670973700E-04 -5.75190169846E-03 -4.29325223821E-01 -5.55266494039E-02
4.38500000000E+09 -3.71490772419E-01 +7.76581381576E-02 -1.21293922056E-03 -5.24595238108E-03 -1.30838366023E-03 -5.29982405448E-03 -4.32533694652E-01 -3.10138859697E-02
4.39000000000E+09 -3.73834217659E-01 +9.33162288560E-02 -1.65609940724E-03 -5.10657504077E-03 -1.76896267658E-03 -5.12461171552E-03 -4.36085175595E-01 -5.74808174275E-03
4.39500000000E+09 -3.74309683971E-01 +1.07522622327E-01 -2.27297958556E-03 -4.46130436196E-03 -2.38616033290E-03 -4.46133196765E-03 -4.36899612680E-01 +1.85087247075E-02
4.40000000000E+09 -3.72810629086E-01 +1.22403113917E-01 -2.16508757362E-03 -4.62463215642E-03 -2.26625741691E-03 -4.54175423890E-03 -4.38028285135E-01 +4.34221623906E-02
4.40500000000E+09 -3.68874035843E-01 +1.38291452238E-01 -3.14086666423E-03 -4.55418436036E-03 -3.18703799358E-03 -4.53925968544E-03 -4.37233629132E-01 +6.87389782308E-02
4.41000000000E+09 -3.62674916757E-01 +1.54941316646E-01 -3.49409999432E-03 -3.92239677505E-03 -3.55366166802E-03 -3.93358213556E-03 -4.35137679987E-01 +9.40046642331E-02
4.41500000000E+09 -3.56507848860E-01 +1.73236666908E-01 -3.95470123343E-03 -3.66289246453E-03 -4.02389572939E-03 -3.64465660135E-03 -4.32517139330E-01 +1.18368787687E-01
4.42000000000E+09 -3.50443140536E-01 +1.93277209060E-01 -4.23213266651E-03 -3.22738253438E-03 -4.36140501710E-03 -3.11481002374E-03 -4.30077426466E-01 +1.42597747960E-01
4.42500000000E+09 -3.45667503980E-01 +2.14458815696E-01 -4.81491279181E-03 -3.12078587690E-03 -4.78431099523E-03 -3.01862046729E-03 -4.25013190660E-01 +1.67440140914E-01
4.43000000000E+09 -3.41613181458E-01 +2.35042098029E-01 -5.58339158369E-03 -2.48766008041E-03 -5.56343816522E-03 -2.36254912864E-03 -4.19675525473E-01 +1.89949478930E-01
4.43500000000E+09 -3.39875547982E-01 +2.55387235324E-01 -5.66475473377E-03 -1.05462349105E-03 -5.56588663594E-03 -9.29090256161E-04 -4.13451435201E-01 +2.13243570886E-01
4.44000000000E+09 -3.37188750349E-01 +2.74584823406E-01 -5.35744041310E-03 -8.65546000065E-04 -5.32421891617E-03 -8.17693717204E-04 -4.06452322774E-01 +2.35715376300E-01
4.44500000000E+09 -3.33936203671E-01 +2.89923964750E-01 -5.48558784260E-03 +1.56786981224E-05 -5.47350063208E-03 +9.11588272113E-05 -3.99128755917E-01 +2.57607340759E-01
4.45000000000E+09 -3.30554096261E-01 +3.02965374279E-01 -5.16315375083E-03 +3.47860502732E-04 -5.08882219959E-03 +4.74230853366E-04 -3.91251477281E-01 +2.79211045499E-01
4.45500000000E+09 -3.25926888316E-01 +3.14552645601E-01 -4.98519408360E-03 +6.48163068033E-04 -4.99733968442E-03 +8.19363522405E-04 -3.83136674759E-01 +2.99884457540E-01
4.46000000000E+09 -3.19867965434E-01 +3.26369921351E-01 -5.16213061651E-03 +1.20058156205E-03 -5.15859650161E-03 +1.27847010427E-03 -3.73093316166E-01 +3.20004874272E-01
4.46500000000E+09 -3.10719346697E-01 +3.39079067511E-01 -4.91871238215E-03 +1.75753872835E-03 -4.84054874720E-03 +1.83457658556E-03 -3.62905979827E-01 +3.38959554927E-01
4.47000000000E+09 -2.99945405211E-01 +3.52532541250E-01 -4.90638790580E-03 +2.14291158056E-03 -4.77782717914E-03 +2.27917691336E-03 -3.50429782823E-01 +3.58582144605E-01
4.47500000000E+09 -2.87842649764E-01 +3.68197621097E-01 -4.80247068356E-03 +2.81022437115E-03 -4.73770505794E-03 +2.93928882945E-03 -3.38712567964E-01 +3.76238899601E-01
4.48000000000E+09 -2.75642403806E-01 +3.83227225250E-01 -4.31227567666E-03 +3.59570313335E-03 -4.16548348545E-03 +3.60088310752E-03 -3.26904547786E-01 +3.94792715064E-01
4.48500000000E+09 -2.65983583402E-01 +4.00025969188E-01 -3.63145067937E-03 +3.91694502843E-03 -3.46942954703E-03 +3.91146866116E-03 -3.15078668894E-01 +4.11398327865E-01
4.49000000000E+09 -2.56931600516E-01 +4.16831983451E-01 -3.28968497870E-03 +4.18508961290E-03 -3.13183646668E-03 +4.18184728793E-03 -3.03187496032E-01 +4.27681392360E-01
4.49500000000E+09 -2.49288109945E-01 +4.32300853543E-01 -2.78896223773E-03 +4.39640534398E-03 -2.70005164185E-03 +4.34614365745E-03 -2.91343025820E-01 +4.43114422788E-01
4.50000000000E+09 -2.42759981904E-01 +4.45965284380E-01 -2.37651428443E-03 +4.74718817137E-03 -2.33062644517E-03 +4.69451300980E-03 -2.78246011269E-01 +4.58297205578E-01
4.50500000000E+09 -2.36959794197E-01 +4.56951368441E-01 -1.84670866322E-03 +4.76227398680E-03 -1.76903724607E-03 +4.72248891165E-03 -2.64305531696E-01 +4.73117570044E-01
4.51000000000E+09 -2.30503370577E-01 +4.66485493093E-01 -1.65752321294E-03 +5.20776353517E-03 -1.55190016381E-03 +5.16690912175E-03 -2.50354321943E-01 +4.86963546121E-01
4.51500000000E+09 -2.21910426441E-01 +4.73879684940E-01 -7.52718147742E-04 +5.54117786051E-03 -6.14218481581E-04 +5.48729362095E-03 -2.37072828745E-01 +5.00985574649E-01
4.52000000000E+09 -2.11880151857E-01 +4.80281865593E-01 +1.55297435327E-05 +5.22256150788E-03 +1.17148696313E-04 +5.14900456554E-03 -2.23130361057E-01 +5.14319649436E-01
4.52500000000E+09 -1.99470011133E-01 +4.87450345409E-01 +1.85599162639E-04 +5.33234333282E-03 +2.67361571868E-04 +5.19303185240E-03 -2.08874480583E-01 +5.26130724850E-01
4.53000000000E+09 -1.85479774150E-01 +4.95118766272E-01 +1.03204122976E-03 +5.49035913279E-03 +1.10183237925E-03 +5.31328935212E-03 -1.94472608099E-01 +5.36913751535E-01
4.53500000000E+09 -1.70171284673E-01 +5.04679932027E-01 +1.73019207120E-03 +4.98320598867E-03 +1.84858362834E-03 +4.84386694604E-03 -1.79477071625E-01 +5.47158888813E-01
4.54000000000E+09 -1.54305268485E-01 +5.15141675079E-01 +2.17550875393E-03 +4.79303854900E-03 +2.28013566083E-03 +4.59357593560E-03 -1.64830788094E-01 +5.57508501821E-01
4.54500000000E+09 -1.39854199465E-01 +5.26048622038E-01 +2.86223428202E-03 +4.15983617912E-03 +2.85100501138E-03 +4.03493467575E-03 -1.49822517492E-01 +5.67887449443E-01
4.55000000000E+09 -1.27148793484E-01 +5.36600149255E-01 +2.73427674015E-03 +3.83862085417E-03 +2.76268775412E-03 +3.68690041494E-03 -1.34899566942E-01 +5.78298001534E-01
4.55500000000E+09 -1.17175118191E-01 +5.46752220471E-01 +3.26406354045E-03 +3.64100906857E-03 +3.26644230811E-03 +3.46926681113E-03 -1.20249058652E-01 +5.87535165762E-01
4.56000000000E+09 -1.08821561370E-01 +5.56474853815E-01 +3.58137596217E-03 +3.24967626591E-03 +3.54674279867E-03 +3.10884627836E-03 -1.06076382222E-01 +5.96040099832E-01
4.56500000000E+09 -1.00814371216E-01 +5.64503828425E-01 +3.88633919436E-03 +2.77611655337E-03 +3.85576946896E-03 +2.62696333822E-03 -9.10651323268E-02 +6.04691325151E-01
4.57000000000E+09 -9.18608335162E-02 +5.70745015456E-01 +3.95285056770E-03 +2.51694532961E-03 +3.90182304335E-03 +2.41242287787E-03 -7.56205466670E-02 +6.11628832769E-01
