# Hz S RI R 50
! CMT, C1220, 16058040, 17.2.0/1
! Date: 15/08/2018 11:39:27
! Data: Format (Calibration Info)
! Freq                      S11: Re/Im (F2)                       S21: Re/Im (F2)                       S12: Re/Im (F2)                       S22: Re/Im (F2)            
4.00000000000E+09 +6.36575152960E-01 -3.36122962638E-01 -1.63775131984E-03 -2.88925306336E-03 -1.58949552377E-03 -3.01955342291E-03 +7.69503099124E-01 -3.54377224869E-01
4.00500000000E+09 +6.27609898621E-01 -3.42592193382E-01 -1.73982405384E-03 -2.85784272975E-03 -1.67937154587E-03 -2.96709747972E-03 +7.60980986360E-01 -3.65755206613E-01
4.01000000000E+09 +6.17719042383E-01 -3.48187338685E-01 -2.08621429770E-03 -2.95754001045E-03 -2.05635034977E-03 -3.01595436552E-03 +7.51262375000E-01 -3.76901413777E-01
4.01500000000E+09 +6.07004858729E-01 -3.53507175001E-01 -2.48978344773E-03 -2.62908778422E-03 -2.46078365386E-03 -2.70861046644E-03 +7.41474205468E-01 -3.87130644266E-01
4.02000000000E+09 +5.95652028696E-01 -3.60034213864E-01 -2.57651252724E-03 -2.62567338456E-03 -2.52173288797E-03 -2.81211240833E-03 +7.31835280915E-01 -3.97408586299E-01
4.02500000000E+09 +5.83320772370E-01 -3.67132263330E-01 -3.37169150449E-03 -2.54649757021E-03 -3.36056178392E-03 -2.66087724602E-03 +7.21369325139E-01 -4.07913167983E-01
4.03000000000E+09 +5.70953179360E-01 -3.75229831940E-01 -3.77728925177E-03 -1.79654976663E-03 -3.82048903616E-03 -2.02288158727E-03 +7.10788593644E-01 -4.18227823723E-01
4.03500000000E+09 +5.58195750772E-01 -3.84658598637E-01 -3.74602026237E-03 -1.29516666369E-03 -3.74888430363E-03 -1.45553415028E-03 +6.99485469740E-01 -4.29053847367E-01
4.04000000000E+09 +5.45173845618E-01 -3.93862088357E-01 -3.94935058475E-03 -9.43931835116E-04 -4.01830169806E-03 -1.13209546373E-03 +6.87701744203E-01 -4.39840075705E-01
4.04500000000E+09 +5.32640316736E-01 -4.03182101317E-01 -3.76248475933E-03 -4.95827314190E-04 -3.81737962431E-03 -7.66712338974E-04 +6.75976761292E-01 -4.49912539707E-01
4.05000000000E+09 +5.19753704600E-01 -4.11548429771E-01 -3.91569483888E-03 -4.68922432448E-04 -4.00079191752E-03 -6.55026502995E-04 +6.64373347744E-01 -4.60306726131E-01
4.05500000000E+09 +5.06149325599E-01 -4.18277399198E-01 -4.23799523761E-03 +4.26652158330E-05 -4.45795428134E-03 -1.69224119390E-04 +6.51589466845E-01 -4.70042728493E-01
4.06000000000E+09 +4.92627257588E-01 -4.23207228629E-01 -4.26067990495E-03 +6.29708606254E-04 -4.49073464856E-03 +4.64295122933E-04 +6.38977006986E-01 -4.79270379192E-01
4.06500000000E+09 +4.78778472100E-01 -4.26952815350E-01 -3.88210995681E-03 +1.23662822594E-03 -4.11661955959E-03 +1.20760918537E-03 +6.25391085021E-01 -4.88548001738E-01
4.07000000000E+09 +4.64375975383E-01 -4.30267132711E-01 -3.74298657384E-03 +1.32447638398E-03 -3.89546139502E-03 +1.22671486429E-03 +6.11495735408E-01 -4.97709978348E-01
4.07500000000E+09 +4.49007733105E-01 -4.33564093601E-01 -3.62168845502E-03 +1.65868530024E-03 -3.83507381829E-03 +1.57335428787E-03 +5.97641752028E-01 -5.07309605838E-01
4.08000000000E+09 +4.32637675636E-01 -4.37239215167E-01 -3.52174509942E-03 +1.83153056921E-03 -3.72931427706E-03 +1.73882862627E-03 +5.82777765686E-01 -5.16984283337E-01
4.08500000000E+09 +4.15286336771E-01 -4.41638267901E-01 -3.50327424210E-03 +2.06132559345E-03 -3.70656962204E-03 +2.02751068615E-03 +5.68204701909E-01 -5.25251642531E-01
4.09000000000E+09 +3.97203696275E-01 -4.45592522022E-01 -3.34177129866E-03 +2.39868496443E-03 -3.55667896927E-03 +2.44036988103E-03 +5.53244505985E-01 -5.33290507671E-01
4.09500000000E+09 +3.79621454326E-01 -4.49294281247E-01 -3.45497689799E-03 +2.75166926280E-03 -3.59464497829E-03 +2.85201691334E-03 +5.37941384263E-01 -5.40437833291E-01
4.10000000000E+09 +3.62682431874E-01 -4.53128367607E-01 -3.22196205162E-03 +3.19211895662E-03 -3.29682424338E-03 +3.28654151901E-03 +5.22617032442E-01 -5.47504272529E-01
4.10500000000E+09 +3.46153688960E-01 -4.56337423947E-01 -2.99537666905E-03 +3.66252954095E-03 -3.12756862184E-03 +3.72767294846E-03 +5.05516908606E-01 -5.55176740578E-01
4.11000000000E+09 +3.29298552365E-01 -4.58270640119E-01 -2.65793167301E-03 +4.20467638461E-03 -2.75949845149E-03 +4.24888234184E-03 +4.88036997686E-01 -5.61868536315E-01
4.11500000000E+09 +3.13133278328E-01 -4.58819843914E-01 -1.81930273317E-03 +4.40738756896E-03 -1.96963377567E-03 +4.48431567831E-03 +4.71253267134E-01 -5.68404260737E-01
4.12000000000E+09 +2.96297163516E-01 -4.58454405032E-01 -1.68870815968E-03 +4.25417355658E-03 -1.75861195784E-03 +4.30093527153E-03 +4.53848846648E-01 -5.75511240415E-01
4.12500000000E+09 +2.79170322764E-01 -4.57178379822E-01 -1.76188531272E-03 +4.46170849269E-03 -1.81635943959E-03 +4.44846270699E-03 +4.36204691143E-01 -5.81341480282E-01
4.13000000000E+09 +2.61771067289E-01 -4.55355451468E-01 -1.29298621926E-03 +5.06973676490E-03 -1.47760753310E-03 +5.05985837462E-03 +4.17952403549E-01 -5.86767353758E-01
4.13500000000E+09 +2.43848206735E-01 -4.54056172357E-01 -9.00355587333E-04 +5.24545083464E-03 -1.08364785536E-03 +5.32067576213E-03 +3.99287402088E-01 -5.91567488707E-01
4.14000000000E+09 +2.25530787248E-01 -4.53828623715E-01 -4.00151460266E-04 +5.83146835267E-03 -5.97628135508E-04 +5.93727240809E-03 +3.79773416848E-01 -5.95808402335E-01
4.14500000000E+09 +2.06994305686E-01 -4.54064692974E-01 +6.84280217070E-04 +6.24969911561E-03 +5.05811759343E-04 +6.47827948473E-03 +3.60461727725E-01 -5.99759968842E-01
4.15000000000E+09 +1.88256572955E-01 -4.56145005977E-01 +1.72214888118E-03 +5.79676934939E-03 +1.69484702322E-03 +5.98171980869E-03 +3.41564287037E-01 -6.04429202586E-01
4.15500000000E+09 +1.68425321214E-01 -4.57230481737E-01 +2.23049983385E-03 +5.32229726551E-03 +2.16680568274E-03 +5.44866025419E-03 +3.21408615752E-01 -6.08703383875E-01
4.16000000000E+09 +1.49450142601E-01 -4.56536894627E-01 +2.55195512998E-03 +5.06380010631E-03 +2.50462639340E-03 +5.24587848193E-03 +3.00571957375E-01 -6.10594417636E-01
4.16500000000E+09 +1.31829341288E-01 -4.53963171124E-01 +2.69033404874E-03 +4.78753632398E-03 +2.71311686354E-03 +4.91619479578E-03 +2.81373540048E-01 -6.11562725019E-01
4.17000000000E+09 +1.16068363658E-01 -4.49279288612E-01 +3.02526367756E-03 +5.00068682984E-03 +2.98290339535E-03 +5.24013686496E-03 +2.60390720164E-01 -6.12260324006E-01
4.17500000000E+09 +1.01431594921E-01 -4.43696196338E-01 +3.78038510777E-03 +5.21217982982E-03 +3.77165007634E-03 +5.44299148756E-03 +2.39027177607E-01 -6.12333173950E-01
4.18000000000E+09 +8.64880405363E-02 -4.37516131915E-01 +4.88233271968E-03 +4.64620623645E-03 +4.98413709948E-03 +4.97006496305E-03 +2.17407796021E-01 -6.11881453133E-01
4.18500000000E+09 +7.01269965946E-02 -4.30056114498E-01 +5.41181519807E-03 +3.93262445864E-03 +5.51194438735E-03 +4.26526683602E-03 +1.94959167086E-01 -6.10963453861E-01
4.19000000000E+09 +5.34501101644E-02 -4.21635553253E-01 +5.88712837152E-03 +3.48370815828E-03 +6.08360982990E-03 +3.71348200860E-03 +1.74237442768E-01 -6.08703422694E-01
4.19500000000E+09 +3.57435945607E-02 -4.12865269586E-01 +6.38241249094E-03 +2.75171573370E-03 +6.56134060587E-03 +2.93210194338E-03 +1.53066877973E-01 -6.06653923671E-01
4.20000000000E+09 +1.80762806650E-02 -4.03985665599E-01 +6.51494984528E-03 +1.96939553644E-03 +6.68714839979E-03 +2.16551949184E-03 +1.31220441287E-01 -6.04439481988E-01
4.20500000000E+09 +1.39189576399E-03 -3.96228680979E-01 +6.68598489491E-03 +1.34708256340E-03 +6.88255486926E-03 +1.52492807949E-03 +1.08561970332E-01 -6.00859439489E-01
4.21000000000E+09 -1.51875149715E-02 -3.89194174378E-01 +6.81230204647E-03 +4.71570104385E-04 +7.08959227927E-03 +5.59376876056E-04 +8.55150429112E-02 -5.95946351314E-01
4.21500000000E+09 -3.12572333755E-02 -3.82358828289E-01 +6.55381693671E-03 +2.01267261444E-04 +6.73816143173E-03 +2.94779993180E-04 +6.34368011405E-02 -5.91166189381E-01
4.22000000000E+09 -4.67429509460E-02 -3.74283893474E-01 +6.99312539228E-03 +2.61973007236E-04 +7.14003830179E-03 +2.69229051070E-04 +4.08502436327E-02 -5.85619673111E-01
4.22500000000E+09 -6.04823419272E-02 -3.64877202488E-01 +7.90316798861E-03 -9.11723123068E-04 +8.12357877716E-03 -9.62358142801E-04 +1.80667074989E-02 -5.79446275530E-01
4.23000000000E+09 -7.32684620908E-02 -3.53968145046E-01 +7.83415988718E-03 -2.52537068997E-03 +8.02757862347E-03 -2.46575156143E-03 -4.40176469830E-03 -5.71633219016E-01
4.23500000000E+09 -8.54272909641E-02 -3.41497288660E-01 +7.20216333828E-03 -3.57439515770E-03 +7.38967110642E-03 -3.63706111896E-03 -2.61344259637E-02 -5.62054906768E-01
4.24000000000E+09 -9.80950517962E-02 -3.28100686205E-01 +6.46909784428E-03 -4.25581339773E-03 +6.66431687683E-03 -4.35699139577E-03 -4.72968057406E-02 -5.52006475448E-01
4.24500000000E+09 -1.11118348178E-01 -3.13739304628E-01 +5.86953636482E-03 -4.48747608345E-03 +5.96661628749E-03 -4.55953088972E-03 -6.80782492020E-02 -5.42073989115E-01
4.25000000000E+09 -1.25278492751E-01 -2.98840601787E-01 +5.90832760827E-03 -4.99438223240E-03 +6.03666460479E-03 -5.10708218378E-03 -9.01861353221E-02 -5.31053046626E-01
4.25500000000E+09 -1.40009231663E-01 -2.85001699419E-01 +5.26893266870E-03 -6.11558950025E-03 +5.38312441157E-03 -6.24965497439E-03 -1.12337850270E-01 -5.19137512054E-01
4.26000000000E+09 -1.56534900144E-01 -2.71962731485E-01 +4.42582586989E-03 -6.35873653884E-03 +4.49714053466E-03 -6.49705737495E-03 -1.33680308460E-01 -5.04712721355E-01
4.26500000000E+09 -1.73562644126E-01 -2.59132463867E-01 +4.13507464919E-03 -6.31589644452E-03 +4.18690412276E-03 -6.42210777125E-03 -1.53729497301E-01 -4.89625058290E-01
4.27000000000E+09 -1.89626685888E-01 -2.46130516223E-01 +3.96032736086E-03 -7.24110990382E-03 +3.96865898098E-03 -7.36394140747E-03 -1.72720344390E-01 -4.74145953982E-01
4.27500000000E+09 -2.04529118038E-01 -2.33066161775E-01 +2.95699489587E-03 -7.97047515936E-03 +2.97735302328E-03 -8.13228836725E-03 -1.92791297084E-01 -4.57790685992E-01
4.28000000000E+09 -2.16575150322E-01 -2.18826790998E-01 +2.20306262159E-03 -8.30697153965E-03 +2.17560381918E-03 -8.47973006511E-03 -2.11499251523E-01 -4.41086208914E-01
4.28500000000E+09 -2.25582560288E-01 -2.04814185829E-01 +1.25719113051E-03 -9.02043934638E-03 +1.26885399163E-03 -9.15902547105E-03 -2.30974601219E-01 -4.24424852291E-01
4.29000000000E+09 -2.33202062366E-01 -1.90783404412E-01 -4.51843878774E-04 -9.30775930494E-03 -4.03870095803E-04 -9.50388845109E-03 -2.48541719203E-01 -4.05666698089E-01
4.29500000000E+09 -2.40865677284E-01 -1.76025722563E-01 -1.56065520594E-03 -8.38027593589E-03 -1.60973186815E-03 -8.54559368928E-03 -2.63860886039E-01 -3.88774110477E-01
4.30000000000E+09 -2.49212791384E-01 -1.59251418648E-01 -2.26624495857E-03 -7.92841764899E-03 -2.35415989370E-03 -8.13689160796E-03 -2.80851085936E-01 -3.71024274692E-01
4.30500000000E+09 -2.57382903542E-01 -1.40960182392E-01 -2.51614258388E-03 -7.43876614037E-03 -2.56491587265E-03 -7.59903501193E-03 -2.97056306626E-01 -3.50180023155E-01
4.31000000000E+09 -2.66068109954E-01 -1.20717705534E-01 -2.46567381729E-03 -7.66962814093E-03 -2.55396374364E-03 -7.89101715083E-03 -3.12259405627E-01 -3.29495304109E-01
4.31500000000E+09 -2.73270654129E-01 -1.00907682306E-01 -3.44633165910E-03 -8.14308594165E-03 -3.58657423450E-03 -8.33652889910E-03 -3.26081889849E-01 -3.06906223472E-01
4.32000000000E+09 -2.80319405217E-01 -8.20293750184E-02 -4.66391437891E-03 -8.22896268702E-03 -4.78097768395E-03 -8.34874370732E-03 -3.38734101980E-01 -2.85706607362E-01
4.32500000000E+09 -2.86147542507E-01 -6.57835966906E-02 -6.49931108876E-03 -7.71144261520E-03 -6.74617844291E-03 -7.83078443443E-03 -3.51678366062E-01 -2.64066995697E-01
4.33000000000E+09 -2.92868536616E-01 -5.06209737132E-02 -6.99985674458E-03 -6.76636837525E-03 -7.25565246658E-03 -6.75441752184E-03 -3.64197617711E-01 -2.40022721975E-01
4.33500000000E+09 -2.98423903039E-01 -3.47194054251E-02 -8.14515702073E-03 -5.96296119605E-03 -8.32847264246E-03 -5.88917255554E-03 -3.74263407719E-01 -2.14689503658E-01
4.34000000000E+09 -3.01570818756E-01 -1.81985606408E-02 -8.93788668424E-03 -4.62801013048E-03 -9.01980231065E-03 -4.57079517176E-03 -3.82125448600E-01 -1.89614183271E-01
4.34500000000E+09 -3.02090676679E-01 -1.55867311016E-03 -8.72170926877E-03 -3.36950338058E-03 -8.81685021298E-03 -3.28325169799E-03 -3.90686535175E-01 -1.67066185781E-01
4.35000000000E+09 -3.01572231959E-01 +1.58411328654E-02 -8.93562879161E-03 -2.94216306653E-03 -9.01507342633E-03 -2.93508565522E-03 -4.00833069374E-01 -1.42082527576E-01
4.35500000000E+09 -2.99855882276E-01 +3.40761469005E-02 -9.55471653108E-03 -2.09582166651E-03 -9.69799042739E-03 -2.08742040566E-03 -4.07828117273E-01 -1.15501078894E-01
4.36000000000E+09 -2.98952186816E-01 +5.27438464996E-02 -9.21967240307E-03 -1.31621568648E-03 -9.36722497326E-03 -1.20397473850E-03 -4.12814826886E-01 -9.06431575102E-02
4.36500000000E+09 -2.98091720948E-01 +7.25980288839E-02 -1.02750313282E-02 -1.20344975610E-03 -1.04297731329E-02 -1.14759927181E-03 -4.16200412786E-01 -6.64448678323E-02
4.37000000000E+09 -2.98904416868E-01 +9.23417621101E-02 -1.13521648851E-02 +6.54227567226E-04 -1.14619454884E-02 +8.27663666818E-04 -4.18840891764E-01 -4.25327242911E-02
4.37500000000E+09 -2.99521871869E-01 +1.12292932710E-01 -1.11377198927E-02 +2.85966290085E-03 -1.12301953030E-02 +3.08577389942E-03 -4.20979407860E-01 -1.86116475800E-02
4.38000000000E+09 -3.01003912342E-01 +1.30410771741E-01 -1.03450824972E-02 +4.09977902703E-03 -1.03929598126E-02 +4.31177944928E-03 -4.22935147167E-01 +7.63146463878E-03
4.38500000000E+09 -3.01521580014E-01 +1.47574751144E-01 -9.33085214751E-03 +5.33761454274E-03 -9.40146784758E-03 +5.59853849815E-03 -4.21992466433E-01 +3.33395440689E-02
4.39000000000E+09 -3.01016407038E-01 +1.62919064918E-01 -8.21179259575E-03 +6.06661703838E-03 -8.26389907624E-03 +6.27109738255E-03 -4.21231203637E-01 +5.72584017056E-02
4.39500000000E+09 -2.99319791471E-01 +1.76599490630E-01 -8.27049680260E-03 +6.16675559963E-03 -8.23780840655E-03 +6.37590317335E-03 -4.20671482827E-01 +8.09130963234E-02
4.40000000000E+09 -2.95766366833E-01 +1.90333872491E-01 -7.58143668191E-03 +7.69742981531E-03 -7.55165007770E-03 +7.85160574752E-03 -4.19651423740E-01 +1.04787605589E-01
4.40500000000E+09 -2.90894619624E-01 +2.03554366201E-01 -6.82523572287E-03 +8.59974621710E-03 -6.80183964782E-03 +8.81707742882E-03 -4.16126354316E-01 +1.29353979457E-01
4.41000000000E+09 -2.85012358377E-01 +2.17990164751E-01 -5.53021407148E-03 +9.07199125785E-03 -5.48567849686E-03 +9.23182399641E-03 -4.10915562570E-01 +1.53390834669E-01
4.41500000000E+09 -2.77803696952E-01 +2.34295580402E-01 -4.83912962310E-03 +1.02577634794E-02 -4.69714187067E-03 +1.04096352796E-02 -4.05253375114E-01 +1.76342915403E-01
4.42000000000E+09 -2.70800469041E-01 +2.51147749486E-01 -3.50743506146E-03 +1.04790558281E-02 -3.28544944664E-03 +1.06014682910E-02 -3.98267970610E-01 +1.99520021970E-01
4.42500000000E+09 -2.63957382686E-01 +2.69082101991E-01 -2.54784635698E-03 +1.13199424840E-02 -2.27796621112E-03 +1.12796196092E-02 -3.92941695961E-01 +2.21111562622E-01
4.43000000000E+09 -2.57656460785E-01 +2.86733643173E-01 -3.73025012435E-04 +1.18134376135E-02 -1.12191354354E-04 +1.17350708160E-02 -3.85839152242E-01 +2.44475286517E-01
4.43500000000E+09 -2.52197737411E-01 +3.03399182482E-01 +1.31808178497E-03 +1.10513292228E-02 +1.35259737057E-03 +1.08861440343E-02 -3.76792303540E-01 +2.66494923203E-01
4.44000000000E+09 -2.47472058378E-01 +3.17494792746E-01 +2.48362268400E-03 +1.00062646308E-02 +2.51390915255E-03 +9.81458582869E-03 -3.67628776739E-01 +2.86012629390E-01
4.44500000000E+09 -2.43759370538E-01 +3.30138706914E-01 +2.69402404766E-03 +9.69948660145E-03 +2.73845040839E-03 +9.65595695940E-03 -3.59249443095E-01 +3.05826477510E-01
4.45000000000E+09 -2.39929879182E-01 +3.41626257123E-01 +3.40695038627E-03 +9.34937267045E-03 +3.50991742585E-03 +9.28763825615E-03 -3.49303541177E-01 +3.25858524900E-01
4.45500000000E+09 -2.33748288204E-01 +3.52147465482E-01 +4.24894077795E-03 +9.72376560351E-03 +4.44526148729E-03 +9.65312582479E-03 -3.38599765070E-01 +3.44903804405E-01
4.46000000000E+09 -2.26369690031E-01 +3.61476706701E-01 +5.92741972369E-03 +9.09953611950E-03 +6.04661225740E-03 +8.97470592841E-03 -3.25488850470E-01 +3.63592179471E-01
4.46500000000E+09 -2.16268565096E-01 +3.71505895845E-01 +6.76247686595E-03 +8.02274218286E-03 +6.89358226583E-03 +7.86280925396E-03 -3.13372210469E-01 +3.79212684782E-01
4.47000000000E+09 -2.04607353558E-01 +3.81563225388E-01 +7.53100024953E-03 +7.31929206781E-03 +7.66647794910E-03 +7.12258576364E-03 -3.02229966494E-01 +3.95319438569E-01
4.47500000000E+09 -1.91688952892E-01 +3.92164604468E-01 +8.00360169957E-03 +6.43396960532E-03 +8.12754415781E-03 +6.24355190371E-03 -2.91208571231E-01 +4.13035101543E-01
4.48000000000E+09 -1.79487173430E-01 +4.03364952887E-01 +8.80924786740E-03 +5.53985865653E-03 +8.83009591488E-03 +5.27130656457E-03 -2.78235578507E-01 +4.29965083202E-01
4.48500000000E+09 -1.68657997549E-01 +4.16147005259E-01 +9.57588250490E-03 +4.84504120603E-03 +9.55589801926E-03 +4.56636275411E-03 -2.64090357303E-01 +4.45104648249E-01
4.49000000000E+09 -1.58372279940E-01 +4.29196537287E-01 +1.00280150555E-02 +2.80118582329E-03 +9.96026234473E-03 +2.60367763205E-03 -2.51333128471E-01 +4.58924407232E-01
4.49500000000E+09 -1.49648364767E-01 +4.41710198002E-01 +9.39158387172E-03 +1.82410758785E-03 +9.22904657582E-03 +1.67348680908E-03 -2.38592320542E-01 +4.73390542539E-01
4.50000000000E+09 -1.41978764479E-01 +4.52727122613E-01 +9.29335811933E-03 +1.56648846914E-03 +9.19877239721E-03 +1.39761317808E-03 -2.24592214105E-01 +4.87318635502E-01
4.50500000000E+09 -1.35187756296E-01 +4.62308005001E-01 +9.61476670837E-03 +8.12658231280E-04 +9.58636387906E-03 +6.96104070350E-04 -2.10880530596E-01 +5.00988122501E-01
4.51000000000E+09 -1.27722067172E-01 +4.69535399837E-01 +1.03125385297E-02 -5.14177727827E-05 +1.01811480386E-02 -2.09463624137E-04 -1.94972862373E-01 +5.13368984917E-01
4.51500000000E+09 -1.20190930253E-01 +4.75014663351E-01 +1.03627711177E-02 -1.46799510013E-03 +1.01755617939E-02 -1.65010778466E-03 -1.80984594397E-01 +5.23877313308E-01
4.52000000000E+09 -1.11019543885E-01 +4.79788619022E-01 +1.04099953193E-02 -3.19017308922E-03 +1.00965890731E-02 -3.39333405526E-03 -1.67812747693E-01 +5.35047025134E-01
4.52500000000E+09 -1.00361382365E-01 +4.83938575963E-01 +8.99702305564E-03 -4.37298156955E-03 +8.74519353119E-03 -4.50827637954E-03 -1.53692814859E-01 +5.46155186668E-01
4.53000000000E+09 -8.81708596009E-02 +4.88890092504E-01 +8.40889405560E-03 -4.89995958139E-03 +8.07353018146E-03 -4.96931164773E-03 -1.38529649405E-01 +5.55859697800E-01
4.53500000000E+09 -7.43375877309E-02 +4.94962387993E-01 +7.78462791380E-03 -5.67451979737E-03 +7.50664446167E-03 -5.76643178708E-03 -1.23642640501E-01 +5.65113100745E-01
4.54000000000E+09 -5.93389756857E-02 +5.01394206081E-01 +7.17987733249E-03 -6.29863684526E-03 +6.86670482785E-03 -6.28390848918E-03 -1.07824582865E-01 +5.73621789207E-01
4.54500000000E+09 -4.53339957210E-02 +5.08243449197E-01 +6.25388247069E-03 -6.95256087560E-03 +5.97540119073E-03 -6.89762824548E-03 -9.34861764884E-02 +5.82851421425E-01
4.55000000000E+09 -3.22565712983E-02 +5.15243848753E-01 +5.72044306956E-03 -7.51805807268E-03 +5.47420803197E-03 -7.41251342730E-03 -7.73249194668E-02 +5.91887821258E-01
4.55500000000E+09 -2.15281767320E-02 +5.21841197095E-01 +4.60320561216E-03 -7.69436147027E-03 +4.40468409494E-03 -7.60629636828E-03 -6.16485266564E-02 +5.99931124664E-01
4.56000000000E+09 -1.28524660040E-02 +5.29318691610E-01 +4.13414891963E-03 -8.03919991356E-03 +3.98876239755E-03 -7.91005552325E-03 -4.64025074799E-02 +6.05941926071E-01
4.56500000000E+09 -3.82796997733E-03 +5.35901159802E-01 +3.57145517734E-03 -8.56314873141E-03 +3.37892813835E-03 -8.45523129861E-03 -3.21932738088E-02 +6.12241137159E-01
4.57000000000E+09 +5.11282929240E-03 +5.40727497515E-01 +2.51212453664E-03 -9.22564755793E-03 +2.32120404402E-03 -9.10385978783E-03 -1.74299491362E-02 +6.18391757844E-01
