# Hz S RI R 50
! CMT, C1220, 16058040, 17.2.0/1
! Date: 15/08/2018 11:45:13
! Data: Format (Calibration Info)
! Freq                      S11: Re/Im (F2)                       S21: Re/Im (F2)                       S12: Re/Im (F2)                       S22: Re/Im (F2)            
4.00000000000E+09 +6.40840522689E-01 -3.37020723144E-01 -1.37247383318E-03 -3.00415579421E-03 -1.30226623552E-03 -3.16879920911E-03 +7.70945606083E-01 -3.52022665384E-01
4.00500000000E+09 +6.31859631647E-01 -3.43442333621E-01 -1.53747766447E-03 -3.06702350491E-03 -1.44743684359E-03 -3.20496495977E-03 +7.62364079772E-01 -3.63352551144E-01
4.01000000000E+09 +6.22014210383E-01 -3.48869756313E-01 -1.98518622659E-03 -3.19364656633E-03 -1.90910246998E-03 -3.31249430723E-03 +7.52580550915E-01 -3.74382287204E-01
4.01500000000E+09 +6.11421836860E-01 -3.54373295131E-01 -2.35878842832E-03 -2.76871305367E-03 -2.28096104318E-03 -2.93055643203E-03 +7.42857935383E-01 -3.84362307271E-01
4.02000000000E+09 +6.00040590152E-01 -3.61106890153E-01 -2.46243759366E-03 -2.89233239353E-03 -2.36844457196E-03 -3.06948317843E-03 +7.33478811919E-01 -3.94853822774E-01
4.02500000000E+09 +5.87519951048E-01 -3.68508920883E-01 -3.23488909087E-03 -2.88006533036E-03 -3.18313149987E-03 -3.08989692338E-03 +7.23011007185E-01 -4.05483725624E-01
4.03000000000E+09 +5.75189214497E-01 -3.76521354109E-01 -3.70962497313E-03 -2.23280994095E-03 -3.77705709196E-03 -2.46900086153E-03 +7.12113283093E-01 -4.15894618729E-01
4.03500000000E+09 +5.62570311769E-01 -3.85966890225E-01 -3.78433948681E-03 -1.73806597533E-03 -3.89054662608E-03 -1.93143181454E-03 +7.00664312323E-01 -4.26798066648E-01
4.04000000000E+09 +5.49976210425E-01 -3.95293549302E-01 -4.03114271030E-03 -1.32052653342E-03 -4.08953794719E-03 -1.52895988339E-03 +6.88769408220E-01 -4.37294362445E-01
4.04500000000E+09 +5.37668261419E-01 -4.04843027213E-01 -3.94393638977E-03 -8.96866229934E-04 -4.08071749020E-03 -1.06393724689E-03 +6.77158273428E-01 -4.47380176590E-01
4.05000000000E+09 +5.24809721055E-01 -4.13528674341E-01 -4.07340509517E-03 -8.16575645549E-04 -4.19989284802E-03 -1.00012202214E-03 +6.65642128247E-01 -4.57483679128E-01
4.05500000000E+09 +5.11243052692E-01 -4.20329403853E-01 -4.53314224683E-03 -4.09205378281E-04 -4.71527802112E-03 -5.84546997404E-04 +6.53451572610E-01 -4.67358640862E-01
4.06000000000E+09 +4.97655662127E-01 -4.25168908595E-01 -4.75830056988E-03 +2.50969070739E-04 -4.95465938149E-03 +1.70970473062E-04 +6.40723699511E-01 -4.76733464955E-01
4.06500000000E+09 +4.83795081109E-01 -4.28783233676E-01 -4.54731098260E-03 +1.04350301284E-03 -4.70509342952E-03 +1.01349735303E-03 +6.26938169917E-01 -4.86029801916E-01
4.07000000000E+09 +4.69553038323E-01 -4.31918882796E-01 -4.31056576694E-03 +1.41285742303E-03 -4.46218620940E-03 +1.37026585315E-03 +6.13084557566E-01 -4.95240583737E-01
4.07500000000E+09 +4.54539943193E-01 -4.35740336273E-01 -3.99383490783E-03 +1.70743427958E-03 -4.09574531157E-03 +1.62303415475E-03 +5.99036440377E-01 -5.05023661255E-01
4.08000000000E+09 +4.37841782090E-01 -4.39705629314E-01 -3.91916020643E-03 +1.85203460708E-03 -4.01860642295E-03 +1.75188195792E-03 +5.84256258359E-01 -5.14536697981E-01
4.08500000000E+09 +4.20195269462E-01 -4.44304621592E-01 -4.00681965190E-03 +2.13585552242E-03 -4.18770913687E-03 +2.08145014174E-03 +5.69542181211E-01 -5.22817846520E-01
4.09000000000E+09 +4.02163027752E-01 -4.48308392706E-01 -3.81602156303E-03 +2.65386186217E-03 -4.01092611614E-03 +2.66663259780E-03 +5.55041456002E-01 -5.30510270819E-01
4.09500000000E+09 +3.84785335978E-01 -4.52332092549E-01 -3.71608401609E-03 +3.03254608844E-03 -3.88617214274E-03 +3.06463219040E-03 +5.39801088249E-01 -5.37890770960E-01
4.10000000000E+09 +3.67818679772E-01 -4.56632926481E-01 -3.44692568279E-03 +3.42049482036E-03 -3.51685561793E-03 +3.43422949909E-03 +5.24295330897E-01 -5.45220793072E-01
4.10500000000E+09 +3.51303227967E-01 -4.60300890454E-01 -3.28499320026E-03 +3.79868266385E-03 -3.40131687845E-03 +3.81710212667E-03 +5.07185582931E-01 -5.52951577999E-01
4.11000000000E+09 +3.34272077515E-01 -4.62776050366E-01 -2.95766477056E-03 +4.46825882504E-03 -3.12270892295E-03 +4.51036776480E-03 +4.89513857762E-01 -5.59542727047E-01
4.11500000000E+09 +3.17693998570E-01 -4.63229789612E-01 -2.12002086483E-03 +4.77267635446E-03 -2.32862486141E-03 +4.80855640806E-03 +4.72543576157E-01 -5.65999035979E-01
4.12000000000E+09 +3.00929983550E-01 -4.62894618026E-01 -1.69142888083E-03 +4.72273765329E-03 -1.92983346340E-03 +4.80639687930E-03 +4.55367564916E-01 -5.72598754959E-01
4.12500000000E+09 +2.83679673107E-01 -4.61758771053E-01 -1.58946285278E-03 +4.74467351259E-03 -1.76810332675E-03 +4.80716227177E-03 +4.38181506987E-01 -5.78423748334E-01
4.13000000000E+09 +2.66079920592E-01 -4.59944532259E-01 -1.31847520057E-03 +5.11829977994E-03 -1.53034473858E-03 +5.14604585441E-03 +4.20031731581E-01 -5.84239962756E-01
4.13500000000E+09 +2.47966721308E-01 -4.58812237524E-01 -1.28329236791E-03 +5.44449322383E-03 -1.48842765038E-03 +5.57298541946E-03 +4.01170779455E-01 -5.88875819074E-01
4.14000000000E+09 +2.29649260001E-01 -4.58436089289E-01 -7.29332262646E-04 +6.40492368508E-03 -9.42639688814E-04 +6.54512933672E-03 +3.81672226639E-01 -5.93065589123E-01
4.14500000000E+09 +2.11152290738E-01 -4.59072851429E-01 +7.25962681774E-04 +7.01370792719E-03 +5.54429363890E-04 +7.27344042306E-03 +3.62344637186E-01 -5.96626735741E-01
4.15000000000E+09 +1.92428096311E-01 -4.61467828096E-01 +1.91535400666E-03 +6.34596791702E-03 +1.92946506666E-03 +6.63845303496E-03 +3.43992990978E-01 -6.01127067577E-01
4.15500000000E+09 +1.72551044539E-01 -4.62825411146E-01 +2.45047263851E-03 +5.67207729313E-03 +2.44918797245E-03 +5.92513835017E-03 +3.24096600605E-01 -6.05765460890E-01
4.16000000000E+09 +1.53647971027E-01 -4.62456546563E-01 +2.74062490403E-03 +5.36427296167E-03 +2.79324278061E-03 +5.59235278978E-03 +3.03413516820E-01 -6.07635462859E-01
4.16500000000E+09 +1.35695322356E-01 -4.60201442236E-01 +2.76763287505E-03 +5.14412312280E-03 +2.82880229781E-03 +5.30246947264E-03 +2.84348870946E-01 -6.08907714968E-01
4.17000000000E+09 +1.19830296473E-01 -4.55746201105E-01 +3.22619163011E-03 +5.70739720981E-03 +3.21250482848E-03 +5.88902735531E-03 +2.63554070603E-01 -6.09735104879E-01
4.17500000000E+09 +1.04634066424E-01 -4.50373025685E-01 +4.39403686061E-03 +5.79910139114E-03 +4.38947949841E-03 +6.06879994102E-03 +2.42183119404E-01 -6.09866406273E-01
4.18000000000E+09 +8.93573620631E-02 -4.44208751147E-01 +5.56386300341E-03 +4.94466101817E-03 +5.68939680943E-03 +5.17482207983E-03 +2.20625758734E-01 -6.09644010678E-01
4.18500000000E+09 +7.26973243296E-02 -4.37039340975E-01 +5.99756855500E-03 +4.17990920803E-03 +6.13798479416E-03 +4.43209490816E-03 +1.98126914667E-01 -6.08497988273E-01
4.19000000000E+09 +5.54602964866E-02 -4.28801285411E-01 +6.57290409630E-03 +3.64813551718E-03 +6.74241619275E-03 +3.85852554575E-03 +1.77582335280E-01 -6.06391601893E-01
4.19500000000E+09 +3.71786820762E-02 -4.20180506881E-01 +7.12013516837E-03 +2.85900341596E-03 +7.23047801477E-03 +3.05531834026E-03 +1.56726556678E-01 -6.04628972976E-01
4.20000000000E+09 +1.92325209979E-02 -4.11319723193E-01 +7.29602625212E-03 +1.90360419517E-03 +7.48200350697E-03 +2.10599437460E-03 +1.34874861547E-01 -6.02808482764E-01
4.20500000000E+09 +1.97099676056E-03 -4.03818775627E-01 +7.47011725558E-03 +1.04756067289E-03 +7.64571375089E-03 +1.15359573412E-03 +1.11911191239E-01 -5.99567697278E-01
4.21000000000E+09 -1.50375410779E-02 -3.96554965563E-01 +7.51763186830E-03 -6.44316476101E-05 +7.69788503595E-03 +4.10037584009E-05 +8.84138871932E-02 -5.94445878898E-01
4.21500000000E+09 -3.12815548610E-02 -3.89682193105E-01 +6.93709351471E-03 -2.67659130674E-04 +7.15539293971E-03 -1.62111995679E-04 +6.64079833632E-02 -5.89226971572E-01
4.22000000000E+09 -4.69001765941E-02 -3.81646164284E-01 +7.49998923627E-03 -2.38404888930E-04 +7.63637647786E-03 -2.01277373825E-04 +4.42225012593E-02 -5.83509672952E-01
4.22500000000E+09 -6.10553005197E-02 -3.71674500179E-01 +8.45460021690E-03 -1.53704920694E-03 +8.63383558884E-03 -1.45454437626E-03 +2.18686708088E-02 -5.77238413555E-01
4.23000000000E+09 -7.37983804028E-02 -3.60297022027E-01 +8.13391167652E-03 -3.45671887733E-03 +8.37475054429E-03 -3.45576185404E-03 -2.26722184345E-04 -5.69611135689E-01
4.23500000000E+09 -8.62566449877E-02 -3.47526660226E-01 +6.96367391426E-03 -4.35491900244E-03 +7.22450188317E-03 -4.36470350902E-03 -2.18499824838E-02 -5.60286275030E-01
4.24000000000E+09 -9.92051272729E-02 -3.33420026801E-01 +6.35327672291E-03 -4.78905745371E-03 +6.59183376803E-03 -4.89105604864E-03 -4.26518552290E-02 -5.50640825466E-01
4.24500000000E+09 -1.12631735352E-01 -3.18377467289E-01 +5.80711297520E-03 -4.85146141775E-03 +5.93006227110E-03 -4.89904163480E-03 -6.36828060518E-02 -5.41430401814E-01
4.25000000000E+09 -1.27059720203E-01 -3.03017168255E-01 +5.93687692273E-03 -5.44745268488E-03 +6.13499649578E-03 -5.49524453580E-03 -8.60862492734E-02 -5.30485690858E-01
4.25500000000E+09 -1.42228613876E-01 -2.88828657586E-01 +5.33756442194E-03 -6.56116947292E-03 +5.53435858132E-03 -6.70560643466E-03 -1.08036691712E-01 -5.18399469977E-01
4.26000000000E+09 -1.58722757980E-01 -2.75291145290E-01 +4.43531460994E-03 -7.19517884861E-03 +4.56524884331E-03 -7.40952614213E-03 -1.29030170111E-01 -5.04228946671E-01
4.26500000000E+09 -1.75992453197E-01 -2.62762281941E-01 +3.68404996461E-03 -7.14714612931E-03 +3.75342372703E-03 -7.35051899338E-03 -1.48687236778E-01 -4.89395342981E-01
4.27000000000E+09 -1.92066061030E-01 -2.49887195922E-01 +3.30159773951E-03 -7.66063097969E-03 +3.34584423543E-03 -7.91880495305E-03 -1.67761979388E-01 -4.74833018705E-01
4.27500000000E+09 -2.07298516392E-01 -2.36943730402E-01 +2.56285776336E-03 -8.22161861424E-03 +2.61098413294E-03 -8.42807273927E-03 -1.88389584123E-01 -4.59116562312E-01
4.28000000000E+09 -2.19339451111E-01 -2.22513748920E-01 +1.73205009699E-03 -8.83712197563E-03 +1.73210766227E-03 -9.02299154746E-03 -2.08056729993E-01 -4.42801626505E-01
4.28500000000E+09 -2.27979995337E-01 -2.08215064368E-01 +6.50361039866E-04 -9.45790937936E-03 +5.99235894829E-04 -9.67272762523E-03 -2.27837583583E-01 -4.25418816206E-01
4.29000000000E+09 -2.35120253312E-01 -1.94255765217E-01 -1.14721947274E-03 -9.48836566081E-03 -1.19616971968E-03 -9.68568785011E-03 -2.45334836930E-01 -4.06568697375E-01
4.29500000000E+09 -2.42873160711E-01 -1.79635912754E-01 -2.19271681209E-03 -8.34302904945E-03 -2.34666156042E-03 -8.48818314629E-03 -2.60524149355E-01 -3.89783697522E-01
4.30000000000E+09 -2.51369693170E-01 -1.62381528591E-01 -2.59760117356E-03 -8.00694894898E-03 -2.75427552070E-03 -8.15625719515E-03 -2.77559036891E-01 -3.72157361516E-01
4.30500000000E+09 -2.59708705795E-01 -1.43289733158E-01 -3.00451340372E-03 -7.67785577501E-03 -3.19790876624E-03 -7.85453288764E-03 -2.94247022494E-01 -3.51357459354E-01
4.31000000000E+09 -2.68039251772E-01 -1.22664106670E-01 -3.50306751127E-03 -7.81437436153E-03 -3.62906230740E-03 -7.92598418720E-03 -3.09503701973E-01 -3.30181784379E-01
4.31500000000E+09 -2.75605225722E-01 -1.02648114418E-01 -4.36236700679E-03 -7.84126323855E-03 -4.54542179985E-03 -7.95978966209E-03 -3.23368724614E-01 -3.08121931845E-01
4.32000000000E+09 -2.82622933608E-01 -8.34715265242E-02 -5.37548004445E-03 -7.59913029450E-03 -5.54418169743E-03 -7.67397234965E-03 -3.36395177584E-01 -2.86572584651E-01
4.32500000000E+09 -2.88763070674E-01 -6.77591824251E-02 -6.81135113196E-03 -6.93143002412E-03 -7.00992989507E-03 -6.95748623518E-03 -3.49099003688E-01 -2.64655624630E-01
4.33000000000E+09 -2.96453213131E-01 -5.23517482356E-02 -7.06744073839E-03 -6.21508561655E-03 -7.28852891185E-03 -6.23595551753E-03 -3.61415124892E-01 -2.40756988272E-01
4.33500000000E+09 -3.02242775280E-01 -3.58543010305E-02 -8.26869419459E-03 -5.68399700914E-03 -8.31991872404E-03 -5.62799415158E-03 -3.71045308486E-01 -2.15386190922E-01
4.34000000000E+09 -3.04871784667E-01 -1.90261865374E-02 -9.22777670700E-03 -4.36327848659E-03 -9.23472542432E-03 -4.30232098335E-03 -3.78727469090E-01 -1.91163237900E-01
4.34500000000E+09 -3.05034608066E-01 -2.43235527722E-03 -9.06547545660E-03 -2.91250104785E-03 -9.06470764931E-03 -2.90147958206E-03 -3.88091755996E-01 -1.68696735380E-01
4.35000000000E+09 -3.04069726586E-01 +1.46572467199E-02 -9.17351593375E-03 -2.43404559136E-03 -9.17862885052E-03 -2.43912115289E-03 -3.98353120427E-01 -1.43528389568E-01
4.35500000000E+09 -3.02233214207E-01 +3.27207833425E-02 -9.59426238858E-03 -1.55868847078E-03 -9.71243409699E-03 -1.54537771075E-03 -4.05571291902E-01 -1.16807280388E-01
4.36000000000E+09 -3.01673792025E-01 +5.17391542588E-02 -9.18869833031E-03 -8.95505742099E-04 -9.28746198927E-03 -8.59307627793E-04 -4.10322525180E-01 -9.20267444936E-02
4.36500000000E+09 -3.00794217975E-01 +7.23710673944E-02 -1.03126473986E-02 -7.89995854859E-04 -1.04692710073E-02 -7.48628042653E-04 -4.13619066835E-01 -6.81219297878E-02
4.37000000000E+09 -3.00953327145E-01 +9.28883645066E-02 -1.13173494366E-02 +1.11130999203E-03 -1.14456798765E-02 +1.16792669690E-03 -4.16748281797E-01 -4.45915989192E-02
4.37500000000E+09 -3.01133654714E-01 +1.12799391112E-01 -1.10074257008E-02 +3.33596546101E-03 -1.11417569540E-02 +3.49759931241E-03 -4.19210234780E-01 -2.03374870188E-02
4.38000000000E+09 -3.02527516118E-01 +1.31005787583E-01 -1.02451304940E-02 +4.42611859061E-03 -1.03334465175E-02 +4.63562293954E-03 -4.21219312528E-01 +6.00971872887E-03
4.38500000000E+09 -3.03320483887E-01 +1.48055883428E-01 -9.49098977100E-03 +5.76601736787E-03 -9.54682196078E-03 +6.00375419071E-03 -4.20391297292E-01 +3.19377716182E-02
4.39000000000E+09 -3.03180036683E-01 +1.63896799943E-01 -8.28876080370E-03 +6.71925760604E-03 -8.25193610126E-03 +6.95511272774E-03 -4.19760841237E-01 +5.61542867420E-02
4.39500000000E+09 -3.01232179637E-01 +1.78010241945E-01 -7.82931198224E-03 +7.08259874134E-03 -7.80214004254E-03 +7.32050271634E-03 -4.19101360133E-01 +7.99788210384E-02
4.40000000000E+09 -2.97453987605E-01 +1.91800216373E-01 -6.93761907285E-03 +8.27874557276E-03 -6.89783922102E-03 +8.51212505623E-03 -4.17556990002E-01 +1.04128441699E-01
4.40500000000E+09 -2.92400558718E-01 +2.04761158622E-01 -5.99026440857E-03 +9.05048327259E-03 -5.92751543549E-03 +9.20415013704E-03 -4.13647442186E-01 +1.28048233200E-01
4.41000000000E+09 -2.86517955458E-01 +2.19445925690E-01 -4.75749760188E-03 +9.01850329246E-03 -4.66498470338E-03 +9.19636592024E-03 -4.08706365992E-01 +1.51814570498E-01
4.41500000000E+09 -2.79260581229E-01 +2.35778754162E-01 -4.41885449766E-03 +1.01336194824E-02 -4.31448015733E-03 +1.03029568109E-02 -4.03184355900E-01 +1.74791429811E-01
4.42000000000E+09 -2.71989565627E-01 +2.53239916756E-01 -3.27303714319E-03 +1.05505422506E-02 -3.08396654353E-03 +1.06887709345E-02 -3.96359270991E-01 +1.97890158706E-01
4.42500000000E+09 -2.64994592645E-01 +2.71210383607E-01 -1.99999191304E-03 +1.17098119750E-02 -1.71650075099E-03 +1.17478502588E-02 -3.91070952938E-01 +2.19667422002E-01
4.43000000000E+09 -2.58562230668E-01 +2.89065832680E-01 +6.21752021989E-04 +1.19077448297E-02 +8.65744160331E-04 +1.18456737062E-02 -3.83430411875E-01 +2.43298036868E-01
4.43500000000E+09 -2.52966238802E-01 +3.05677905003E-01 +1.97805096021E-03 +1.06836349304E-02 +2.14229274951E-03 +1.05685795996E-02 -3.73724836543E-01 +2.64379059085E-01
4.44000000000E+09 -2.48497104654E-01 +3.20081737055E-01 +2.98591183277E-03 +9.44922741372E-03 +3.14713570270E-03 +9.42392580911E-03 -3.65153611640E-01 +2.83265718768E-01
4.44500000000E+09 -2.44463558762E-01 +3.32890429990E-01 +3.03048676189E-03 +9.16643698901E-03 +3.19879652481E-03 +9.10131544534E-03 -3.57180218481E-01 +3.02675599480E-01
4.45000000000E+09 -2.40380362253E-01 +3.44062197782E-01 +3.45819632364E-03 +8.84065645772E-03 +3.66701339059E-03 +8.74493130151E-03 -3.47985684054E-01 +3.22662460723E-01
4.45500000000E+09 -2.34104573244E-01 +3.54301311242E-01 +4.24844927127E-03 +9.47928157672E-03 +4.49751711635E-03 +9.34190783329E-03 -3.37477307331E-01 +3.41945474139E-01
4.46000000000E+09 -2.26553574742E-01 +3.63558204627E-01 +6.12646369290E-03 +9.05919613121E-03 +6.32752210975E-03 +8.83008745167E-03 -3.24540670444E-01 +3.60848232483E-01
4.46500000000E+09 -2.16457289527E-01 +3.73539661226E-01 +7.05663441151E-03 +7.75174356713E-03 +7.19717954450E-03 +7.48220602033E-03 -3.12830582399E-01 +3.76462468901E-01
4.47000000000E+09 -2.04928327803E-01 +3.83906601200E-01 +7.78086003922E-03 +6.94466269206E-03 +7.91475733667E-03 +6.66252713778E-03 -3.01512547137E-01 +3.93296680805E-01
4.47500000000E+09 -1.91646827011E-01 +3.95258762350E-01 +8.15307750683E-03 +5.97779494910E-03 +8.19247952711E-03 +5.64873272938E-03 -2.90026258733E-01 +4.10743632921E-01
4.48000000000E+09 -1.79103120576E-01 +4.06525937775E-01 +8.80413905252E-03 +5.11585129009E-03 +8.77469538169E-03 +4.79897062455E-03 -2.77294340671E-01 +4.27115923232E-01
4.48500000000E+09 -1.68334844655E-01 +4.18952792879E-01 +9.47691859237E-03 +4.47009920098E-03 +9.36580013173E-03 +4.17446251459E-03 -2.63743458190E-01 +4.42185442038E-01
4.49000000000E+09 -1.58892815504E-01 +4.32134024499E-01 +9.92602739686E-03 +2.49609961378E-03 +9.70182775837E-03 +2.34539562422E-03 -2.51134604324E-01 +4.56567698842E-01
4.49500000000E+09 -1.50852562989E-01 +4.45088686495E-01 +9.26354630178E-03 +1.67347417032E-03 +9.06553131038E-03 +1.61674199527E-03 -2.38295307542E-01 +4.71283555062E-01
4.50000000000E+09 -1.43584929501E-01 +4.56253998137E-01 +9.39652957237E-03 +1.43418081407E-03 +9.28161902082E-03 +1.36057063080E-03 -2.23851450185E-01 +4.85210121466E-01
4.50500000000E+09 -1.37219522208E-01 +4.65916488073E-01 +9.78180636624E-03 +6.74019015982E-04 +9.65917242258E-03 +5.63826104827E-04 -2.09838120790E-01 +4.98534851430E-01
4.51000000000E+09 -1.29779399718E-01 +4.72744773702E-01 +1.04377557369E-02 -4.11682435380E-04 +1.02981734688E-02 -5.10507625017E-04 -1.94114728267E-01 +5.10430935772E-01
4.51500000000E+09 -1.22428645648E-01 +4.77798883286E-01 +1.03986788504E-02 -1.90967231087E-03 +1.02480743277E-02 -2.04421067806E-03 -1.80470054757E-01 +5.20720556837E-01
4.52000000000E+09 -1.13295127990E-01 +4.82327886364E-01 +1.02083179438E-02 -3.68484797121E-03 +9.98547081537E-03 -3.72539622503E-03 -1.67395722286E-01 +5.31852230508E-01
4.52500000000E+09 -1.02316966342E-01 +4.86493618056E-01 +8.83844316087E-03 -4.72531224469E-03 +8.63576459364E-03 -4.74367959054E-03 -1.53798332269E-01 +5.42659136811E-01
4.53000000000E+09 -8.95031016724E-02 +4.91181903102E-01 +8.29428839201E-03 -5.14542038629E-03 +8.13779526749E-03 -5.19210355355E-03 -1.38826115055E-01 +5.52527447441E-01
4.53500000000E+09 -7.53771988496E-02 +4.97171100536E-01 +7.76421056875E-03 -6.15881177991E-03 +7.52118498018E-03 -6.17487901225E-03 -1.24448248797E-01 +5.61739996966E-01
4.54000000000E+09 -6.02961442681E-02 +5.04141999106E-01 +6.93891985703E-03 -6.77161760809E-03 +6.73942374243E-03 -6.76861186837E-03 -1.08671877958E-01 +5.70456730517E-01
4.54500000000E+09 -4.59187041757E-02 +5.11568380545E-01 +6.04947292539E-03 -7.38823072474E-03 +5.77509481804E-03 -7.32060916952E-03 -9.44716081520E-02 +5.79496650129E-01
4.55000000000E+09 -3.29983091358E-02 +5.19167511474E-01 +5.39072164851E-03 -7.99203979342E-03 +5.13722501016E-03 -7.87422033138E-03 -7.86831392945E-02 +5.88639113670E-01
4.55500000000E+09 -2.22087480935E-02 +5.26729682863E-01 +4.12095452327E-03 -8.16731588230E-03 +3.95713283894E-03 -8.09597384575E-03 -6.34946421070E-02 +5.96794386775E-01
4.56000000000E+09 -1.36991193790E-02 +5.34373293600E-01 +3.47161093051E-03 -8.38467561136E-03 +3.34708806533E-03 -8.27670543239E-03 -4.84570352932E-02 +6.03311104041E-01
4.56500000000E+09 -5.07099382990E-03 +5.41104826853E-01 +2.88960015645E-03 -8.81061994230E-03 +2.65508434056E-03 -8.70326443431E-03 -3.45346787277E-02 +6.10009359260E-01
4.57000000000E+09 +3.42678481633E-03 +5.46181142383E-01 +1.69159441957E-03 -9.24272800508E-03 +1.49444077537E-03 -9.06865835075E-03 -1.95254829159E-02 +6.16409919540E-01
