# Hz S RI R 50
! CMT, C1220, 16058040, 17.2.0/1
! Date: 15/08/2018 12:24:05
! Data: Format (Calibration Info)
! Freq                      S11: Re/Im (F2)                       S21: Re/Im (F2)                       S12: Re/Im (F2)                       S22: Re/Im (F2)            
4.00000000000E+09 +6.55577657049E-01 -3.51219514830E-01 +4.86878096212E-04 -3.50430513108E-04 +4.50776401703E-04 -3.33166512585E-04 +7.42860313942E-01 -3.24454668680E-01
4.00500000000E+09 +6.47892184619E-01 -3.57589564994E-01 +5.25312278422E-04 -3.59684302262E-04 +4.91639458073E-04 -3.22359820766E-04 +7.32276879648E-01 -3.35068237715E-01
4.01000000000E+09 +6.38937505018E-01 -3.64309977848E-01 +5.63698926220E-04 -6.90243013993E-04 +6.11163405648E-04 -6.24612340892E-04 +7.21158774646E-01 -3.45977354543E-01
4.01500000000E+09 +6.28547934901E-01 -3.71157395832E-01 +4.22518770343E-04 -8.20842617092E-04 +4.08129303673E-04 -8.49587584278E-04 +7.09771015278E-01 -3.56082218741E-01
4.02000000000E+09 +6.17916068688E-01 -3.79042454293E-01 +1.77830166825E-05 -9.25554229888E-04 +1.52564180738E-05 -8.75390080662E-04 +6.98131755487E-01 -3.66075011052E-01
4.02500000000E+09 +6.06584329378E-01 -3.88209325744E-01 -1.54539301414E-04 -4.94380476797E-04 -1.81157041310E-04 -5.34595113462E-04 +6.85828319622E-01 -3.75785652325E-01
4.03000000000E+09 +5.95636710744E-01 -3.98246568227E-01 +1.64182464364E-04 -4.79299830957E-04 +1.93782019868E-04 -4.00378410420E-04 +6.72898305722E-01 -3.85070875768E-01
4.03500000000E+09 +5.84751376685E-01 -4.09308508896E-01 +2.30940876557E-04 -7.10833736668E-04 +3.33134233279E-04 -6.72486208328E-04 +6.60174605686E-01 -3.94753918964E-01
4.04000000000E+09 +5.73838701556E-01 -4.20333731065E-01 +1.38025927811E-04 -9.25154716631E-04 +2.52100284330E-04 -9.00298632311E-04 +6.46687557569E-01 -4.04874801327E-01
4.04500000000E+09 +5.62868608129E-01 -4.30385528954E-01 -1.52456524342E-04 -1.11024139783E-03 -9.74150670588E-05 -1.19374808954E-03 +6.32558645417E-01 -4.14137618924E-01
4.05000000000E+09 +5.51783217286E-01 -4.38672950915E-01 -5.63878064061E-04 -8.84744657680E-04 -5.54229505530E-04 -1.01195319824E-03 +6.18777678095E-01 -4.22672077124E-01
4.05500000000E+09 +5.40685716640E-01 -4.44803650827E-01 -5.46214661049E-04 -6.83577638838E-04 -5.23951547684E-04 -7.37327159568E-04 +6.04242822707E-01 -4.30938798961E-01
4.06000000000E+09 +5.29372374651E-01 -4.49734833576E-01 -6.06762139806E-04 -5.68883152768E-04 -6.07447099286E-04 -6.57170700416E-04 +5.89607092096E-01 -4.38713724226E-01
4.06500000000E+09 +5.17063782535E-01 -4.53761594651E-01 -4.96303014055E-04 -4.78754792177E-04 -4.75364600566E-04 -5.63623570861E-04 +5.73867289452E-01 -4.46266392638E-01
4.07000000000E+09 +5.03638139247E-01 -4.58274637669E-01 -5.54744848967E-04 -6.22924274461E-04 -5.74253908254E-04 -6.59414358532E-04 +5.57816402542E-01 -4.53383047846E-01
4.07500000000E+09 +4.88669053750E-01 -4.63053435869E-01 -6.56205099883E-04 -4.76239890165E-04 -6.78468721262E-04 -5.57761374793E-04 +5.41421400961E-01 -4.60636966847E-01
4.08000000000E+09 +4.72222030262E-01 -4.68710420850E-01 -7.46270726189E-04 -5.08073382699E-04 -7.76468163194E-04 -5.97494574857E-04 +5.25383644574E-01 -4.67091654904E-01
4.08500000000E+09 +4.54914791907E-01 -4.74574955055E-01 -9.23979188344E-04 -3.98562942119E-04 -9.79779916282E-04 -4.69275324694E-04 +5.09082378296E-01 -4.74468048784E-01
4.09000000000E+09 +4.37942999227E-01 -4.81111853375E-01 -9.68872199148E-04 -2.68231087205E-04 -1.04314271170E-03 -2.65753263123E-04 +4.91070662739E-01 -4.79882741413E-01
4.09500000000E+09 +4.21132028234E-01 -4.88007479848E-01 -9.94535350614E-04 +2.21495079008E-05 -1.09538015695E-03 +2.84473991911E-05 +4.74113338851E-01 -4.84516817519E-01
4.10000000000E+09 +4.04357391476E-01 -4.94379820107E-01 -8.82053592616E-04 +1.50423192405E-04 -9.50566216458E-04 +2.07241733400E-04 +4.55568261730E-01 -4.89135607936E-01
4.10500000000E+09 +3.88450558141E-01 -4.99266352047E-01 -7.12919197850E-04 +3.37497911026E-04 -7.82339850586E-04 +3.92009791145E-04 +4.36555039881E-01 -4.92685479149E-01
4.11000000000E+09 +3.72469167368E-01 -5.02830259741E-01 -5.80505164031E-04 +2.29479135630E-04 -6.38816444886E-04 +2.23208080438E-04 +4.17834147056E-01 -4.95680560250E-01
4.11500000000E+09 +3.56872884750E-01 -5.04909979402E-01 -3.54244332870E-04 +9.27247855201E-05 -4.72098015802E-04 +1.31835166025E-04 +3.99456461858E-01 -4.99237585898E-01
4.12000000000E+09 +3.40713588508E-01 -5.06280534337E-01 -6.73750271089E-04 -2.46374461885E-04 -7.27322788942E-04 -2.43596674058E-04 +3.80152229930E-01 -5.02433004535E-01
4.12500000000E+09 +3.23250791794E-01 -5.06972683550E-01 -1.15466671804E-03 -4.19947559844E-05 -1.20815355509E-03 -5.72026091370E-06 +3.60146739954E-01 -5.04488052443E-01
4.13000000000E+09 +3.04842822797E-01 -5.07846802300E-01 -1.28686824211E-03 +4.87128577840E-04 -1.27817978564E-03 +5.85786850803E-04 +3.39977457832E-01 -5.05584279845E-01
4.13500000000E+09 +2.85506808489E-01 -5.09493388439E-01 -9.20448671939E-04 +9.17541589231E-04 -8.43500692248E-04 +9.20850061195E-04 +3.19724925637E-01 -5.05256097753E-01
4.14000000000E+09 +2.65422873355E-01 -5.12230207173E-01 -5.24024222076E-04 +7.01067662923E-04 -4.38567075644E-04 +7.16287789393E-04 +2.99504475034E-01 -5.05287455689E-01
4.14500000000E+09 +2.45486665978E-01 -5.16267256391E-01 -5.67129708118E-04 +7.02242239200E-04 -5.55174977586E-04 +6.88518891667E-04 +2.78907648278E-01 -5.04470093463E-01
4.15000000000E+09 +2.24911615140E-01 -5.20751937395E-01 -3.98684001089E-04 +7.89768456530E-04 -3.61471546190E-04 +8.23356406384E-04 +2.59308446056E-01 -5.03440164396E-01
4.15500000000E+09 +2.05159838819E-01 -5.24899068653E-01 -4.75050500871E-04 +3.90588883217E-04 -4.43047524943E-04 +3.39302184074E-04 +2.38507692019E-01 -5.01654206631E-01
4.16000000000E+09 +1.86676490891E-01 -5.27959519661E-01 -8.81709342159E-04 +6.26260479343E-04 -8.92160960665E-04 +5.65697458857E-04 +2.17984140547E-01 -4.97990572186E-01
4.16500000000E+09 +1.69106158885E-01 -5.29178109415E-01 -9.09140990322E-04 +1.07673923094E-03 -9.17040560837E-04 +1.04679561836E-03 +1.97824904155E-01 -4.93943713818E-01
4.17000000000E+09 +1.52865895648E-01 -5.28117396109E-01 -7.75443886266E-04 +1.28417064172E-03 -8.25940480279E-04 +1.20453249258E-03 +1.76634962484E-01 -4.89104629361E-01
4.17500000000E+09 +1.37578489057E-01 -5.25296428415E-01 -5.75228650973E-04 +1.76780538249E-03 -6.13106341733E-04 +1.69918708673E-03 +1.55502620166E-01 -4.82935269358E-01
4.18000000000E+09 +1.22055321774E-01 -5.21400802817E-01 +3.76816688503E-05 +1.98841144365E-03 -3.39029007739E-05 +1.93279179136E-03 +1.35135476374E-01 -4.75569945781E-01
4.18500000000E+09 +1.05617375076E-01 -5.16925839598E-01 +7.11334201595E-04 +1.87111930216E-03 +6.12074004050E-04 +1.91154558903E-03 +1.15693702602E-01 -4.68814168762E-01
4.19000000000E+09 +8.72949960166E-02 -5.11921410463E-01 +8.46939705175E-04 +1.24503386460E-03 +7.61549096571E-04 +1.27644527406E-03 +9.46890327812E-02 -4.61677562627E-01
4.19500000000E+09 +6.85535681823E-02 -5.06183439094E-01 +5.70731979804E-04 +1.04457693231E-03 +4.88641304964E-04 +1.11526843600E-03 +7.42032647946E-02 -4.52300420421E-01
4.20000000000E+09 +4.90704808797E-02 -5.01112133874E-01 +6.87824119077E-04 +1.31585243368E-03 +6.53240611279E-04 +1.45262380073E-03 +5.48405796086E-02 -4.41824335507E-01
4.20500000000E+09 +2.93673179678E-02 -4.96308419194E-01 +7.70500694421E-04 +1.09802853745E-03 +7.10206141068E-04 +1.19155764128E-03 +3.51956312931E-02 -4.31319074215E-01
4.21000000000E+09 +1.06749384046E-02 -4.91406908742E-01 +7.64815510402E-04 +1.58944056713E-03 +7.46101832797E-04 +1.71176494718E-03 +1.61192437452E-02 -4.19691184109E-01
4.21500000000E+09 -7.53764443036E-03 -4.86187531526E-01 +1.71725998645E-03 +1.75798592909E-03 +1.75744568694E-03 +1.88714983299E-03 -2.28263073281E-03 -4.08345241597E-01
4.22000000000E+09 -2.43218618406E-02 -4.79507881137E-01 +2.16853433092E-03 +9.86472224310E-04 +2.17232604419E-03 +1.05303028000E-03 -2.06051592704E-02 -3.96521119878E-01
4.22500000000E+09 -3.98234029398E-02 -4.71688555642E-01 +2.31046535106E-03 +4.30429301576E-04 +2.39149228336E-03 +4.17012903932E-04 -3.85763701810E-02 -3.83394624045E-01
4.23000000000E+09 -5.53308565438E-02 -4.62183983974E-01 +1.89737307633E-03 -2.24571119309E-04 +1.99760313989E-03 -2.42991309097E-04 -5.55627962546E-02 -3.69454766488E-01
4.23500000000E+09 -7.09975160074E-02 -4.50636168728E-01 +1.53520515337E-03 -1.51409257201E-05 +1.60956716597E-03 -3.95669277020E-05 -7.28396053652E-02 -3.54481458991E-01
4.24000000000E+09 -8.74163762179E-02 -4.37582121470E-01 +1.61523430343E-03 +4.98720638166E-05 +1.73539496862E-03 +6.87865253579E-05 -8.91023333432E-02 -3.38291033259E-01
4.24500000000E+09 -1.04638137110E-01 -4.23914604546E-01 +2.07100463334E-03 +1.15943708658E-04 +2.16981477504E-03 +1.09142720849E-04 -1.05080687867E-01 -3.21579894416E-01
4.25000000000E+09 -1.23577172987E-01 -4.10212631560E-01 +2.51855794654E-03 -5.70955878781E-04 +2.63908439055E-03 -6.46746760695E-04 -1.19972592857E-01 -3.03514365208E-01
4.25500000000E+09 -1.42658484205E-01 -3.96950501004E-01 +2.21661519033E-03 -1.43192664095E-03 +2.25131427500E-03 -1.54806856141E-03 -1.33291868314E-01 -2.86027114921E-01
4.26000000000E+09 -1.63018060498E-01 -3.85070078836E-01 +1.63035070091E-03 -1.70320669562E-03 +1.57267106142E-03 -1.74734737155E-03 -1.46878203501E-01 -2.68737612151E-01
4.26500000000E+09 -1.83128680511E-01 -3.73156074247E-01 +1.41333784990E-03 -1.59300609861E-03 +1.40812702699E-03 -1.68657732145E-03 -1.59810111073E-01 -2.49303611174E-01
4.27000000000E+09 -2.00959322320E-01 -3.61548393187E-01 +1.29980382842E-03 -1.76182080386E-03 +1.26819700184E-03 -1.88571553422E-03 -1.72194628679E-01 -2.29791630217E-01
4.27500000000E+09 -2.17632386838E-01 -3.50496596673E-01 +9.43021431753E-04 -2.13386050415E-03 +8.95483360295E-04 -2.25564874045E-03 -1.83810666731E-01 -2.08760568669E-01
4.28000000000E+09 -2.32423558640E-01 -3.37396849926E-01 +5.74183831936E-04 -1.82577459149E-03 +5.42059287606E-04 -1.93208211287E-03 -1.93939693932E-01 -1.87653156592E-01
4.28500000000E+09 -2.44355340302E-01 -3.22670818030E-01 +8.05500747063E-04 -1.97741352099E-03 +6.80793091775E-04 -2.02471077959E-03 -2.02659735974E-01 -1.66691036748E-01
4.29000000000E+09 -2.54312405735E-01 -3.06907938795E-01 +4.64285169648E-04 -2.49072772509E-03 +3.70606619744E-04 -2.51875396056E-03 -2.10607517217E-01 -1.46440096728E-01
4.29500000000E+09 -2.64607542958E-01 -2.90383809561E-01 -1.11941570149E-04 -2.67826994394E-03 -1.78293671815E-04 -2.66586653915E-03 -2.17740670138E-01 -1.26693928480E-01
4.30000000000E+09 -2.75970745084E-01 -2.71871545716E-01 -9.01177165634E-04 -2.44653958131E-03 -9.13714796035E-04 -2.44983861774E-03 -2.24156559914E-01 -1.06491879725E-01
4.30500000000E+09 -2.88090204599E-01 -2.51965733792E-01 -8.76853718928E-04 -1.96013615834E-03 -9.37709557491E-04 -1.94454118753E-03 -2.29998227936E-01 -8.51376939596E-02
4.31000000000E+09 -3.00953240790E-01 -2.31748483529E-01 -8.42830602162E-04 -2.19560861936E-03 -9.41485960140E-04 -2.12902215170E-03 -2.33606437171E-01 -6.37628661192E-02
4.31500000000E+09 -3.14707263231E-01 -2.11945252854E-01 -1.48035462799E-03 -2.09315808245E-03 -1.51793100924E-03 -2.00075966550E-03 -2.36780364875E-01 -4.23809112909E-02
4.32000000000E+09 -3.27193732006E-01 -1.93007936224E-01 -1.82728667803E-03 -1.59623317270E-03 -1.83930625365E-03 -1.50749495773E-03 -2.39088999542E-01 -2.10722629582E-02
4.32500000000E+09 -3.38853622077E-01 -1.75966498002E-01 -1.54807917675E-03 -1.37105972186E-03 -1.55343960986E-03 -1.27646223999E-03 -2.40834613607E-01 -1.01578239576E-04
4.33000000000E+09 -3.49144654504E-01 -1.59657609168E-01 -2.03508532213E-03 -1.53778272228E-03 -1.98683150541E-03 -1.46715186006E-03 -2.41908167645E-01 +2.08110689161E-02
4.33500000000E+09 -3.56670093650E-01 -1.43807659055E-01 -2.17561034129E-03 -1.18266896509E-03 -2.16689157887E-03 -1.14706160111E-03 -2.42206169900E-01 +4.19531915924E-02
4.34000000000E+09 -3.62103477153E-01 -1.27830383379E-01 -2.72669243977E-03 -1.07692311423E-03 -2.68499609457E-03 -9.53177189351E-04 -2.42197474271E-01 +6.27162252091E-02
4.34500000000E+09 -3.65778929759E-01 -1.10622041422E-01 -3.05286199085E-03 -1.40439945728E-04 -3.01030222518E-03 -1.02618881111E-04 -2.40465098407E-01 +8.41647407777E-02
4.35000000000E+09 -3.67904783183E-01 -9.18451162136E-02 -2.43799210560E-03 +6.68866448142E-04 -2.41354468840E-03 +6.73853979698E-04 -2.38643544335E-01 +1.03779460271E-01
4.35500000000E+09 -3.70385304323E-01 -7.07533185261E-02 -2.15779209565E-03 +1.90522994472E-04 -2.07879802019E-03 +2.17979084862E-04 -2.35916195653E-01 +1.24142654791E-01
4.36000000000E+09 -3.72385167073E-01 -4.76878336998E-02 -2.53078918676E-03 +5.93189053240E-04 -2.46753688449E-03 +6.19158605950E-04 -2.31948002143E-01 +1.42806949103E-01
4.36500000000E+09 -3.74779094022E-01 -2.43106291263E-02 -2.63475558349E-03 +7.10997271521E-04 -2.55304411806E-03 +6.95783307185E-04 -2.27842212512E-01 +1.61276247504E-01
4.37000000000E+09 -3.79066357890E-01 -1.18098894731E-03 -2.90968362003E-03 +1.66383848880E-03 -2.88676652880E-03 +1.65572515161E-03 -2.22743693519E-01 +1.79541417471E-01
4.37500000000E+09 -3.83495240987E-01 +2.07044568859E-02 -2.12211900430E-03 +2.22828424534E-03 -2.05382624199E-03 +2.22130738842E-03 -2.17081144313E-01 +1.97226839972E-01
4.38000000000E+09 -3.88973035151E-01 +4.08797892365E-02 -1.55139022855E-03 +2.40004845255E-03 -1.45839134290E-03 +2.27858810265E-03 -2.10703186717E-01 +2.15127051996E-01
4.38500000000E+09 -3.93569000544E-01 +5.90764877028E-02 -1.17721540238E-03 +2.55896500664E-03 -1.12200467503E-03 +2.52198113202E-03 -2.03758314598E-01 +2.32577602835E-01
4.39000000000E+09 -3.96665587012E-01 +7.59886616534E-02 -6.48958334693E-04 +2.50909242276E-03 -6.36132026889E-04 +2.41973805016E-03 -1.96393046109E-01 +2.49507951409E-01
4.39500000000E+09 -3.97078740542E-01 +9.17196672549E-02 -5.24863578248E-04 +2.46828347612E-03 -5.50190485732E-04 +2.35835395265E-03 -1.89262594183E-01 +2.65348139453E-01
4.40000000000E+09 -3.94650716065E-01 +1.06910652161E-01 -2.85960921954E-04 +2.62874788282E-03 -2.77242107214E-04 +2.58092859670E-03 -1.81185173427E-01 +2.81051516875E-01
4.40500000000E+09 -3.90173025034E-01 +1.22257105175E-01 +5.61821934519E-05 +2.68012388570E-03 -6.57461986452E-06 +2.64602455259E-03 -1.72565487822E-01 +2.96009498436E-01
4.41000000000E+09 -3.84707612526E-01 +1.38912527929E-01 +7.36113035353E-04 +2.79710576615E-03 +7.39988842767E-04 +2.68914186890E-03 -1.63391052301E-01 +3.09867062599E-01
4.41500000000E+09 -3.78707961047E-01 +1.58162975237E-01 +1.00763867664E-03 +2.47412025434E-03 +1.01031185559E-03 +2.44824392789E-03 -1.54649222806E-01 +3.23712217325E-01
4.42000000000E+09 -3.72387161201E-01 +1.79443793891E-01 +1.21157398805E-03 +2.24595899212E-03 +1.20219323769E-03 +2.22875699066E-03 -1.45479321409E-01 +3.38481103881E-01
4.42500000000E+09 -3.67059515192E-01 +2.01168584593E-01 +1.75621237524E-03 +2.26935613087E-03 +1.73170781498E-03 +2.24577837174E-03 -1.34990328522E-01 +3.51967971105E-01
4.43000000000E+09 -3.63227226544E-01 +2.23427474269E-01 +2.22470456511E-03 +1.66270308569E-03 +2.13086711465E-03 +1.69665431765E-03 -1.26075418772E-01 +3.64819939520E-01
4.43500000000E+09 -3.59738336801E-01 +2.44589876421E-01 +2.21892341702E-03 +1.20908728258E-03 +2.22855603090E-03 +1.19715737746E-03 -1.15555827395E-01 +3.77828732916E-01
4.44000000000E+09 -3.56885307223E-01 +2.63251964325E-01 +2.17134217379E-03 +7.97692230093E-04 +2.18927397452E-03 +8.66414095005E-04 -1.05340011609E-01 +3.89241085260E-01
4.44500000000E+09 -3.54428535756E-01 +2.79454665724E-01 +2.20630402958E-03 +3.73409119397E-04 +2.20248424121E-03 +3.93344706906E-04 -9.49547317995E-02 +4.00333249048E-01
4.45000000000E+09 -3.51392608373E-01 +2.93543288731E-01 +1.77014917236E-03 +5.61031610949E-04 +1.79191088859E-03 +5.24950815131E-04 -8.43350572806E-02 +4.10992517929E-01
4.45500000000E+09 -3.46568093190E-01 +3.06578869551E-01 +2.50506818316E-03 +7.44807058749E-04 +2.57067738927E-03 +6.98853363141E-04 -7.32195132399E-02 +4.21318957579E-01
4.46000000000E+09 -3.39364785341E-01 +3.18960604067E-01 +2.92002580014E-03 -6.34084252964E-04 +2.92729480007E-03 -6.58312976942E-04 -6.17897711811E-02 +4.31190254358E-01
4.46500000000E+09 -3.29831661420E-01 +3.32149275153E-01 +2.16335126402E-03 -1.02665171857E-03 +2.09855114022E-03 -1.07289018703E-03 -5.02933064398E-02 +4.39858982349E-01
4.47000000000E+09 -3.18697658718E-01 +3.46236021422E-01 +1.43601786352E-03 -1.31514995926E-03 +1.47101418670E-03 -1.35939220174E-03 -3.95474219615E-02 +4.49070522489E-01
4.47500000000E+09 -3.06279689909E-01 +3.62894099528E-01 +1.13869290928E-03 -7.58863975516E-04 +1.16737074489E-03 -8.75905209652E-04 -2.77744632142E-02 +4.58202924587E-01
4.48000000000E+09 -2.93420698420E-01 +3.80054108696E-01 +1.47228690054E-03 -5.52162932481E-04 +1.38404723467E-03 -6.17227075094E-04 -1.60811247839E-02 +4.65712720865E-01
4.48500000000E+09 -2.81755916930E-01 +3.97796694968E-01 +1.64914742197E-03 -1.03907931865E-03 +1.55887525550E-03 -1.07377933108E-03 -4.88446480225E-03 +4.73647038135E-01
4.49000000000E+09 -2.72162080495E-01 +4.15062362622E-01 +1.69896681196E-03 -1.31299910990E-03 +1.57648329845E-03 -1.30161840214E-03 +7.23134352443E-03 +4.80830781782E-01
4.49500000000E+09 -2.64276210018E-01 +4.31724415920E-01 +1.30242742404E-03 -1.84774963697E-03 +1.19141535695E-03 -1.85183042562E-03 +1.81334144538E-02 +4.87062702163E-01
4.50000000000E+09 -2.57807846619E-01 +4.45865995562E-01 +8.02745349771E-04 -1.89525853181E-03 +6.93695046532E-04 -1.85418734162E-03 +2.95296437383E-02 +4.93521683409E-01
4.50500000000E+09 -2.52550084600E-01 +4.58156422669E-01 +5.45190375832E-04 -1.89543162862E-03 +4.43819271561E-04 -1.81837145511E-03 +4.07856742452E-02 +4.99304254006E-01
4.51000000000E+09 -2.46630263105E-01 +4.68541040729E-01 +3.52671379997E-04 -1.78778211354E-03 +2.14462813769E-04 -1.74049947717E-03 +5.17659756494E-02 +5.04764524680E-01
4.51500000000E+09 -2.38288387340E-01 +4.76712551892E-01 +2.15401447314E-04 -1.70049377804E-03 +1.47652251608E-04 -1.56913330992E-03 +6.27009980672E-02 +5.10311016378E-01
4.52000000000E+09 -2.28894677394E-01 +4.82978734471E-01 -5.38983024552E-05 -1.87071280279E-03 -9.14244381199E-05 -1.74231906438E-03 +7.40223500505E-02 +5.15343381711E-01
4.52500000000E+09 -2.17277243299E-01 +4.90160450492E-01 -1.08270624697E-04 -1.63846707952E-03 -1.78524624563E-04 -1.51397342043E-03 +8.50762357080E-02 +5.19673150648E-01
4.53000000000E+09 -2.03800214700E-01 +4.97545543095E-01 -9.29912034978E-05 -1.73083868132E-03 -1.40889569275E-04 -1.61353545666E-03 +9.64326241718E-02 +5.23788341784E-01
4.53500000000E+09 -1.88991007737E-01 +5.07019455476E-01 -4.86020512574E-04 -1.98996885543E-03 -4.46114303248E-04 -1.87350053115E-03 +1.07373492043E-01 +5.27577625796E-01
4.54000000000E+09 -1.73525755150E-01 +5.17205349819E-01 -7.81641622564E-04 -2.10245678298E-03 -7.50875100252E-04 -1.98780598796E-03 +1.18841771738E-01 +5.31248964628E-01
4.54500000000E+09 -1.58629656165E-01 +5.28320149162E-01 -1.58916239810E-03 -1.76375360655E-03 -1.47301922664E-03 -1.60789467618E-03 +1.29463914763E-01 +5.34898521537E-01
4.55000000000E+09 -1.45193965165E-01 +5.38769440408E-01 -1.85618607615E-03 -1.14548518898E-03 -1.67148790160E-03 -1.12352383989E-03 +1.41008369531E-01 +5.38660603819E-01
4.55500000000E+09 -1.34125691711E-01 +5.48796794244E-01 -1.61779789596E-03 -6.04085840228E-04 -1.49312148301E-03 -5.89122293176E-04 +1.51896786091E-01 +5.41434566645E-01
4.56000000000E+09 -1.24704440437E-01 +5.57939964573E-01 -1.34779638802E-03 -6.51086673673E-04 -1.21335524852E-03 -6.42450046349E-04 +1.62527878762E-01 +5.44521049611E-01
4.56500000000E+09 -1.15792054798E-01 +5.65702947496E-01 -1.29207877755E-03 -8.07647551974E-04 -1.19359580644E-03 -7.27077894002E-04 +1.73065754916E-01 +5.47123992856E-01
4.57000000000E+09 -1.06644607752E-01 +5.71485931221E-01 -1.73171331810E-03 -7.25828898174E-04 -1.57239674026E-03 -7.31340759730E-04 +1.83898738714E-01 +5.49514104608E-01
