# Hz S RI R 50
! CMT, C1220, 16058040, 17.2.0/1
! Date: 15/08/2018 12:09:20
! Data: Format (Calibration Info)
! Freq                      S11: Re/Im (F2)                       S21: Re/Im (F2)                       S12: Re/Im (F2)                       S22: Re/Im (F2)            
4.00000000000E+09 +6.51105530303E-01 -3.56549219403E-01 -2.19968137904E-04 -5.97793188370E-04 -1.76184599856E-04 -6.75625849668E-04 +7.66274963129E-01 -3.20485664107E-01
4.00500000000E+09 +6.42864584433E-01 -3.62396018235E-01 -2.86965696279E-04 -4.53458442636E-04 -2.88428002237E-04 -4.28642361608E-04 +7.56907661452E-01 -3.30891885286E-01
4.01000000000E+09 +6.34195267119E-01 -3.68027735980E-01 -1.08651863807E-04 -4.48581927302E-04 -1.06401655316E-04 -4.74346767337E-04 +7.47259532789E-01 -3.41218100222E-01
4.01500000000E+09 +6.24488203206E-01 -3.74904236243E-01 -2.08737808024E-04 -7.33653833045E-04 -1.65659278717E-04 -7.75318336107E-04 +7.37870171074E-01 -3.50968391655E-01
4.02000000000E+09 +6.13344794555E-01 -3.83043891619E-01 -6.09487037643E-04 -7.64512723199E-04 -5.27587099942E-04 -7.98189912653E-04 +7.27781054208E-01 -3.61143927716E-01
4.02500000000E+09 +6.01274725102E-01 -3.91989844621E-01 -7.92538576104E-04 -4.95576346220E-04 -8.27121618391E-04 -5.21600874718E-04 +7.16962100320E-01 -3.70659492840E-01
4.03000000000E+09 +5.89526863817E-01 -4.01610333499E-01 -7.68669624466E-04 -1.55177035271E-04 -7.71330498666E-04 -2.39600342002E-04 +7.06426702114E-01 -3.80095656429E-01
4.03500000000E+09 +5.78480566103E-01 -4.12321727186E-01 -5.76282136748E-04 -1.64509497408E-05 -5.98648179251E-04 -7.68459709825E-05 +6.95180738936E-01 -3.89891600382E-01
4.04000000000E+09 +5.67480744497E-01 -4.23329192926E-01 -5.61656819982E-04 -5.49448450420E-05 -6.02361447569E-04 -9.47152763734E-05 +6.84090860090E-01 -3.99888785227E-01
4.04500000000E+09 +5.56898756598E-01 -4.33477571959E-01 -5.33335795043E-04 -8.96877293995E-05 -5.58826510318E-04 -1.78084738405E-04 +6.72050158560E-01 -4.09713019253E-01
4.05000000000E+09 +5.45974226821E-01 -4.42296214704E-01 -5.48639473179E-04 -1.78440552556E-05 -5.80144191615E-04 -7.78274536799E-05 +6.59874156665E-01 -4.18488798372E-01
4.05500000000E+09 +5.34423123448E-01 -4.48632957651E-01 -6.02692733864E-04 -1.04296038936E-04 -6.72194193660E-04 -1.76380832689E-04 +6.47854691808E-01 -4.26990364164E-01
4.06000000000E+09 +5.22984872437E-01 -4.52993914368E-01 -6.27541113837E-04 +2.00061440522E-05 -6.40913882816E-04 -1.44591856516E-05 +6.35304089691E-01 -4.35221385586E-01
4.06500000000E+09 +5.10723971156E-01 -4.56319696315E-01 -7.24887843806E-04 +1.02697504128E-04 -8.54016453508E-04 +3.82559965077E-05 +6.21952977898E-01 -4.43238886765E-01
4.07000000000E+09 +4.97745674301E-01 -4.59668362897E-01 -7.73215668166E-04 +3.24259341231E-04 -7.80316339746E-04 +3.23450417864E-04 +6.08412638238E-01 -4.51181946943E-01
4.07500000000E+09 +4.83130422540E-01 -4.63986891823E-01 -5.65111334223E-04 +4.53227822302E-04 -6.46930929428E-04 +4.60175745129E-04 +5.94767296304E-01 -4.59314644969E-01
4.08000000000E+09 +4.66526836156E-01 -4.69047716966E-01 -5.41694107518E-04 +4.65358562450E-04 -6.02572279653E-04 +4.84314939158E-04 +5.81081347650E-01 -4.67035303888E-01
4.08500000000E+09 +4.49245155312E-01 -4.74064763256E-01 -4.29098261553E-04 +5.73737932744E-04 -4.81764197326E-04 +6.60632609844E-04 +5.67185993124E-01 -4.75091654229E-01
4.09000000000E+09 +4.32482621962E-01 -4.80455291046E-01 -3.63879502091E-05 +3.82956201453E-04 -6.76302341207E-05 +4.54138236611E-04 +5.52819401475E-01 -4.81788345117E-01
4.09500000000E+09 +4.15469443158E-01 -4.87491653174E-01 -3.12158546561E-04 +1.13354904607E-04 -3.25527028298E-04 +1.35580887882E-04 +5.38837368560E-01 -4.88503934597E-01
4.10000000000E+09 +3.97715499398E-01 -4.93944440588E-01 -6.22383922012E-04 +2.58906651532E-04 -5.77030742177E-04 +1.88829837864E-04 +5.22748859239E-01 -4.95138793814E-01
4.10500000000E+09 +3.80811717387E-01 -4.98000549330E-01 -8.07071856309E-04 +6.37333016453E-04 -7.91189303290E-04 +6.32028681754E-04 +5.06702765343E-01 -5.00796083388E-01
4.11000000000E+09 +3.64764478452E-01 -5.00490100805E-01 -5.76063330331E-04 +1.03941372049E-03 -5.90192701299E-04 +1.02689965064E-03 +4.90323744209E-01 -5.06860124807E-01
4.11500000000E+09 +3.49935565087E-01 -5.00920864206E-01 +1.56775591250E-04 +1.09580738164E-03 +1.64730662373E-04 +1.12325117495E-03 +4.73571963506E-01 -5.12117651656E-01
4.12000000000E+09 +3.34951000140E-01 -5.01582967891E-01 +1.73545039974E-04 +4.58803111912E-04 +1.97908733125E-04 +4.31090240169E-04 +4.57346340821E-01 -5.17630800096E-01
4.12500000000E+09 +3.18907722707E-01 -5.02024609459E-01 -1.36136324694E-04 +4.18664644198E-04 -1.32704670436E-04 +4.57006842578E-04 +4.39850553731E-01 -5.22638271072E-01
4.13000000000E+09 +3.00844384341E-01 -5.03104974647E-01 -2.18720707217E-04 +6.40745676624E-04 -1.67595300776E-04 +5.86604091445E-04 +4.22629449094E-01 -5.25990628590E-01
4.13500000000E+09 +2.80432145016E-01 -5.04205705300E-01 -2.66121094100E-04 +6.49897929785E-04 -2.84738754407E-04 +5.91326723951E-04 +4.05322894479E-01 -5.29847448374E-01
4.14000000000E+09 +2.59735006037E-01 -5.04965417527E-01 -8.78189344132E-05 +1.15751680459E-03 -1.17574904934E-04 +1.10799266177E-03 +3.86528647355E-01 -5.32975413200E-01
4.14500000000E+09 +2.39808447973E-01 -5.07180335226E-01 +5.32409689879E-04 +1.04865857517E-03 +4.69509531054E-04 +1.05908062031E-03 +3.68083200170E-01 -5.35604989397E-01
4.15000000000E+09 +2.19724161859E-01 -5.10952223143E-01 +5.59380908332E-04 +6.62988341685E-04 +4.88508473090E-04 +7.31752090967E-04 +3.49505968922E-01 -5.38034378536E-01
4.15500000000E+09 +1.99739063110E-01 -5.14703881805E-01 +3.61170889051E-04 +7.78603173536E-04 +3.93366734714E-04 +7.78524943170E-04 +3.31234600816E-01 -5.39240031440E-01
4.16000000000E+09 +1.80339320572E-01 -5.16866943987E-01 +6.22723845320E-04 +7.25684017896E-04 +5.82717089681E-04 +7.23615088778E-04 +3.13445235637E-01 -5.40199366574E-01
4.16500000000E+09 +1.62531206810E-01 -5.17047544267E-01 +7.13751486773E-04 +5.21537208027E-04 +7.25772147967E-04 +5.48699233602E-04 +2.94777209210E-01 -5.40557693389E-01
4.17000000000E+09 +1.46528059013E-01 -5.14898363890E-01 +8.76087739534E-04 +6.24556981042E-04 +8.43184744734E-04 +6.09258786795E-04 +2.75879031170E-01 -5.39627148791E-01
4.17500000000E+09 +1.31563547820E-01 -5.11485049979E-01 +8.06775427660E-04 -4.22599778233E-05 +8.15853723242E-04 +2.91682977222E-05 +2.56903531686E-01 -5.38369980954E-01
4.18000000000E+09 +1.16782309524E-01 -5.06627357546E-01 +3.18691443891E-04 +2.47164383644E-04 +3.36529378435E-04 +3.09620491796E-04 +2.37243837696E-01 -5.37009175541E-01
4.18500000000E+09 +1.01006917165E-01 -5.01546513446E-01 +5.62841424927E-04 +6.30306300171E-04 +6.05019781665E-04 +6.38227915063E-04 +2.17752801574E-01 -5.34755296690E-01
4.19000000000E+09 +8.36785919435E-02 -4.95411983830E-01 +1.03850252764E-03 +4.23276572030E-04 +1.00466574817E-03 +4.99490679777E-04 +1.98306367002E-01 -5.32202807084E-01
4.19500000000E+09 +6.56264111639E-02 -4.89344294683E-01 +1.06429525299E-03 +2.22756637291E-04 +1.14473498761E-03 +2.49756728388E-04 +1.79224602199E-01 -5.28733487720E-01
4.20000000000E+09 +4.66564360889E-02 -4.83904495867E-01 +1.06929007151E-03 -5.85097252978E-05 +1.09789244186E-03 -1.07911758916E-05 +1.59557765307E-01 -5.25490042722E-01
4.20500000000E+09 +2.75863126442E-02 -4.78852845571E-01 +9.62356053970E-04 -2.54633840431E-04 +1.03553754696E-03 -2.05580067136E-04 +1.39347762843E-01 -5.20028180906E-01
4.21000000000E+09 +8.83625581514E-03 -4.74056303145E-01 +6.42733802836E-04 -3.51913701868E-04 +7.53114901545E-04 -3.06464005764E-04 +1.19774458461E-01 -5.14475481673E-01
4.21500000000E+09 -9.88476545687E-03 -4.68301943550E-01 +6.44481188691E-04 -2.32371969362E-05 +6.47573953842E-04 -2.98430088077E-05 +9.97580932351E-02 -5.08422136116E-01
4.22000000000E+09 -2.62982010125E-02 -4.60654065781E-01 +1.02755726528E-03 +3.60689628102E-05 +1.12111267219E-03 +1.80340038521E-05 +8.05737741048E-02 -5.01149169618E-01
4.22500000000E+09 -4.04329001071E-02 -4.52243885484E-01 +1.06179191905E-03 -5.13087000804E-04 +1.04697588683E-03 -4.87982929061E-04 +6.22236854960E-02 -4.94166479462E-01
4.23000000000E+09 -5.42639130719E-02 -4.43111812528E-01 +9.50150927350E-04 -6.90430522094E-04 +9.77463377542E-04 -6.95269390651E-04 +4.32136926275E-02 -4.86110652223E-01
4.23500000000E+09 -6.86514277018E-02 -4.32312884749E-01 +5.26553742088E-04 -6.67665529544E-04 +5.90528879947E-04 -7.16738567929E-04 +2.50667031933E-02 -4.76683770068E-01
4.24000000000E+09 -8.35176262102E-02 -4.20218873210E-01 +7.01416246576E-04 -5.06421032119E-04 +6.71673153837E-04 -5.51507074355E-04 +7.19840188644E-03 -4.67317054229E-01
4.24500000000E+09 -1.00647148585E-01 -4.07506682311E-01 +9.82600943613E-04 -6.60891359814E-04 +9.65127948644E-04 -7.49156698373E-04 -1.14271910826E-02 -4.56650965430E-01
4.25000000000E+09 -1.19221407565E-01 -3.93282893885E-01 +9.54394208934E-04 -1.14405468712E-03 +8.97409611017E-04 -1.16115947380E-03 -2.85899627403E-02 -4.44920453164E-01
4.25500000000E+09 -1.37715413413E-01 -3.79217062913E-01 +4.42282584169E-04 -1.39134900301E-03 +4.49728852712E-04 -1.42118447149E-03 -4.56617633104E-02 -4.33764401162E-01
4.26000000000E+09 -1.56673948776E-01 -3.66954184195E-01 +1.04201936687E-04 -1.29248195818E-03 +1.34063236734E-04 -1.27479817915E-03 -6.28637081305E-02 -4.20927163019E-01
4.26500000000E+09 -1.75763506440E-01 -3.54912601810E-01 +1.26510472557E-04 -1.13333592585E-03 +6.49042121171E-05 -1.15427298803E-03 -7.80613085123E-02 -4.07668397122E-01
4.27000000000E+09 -1.93695226742E-01 -3.43106209722E-01 +1.01028585011E-04 -1.20071589261E-03 +7.05090043308E-05 -1.22449242844E-03 -9.40763950271E-02 -3.94660671070E-01
4.27500000000E+09 -2.09088099266E-01 -3.30954079898E-01 +4.59636040258E-05 -1.10039787711E-03 -2.48942179865E-06 -1.11534383674E-03 -1.10048902300E-01 -3.80380529655E-01
4.28000000000E+09 -2.22128703833E-01 -3.18579226468E-01 -1.36749650926E-04 -1.48138440582E-03 -1.73136828058E-04 -1.48192479493E-03 -1.25213828161E-01 -3.66313937030E-01
4.28500000000E+09 -2.33852859463E-01 -3.04983218972E-01 -7.00394260966E-04 -1.26794289183E-03 -7.55055352974E-04 -1.17961938215E-03 -1.41046648118E-01 -3.51932637043E-01
4.29000000000E+09 -2.43877089500E-01 -2.89255587541E-01 -5.64719846035E-04 -9.42401706187E-04 -5.52999083741E-04 -9.10078192110E-04 -1.56177762637E-01 -3.36396192614E-01
4.29500000000E+09 -2.53562958700E-01 -2.72226895174E-01 -6.90497435889E-04 -1.18949409665E-03 -6.69559262377E-04 -1.20862563436E-03 -1.70379721632E-01 -3.20254629167E-01
4.30000000000E+09 -2.63354183172E-01 -2.53477313870E-01 -9.18000152494E-04 -7.81801742702E-04 -9.04773752067E-04 -7.93184207273E-04 -1.82872945671E-01 -3.03311550658E-01
4.30500000000E+09 -2.74215157871E-01 -2.33959471697E-01 -8.38814593468E-04 -8.96731471744E-04 -8.42186398920E-04 -9.21364824217E-04 -1.94809972238E-01 -2.86431346404E-01
4.31000000000E+09 -2.86197219760E-01 -2.14132420468E-01 -1.01953585518E-03 -8.61251624957E-04 -1.01602596172E-03 -8.40793056561E-04 -2.05926912476E-01 -2.68691866756E-01
4.31500000000E+09 -2.99242983543E-01 -1.95151401026E-01 -1.21878454553E-03 -7.58457967293E-04 -1.21420520682E-03 -7.34635205362E-04 -2.16570540554E-01 -2.51240423837E-01
4.32000000000E+09 -3.12977153762E-01 -1.76554850250E-01 -1.58973194935E-03 -6.04021343637E-04 -1.55304207369E-03 -5.64201893581E-04 -2.27407183643E-01 -2.33060511273E-01
4.32500000000E+09 -3.25091673330E-01 -1.58388395132E-01 -1.47617863182E-03 +2.61762632277E-05 -1.44509126478E-03 +4.55390735435E-05 -2.36449670054E-01 -2.14055776114E-01
4.33000000000E+09 -3.34199819566E-01 -1.41427432123E-01 -1.31589661426E-03 +6.42040686005E-05 -1.34016846518E-03 +5.99421676869E-05 -2.45645611336E-01 -1.96019134120E-01
4.33500000000E+09 -3.41071425830E-01 -1.26186528745E-01 -1.15686275769E-03 +3.62168162769E-04 -1.18195109769E-03 +3.53965600711E-04 -2.54565014268E-01 -1.75912257668E-01
4.34000000000E+09 -3.46272556631E-01 -1.11083187816E-01 -9.89636262552E-04 +1.99236797411E-04 -9.89628332666E-04 +2.11467901050E-04 -2.61355053280E-01 -1.55656455848E-01
4.34500000000E+09 -3.49124579864E-01 -9.53248204134E-02 -1.01947604189E-03 +2.48846073411E-04 -1.03714977146E-03 +2.20778939501E-04 -2.68337041478E-01 -1.35998544261E-01
4.35000000000E+09 -3.51338543143E-01 -7.78159672866E-02 -1.27737226661E-03 +4.75607254537E-04 -1.30000218645E-03 +4.19811034359E-04 -2.74662693369E-01 -1.16247099979E-01
4.35500000000E+09 -3.54104969898E-01 -5.76721568569E-02 -9.23579587606E-04 +7.34127419144E-04 -9.45180417402E-04 +7.45568104427E-04 -2.80321679044E-01 -9.64253162269E-02
4.36000000000E+09 -3.55411594384E-01 -3.48881022408E-02 -9.96467908533E-04 +5.29505168000E-04 -9.96528851530E-04 +4.89977951809E-04 -2.85204364542E-01 -7.73661162187E-02
4.36500000000E+09 -3.57344884837E-01 -1.18396564452E-02 -1.02328859549E-03 +1.12920457636E-03 -1.03724103918E-03 +1.13662140698E-03 -2.89406491311E-01 -5.77611302796E-02
4.37000000000E+09 -3.60152703075E-01 +1.06906537137E-02 -4.60684060412E-04 +1.15485474288E-03 -4.88830204906E-04 +1.15828034202E-03 -2.92268673336E-01 -3.89370268437E-02
4.37500000000E+09 -3.64655867538E-01 +3.14499580428E-02 -2.80701557366E-04 +9.28859978594E-04 -2.72124276715E-04 +9.38740198110E-04 -2.95603491533E-01 -1.88856452240E-02
4.38000000000E+09 -3.69962835977E-01 +5.12668955123E-02 -2.78758865105E-04 +8.36013539237E-04 -3.40658022360E-04 +8.99584182693E-04 -2.97254128182E-01 +1.75155245854E-03
4.38500000000E+09 -3.74683431001E-01 +6.91522263081E-02 -2.87050589855E-04 +8.40907157805E-04 -3.16070848041E-04 +8.67907348010E-04 -2.98530789541E-01 +2.17713219000E-02
4.39000000000E+09 -3.78276635245E-01 +8.54971382145E-02 -2.75246505524E-04 +8.78239112096E-04 -2.94351102772E-04 +9.13295938945E-04 -2.99157120835E-01 +4.25156523179E-02
4.39500000000E+09 -3.78801593362E-01 +1.00461560100E-01 -2.22391806414E-04 +1.07986359101E-03 -1.67626721756E-04 +1.14847327550E-03 -2.99540443481E-01 +6.18893045661E-02
4.40000000000E+09 -3.77073706609E-01 +1.14641725754E-01 +2.72120923293E-05 +9.95260769227E-04 +2.42117712791E-05 +1.04749080596E-03 -2.99112091496E-01 +8.18584751608E-02
4.40500000000E+09 -3.73718063256E-01 +1.28967309144E-01 +6.20752218492E-05 +1.08163502184E-03 +6.32838788232E-05 +1.05163316560E-03 -2.97133464827E-01 +1.01171414641E-01
4.41000000000E+09 -3.68943311672E-01 +1.45557795011E-01 +2.88266010084E-04 +1.07757781942E-03 +3.43384714301E-04 +1.11164009228E-03 -2.95129062043E-01 +1.20298987137E-01
4.41500000000E+09 -3.62869236461E-01 +1.64185999454E-01 +5.21210735924E-04 +8.46611509988E-04 +5.93100730321E-04 +8.36168924192E-04 -2.91623404619E-01 +1.39874965959E-01
4.42000000000E+09 -3.56532989142E-01 +1.84823534509E-01 +4.81037823482E-04 +7.67776749625E-04 +5.56025704578E-04 +7.75803381581E-04 -2.87352258189E-01 +1.59312674669E-01
4.42500000000E+09 -3.50255110549E-01 +2.05801713079E-01 +6.28589696098E-04 +4.24589772904E-04 +6.89983884868E-04 +4.15603118387E-04 -2.82632718904E-01 +1.77746563304E-01
4.43000000000E+09 -3.46027401332E-01 +2.26905203070E-01 +9.22873619184E-05 +4.91744150899E-04 +1.08933736534E-04 +4.81420068402E-04 -2.78429015831E-01 +1.95764644234E-01
4.43500000000E+09 -3.43015368376E-01 +2.47196039926E-01 +3.27727338732E-04 +8.17497610867E-04 +3.27714283239E-04 +7.69636178910E-04 -2.74294629617E-01 +2.13703927170E-01
4.44000000000E+09 -3.40404678229E-01 +2.66536457068E-01 +5.03244676160E-04 +7.24010216655E-04 +5.14304308571E-04 +6.73948556681E-04 -2.69320338826E-01 +2.32376359543E-01
4.44500000000E+09 -3.37288957106E-01 +2.82962352231E-01 +9.21816475623E-04 +8.71357298772E-04 +9.04189118746E-04 +8.61926750502E-04 -2.62143273196E-01 +2.49736601097E-01
4.45000000000E+09 -3.33223499677E-01 +2.96833523661E-01 +1.18461067709E-03 +3.37674136208E-04 +1.20574740161E-03 +3.00555050912E-04 -2.55036494020E-01 +2.65887986093E-01
4.45500000000E+09 -3.28237430062E-01 +3.08970432672E-01 +8.39163270823E-04 -5.82262404254E-05 +8.55799295849E-04 -5.84445280617E-05 -2.47029848538E-01 +2.82061441595E-01
4.46000000000E+09 -3.21169766185E-01 +3.20619621041E-01 +5.42503755225E-04 -1.74669497902E-04 +5.50662651303E-04 -2.03145244762E-04 -2.39251145298E-01 +2.97156050103E-01
4.46500000000E+09 -3.12834854060E-01 +3.32798125001E-01 +2.87603474288E-04 +7.24902036042E-05 +2.66685845177E-04 +5.95201604414E-05 -2.31484053686E-01 +3.12455295745E-01
4.47000000000E+09 -3.02343301044E-01 +3.47149064907E-01 +4.44660148404E-04 +1.77078038431E-04 +4.25155162090E-04 +1.30622406428E-04 -2.23132795327E-01 +3.27971929193E-01
4.47500000000E+09 -2.90011762936E-01 +3.63159048378E-01 +5.19353775409E-04 +3.08374362878E-04 +4.65222567016E-04 +2.72050131689E-04 -2.14899551274E-01 +3.42809526594E-01
4.48000000000E+09 -2.77232431928E-01 +3.79744615998E-01 +5.45124927838E-04 +2.57514665632E-04 +5.06315074133E-04 +2.03804269728E-04 -2.05915179269E-01 +3.58120504707E-01
4.48500000000E+09 -2.65890002941E-01 +3.96368794378E-01 +7.41020505323E-04 +4.65040514500E-04 +6.98896665489E-04 +4.62032395250E-04 -1.95918521688E-01 +3.72234960991E-01
4.49000000000E+09 -2.56851945208E-01 +4.13017812012E-01 +1.14094973010E-03 +2.06176009059E-04 +1.14297459173E-03 +1.73389344589E-04 -1.85909897629E-01 +3.85833727775E-01
4.49500000000E+09 -2.49879701556E-01 +4.28898655045E-01 +1.13567323701E-03 -4.54449952598E-04 +1.13442657671E-03 -4.55082952025E-04 -1.75898439288E-01 +3.98897298385E-01
4.50000000000E+09 -2.43958983724E-01 +4.43565859266E-01 +4.96037900246E-04 -3.41769596636E-04 +5.05474294888E-04 -3.64459429445E-04 -1.65132636711E-01 +4.11723754739E-01
4.50500000000E+09 -2.38622685858E-01 +4.55813057902E-01 +6.63238467243E-04 -3.73470167097E-04 +6.69523698565E-04 -3.65694685726E-04 -1.54585375810E-01 +4.24099635345E-01
4.51000000000E+09 -2.32718821779E-01 +4.65745616195E-01 +3.90619930429E-04 -2.25986517814E-04 +3.77810997677E-04 -1.50869682459E-04 -1.43476224174E-01 +4.35934962370E-01
4.51500000000E+09 -2.25390795417E-01 +4.73961625228E-01 +5.87176965230E-04 -1.96834451472E-04 +6.64773070808E-04 -1.77496144068E-04 -1.33030862773E-01 +4.47273523286E-01
4.52000000000E+09 -2.16202853199E-01 +4.81601699060E-01 +5.99564393679E-04 -3.56166101147E-04 +6.09537359600E-04 -2.68246162089E-04 -1.22022202321E-01 +4.58513672116E-01
4.52500000000E+09 -2.04078799169E-01 +4.88883323006E-01 +6.86108260412E-04 -2.39565287473E-04 +7.37314283679E-04 -3.10486746924E-04 -1.10031683852E-01 +4.69082165321E-01
4.53000000000E+09 -1.90509824893E-01 +4.96546336679E-01 +8.98268289709E-04 -6.92732540824E-04 +9.30109451745E-04 -6.70521774426E-04 -9.83251783499E-02 +4.78148178376E-01
4.53500000000E+09 -1.75747982631E-01 +5.05830006660E-01 +4.56836643676E-04 -7.89453643579E-04 +4.81387471082E-04 -8.13075949588E-04 -8.62722560068E-02 +4.87892385099E-01
4.54000000000E+09 -1.60796989194E-01 +5.15935218357E-01 +4.42742156398E-04 -6.90762087175E-04 +4.45913413240E-04 -7.51814326203E-04 -7.35406652116E-02 +4.96776438442E-01
4.54500000000E+09 -1.46402572962E-01 +5.27200055714E-01 +3.26364094098E-04 -9.55760881225E-04 +3.04625619945E-04 -9.65124722810E-04 -6.20476565101E-02 +5.05160926578E-01
4.55000000000E+09 -1.33527347845E-01 +5.38091345922E-01 +1.49468492124E-04 -8.59087898511E-04 +1.49691651925E-04 -8.74008409757E-04 -4.95641949934E-02 +5.14359432646E-01
4.55500000000E+09 -1.22696122882E-01 +5.48332988607E-01 -1.71860765168E-05 -7.33975943579E-04 +1.99127500991E-05 -6.79921861974E-04 -3.78013934992E-02 +5.22693975686E-01
4.56000000000E+09 -1.13369568225E-01 +5.57103393433E-01 +2.24315244742E-05 -6.20568155115E-04 -1.69523818307E-05 -5.82361503937E-04 -2.52704063960E-02 +5.30624158136E-01
4.56500000000E+09 -1.05033348111E-01 +5.63985843258E-01 +3.00359805149E-04 -6.77361424788E-04 +2.99794970575E-04 -6.69507629590E-04 -1.30935512802E-02 +5.37693700246E-01
4.57000000000E+09 -9.68115691783E-02 +5.69267142152E-01 +1.15215163585E-04 -1.11149825216E-03 +6.72561213950E-05 -1.03367534202E-03 -8.47516784386E-04 +5.44708825545E-01
