# Hz S RI R 50
! CMT, C1220, 16058040, 17.2.0/1
! Date: 15/08/2018 12:02:51
! Data: Format (Calibration Info)
! Freq                      S11: Re/Im (F2)                       S21: Re/Im (F2)                       S12: Re/Im (F2)                       S22: Re/Im (F2)            
4.00000000000E+09 +6.65412848592E-01 -3.43254117152E-01 +1.16977626375E-03 -6.56982222390E-04 +1.28314554369E-03 -5.94657389810E-04 +7.77181530277E-01 -3.40584921887E-01
4.00500000000E+09 +6.57287716201E-01 -3.49560904766E-01 +1.06168991057E-03 -5.34603675428E-04 +1.09823041917E-03 -5.40971170065E-04 +7.68639501957E-01 -3.52306791431E-01
4.01000000000E+09 +6.48282503807E-01 -3.55467454785E-01 +1.04633210717E-03 -6.77402974470E-04 +1.05806004863E-03 -6.53544168005E-04 +7.59018425052E-01 -3.63623184048E-01
4.01500000000E+09 +6.38153503361E-01 -3.62220568716E-01 +9.31401013398E-04 -5.88883033908E-04 +9.51080927713E-04 -5.91726540685E-04 +7.49430877963E-01 -3.73916701712E-01
4.02000000000E+09 +6.27282648670E-01 -3.69595014828E-01 +1.11057595278E-03 -6.97596203984E-04 +1.23688999340E-03 -6.60806426556E-04 +7.39757914537E-01 -3.84413166551E-01
4.02500000000E+09 +6.16240943559E-01 -3.78526896106E-01 +1.19366547839E-03 -9.03498576028E-04 +1.19537995482E-03 -9.52846331326E-04 +7.29692431516E-01 -3.94797657625E-01
4.03000000000E+09 +6.04415151934E-01 -3.89073799422E-01 +9.36827809227E-04 -1.31827069088E-03 +1.02861043571E-03 -1.26772149967E-03 +7.19158876550E-01 -4.05190202709E-01
4.03500000000E+09 +5.92603282844E-01 -3.99685779101E-01 +5.66850189675E-04 -1.22908987807E-03 +6.80657390725E-04 -1.21397696704E-03 +7.07973770672E-01 -4.15865794383E-01
4.04000000000E+09 +5.81299468819E-01 -4.10361464989E-01 +5.77678268384E-04 -1.11797834604E-03 +6.38462255682E-04 -1.13771380837E-03 +6.97049396765E-01 -4.26326918315E-01
4.04500000000E+09 +5.70101125245E-01 -4.20711064305E-01 +4.70025443663E-04 -1.11258886159E-03 +5.11431946610E-04 -1.15132177218E-03 +6.85757831778E-01 -4.37060211109E-01
4.05000000000E+09 +5.58951944359E-01 -4.29624135389E-01 +5.51441734525E-04 -1.03575856152E-03 +5.99544697230E-04 -1.08235393812E-03 +6.74290269163E-01 -4.47122731583E-01
4.05500000000E+09 +5.47161843146E-01 -4.36915198180E-01 +7.01730648015E-04 -1.19979237490E-03 +7.74062627315E-04 -1.24267841509E-03 +6.62557221319E-01 -4.57010943305E-01
4.06000000000E+09 +5.34920737194E-01 -4.42431596623E-01 +6.56249964376E-04 -1.42679470495E-03 +6.57078700852E-04 -1.55104693436E-03 +6.49918995532E-01 -4.66823512749E-01
4.06500000000E+09 +5.22218932275E-01 -4.46733671159E-01 +3.65487990604E-04 -1.57246891523E-03 +3.82497397712E-04 -1.56908073985E-03 +6.36871529470E-01 -4.75907356201E-01
4.07000000000E+09 +5.08648515519E-01 -4.50701966857E-01 +3.15288525986E-04 -1.69737482381E-03 +3.93222789653E-04 -1.74097700348E-03 +6.23006505359E-01 -4.85698867426E-01
4.07500000000E+09 +4.94219985638E-01 -4.55562870194E-01 +1.65980039108E-05 -1.89035992221E-03 +8.69504295848E-05 -1.93696636596E-03 +6.09087212467E-01 -4.94593341412E-01
4.08000000000E+09 +4.78631123647E-01 -4.60797674034E-01 -3.10898366687E-04 -1.75231221388E-03 -2.97003378028E-04 -1.75279170045E-03 +5.95675898571E-01 -5.03589185049E-01
4.08500000000E+09 +4.62097185842E-01 -4.67243084806E-01 -5.17771779358E-04 -1.61143216056E-03 -4.54738944872E-04 -1.66058667887E-03 +5.81714303217E-01 -5.12885838706E-01
4.09000000000E+09 +4.45260387153E-01 -4.73944483484E-01 -4.77740202947E-04 -1.58769549888E-03 -4.34648690133E-04 -1.65297898523E-03 +5.67566661341E-01 -5.20708675589E-01
4.09500000000E+09 +4.29010610154E-01 -4.80603317879E-01 -5.05028131226E-04 -1.50245083120E-03 -4.25639284687E-04 -1.56025257496E-03 +5.53427432653E-01 -5.29220357028E-01
4.10000000000E+09 +4.12628956746E-01 -4.87203334176E-01 -4.74310937642E-04 -1.79043117143E-03 -4.41451271528E-04 -1.82489129035E-03 +5.37649690682E-01 -5.37438672576E-01
4.10500000000E+09 +3.96742288441E-01 -4.92248183958E-01 -7.98591767457E-04 -1.92076162508E-03 -7.55192549396E-04 -1.98910750068E-03 +5.21079515187E-01 -5.45034629906E-01
4.11000000000E+09 +3.80957268245E-01 -4.95793860168E-01 -1.25792848023E-03 -1.93411176459E-03 -1.20643763911E-03 -1.99896680245E-03 +5.03890950018E-01 -5.52679664367E-01
4.11500000000E+09 +3.65563698784E-01 -4.97598010049E-01 -1.74448357380E-03 -1.68025613646E-03 -1.71138032894E-03 -1.69888702634E-03 +4.86632261865E-01 -5.59693072596E-01
4.12000000000E+09 +3.49987104747E-01 -4.97935442935E-01 -1.76721928437E-03 -1.22129870553E-03 -1.77839991154E-03 -1.23921085900E-03 +4.69445449121E-01 -5.65886182931E-01
4.12500000000E+09 +3.34458590658E-01 -4.98418623390E-01 -1.61621264916E-03 -9.03045507601E-04 -1.67182262136E-03 -1.01643499380E-03 +4.52524449750E-01 -5.71769971620E-01
4.13000000000E+09 +3.16713853272E-01 -4.99832808975E-01 -1.58751019759E-03 -1.12666590220E-03 -1.54847362515E-03 -1.26612653166E-03 +4.35594028772E-01 -5.77418197379E-01
4.13500000000E+09 +2.97575086920E-01 -5.00792698881E-01 -1.82349866918E-03 -1.05434486605E-03 -1.88005203943E-03 -1.15557898875E-03 +4.17177386446E-01 -5.83315433367E-01
4.14000000000E+09 +2.78518770854E-01 -5.02789233084E-01 -2.04801244663E-03 -8.97312451227E-04 -2.02179229449E-03 -1.04242139594E-03 +3.98338175334E-01 -5.88209558987E-01
4.14500000000E+09 +2.59001232349E-01 -5.06017494613E-01 -2.17198156775E-03 -7.70607496906E-04 -2.25847092631E-03 -8.26500952429E-04 +3.79448360024E-01 -5.93370107984E-01
4.15000000000E+09 +2.39365400209E-01 -5.09990905350E-01 -2.30947966498E-03 -4.90195476324E-04 -2.41577682752E-03 -5.91431509568E-04 +3.59496899710E-01 -5.98314624429E-01
4.15500000000E+09 +2.20173984225E-01 -5.13553235815E-01 -2.30456243799E-03 -5.13716132555E-04 -2.38051077892E-03 -5.69867753679E-04 +3.40193317814E-01 -6.01491009367E-01
4.16000000000E+09 +2.01488894008E-01 -5.16082472276E-01 -2.76876559639E-03 -2.61339201167E-04 -2.86570576814E-03 -3.14693697178E-04 +3.20777571446E-01 -6.04251919742E-01
4.16500000000E+09 +1.84197946774E-01 -5.16417325013E-01 -2.88927265473E-03 +2.98420306277E-04 -2.97562328527E-03 +3.38032638033E-04 +3.00464661547E-01 -6.05868025909E-01
4.17000000000E+09 +1.68055254294E-01 -5.15165533885E-01 -2.69933734824E-03 +5.50203886122E-04 -2.77813281161E-03 +5.32220654255E-04 +2.80932050387E-01 -6.06594508972E-01
4.17500000000E+09 +1.51913588822E-01 -5.11760634997E-01 -2.64672368665E-03 +1.19517896413E-03 -2.78507332288E-03 +1.22850834320E-03 +2.60101248707E-01 -6.07511560026E-01
4.18000000000E+09 +1.36264767559E-01 -5.07106681356E-01 -1.95897918295E-03 +1.25233266089E-03 -2.05128035147E-03 +1.23607547446E-03 +2.39629305863E-01 -6.08085501516E-01
4.18500000000E+09 +1.19752723755E-01 -5.01914987685E-01 -2.10767713073E-03 +7.67960249100E-04 -2.16774131839E-03 +7.87586289484E-04 +2.17850526406E-01 -6.08985919783E-01
4.19000000000E+09 +1.01612443584E-01 -4.96585686680E-01 -2.63285814876E-03 +1.02078985854E-03 -2.66290632957E-03 +1.00674208961E-03 +1.95876228397E-01 -6.07710345771E-01
4.19500000000E+09 +8.28188663462E-02 -4.90902735018E-01 -2.76164461649E-03 +1.77296690702E-03 -2.88333169001E-03 +1.79797515646E-03 +1.74911297263E-01 -6.05758608618E-01
4.20000000000E+09 +6.33779379960E-02 -4.86529279653E-01 -2.54093503425E-03 +2.28242383734E-03 -2.57981240681E-03 +2.30470934622E-03 +1.53472845320E-01 -6.03789742931E-01
4.20500000000E+09 +4.34618646667E-02 -4.82703827436E-01 -2.25625719844E-03 +2.87445275316E-03 -2.36068822283E-03 +2.89867750626E-03 +1.31042976076E-01 -6.00591540296E-01
4.21000000000E+09 +2.44937378168E-02 -4.78571466511E-01 -1.56140837889E-03 +2.78718371236E-03 -1.61783524779E-03 +2.87018915166E-03 +1.09104665659E-01 -5.96898985370E-01
4.21500000000E+09 +6.32098366844E-03 -4.74910841676E-01 -1.50737846654E-03 +2.74638558715E-03 -1.60021756302E-03 +2.84010451716E-03 +8.65258903966E-02 -5.92540531920E-01
4.22000000000E+09 -1.10880077161E-02 -4.69791886732E-01 -1.68400997674E-03 +3.22696145399E-03 -1.70642616964E-03 +3.29404330206E-03 +6.51341969745E-02 -5.87393752217E-01
4.22500000000E+09 -2.72721789384E-02 -4.62356637994E-01 -9.95364741073E-04 +3.87913905934E-03 -9.86429008873E-04 +3.94430468795E-03 +4.37870222178E-02 -5.82737817194E-01
4.23000000000E+09 -4.14154863456E-02 -4.53505174292E-01 -3.11784517070E-04 +3.58387598079E-03 -3.09836806864E-04 +3.61951556525E-03 +2.17069440791E-02 -5.76680802912E-01
4.23500000000E+09 -5.62792970541E-02 -4.43808582902E-01 -4.87633480750E-05 +3.57418602556E-03 -1.20517914922E-04 +3.66078980574E-03 +1.92274218770E-04 -5.69163926043E-01
4.24000000000E+09 -7.26724218939E-02 -4.32296897474E-01 +1.79263276585E-05 +3.67599353716E-03 -3.26355501361E-05 +3.74859347157E-03 -2.24120524488E-02 -5.60959960696E-01
4.24500000000E+09 -8.95504895507E-02 -4.19317892214E-01 +5.03612490278E-04 +3.87882787187E-03 +4.90462302948E-04 +4.00384681059E-03 -4.45263006838E-02 -5.50931281982E-01
4.25000000000E+09 -1.08160231784E-01 -4.07026897537E-01 +1.00016953344E-03 +3.90672644091E-03 +9.60504828417E-04 +4.01022202761E-03 -6.62529462217E-02 -5.41116842971E-01
4.25500000000E+09 -1.27873918037E-01 -3.94378864129E-01 +1.63242498383E-03 +3.89396782649E-03 +1.65697498611E-03 +3.98591082202E-03 -8.87372083783E-02 -5.29467732160E-01
4.26000000000E+09 -1.47468226884E-01 -3.83069811447E-01 +1.73874947127E-03 +3.66343904262E-03 +1.76506294630E-03 +3.71583945268E-03 -1.08846447682E-01 -5.16617236396E-01
4.26500000000E+09 -1.68065245755E-01 -3.72922819434E-01 +2.49545632431E-03 +3.78236752134E-03 +2.53144765547E-03 +3.85192521210E-03 -1.29314700741E-01 -5.04310019103E-01
4.27000000000E+09 -1.87228293205E-01 -3.61736499906E-01 +3.06769675491E-03 +3.33123462065E-03 +3.13562946955E-03 +3.41816430642E-03 -1.50133773058E-01 -4.89560620756E-01
4.27500000000E+09 -2.03520842053E-01 -3.50804819033E-01 +3.59915575671E-03 +2.80023465731E-03 +3.65225816512E-03 +2.82197663086E-03 -1.69932613046E-01 -4.74668635351E-01
4.28000000000E+09 -2.17500084293E-01 -3.39383446728E-01 +3.80394707532E-03 +2.25832661208E-03 +3.89108236875E-03 +2.37098041675E-03 -1.89869942422E-01 -4.59041241708E-01
4.28500000000E+09 -2.30584950520E-01 -3.26571500486E-01 +3.82029656826E-03 +1.45702139752E-03 +3.94049188192E-03 +1.46512095360E-03 -2.09626422136E-01 -4.43555609837E-01
4.29000000000E+09 -2.40813041226E-01 -3.11136834139E-01 +3.50141919687E-03 +1.33500329402E-03 +3.55158100490E-03 +1.31341221730E-03 -2.28453922607E-01 -4.27089458033E-01
4.29500000000E+09 -2.51313142757E-01 -2.95122285392E-01 +3.40611923205E-03 +1.62593180669E-03 +3.45113003516E-03 +1.63625630319E-03 -2.47604840535E-01 -4.09881688074E-01
4.30000000000E+09 -2.62655056074E-01 -2.76926478303E-01 +4.30490380638E-03 +1.47518832336E-03 +4.38394789040E-03 +1.46439838638E-03 -2.64378952569E-01 -3.90544132626E-01
4.30500000000E+09 -2.74900708271E-01 -2.57081134063E-01 +4.74783051576E-03 +7.86440369283E-04 +4.81630130471E-03 +7.92394836788E-04 -2.80144826720E-01 -3.71452992755E-01
4.31000000000E+09 -2.88124722557E-01 -2.37050297779E-01 +5.19666536266E-03 +2.81338070950E-04 +5.32194574536E-03 +2.73267733402E-04 -2.95898378896E-01 -3.51476927469E-01
4.31500000000E+09 -3.02242536803E-01 -2.16864389252E-01 +5.25648413439E-03 -9.82956426401E-04 +5.38315265877E-03 -1.06705151293E-03 -3.10803168619E-01 -3.30776681444E-01
4.32000000000E+09 -3.15430702756E-01 -1.98160699087E-01 +4.43082467124E-03 -1.87055344065E-03 +4.51626200692E-03 -1.88753901648E-03 -3.24725360684E-01 -3.09233524893E-01
4.32500000000E+09 -3.28665760451E-01 -1.81400658188E-01 +3.72325662732E-03 -1.67550871553E-03 +3.76422917678E-03 -1.74828237211E-03 -3.38159814104E-01 -2.87913137260E-01
4.33000000000E+09 -3.40330713787E-01 -1.64925537721E-01 +4.21980340341E-03 -1.45250613638E-03 +4.24804483584E-03 -1.58333463779E-03 -3.51082240555E-01 -2.65493853540E-01
4.33500000000E+09 -3.48859200270E-01 -1.48785595182E-01 +4.35483742490E-03 -2.06844329602E-03 +4.29105931344E-03 -2.20310874644E-03 -3.62707880441E-01 -2.41566626448E-01
4.34000000000E+09 -3.55196320014E-01 -1.33214609081E-01 +4.63358674405E-03 -2.51987136665E-03 +4.58012603890E-03 -2.65159919919E-03 -3.73708966020E-01 -2.18233660672E-01
4.34500000000E+09 -3.59502019157E-01 -1.16380599549E-01 +4.56699039216E-03 -3.82226141365E-03 +4.48443406849E-03 -3.89305301929E-03 -3.84452379922E-01 -1.92463962158E-01
4.35000000000E+09 -3.61739220337E-01 -9.78422962477E-02 +3.68688533635E-03 -4.73985319801E-03 +3.63013007470E-03 -4.78300493191E-03 -3.92166658966E-01 -1.67182163374E-01
4.35500000000E+09 -3.63808224017E-01 -7.83140941411E-02 +2.84865173510E-03 -5.29179691614E-03 +2.81893435125E-03 -5.35302911773E-03 -4.00189259624E-01 -1.43646272392E-01
4.36000000000E+09 -3.67327394893E-01 -5.64936196562E-02 +1.96437609123E-03 -5.42749007778E-03 +1.93694831440E-03 -5.43549519041E-03 -4.06875312975E-01 -1.19350886107E-01
4.36500000000E+09 -3.71206795197E-01 -3.25017488133E-02 +1.10328361331E-03 -5.52889383829E-03 +1.10251315673E-03 -5.54628522750E-03 -4.12760386599E-01 -9.53489085103E-02
4.37000000000E+09 -3.76365808063E-01 -9.03217556715E-03 +3.55547852077E-04 -5.21425027122E-03 +3.49970178703E-04 -5.33136053562E-03 -4.17030368305E-01 -7.03095223733E-02
4.37500000000E+09 -3.81535373942E-01 +1.45852909114E-02 -1.15820945983E-04 -4.76408568511E-03 -1.90264808639E-04 -4.83317257518E-03 -4.19746478359E-01 -4.49617766741E-02
4.38000000000E+09 -3.87146721337E-01 +3.53269699123E-02 +2.00473306613E-05 -5.07484515460E-03 -5.51330435028E-05 -5.17928749332E-03 -4.21478092730E-01 -2.04151132397E-02
4.38500000000E+09 -3.92823179726E-01 +5.36668277020E-02 -3.61325528383E-04 -5.23007051527E-03 -5.25433826887E-04 -5.28652123990E-03 -4.23675883045E-01 +4.77051119070E-03
4.39000000000E+09 -3.96990005010E-01 +7.06000927399E-02 -1.27493923388E-03 -5.68388251550E-03 -1.40072549343E-03 -5.69565061842E-03 -4.24535918334E-01 +3.03128403502E-02
4.39500000000E+09 -3.99011758788E-01 +8.61575668365E-02 -2.53925807393E-03 -5.26393442309E-03 -2.66397847725E-03 -5.30536572923E-03 -4.24394679016E-01 +5.48703085180E-02
4.40000000000E+09 -3.98566214114E-01 +1.00950590331E-01 -2.98647665074E-03 -4.56726623992E-03 -3.05321701242E-03 -4.62201686871E-03 -4.22809095420E-01 +7.98512522908E-02
4.40500000000E+09 -3.95748020352E-01 +1.17136794363E-01 -3.68873008864E-03 -4.13462735785E-03 -3.77090512922E-03 -4.04563170522E-03 -4.19541554368E-01 +1.03511868726E-01
4.41000000000E+09 -3.90276273046E-01 +1.34011125902E-01 -3.50518939853E-03 -3.38831395598E-03 -3.58155825140E-03 -3.32744405076E-03 -4.16188305694E-01 +1.26967469776E-01
4.41500000000E+09 -3.84843423470E-01 +1.52483751286E-01 -3.90465197756E-03 -3.20436543296E-03 -4.03261690420E-03 -3.15244222981E-03 -4.11327720602E-01 +1.51595365070E-01
4.42000000000E+09 -3.79754410688E-01 +1.73809346794E-01 -4.04850890376E-03 -2.84289737253E-03 -4.16303907773E-03 -2.75521116487E-03 -4.05690840044E-01 +1.74100947127E-01
4.42500000000E+09 -3.74533207519E-01 +1.96321228055E-01 -4.53166341624E-03 -2.46256291229E-03 -4.58510069165E-03 -2.36571630477E-03 -3.99920122697E-01 +1.97330792433E-01
4.43000000000E+09 -3.70562862169E-01 +2.18682900460E-01 -4.33364730811E-03 -1.89777962790E-03 -4.34404463816E-03 -1.82314532304E-03 -3.93652066313E-01 +2.19344137360E-01
4.43500000000E+09 -3.67731324523E-01 +2.40109093656E-01 -5.04937859993E-03 -1.92070418863E-03 -5.06465793500E-03 -1.78935292089E-03 -3.86811596086E-01 +2.41373614202E-01
4.44000000000E+09 -3.65776174705E-01 +2.59219811437E-01 -5.32343079032E-03 -9.93581171539E-04 -5.27987087522E-03 -9.07736815872E-04 -3.78323632486E-01 +2.64278064986E-01
4.44500000000E+09 -3.64474925252E-01 +2.76104795494E-01 -5.22979759214E-03 -2.16779284853E-04 -5.23955630318E-03 -9.87321286035E-05 -3.68650926976E-01 +2.83692356469E-01
4.45000000000E+09 -3.62066264562E-01 +2.91233727978E-01 -5.16565669899E-03 +4.06584836271E-04 -5.16795383754E-03 +4.94076335351E-04 -3.58871892576E-01 +3.03729671427E-01
4.45500000000E+09 -3.57603440087E-01 +3.04171557095E-01 -4.95218223036E-03 +1.12727312550E-03 -4.92030226604E-03 +1.24849076649E-03 -3.47549113314E-01 +3.22303947613E-01
4.46000000000E+09 -3.51934106700E-01 +3.16486129585E-01 -4.54087467803E-03 +1.66382259396E-03 -4.40674676600E-03 +1.81946481324E-03 -3.38174139335E-01 +3.39529975660E-01
4.46500000000E+09 -3.42767536845E-01 +3.29841801702E-01 -3.98154385895E-03 +1.86831486798E-03 -3.88041502483E-03 +1.92163717638E-03 -3.26620228029E-01 +3.58313482970E-01
4.47000000000E+09 -3.31648928022E-01 +3.43790107441E-01 -3.73179913304E-03 +1.54982985544E-03 -3.66860379539E-03 +1.68508857840E-03 -3.14817043264E-01 +3.75374960941E-01
4.47500000000E+09 -3.19478931624E-01 +3.60001055096E-01 -4.59483314197E-03 +1.99597560651E-03 -4.46663323796E-03 +2.12745955941E-03 -3.03067907964E-01 +3.91731393087E-01
4.48000000000E+09 -3.06490638567E-01 +3.77760356768E-01 -3.98164005855E-03 +2.92456939872E-03 -3.79936288393E-03 +2.98418509382E-03 -2.91140206317E-01 +4.08200886043E-01
4.48500000000E+09 -2.93532397882E-01 +3.95788145525E-01 -3.55213455907E-03 +3.46034737474E-03 -3.49105319080E-03 +3.48461113164E-03 -2.79229513248E-01 +4.23856320185E-01
4.49000000000E+09 -2.83211122620E-01 +4.12792141606E-01 -3.03771657033E-03 +4.05969167825E-03 -2.88535091429E-03 +4.00224554921E-03 -2.66119636766E-01 +4.39887217729E-01
4.49500000000E+09 -2.74873265681E-01 +4.30346870208E-01 -2.04629381060E-03 +4.13515439392E-03 -1.90256311029E-03 +4.04019675718E-03 -2.52667021611E-01 +4.53877066533E-01
4.50000000000E+09 -2.67859553296E-01 +4.45434714025E-01 -1.66300922333E-03 +3.83146274938E-03 -1.60577334900E-03 +3.67846429017E-03 -2.39409451855E-01 +4.67764816444E-01
4.50500000000E+09 -2.62248557169E-01 +4.58958843449E-01 -1.60532580516E-03 +3.64875675000E-03 -1.54141669995E-03 +3.56973879341E-03 -2.25463307047E-01 +4.80473277246E-01
4.51000000000E+09 -2.55267021134E-01 +4.70472994549E-01 -1.48830382901E-03 +4.00513979061E-03 -1.45348723035E-03 +3.94299935624E-03 -2.12343065941E-01 +4.92897844131E-01
4.51500000000E+09 -2.46778119327E-01 +4.78977313239E-01 -1.06912417434E-03 +4.31115988334E-03 -9.93366084487E-04 +4.28126949381E-03 -1.98554507218E-01 +5.05021356915E-01
4.52000000000E+09 -2.37403308695E-01 +4.86196590733E-01 -5.39841231357E-04 +4.30826078966E-03 -5.44781628050E-04 +4.26080114680E-03 -1.84847204597E-01 +5.16288280889E-01
4.52500000000E+09 -2.26123552474E-01 +4.94127959116E-01 -1.79882759767E-04 +4.09943615858E-03 -1.47533194948E-04 +4.01123706509E-03 -1.71760438106E-01 +5.26704956636E-01
4.53000000000E+09 -2.12129193369E-01 +5.02522541896E-01 -5.19623435986E-05 +4.58214100931E-03 -5.94848467607E-06 +4.48080723899E-03 -1.58088217300E-01 +5.37246135867E-01
4.53500000000E+09 -1.96841973605E-01 +5.12171047436E-01 +6.98014778544E-04 +4.36530779532E-03 +7.65284185830E-04 +4.34023851826E-03 -1.43713101003E-01 +5.47446857474E-01
4.54000000000E+09 -1.80726960510E-01 +5.22698430075E-01 +1.27963899800E-03 +4.43698295780E-03 +1.31452215460E-03 +4.35844474887E-03 -1.28742902976E-01 +5.57519776667E-01
4.54500000000E+09 -1.65395912405E-01 +5.33435084800E-01 +1.53840536152E-03 +4.19761346287E-03 +1.58210479166E-03 +4.08507584307E-03 -1.13130833724E-01 +5.66246757783E-01
4.55000000000E+09 -1.52448870620E-01 +5.43794753179E-01 +2.47627564980E-03 +3.95797674847E-03 +2.44816335958E-03 +3.83828884881E-03 -9.85401928783E-02 +5.74464529692E-01
4.55500000000E+09 -1.41881858741E-01 +5.54813387038E-01 +2.57765608057E-03 +3.12914538790E-03 +2.56169192656E-03 +3.09217952409E-03 -8.49421791258E-02 +5.82556410015E-01
4.56000000000E+09 -1.32398536023E-01 +5.65075149226E-01 +2.47504568621E-03 +3.04143452545E-03 +2.44190102024E-03 +2.90933418010E-03 -7.07506363683E-02 +5.91314640080E-01
4.56500000000E+09 -1.23480715913E-01 +5.73245168662E-01 +2.80820358593E-03 +2.97621138807E-03 +2.76048335496E-03 +2.88422877900E-03 -5.64945585316E-02 +5.98707587366E-01
4.57000000000E+09 -1.14484762611E-01 +5.79819495424E-01 +2.98148039159E-03 +2.71706417813E-03 +2.94783046657E-03 +2.56972106605E-03 -4.18418364620E-02 +6.05886044161E-01
