# Hz S RI R 50
! CMT, C1220, 16058040, 17.2.0/1
! Date: 15/08/2018 12:31:02
! Data: Format (Calibration Info)
! Freq                      S11: Re/Im (F2)                       S21: Re/Im (F2)                       S12: Re/Im (F2)                       S22: Re/Im (F2)            
4.00000000000E+09 +6.61987607127E-01 -3.57424069278E-01 -5.14000925159E-04 -2.42722302583E-04 -5.46606061543E-04 -3.51194157621E-04 +7.83450732577E-01 -3.17757602207E-01
4.00500000000E+09 +6.54566855029E-01 -3.64285265074E-01 -3.59165420715E-04 -1.49902532114E-04 -3.58772277993E-04 -1.30183005416E-04 +7.74933352395E-01 -3.29537739864E-01
4.01000000000E+09 +6.45736083437E-01 -3.70683448811E-01 -4.57565647700E-04 -2.02518414303E-04 -4.15847522735E-04 -2.06324315857E-04 +7.66084792148E-01 -3.41420909587E-01
4.01500000000E+09 +6.36741387133E-01 -3.77541784266E-01 -3.35867309378E-04 -5.40327587335E-06 -3.07126045963E-04 -6.55132687610E-05 +7.57373770125E-01 -3.52424123032E-01
4.02000000000E+09 +6.26694451574E-01 -3.86036563906E-01 -2.53819051617E-04 -1.98269003569E-04 -2.51375616634E-04 -1.87234771244E-04 +7.48230810076E-01 -3.63147708855E-01
4.02500000000E+09 +6.15594755265E-01 -3.95511824719E-01 -2.94799959277E-04 -1.75583290892E-04 -3.79935823812E-04 -1.78754541472E-04 +7.38555623688E-01 -3.73079911898E-01
4.03000000000E+09 +6.04245999760E-01 -4.05678665248E-01 -3.86001339180E-04 -3.32045665105E-04 -4.18950267325E-04 -2.82990509763E-04 +7.28729707571E-01 -3.83369220931E-01
4.03500000000E+09 +5.93101128876E-01 -4.16071507540E-01 -5.12624696233E-04 -1.74579617585E-04 -5.08460149015E-04 -1.96005157763E-04 +7.17714032547E-01 -3.94273120357E-01
4.04000000000E+09 +5.82325330132E-01 -4.26816775973E-01 -6.33131754851E-04 -7.49044842167E-05 -6.15480196595E-04 -5.95954215949E-05 +7.06940696573E-01 -4.05465881810E-01
4.04500000000E+09 +5.70694600597E-01 -4.37126411014E-01 -5.05362720860E-04 +1.89301344408E-04 -5.56657817658E-04 +1.60900796954E-04 +6.96203267000E-01 -4.16676467011E-01
4.05000000000E+09 +5.59517986291E-01 -4.44912420427E-01 -3.34893950683E-04 +1.78761482279E-04 -3.34428011251E-04 +1.87813069085E-04 +6.85112741144E-01 -4.27395758552E-01
4.05500000000E+09 +5.48453867711E-01 -4.52332856549E-01 -2.84440257249E-04 +9.18757264401E-05 -2.97798247300E-04 +9.95156514157E-05 +6.73875400137E-01 -4.36813815815E-01
4.06000000000E+09 +5.35929287148E-01 -4.57999552318E-01 -3.26286711243E-04 -3.24060568935E-05 -3.07327716181E-04 -4.06952393874E-05 +6.62636465234E-01 -4.45974839139E-01
4.06500000000E+09 +5.23304459763E-01 -4.62319049961E-01 -4.91143635003E-04 -4.81419411698E-05 -5.26750639408E-04 -8.95795322091E-05 +6.50141771776E-01 -4.55365724183E-01
4.07000000000E+09 +5.09542782406E-01 -4.67828441315E-01 -5.91924819776E-04 +6.86765583735E-05 -6.01224211292E-04 -1.39221216003E-05 +6.37015249365E-01 -4.65274211119E-01
4.07500000000E+09 +4.94204106742E-01 -4.73117315339E-01 -6.36790235743E-04 +8.74032359474E-05 -6.78759010954E-04 +1.03327616136E-04 +6.23334095426E-01 -4.75515781303E-01
4.08000000000E+09 +4.78043325403E-01 -4.78758384872E-01 -7.66463765134E-04 +3.81811678842E-04 -8.34726357162E-04 +3.99373866070E-04 +6.09749853907E-01 -4.85230985636E-01
4.08500000000E+09 +4.61525046863E-01 -4.85229231355E-01 -5.08509325825E-04 +7.23040629068E-04 -5.22221342465E-04 +7.31859502138E-04 +5.96668297419E-01 -4.94891951678E-01
4.09000000000E+09 +4.44989630310E-01 -4.92476492099E-01 -2.62071650622E-04 +4.47874139265E-04 -2.62958261100E-04 +4.23577407390E-04 +5.82683564063E-01 -5.03706047976E-01
4.09500000000E+09 +4.28348465573E-01 -5.00046702598E-01 -1.71158722814E-04 +3.89830113981E-04 -1.94774981005E-04 +4.25725411344E-04 +5.68503816051E-01 -5.11365427365E-01
4.10000000000E+09 +4.11037802643E-01 -5.06616346864E-01 -3.96156927653E-04 +2.04215444586E-04 -4.02970103974E-04 +2.73732752212E-04 +5.53526814256E-01 -5.19309111642E-01
4.10500000000E+09 +3.94597107980E-01 -5.11332917029E-01 -6.21378768278E-04 +4.52521381323E-04 -6.50035349451E-04 +4.71856604454E-04 +5.37566270787E-01 -5.27394891121E-01
4.11000000000E+09 +3.78609189523E-01 -5.14886778680E-01 -3.43533807142E-04 +7.98954144711E-04 -3.62096779435E-04 +7.84973678339E-04 +5.20961949039E-01 -5.35269560209E-01
4.11500000000E+09 +3.62945188426E-01 -5.16866667858E-01 -2.37559254512E-04 +7.31938796174E-04 -2.22384909121E-04 +7.08700464758E-04 +5.04808813599E-01 -5.42652925376E-01
4.12000000000E+09 +3.46103596366E-01 -5.18171264843E-01 -1.09995734749E-04 +7.86547857806E-04 -1.85306347939E-04 +8.63626991621E-04 +4.88679418574E-01 -5.49902934747E-01
4.12500000000E+09 +3.28998180022E-01 -5.18737204587E-01 +9.59328598826E-05 +8.54468336873E-04 +8.41762009577E-05 +8.36146202716E-04 +4.72232456232E-01 -5.56272949707E-01
4.13000000000E+09 +3.10607096389E-01 -5.20583132824E-01 +2.02651183350E-04 +5.21100805168E-04 +2.18000758250E-04 +5.24782043627E-04 +4.55469858019E-01 -5.62609555439E-01
4.13500000000E+09 +2.90844785241E-01 -5.22275010751E-01 -3.14901749330E-05 +5.19012329122E-04 -2.21476484609E-05 +5.77610263404E-04 +4.37225322282E-01 -5.68500420234E-01
4.14000000000E+09 +2.71188444842E-01 -5.25072492568E-01 -7.95405800968E-05 +6.12125636144E-04 +2.39923110430E-05 +6.20840299893E-04 +4.18502969258E-01 -5.74203120312E-01
4.14500000000E+09 +2.50625475000E-01 -5.29468423491E-01 -1.67065065290E-04 +7.57179785917E-04 -2.05322287286E-04 +7.82139335961E-04 +3.99518390749E-01 -5.79873462188E-01
4.15000000000E+09 +2.29932973304E-01 -5.32891398000E-01 -5.17480109245E-06 +1.22064588476E-03 -5.31336670462E-06 +1.24384522357E-03 +3.81364320357E-01 -5.84910997441E-01
4.15500000000E+09 +2.10628719161E-01 -5.35954180180E-01 +5.21835265673E-04 +1.29675695755E-03 +5.00208900546E-04 +1.33797136351E-03 +3.62885516691E-01 -5.89307054752E-01
4.16000000000E+09 +1.92212480553E-01 -5.38407062154E-01 +9.72597926552E-04 +1.11231630641E-03 +1.05225549262E-03 +1.06387574776E-03 +3.44784653598E-01 -5.92294884356E-01
4.16500000000E+09 +1.74584020650E-01 -5.38608073055E-01 +1.18209539494E-03 +4.89236852545E-04 +1.17759743654E-03 +4.91999606244E-04 +3.25747483443E-01 -5.95278789973E-01
4.17000000000E+09 +1.57724983406E-01 -5.37140618681E-01 +7.51635629120E-04 +4.35115539293E-04 +7.31316045499E-04 +4.78852136379E-04 +3.05839594534E-01 -5.97699030536E-01
4.17500000000E+09 +1.41469380543E-01 -5.33375816455E-01 +1.06211170866E-03 +4.89768783634E-04 +1.09331525906E-03 +4.82383770296E-04 +2.84566990161E-01 -5.99684789597E-01
4.18000000000E+09 +1.24766308523E-01 -5.29312390025E-01 +9.52940507539E-04 -6.35459500245E-05 +1.03377005990E-03 -7.22180184769E-05 +2.63777813472E-01 -6.01249527447E-01
4.18500000000E+09 +1.06419095836E-01 -5.23871764241E-01 +4.58026954629E-04 +3.87445252602E-04 +4.92207062185E-04 +3.85523435445E-04 +2.42832664212E-01 -6.02257292616E-01
4.19000000000E+09 +8.76322856972E-02 -5.18016433113E-01 +1.18214979037E-03 +6.70094908738E-04 +1.22037642474E-03 +6.62610760165E-04 +2.22344826939E-01 -6.02319612260E-01
4.19500000000E+09 +6.75046234988E-02 -5.12923021141E-01 +1.38235985863E-03 -1.21968709664E-05 +1.45197485142E-03 -4.85696508166E-05 +2.01579710154E-01 -6.00899840286E-01
4.20000000000E+09 +4.66021901812E-02 -5.07505470785E-01 +1.20712537437E-03 -1.30382212707E-04 +1.31124879898E-03 -1.55124861507E-04 +1.81036740318E-01 -5.99076772416E-01
4.20500000000E+09 +2.65000798892E-02 -5.02729816710E-01 +1.46404567989E-03 -5.38176008721E-04 +1.56381905420E-03 -5.70603521488E-04 +1.58812669221E-01 -5.96988739063E-01
4.21000000000E+09 +6.49702555803E-03 -4.98027885916E-01 +9.73182514337E-04 -1.05376113954E-03 +1.02741586643E-03 -1.12641856599E-03 +1.36576197336E-01 -5.94538593244E-01
4.21500000000E+09 -1.18992738801E-02 -4.92284798601E-01 +6.23962652744E-04 -6.70685632390E-04 +5.93416009879E-04 -6.49880934188E-04 +1.14559684206E-01 -5.92057017601E-01
4.22000000000E+09 -2.89982162801E-02 -4.85710470557E-01 +6.13493320429E-04 -8.09394989340E-04 +6.64644787137E-04 -8.69722733967E-04 +9.27404269897E-02 -5.89190259923E-01
4.22500000000E+09 -4.50509572992E-02 -4.77201365971E-01 +6.21215230379E-04 -6.77691019663E-04 +6.41798865793E-04 -6.58531723184E-04 +7.11073506917E-02 -5.84579197686E-01
4.23000000000E+09 -6.01572476008E-02 -4.67429583128E-01 +5.27391714833E-04 -9.76583158568E-04 +5.85704644599E-04 -9.75794443374E-04 +5.00199704780E-02 -5.79062901701E-01
4.23500000000E+09 -7.65208966455E-02 -4.55432028199E-01 +1.11911425537E-04 -9.43463134697E-04 +9.71058861284E-05 -9.15785058785E-04 +2.78101602908E-02 -5.72255069312E-01
4.24000000000E+09 -9.31528965215E-02 -4.41131954342E-01 +2.99248924550E-04 -4.90310753658E-04 +2.78069625348E-04 -4.55824407458E-04 +5.81884389366E-03 -5.63957345792E-01
4.24500000000E+09 -1.10118162100E-01 -4.26913200169E-01 +6.47359006673E-04 -9.02195545504E-04 +6.54884990719E-04 -9.45727948557E-04 -1.66402303777E-02 -5.55832197405E-01
4.25000000000E+09 -1.29523024010E-01 -4.13029826576E-01 +2.75249963588E-04 -1.28751946911E-03 +2.23304250818E-04 -1.26743509761E-03 -3.89529664095E-02 -5.46690366656E-01
4.25500000000E+09 -1.49831702276E-01 -3.98993512596E-01 -1.41203411054E-04 -9.16475734585E-04 -9.07120439267E-05 -9.74538691875E-04 -5.97665079346E-02 -5.36883191402E-01
4.26000000000E+09 -1.70337239202E-01 -3.85745181459E-01 +9.01282299825E-05 -9.91475415483E-04 +7.25198529966E-05 -9.25460752838E-04 -8.01112456379E-02 -5.26249281720E-01
4.26500000000E+09 -1.90354168197E-01 -3.72576034192E-01 -1.21736682974E-04 -1.20996882772E-03 -1.57332875747E-04 -1.23469658364E-03 -9.98164165521E-02 -5.14828254562E-01
4.27000000000E+09 -2.07819265986E-01 -3.60149822520E-01 -5.54636709605E-04 -1.13647762869E-03 -5.84177010742E-04 -1.14226866578E-03 -1.21130791022E-01 -5.02480913424E-01
4.27500000000E+09 -2.23662125286E-01 -3.47861159036E-01 -5.83309839929E-04 -9.55609389814E-04 -6.06299848958E-04 -9.69911587228E-04 -1.42271971482E-01 -4.87668845376E-01
4.28000000000E+09 -2.36849476259E-01 -3.34756012784E-01 -8.80535401650E-04 -7.12982616138E-04 -8.99050166674E-04 -7.70029188451E-04 -1.62161789392E-01 -4.73260811725E-01
4.28500000000E+09 -2.48580368076E-01 -3.20732236768E-01 -6.07949828838E-04 -4.37798305805E-04 -5.91468669620E-04 -4.55747744890E-04 -1.81914030359E-01 -4.59236548801E-01
4.29000000000E+09 -2.59479285363E-01 -3.03911731554E-01 -7.15930639243E-04 -5.89324475049E-04 -7.30986201562E-04 -6.40547167935E-04 -2.01015635739E-01 -4.44517967716E-01
4.29500000000E+09 -2.69088884709E-01 -2.85413630351E-01 -7.34638609333E-04 -3.27916815889E-04 -7.27731981629E-04 -3.92425857979E-04 -2.19086885528E-01 -4.29122386080E-01
4.30000000000E+09 -2.79447806643E-01 -2.65636348739E-01 -7.17865443728E-04 -4.61124709428E-04 -7.37409852693E-04 -4.79043413969E-04 -2.36609965500E-01 -4.12598020179E-01
4.30500000000E+09 -2.91031334813E-01 -2.44679572341E-01 -1.01667457722E-03 -4.79442636284E-04 -1.02538982034E-03 -4.98079574509E-04 -2.53679500856E-01 -3.94527677213E-01
4.31000000000E+09 -3.03476656998E-01 -2.23385719541E-01 -1.18009428641E-03 +2.16035026197E-04 -1.21185225064E-03 +2.28573961616E-04 -2.70081897009E-01 -3.76115994384E-01
4.31500000000E+09 -3.16805921232E-01 -2.02427434696E-01 -7.96418953325E-04 +1.83283487471E-04 -8.46397120999E-04 +1.77821044943E-04 -2.86696468338E-01 -3.56863928183E-01
4.32000000000E+09 -3.29429475732E-01 -1.82951825085E-01 -8.41679189107E-04 +6.86995230724E-04 -8.58415894089E-04 +7.19762834219E-04 -3.01653266328E-01 -3.37157234864E-01
4.32500000000E+09 -3.41680826410E-01 -1.64501943334E-01 +4.49033438748E-05 +4.43404939590E-04 +1.86831777144E-05 +3.77783933734E-04 -3.17054091235E-01 -3.17290083145E-01
4.33000000000E+09 -3.51373608158E-01 -1.47103599553E-01 -6.39671632073E-04 +1.64991307382E-05 -6.91870359926E-04 +3.76215589101E-05 -3.30198206426E-01 -2.95003571820E-01
4.33500000000E+09 -3.58622732779E-01 -1.30932673248E-01 -3.18368111011E-04 +6.11798565731E-04 -2.86163951086E-04 +6.27583997191E-04 -3.42492578037E-01 -2.73624651105E-01
4.34000000000E+09 -3.64220636504E-01 -1.14513352193E-01 -2.15306058805E-04 +2.20516216399E-04 -1.55587472488E-04 +2.76212726633E-04 -3.55102719966E-01 -2.50006886986E-01
4.34500000000E+09 -3.66635855793E-01 -9.61138423101E-02 -3.74156435083E-04 +2.79908004635E-04 -3.76118055034E-04 +2.66592580886E-04 -3.65747443852E-01 -2.26862951047E-01
4.35000000000E+09 -3.68226739962E-01 -7.71846998076E-02 -1.12299339020E-04 +6.44836805512E-04 -1.12377374003E-04 +6.61632962843E-04 -3.77101225140E-01 -2.03887268932E-01
4.35500000000E+09 -3.68657235430E-01 -5.57322024725E-02 +2.45856432809E-04 +2.67283930039E-04 +2.42761770955E-04 +3.26176556787E-04 -3.86649229227E-01 -1.80348174736E-01
4.36000000000E+09 -3.69685543120E-01 -3.30775080849E-02 +8.11509777803E-05 -1.13612610131E-05 +1.13914160050E-04 +4.31546286408E-05 -3.94438407707E-01 -1.57459314816E-01
4.36500000000E+09 -3.72085117403E-01 -9.27587984913E-03 +6.04191597589E-05 +1.10491958740E-04 +9.25431624865E-05 +8.17354497209E-05 -4.01987271248E-01 -1.34664331933E-01
4.37000000000E+09 -3.74807195602E-01 +1.46813432999E-02 +1.31240421028E-04 -1.28881765802E-05 +1.62360946210E-04 -5.25353821620E-05 -4.07920371068E-01 -1.10583350421E-01
4.37500000000E+09 -3.79158751644E-01 +3.71551060817E-02 +3.45921646163E-04 -5.30892450093E-04 +3.70405079996E-04 -4.74496943684E-04 -4.13099407226E-01 -8.60275410396E-02
4.38000000000E+09 -3.83680296232E-01 +5.88381108297E-02 -4.92316979577E-04 -7.08311417255E-04 -5.18853983570E-04 -7.43466263689E-04 -4.17545582624E-01 -6.21601489594E-02
4.38500000000E+09 -3.86844560410E-01 +7.74199019949E-02 -7.18699341266E-04 -1.04178957467E-04 -7.68339318231E-04 -8.26592257256E-05 -4.22071872873E-01 -3.74761044509E-02
4.39000000000E+09 -3.89480401494E-01 +9.43699794716E-02 -4.38192542713E-04 +1.67699619803E-04 -4.09902732765E-04 +1.85195004548E-04 -4.24689768074E-01 -1.27524842420E-02
4.39500000000E+09 -3.89230668834E-01 +1.10437690099E-01 -2.62051230895E-04 -8.97615658772E-05 -2.92561247471E-04 -1.19954543299E-04 -4.26641506931E-01 +1.13744889696E-02
4.40000000000E+09 -3.86503923255E-01 +1.25199308792E-01 -2.22628145787E-04 +2.01972806165E-05 -2.57861170991E-04 -3.56269682484E-05 -4.26526187074E-01 +3.56828633895E-02
4.40500000000E+09 -3.81754840192E-01 +1.40610872884E-01 -4.90543110448E-04 -2.58794511371E-04 -5.09505930807E-04 -2.10828647572E-04 -4.26354861669E-01 +5.93978925752E-02
4.41000000000E+09 -3.75592778734E-01 +1.57133054206E-01 -5.39045266154E-04 +3.19105159204E-06 -5.88230284221E-04 +3.56273317297E-05 -4.25068852112E-01 +8.43340328160E-02
4.41500000000E+09 -3.68981296049E-01 +1.76540014479E-01 -5.80598899056E-04 -2.45470878508E-05 -5.97230684180E-04 -8.34475849272E-05 -4.23119521665E-01 +1.08231200364E-01
4.42000000000E+09 -3.61727711951E-01 +1.97717130667E-01 -9.58719596742E-04 +1.08572545118E-05 -9.98565451556E-04 +3.40239008121E-05 -4.20457323787E-01 +1.33333697278E-01
4.42500000000E+09 -3.55688893816E-01 +2.19581211714E-01 -8.75813726278E-04 +5.12277825634E-04 -8.63333491532E-04 +5.77043221360E-04 -4.14636083641E-01 +1.56328368108E-01
4.43000000000E+09 -3.50812998781E-01 +2.42136223523E-01 -6.16624486563E-04 +5.89930349670E-04 -6.12523292368E-04 +6.38499472114E-04 -4.10761017990E-01 +1.78267982748E-01
4.43500000000E+09 -3.45981171907E-01 +2.63567234133E-01 -6.25631783576E-04 +6.89263798059E-04 -6.27596288706E-04 +6.73016568271E-04 -4.04429252673E-01 +2.01467315271E-01
4.44000000000E+09 -3.42219937967E-01 +2.81813716977E-01 -2.96564853037E-04 +7.28659773374E-04 -2.21063349536E-04 +7.76160422946E-04 -3.97934104425E-01 +2.22998916454E-01
4.44500000000E+09 -3.39496713550E-01 +2.98049854095E-01 -4.24481301359E-04 +4.57228855395E-04 -3.93623620474E-04 +4.04240569017E-04 -3.91122994328E-01 +2.44735312266E-01
4.45000000000E+09 -3.36520603223E-01 +3.12100123092E-01 -5.82721921956E-04 +7.26843654915E-04 -4.95345728720E-04 +7.34894103252E-04 -3.84179775013E-01 +2.65503509978E-01
4.45500000000E+09 -3.31276263306E-01 +3.25196355828E-01 -4.46052757660E-04 +9.19492214264E-04 -4.61011692819E-04 +9.27368477579E-04 -3.75786785080E-01 +2.85736679121E-01
4.46000000000E+09 -3.23913417835E-01 +3.37137969237E-01 -4.36125906210E-04 +8.91194635506E-04 -4.03187906811E-04 +9.39266537090E-04 -3.67489645075E-01 +3.04589204206E-01
4.46500000000E+09 -3.14393639540E-01 +3.49471324121E-01 -1.66441507953E-04 +1.14179390469E-03 -1.58954167528E-04 +1.05796204475E-03 -3.57951819068E-01 +3.24270950576E-01
4.47000000000E+09 -3.02854263434E-01 +3.63187537648E-01 -6.34231205440E-05 +1.19614955193E-03 -2.21569143361E-05 +1.15375988354E-03 -3.46886307973E-01 +3.42942966566E-01
4.47500000000E+09 -2.89702133276E-01 +3.77734920879E-01 +4.88491135888E-05 +1.17486062512E-03 +7.41481819953E-05 +1.14358438716E-03 -3.36375091336E-01 +3.62017767170E-01
4.48000000000E+09 -2.77499793569E-01 +3.94172689759E-01 +3.69022868278E-04 +1.32602674824E-03 +3.85246584093E-04 +1.24411262389E-03 -3.24526518718E-01 +3.80492975748E-01
4.48500000000E+09 -2.64906378083E-01 +4.11222967719E-01 +3.80214490761E-04 +9.61234963543E-04 +3.77071462339E-04 +1.00065849561E-03 -3.13297631346E-01 +3.97673285902E-01
4.49000000000E+09 -2.54353039032E-01 +4.27523274419E-01 +4.12717273239E-04 +1.24401009503E-03 +3.51429193468E-04 +1.18255891990E-03 -3.01660363940E-01 +4.14211871988E-01
4.49500000000E+09 -2.45631699985E-01 +4.43461467238E-01 +6.80733436655E-04 +1.22312460950E-03 +6.05140571587E-04 +1.26781354837E-03 -2.90072194318E-01 +4.29684256158E-01
4.50000000000E+09 -2.38474131539E-01 +4.56652855905E-01 +7.61458470768E-04 +1.38686949554E-03 +7.78832846986E-04 +1.37635147775E-03 -2.77516418867E-01 +4.45481907855E-01
4.50500000000E+09 -2.33344875051E-01 +4.68325195026E-01 +1.48008529575E-03 +1.30350472665E-03 +1.49224116774E-03 +1.26614072371E-03 -2.63928847726E-01 +4.60101306159E-01
4.51000000000E+09 -2.26874524603E-01 +4.78152788020E-01 +1.66359603137E-03 +4.94449602348E-04 +1.61827388643E-03 +5.29329254590E-04 -2.50568353919E-01 +4.74420722540E-01
4.51500000000E+09 -2.19714995138E-01 +4.85751309164E-01 +1.29427917574E-03 +5.53660356421E-04 +1.30992998011E-03 +5.43705119303E-04 -2.36868353658E-01 +4.88697829310E-01
4.52000000000E+09 -2.10190601242E-01 +4.93502923727E-01 +1.64116971897E-03 +2.94516692895E-04 +1.64792100411E-03 +2.58854494432E-04 -2.23535628994E-01 +5.01509632994E-01
4.52500000000E+09 -1.97903808981E-01 +4.99475487870E-01 +1.30848380804E-03 +1.33370835429E-04 +1.32715150324E-03 +8.25736607016E-05 -2.09976735055E-01 +5.13881256899E-01
4.53000000000E+09 -1.84609053808E-01 +5.06962841317E-01 +1.41228456590E-03 +2.23959534070E-04 +1.40776830624E-03 +1.98803976552E-04 -1.96202049538E-01 +5.25247967188E-01
4.53500000000E+09 -1.69018069378E-01 +5.15239326283E-01 +1.40848739852E-03 -7.26168822066E-05 +1.44271250935E-03 -1.03501496349E-04 -1.81685022839E-01 +5.36932080197E-01
4.54000000000E+09 -1.53636516694E-01 +5.24616489380E-01 +1.71503394271E-03 +8.60587697385E-05 +1.68503152703E-03 +1.42942215193E-05 -1.65801460504E-01 +5.47506274816E-01
4.54500000000E+09 -1.38604632382E-01 +5.35145401926E-01 +1.98295352554E-03 -6.03728933158E-04 +1.95247269264E-03 -6.45691818241E-04 -1.51070801493E-01 +5.57271211393E-01
4.55000000000E+09 -1.25069268228E-01 +5.45645040306E-01 +1.78528342794E-03 -8.68848380973E-04 +1.74072146301E-03 -9.04986621193E-04 -1.36311055949E-01 +5.67764807489E-01
4.55500000000E+09 -1.13164685754E-01 +5.56000870377E-01 +1.46353558000E-03 -1.32768686126E-03 +1.41978217263E-03 -1.35720432422E-03 -1.22019027335E-01 +5.77211632891E-01
4.56000000000E+09 -1.02749261525E-01 +5.64853381853E-01 +1.01353068429E-03 -1.26727072848E-03 +9.76153253565E-04 -1.29017551551E-03 -1.07342601445E-01 +5.85996418088E-01
4.56500000000E+09 -9.40502349030E-02 +5.72205651557E-01 +8.66623039573E-04 -1.37224038367E-03 +7.87447428886E-04 -1.34669978495E-03 -9.35222022859E-02 +5.94766737332E-01
4.57000000000E+09 -8.51350278875E-02 +5.78835962674E-01 +9.22554186054E-04 -1.29383468913E-03 +8.33619423276E-04 -1.29880206962E-03 -7.75108357218E-02 +6.03274631780E-01
