# Hz S RI R 50
! CMT, C1220, 16058040, 17.2.0/1
! Date: 15/08/2018 12:30:25
! Data: Format (Calibration Info)
! Freq                      S11: Re/Im (F2)                       S21: Re/Im (F2)                       S12: Re/Im (F2)                       S22: Re/Im (F2)            
4.00000000000E+09 +6.60273181808E-01 -3.62309578491E-01 -5.98296636980E-04 -5.27054973207E-04 -6.19876682989E-04 -5.44595979699E-04 +7.83273179506E-01 -3.17627155642E-01
4.00500000000E+09 +6.52370256733E-01 -3.68854953220E-01 -4.70721560544E-04 -3.55712689747E-04 -4.94328077321E-04 -4.06422452203E-04 +7.74855669493E-01 -3.29511832601E-01
4.01000000000E+09 +6.43439095651E-01 -3.75129344041E-01 -6.06064427262E-04 -4.01762901386E-04 -5.81854979564E-04 -4.75006891218E-04 +7.66057376318E-01 -3.41379589889E-01
4.01500000000E+09 +6.33892713154E-01 -3.81700996323E-01 -5.83916902945E-04 -1.97977274072E-04 -5.51225367418E-04 -2.29861037672E-04 +7.57338599432E-01 -3.52357869026E-01
4.02000000000E+09 +6.23707360541E-01 -3.89883172119E-01 -4.65304832024E-04 -3.04090882266E-04 -4.97300219952E-04 -3.37523384646E-04 +7.48189147233E-01 -3.63082548297E-01
4.02500000000E+09 +6.12535169174E-01 -3.99522924884E-01 -5.77857078187E-04 -3.24375656594E-04 -4.73669883904E-04 -3.63933369403E-04 +7.38466406376E-01 -3.72980959874E-01
4.03000000000E+09 +6.00544395160E-01 -4.09750272016E-01 -7.32903256842E-04 -3.97519381797E-04 -6.85326164407E-04 -4.66911765042E-04 +7.28668107930E-01 -3.83377506934E-01
4.03500000000E+09 +5.88846531904E-01 -4.19871080756E-01 -8.71186207921E-04 -1.57408598273E-04 -8.98676332586E-04 -2.31021484415E-04 +7.17740542342E-01 -3.94089672482E-01
4.04000000000E+09 +5.77577645018E-01 -4.30339710744E-01 -9.32072637717E-04 +4.82170391887E-05 -9.86208392426E-04 -1.79908745000E-05 +7.07040296746E-01 -4.05312428049E-01
4.04500000000E+09 +5.65704120602E-01 -4.40208717899E-01 -7.45809104155E-04 +3.01835993769E-04 -8.39779197665E-04 +2.73801162340E-04 +6.96392560309E-01 -4.16436505160E-01
4.05000000000E+09 +5.54315275113E-01 -4.47648056593E-01 -5.57451298529E-04 +3.44862425656E-04 -5.92110650392E-04 +3.45979522291E-04 +6.85528957661E-01 -4.27202539013E-01
4.05500000000E+09 +5.42885514049E-01 -4.54528885082E-01 -4.20867637073E-04 +2.96181876130E-04 -4.98324768885E-04 +3.18493570170E-04 +6.74359281585E-01 -4.36722796513E-01
4.06000000000E+09 +5.30164728924E-01 -4.59989044299E-01 -3.87151400172E-04 +1.71979858327E-04 -4.23657636113E-04 +1.41202139495E-04 +6.63298240853E-01 -4.46028012512E-01
4.06500000000E+09 +5.17209032617E-01 -4.64003558201E-01 -5.62113007220E-04 +3.15997116253E-05 -5.71430996608E-04 +6.71205479227E-06 +6.50833067362E-01 -4.55473370910E-01
4.07000000000E+09 +5.03223063520E-01 -4.68678660608E-01 -7.20557224304E-04 +1.88478336949E-04 -7.45123063222E-04 +1.92678428804E-04 +6.37869597348E-01 -4.65591025983E-01
4.07500000000E+09 +4.88192277064E-01 -4.73594597487E-01 -7.05559164716E-04 +4.01189668464E-04 -6.77295402209E-04 +3.18261776352E-04 +6.24112191883E-01 -4.75947376801E-01
4.08000000000E+09 +4.71624630774E-01 -4.79448312150E-01 -6.28624023124E-04 +5.07910814242E-04 -7.24581734405E-04 +5.07748863104E-04 +6.10471558984E-01 -4.85804524907E-01
4.08500000000E+09 +4.54475201484E-01 -4.85140953222E-01 -5.63288157500E-04 +7.02244432537E-04 -5.64153260007E-04 +6.89787174085E-04 +5.97272805685E-01 -4.95577371230E-01
4.09000000000E+09 +4.37723316407E-01 -4.91670767637E-01 -2.22918405582E-04 +5.21588366841E-04 -2.47994921538E-04 +5.75556969563E-04 +5.83359803148E-01 -5.04418701813E-01
4.09500000000E+09 +4.21169573593E-01 -4.98588274720E-01 -2.55794403447E-04 +3.77861640309E-04 -3.09646075778E-04 +4.00401743907E-04 +5.69097130446E-01 -5.12150498791E-01
4.10000000000E+09 +4.03842544725E-01 -5.04552678521E-01 -3.36760213250E-04 +4.69538663583E-04 -3.59456734820E-04 +4.86564185704E-04 +5.54140357817E-01 -5.20309018630E-01
4.10500000000E+09 +3.87577648100E-01 -5.08806759264E-01 -5.45688772949E-04 +4.24594669559E-04 -4.74458225275E-04 +4.83091232053E-04 +5.38044301330E-01 -5.28284586532E-01
4.11000000000E+09 +3.71651440679E-01 -5.12223899925E-01 -4.20736004877E-04 +7.12258665664E-04 -4.47699991346E-04 +7.35918692413E-04 +5.21343535092E-01 -5.36402189304E-01
4.11500000000E+09 +3.55113677427E-01 -5.14041350603E-01 -2.57489857477E-04 +8.32109752947E-04 -2.41846387197E-04 +8.23534028514E-04 +5.05073559898E-01 -5.43851933642E-01
4.12000000000E+09 +3.38080382599E-01 -5.14426749454E-01 -1.63690726840E-04 +8.95919002587E-04 -1.44494622918E-04 +9.28710761553E-04 +4.88839641129E-01 -5.51145412407E-01
4.12500000000E+09 +3.21182684289E-01 -5.14047053868E-01 -5.41689686793E-06 +9.85840869769E-04 -3.19547286940E-05 +9.93348425294E-04 +4.72326757967E-01 -5.57511969460E-01
4.13000000000E+09 +3.03344421552E-01 -5.15467514280E-01 +2.95107794086E-04 +6.78999973497E-04 +2.76170506265E-04 +6.61648208030E-04 +4.55411378108E-01 -5.63913927695E-01
4.13500000000E+09 +2.83415939440E-01 -5.16552194117E-01 -2.14807011140E-05 +5.81940939819E-04 +2.20775402294E-05 +5.09323275935E-04 +4.37211570158E-01 -5.69675566513E-01
4.14000000000E+09 +2.64215813259E-01 -5.18773327193E-01 +1.21928798285E-05 +6.43550341816E-04 -2.29216590456E-05 +6.89321117038E-04 +4.18454947175E-01 -5.75552088467E-01
4.14500000000E+09 +2.43822604473E-01 -5.22824971159E-01 -8.66405461508E-05 +7.27763373148E-04 -1.03653488486E-04 +7.69716771379E-04 +3.99482886683E-01 -5.81130221662E-01
4.15000000000E+09 +2.22865514654E-01 -5.25340983716E-01 +3.65450689927E-05 +1.13267522644E-03 +5.09414842814E-06 +1.12436616213E-03 +3.81374800822E-01 -5.86359220142E-01
4.15500000000E+09 +2.04137761797E-01 -5.27545614926E-01 +4.21130143009E-04 +1.18919547718E-03 +4.62543132271E-04 +1.21552605841E-03 +3.62755470926E-01 -5.91087391341E-01
4.16000000000E+09 +1.86347346251E-01 -5.29491632482E-01 +7.26767079567E-04 +9.69601572844E-04 +7.59561874745E-04 +1.01566285293E-03 +3.44267265728E-01 -5.93820756827E-01
4.16500000000E+09 +1.68819905159E-01 -5.29249986100E-01 +8.67425017995E-04 +6.96176007775E-04 +8.50502139097E-04 +6.95906509504E-04 +3.25171706775E-01 -5.96918868666E-01
4.17000000000E+09 +1.52318847302E-01 -5.26902430639E-01 +6.35701555145E-04 +6.59452081242E-04 +6.18106354368E-04 +6.67668720433E-04 +3.05140397422E-01 -5.99225475712E-01
4.17500000000E+09 +1.36955144748E-01 -5.22306530362E-01 +9.91922256202E-04 +6.72074021643E-04 +9.48150036085E-04 +7.23477776716E-04 +2.83615149845E-01 -6.01208589174E-01
4.18000000000E+09 +1.21086969560E-01 -5.18028450079E-01 +1.01009796890E-03 +8.38903726910E-05 +1.03836787846E-03 +1.24465286632E-04 +2.62789310129E-01 -6.02768480797E-01
4.18500000000E+09 +1.03289354759E-01 -5.12108570484E-01 +4.59287935750E-04 +4.42380296717E-04 +3.77491392612E-04 +5.32005692647E-04 +2.41617691761E-01 -6.03802933633E-01
4.19000000000E+09 +8.51769441422E-02 -5.06030449228E-01 +9.81795868444E-04 +7.92636161751E-04 +9.92114371064E-04 +8.57670363514E-04 +2.20938232392E-01 -6.03712438315E-01
4.19500000000E+09 +6.53792596979E-02 -5.00697392528E-01 +1.32942998271E-03 +2.47342571827E-04 +1.35395728279E-03 +3.49765735493E-04 +1.99820271099E-01 -6.02297655230E-01
4.20000000000E+09 +4.50599468823E-02 -4.94353057828E-01 +1.14520341244E-03 +2.29561606362E-04 +1.19501439097E-03 +2.90701438606E-04 +1.79008326304E-01 -6.00209016751E-01
4.20500000000E+09 +2.57970176966E-02 -4.88819339673E-01 +1.63097305615E-03 -7.49916186393E-05 +1.69918769592E-03 -4.25938731208E-05 +1.56693833992E-01 -5.97733110641E-01
4.21000000000E+09 +7.58368158839E-03 -4.83597705950E-01 +1.31329217685E-03 -8.03911873290E-04 +1.43849766978E-03 -7.80278592176E-04 +1.34574314830E-01 -5.94979167963E-01
4.21500000000E+09 -9.60194339299E-03 -4.78588579285E-01 +7.71140615592E-04 -6.60048190268E-04 +9.22684958561E-04 -6.21645396840E-04 +1.12550518786E-01 -5.92268401744E-01
4.22000000000E+09 -2.65437749591E-02 -4.72003410215E-01 +8.07038388578E-04 -6.31180595445E-04 +8.75326671896E-04 -6.75943130311E-04 +9.08395502428E-02 -5.89212063587E-01
4.22500000000E+09 -4.17197755133E-02 -4.62991668763E-01 +8.86890233668E-04 -5.42559826019E-04 +9.72243165473E-04 -6.14630766089E-04 +6.93234216056E-02 -5.84289692413E-01
4.23000000000E+09 -5.59067172817E-02 -4.53178294533E-01 +7.91570207175E-04 -1.00410023887E-03 +8.45383923864E-04 -1.08477710055E-03 +4.85222881036E-02 -5.78543876177E-01
4.23500000000E+09 -7.12769080227E-02 -4.40900355690E-01 +2.21844065743E-04 -7.75672107954E-04 +2.23122524778E-04 -8.58975975141E-04 +2.64692645256E-02 -5.71756236262E-01
4.24000000000E+09 -8.63047836942E-02 -4.26692694854E-01 +3.86958865494E-04 -2.95795999079E-04 +3.47866215106E-04 -3.41672285012E-04 +4.71900837860E-03 -5.63630102358E-01
4.24500000000E+09 -1.02010747739E-01 -4.13657389051E-01 +9.17488976872E-04 -6.00189362575E-04 +9.23709256834E-04 -7.00022339165E-04 -1.77315336424E-02 -5.55677907850E-01
4.25000000000E+09 -1.21044673989E-01 -4.00205412061E-01 +5.80876438276E-04 -1.25962564162E-03 +5.61947764169E-04 -1.34997490532E-03 -4.01270635854E-02 -5.46590665915E-01
4.25500000000E+09 -1.40723137617E-01 -3.86648872476E-01 +1.68577839587E-04 -7.61146527761E-04 +9.55443923719E-05 -8.17403917816E-04 -6.09494354665E-02 -5.36832357017E-01
4.26000000000E+09 -1.60252176884E-01 -3.73645165293E-01 +5.34580986919E-04 -9.12900026420E-04 +4.81307576550E-04 -8.91824453556E-04 -8.16772094377E-02 -5.26118341277E-01
4.26500000000E+09 -1.80028837072E-01 -3.61515749331E-01 +2.36071808659E-04 -1.37669606474E-03 +2.09251291787E-04 -1.39427687249E-03 -1.01518826040E-01 -5.14503248821E-01
4.27000000000E+09 -1.96943957085E-01 -3.49182942079E-01 -3.86315927049E-04 -1.06651021740E-03 -3.97952884829E-04 -1.02753539338E-03 -1.22783820800E-01 -5.02150575174E-01
4.27500000000E+09 -2.12109399502E-01 -3.37549353081E-01 -2.64794387696E-06 -9.86266991477E-04 -1.37685559581E-04 -9.72349626515E-04 -1.44218397226E-01 -4.87221099575E-01
4.28000000000E+09 -2.24661193187E-01 -3.24817802225E-01 -5.96318772410E-04 -1.06063026877E-03 -5.74885969521E-04 -9.66766936232E-04 -1.64153715997E-01 -4.72181074644E-01
4.28500000000E+09 -2.35584480790E-01 -3.11294516173E-01 -3.43432147871E-04 -5.66525133487E-04 -3.44109168959E-04 -5.01480874507E-04 -1.83950825950E-01 -4.58017173640E-01
4.29000000000E+09 -2.45577784885E-01 -2.95251753531E-01 -3.49319143678E-04 -7.96317697336E-04 -3.41412752139E-04 -7.03921392591E-04 -2.03146247675E-01 -4.42779220781E-01
4.29500000000E+09 -2.54335977645E-01 -2.78173651408E-01 -2.98342395105E-04 -6.57931451407E-04 -3.07978203077E-04 -5.77278868426E-04 -2.20722631738E-01 -4.26898414902E-01
4.30000000000E+09 -2.64917189708E-01 -2.59552946279E-01 -4.19823255840E-04 -9.21937161146E-04 -3.37067398283E-04 -8.57444477596E-04 -2.37804822821E-01 -4.10043393964E-01
4.30500000000E+09 -2.76451196742E-01 -2.39266676258E-01 -8.52022877544E-04 -9.48073315196E-04 -7.75417542351E-04 -9.31607456832E-04 -2.54348203512E-01 -3.91690238818E-01
4.31000000000E+09 -2.88472400536E-01 -2.18317441317E-01 -1.05542728555E-03 -3.22896125113E-04 -9.98819648680E-04 -2.80760078454E-04 -2.70133338790E-01 -3.73254229829E-01
4.31500000000E+09 -3.01147552737E-01 -1.98289014045E-01 -8.83808616660E-04 -3.24218979357E-04 -8.27774753041E-04 -3.31476034197E-04 -2.85958755173E-01 -3.54161574921E-01
4.32000000000E+09 -3.13323311295E-01 -1.79885631865E-01 -7.77603047287E-04 +1.59294952138E-04 -6.87937055512E-04 +1.07013900956E-04 -3.00628262244E-01 -3.35043193427E-01
4.32500000000E+09 -3.25289847085E-01 -1.62865383688E-01 +5.67753149446E-07 -1.63820440587E-04 -2.52689714260E-05 -2.22691849482E-04 -3.15779616574E-01 -3.15335054175E-01
4.33000000000E+09 -3.34873075940E-01 -1.46696401785E-01 -7.83964973836E-04 -5.61212455194E-04 -7.79306662601E-04 -6.31085280230E-04 -3.28679698029E-01 -2.93753745840E-01
4.33500000000E+09 -3.43073947594E-01 -1.32327988167E-01 -7.54344120724E-04 -5.80148835156E-05 -7.69684909248E-04 -9.65281639616E-05 -3.41310715068E-01 -2.72742278462E-01
4.34000000000E+09 -3.49274678816E-01 -1.15743318457E-01 -6.38483032437E-04 -3.30731289182E-07 -7.23432223017E-04 -4.28593235058E-05 -3.54077041684E-01 -2.49216938856E-01
4.34500000000E+09 -3.51210268970E-01 -9.82638665456E-02 -8.60407684078E-04 -5.85917023814E-05 -8.39927902322E-04 -1.41488739404E-04 -3.64782685638E-01 -2.26155238712E-01
4.35000000000E+09 -3.53147037744E-01 -8.04005107503E-02 -6.09068425988E-04 +5.78825915456E-04 -6.90717196180E-04 +5.36731453089E-04 -3.76181402014E-01 -2.03295200724E-01
4.35500000000E+09 -3.53963463936E-01 -5.97886597868E-02 -1.50650371431E-04 +2.51066008204E-04 -2.29129702262E-04 +2.24978311070E-04 -3.85910613273E-01 -1.79837789414E-01
4.36000000000E+09 -3.55075963232E-01 -3.81179550938E-02 -3.37657476401E-04 +3.76209657043E-05 -4.65682905316E-04 +3.01062332343E-05 -3.93876788300E-01 -1.56946794929E-01
4.36500000000E+09 -3.58270209631E-01 -1.54734470624E-02 -2.99841986656E-04 +3.35087525850E-04 -4.05749975427E-04 +3.63911344598E-04 -4.01555347648E-01 -1.33763412792E-01
4.37000000000E+09 -3.61779952904E-01 +7.86823364477E-03 -6.40795105556E-05 +3.05606117884E-04 -1.55824760757E-04 +4.24869774556E-04 -4.07524306762E-01 -1.09446852873E-01
4.37500000000E+09 -3.66742979164E-01 +2.99150666028E-02 +3.90304376204E-04 -1.86493201254E-04 +4.09518209320E-04 -1.37050588982E-04 -4.12443272843E-01 -8.45330038786E-02
4.38000000000E+09 -3.71724681113E-01 +5.10411173019E-02 -3.72014637254E-04 -6.78160828256E-04 -3.56437307063E-04 -6.30608031177E-04 -4.16229511508E-01 -6.03701914440E-02
4.38500000000E+09 -3.75208240267E-01 +6.89509814467E-02 -6.97879410510E-04 -1.82121068497E-04 -7.71523247789E-04 +2.03874564469E-05 -4.19792623537E-01 -3.58568871248E-02
4.39000000000E+09 -3.78785900960E-01 +8.53469867717E-02 -3.77850407318E-04 +9.78020088741E-05 -2.68539881002E-04 +2.12572152367E-04 -4.22110154202E-01 -1.20469766910E-02
4.39500000000E+09 -3.78874200334E-01 +1.00800995373E-01 -3.61220444625E-04 -2.38448846675E-04 -2.70994479964E-04 -1.12773559063E-04 -4.23963329647E-01 +1.16166458764E-02
4.40000000000E+09 -3.76648636356E-01 +1.15040345419E-01 -2.51669368429E-04 +3.75475359819E-05 -1.55694659548E-04 +5.75711315034E-05 -4.23782375537E-01 +3.52052740403E-02
4.40500000000E+09 -3.72869156754E-01 +1.29513670881E-01 -3.33835520792E-04 -4.48765650049E-04 -2.38259473911E-04 -4.43296285837E-04 -4.23946900703E-01 +5.84671760389E-02
4.41000000000E+09 -3.67825394028E-01 +1.45585485016E-01 -6.05650439023E-04 -3.96998788018E-04 -4.90759049813E-04 -3.54983589983E-04 -4.22799463764E-01 +8.30434387018E-02
4.41500000000E+09 -3.62188378997E-01 +1.64743260142E-01 -8.42290704277E-04 -4.56418507744E-04 -8.09660637403E-04 -4.88643907455E-04 -4.21059195798E-01 +1.06500204672E-01
4.42000000000E+09 -3.56243583869E-01 +1.85880188711E-01 -1.23458264020E-03 -2.74599134817E-04 -1.16611161378E-03 -3.43002373272E-04 -4.18860592352E-01 +1.31012731382E-01
4.42500000000E+09 -3.50826928054E-01 +2.08128247730E-01 -1.40103687324E-03 +1.61173463888E-04 -1.32440750076E-03 +9.74418239410E-05 -4.13795789837E-01 +1.53765398132E-01
4.43000000000E+09 -3.45932757443E-01 +2.30451363080E-01 -1.47429905920E-03 +5.65405058562E-04 -1.46237749576E-03 +4.85830155539E-04 -4.10611257524E-01 +1.75743362403E-01
4.43500000000E+09 -3.42242925419E-01 +2.51051654249E-01 -1.19352182927E-03 +8.62846226579E-04 -1.20718550211E-03 +7.38486892715E-04 -4.04821740325E-01 +1.99374206975E-01
4.44000000000E+09 -3.39695547282E-01 +2.69112443869E-01 -9.14617865519E-04 +1.17713761713E-03 -9.75573764551E-04 +1.08870560329E-03 -3.98659464084E-01 +2.21175535606E-01
4.44500000000E+09 -3.38271873753E-01 +2.85517990276E-01 -7.81968791165E-04 +9.80328359762E-04 -8.18940846882E-04 +9.32542698436E-04 -3.92037563321E-01 +2.43537687892E-01
4.45000000000E+09 -3.36208117346E-01 +3.00129054271E-01 -6.53066873645E-04 +1.04985303298E-03 -7.70519440102E-04 +1.05398494797E-03 -3.85074402223E-01 +2.64438568759E-01
4.45500000000E+09 -3.31600291617E-01 +3.13749831436E-01 -7.83080978833E-04 +1.29264678112E-03 -9.04590697206E-04 +1.34660323962E-03 -3.76780987084E-01 +2.85108428736E-01
4.46000000000E+09 -3.24467924526E-01 +3.25878196974E-01 -4.37517619409E-04 +1.38281542533E-03 -5.12553309560E-04 +1.44151042774E-03 -3.68277211195E-01 +3.04496408479E-01
4.46500000000E+09 -3.15635366955E-01 +3.38146544523E-01 -2.95520407171E-04 +1.48346654359E-03 -3.19913933972E-04 +1.57988657992E-03 -3.58121289971E-01 +3.24169026937E-01
4.47000000000E+09 -3.04734546155E-01 +3.51901920258E-01 +3.69826349793E-05 +1.70974883498E-03 +2.28850576772E-05 +1.79310201306E-03 -3.46972080008E-01 +3.42754613804E-01
4.47500000000E+09 -2.92705909714E-01 +3.66663908386E-01 +2.51737132305E-04 +1.50729558629E-03 +2.33515939489E-04 +1.62228330147E-03 -3.36214297969E-01 +3.61560110890E-01
4.48000000000E+09 -2.81276303851E-01 +3.83885310475E-01 +6.78146193889E-04 +1.67622115254E-03 +7.67134169251E-04 +1.68785804674E-03 -3.24293560328E-01 +3.79905172582E-01
4.48500000000E+09 -2.68895673511E-01 +4.01295263993E-01 +6.22593991074E-04 +1.01820820030E-03 +7.47535135399E-04 +1.08533690249E-03 -3.13023975199E-01 +3.96617618526E-01
4.49000000000E+09 -2.59384488530E-01 +4.17943028896E-01 +5.24842310735E-04 +1.24746131865E-03 +6.65561153527E-04 +1.27745078280E-03 -3.01803445197E-01 +4.13013719075E-01
4.49500000000E+09 -2.51035744220E-01 +4.34464616289E-01 +8.02380768352E-04 +1.17379434534E-03 +9.09251774415E-04 +1.16334521996E-03 -2.90561212952E-01 +4.28235611080E-01
4.50000000000E+09 -2.44918658107E-01 +4.47988030699E-01 +7.25556766713E-04 +1.32503786782E-03 +8.17675488556E-04 +1.26621336762E-03 -2.78479328388E-01 +4.44074088018E-01
4.50500000000E+09 -2.40072550796E-01 +4.60931879948E-01 +1.30942934674E-03 +1.28991688282E-03 +1.41282629169E-03 +1.26181686462E-03 -2.65337967354E-01 +4.58892513465E-01
4.51000000000E+09 -2.33448340033E-01 +4.71012753238E-01 +1.36528470625E-03 +7.16754030756E-04 +1.50464399846E-03 +5.86266872536E-04 -2.52234738217E-01 +4.73615705042E-01
4.51500000000E+09 -2.26947913131E-01 +4.79006016003E-01 +1.23228203770E-03 +7.51741255799E-04 +1.30619186340E-03 +6.17491127649E-04 -2.38778945879E-01 +4.88203821397E-01
4.52000000000E+09 -2.17559290814E-01 +4.86969482295E-01 +1.56124279677E-03 +6.22982585561E-04 +1.52765115384E-03 +4.52423256981E-04 -2.25541518950E-01 +5.01641228143E-01
4.52500000000E+09 -2.06232100350E-01 +4.93616078208E-01 +1.31201417786E-03 +3.51234308486E-04 +1.34394047441E-03 +2.06176531789E-04 -2.11923179036E-01 +5.14444635903E-01
4.53000000000E+09 -1.93010612663E-01 +5.02135521326E-01 +1.44938765507E-03 +4.48276603740E-04 +1.36307068915E-03 +3.07670407858E-04 -1.97828604279E-01 +5.26189038016E-01
4.53500000000E+09 -1.77272760783E-01 +5.11147221935E-01 +1.34128018101E-03 +2.56906962208E-04 +1.27737058630E-03 +1.67653046043E-04 -1.83202385219E-01 +5.38239096514E-01
4.54000000000E+09 -1.61764151506E-01 +5.20993656257E-01 +1.71641408780E-03 +4.96379287849E-04 +1.61444075165E-03 +3.76166619624E-04 -1.66950092453E-01 +5.49036630709E-01
4.54500000000E+09 -1.46713304220E-01 +5.31884451317E-01 +2.03410344433E-03 -1.62267404312E-04 +1.88882825030E-03 -1.55177033442E-04 -1.51745640202E-01 +5.58849535524E-01
4.55000000000E+09 -1.33504989561E-01 +5.42499489321E-01 +1.93033315034E-03 -3.21660542942E-04 +1.84246000733E-03 -2.82414664840E-04 -1.36640043796E-01 +5.69460444127E-01
4.55500000000E+09 -1.22025133560E-01 +5.53563891639E-01 +1.92366834832E-03 -8.12440235062E-04 +1.81936479476E-03 -8.33922551695E-04 -1.21926919524E-01 +5.78891061923E-01
4.56000000000E+09 -1.11552363031E-01 +5.63189560184E-01 +1.57252802729E-03 -1.01869269614E-03 +1.54431117697E-03 -9.90175063210E-04 -1.06981535638E-01 +5.87324413741E-01
4.56500000000E+09 -1.02711372553E-01 +5.71285598727E-01 +1.32882206258E-03 -1.25738196686E-03 +1.24751360892E-03 -1.22040616508E-03 -9.29779372277E-02 +5.95699187721E-01
4.57000000000E+09 -9.34662343775E-02 +5.78103558800E-01 +1.30267069610E-03 -1.23942272568E-03 +1.23423489403E-03 -1.13152474905E-03 -7.71348810051E-02 +6.03994424424E-01
