# Hz S RI R 50
! CMT, C1220, 16058040, 17.2.0/1
! Date: 15/08/2018 11:40:52
! Data: Format (Calibration Info)
! Freq                      S11: Re/Im (F2)                       S21: Re/Im (F2)                       S12: Re/Im (F2)                       S22: Re/Im (F2)            
4.00000000000E+09 +6.37887413823E-01 -3.32810759134E-01 -7.51786625887E-04 -2.07824992150E-03 -6.95976595608E-04 -2.16579820521E-03 +7.69773560301E-01 -3.53774194427E-01
4.00500000000E+09 +6.28911358594E-01 -3.39327795372E-01 -8.40107491771E-04 -2.04824492604E-03 -8.17801440682E-04 -2.11426445577E-03 +7.61141416018E-01 -3.65163480370E-01
4.01000000000E+09 +6.19106595098E-01 -3.44760737289E-01 -1.07596914805E-03 -2.15125135517E-03 -1.01986656418E-03 -2.21657651486E-03 +7.51521791920E-01 -3.76185508020E-01
4.01500000000E+09 +6.08582040662E-01 -3.50470235007E-01 -1.25864975520E-03 -1.84992165062E-03 -1.24261288403E-03 -1.95926768728E-03 +7.41790673656E-01 -3.86290524265E-01
4.02000000000E+09 +5.97026052853E-01 -3.57266574870E-01 -1.31153776022E-03 -2.08044954161E-03 -1.24176167223E-03 -2.15218721986E-03 +7.32218272387E-01 -3.96754482812E-01
4.02500000000E+09 +5.84386767903E-01 -3.64363882545E-01 -1.86940676634E-03 -2.20729485013E-03 -1.81684287132E-03 -2.26728146216E-03 +7.21947900427E-01 -4.07282858826E-01
4.03000000000E+09 +5.71982639241E-01 -3.72370630675E-01 -2.31188783554E-03 -1.75247466284E-03 -2.25991960098E-03 -1.88819655046E-03 +7.11204790462E-01 -4.17789278770E-01
4.03500000000E+09 +5.59264075633E-01 -3.81425646694E-01 -2.30182791041E-03 -1.40548241646E-03 -2.33223446714E-03 -1.57007799234E-03 +6.99705730094E-01 -4.28485600931E-01
4.04000000000E+09 +5.46726809497E-01 -3.90620126047E-01 -2.55381630896E-03 -1.10645193809E-03 -2.58781868098E-03 -1.26581190385E-03 +6.88118199278E-01 -4.39187186681E-01
4.04500000000E+09 +5.34248787487E-01 -4.00281849517E-01 -2.28410207162E-03 -8.59825126487E-04 -2.39146113723E-03 -9.44764394811E-04 +6.76379458294E-01 -4.49336294909E-01
4.05000000000E+09 +5.21178661343E-01 -4.08990379504E-01 -2.51444082246E-03 -9.51124943884E-04 -2.52471261872E-03 -1.11808291741E-03 +6.64868078348E-01 -4.59431458217E-01
4.05500000000E+09 +5.07414494452E-01 -4.15901220209E-01 -2.87748431412E-03 -6.78249742845E-04 -2.98611768557E-03 -8.15707965613E-04 +6.52589143579E-01 -4.69366196690E-01
4.06000000000E+09 +4.93817190366E-01 -4.20855635748E-01 -3.00264026443E-03 -2.85385053393E-04 -3.10387618660E-03 -3.38175590960E-04 +6.40011474032E-01 -4.78827584862E-01
4.06500000000E+09 +4.79667994683E-01 -4.24749412172E-01 -2.85644417805E-03 +2.22114520732E-04 -2.97808980745E-03 +1.25243813098E-04 +6.26336556195E-01 -4.88200263893E-01
4.07000000000E+09 +4.65152519144E-01 -4.27980215930E-01 -2.81465591027E-03 +3.18754427945E-04 -2.89198606979E-03 +2.64733425597E-04 +6.12132050702E-01 -4.97646267953E-01
4.07500000000E+09 +4.49673338542E-01 -4.31527668694E-01 -2.75762925791E-03 +4.63940003680E-04 -2.85731661556E-03 +3.89859718577E-04 +5.98158975013E-01 -5.07088165213E-01
4.08000000000E+09 +4.33031104725E-01 -4.35063406241E-01 -2.80951316750E-03 +6.88305954764E-04 -2.93524696040E-03 +5.78646875386E-04 +5.83340483530E-01 -5.16683683586E-01
4.08500000000E+09 +4.15618560946E-01 -4.39218233196E-01 -2.84834924980E-03 +9.00539118111E-04 -3.01420104728E-03 +8.30630486034E-04 +5.68795616101E-01 -5.24932336977E-01
4.09000000000E+09 +3.97888275673E-01 -4.43112926498E-01 -2.68761130214E-03 +1.22768990814E-03 -2.87312131655E-03 +1.25439427070E-03 +5.54144926970E-01 -5.32861122315E-01
4.09500000000E+09 +3.80644893312E-01 -4.47274936294E-01 -2.75232851219E-03 +1.41058459423E-03 -2.89485443669E-03 +1.47499250210E-03 +5.39049700011E-01 -5.40435932205E-01
4.10000000000E+09 +3.63352909913E-01 -4.51743882750E-01 -2.57946383279E-03 +1.62377583442E-03 -2.68616751276E-03 +1.66010416272E-03 +5.23411708075E-01 -5.47773895454E-01
4.10500000000E+09 +3.46079284732E-01 -4.55023037991E-01 -2.74816285057E-03 +1.89808358200E-03 -2.86437217840E-03 +1.85476490534E-03 +5.06264728486E-01 -5.55594138035E-01
4.11000000000E+09 +3.28760607772E-01 -4.56690285065E-01 -2.66740944897E-03 +2.40076358451E-03 -2.81603947242E-03 +2.39846498101E-03 +4.88662359210E-01 -5.62286060028E-01
4.11500000000E+09 +3.12647624274E-01 -4.56814376809E-01 -2.11389972878E-03 +2.75556398268E-03 -2.25804554463E-03 +2.79622690815E-03 +4.71501267734E-01 -5.68902457370E-01
4.12000000000E+09 +2.96023837018E-01 -4.56557226052E-01 -2.01738439004E-03 +2.80838532905E-03 -2.09515634140E-03 +2.84050717416E-03 +4.54108681489E-01 -5.75745170871E-01
4.12500000000E+09 +2.78862949429E-01 -4.55388841273E-01 -1.87329492807E-03 +2.96849947594E-03 -2.02369883124E-03 +3.03537055464E-03 +4.36589161582E-01 -5.81610305093E-01
4.13000000000E+09 +2.61169344681E-01 -4.54045708911E-01 -1.54887180580E-03 +3.22337056263E-03 -1.69393741393E-03 +3.26861450418E-03 +4.18249790376E-01 -5.87183147011E-01
4.13500000000E+09 +2.42612104904E-01 -4.52609172459E-01 -1.70629630342E-03 +3.38968206980E-03 -1.85807603774E-03 +3.39031588598E-03 +3.99535726251E-01 -5.91951512638E-01
4.14000000000E+09 +2.24110586604E-01 -4.52090809311E-01 -1.42751500761E-03 +4.09555324046E-03 -1.53929072276E-03 +4.16959223072E-03 +3.79838320779E-01 -5.96328299424E-01
4.14500000000E+09 +2.05327732260E-01 -4.51855233307E-01 -6.45718029735E-04 +4.59680215890E-03 -7.46299687547E-04 +4.72554846428E-03 +3.60264371163E-01 -6.00057099203E-01
4.15000000000E+09 +1.87018832428E-01 -4.53502266784E-01 +7.72538575894E-05 +4.39316798110E-03 -1.05093693223E-06 +4.56453640394E-03 +3.41649582074E-01 -6.04432048352E-01
4.15500000000E+09 +1.67522412833E-01 -4.54843165085E-01 +5.58800754049E-04 +4.14093307214E-03 +5.24797154052E-04 +4.32258605520E-03 +3.21498850920E-01 -6.08944356246E-01
4.16000000000E+09 +1.48653890594E-01 -4.54526449121E-01 +7.14098307692E-04 +4.07848720390E-03 +7.53133265282E-04 +4.22718414080E-03 +3.00609351396E-01 -6.10950742741E-01
4.16500000000E+09 +1.30649863673E-01 -4.52258814105E-01 +8.65478373320E-04 +4.15065478316E-03 +8.16908354503E-04 +4.24049066892E-03 +2.81045898463E-01 -6.11740149105E-01
4.17000000000E+09 +1.14457038708E-01 -4.47590656565E-01 +1.40130399247E-03 +4.45935359835E-03 +1.34222586204E-03 +4.58468061589E-03 +2.60438519702E-01 -6.12220039641E-01
4.17500000000E+09 +9.90490999945E-02 -4.42001703470E-01 +1.95881195489E-03 +4.48400318830E-03 +1.89788165525E-03 +4.66520977840E-03 +2.39122406357E-01 -6.12491836080E-01
4.18000000000E+09 +8.37627579578E-02 -4.35132071500E-01 +2.79231294874E-03 +4.21748755415E-03 +2.77869344854E-03 +4.42254368061E-03 +2.17222323279E-01 -6.12185324479E-01
4.18500000000E+09 +6.74558335103E-02 -4.27386338973E-01 +3.08556018404E-03 +3.87606637818E-03 +3.10848499131E-03 +4.01391004468E-03 +1.94808023215E-01 -6.11223201667E-01
4.19000000000E+09 +5.06393080791E-02 -4.18854916818E-01 +3.68891115311E-03 +3.85958753179E-03 +3.73914311308E-03 +4.04608995802E-03 +1.73564788885E-01 -6.09284579523E-01
4.19500000000E+09 +3.27199749288E-02 -4.09770532854E-01 +4.31907979786E-03 +3.33640605171E-03 +4.41256322677E-03 +3.52768894541E-03 +1.52231542879E-01 -6.07088329455E-01
4.20000000000E+09 +1.52869069152E-02 -4.00659898057E-01 +4.59937834851E-03 +2.60848982269E-03 +4.69348430424E-03 +2.77066813876E-03 +1.30083650699E-01 -6.04608833264E-01
4.20500000000E+09 -1.39542470966E-03 -3.93163691341E-01 +4.73191489099E-03 +2.18137468527E-03 +4.82927397696E-03 +2.30081020667E-03 +1.07402683329E-01 -6.00538438216E-01
4.21000000000E+09 -1.84429900826E-02 -3.86195468626E-01 +4.98326313818E-03 +1.52386554042E-03 +5.09350072717E-03 +1.62930728913E-03 +8.43042137862E-02 -5.95355250461E-01
4.21500000000E+09 -3.53495456149E-02 -3.78932686260E-01 +4.81410841170E-03 +1.50865025438E-03 +4.95952411458E-03 +1.60495979115E-03 +6.23871007139E-02 -5.90270949892E-01
4.22000000000E+09 -5.10464650918E-02 -3.70026450532E-01 +5.36944672526E-03 +1.44323906919E-03 +5.47668886258E-03 +1.57667879048E-03 +3.97313236227E-02 -5.84771180477E-01
4.22500000000E+09 -6.48910063074E-02 -3.59638282785E-01 +6.29697972096E-03 +5.60219269018E-04 +6.43230923914E-03 +6.68643632483E-04 +1.69180459140E-02 -5.77967962183E-01
4.23000000000E+09 -7.70744677022E-02 -3.48161187985E-01 +6.29119693576E-03 -8.43483667516E-04 +6.37517670300E-03 -8.55388093330E-04 -4.98681888257E-03 -5.69646565635E-01
4.23500000000E+09 -8.90000492578E-02 -3.35780441361E-01 +5.56191741524E-03 -1.39940313622E-03 +5.66180029103E-03 -1.35968329919E-03 -2.62977984772E-02 -5.60081479393E-01
4.24000000000E+09 -1.01634604084E-01 -3.22371526181E-01 +5.43874381947E-03 -1.67659673759E-03 +5.66370678083E-03 -1.66156147681E-03 -4.70802334351E-02 -5.50367795117E-01
4.24500000000E+09 -1.15294337600E-01 -3.07507840657E-01 +5.50850120145E-03 -1.96046074862E-03 +5.67097550584E-03 -1.95001700074E-03 -6.81512443933E-02 -5.40779666458E-01
4.25000000000E+09 -1.29418701227E-01 -2.91819131116E-01 +5.62756248881E-03 -2.66703288167E-03 +5.80775944581E-03 -2.72598271922E-03 -9.05593074625E-02 -5.29396547397E-01
4.25500000000E+09 -1.43833133518E-01 -2.76891354399E-01 +5.23112499139E-03 -3.72640380372E-03 +5.45746589750E-03 -3.81595550033E-03 -1.12071782831E-01 -5.16898346006E-01
4.26000000000E+09 -1.59216857717E-01 -2.63480775673E-01 +4.47016808555E-03 -4.22300885351E-03 +4.63969155464E-03 -4.33887510923E-03 -1.32662080478E-01 -5.02781803805E-01
4.26500000000E+09 -1.75720343120E-01 -2.50774921518E-01 +4.20955509353E-03 -3.99689912862E-03 +4.33625236791E-03 -4.11460581456E-03 -1.52430266950E-01 -4.88305387877E-01
4.27000000000E+09 -1.91465617364E-01 -2.37659690327E-01 +4.26143299165E-03 -4.72819610067E-03 +4.36682873813E-03 -4.85287516674E-03 -1.71736264481E-01 -4.73151352296E-01
4.27500000000E+09 -2.06185930532E-01 -2.24405653623E-01 +3.87195882177E-03 -5.47721001951E-03 +3.94932742998E-03 -5.58530404075E-03 -1.92157012307E-01 -4.56815192627E-01
4.28000000000E+09 -2.17874858684E-01 -2.09855344475E-01 +3.30046338706E-03 -6.12129168372E-03 +3.35336789998E-03 -6.22695580775E-03 -2.11035771347E-01 -4.39889061978E-01
4.28500000000E+09 -2.26274291052E-01 -1.95935145836E-01 +2.60830853086E-03 -6.93465111410E-03 +2.67729964564E-03 -7.02478649225E-03 -2.30473084761E-01 -4.22994415357E-01
4.29000000000E+09 -2.34059081535E-01 -1.81760672552E-01 +1.01143094803E-03 -7.29542569798E-03 +1.03834465997E-03 -7.44445076401E-03 -2.47780235386E-01 -4.03959403153E-01
4.29500000000E+09 -2.41708495392E-01 -1.66518928113E-01 +2.60129249141E-04 -6.48140702145E-03 +2.87153229803E-04 -6.61788661910E-03 -2.62641837453E-01 -3.87121878335E-01
4.30000000000E+09 -2.49465049285E-01 -1.49119403153E-01 -1.30736280179E-04 -6.47758142704E-03 -1.98927554248E-04 -6.60165136254E-03 -2.79452083827E-01 -3.69329508564E-01
4.30500000000E+09 -2.56985043560E-01 -1.30330741333E-01 -4.82558599886E-04 -6.21930884489E-03 -5.18027615700E-04 -6.32839630708E-03 -2.95394182249E-01 -3.48716537723E-01
4.31000000000E+09 -2.64552775340E-01 -1.10421325202E-01 -6.08235429733E-04 -6.54004431976E-03 -6.69601846257E-04 -6.63185567206E-03 -3.10110854474E-01 -3.27959307131E-01
4.31500000000E+09 -2.71753040704E-01 -9.12306852403E-02 -1.34343330311E-03 -6.80955002747E-03 -1.38044196044E-03 -6.93740859413E-03 -3.24136799148E-01 -3.06185285663E-01
4.32000000000E+09 -2.78870985770E-01 -7.23129658496E-02 -1.87414070702E-03 -6.97365151642E-03 -1.93448813243E-03 -7.03431655191E-03 -3.37237934577E-01 -2.84606975092E-01
4.32500000000E+09 -2.84887927757E-01 -5.58905573264E-02 -3.29805720865E-03 -7.20467838546E-03 -3.38468949905E-03 -7.33722618775E-03 -3.49768983743E-01 -2.62677585233E-01
4.33000000000E+09 -2.91318633758E-01 -3.97891339280E-02 -4.03884048362E-03 -6.83293175333E-03 -4.23728283596E-03 -6.87892446522E-03 -3.61522510608E-01 -2.38954230902E-01
4.33500000000E+09 -2.95617938939E-01 -2.34433912465E-02 -5.30290274163E-03 -6.35866557246E-03 -5.40915861474E-03 -6.40431665576E-03 -3.70956550034E-01 -2.14151592670E-01
4.34000000000E+09 -2.97809215990E-01 -7.35662095450E-03 -6.23449117028E-03 -5.23468153745E-03 -6.34456981287E-03 -5.16160881988E-03 -3.79113957776E-01 -1.90404444876E-01
4.34500000000E+09 -2.97624519322E-01 +8.79773812279E-03 -5.98032821101E-03 -4.11790577573E-03 -5.97904876641E-03 -4.09566264590E-03 -3.88660481588E-01 -1.67539076645E-01
4.35000000000E+09 -2.97020477887E-01 +2.58903308023E-02 -6.08031467838E-03 -4.30319644345E-03 -6.03011445485E-03 -4.28505270035E-03 -3.98369282269E-01 -1.42503463867E-01
4.35500000000E+09 -2.95199075492E-01 +4.40583692239E-02 -7.10700439032E-03 -4.04228778489E-03 -7.18027501251E-03 -4.06626635300E-03 -4.05648237301E-01 -1.16469698740E-01
4.36000000000E+09 -2.93706916495E-01 +6.30436016100E-02 -7.36050003103E-03 -3.31973608636E-03 -7.47016697890E-03 -3.30578575271E-03 -4.10823535045E-01 -9.21743147545E-02
4.36500000000E+09 -2.92079704863E-01 +8.31603577405E-02 -8.61594409133E-03 -3.25215895057E-03 -8.81821808067E-03 -3.20098675513E-03 -4.14983973127E-01 -6.80975018860E-02
4.37000000000E+09 -2.91600066926E-01 +1.02443292556E-01 -9.75537663972E-03 -1.21231008587E-03 -9.87771820106E-03 -1.13500582582E-03 -4.18099652631E-01 -4.37551529366E-02
4.37500000000E+09 -2.92060628248E-01 +1.21462840661E-01 -9.31249387652E-03 +5.22012158353E-04 -9.45861379951E-03 +6.88836437983E-04 -4.19907291395E-01 -1.91814485831E-02
4.38000000000E+09 -2.93004055200E-01 +1.39311861799E-01 -9.05379970155E-03 +1.33715074041E-03 -9.16256837503E-03 +1.47646498523E-03 -4.21517360113E-01 +6.60579073473E-03
4.38500000000E+09 -2.93281271597E-01 +1.56033707505E-01 -8.71155311165E-03 +2.44378309827E-03 -8.83026502672E-03 +2.58305396196E-03 -4.20954073881E-01 +3.18152607868E-02
4.39000000000E+09 -2.92387120489E-01 +1.71104005113E-01 -8.30696099687E-03 +3.37904272208E-03 -8.31542348711E-03 +3.61370690069E-03 -4.21062371853E-01 +5.60703391825E-02
4.39500000000E+09 -2.90397594628E-01 +1.84502762381E-01 -8.16510689457E-03 +4.00975384771E-03 -8.20423571621E-03 +4.21761243530E-03 -4.20427541128E-01 +8.03255384777E-02
4.40000000000E+09 -2.86494950642E-01 +1.97847329660E-01 -7.52556938339E-03 +5.40594831791E-03 -7.49306141405E-03 +5.53267529417E-03 -4.18661029453E-01 +1.04329435408E-01
4.40500000000E+09 -2.81164838187E-01 +2.10589770759E-01 -6.93041665615E-03 +6.24312701934E-03 -6.85891994897E-03 +6.38411819525E-03 -4.15081183320E-01 +1.28217166474E-01
4.41000000000E+09 -2.74894054207E-01 +2.24728594944E-01 -5.92957706708E-03 +6.57389060924E-03 -5.89256434723E-03 +6.72777754885E-03 -4.10574258499E-01 +1.52062258607E-01
4.41500000000E+09 -2.67363799293E-01 +2.40534961404E-01 -5.53355552682E-03 +7.75122530751E-03 -5.47303204371E-03 +7.90646451968E-03 -4.05010056099E-01 +1.75566158405E-01
4.42000000000E+09 -2.59818573599E-01 +2.56975512905E-01 -4.56127183562E-03 +8.09870190027E-03 -4.40351482574E-03 +8.21973700852E-03 -3.97871969304E-01 +1.98709166283E-01
4.42500000000E+09 -2.52649090384E-01 +2.74110610608E-01 -3.73962516711E-03 +9.13631688195E-03 -3.53493484573E-03 +9.17064319728E-03 -3.92146004744E-01 +2.20176552405E-01
4.43000000000E+09 -2.46586726406E-01 +2.91106885568E-01 -1.84690756139E-03 +9.56664822314E-03 -1.60328296080E-03 +9.59342207988E-03 -3.85393404590E-01 +2.43064876187E-01
4.43500000000E+09 -2.40853965699E-01 +3.07368658611E-01 -5.99014252990E-04 +9.08422967451E-03 -4.14867021086E-04 +9.03620248490E-03 -3.76706510627E-01 +2.64796769098E-01
4.44000000000E+09 -2.36226905681E-01 +3.21466511621E-01 +4.73233116350E-04 +8.50994418689E-03 +5.53331049483E-04 +8.48109414855E-03 -3.68362807908E-01 +2.84849273549E-01
4.44500000000E+09 -2.31888821332E-01 +3.33625762721E-01 +7.48821920230E-04 +8.23678647056E-03 +9.15842611767E-04 +8.20026591281E-03 -3.59737121003E-01 +3.05008355401E-01
4.45000000000E+09 -2.27861694316E-01 +3.44277012783E-01 +1.24741996803E-03 +7.96129564564E-03 +1.45781987321E-03 +7.94866272461E-03 -3.49751602422E-01 +3.25079746712E-01
4.45500000000E+09 -2.21916313700E-01 +3.54067263201E-01 +1.95725572771E-03 +8.44793284288E-03 +2.19712748459E-03 +8.40785257307E-03 -3.39041399210E-01 +3.43966393423E-01
4.46000000000E+09 -2.14559508358E-01 +3.62954777800E-01 +3.28882417893E-03 +8.22298520990E-03 +3.49761347693E-03 +8.17994267373E-03 -3.26606356883E-01 +3.62703605193E-01
4.46500000000E+09 -2.04722469741E-01 +3.72434532908E-01 +4.11468555224E-03 +7.59226366742E-03 +4.27283352776E-03 +7.45255040492E-03 -3.14791616321E-01 +3.79007099937E-01
4.47000000000E+09 -1.93289604133E-01 +3.82035974682E-01 +4.98454114980E-03 +7.20333218444E-03 +5.13364281371E-03 +7.03698097664E-03 -3.03242430206E-01 +3.96136445315E-01
4.47500000000E+09 -1.80288550614E-01 +3.92408731770E-01 +5.49220121991E-03 +6.55592218518E-03 +5.58143208596E-03 +6.35318937416E-03 -2.91273644243E-01 +4.13647094904E-01
4.48000000000E+09 -1.68242272888E-01 +4.03060736745E-01 +6.37965133174E-03 +5.92687815081E-03 +6.39739638236E-03 +5.70073135324E-03 -2.78509103057E-01 +4.30168880827E-01
4.48500000000E+09 -1.57368348357E-01 +4.15159520253E-01 +7.15422930763E-03 +5.44194812637E-03 +7.09611798239E-03 +5.17357092744E-03 -2.64788716605E-01 +4.45293507611E-01
4.49000000000E+09 -1.47405480665E-01 +4.27660060064E-01 +7.65445890096E-03 +3.73313162890E-03 +7.56137857056E-03 +3.63219056075E-03 -2.52121437172E-01 +4.60011891163E-01
4.49500000000E+09 -1.39018931764E-01 +4.39669770000E-01 +7.21342303687E-03 +3.19528671853E-03 +7.09926190137E-03 +3.05538486540E-03 -2.38597405292E-01 +4.74771324012E-01
4.50000000000E+09 -1.31601143371E-01 +4.50446249192E-01 +7.65064770575E-03 +3.07613334192E-03 +7.59055975745E-03 +2.96669652445E-03 -2.23846588074E-01 +4.88317214527E-01
4.50500000000E+09 -1.24935519060E-01 +4.59508708590E-01 +8.18329064062E-03 +2.20594876049E-03 +8.11576915582E-03 +2.13382432772E-03 -2.10109298268E-01 +5.01421977622E-01
4.51000000000E+09 -1.17742120173E-01 +4.66284387353E-01 +8.70574505221E-03 +1.28590562971E-03 +8.57178076342E-03 +1.19512806031E-03 -1.94708684865E-01 +5.13771913571E-01
4.51500000000E+09 -1.10684881736E-01 +4.71372145414E-01 +8.77732365665E-03 +2.13880167848E-04 +8.64734458828E-03 +7.70451935546E-05 -1.80675346051E-01 +5.24624869401E-01
4.52000000000E+09 -1.01895796021E-01 +4.76210455081E-01 +8.99145296967E-03 -1.16755745217E-03 +8.83490073080E-03 -1.29388082666E-03 -1.67002015488E-01 +5.35770691817E-01
4.52500000000E+09 -9.10792202550E-02 +4.80043329704E-01 +8.27828386812E-03 -2.19188832158E-03 +8.13188359871E-03 -2.26791680654E-03 -1.52844656849E-01 +5.46269741219E-01
4.53000000000E+09 -7.90428411964E-02 +4.84561509946E-01 +7.92667542750E-03 -3.02521253946E-03 +7.76865478248E-03 -3.09789592485E-03 -1.38210110875E-01 +5.55851662028E-01
4.53500000000E+09 -6.55871982333E-02 +4.90167352481E-01 +7.19158448631E-03 -3.94608154907E-03 +7.03018699130E-03 -4.02802177976E-03 -1.23669472424E-01 +5.65528835480E-01
4.54000000000E+09 -5.11909600975E-02 +4.96213372928E-01 +6.68880064020E-03 -4.22804045519E-03 +6.48316861837E-03 -4.26364720396E-03 -1.07285781637E-01 +5.74608202650E-01
4.54500000000E+09 -3.77223941573E-02 +5.02806383783E-01 +6.21393448823E-03 -4.82544394910E-03 +5.95803754527E-03 -4.87140666792E-03 -9.24458565246E-02 +5.83417989641E-01
4.55000000000E+09 -2.53086931064E-02 +5.10091820692E-01 +5.89517301656E-03 -5.50033538239E-03 +5.66978989930E-03 -5.51817504555E-03 -7.63496415921E-02 +5.92279644187E-01
4.55500000000E+09 -1.43924619611E-02 +5.16905155100E-01 +4.96371528694E-03 -5.96740345700E-03 +4.77429883920E-03 -5.85830853025E-03 -6.08701204715E-02 +6.00138344710E-01
4.56000000000E+09 -5.74488799936E-03 +5.23740188890E-01 +4.42166748779E-03 -6.49463582946E-03 +4.21032698159E-03 -6.43749363234E-03 -4.56312363678E-02 +6.06388982123E-01
4.56500000000E+09 +2.98260875721E-03 +5.30040157842E-01 +3.69295843951E-03 -6.80552349750E-03 +3.52783530626E-03 -6.75714182288E-03 -3.14218276679E-02 +6.12802212221E-01
4.57000000000E+09 +1.16417904677E-02 +5.34835226354E-01 +2.92634753764E-03 -7.09541883075E-03 +2.71675631905E-03 -7.00431110520E-03 -1.63109814893E-02 +6.18960151320E-01
