# Hz S RI R 50
! CMT, C1220, 16058040, 17.2.0/1
! Date: 15/08/2018 11:41:30
! Data: Format (Calibration Info)
! Freq                      S11: Re/Im (F2)                       S21: Re/Im (F2)                       S12: Re/Im (F2)                       S22: Re/Im (F2)            
4.00000000000E+09 +6.36566086035E-01 -3.38349841932E-01 -1.01208640250E-03 -2.48067708051E-03 -9.33367740066E-04 -2.60651326406E-03 +7.70632925781E-01 -3.53314549993E-01
4.00500000000E+09 +6.27488200934E-01 -3.44711435760E-01 -1.15417256691E-03 -2.51222316449E-03 -1.05993382322E-03 -2.62743215295E-03 +7.61874213515E-01 -3.64733867450E-01
4.01000000000E+09 +6.17324240174E-01 -3.50177248968E-01 -1.46881468814E-03 -2.59604944240E-03 -1.35772276817E-03 -2.68634587788E-03 +7.52153565992E-01 -3.75810939836E-01
4.01500000000E+09 +6.06538204052E-01 -3.55362918422E-01 -1.72852151894E-03 -2.31659683567E-03 -1.65387227864E-03 -2.48525368317E-03 +7.42297781574E-01 -3.85843846156E-01
4.02000000000E+09 +5.95032031851E-01 -3.62008081209E-01 -1.87072953024E-03 -2.47027684159E-03 -1.81186351885E-03 -2.61462833616E-03 +7.32784585669E-01 -3.96216458846E-01
4.02500000000E+09 +5.82363781084E-01 -3.69209162650E-01 -2.56020448194E-03 -2.39923496753E-03 -2.55743284558E-03 -2.57297225656E-03 +7.22412180095E-01 -4.06946535505E-01
4.03000000000E+09 +5.69940668447E-01 -3.77556966643E-01 -2.92506430131E-03 -1.81563487756E-03 -2.93031842954E-03 -1.97059988601E-03 +7.11526496358E-01 -4.17307229954E-01
4.03500000000E+09 +5.56890910756E-01 -3.87184806071E-01 -2.87693823186E-03 -1.50822598664E-03 -2.88090197633E-03 -1.63333740105E-03 +7.00066275806E-01 -4.28143216980E-01
4.04000000000E+09 +5.43861008397E-01 -3.96460198992E-01 -3.12090491643E-03 -1.21047029813E-03 -3.16890111638E-03 -1.42649172392E-03 +6.88408883623E-01 -4.38778359742E-01
4.04500000000E+09 +5.31209125533E-01 -4.05727601295E-01 -3.05161582199E-03 -9.60428070118E-04 -3.14047478561E-03 -1.10290977904E-03 +6.76606896850E-01 -4.48972295064E-01
4.05000000000E+09 +5.18223322228E-01 -4.14046708671E-01 -3.26442829038E-03 -8.95479850753E-04 -3.41336243955E-03 -1.00768489969E-03 +6.64932108842E-01 -4.59140214554E-01
4.05500000000E+09 +5.04624891045E-01 -4.20659524990E-01 -3.55470134915E-03 -4.01898242742E-04 -3.78933204721E-03 -5.09123833192E-04 +6.52391912355E-01 -4.68845824961E-01
4.06000000000E+09 +4.90994895454E-01 -4.25271806797E-01 -3.57985170062E-03 +3.81356629024E-05 -3.84360009966E-03 -2.13284064001E-05 +6.39870825455E-01 -4.78197369273E-01
4.06500000000E+09 +4.76852652896E-01 -4.28771774719E-01 -3.48889761350E-03 +5.70888735629E-04 -3.56834398524E-03 +5.87662866474E-04 +6.26341862717E-01 -4.87434289029E-01
4.07000000000E+09 +4.62099579558E-01 -4.31572835584E-01 -3.39394078771E-03 +7.39616018263E-04 -3.46005547533E-03 +7.37488422247E-04 +6.12185191615E-01 -4.96880261504E-01
4.07500000000E+09 +4.46720765200E-01 -4.34610162730E-01 -3.27530594966E-03 +1.12786098499E-03 -3.34639031508E-03 +9.99350819630E-04 +5.98188836223E-01 -5.06333605743E-01
4.08000000000E+09 +4.30000162481E-01 -4.38025894173E-01 -3.19806600032E-03 +1.23832875367E-03 -3.31898813438E-03 +1.22702104503E-03 +5.83438610422E-01 -5.15931425692E-01
4.08500000000E+09 +4.12446550430E-01 -4.42199329908E-01 -3.22734199300E-03 +1.42283707800E-03 -3.33728498849E-03 +1.42720892678E-03 +5.68756496155E-01 -5.24169983083E-01
4.09000000000E+09 +3.94305392466E-01 -4.45956785163E-01 -3.07598205935E-03 +1.86510528292E-03 -3.23202315094E-03 +1.93888491061E-03 +5.53958709643E-01 -5.32114110482E-01
4.09500000000E+09 +3.76841060008E-01 -4.49906483732E-01 -3.00059884319E-03 +2.11794991508E-03 -3.10862454442E-03 +2.17076030798E-03 +5.38846471931E-01 -5.39434907282E-01
4.10000000000E+09 +3.59545878359E-01 -4.53975186280E-01 -2.83878588855E-03 +2.36534693614E-03 -2.94663172233E-03 +2.39189718553E-03 +5.23323426065E-01 -5.46445662859E-01
4.10500000000E+09 +3.42602577835E-01 -4.57074670330E-01 -2.88395685218E-03 +2.73091636554E-03 -2.92153154734E-03 +2.75246249127E-03 +5.06413139491E-01 -5.54272362735E-01
4.11000000000E+09 +3.25569200555E-01 -4.58724709511E-01 -2.52012170210E-03 +3.33342467069E-03 -2.66144645894E-03 +3.25046236962E-03 +4.88719794418E-01 -5.61039825689E-01
4.11500000000E+09 +3.09393790026E-01 -4.58715077213E-01 -1.90809684887E-03 +3.45416437427E-03 -1.99966769459E-03 +3.48242114649E-03 +4.71481811478E-01 -5.67600894079E-01
4.12000000000E+09 +2.92835793477E-01 -4.57874326655E-01 -1.71878003183E-03 +3.51084039719E-03 -1.86745741637E-03 +3.49521995661E-03 +4.54200731518E-01 -5.74231206425E-01
4.12500000000E+09 +2.75884181264E-01 -4.56437960939E-01 -1.63515203399E-03 +3.58633435614E-03 -1.74556138857E-03 +3.59813257355E-03 +4.36927494731E-01 -5.79966914575E-01
4.13000000000E+09 +2.58291262844E-01 -4.54534303912E-01 -1.39180448535E-03 +3.90030568640E-03 -1.50552694080E-03 +3.94680601620E-03 +4.18838329759E-01 -5.85759321032E-01
4.13500000000E+09 +2.40174137099E-01 -4.52933673136E-01 -1.24674953786E-03 +4.11485043166E-03 -1.42508031256E-03 +4.17438981697E-03 +4.00020925510E-01 -5.90369880875E-01
4.14000000000E+09 +2.21493835150E-01 -4.52525258460E-01 -8.79423999143E-04 +4.68788019762E-03 -1.11313188724E-03 +4.78011423425E-03 +3.80530112355E-01 -5.94612044485E-01
4.14500000000E+09 +2.02691287280E-01 -4.52403946389E-01 -9.79930755429E-05 +5.26675137942E-03 -3.11654773001E-04 +5.41778900543E-03 +3.61046775830E-01 -5.98388442583E-01
4.15000000000E+09 +1.84093503447E-01 -4.54123707762E-01 +8.25896059796E-04 +4.98400456335E-03 +7.13793220357E-04 +5.16635040392E-03 +3.42492786018E-01 -6.02852944826E-01
4.15500000000E+09 +1.64343167663E-01 -4.55164517863E-01 +1.30145856096E-03 +4.54845218480E-03 +1.22794912757E-03 +4.76184087954E-03 +3.22585828197E-01 -6.07198145991E-01
4.16000000000E+09 +1.45486983751E-01 -4.54321797937E-01 +1.52520808753E-03 +4.38988564666E-03 +1.53100294350E-03 +4.59697303180E-03 +3.01869156747E-01 -6.09217293408E-01
4.16500000000E+09 +1.27919018836E-01 -4.51863790480E-01 +1.61064377395E-03 +4.31865862422E-03 +1.61403641408E-03 +4.44537020453E-03 +2.82587011424E-01 -6.10297910856E-01
4.17000000000E+09 +1.11975583765E-01 -4.46811268497E-01 +2.09152339571E-03 +4.70088498521E-03 +2.02918268371E-03 +4.84517627887E-03 +2.61776341775E-01 -6.10914803822E-01
4.17500000000E+09 +9.71993626545E-02 -4.40889624897E-01 +2.72603981974E-03 +4.80316961165E-03 +2.73242456972E-03 +5.00729846058E-03 +2.40611660993E-01 -6.11104573078E-01
4.18000000000E+09 +8.24184471605E-02 -4.34288248336E-01 +3.66419992945E-03 +4.33579154472E-03 +3.71339585537E-03 +4.53488461693E-03 +2.18873174818E-01 -6.10841409405E-01
4.18500000000E+09 +6.61280614082E-02 -4.26390969859E-01 +4.09397370767E-03 +4.07390656927E-03 +4.20311545490E-03 +4.20628938298E-03 +1.96471165501E-01 -6.09965534394E-01
4.19000000000E+09 +4.96684183051E-02 -4.17721761066E-01 +4.88596613575E-03 +3.70668205224E-03 +5.01397660341E-03 +3.83023508243E-03 +1.75726886818E-01 -6.08110584237E-01
4.19500000000E+09 +3.19975090518E-02 -4.08764631606E-01 +5.35734573124E-03 +2.94222613907E-03 +5.47559181538E-03 +3.08991616324E-03 +1.54296810896E-01 -6.06037243199E-01
4.20000000000E+09 +1.44434554487E-02 -3.99655529741E-01 +5.53707106756E-03 +2.19767051458E-03 +5.63030261776E-03 +2.29062683155E-03 +1.32403139005E-01 -6.03766981403E-01
4.20500000000E+09 -2.29852677654E-03 -3.91864734662E-01 +5.70710241585E-03 +1.66989783147E-03 +5.87320560636E-03 +1.74691449706E-03 +1.09992733347E-01 -6.00004137259E-01
4.21000000000E+09 -1.90360320334E-02 -3.84608627655E-01 +5.92933395228E-03 +8.24053320407E-04 +6.08829752753E-03 +8.94737484466E-04 +8.67526810558E-02 -5.95449886637E-01
4.21500000000E+09 -3.51360428727E-02 -3.77176078041E-01 +5.68268351203E-03 +5.37287437833E-04 +5.83096522152E-03 +6.32689912329E-04 +6.45761613807E-02 -5.90532817214E-01
4.22000000000E+09 -5.02314682367E-02 -3.68558298315E-01 +6.03923385960E-03 +4.29719775075E-04 +6.19450925679E-03 +4.83248135988E-04 +4.18278873364E-02 -5.84797150127E-01
4.22500000000E+09 -6.35721606652E-02 -3.58337661181E-01 +6.81386743724E-03 -4.49618376094E-04 +6.90977963999E-03 -4.15116777978E-04 +1.91178711318E-02 -5.78262059315E-01
4.23000000000E+09 -7.57242907239E-02 -3.46974540138E-01 +6.79901463797E-03 -1.95697260707E-03 +6.95160389654E-03 -1.98902544845E-03 -2.83481518792E-03 -5.70125253077E-01
4.23500000000E+09 -8.76018039783E-02 -3.34074230016E-01 +5.98321289885E-03 -2.81502724979E-03 +6.07613603637E-03 -2.82427459655E-03 -2.42075559739E-02 -5.60768146899E-01
4.24000000000E+09 -9.98200539597E-02 -3.20001340252E-01 +5.54687774330E-03 -3.23595802372E-03 +5.66066098062E-03 -3.27885762299E-03 -4.52442390621E-02 -5.51101670369E-01
4.24500000000E+09 -1.12866337508E-01 -3.05073446842E-01 +5.00477740393E-03 -3.51009383211E-03 +5.12253812900E-03 -3.57934030220E-03 -6.61251471580E-02 -5.41542286169E-01
4.25000000000E+09 -1.26974889313E-01 -2.89564547475E-01 +4.90230238074E-03 -3.85426550112E-03 +5.05811503541E-03 -3.88660604424E-03 -8.84761510891E-02 -5.30437823273E-01
4.25500000000E+09 -1.41921484453E-01 -2.75121312948E-01 +4.50536621694E-03 -4.70628528754E-03 +4.65521155239E-03 -4.75007389326E-03 -1.10350641554E-01 -5.18450619997E-01
4.26000000000E+09 -1.58014104070E-01 -2.61349479254E-01 +3.90444263368E-03 -5.06491874047E-03 +4.03891278254E-03 -5.13771831604E-03 -1.31339994376E-01 -5.04154832809E-01
4.26500000000E+09 -1.74536249882E-01 -2.48500240329E-01 +3.51738024377E-03 -4.94077648737E-03 +3.53001603541E-03 -5.09221565298E-03 -1.51058052784E-01 -4.89388910026E-01
4.27000000000E+09 -1.90122416544E-01 -2.35476994976E-01 +3.23602472589E-03 -5.61445076433E-03 +3.31999781380E-03 -5.69538145346E-03 -1.70118762119E-01 -4.74451238413E-01
4.27500000000E+09 -2.04383688824E-01 -2.22819795415E-01 +2.64453642863E-03 -5.91561538228E-03 +2.75864991174E-03 -6.02537172261E-03 -1.90482574762E-01 -4.58513582566E-01
4.28000000000E+09 -2.15956752591E-01 -2.08887073034E-01 +2.42483991819E-03 -6.36531519141E-03 +2.40969219754E-03 -6.55567626734E-03 -2.09707919159E-01 -4.42167591987E-01
4.28500000000E+09 -2.24438589049E-01 -1.95176269741E-01 +1.68360559024E-03 -7.24808085901E-03 +1.66276869434E-03 -7.32637199087E-03 -2.29481473901E-01 -4.25209982553E-01
4.29000000000E+09 -2.31745625984E-01 -1.80993636221E-01 +1.25062530311E-04 -7.50666564290E-03 +9.72955559147E-05 -7.68675340925E-03 -2.47154935529E-01 -4.06352403776E-01
4.29500000000E+09 -2.38731990891E-01 -1.65968026781E-01 -7.92899486623E-04 -6.59170678102E-03 -8.33279481045E-04 -6.76398064354E-03 -2.62464284005E-01 -3.89578899429E-01
4.30000000000E+09 -2.46187012779E-01 -1.48673318987E-01 -1.20105188571E-03 -6.36151688754E-03 -1.30495143815E-03 -6.43772339761E-03 -2.79593153494E-01 -3.71565950692E-01
4.30500000000E+09 -2.53318467021E-01 -1.30356084447E-01 -1.36269930774E-03 -5.95582488865E-03 -1.42080723083E-03 -6.02623360337E-03 -2.95929381220E-01 -3.50830661389E-01
4.31000000000E+09 -2.61334998965E-01 -1.10282127904E-01 -1.36211640119E-03 -6.23746100703E-03 -1.45093768052E-03 -6.36390566253E-03 -3.10977028076E-01 -3.29683480011E-01
4.31500000000E+09 -2.68574677820E-01 -9.07969509986E-02 -1.95595224386E-03 -6.62486852946E-03 -2.07156473617E-03 -6.80606078425E-03 -3.24980267755E-01 -3.07637392300E-01
4.32000000000E+09 -2.75342000961E-01 -7.18162712021E-02 -2.85486698063E-03 -6.98019547983E-03 -2.98559017757E-03 -7.11784999677E-03 -3.38087356117E-01 -2.86108709910E-01
4.32500000000E+09 -2.81367130093E-01 -5.55374659011E-02 -4.55053562308E-03 -6.66968444376E-03 -4.70542139188E-03 -6.81275497178E-03 -3.50838705087E-01 -2.63831561017E-01
4.33000000000E+09 -2.87581668432E-01 -4.00901467732E-02 -4.98944271626E-03 -5.91441733310E-03 -5.13873716518E-03 -5.98982306087E-03 -3.62512940420E-01 -2.39971213309E-01
4.33500000000E+09 -2.92542110605E-01 -2.43724709821E-02 -5.96215206628E-03 -5.35844190274E-03 -6.08003435899E-03 -5.36283685346E-03 -3.72358107365E-01 -2.15210020012E-01
4.34000000000E+09 -2.94864821569E-01 -8.19429194235E-03 -6.59273793335E-03 -4.25367825998E-03 -6.72356977982E-03 -4.27796587644E-03 -3.80345843689E-01 -1.90681888550E-01
4.34500000000E+09 -2.94538287719E-01 +7.67231611167E-03 -6.27682218115E-03 -3.48089979301E-03 -6.30508094414E-03 -3.48477934009E-03 -3.89307916741E-01 -1.68098956454E-01
4.35000000000E+09 -2.93660713897E-01 +2.44812417428E-02 -6.65370367205E-03 -3.60662944359E-03 -6.73741341746E-03 -3.57424570747E-03 -3.99152930815E-01 -1.43239046298E-01
4.35500000000E+09 -2.91564074758E-01 +4.25507459713E-02 -7.65222379073E-03 -2.87199017874E-03 -7.72698787126E-03 -2.82607463620E-03 -4.06714070254E-01 -1.17296887193E-01
4.36000000000E+09 -2.90186435455E-01 +6.11139593430E-02 -7.30581216175E-03 -2.01010166598E-03 -7.43119208603E-03 -1.95804574886E-03 -4.12264964685E-01 -9.25121293683E-02
4.36500000000E+09 -2.88684704440E-01 +8.11366580268E-02 -8.37727471543E-03 -2.09640125059E-03 -8.50221195274E-03 -2.01720665227E-03 -4.16051663525E-01 -6.79521651161E-02
4.37000000000E+09 -2.88592704788E-01 +1.00899837881E-01 -9.33024354439E-03 -3.46080934245E-04 -9.41637454115E-03 -2.42644754726E-04 -4.18571851801E-01 -4.38125290194E-02
4.37500000000E+09 -2.88576090794E-01 +1.20240601659E-01 -9.08241991264E-03 +1.36551200474E-03 -9.24462896855E-03 +1.53257150382E-03 -4.20857312095E-01 -1.99867600417E-02
4.38000000000E+09 -2.89721358201E-01 +1.37824037161E-01 -8.70340296837E-03 +2.38469135646E-03 -8.78108687294E-03 +2.50374790343E-03 -4.23154396525E-01 +6.27446771658E-03
4.38500000000E+09 -2.90342623527E-01 +1.54436524082E-01 -7.85221187540E-03 +3.35208066032E-03 -7.95795428188E-03 +3.51485383241E-03 -4.22635054745E-01 +3.22876596172E-02
4.39000000000E+09 -2.89798159225E-01 +1.69508353863E-01 -7.36351706673E-03 +3.85585304366E-03 -7.38364009158E-03 +4.02094106408E-03 -4.22078924294E-01 +5.67763367914E-02
4.39500000000E+09 -2.88148296204E-01 +1.83121520120E-01 -7.47857280112E-03 +4.34515972184E-03 -7.49497021627E-03 +4.51771907545E-03 -4.21201418576E-01 +8.08252769308E-02
4.40000000000E+09 -2.84226784024E-01 +1.96712723771E-01 -6.86067945761E-03 +5.74825864924E-03 -6.76989084247E-03 +5.87201925537E-03 -4.19765806431E-01 +1.05000995212E-01
4.40500000000E+09 -2.78949057626E-01 +2.09204757623E-01 -6.14217306365E-03 +6.52674022029E-03 -6.12203493311E-03 +6.62329225974E-03 -4.15901531527E-01 +1.29352968054E-01
4.41000000000E+09 -2.72885412907E-01 +2.23337291597E-01 -4.99431642701E-03 +6.63985280178E-03 -4.94410321019E-03 +6.73535067203E-03 -4.10694552289E-01 +1.53049672674E-01
4.41500000000E+09 -2.65433823081E-01 +2.38970313905E-01 -4.85833139415E-03 +7.59086953114E-03 -4.77384904892E-03 +7.73441035844E-03 -4.05229724109E-01 +1.76184754840E-01
4.42000000000E+09 -2.58287992673E-01 +2.55754294097E-01 -3.98381456908E-03 +7.88682122036E-03 -3.82090007998E-03 +7.97531877043E-03 -3.98141351483E-01 +1.99522033302E-01
4.42500000000E+09 -2.51194593579E-01 +2.72961313217E-01 -3.35469443643E-03 +9.00478400984E-03 -3.12370855470E-03 +9.03724841153E-03 -3.92544305094E-01 +2.20923662856E-01
4.43000000000E+09 -2.45167451505E-01 +2.90192909231E-01 -1.18628556785E-03 +9.57401281856E-03 -9.94552466629E-04 +9.53833279484E-03 -3.85486995020E-01 +2.44294156626E-01
4.43500000000E+09 -2.39504415175E-01 +3.06160896837E-01 -8.64895048246E-06 +8.75306041322E-03 +1.34243010875E-04 +8.64747237921E-03 -3.76074132040E-01 +2.66091100874E-01
4.44000000000E+09 -2.35333554436E-01 +3.19931795333E-01 +8.45383028159E-04 +8.09553397590E-03 +9.57498228345E-04 +8.05777468278E-03 -3.67239579329E-01 +2.85220123878E-01
4.44500000000E+09 -2.31285025035E-01 +3.32247975044E-01 +1.08629042763E-03 +8.03689473612E-03 +1.18892323908E-03 +7.98491017657E-03 -3.59082126935E-01 +3.05146865011E-01
4.45000000000E+09 -2.27247464717E-01 +3.42976914525E-01 +1.60439185064E-03 +7.66770705025E-03 +1.81721387697E-03 +7.64432465734E-03 -3.49179899122E-01 +3.25136767152E-01
4.45500000000E+09 -2.20763523098E-01 +3.52738044032E-01 +2.20328071327E-03 +8.29726371947E-03 +2.44116225108E-03 +8.22473020775E-03 -3.38425314960E-01 +3.44270234139E-01
4.46000000000E+09 -2.13257211337E-01 +3.61165816640E-01 +3.73232007302E-03 +7.96900203075E-03 +3.88927884541E-03 +7.84341351401E-03 -3.25736423565E-01 +3.62754621271E-01
4.46500000000E+09 -2.03319714740E-01 +3.70634751383E-01 +4.46781332187E-03 +7.10845720969E-03 +4.58667105596E-03 +6.97913602729E-03 -3.14102428765E-01 +3.78621146243E-01
4.47000000000E+09 -1.91993381224E-01 +3.80250070207E-01 +5.05333038237E-03 +6.67258929412E-03 +5.15930777197E-03 +6.51349332008E-03 -3.02786777364E-01 +3.95718067655E-01
4.47500000000E+09 -1.79348532860E-01 +3.91346908893E-01 +5.45720451392E-03 +6.25766627069E-03 +5.62220597986E-03 +6.03100207104E-03 -2.90842818630E-01 +4.13558892965E-01
4.48000000000E+09 -1.67159808951E-01 +4.02758039058E-01 +6.39680489763E-03 +5.65181406938E-03 +6.43784305739E-03 +5.45228925392E-03 -2.77748260645E-01 +4.29650084486E-01
4.48500000000E+09 -1.56161766498E-01 +4.15492106724E-01 +7.19999489778E-03 +5.17959663853E-03 +7.10396815609E-03 +4.98908886877E-03 -2.64190087433E-01 +4.44667209831E-01
4.49000000000E+09 -1.46327921323E-01 +4.27965871860E-01 +7.83431307666E-03 +3.43236959530E-03 +7.74008923690E-03 +3.19200083981E-03 -2.51524717064E-01 +4.59070305119E-01
4.49500000000E+09 -1.38782613563E-01 +4.40126358306E-01 +7.24945608339E-03 +2.77002818964E-03 +7.16328595302E-03 +2.67246607615E-03 -2.38365269839E-01 +4.73846747078E-01
4.50000000000E+09 -1.32005037560E-01 +4.50816415047E-01 +7.44768026437E-03 +2.60375720525E-03 +7.41272932751E-03 +2.44955860776E-03 -2.23692037893E-01 +4.87356434973E-01
4.50500000000E+09 -1.26227963378E-01 +4.60016750104E-01 +7.86931092264E-03 +1.95987548510E-03 +7.76126950501E-03 +1.86801816635E-03 -2.09960691321E-01 +5.00661344046E-01
4.51000000000E+09 -1.19403687567E-01 +4.67012399839E-01 +8.57529101258E-03 +1.37588732811E-03 +8.50610940323E-03 +1.20219757838E-03 -1.94241185978E-01 +5.12928847728E-01
4.51500000000E+09 -1.12009485756E-01 +4.72133616253E-01 +8.96192057964E-03 +1.29542105197E-04 +8.78400236209E-03 -2.73840491299E-05 -1.80140909196E-01 +5.23381457268E-01
4.52000000000E+09 -1.02752907326E-01 +4.76209374035E-01 +9.11948115460E-03 -1.64294598498E-03 +8.97730564081E-03 -1.76317717136E-03 -1.66818024537E-01 +5.34030514659E-01
4.52500000000E+09 -9.19313020540E-02 +4.79918150165E-01 +7.94621743250E-03 -2.59028327058E-03 +7.75361137541E-03 -2.67095477874E-03 -1.53253379628E-01 +5.44694114313E-01
4.53000000000E+09 -7.91940306701E-02 +4.84431916725E-01 +7.54452425935E-03 -3.10717363659E-03 +7.37425331407E-03 -3.14228854485E-03 -1.38606315148E-01 +5.54703015318E-01
4.53500000000E+09 -6.52199697361E-02 +4.90149248939E-01 +7.14699787854E-03 -3.87316641852E-03 +6.95363040508E-03 -3.90173584224E-03 -1.23856231188E-01 +5.64043171233E-01
4.54000000000E+09 -5.03701964673E-02 +4.96913625888E-01 +6.75493065631E-03 -4.47757970324E-03 +6.51163738667E-03 -4.49809278910E-03 -1.07753175290E-01 +5.72901536785E-01
4.54500000000E+09 -3.64977739859E-02 +5.04126190722E-01 +6.05768227044E-03 -5.10492366129E-03 +5.83087519602E-03 -5.05811882605E-03 -9.32546226681E-02 +5.81575834702E-01
4.55000000000E+09 -2.38737566017E-02 +5.11838608275E-01 +5.58819433293E-03 -5.75762734004E-03 +5.39418188897E-03 -5.68105724657E-03 -7.77703444211E-02 +5.90481092201E-01
4.55500000000E+09 -1.34953104315E-02 +5.19465878159E-01 +4.70687614311E-03 -5.88957925735E-03 +4.53108838211E-03 -5.83931769540E-03 -6.21568185797E-02 +5.98899554995E-01
4.56000000000E+09 -5.08114532639E-03 +5.27200076217E-01 +4.31112757497E-03 -6.43217809242E-03 +4.18735548188E-03 -6.34417001715E-03 -4.68497620459E-02 +6.04982374716E-01
4.56500000000E+09 +3.58022135822E-03 +5.33910199419E-01 +3.80626107659E-03 -6.85552346454E-03 +3.59779520612E-03 -6.76587816750E-03 -3.29415417180E-02 +6.11286930659E-01
4.57000000000E+09 +1.18030513354E-02 +5.38455623486E-01 +2.83952508128E-03 -7.43652164620E-03 +2.66106312090E-03 -7.33694832895E-03 -1.82146879113E-02 +6.17555137643E-01
