# Hz S RI R 50
! CMT, C1220, 16058040, 17.2.0/1
! Date: 15/08/2018 12:12:48
! Data: Format (Calibration Info)
! Freq                      S11: Re/Im (F2)                       S21: Re/Im (F2)                       S12: Re/Im (F2)                       S22: Re/Im (F2)            
4.00000000000E+09 +6.49541125135E-01 -3.54281035262E-01 -2.23662392011E-04 -7.17960254650E-04 -2.94414575759E-04 -7.52826373185E-04 +7.66138178864E-01 -3.22188796443E-01
4.00500000000E+09 +6.41507233790E-01 -3.60260380091E-01 -4.02701017575E-04 -3.56889069169E-04 -3.63889559150E-04 -4.25579072397E-04 +7.56898017650E-01 -3.32629338567E-01
4.01000000000E+09 +6.32888336957E-01 -3.65787137952E-01 -9.39426026406E-05 -2.71998549944E-04 -1.21560178804E-04 -3.01748231658E-04 +7.46946592588E-01 -3.42963326715E-01
4.01500000000E+09 +6.23203666867E-01 -3.72495783595E-01 -1.11174205698E-04 -6.48790588795E-04 -2.45200806434E-05 -6.23687082826E-04 +7.37332464967E-01 -3.52413362127E-01
4.02000000000E+09 +6.12009345213E-01 -3.80502393920E-01 -4.43576982212E-04 -6.89779705916E-04 -4.17930278340E-04 -7.60590187935E-04 +7.27112879945E-01 -3.62450019480E-01
4.02500000000E+09 +6.00012480967E-01 -3.89207424817E-01 -6.72183960734E-04 -4.57770949855E-04 -6.78601285779E-04 -5.00169856682E-04 +7.16196978468E-01 -3.71731847959E-01
4.03000000000E+09 +5.88436692508E-01 -3.98649094364E-01 -6.00062332683E-04 -1.43846414525E-04 -6.46250013318E-04 -2.15424859640E-04 +7.05618388824E-01 -3.80966760618E-01
4.03500000000E+09 +5.77521861982E-01 -4.09440346054E-01 -4.04833288679E-04 -1.59157943154E-04 -4.63196060473E-04 -1.50141691259E-04 +6.94510914290E-01 -3.90625262419E-01
4.04000000000E+09 +5.66514497863E-01 -4.20480339872E-01 -4.17203902171E-04 -1.02352284789E-04 -4.88232491635E-04 -1.25725290304E-04 +6.83399919169E-01 -4.00574187499E-01
4.04500000000E+09 +5.56016192947E-01 -4.30562380920E-01 -2.80852279302E-04 -1.77519403034E-04 -3.74934637844E-04 -1.11070454813E-04 +6.71565100360E-01 -4.10331437006E-01
4.05000000000E+09 +5.45307797080E-01 -4.39442102215E-01 -2.43487840643E-04 -2.14014613481E-04 -2.87819164986E-04 -1.57735899576E-04 +6.59519988649E-01 -4.18959244472E-01
4.05500000000E+09 +5.34038562184E-01 -4.45772432773E-01 -4.08436323880E-04 -4.49399306740E-04 -3.97285288743E-04 -4.85662315871E-04 +6.47473665482E-01 -4.27391289172E-01
4.06000000000E+09 +5.22989974124E-01 -4.50318837380E-01 -4.71131637846E-04 -3.86561066105E-04 -4.63333562867E-04 -3.73792838470E-04 +6.34984391564E-01 -4.35741649480E-01
4.06500000000E+09 +5.10884673879E-01 -4.53995679947E-01 -7.36016353447E-04 -2.90468390712E-04 -7.60430394073E-04 -3.08076857255E-04 +6.21734752299E-01 -4.43609551431E-01
4.07000000000E+09 +4.97978427728E-01 -4.57356560471E-01 -8.86193350155E-04 -6.06345340842E-05 -8.45787274613E-04 -8.42942454654E-05 +6.08203531189E-01 -4.51779258443E-01
4.07500000000E+09 +4.83530846755E-01 -4.61524114699E-01 -7.31592349536E-04 +6.72481516975E-05 -7.00068269018E-04 +1.01319448147E-04 +5.94207328059E-01 -4.60012308848E-01
4.08000000000E+09 +4.67040311349E-01 -4.66234136591E-01 -7.53728174334E-04 +1.19916457684E-04 -7.57623274856E-04 +4.63003792820E-05 +5.80716058968E-01 -4.67597028415E-01
4.08500000000E+09 +4.50342379863E-01 -4.71027552766E-01 -7.49329558235E-04 +3.58185757785E-04 -8.34816982394E-04 +3.63910953753E-04 +5.66943270653E-01 -4.75683916645E-01
4.09000000000E+09 +4.33822069388E-01 -4.77492525713E-01 -3.13867237984E-04 +3.10958942307E-04 -3.34251688415E-04 +3.30677872716E-04 +5.52174988555E-01 -4.82465492394E-01
4.09500000000E+09 +4.17054289810E-01 -4.84575255171E-01 -4.65426010399E-04 -3.04112490880E-06 -5.05486312036E-04 -5.89972841621E-06 +5.37954817566E-01 -4.88722931713E-01
4.10000000000E+09 +3.99364427857E-01 -4.91377194885E-01 -8.42161431442E-04 +5.57807359193E-05 -9.14893463686E-04 +1.41336418380E-05 +5.22043271080E-01 -4.95132694019E-01
4.10500000000E+09 +3.82487554282E-01 -4.95449753507E-01 -1.09297721726E-03 +5.50128895847E-04 -1.09805639445E-03 +5.39549135576E-04 +5.05945989307E-01 -5.00661234390E-01
4.11000000000E+09 +3.66418686719E-01 -4.97848856086E-01 -8.92996054614E-04 +1.01295607812E-03 -9.19225119838E-04 +9.77829907121E-04 +4.89521353769E-01 -5.06516343410E-01
4.11500000000E+09 +3.52158172116E-01 -4.98479032479E-01 -9.15746096740E-05 +1.11743740248E-03 -1.59948433507E-04 +1.14311520773E-03 +4.72863757689E-01 -5.11562759524E-01
4.12000000000E+09 +3.37336965178E-01 -4.99510230925E-01 -6.92411659817E-05 +5.45378950886E-04 -9.27475822408E-05 +5.33688437485E-04 +4.57021315603E-01 -5.16734331151E-01
4.12500000000E+09 +3.21440955866E-01 -4.99860951010E-01 -2.38266660287E-04 +5.28306756041E-04 -3.16335155641E-04 +5.63239415476E-04 +4.39877251178E-01 -5.21690400354E-01
4.13000000000E+09 +3.03755506430E-01 -5.01025592368E-01 -2.66911285544E-04 +6.21494516850E-04 -3.25136769859E-04 +6.26218536546E-04 +4.22700065814E-01 -5.25057299479E-01
4.13500000000E+09 +2.83815339714E-01 -5.02286189193E-01 -4.20033274888E-04 +6.79180774974E-04 -4.22678587187E-04 +6.63491905725E-04 +4.05603814388E-01 -5.28618688516E-01
4.14000000000E+09 +2.63466260355E-01 -5.03063543901E-01 -2.56406563943E-04 +1.12013023844E-03 -3.43087357189E-04 +1.13146787304E-03 +3.87218769493E-01 -5.31756796388E-01
4.14500000000E+09 +2.43898756700E-01 -5.05432429421E-01 +3.20498061656E-04 +1.03725120725E-03 +2.60180960465E-04 +1.07960533511E-03 +3.69065750687E-01 -5.34506253947E-01
4.15000000000E+09 +2.23976286740E-01 -5.09384707703E-01 +2.51255410130E-04 +6.41001398817E-04 +1.99328958233E-04 +6.29845822530E-04 +3.50818937595E-01 -5.37113092630E-01
4.15500000000E+09 +2.03974949599E-01 -5.13400125120E-01 +6.24675558672E-06 +8.39674476366E-04 -4.03245888786E-05 +9.28344249651E-04 +3.32497447215E-01 -5.38655970965E-01
4.16000000000E+09 +1.84606130851E-01 -5.15547043669E-01 +3.50103790476E-04 +9.58468480065E-04 +3.22044845836E-04 +1.00453949721E-03 +3.14848282647E-01 -5.39766928001E-01
4.16500000000E+09 +1.67163311582E-01 -5.16089091101E-01 +5.04042463986E-04 +7.01943668057E-04 +4.33349247268E-04 +7.29082039073E-04 +2.96127543414E-01 -5.40165927385E-01
4.17000000000E+09 +1.51180752561E-01 -5.14619985861E-01 +6.19877543542E-04 +8.66324607328E-04 +6.05008548459E-04 +9.17780721847E-04 +2.77265481477E-01 -5.39226410545E-01
4.17500000000E+09 +1.36070238517E-01 -5.11691489116E-01 +6.64534459852E-04 +2.94677803647E-04 +6.79674241922E-04 +3.33529338370E-04 +2.58571605254E-01 -5.38093673242E-01
4.18000000000E+09 +1.20966321405E-01 -5.07380775140E-01 +2.86324889928E-04 +4.79212777001E-04 +3.11681600546E-04 +5.27166936669E-04 +2.39037728781E-01 -5.36805560510E-01
4.18500000000E+09 +1.05028329330E-01 -5.02498041632E-01 +4.59877462172E-04 +7.13833565791E-04 +4.99402606260E-04 +7.82814016592E-04 +2.19688253567E-01 -5.34868859136E-01
4.19000000000E+09 +8.77193789690E-02 -4.96527599185E-01 +7.16651440463E-04 +7.07189765189E-04 +8.12281607111E-04 +7.24762375799E-04 +2.00005680284E-01 -5.32694927073E-01
4.19500000000E+09 +7.01831182269E-02 -4.90808680817E-01 +9.15085726818E-04 +5.95591873963E-04 +9.29605037513E-04 +6.14439273650E-04 +1.80578344200E-01 -5.29080021661E-01
4.20000000000E+09 +5.14403966587E-02 -4.85932674668E-01 +1.07160628917E-03 +3.90234274750E-04 +1.10467379339E-03 +4.19454641273E-04 +1.61201510386E-01 -5.25450547443E-01
4.20500000000E+09 +3.24584869034E-02 -4.81432125216E-01 +1.10614784721E-03 +4.43342595240E-05 +1.19308205896E-03 +2.41121796255E-05 +1.41145879568E-01 -5.20151426473E-01
4.21000000000E+09 +1.33247380658E-02 -4.77223785381E-01 +6.97569995272E-04 -2.27698444018E-04 +7.78176459393E-04 -2.32214141624E-04 +1.21698119363E-01 -5.14440436690E-01
4.21500000000E+09 -5.53738199739E-03 -4.71489158113E-01 +4.74698030572E-04 +1.36883268219E-04 +5.11380100911E-04 +1.82631897559E-04 +1.02384437609E-01 -5.08610132144E-01
4.22000000000E+09 -2.19225354062E-02 -4.64069613027E-01 +8.69053189686E-04 +2.57021101395E-04 +9.35375962984E-04 +2.15216877904E-04 +8.33422028912E-02 -5.01920894732E-01
4.22500000000E+09 -3.61882761382E-02 -4.56271066007E-01 +9.57293050876E-04 -4.02857261446E-05 +9.85980758324E-04 -6.96311299496E-05 +6.47744151799E-02 -4.95094872618E-01
4.23000000000E+09 -5.06039010760E-02 -4.47411930562E-01 +9.27210792224E-04 -2.00275174724E-04 +9.64458992117E-04 -2.35834850439E-04 +4.57353813020E-02 -4.87439422897E-01
4.23500000000E+09 -6.52832830274E-02 -4.36615489163E-01 +6.74591062047E-04 -1.19397299845E-04 +6.37298997290E-04 -1.70155165320E-04 +2.73841642762E-02 -4.78020476199E-01
4.24000000000E+09 -8.03146955020E-02 -4.24743603125E-01 +8.55424925314E-04 -5.94260413817E-05 +8.57484906319E-04 -1.19990894235E-04 +9.50932655988E-03 -4.68826236049E-01
4.24500000000E+09 -9.73259033280E-02 -4.12181133497E-01 +1.21948635324E-03 -2.28254448652E-04 +1.21190720301E-03 -2.38691796987E-04 -8.78585307429E-03 -4.58476619428E-01
4.25000000000E+09 -1.15856040728E-01 -3.98684942684E-01 +1.25026991594E-03 -7.30044525826E-04 +1.26266715935E-03 -7.28831738644E-04 -2.60582218478E-02 -4.47537266286E-01
4.25500000000E+09 -1.34832231818E-01 -3.85338637144E-01 +8.85751630920E-04 -1.06577973606E-03 +9.22013790341E-04 -1.02984551008E-03 -4.37416260344E-02 -4.36684416805E-01
4.26000000000E+09 -1.54296011798E-01 -3.73305271023E-01 +5.26225036163E-04 -9.60854591604E-04 +5.49299298640E-04 -9.28746495629E-04 -6.11757521457E-02 -4.23980163470E-01
4.26500000000E+09 -1.73667959030E-01 -3.61284380029E-01 +5.70995737082E-04 -8.43966299498E-04 +5.34307973870E-04 -8.22783307609E-04 -7.69624495909E-02 -4.10876948955E-01
4.27000000000E+09 -1.91474836758E-01 -3.49558452287E-01 +6.67521737125E-04 -9.91875428581E-04 +6.06144452155E-04 -9.37820008035E-04 -9.35347536841E-02 -3.97832580974E-01
4.27500000000E+09 -2.06780973623E-01 -3.37978586524E-01 +5.89922885384E-04 -1.10184953998E-03 +5.98708736064E-04 -1.08507524419E-03 -1.09927595150E-01 -3.83157836305E-01
4.28000000000E+09 -2.20201778572E-01 -3.26461331648E-01 +2.19019305549E-04 -1.41652885395E-03 +2.27638750893E-04 -1.35403733871E-03 -1.25220325420E-01 -3.68823093159E-01
4.28500000000E+09 -2.32831559146E-01 -3.13321860346E-01 -1.06937858003E-04 -1.10214542062E-03 -1.15835075315E-04 -1.06114208415E-03 -1.41038936557E-01 -3.54248401181E-01
4.29000000000E+09 -2.43833765139E-01 -2.97617848412E-01 +1.17754502750E-04 -1.11404484163E-03 +1.19773790740E-04 -1.04195929977E-03 -1.56219632496E-01 -3.38960922776E-01
4.29500000000E+09 -2.54077885899E-01 -2.80201517649E-01 -2.59203882974E-04 -1.40814896434E-03 -2.31166103460E-04 -1.41511666068E-03 -1.70428639505E-01 -3.22502275525E-01
4.30000000000E+09 -2.64031184782E-01 -2.61445470005E-01 -5.11408384569E-04 -8.89250734391E-04 -4.74996739710E-04 -8.12985072245E-04 -1.83043247504E-01 -3.05475608553E-01
4.30500000000E+09 -2.75071349001E-01 -2.42227421927E-01 -2.57147075622E-04 -9.74734209942E-04 -2.24490249564E-04 -1.02671058297E-03 -1.95169545903E-01 -2.88524286371E-01
4.31000000000E+09 -2.87715219076E-01 -2.22854732423E-01 -4.64131767554E-04 -1.19597600419E-03 -4.50542252784E-04 -1.18280620354E-03 -2.06652099376E-01 -2.70667674786E-01
4.31500000000E+09 -3.01314701568E-01 -2.03830700820E-01 -7.52117601349E-04 -1.14785052587E-03 -6.58727539925E-04 -1.17992227985E-03 -2.17120755723E-01 -2.52690038950E-01
4.32000000000E+09 -3.15705132518E-01 -1.85067552174E-01 -1.12823181149E-03 -9.43712544842E-04 -1.10143123252E-03 -9.71026424549E-04 -2.27798126679E-01 -2.34621522717E-01
4.32500000000E+09 -3.28250326822E-01 -1.66511084601E-01 -1.10109108895E-03 -4.08844931252E-04 -1.09769184233E-03 -4.32365632219E-04 -2.36853276730E-01 -2.15861499316E-01
4.33000000000E+09 -3.37663204737E-01 -1.49693474280E-01 -1.02353659875E-03 -3.21777618260E-04 -1.02917735631E-03 -4.05233921445E-04 -2.46188459341E-01 -1.97562361302E-01
4.33500000000E+09 -3.45224536622E-01 -1.34095379967E-01 -8.77883997763E-04 -3.54180408912E-05 -8.46190984536E-04 -5.77506783906E-05 -2.55053629832E-01 -1.77478620993E-01
4.34000000000E+09 -3.50824552461E-01 -1.18376581434E-01 -6.80730078858E-04 -2.58284132441E-04 -7.19311701313E-04 -3.52049346531E-04 -2.62333390277E-01 -1.57272886749E-01
4.34500000000E+09 -3.53997107903E-01 -1.02112726371E-01 -7.67243634772E-04 -3.14043353848E-04 -7.72133292713E-04 -3.39302006772E-04 -2.69478278849E-01 -1.37101918932E-01
4.35000000000E+09 -3.56407078083E-01 -8.43756116672E-02 -9.99299148441E-04 -2.04464281554E-04 -1.00360014509E-03 -2.77866879100E-04 -2.75747515813E-01 -1.16909713245E-01
4.35500000000E+09 -3.59354736646E-01 -6.39558242167E-02 -9.53397436408E-04 +2.41066998324E-05 -9.49533748337E-04 -9.30549671478E-06 -2.81054996860E-01 -9.71698205378E-02
4.36000000000E+09 -3.61221084321E-01 -4.13372281356E-02 -1.01847446343E-03 -7.25634098578E-05 -1.11199155648E-03 -8.65098113897E-05 -2.86252754252E-01 -7.80656183365E-02
4.36500000000E+09 -3.63688213783E-01 -1.77880934091E-02 -1.01166331295E-03 +4.14059001405E-04 -1.10400726732E-03 +4.47438245026E-04 -2.90268995279E-01 -5.80252434716E-02
4.37000000000E+09 -3.66888984521E-01 +5.14323382537E-03 -7.36433593372E-04 +4.94101159115E-04 -7.43528416279E-04 +4.73482562889E-04 -2.92949465703E-01 -3.91666646744E-02
4.37500000000E+09 -3.71693482448E-01 +2.64814940169E-02 -6.16764791457E-04 +4.53786439134E-04 -5.91164599706E-04 +5.34216468397E-04 -2.96233665713E-01 -1.90174543357E-02
4.38000000000E+09 -3.77012600362E-01 +4.66151904316E-02 -4.32167669466E-04 +4.39426657411E-04 -4.08055312830E-04 +4.84510711642E-04 -2.97756456020E-01 +1.93431015991E-03
4.38500000000E+09 -3.81945961153E-01 +6.49031483772E-02 -4.21269038670E-04 +2.14616133011E-04 -3.98483895485E-04 +3.03357548588E-04 -2.98722757598E-01 +2.21166284978E-02
4.39000000000E+09 -3.85666742977E-01 +8.13703570602E-02 -5.08881917263E-04 +2.51493724677E-04 -4.94419706343E-04 +3.08511196385E-04 -2.99060747736E-01 +4.30586313260E-02
4.39500000000E+09 -3.86618783768E-01 +9.68206389401E-02 -5.90345455361E-04 +3.79394996599E-04 -5.73792022290E-04 +4.13354704157E-04 -2.99270545776E-01 +6.23043630753E-02
4.40000000000E+09 -3.85197694904E-01 +1.11359741194E-01 -5.87138660257E-04 +3.30628733862E-04 -5.34817088669E-04 +3.52663780310E-04 -2.98808500878E-01 +8.20440347432E-02
4.40500000000E+09 -3.82175000481E-01 +1.26427380771E-01 -6.76854668196E-04 +5.08376874754E-04 -6.31570323288E-04 +5.43384937007E-04 -2.96819496690E-01 +1.01642489991E-01
4.41000000000E+09 -3.77427573036E-01 +1.43603043437E-01 -5.00372539930E-04 +7.13735805742E-04 -4.13609466439E-04 +7.21771933832E-04 -2.94495114702E-01 +1.20614372084E-01
4.41500000000E+09 -3.71146058504E-01 +1.62829687220E-01 -2.88858990997E-04 +5.53912555797E-04 -2.51818213021E-04 +4.36611716584E-04 -2.90616331653E-01 +1.40344157713E-01
4.42000000000E+09 -3.64710750896E-01 +1.83683416789E-01 -3.19560630994E-04 +5.98646103429E-04 -2.44791720690E-04 +5.85651588994E-04 -2.85936848902E-01 +1.59506372502E-01
4.42500000000E+09 -3.58668022500E-01 +2.04918380912E-01 -2.98684853974E-04 +3.23089809941E-04 -2.67649171945E-04 +2.32466475355E-04 -2.81066371232E-01 +1.77635315288E-01
4.43000000000E+09 -3.54465329670E-01 +2.26324383004E-01 -8.35034561191E-04 +4.83395955750E-04 -7.81574378774E-04 +4.69542997406E-04 -2.76735537699E-01 +1.95457969387E-01
4.43500000000E+09 -3.51695602319E-01 +2.47074319562E-01 -6.32263483936E-04 +1.03186043154E-03 -6.12527074703E-04 +9.71788924625E-04 -2.72988067897E-01 +2.13106500291E-01
4.44000000000E+09 -3.49224423464E-01 +2.66892738535E-01 -2.93385497898E-04 +1.12325615537E-03 -3.27519901769E-04 +1.12206441351E-03 -2.67913088153E-01 +2.31937116476E-01
4.44500000000E+09 -3.45802023367E-01 +2.83964998549E-01 +1.80798319288E-04 +1.41117930854E-03 +1.67265729597E-04 +1.30578085214E-03 -2.60601704250E-01 +2.49206860514E-01
4.45000000000E+09 -3.41446274576E-01 +2.97970725767E-01 +5.44902285230E-04 +7.98100756735E-04 +5.64683014482E-04 +7.79224244535E-04 -2.53473261844E-01 +2.65091468663E-01
4.45500000000E+09 -3.36275401313E-01 +3.10311760609E-01 +2.40932828506E-04 +4.91074448382E-04 +2.27356944740E-04 +4.76304451860E-04 -2.45606682425E-01 +2.81165945824E-01
4.46000000000E+09 -3.28998248167E-01 +3.22044458384E-01 +1.69268216800E-04 +5.89182674611E-04 +1.50281179623E-04 +5.71511728265E-04 -2.37716142560E-01 +2.96461403531E-01
4.46500000000E+09 -3.20501275170E-01 +3.34385772156E-01 +1.29367019438E-05 +6.87747098394E-04 -1.10723697768E-05 +7.19216350651E-04 -2.29647500142E-01 +3.11699131940E-01
4.47000000000E+09 -3.10065526792E-01 +3.49106802861E-01 +3.52136624948E-04 +6.27236701493E-04 +3.27275234225E-04 +6.87754874392E-04 -2.21049269980E-01 +3.26809320818E-01
4.47500000000E+09 -2.97287178067E-01 +3.65551847208E-01 +2.28695353761E-04 +6.25075322991E-04 +1.80167374311E-04 +6.27249942911E-04 -2.13068413439E-01 +3.41170270847E-01
4.48000000000E+09 -2.84169953905E-01 +3.82269687781E-01 +1.92789846356E-04 +8.06470218484E-04 +1.67658802409E-04 +7.85289493503E-04 -2.04474925932E-01 +3.56571039930E-01
4.48500000000E+09 -2.72738664771E-01 +3.99277542711E-01 +4.18905770574E-04 +1.08095942255E-03 +4.53120714782E-04 +1.05489646396E-03 -1.94217573811E-01 +3.70764494541E-01
4.49000000000E+09 -2.63117959481E-01 +4.16515217943E-01 +1.00772492483E-03 +8.52917401867E-04 +9.20927164190E-04 +8.59042055214E-04 -1.84140443572E-01 +3.83888840680E-01
4.49500000000E+09 -2.55424015130E-01 +4.32586251177E-01 +1.05769652975E-03 +2.88025264549E-04 +9.96552016694E-04 +2.89566451994E-04 -1.74237990151E-01 +3.96767774953E-01
4.50000000000E+09 -2.49310284079E-01 +4.47178945314E-01 +6.02392788577E-04 +2.95048526497E-04 +5.96710119698E-04 +2.72152135083E-04 -1.63554349918E-01 +4.09178307760E-01
4.50500000000E+09 -2.43922217446E-01 +4.59761451498E-01 +6.59202262407E-04 +2.17028470985E-04 +6.43998379143E-04 +2.77535901913E-04 -1.53562722041E-01 +4.21308979261E-01
4.51000000000E+09 -2.37902479314E-01 +4.70051323854E-01 +3.94999020219E-04 +4.02008497607E-04 +4.48287809776E-04 +4.25523901527E-04 -1.42652554635E-01 +4.33516694374E-01
4.51500000000E+09 -2.30542644161E-01 +4.78741855706E-01 +6.73786668897E-04 +5.53407507250E-04 +7.08918163895E-04 +5.43708284608E-04 -1.32128590763E-01 +4.44785178181E-01
4.52000000000E+09 -2.20850217357E-01 +4.86826270589E-01 +9.09382510371E-04 +5.40076337164E-04 +9.11943359182E-04 +5.15383329819E-04 -1.21428235402E-01 +4.55755440453E-01
4.52500000000E+09 -2.08246281713E-01 +4.94115023310E-01 +1.15988466982E-03 +3.54147569228E-04 +1.15298908962E-03 +3.61389841152E-04 -1.09900904553E-01 +4.66664732927E-01
4.53000000000E+09 -1.94315976139E-01 +5.01649591987E-01 +1.41132806202E-03 -1.67028119503E-04 +1.34040622067E-03 -1.52214205303E-04 -9.78960522313E-02 +4.75852033642E-01
4.53500000000E+09 -1.79563869293E-01 +5.10635581028E-01 +8.63423847561E-04 -2.13695801624E-04 +8.68642440845E-04 -2.09482598394E-04 -8.58120521284E-02 +4.85384181607E-01
4.54000000000E+09 -1.64540162633E-01 +5.21024471725E-01 +1.11932054346E-03 -1.91012690815E-04 +1.02625523318E-03 -2.49377748468E-04 -7.32797912944E-02 +4.94226572447E-01
4.54500000000E+09 -1.49676103684E-01 +5.32361037097E-01 +9.53054247999E-04 -6.16457816714E-04 +8.86683600920E-04 -5.79544948912E-04 -6.17991170000E-02 +5.02457722870E-01
4.55000000000E+09 -1.36541884556E-01 +5.43327509259E-01 +7.66293389247E-04 -6.35891640386E-04 +7.05169941992E-04 -6.54458165873E-04 -4.97270160599E-02 +5.11525373719E-01
4.55500000000E+09 -1.25486814986E-01 +5.53913418557E-01 +5.58453499515E-04 -5.34236113407E-04 +5.66418708045E-04 -5.36304281643E-04 -3.81037217941E-02 +5.20106752617E-01
4.56000000000E+09 -1.15626043811E-01 +5.62707239514E-01 +5.91796513427E-04 -3.38957697519E-04 +5.15589073400E-04 -3.09208832953E-04 -2.56781905168E-02 +5.28100272372E-01
4.56500000000E+09 -1.07173773355E-01 +5.69659120324E-01 +9.93432689370E-04 -4.32149927900E-04 +9.50209395653E-04 -4.38440606436E-04 -1.37221573383E-02 +5.35118462389E-01
4.57000000000E+09 -9.88009215270E-02 +5.75103298226E-01 +9.25202916313E-04 -1.02941401925E-03 +8.69801117319E-04 -1.05303159479E-03 -1.76255301545E-03 +5.42301445022E-01
