# Hz S RI R 50
! CMT, C1220, 16058040, 17.2.0/1
! Date: 15/08/2018 12:38:19
! Data: Format (Calibration Info)
! Freq                      S11: Re/Im (F2)                       S21: Re/Im (F2)                       S12: Re/Im (F2)                       S22: Re/Im (F2)            
4.00000000000E+09 +6.56404101748E-01 -3.59361756734E-01 +1.14265940760E-03 -9.51624508317E-04 +1.18625824437E-03 -9.02729845595E-04 +7.85624997462E-01 -3.14156427196E-01
4.00500000000E+09 +6.48172354502E-01 -3.65205663450E-01 +9.60024090621E-04 -1.21192653145E-03 +1.03390445953E-03 -1.19024989568E-03 +7.77513492238E-01 -3.25492613285E-01
4.01000000000E+09 +6.39291502996E-01 -3.70942657594E-01 +6.60919733389E-04 -1.45062077242E-03 +6.90106960395E-04 -1.42979385614E-03 +7.69128633891E-01 -3.37419374832E-01
4.01500000000E+09 +6.29356119529E-01 -3.77392826692E-01 +3.10365038014E-04 -1.29176429608E-03 +3.29054697040E-04 -1.25252970638E-03 +7.60663570131E-01 -3.48741969929E-01
4.02000000000E+09 +6.19466221449E-01 -3.84716177837E-01 +3.99201086055E-04 -1.24538446043E-03 +4.25370217570E-04 -1.28542626913E-03 +7.51901203413E-01 -3.59753352374E-01
4.02500000000E+09 +6.08949445955E-01 -3.93777082483E-01 +2.55537152146E-04 -1.26440577219E-03 +2.82991705876E-04 -1.26321658031E-03 +7.42443030573E-01 -3.70346720072E-01
4.03000000000E+09 +5.98067312342E-01 -4.04118583112E-01 +1.15867988353E-04 -1.29275339354E-03 +2.11676376849E-04 -1.27310422013E-03 +7.32035890122E-01 -3.80885416575E-01
4.03500000000E+09 +5.86571730690E-01 -4.14749656546E-01 -1.04387294894E-05 -1.31630371332E-03 +5.75761043240E-05 -1.34169894848E-03 +7.21063691248E-01 -3.91961624626E-01
4.04000000000E+09 +5.75265134047E-01 -4.24891039691E-01 -1.60007701835E-04 -1.24770370737E-03 -8.10886431798E-05 -1.29838740383E-03 +7.09851898723E-01 -4.03174271289E-01
4.04500000000E+09 +5.64260128124E-01 -4.34435607336E-01 -8.68188757053E-05 -1.26838431287E-03 -7.99783179116E-05 -1.29103501751E-03 +6.99122762229E-01 -4.14094486514E-01
4.05000000000E+09 +5.52689528782E-01 -4.42198498092E-01 -2.65334667412E-04 -1.43054170680E-03 -2.17787259855E-04 -1.52303221799E-03 +6.88617196163E-01 -4.24876219453E-01
4.05500000000E+09 +5.41089902531E-01 -4.48365189135E-01 -4.49255342497E-04 -1.31049747021E-03 -4.50315465329E-04 -1.39439198506E-03 +6.77387949141E-01 -4.34710192677E-01
4.06000000000E+09 +5.28976322793E-01 -4.53553928048E-01 -6.14768756442E-04 -1.29856797048E-03 -6.14280943733E-04 -1.42750645009E-03 +6.66264700315E-01 -4.44161179361E-01
4.06500000000E+09 +5.15597555684E-01 -4.57322059299E-01 -8.19511814522E-04 -1.06797814328E-03 -8.32209683632E-04 -1.09256069908E-03 +6.53828275653E-01 -4.54093552042E-01
4.07000000000E+09 +5.02284917623E-01 -4.61165304191E-01 -6.38450479589E-04 -9.19363196615E-04 -6.60291157278E-04 -9.72164763082E-04 +6.40608125607E-01 -4.64186884864E-01
4.07500000000E+09 +4.87521417024E-01 -4.66025896404E-01 -6.91492594446E-04 -1.25544452704E-03 -6.49423562263E-04 -1.33279227565E-03 +6.26865640717E-01 -4.74669689606E-01
4.08000000000E+09 +4.71815974354E-01 -4.71074001690E-01 -1.06323233786E-03 -1.16330071648E-03 -1.04763392845E-03 -1.18975377338E-03 +6.13300895852E-01 -4.84902351314E-01
4.08500000000E+09 +4.55904051301E-01 -4.77651638207E-01 -1.10194052447E-03 -9.98390328612E-04 -1.07711290242E-03 -1.01290103665E-03 +5.99771818748E-01 -4.94907530480E-01
4.09000000000E+09 +4.38710277248E-01 -4.84541406876E-01 -1.33290119161E-03 -1.02572331783E-03 -1.36936219182E-03 -1.06025140160E-03 +5.85776677851E-01 -5.03567146380E-01
4.09500000000E+09 +4.21819300801E-01 -4.91037101480E-01 -1.63618888405E-03 -6.24727806450E-04 -1.66149980394E-03 -7.06270660474E-04 +5.71476559346E-01 -5.11949197452E-01
4.10000000000E+09 +4.04814618310E-01 -4.96912064841E-01 -1.33325836041E-03 -3.07456915620E-04 -1.35803016442E-03 -3.78758403545E-04 +5.55718795863E-01 -5.19795843738E-01
4.10500000000E+09 +3.88062784214E-01 -5.01184285657E-01 -1.35987524137E-03 -5.51445711071E-04 -1.38895347999E-03 -5.24331937154E-04 +5.40048972293E-01 -5.27901027739E-01
4.11000000000E+09 +3.71736529771E-01 -5.03064938129E-01 -1.69154902456E-03 -3.61550875377E-04 -1.64321003931E-03 -3.97237835469E-04 +5.23391424403E-01 -5.36433233282E-01
4.11500000000E+09 +3.56724944776E-01 -5.04359660669E-01 -1.55648993681E-03 +1.99288202114E-05 -1.63001432082E-03 -2.56797317831E-05 +5.06999095742E-01 -5.44269014051E-01
4.12000000000E+09 +3.40908010245E-01 -5.05113956386E-01 -1.46302109739E-03 +6.00005362713E-05 -1.51579300291E-03 -1.21397395618E-05 +4.90708374556E-01 -5.52163890364E-01
4.12500000000E+09 +3.24222699377E-01 -5.06075063864E-01 -1.53135530842E-03 +1.13478358767E-04 -1.54544788709E-03 +2.61438055714E-05 +4.73596511148E-01 -5.58884503661E-01
4.13000000000E+09 +3.06261017854E-01 -5.07052577390E-01 -1.68165260820E-03 +3.15403111155E-04 -1.72035168978E-03 +2.58216509335E-04 +4.56134080172E-01 -5.64970351174E-01
4.13500000000E+09 +2.87230384245E-01 -5.09191452542E-01 -1.32319746055E-03 +6.57089889811E-04 -1.34867692352E-03 +6.33194685631E-04 +4.37595340759E-01 -5.70501815732E-01
4.14000000000E+09 +2.67106807883E-01 -5.11890752275E-01 -1.29373282901E-03 +3.30616486068E-04 -1.32438365181E-03 +2.61330234304E-04 +4.19225224013E-01 -5.76434341859E-01
4.14500000000E+09 +2.46931184464E-01 -5.14527169819E-01 -1.69332867033E-03 +5.94146655366E-04 -1.76262013932E-03 +5.25978807186E-04 +3.99771425627E-01 -5.82421981499E-01
4.15000000000E+09 +2.27380682195E-01 -5.17976034603E-01 -1.43557976418E-03 +1.04236769939E-03 -1.59168522615E-03 +1.09290163810E-03 +3.81615446217E-01 -5.87567263986E-01
4.15500000000E+09 +2.07562159199E-01 -5.20758276559E-01 -1.19746989946E-03 +1.04430170021E-03 -1.26066461651E-03 +1.05572161415E-03 +3.63061210144E-01 -5.92756451281E-01
4.16000000000E+09 +1.89096502479E-01 -5.21271564195E-01 -1.22566393473E-03 +1.17009823305E-03 -1.25333967996E-03 +1.17979987710E-03 +3.43846506105E-01 -5.96134810499E-01
4.16500000000E+09 +1.72239464550E-01 -5.21165095258E-01 -1.00380418491E-03 +1.31556792159E-03 -1.07227347128E-03 +1.32804242110E-03 +3.24200074842E-01 -5.98922920469E-01
4.17000000000E+09 +1.55452519198E-01 -5.18878104638E-01 -8.13619854291E-04 +1.42243245962E-03 -9.05695847472E-04 +1.44433107241E-03 +3.03434894110E-01 -6.01073480122E-01
4.17500000000E+09 +1.39414627630E-01 -5.14913518225E-01 -5.77754458099E-04 +1.18539055514E-03 -6.13299151241E-04 +1.20699294963E-03 +2.81869833299E-01 -6.02554097936E-01
4.18000000000E+09 +1.22430763966E-01 -5.10025345011E-01 -7.05835410478E-04 +1.35404451845E-03 -7.26807493351E-04 +1.45558668908E-03 +2.60777272679E-01 -6.03813010981E-01
4.18500000000E+09 +1.05777949196E-01 -5.03795715085E-01 -3.88105772301E-04 +1.32542030549E-03 -3.76321618110E-04 +1.35311734196E-03 +2.39919047971E-01 -6.05453745869E-01
4.19000000000E+09 +8.79782674584E-02 -4.98676277398E-01 -6.12388387788E-04 +1.19851535581E-03 -6.08735622754E-04 +1.20136725556E-03 +2.18198794074E-01 -6.05334210094E-01
4.19500000000E+09 +6.89267433877E-02 -4.93077047179E-01 -6.58269425104E-04 +1.51807631801E-03 -6.84309912737E-04 +1.56728085303E-03 +1.97047218988E-01 -6.03534841298E-01
4.20000000000E+09 +5.02699322337E-02 -4.88175759903E-01 -3.05569771092E-04 +1.79129689713E-03 -3.10140207467E-04 +1.83702586560E-03 +1.75462346511E-01 -6.01467933344E-01
4.20500000000E+09 +3.12314980503E-02 -4.84136041704E-01 +6.36177326704E-05 +1.69077524198E-03 +5.26502826598E-05 +1.74272205336E-03 +1.53702762638E-01 -5.98287902446E-01
4.21000000000E+09 +1.25676983544E-02 -4.79722300601E-01 -9.52287349548E-05 +1.27175812819E-03 -7.04382846190E-05 +1.30907003225E-03 +1.31531714098E-01 -5.96668037946E-01
4.21500000000E+09 -5.58358216974E-03 -4.73794555060E-01 +7.98656336330E-06 +1.77416843248E-03 +1.06332111021E-05 +1.71335723311E-03 +1.08255781107E-01 -5.94205246388E-01
4.22000000000E+09 -2.13447445031E-02 -4.65949110876E-01 +3.39315960444E-04 +1.71299397334E-03 +3.37927873040E-04 +1.66604734829E-03 +8.58144924765E-02 -5.90038741320E-01
4.22500000000E+09 -3.60693524734E-02 -4.57192499998E-01 +3.46372070282E-04 +1.37707066329E-03 +3.38139694080E-04 +1.43297237939E-03 +6.43430641584E-02 -5.85196373374E-01
4.23000000000E+09 -5.04405012492E-02 -4.46245309094E-01 +3.96291450274E-04 +1.59998696944E-03 +3.28642439367E-04 +1.63820871824E-03 +4.29174812295E-02 -5.78627679714E-01
4.23500000000E+09 -6.41987342674E-02 -4.34625734855E-01 +4.37892160126E-04 +1.60079606958E-03 +4.14800920729E-04 +1.58767524861E-03 +2.13678819183E-02 -5.71551562880E-01
4.24000000000E+09 -7.98375458908E-02 -4.22595741307E-01 +4.80460351711E-04 +1.77348594238E-03 +4.80571444119E-04 +1.78327187446E-03 -7.45980039740E-04 -5.63026789429E-01
4.24500000000E+09 -9.78844491247E-02 -4.09637913515E-01 +1.10357333059E-03 +1.88768585808E-03 +1.06965308908E-03 +1.89487995497E-03 -2.24552194936E-02 -5.54623289025E-01
4.25000000000E+09 -1.17135086899E-01 -3.95588553662E-01 +1.12295504045E-03 +1.74597757743E-03 +1.07226436755E-03 +1.84385360519E-03 -4.47299118573E-02 -5.45904982625E-01
4.25500000000E+09 -1.36572751179E-01 -3.82322452592E-01 +1.71821707547E-03 +1.75846958283E-03 +1.70020699813E-03 +1.79882056493E-03 -6.56363179205E-02 -5.36344044847E-01
4.26000000000E+09 -1.57206412191E-01 -3.70139048500E-01 +1.85966474298E-03 +9.76606731280E-04 +1.91481481659E-03 +1.06137161929E-03 -8.66275426410E-02 -5.26017972263E-01
4.26500000000E+09 -1.76585083779E-01 -3.57126025629E-01 +1.18888269820E-03 +1.04666663509E-03 +1.29178077244E-03 +1.07893560993E-03 -1.07128833321E-01 -5.14229338026E-01
4.27000000000E+09 -1.93425753192E-01 -3.45033175798E-01 +1.86763660266E-03 +1.17347910075E-03 +1.85581183386E-03 +1.17649312583E-03 -1.28426631768E-01 -5.01029321582E-01
4.27500000000E+09 -2.08854475360E-01 -3.33301078558E-01 +1.77042589193E-03 +8.46174587051E-04 +1.85556520507E-03 +8.16206492661E-04 -1.49570552254E-01 -4.86774451208E-01
4.28000000000E+09 -2.22225430336E-01 -3.20295729112E-01 +1.94532881586E-03 +1.00062911753E-03 +2.03407614241E-03 +1.01126053371E-03 -1.70371289635E-01 -4.72633201812E-01
4.28500000000E+09 -2.34182133740E-01 -3.05336734978E-01 +2.46628327837E-03 +7.64787964272E-04 +2.49849758095E-03 +7.77279611056E-04 -1.91374491982E-01 -4.57425145329E-01
4.29000000000E+09 -2.44448925211E-01 -2.89491838082E-01 +2.60571222992E-03 -4.23135339973E-05 +2.71756224578E-03 -1.04904132393E-04 -2.09745257657E-01 -4.41673858962E-01
4.29500000000E+09 -2.56077244915E-01 -2.71524899581E-01 +1.93172469620E-03 -2.41395628674E-04 +2.04258716258E-03 -2.98104965876E-04 -2.27940260967E-01 -4.25811683537E-01
4.30000000000E+09 -2.66896143315E-01 -2.50808374103E-01 +2.12564648323E-03 -3.16808226867E-04 +2.20655611984E-03 -2.84275419093E-04 -2.44465561163E-01 -4.08760547434E-01
4.30500000000E+09 -2.77850777146E-01 -2.30626702397E-01 +1.92815950733E-03 -6.63291011679E-04 +1.98122026804E-03 -7.11736085433E-04 -2.62151884752E-01 -3.91563965675E-01
4.31000000000E+09 -2.90165890101E-01 -2.11061892281E-01 +1.35706558849E-03 -1.62145488844E-04 +1.36431202108E-03 -1.84381151022E-04 -2.79016838290E-01 -3.71922678795E-01
4.31500000000E+09 -3.03415297894E-01 -1.92330468547E-01 +2.22333054098E-03 +2.66245579703E-04 +2.22037429568E-03 +2.73137381885E-04 -2.95466257100E-01 -3.52950266792E-01
4.32000000000E+09 -3.16781720490E-01 -1.74408565827E-01 +2.79943330715E-03 -6.71062430664E-04 +2.84618163342E-03 -6.78368719452E-04 -3.11653121494E-01 -3.32680379923E-01
4.32500000000E+09 -3.28152812578E-01 -1.57238944404E-01 +2.12361288227E-03 -1.23179096253E-03 +2.17239082100E-03 -1.28749244649E-03 -3.25851466524E-01 -3.11137551720E-01
4.33000000000E+09 -3.37666250954E-01 -1.41787663014E-01 +2.41963437285E-03 -1.07741017773E-03 +2.41756440555E-03 -1.10433311252E-03 -3.38464599017E-01 -2.89743577711E-01
4.33500000000E+09 -3.44449800830E-01 -1.24925742196E-01 +2.38221926873E-03 -1.74972678592E-03 +2.33055577120E-03 -1.84646515580E-03 -3.50724096723E-01 -2.67272499074E-01
4.34000000000E+09 -3.46920178464E-01 -1.09124531921E-01 +1.75680524944E-03 -2.30875882498E-03 +1.80408403662E-03 -2.28395598728E-03 -3.62575820930E-01 -2.44605651775E-01
4.34500000000E+09 -3.48924490952E-01 -9.31546564294E-02 +1.21216271828E-03 -1.81096201231E-03 +1.22910746614E-03 -1.79489567060E-03 -3.74444194093E-01 -2.20901480547E-01
4.35000000000E+09 -3.49692431128E-01 -7.42428395852E-02 +1.74060953304E-03 -1.70218751631E-03 +1.70929499199E-03 -1.72138959909E-03 -3.85113075254E-01 -1.98073745894E-01
4.35500000000E+09 -3.50464963232E-01 -5.41298572099E-02 +1.71645097325E-03 -2.09565935626E-03 +1.74797940001E-03 -2.08697676818E-03 -3.95609713596E-01 -1.75633439871E-01
4.36000000000E+09 -3.51849562820E-01 -3.19245500592E-02 +1.65242955910E-03 -2.34926011872E-03 +1.57995040657E-03 -2.40147290961E-03 -4.05309967250E-01 -1.52171570053E-01
4.36500000000E+09 -3.54774518543E-01 -8.68117980702E-03 +1.81240292661E-03 -2.80096779429E-03 +1.84229678203E-03 -2.86077454260E-03 -4.12677159111E-01 -1.27238490697E-01
4.37000000000E+09 -3.58845065982E-01 +1.52173912160E-02 +1.28610014680E-03 -3.51767585047E-03 +1.26842188695E-03 -3.58996083462E-03 -4.18323614801E-01 -1.02616266513E-01
4.37500000000E+09 -3.62468996741E-01 +3.83052083351E-02 +7.43605672308E-04 -4.00045063998E-03 +6.48177568411E-04 -4.07658581843E-03 -4.23224827564E-01 -7.68485677132E-02
4.38000000000E+09 -3.66540238511E-01 +5.77635119873E-02 -2.59565598633E-04 -3.92541318198E-03 -3.50436946799E-04 -3.97586125641E-03 -4.26864251811E-01 -5.19822145674E-02
4.38500000000E+09 -3.70615544743E-01 +7.58596954994E-02 -7.39420399274E-04 -3.44389053400E-03 -7.98263009812E-04 -3.45195882946E-03 -4.30266972583E-01 -2.77874399575E-02
4.39000000000E+09 -3.73145926166E-01 +9.15317030150E-02 -8.83024689607E-04 -3.45433411338E-03 -9.70643247173E-04 -3.49671455825E-03 -4.33661733738E-01 -2.68106654740E-03
4.39500000000E+09 -3.73948762393E-01 +1.05736982666E-01 -1.27661612785E-03 -3.13211112365E-03 -1.33261002983E-03 -3.11684759134E-03 -4.34531285117E-01 +2.11540054346E-02
4.40000000000E+09 -3.72714784366E-01 +1.20596797674E-01 -1.32501038692E-03 -3.35307754016E-03 -1.45821567602E-03 -3.34498227315E-03 -4.35443887699E-01 +4.57583425904E-02
4.40500000000E+09 -3.68717301748E-01 +1.36855539416E-01 -2.20336999766E-03 -3.30877862042E-03 -2.27626082802E-03 -3.29917555771E-03 -4.34759527895E-01 +7.08213379437E-02
4.41000000000E+09 -3.62169780191E-01 +1.53375791254E-01 -2.36721110585E-03 -2.70316277796E-03 -2.40194795478E-03 -2.77405842017E-03 -4.32696505018E-01 +9.58017031486E-02
4.41500000000E+09 -3.55947036716E-01 +1.71496638218E-01 -2.77516751718E-03 -2.61736567597E-03 -2.89728965617E-03 -2.56649110224E-03 -4.30091078568E-01 +1.19983246715E-01
4.42000000000E+09 -3.50099306662E-01 +1.91506324683E-01 -2.98979806689E-03 -2.16747353733E-03 -3.00863002749E-03 -2.10858753964E-03 -4.27754266619E-01 +1.44107359233E-01
4.42500000000E+09 -3.45056348773E-01 +2.13259432842E-01 -3.21886359691E-03 -2.12631545407E-03 -3.27043463759E-03 -2.08963652585E-03 -4.22810933291E-01 +1.68502876996E-01
4.43000000000E+09 -3.40912399588E-01 +2.33671083067E-01 -3.81485171729E-03 -1.91014364579E-03 -3.71822120916E-03 -1.80332610864E-03 -4.17905144047E-01 +1.90669612677E-01
4.43500000000E+09 -3.39385389996E-01 +2.54186189183E-01 -4.00340738980E-03 -7.33291478346E-04 -3.99363802229E-03 -6.79108368154E-04 -4.11833381903E-01 +2.14367183842E-01
4.44000000000E+09 -3.36646388833E-01 +2.73575067670E-01 -3.65493029385E-03 -6.77161548921E-04 -3.61925476925E-03 -6.09444620922E-04 -4.04627326736E-01 +2.36673339575E-01
4.44500000000E+09 -3.33435706666E-01 +2.88642429073E-01 -3.80020318928E-03 -1.52343658849E-04 -3.75740973924E-03 -8.75775698781E-05 -3.97398582108E-01 +2.58306828543E-01
4.45000000000E+09 -3.30495533119E-01 +3.01890923173E-01 -3.55376033928E-03 +9.17907817964E-05 -3.51554825956E-03 +1.37211533760E-04 -3.89764134805E-01 +2.79612645232E-01
4.45500000000E+09 -3.25911905824E-01 +3.13987108847E-01 -3.63997953110E-03 +1.98976993227E-04 -3.65087783108E-03 +2.64744979893E-04 -3.82048770768E-01 +3.00492659540E-01
4.46000000000E+09 -3.19621106504E-01 +3.25325014522E-01 -3.97922509880E-03 +7.08360192875E-04 -3.94259540152E-03 +8.39647171926E-04 -3.72101669806E-01 +3.20508012479E-01
4.46500000000E+09 -3.10681294772E-01 +3.38027616782E-01 -3.58908412777E-03 +1.32868762562E-03 -3.56956319295E-03 +1.43531065607E-03 -3.62421411677E-01 +3.39743592663E-01
4.47000000000E+09 -3.00017264316E-01 +3.51098074222E-01 -3.54943995349E-03 +1.46929307076E-03 -3.50646284873E-03 +1.55228334264E-03 -3.49860630367E-01 +3.59560412897E-01
4.47500000000E+09 -2.88372848838E-01 +3.67075325773E-01 -3.50340178521E-03 +1.98519400263E-03 -3.51739397665E-03 +2.05242905882E-03 -3.38066682517E-01 +3.77188365480E-01
4.48000000000E+09 -2.75757781959E-01 +3.82210577636E-01 -3.29337728983E-03 +2.40958579242E-03 -3.19081926676E-03 +2.48108548781E-03 -3.26302539766E-01 +3.95725071794E-01
4.48500000000E+09 -2.66254923821E-01 +3.98939904286E-01 -3.03222577247E-03 +2.70750935414E-03 -2.83575916655E-03 +2.75802763464E-03 -3.14326649014E-01 +4.12527629941E-01
4.49000000000E+09 -2.56753244512E-01 +4.16223645710E-01 -2.80713977759E-03 +3.28037384228E-03 -2.70063988360E-03 +3.27863204193E-03 -3.02780885935E-01 +4.28854290756E-01
4.49500000000E+09 -2.48799369632E-01 +4.31248598804E-01 -2.32681135145E-03 +3.49372134684E-03 -2.23082649507E-03 +3.42803305697E-03 -2.90912252982E-01 +4.44204705083E-01
4.50000000000E+09 -2.42802467761E-01 +4.44767575423E-01 -1.91144446613E-03 +3.87447531474E-03 -1.82330271879E-03 +3.82253320842E-03 -2.78207594525E-01 +4.59500620917E-01
4.50500000000E+09 -2.37168400806E-01 +4.56248506574E-01 -1.38451066767E-03 +3.86351282427E-03 -1.33967757807E-03 +3.84075377402E-03 -2.64160209574E-01 +4.74745873445E-01
4.51000000000E+09 -2.30442493088E-01 +4.65873866127E-01 -1.27633343822E-03 +4.11893628735E-03 -1.20638178074E-03 +4.08890803888E-03 -2.50117428858E-01 +4.88662730855E-01
4.51500000000E+09 -2.22016294830E-01 +4.73671148003E-01 -4.99235385722E-04 +4.54356893994E-03 -4.33417221800E-04 +4.46759331443E-03 -2.36651143386E-01 +5.02806699931E-01
4.52000000000E+09 -2.11763859043E-01 +4.80067703543E-01 +1.93445045542E-04 +4.20843673118E-03 +2.71535258855E-04 +4.13095369010E-03 -2.22505293862E-01 +5.16249966495E-01
4.52500000000E+09 -1.99403194570E-01 +4.87004271529E-01 +2.97443917679E-04 +4.23976010138E-03 +3.76962122957E-04 +4.14547288639E-03 -2.08149290781E-01 +5.28017872317E-01
4.53000000000E+09 -1.85542259639E-01 +4.94735498089E-01 +1.03461591999E-03 +4.32904015470E-03 +1.11695473534E-03 +4.23201587746E-03 -1.94023757625E-01 +5.38850354575E-01
4.53500000000E+09 -1.70467724397E-01 +5.04384717284E-01 +1.49532473020E-03 +3.87910541716E-03 +1.57733034185E-03 +3.76064424628E-03 -1.79086883463E-01 +5.49378841714E-01
4.54000000000E+09 -1.54698753754E-01 +5.14950880241E-01 +1.93207715844E-03 +3.83689044109E-03 +1.96263245609E-03 +3.70866084238E-03 -1.64010867388E-01 +5.59864249442E-01
4.54500000000E+09 -1.39946024968E-01 +5.25928780979E-01 +2.55042161702E-03 +3.39229320791E-03 +2.49613728300E-03 +3.27324172607E-03 -1.48910341358E-01 +5.70356783435E-01
4.55000000000E+09 -1.27201320848E-01 +5.36180795279E-01 +2.50406318807E-03 +3.06017496319E-03 +2.53876717038E-03 +3.00386462235E-03 -1.33600354670E-01 +5.80719880631E-01
4.55500000000E+09 -1.17307763345E-01 +5.46218145765E-01 +3.11057103796E-03 +2.66551615735E-03 +3.05952576535E-03 +2.58702243792E-03 -1.18734078018E-01 +5.90156089411E-01
4.56000000000E+09 -1.08907047969E-01 +5.56010853768E-01 +3.13540340988E-03 +2.16300659612E-03 +3.09322663212E-03 +2.10223748529E-03 -1.04375052491E-01 +5.98540328780E-01
4.56500000000E+09 -1.00844877716E-01 +5.64063243577E-01 +3.17523337746E-03 +1.90743076026E-03 +3.20127160657E-03 +1.81516689454E-03 -8.92428001908E-02 +6.07088831863E-01
4.57000000000E+09 -9.16598606863E-02 +5.70277580813E-01 +3.25637827385E-03 +1.80939280421E-03 +3.26512198176E-03 +1.68558382470E-03 -7.37706287481E-02 +6.13860636851E-01
