# Hz S RI R 50
! CMT, C1220, 16058040, 17.2.0/1
! Date: 15/08/2018 12:09:51
! Data: Format (Calibration Info)
! Freq                      S11: Re/Im (F2)                       S21: Re/Im (F2)                       S12: Re/Im (F2)                       S22: Re/Im (F2)            
4.00000000000E+09 +6.51428447346E-01 -3.52726711857E-01 -1.33989474827E-05 -5.13455706564E-04 +6.23192629955E-05 -5.37516923539E-04 +7.66050757623E-01 -3.20819560291E-01
4.00500000000E+09 +6.43454517767E-01 -3.58658082658E-01 -4.36425364200E-05 -3.68301079923E-04 -4.52408050986E-05 -3.58519511645E-04 +7.56608264098E-01 -3.31251063968E-01
4.01000000000E+09 +6.34838197573E-01 -3.64340479266E-01 +1.96628857471E-04 -5.16152150815E-04 +2.22648196019E-04 -5.37888768087E-04 +7.47029801931E-01 -3.41500470765E-01
4.01500000000E+09 +6.25114700075E-01 -3.71117346832E-01 -4.30690704572E-05 -8.57128136305E-04 +1.08650649442E-05 -8.62111261618E-04 +7.37565214536E-01 -3.51344475101E-01
4.02000000000E+09 +6.14036544860E-01 -3.78921405937E-01 -4.96881801755E-04 -8.09831491994E-04 -4.52038858623E-04 -8.94380402361E-04 +7.27443852599E-01 -3.61513076524E-01
4.02500000000E+09 +6.02422275842E-01 -3.87541564058E-01 -6.94750198719E-04 -5.41188506440E-04 -7.10363627473E-04 -6.18562860165E-04 +7.16743361501E-01 -3.70884276446E-01
4.03000000000E+09 +5.91198372140E-01 -3.97208428472E-01 -6.94456470563E-04 -2.06025271187E-04 -6.65800361254E-04 -2.90171207537E-04 +7.05908427733E-01 -3.80454414920E-01
4.03500000000E+09 +5.80401773319E-01 -4.08225737550E-01 -3.75776640185E-04 -1.64556118354E-04 -4.27417626878E-04 -2.05855175863E-04 +6.94821207931E-01 -3.90181300036E-01
4.04000000000E+09 +5.69465283688E-01 -4.19365620287E-01 -4.64940527444E-04 -1.51537199501E-04 -4.37937305835E-04 -1.80406438724E-04 +6.83739858673E-01 -4.00162070145E-01
4.04500000000E+09 +5.59121799599E-01 -4.29744192354E-01 -3.78237506860E-04 -2.33497802462E-04 -4.13489708553E-04 -2.83558577283E-04 +6.71618138125E-01 -4.09997616945E-01
4.05000000000E+09 +5.48150691279E-01 -4.38594309503E-01 -3.60500571104E-04 -3.09034692456E-04 -4.33540571042E-04 -3.34321092498E-04 +6.59424513149E-01 -4.18722372442E-01
4.05500000000E+09 +5.37005061681E-01 -4.44931914210E-01 -6.51022897561E-04 -4.09934895478E-04 -7.55215709748E-04 -4.38356507896E-04 +6.47305642249E-01 -4.27253117323E-01
4.06000000000E+09 +5.25843872742E-01 -4.49573094515E-01 -7.63405874640E-04 -1.58748917909E-04 -8.39259831023E-04 -2.23973567596E-04 +6.34528601684E-01 -4.35465224908E-01
4.06500000000E+09 +5.13852908442E-01 -4.53073013853E-01 -8.94898222065E-04 +6.34966726794E-05 -9.73889550008E-04 +6.57220007541E-05 +6.21262554612E-01 -4.43321581852E-01
4.07000000000E+09 +5.01229824446E-01 -4.56623780860E-01 -7.52119684222E-04 +3.52318879774E-04 -7.90385012195E-04 +4.01315724976E-04 +6.07628238598E-01 -4.51151375799E-01
4.07500000000E+09 +4.86730949442E-01 -4.61246944420E-01 -5.00447490295E-04 +3.79103254373E-04 -5.36886813700E-04 +4.16607213914E-04 +5.93859153400E-01 -4.58998029259E-01
4.08000000000E+09 +4.70438399587E-01 -4.66249139717E-01 -5.07086426270E-04 +2.92296465917E-04 -5.64333543725E-04 +2.97123509613E-04 +5.80520011512E-01 -4.66615619478E-01
4.08500000000E+09 +4.53617621384E-01 -4.71523148610E-01 -4.05188036219E-04 +4.23670911123E-04 -4.47032065114E-04 +4.39899719426E-04 +5.66748313969E-01 -4.74706565235E-01
4.09000000000E+09 +4.36713529750E-01 -4.78092508730E-01 -1.48849783295E-04 +1.65289704593E-04 -1.70067813642E-04 +1.75014609058E-04 +5.52252405858E-01 -4.81316269547E-01
4.09500000000E+09 +4.19976206654E-01 -4.85153078443E-01 -6.44563740303E-04 -4.98226357431E-05 -6.47770354300E-04 -7.56821670965E-05 +5.38430800716E-01 -4.87936082554E-01
4.10000000000E+09 +4.02423735067E-01 -4.91762503631E-01 -8.05913144320E-04 +3.03284517793E-04 -8.50422413818E-04 +3.23696298217E-04 +5.22439427759E-01 -4.94584412028E-01
4.10500000000E+09 +3.85968345125E-01 -4.96134487207E-01 -8.20206898596E-04 +7.55651470450E-04 -8.62667589612E-04 +7.52081354652E-04 +5.06406683971E-01 -5.00126985191E-01
4.11000000000E+09 +3.70119077835E-01 -4.98794081790E-01 -5.12600315538E-04 +1.07475142672E-03 -4.70109349198E-04 +1.05555108803E-03 +4.89960720322E-01 -5.06018516861E-01
4.11500000000E+09 +3.55504071976E-01 -5.00195618307E-01 +2.28331919679E-04 +1.02331690957E-03 +2.28975750457E-04 +1.04686957789E-03 +4.73576224795E-01 -5.11321080598E-01
4.12000000000E+09 +3.40251987463E-01 -5.01091011578E-01 +2.36423133325E-04 +2.91737161693E-04 +2.40893240270E-04 +2.85109479389E-04 +4.57541438679E-01 -5.17003319394E-01
4.12500000000E+09 +3.24166275880E-01 -5.01782128853E-01 -2.67984235796E-04 +3.31257962518E-04 -1.91144896910E-04 +3.22212695709E-04 +4.39903058544E-01 -5.22047766538E-01
4.13000000000E+09 +3.06276158702E-01 -5.02998006165E-01 -4.03695613030E-04 +4.96538414246E-04 -3.77967356466E-04 +5.06048156904E-04 +4.22870649201E-01 -5.25398857254E-01
4.13500000000E+09 +2.86262125381E-01 -5.04361675145E-01 -4.08072162841E-04 +8.08024187735E-04 -4.38050657745E-04 +7.61189152920E-04 +4.05357836906E-01 -5.29156617924E-01
4.14000000000E+09 +2.66136539563E-01 -5.05474643074E-01 -4.89481534119E-05 +1.26423670635E-03 -6.69151311821E-05 +1.23819787435E-03 +3.86653773716E-01 -5.32103549316E-01
4.14500000000E+09 +2.46205353280E-01 -5.08464913351E-01 +5.60794955746E-04 +1.08124469503E-03 +5.06172339110E-04 +1.04399687311E-03 +3.68351746626E-01 -5.34699822125E-01
4.15000000000E+09 +2.25928421678E-01 -5.12719733168E-01 +6.52798386443E-04 +6.36909559839E-04 +6.05982337057E-04 +7.03160120357E-04 +3.50170011198E-01 -5.37045349166E-01
4.15500000000E+09 +2.05698717218E-01 -5.16710636672E-01 +5.16466531583E-04 +5.61845218463E-04 +4.91067570355E-04 +5.50020002018E-04 +3.31978799133E-01 -5.38506011671E-01
4.16000000000E+09 +1.86369254360E-01 -5.19138839261E-01 +5.56942417535E-04 +5.03013260366E-04 +5.16052327365E-04 +5.04973621737E-04 +3.14240220039E-01 -5.39547143088E-01
4.16500000000E+09 +1.68449417501E-01 -5.19899523487E-01 +5.07228573802E-04 +3.96902145013E-04 +4.23136047269E-04 +4.26265718715E-04 +2.95585065282E-01 -5.39821959801E-01
4.17000000000E+09 +1.51988928529E-01 -5.18389860544E-01 +6.02012102349E-04 +5.70744822981E-04 +5.97793236106E-04 +6.04766094591E-04 +2.76822521881E-01 -5.38983826583E-01
4.17500000000E+09 +1.36900316486E-01 -5.15043359097E-01 +5.81267479846E-04 +2.19777932586E-04 +5.86918996437E-04 +2.49495605533E-04 +2.57941210576E-01 -5.37806806203E-01
4.18000000000E+09 +1.21727054778E-01 -5.11016022315E-01 +4.75329976137E-04 +4.59915824947E-04 +4.78426317265E-04 +5.22506426525E-04 +2.38471316595E-01 -5.36531059095E-01
4.18500000000E+09 +1.05624348149E-01 -5.06118142303E-01 +6.74508823433E-04 +5.62276536183E-04 +6.98839469372E-04 +5.94936803638E-04 +2.19242564627E-01 -5.34552966094E-01
4.19000000000E+09 +8.84332222319E-02 -5.00528222336E-01 +1.04752820928E-03 +2.83993575639E-04 +9.82404395290E-04 +3.26270650058E-04 +1.99864289174E-01 -5.32377476693E-01
4.19500000000E+09 +7.00461651038E-02 -4.95217159691E-01 +8.48814890349E-04 +3.07364071825E-05 +9.42787907318E-04 +9.29700389446E-05 +1.80688284927E-01 -5.29122114886E-01
4.20000000000E+09 +5.07656704697E-02 -4.90153164946E-01 +8.25255038379E-04 +6.67510912142E-05 +8.80482652485E-04 +6.82595697346E-05 +1.60980749918E-01 -5.25793867218E-01
4.20500000000E+09 +3.11659053092E-02 -4.85815315905E-01 +1.01087155355E-03 -1.01147845722E-04 +1.10670771596E-03 -1.11273046982E-04 +1.40723915620E-01 -5.20600462600E-01
4.21000000000E+09 +1.17533749242E-02 -4.80774918608E-01 +6.40202400813E-04 -4.84540051101E-04 +7.47583764253E-04 -4.79769609149E-04 +1.21027708463E-01 -5.15211643809E-01
4.21500000000E+09 -6.75870507833E-03 -4.74947361081E-01 +5.08123111586E-04 -4.91355405679E-05 +5.67437059917E-04 -6.37905765881E-05 +1.00962885959E-01 -5.09546659926E-01
4.22000000000E+09 -2.29459765465E-02 -4.68146584229E-01 +9.91164042361E-04 +6.08929017013E-05 +1.05878148753E-03 +1.57726271896E-05 +8.15746506740E-02 -5.02174061081E-01
4.22500000000E+09 -3.82557793368E-02 -4.60580931921E-01 +1.11268191171E-03 -5.09568779764E-04 +1.14897218616E-03 -5.47693643280E-04 +6.30123671392E-02 -4.95138994720E-01
4.23000000000E+09 -5.31094667967E-02 -4.51602055149E-01 +8.46539379705E-04 -8.28904919124E-04 +8.32929557642E-04 -8.77458599362E-04 +4.41136321762E-02 -4.87325453952E-01
4.23500000000E+09 -6.82545355506E-02 -4.40466767770E-01 +2.52228615126E-04 -7.80586551084E-04 +2.55533055007E-04 -8.12717081314E-04 +2.56863691543E-02 -4.78138690364E-01
4.24000000000E+09 -8.36556557231E-02 -4.28351584196E-01 +4.40915053753E-04 -3.31111603366E-04 +4.40859044183E-04 -4.18729946245E-04 +7.45235868438E-03 -4.68703028962E-01
4.24500000000E+09 -1.01109685066E-01 -4.15542865096E-01 +7.86643983299E-04 -4.57249679022E-04 +7.96794526923E-04 -5.15816781185E-04 -1.11339686796E-02 -4.57929392716E-01
4.25000000000E+09 -1.19999122476E-01 -4.01783012190E-01 +8.41269347499E-04 -9.95359738403E-04 +8.00797888928E-04 -1.02311233067E-03 -2.83462641276E-02 -4.46366919803E-01
4.25500000000E+09 -1.39295308559E-01 -3.88150495073E-01 +4.19221740260E-04 -1.17307716724E-03 +3.16371358759E-04 -1.22111703865E-03 -4.57570183564E-02 -4.35185421755E-01
4.26000000000E+09 -1.59389561017E-01 -3.75816774260E-01 +1.37341256756E-04 -1.19069997857E-03 +1.00443879634E-04 -1.14376909098E-03 -6.31053944241E-02 -4.22128663644E-01
4.26500000000E+09 -1.79165532446E-01 -3.63523412049E-01 +6.30729970702E-05 -9.55361354981E-04 +5.18828711555E-05 -1.01635858726E-03 -7.83267264870E-02 -4.08782690604E-01
4.27000000000E+09 -1.97447189903E-01 -3.51409539016E-01 -2.32211651105E-05 -1.15570168899E-03 -8.36823191087E-05 -1.23518466035E-03 -9.43876614379E-02 -3.95913274978E-01
4.27500000000E+09 -2.13245792740E-01 -3.39361283316E-01 -2.80906130461E-04 -9.14562330448E-04 -2.82276536921E-04 -9.42556129610E-04 -1.10482871733E-01 -3.81612814781E-01
4.28000000000E+09 -2.27156896331E-01 -3.26867059236E-01 -2.69241927192E-04 -8.76600683921E-04 -3.17203207424E-04 -8.39617922948E-04 -1.25852749124E-01 -3.67547338536E-01
4.28500000000E+09 -2.39632437550E-01 -3.12728831764E-01 -2.81826923294E-04 -8.45971283482E-04 -2.85358045756E-04 -8.07150656621E-04 -1.41765846790E-01 -3.53116834290E-01
4.29000000000E+09 -2.49942192583E-01 -2.96488079048E-01 -2.32935745141E-04 -8.71138440346E-04 -2.34965516716E-04 -8.79744185622E-04 -1.57320310472E-01 -3.37666192788E-01
4.29500000000E+09 -2.60206273879E-01 -2.79147328955E-01 -5.35012866797E-04 -1.19365519934E-03 -5.31516675923E-04 -1.18391725946E-03 -1.71574777946E-01 -3.20928047525E-01
4.30000000000E+09 -2.70602203790E-01 -2.60188691655E-01 -8.20210384305E-04 -8.52303129816E-04 -8.42431015777E-04 -8.58488956940E-04 -1.84204754065E-01 -3.03768231731E-01
4.30500000000E+09 -2.82102695687E-01 -2.40021511318E-01 -9.47401786384E-04 -8.58816319724E-04 -9.21567391917E-04 -8.62111957739E-04 -1.95955200470E-01 -2.86645730913E-01
4.31000000000E+09 -2.94719812661E-01 -2.19924793249E-01 -9.87992434715E-04 -7.09454442448E-04 -9.91689385584E-04 -6.21989478231E-04 -2.07059001414E-01 -2.68894625895E-01
4.31500000000E+09 -3.08345459209E-01 -2.00100451193E-01 -1.21322141621E-03 -5.05938429277E-04 -1.18169125266E-03 -5.28572542577E-04 -2.17692985163E-01 -2.51445640754E-01
4.32000000000E+09 -3.22303402880E-01 -1.80365259618E-01 -1.30344103053E-03 -2.79777525789E-04 -1.30423773629E-03 -2.66620557385E-04 -2.28755884599E-01 -2.32915043266E-01
4.32500000000E+09 -3.33809827234E-01 -1.61537905721E-01 -1.08146933425E-03 +1.98574163535E-04 -1.07946833521E-03 +2.18615042498E-04 -2.37674980039E-01 -2.13631894460E-01
4.33000000000E+09 -3.43069004429E-01 -1.44894783357E-01 -9.38902087278E-04 +4.55881412277E-05 -9.39579769114E-04 +6.47334578955E-05 -2.46674653690E-01 -1.95083263744E-01
4.33500000000E+09 -3.50651890981E-01 -1.28959498805E-01 -7.72229778295E-04 +1.40481026110E-04 -8.08970185288E-04 +1.65136748345E-04 -2.55029807253E-01 -1.74988495167E-01
4.34000000000E+09 -3.55747691540E-01 -1.12934169828E-01 -8.90003669521E-04 -9.82998969314E-05 -8.60066674081E-04 -9.37565330930E-05 -2.61734619157E-01 -1.54993677061E-01
4.34500000000E+09 -3.58988299958E-01 -9.64279396635E-02 -1.09543557905E-03 +1.53221407572E-04 -1.05407424616E-03 +1.85429602307E-04 -2.68658245688E-01 -1.35239080855E-01
4.35000000000E+09 -3.60874967859E-01 -7.79819288346E-02 -1.08999813363E-03 +5.04753411090E-04 -1.05803013973E-03 +4.50264431179E-04 -2.74689450739E-01 -1.15617807653E-01
4.35500000000E+09 -3.63054806016E-01 -5.70794165826E-02 -7.81671541741E-04 +6.12296621724E-04 -7.87227686679E-04 +6.26638265907E-04 -2.80718167592E-01 -9.61393268334E-02
4.36000000000E+09 -3.64484224098E-01 -3.43351286235E-02 -7.70463631555E-04 +3.84702445129E-04 -8.01209346737E-04 +4.12131658298E-04 -2.85623001760E-01 -7.66596579560E-02
4.36500000000E+09 -3.66405319060E-01 -1.06464910810E-02 -9.06437649366E-04 +7.35918454071E-04 -9.45526338811E-04 +7.43205492963E-04 -2.89379376670E-01 -5.68538277401E-02
4.37000000000E+09 -3.69496459573E-01 +1.23316179122E-02 -6.26184397487E-04 +8.13515616636E-04 -6.67261801721E-04 +7.43038566785E-04 -2.92118265385E-01 -3.80989795862E-02
4.37500000000E+09 -3.73730937326E-01 +3.42319098592E-02 -5.72826281886E-04 +9.66403978759E-04 -5.55330620426E-04 +9.34128009341E-04 -2.95348966321E-01 -1.82510353206E-02
4.38000000000E+09 -3.78693968478E-01 +5.42707974624E-02 -4.43751767767E-04 +9.41305952177E-04 -4.92723132257E-04 +9.41914300879E-04 -2.96897114288E-01 +2.22270801572E-03
4.38500000000E+09 -3.83191593872E-01 +7.25761335265E-02 -3.69761290890E-04 +1.08174624295E-03 -4.41148155241E-04 +1.08267671447E-03 -2.98181150852E-01 +2.24108897754E-02
4.39000000000E+09 -3.86995857197E-01 +8.92621948533E-02 -1.58023164710E-04 +9.99604049564E-04 -2.02984815636E-04 +9.76369108895E-04 -2.98760133270E-01 +4.28576204408E-02
4.39500000000E+09 -3.87295110237E-01 +1.05028035163E-01 -2.82448980024E-05 +1.23666527544E-03 -3.53019033313E-05 +1.28533114827E-03 -2.99300677676E-01 +6.21409101554E-02
4.40000000000E+09 -3.85064782860E-01 +1.19848500348E-01 +2.47248912873E-04 +9.16825701660E-04 +2.55239659098E-04 +9.43485286674E-04 -2.98891336656E-01 +8.25496077659E-02
4.40500000000E+09 -3.80840425117E-01 +1.34525621544E-01 +1.31654721606E-04 +8.88460651699E-04 +1.63441120816E-04 +8.92692763893E-04 -2.96558247144E-01 +1.01956978719E-01
4.41000000000E+09 -3.75802452030E-01 +1.51066827260E-01 +1.53803019433E-04 +1.09043133558E-03 +1.95275362144E-04 +1.13076691090E-03 -2.94361909294E-01 +1.20861324259E-01
4.41500000000E+09 -3.69453801884E-01 +1.70059147295E-01 +6.44210529352E-04 +9.11164227870E-04 +6.63029500084E-04 +9.64157666576E-04 -2.90592387473E-01 +1.40236172633E-01
4.42000000000E+09 -3.62832217699E-01 +1.91211327699E-01 +6.89476020576E-04 +7.76724264364E-04 +6.48889792355E-04 +7.77323917774E-04 -2.86600389971E-01 +1.59320491603E-01
4.42500000000E+09 -3.56317818121E-01 +2.12937544436E-01 +8.45260248829E-04 +3.95250799324E-04 +8.36082065825E-04 +3.87191782821E-04 -2.82139142959E-01 +1.77912579783E-01
4.43000000000E+09 -3.51036412522E-01 +2.34331930026E-01 +4.41241598202E-04 +3.31445581416E-04 +4.90502651524E-04 +3.35280655915E-04 -2.77640336231E-01 +1.95965849253E-01
4.43500000000E+09 -3.47234514411E-01 +2.54641919901E-01 +5.06760103177E-04 +3.63512034936E-04 +4.60572872319E-04 +3.73867617159E-04 -2.73691617667E-01 +2.13943999851E-01
4.44000000000E+09 -3.44360641008E-01 +2.73541874908E-01 +4.55012770407E-04 +4.62996490394E-04 +4.58387789475E-04 +4.85394064150E-04 -2.68381301404E-01 +2.32751271014E-01
4.44500000000E+09 -3.40924046442E-01 +2.90083641968E-01 +7.92190871704E-04 +6.07052337233E-04 +8.31032482485E-04 +6.23626190412E-04 -2.60917175114E-01 +2.49878680636E-01
4.45000000000E+09 -3.36742643934E-01 +3.03868602619E-01 +9.56077903191E-04 +1.42964782082E-04 +9.43593937704E-04 +1.07865088135E-04 -2.53811356786E-01 +2.65604864373E-01
4.45500000000E+09 -3.31461832346E-01 +3.16415729628E-01 +7.63744260285E-04 +6.52622125636E-05 +7.41933740579E-04 +7.83747287961E-06 -2.46163955692E-01 +2.81547627704E-01
4.46000000000E+09 -3.23765070286E-01 +3.28157538730E-01 +7.18825177927E-04 -1.60598921996E-04 +6.75766391107E-04 -2.29124055840E-04 -2.38523031692E-01 +2.96751320077E-01
4.46500000000E+09 -3.14561540470E-01 +3.40381571680E-01 +4.72176582336E-04 -6.06375008710E-05 +4.57072437029E-04 -8.58273844053E-05 -2.30719275232E-01 +3.12174909033E-01
4.47000000000E+09 -3.03358376399E-01 +3.54619900691E-01 +6.25892376550E-04 -2.86773453303E-04 +6.21417524508E-04 -2.73187557651E-04 -2.22216821292E-01 +3.27658430464E-01
4.47500000000E+09 -2.90493468608E-01 +3.70230067897E-01 +2.33274584091E-04 -8.98395308815E-05 +1.96690091361E-04 -1.39541623946E-04 -2.13839542948E-01 +3.42399537512E-01
4.48000000000E+09 -2.77438961863E-01 +3.86633851960E-01 +3.96395305365E-04 +1.34943710038E-04 +3.66725048791E-04 +1.55632227600E-04 -2.04841019804E-01 +3.57403674022E-01
4.48500000000E+09 -2.65805179602E-01 +4.03455461343E-01 +5.82632310240E-04 +2.47995525423E-04 +5.71416693701E-04 +2.49562915687E-04 -1.95073233095E-01 +3.71336997424E-01
4.49000000000E+09 -2.55931923588E-01 +4.20094532003E-01 +9.22290381806E-04 +1.61527522568E-05 +8.73276323824E-04 +4.57433378493E-05 -1.85381284901E-01 +3.84763083798E-01
4.49500000000E+09 -2.48521256351E-01 +4.35578445726E-01 +1.07584194407E-03 -5.26945668612E-04 +1.01205328480E-03 -4.48620614023E-04 -1.75349434164E-01 +3.97971081959E-01
4.50000000000E+09 -2.42700305652E-01 +4.50049413900E-01 +4.32405016131E-04 -4.96591060711E-04 +4.28193595606E-04 -5.17454845672E-04 -1.64743310870E-01 +4.10880231539E-01
4.50500000000E+09 -2.36876777273E-01 +4.62626523150E-01 +6.53980082893E-04 -6.78079997501E-04 +6.05156978132E-04 -6.41788004963E-04 -1.54284631155E-01 +4.23351701223E-01
4.51000000000E+09 -2.30435711242E-01 +4.72277871502E-01 +1.46852896433E-04 -6.20357397225E-04 +1.46889126893E-04 -5.99858084280E-04 -1.42895766476E-01 +4.35172071846E-01
4.51500000000E+09 -2.22729694639E-01 +4.80331434004E-01 +1.18350863954E-04 -3.85665388033E-04 +8.62426558784E-05 -3.81858173120E-04 -1.32551807177E-01 +4.46244553121E-01
4.52000000000E+09 -2.12937011576E-01 +4.87191347413E-01 +1.30133350809E-04 -1.05120651633E-04 +2.23686808864E-04 -1.24635180106E-04 -1.21752491573E-01 +4.57494220661E-01
4.52500000000E+09 -2.01120138146E-01 +4.93893940827E-01 +4.53426839652E-04 -1.15286791743E-04 +4.47949264630E-04 -1.18501852860E-04 -1.09875481022E-01 +4.68043659476E-01
4.53000000000E+09 -1.87519887183E-01 +5.01465940805E-01 +7.03091567954E-04 -5.29054716435E-04 +7.13135859572E-04 -5.93125688170E-04 -9.81639752599E-02 +4.77111985004E-01
4.53500000000E+09 -1.72524671869E-01 +5.10509086138E-01 +3.17868534626E-04 -6.99916395451E-04 +2.94489631575E-04 -6.85469957266E-04 -8.61398278520E-02 +4.86764192785E-01
4.54000000000E+09 -1.57149112474E-01 +5.20628018985E-01 +2.46677173732E-04 -7.27680911666E-04 +2.83315806048E-04 -7.71052947358E-04 -7.36446407734E-02 +4.95615912701E-01
4.54500000000E+09 -1.42192459631E-01 +5.31220392977E-01 +2.81790377678E-05 -8.09467756098E-04 +7.02962891845E-06 -8.04024581329E-04 -6.21549501524E-02 +5.04384805894E-01
4.55000000000E+09 -1.29329543511E-01 +5.41717772871E-01 -1.34072837224E-04 -8.20217559504E-04 -8.23404783561E-05 -8.35789880627E-04 -4.96049476819E-02 +5.13375660575E-01
4.55500000000E+09 -1.18427240579E-01 +5.51603517024E-01 -4.14246442043E-04 -5.43165395599E-04 -4.59335967518E-04 -5.27860333621E-04 -3.79055041395E-02 +5.21685772441E-01
4.56000000000E+09 -1.09155824056E-01 +5.60033589489E-01 -2.85494187726E-04 -1.40594366458E-04 -2.44021581558E-04 -1.22791404593E-04 -2.54394661245E-02 +5.29463314405E-01
4.56500000000E+09 -1.00802000441E-01 +5.66906896424E-01 +2.47102426530E-04 -3.85000811395E-04 +2.49084985131E-04 -3.55784528507E-04 -1.35230070356E-02 +5.36476292628E-01
4.57000000000E+09 -9.24859630560E-02 +5.72107168848E-01 +5.31377667678E-05 -8.24195353914E-04 +2.51318740660E-05 -8.48811652365E-04 -1.50276493199E-03 +5.43655661944E-01
