# Hz S RI R 50
! CMT, C1220, 16058040, 17.2.0/1
! Date: 15/08/2018 12:30:51
! Data: Format (Calibration Info)
! Freq                      S11: Re/Im (F2)                       S21: Re/Im (F2)                       S12: Re/Im (F2)                       S22: Re/Im (F2)            
4.00000000000E+09 +6.59606498740E-01 -3.58016429992E-01 -6.85179184646E-04 -3.87204122499E-04 -6.63413642360E-04 -4.34219549816E-04 +7.83456462443E-01 -3.17336951413E-01
4.00500000000E+09 +6.52085106115E-01 -3.64675739621E-01 -4.78983128480E-04 -1.82990113752E-04 -4.87556375961E-04 -2.38975948184E-04 +7.74998164353E-01 -3.29110841902E-01
4.01000000000E+09 +6.43185204404E-01 -3.70935255443E-01 -6.19984921785E-04 -2.60002237612E-04 -5.37338708505E-04 -3.18817726154E-04 +7.66253302076E-01 -3.41032069159E-01
4.01500000000E+09 +6.34076748011E-01 -3.77312180643E-01 -4.45738308776E-04 -8.30368785462E-06 -4.24244783010E-04 -2.34206510505E-05 +7.57583437526E-01 -3.52095618660E-01
4.02000000000E+09 +6.24065499588E-01 -3.85662150423E-01 -3.26932786994E-04 -2.60426030157E-04 -3.60450382149E-04 -2.73104513101E-04 +7.48517998920E-01 -3.62799277461E-01
4.02500000000E+09 +6.12985163417E-01 -3.95114859404E-01 -5.14551829766E-04 -2.55992087864E-04 -4.94293048060E-04 -3.05649848642E-04 +7.38905450023E-01 -3.72787933162E-01
4.03000000000E+09 +6.01279027195E-01 -4.05027953373E-01 -6.48011475402E-04 -2.50184113950E-04 -6.79183642465E-04 -2.58592783175E-04 +7.29037265746E-01 -3.83255327491E-01
4.03500000000E+09 +5.90107593992E-01 -4.15078417345E-01 -6.58807242151E-04 -7.13746808529E-05 -7.03848051734E-04 -1.27781991500E-04 +7.18125619034E-01 -3.94212512756E-01
4.04000000000E+09 +5.79468251357E-01 -4.25475317401E-01 -7.21448881683E-04 +1.46853133826E-04 -7.67292649800E-04 +1.01189104707E-04 +7.07245478098E-01 -4.05547471362E-01
4.04500000000E+09 +5.67973397891E-01 -4.35504196377E-01 -4.72035800496E-04 +3.54928158184E-04 -5.78311471898E-04 +3.39710738022E-04 +6.96542362764E-01 -4.16797764053E-01
4.05000000000E+09 +5.56784601384E-01 -4.43146586108E-01 -2.19909055522E-04 +2.76550804881E-04 -2.96574195188E-04 +3.16455298281E-04 +6.85472911216E-01 -4.27457489965E-01
4.05500000000E+09 +5.45697605587E-01 -4.50224160823E-01 -2.05109173955E-04 +9.87751313634E-05 -2.05406049314E-04 +7.66913457898E-05 +6.74144473239E-01 -4.36873376434E-01
4.06000000000E+09 +5.33114266468E-01 -4.55678313215E-01 -2.75963677393E-04 -1.16197478153E-04 -2.78512881113E-04 -5.59501844182E-05 +6.62980181565E-01 -4.46098049307E-01
4.06500000000E+09 +5.20632250495E-01 -4.59669785848E-01 -4.89734772053E-04 -1.13507506008E-04 -5.62094033210E-04 -1.19240331375E-04 +6.50434904034E-01 -4.55408861038E-01
4.07000000000E+09 +5.07129125399E-01 -4.64769490797E-01 -5.85308874187E-04 -3.54010887625E-06 -5.97479977942E-04 +1.99637533566E-05 +6.37286550696E-01 -4.65298456218E-01
4.07500000000E+09 +4.92050643457E-01 -4.69943939664E-01 -6.65250115152E-04 +6.35713399718E-05 -6.88496829236E-04 +3.97247865761E-05 +6.23621954823E-01 -4.75605097718E-01
4.08000000000E+09 +4.75700891978E-01 -4.75615045535E-01 -7.84117043310E-04 +3.19092463029E-04 -8.07602207080E-04 +3.29464879238E-04 +6.10147576820E-01 -4.85348417409E-01
4.08500000000E+09 +4.59268880061E-01 -4.81503965038E-01 -5.65211958399E-04 +6.59733881115E-04 -6.10978372967E-04 +6.43962907906E-04 +5.97019876889E-01 -4.95065171329E-01
4.09000000000E+09 +4.42986666041E-01 -4.88564007114E-01 -3.86859318709E-04 +3.75728711313E-04 -4.20227204872E-04 +3.67643592591E-04 +5.83092943107E-01 -5.03925144703E-01
4.09500000000E+09 +4.26540770050E-01 -4.95875404199E-01 -3.88342981640E-04 +3.80123852088E-04 -3.60164825772E-04 +3.51606994116E-04 +5.68852650452E-01 -5.11608538681E-01
4.10000000000E+09 +4.09516363022E-01 -5.02093161394E-01 -5.71284986929E-04 +3.33715251379E-04 -5.08824945326E-04 +3.06217355243E-04 +5.53966002859E-01 -5.19763671305E-01
4.10500000000E+09 +3.93361955931E-01 -5.06842727235E-01 -8.37645305824E-04 +4.86199357298E-04 -8.03683768260E-04 +4.66372334039E-04 +5.37916599473E-01 -5.27783697869E-01
4.11000000000E+09 +3.77487947158E-01 -5.10221223632E-01 -6.11385989361E-04 +9.44413968361E-04 -6.06208970901E-04 +9.47942540772E-04 +5.21328792624E-01 -5.35763278425E-01
4.11500000000E+09 +3.61482653449E-01 -5.12126527674E-01 -4.31125166547E-04 +1.02673664204E-03 -4.08943889337E-04 +9.72119244717E-04 +5.05119496109E-01 -5.43356782597E-01
4.12000000000E+09 +3.44985782719E-01 -5.13168095187E-01 -2.02750981927E-04 +1.17053999446E-03 -2.74400181741E-04 +1.12410073058E-03 +4.88867543203E-01 -5.50774328269E-01
4.12500000000E+09 +3.28258587239E-01 -5.13466685593E-01 +8.68638528011E-05 +1.22671963805E-03 +6.22200134187E-05 +1.20494936928E-03 +4.72146592177E-01 -5.57165163775E-01
4.13000000000E+09 +3.10177555227E-01 -5.15307075539E-01 +3.55405299701E-04 +8.08870203282E-04 +3.12942881372E-04 +7.86355271625E-04 +4.55216795132E-01 -5.63393510285E-01
4.13500000000E+09 +2.90512837830E-01 -5.16993775891E-01 +2.34166455853E-04 +7.76396691736E-04 +1.25900622418E-04 +7.92118593464E-04 +4.36903856312E-01 -5.69152362543E-01
4.14000000000E+09 +2.71229753930E-01 -5.19553989308E-01 +1.99561792363E-04 +7.58031268139E-04 +1.50991544348E-04 +8.77405871713E-04 +4.18251578616E-01 -5.74728611857E-01
4.14500000000E+09 +2.50838993350E-01 -5.23846312514E-01 +1.07378425061E-04 +8.53420239701E-04 +1.51354280511E-05 +9.43903459555E-04 +3.99264714666E-01 -5.80427845593E-01
4.15000000000E+09 +2.30476704254E-01 -5.26857447379E-01 +2.85943855564E-04 +1.23586199627E-03 +2.35316097904E-04 +1.34277955760E-03 +3.81135580073E-01 -5.85479599295E-01
4.15500000000E+09 +2.11660939413E-01 -5.29971578362E-01 +7.48823914941E-04 +1.22377946991E-03 +7.54097390136E-04 +1.31486778309E-03 +3.62533579342E-01 -5.89997244407E-01
4.16000000000E+09 +1.93590372902E-01 -5.32423599952E-01 +1.14982424503E-03 +9.60547425323E-04 +1.13135906389E-03 +1.08599484237E-03 +3.44235211083E-01 -5.92656152682E-01
4.16500000000E+09 +1.76007331009E-01 -5.32485764200E-01 +1.32358638804E-03 +4.49368339671E-04 +1.35844508550E-03 +5.41916959090E-04 +3.25338326723E-01 -5.95634191789E-01
4.17000000000E+09 +1.59484231230E-01 -5.30749643822E-01 +9.07145914919E-04 +3.29058105612E-04 +9.72223432557E-04 +3.94648566968E-04 +3.05407295411E-01 -5.97894998814E-01
4.17500000000E+09 +1.43936339398E-01 -5.26875038226E-01 +1.14232341644E-03 +3.17125739031E-04 +1.20967436426E-03 +3.63976570792E-04 +2.84239952340E-01 -5.99912998950E-01
4.18000000000E+09 +1.27680343657E-01 -5.23031006076E-01 +1.04980444973E-03 -2.89244900873E-04 +1.18281188952E-03 -2.54198705720E-04 +2.63465845914E-01 -6.01593010096E-01
4.18500000000E+09 +1.09634149227E-01 -5.17598626807E-01 +2.95938501566E-04 +1.55057876376E-04 +4.07269667569E-04 +1.88034787505E-04 +2.42525106355E-01 -6.02702680404E-01
4.19000000000E+09 +9.11357670739E-02 -5.11780467286E-01 +9.57024793571E-04 +6.76308704740E-04 +1.05902130328E-03 +6.44493166997E-04 +2.22059756295E-01 -6.02727282503E-01
4.19500000000E+09 +7.12985786318E-02 -5.06681641626E-01 +1.32068049571E-03 +6.33560408028E-05 +1.41152749192E-03 -2.43328490736E-05 +2.01021838813E-01 -6.01423330949E-01
4.20000000000E+09 +5.09996740331E-02 -5.01103201388E-01 +1.11348238526E-03 -1.01971027197E-05 +1.20720515011E-03 -8.00227720951E-05 +1.80372361359E-01 -5.99460009794E-01
4.20500000000E+09 +3.14910478401E-02 -4.96338504598E-01 +1.54533745544E-03 -3.92122655896E-04 +1.61363213883E-03 -4.54875514757E-04 +1.58087353746E-01 -5.97327221374E-01
4.21000000000E+09 +1.23303514679E-02 -4.92185893318E-01 +1.08062593333E-03 -1.00207132474E-03 +1.11909742726E-03 -1.09332645797E-03 +1.35796299126E-01 -5.94782522124E-01
4.21500000000E+09 -5.90691080232E-03 -4.86949769711E-01 +6.48476903085E-04 -6.47154904242E-04 +6.53250412096E-04 -7.20136105180E-04 +1.13769568196E-01 -5.92174266304E-01
4.22000000000E+09 -2.28429089076E-02 -4.80392745715E-01 +7.03679646052E-04 -7.40494915835E-04 +6.99900562883E-04 -7.90200876895E-04 +9.19383245678E-02 -5.89263377636E-01
4.22500000000E+09 -3.83099839180E-02 -4.72099496802E-01 +8.06191023138E-04 -6.27176212666E-04 +7.48296849841E-04 -7.44447062878E-04 +7.01777323595E-02 -5.84599369801E-01
4.23000000000E+09 -5.29753867867E-02 -4.62677299558E-01 +7.02490357204E-04 -1.07852740201E-03 +6.52106987776E-04 -1.09653899700E-03 +4.91467908615E-02 -5.78768608750E-01
4.23500000000E+09 -6.88009081488E-02 -4.50981127396E-01 +2.58437381590E-04 -9.49814327517E-04 +2.26083186096E-04 -9.22561693536E-04 +2.71797204187E-02 -5.71859627759E-01
4.24000000000E+09 -8.48226825729E-02 -4.37259671625E-01 +4.62382596947E-04 -5.43160358320E-04 +4.18632444601E-04 -5.12279035644E-04 +5.21808709304E-03 -5.63578171542E-01
4.24500000000E+09 -1.01556227860E-01 -4.24006391459E-01 +8.37082903459E-04 -1.03858424018E-03 +7.99863225371E-04 -1.02955879675E-03 -1.71711521727E-02 -5.55555225893E-01
4.25000000000E+09 -1.20993745055E-01 -4.10591690387E-01 +3.17755696743E-04 -1.62137155235E-03 +3.21041526128E-04 -1.56879895566E-03 -3.95391142043E-02 -5.46464665840E-01
4.25500000000E+09 -1.41188812192E-01 -3.96863213876E-01 -1.74160765347E-04 -1.20240599053E-03 -1.71104853571E-04 -1.20491137212E-03 -6.03819395129E-02 -5.36513779998E-01
4.26000000000E+09 -1.61252449881E-01 -3.84349288017E-01 -2.45527282607E-05 -1.20657062156E-03 -3.44910396337E-05 -1.22106386995E-03 -8.07043561080E-02 -5.25736053319E-01
4.26500000000E+09 -1.81542933615E-01 -3.71969191053E-01 -3.96855091903E-04 -1.47979576140E-03 -3.49114808380E-04 -1.43201213855E-03 -1.00338462548E-01 -5.14329696529E-01
4.27000000000E+09 -1.99089222377E-01 -3.59869236044E-01 -7.34948465157E-04 -1.16109426659E-03 -7.34120910637E-04 -1.21532186879E-03 -1.21552906896E-01 -5.02010774896E-01
4.27500000000E+09 -2.14877096759E-01 -3.48036633703E-01 -7.38814846059E-04 -1.10745601186E-03 -7.03204951440E-04 -1.13754514812E-03 -1.42726822557E-01 -4.87188774095E-01
4.28000000000E+09 -2.28102725198E-01 -3.35448943514E-01 -1.27004469082E-03 -8.39639592743E-04 -1.25360148234E-03 -8.42256911883E-04 -1.62621929801E-01 -4.72533842793E-01
4.28500000000E+09 -2.39880510482E-01 -3.21950876616E-01 -9.45107200932E-04 -3.50097554496E-04 -9.45492738916E-04 -4.01184446876E-04 -1.82477558192E-01 -4.58605444638E-01
4.29000000000E+09 -2.50795881019E-01 -3.05665858600E-01 -1.11071437826E-03 -4.74568933236E-04 -1.01666259751E-03 -5.03839820169E-04 -2.01467848178E-01 -4.43667122958E-01
4.29500000000E+09 -2.60552141574E-01 -2.87925483907E-01 -9.18670519945E-04 -1.13708662019E-05 -9.51394046559E-04 -1.03255769712E-04 -2.19319110110E-01 -4.28273672372E-01
4.30000000000E+09 -2.71236659451E-01 -2.68583520976E-01 -8.89197505042E-04 -1.57940367610E-04 -8.57960073645E-04 -2.33486052062E-04 -2.36809919006E-01 -4.11622088512E-01
4.30500000000E+09 -2.83132067943E-01 -2.48165975361E-01 -1.13908565561E-03 -1.23146539549E-04 -1.20790440142E-03 -1.62587116267E-04 -2.53784424985E-01 -3.93490469347E-01
4.31000000000E+09 -2.95651562590E-01 -2.27333346307E-01 -1.19236841591E-03 +5.47906365847E-04 -1.26065878906E-03 +5.13540398165E-04 -2.69966377196E-01 -3.75066856666E-01
4.31500000000E+09 -3.09229792686E-01 -2.07027273285E-01 -7.80951276329E-04 +6.41773683225E-04 -8.48562631486E-04 +6.42832300846E-04 -2.86323347124E-01 -3.55894614856E-01
4.32000000000E+09 -3.22354582420E-01 -1.88138322999E-01 -4.91362667139E-04 +1.04975954926E-03 -5.92241497901E-04 +1.03645792932E-03 -3.01183227657E-01 -3.36320467798E-01
4.32500000000E+09 -3.34955677536E-01 -1.70059720814E-01 +4.34735758705E-04 +5.57310136321E-04 +3.23329119874E-04 +5.61403691840E-04 -3.16572165230E-01 -3.16436476470E-01
4.33000000000E+09 -3.44951344680E-01 -1.53236315794E-01 -3.02416775951E-04 +6.70256378604E-05 -3.08996324586E-04 +1.10222921172E-04 -3.29526258345E-01 -2.94420295123E-01
4.33500000000E+09 -3.53384101640E-01 -1.37623627007E-01 -8.48268530594E-06 +5.47903070416E-04 -8.42645970995E-05 +6.40691441709E-04 -3.42097920176E-01 -2.73187444224E-01
4.34000000000E+09 -3.59291457602E-01 -1.21026935557E-01 +1.42166848229E-04 +2.33067658672E-04 +1.20474702649E-04 +2.55109199430E-04 -3.54637168865E-01 -2.49485423910E-01
4.34500000000E+09 -3.62061926286E-01 -1.03099931604E-01 -1.62205100048E-04 +9.24172190557E-05 -1.49496179357E-04 +2.32894237715E-04 -3.65213113311E-01 -2.26304153536E-01
4.35000000000E+09 -3.64329878805E-01 -8.43223719401E-02 +3.20933546167E-04 +5.14757783091E-04 +3.10154500094E-04 +5.77508802861E-04 -3.76411406381E-01 -2.03430441102E-01
4.35500000000E+09 -3.65346494579E-01 -6.30762398040E-02 +5.46708476797E-04 -5.88089094069E-05 +5.51552183987E-04 -3.64562136746E-06 -3.85861978743E-01 -1.79895774578E-01
4.36000000000E+09 -3.66936098140E-01 -4.06887883654E-02 +1.75400037911E-04 -3.02914949220E-04 +1.92123040398E-04 -2.57586304362E-04 -3.93685608605E-01 -1.57301587692E-01
4.36500000000E+09 -3.70165856952E-01 -1.68967700628E-02 +1.05527569482E-04 -1.28211624870E-04 +1.80668468305E-04 -1.72599984625E-04 -4.01355110586E-01 -1.34487298074E-01
4.37000000000E+09 -3.73467171605E-01 +7.19270323231E-03 +2.24773141185E-04 -1.86815471479E-04 +2.50279656582E-04 -1.67492914423E-04 -4.07356374898E-01 -1.10378958596E-01
4.37500000000E+09 -3.78436055569E-01 +2.98872464004E-02 +4.03654183058E-04 -6.86949654074E-04 +5.36783111187E-04 -7.23568478916E-04 -4.12452106373E-01 -8.57444705333E-02
4.38000000000E+09 -3.83289199888E-01 +5.16459965383E-02 -4.60861377125E-04 -9.11544879194E-04 -4.46194284385E-04 -9.52145860112E-04 -4.16645328295E-01 -6.17790305225E-02
4.38500000000E+09 -3.86970153915E-01 +7.00221844673E-02 -6.96566626350E-04 -3.09169069483E-04 -6.82705790841E-04 -3.33604431249E-04 -4.20783467444E-01 -3.73701264239E-02
4.39000000000E+09 -3.90352752498E-01 +8.73932913834E-02 -4.17298066220E-04 -1.24386601658E-04 -3.98350592686E-04 -1.82939616813E-04 -4.23492728608E-01 -1.31667067052E-02
4.39500000000E+09 -3.90345212899E-01 +1.03578262909E-01 -4.33198415270E-04 -2.90234264416E-04 -4.64755132579E-04 -3.62194636392E-04 -4.25681520832E-01 +1.08221381736E-02
4.40000000000E+09 -3.88160215307E-01 +1.18489444231E-01 -3.37329007623E-04 -9.36083941777E-05 -3.64870552878E-04 -1.26757103989E-04 -4.25724994156E-01 +3.49611508129E-02
4.40500000000E+09 -3.83925187956E-01 +1.34331159252E-01 -4.76366589461E-04 -4.46729574209E-04 -5.59293488988E-04 -5.82344500283E-04 -4.25768596196E-01 +5.86666361642E-02
4.41000000000E+09 -3.78098780793E-01 +1.50915269912E-01 -6.55926469529E-04 -2.08315610482E-04 -6.81329734856E-04 -2.49389766698E-04 -4.24524736489E-01 +8.35696500088E-02
4.41500000000E+09 -3.72010560725E-01 +1.70645528331E-01 -6.19646790933E-04 -3.18323458636E-04 -6.36474423487E-04 -3.34053617157E-04 -4.22822641556E-01 +1.07324035712E-01
4.42000000000E+09 -3.65107628321E-01 +1.92244838949E-01 -1.09080315514E-03 -2.68182927653E-04 -1.11392516347E-03 -2.74427654101E-04 -4.20419289776E-01 +1.32491281330E-01
4.42500000000E+09 -3.59383352827E-01 +2.14519143682E-01 -1.13640755764E-03 +2.20452157012E-04 -1.18394090727E-03 +1.82594787873E-04 -4.14724640597E-01 +1.55562916166E-01
4.43000000000E+09 -3.54523116245E-01 +2.37381582807E-01 -9.78176344373E-04 +4.52455245973E-04 -1.03525462566E-03 +4.20206935741E-04 -4.10837032318E-01 +1.77640818112E-01
4.43500000000E+09 -3.50189442671E-01 +2.58983466894E-01 -9.99936336448E-04 +4.65560968023E-04 -1.03784338951E-03 +5.01078072853E-04 -4.04600710913E-01 +2.01072978238E-01
4.44000000000E+09 -3.46884748535E-01 +2.77510877958E-01 -7.23094351279E-04 +7.38886082638E-04 -7.19500967402E-04 +7.87560946922E-04 -3.98067613337E-01 +2.22567227394E-01
4.44500000000E+09 -3.44551631478E-01 +2.94329205231E-01 -7.77488840311E-04 +4.92714906208E-04 -7.65897123066E-04 +5.28335802981E-04 -3.91127522413E-01 +2.44432951427E-01
4.45000000000E+09 -3.41676431720E-01 +3.08884437730E-01 -9.10562952435E-04 +7.02072627116E-04 -8.77488266308E-04 +7.51510434780E-04 -3.84259107859E-01 +2.65164761331E-01
4.45500000000E+09 -3.36557983001E-01 +3.22432186165E-01 -8.66951715011E-04 +9.99442900040E-04 -7.95861697980E-04 +1.06966475886E-03 -3.75805557994E-01 +2.85440884219E-01
4.46000000000E+09 -3.29106721202E-01 +3.34680601052E-01 -7.72038766834E-04 +9.81053531089E-04 -7.43752122933E-04 +1.03424624891E-03 -3.67442446884E-01 +3.04381586975E-01
4.46500000000E+09 -3.19911513423E-01 +3.47276618047E-01 -6.18943318108E-04 +1.26856826245E-03 -5.23950099907E-04 +1.32524334338E-03 -3.57676499404E-01 +3.23833304793E-01
4.47000000000E+09 -3.08486330487E-01 +3.61406427976E-01 -4.64224672133E-04 +1.47420257282E-03 -3.12496978897E-04 +1.47546317393E-03 -3.46799502786E-01 +3.42394067637E-01
4.47500000000E+09 -2.95588306492E-01 +3.76495554501E-01 -2.90756345823E-04 +1.49721832172E-03 -2.07263804340E-04 +1.47011667889E-03 -3.36339083368E-01 +3.61302117560E-01
4.48000000000E+09 -2.83177833581E-01 +3.93638362783E-01 +1.31997017080E-04 +1.70712176730E-03 +2.62984262267E-04 +1.63869904880E-03 -3.24513571928E-01 +3.79756423376E-01
4.48500000000E+09 -2.70320167739E-01 +4.10830655891E-01 +2.10101696464E-04 +1.38353368974E-03 +2.19938904851E-04 +1.29632134859E-03 -3.13496389312E-01 +3.96749704489E-01
4.49000000000E+09 -2.59962860265E-01 +4.27601706142E-01 +2.89439010971E-04 +1.65363394133E-03 +3.12584252701E-04 +1.58807829667E-03 -3.02165385936E-01 +4.13451062694E-01
4.49500000000E+09 -2.51240716959E-01 +4.43848626951E-01 +5.97978164771E-04 +1.65484634097E-03 +5.97266557493E-04 +1.56530646356E-03 -2.90820988495E-01 +4.29038028714E-01
4.50000000000E+09 -2.44237906524E-01 +4.57479968598E-01 +8.05767334763E-04 +1.80187647658E-03 +8.10349076849E-04 +1.69570390799E-03 -2.78479158144E-01 +4.44985966329E-01
4.50500000000E+09 -2.38635459021E-01 +4.69862771768E-01 +1.50384266188E-03 +1.64195478492E-03 +1.44583462800E-03 +1.59049842919E-03 -2.64941122863E-01 +4.59907324243E-01
4.51000000000E+09 -2.31865906345E-01 +4.79784901687E-01 +1.66839656230E-03 +9.72624369160E-04 +1.61572384188E-03 +9.23047632628E-04 -2.51561349091E-01 +4.74498952456E-01
4.51500000000E+09 -2.24687138204E-01 +4.87611000087E-01 +1.49508895853E-03 +8.89236281333E-04 +1.41160838640E-03 +8.53623633069E-04 -2.37788774989E-01 +4.88890224868E-01
4.52000000000E+09 -2.14959799349E-01 +4.95420756282E-01 +1.83232233806E-03 +6.92592530969E-04 +1.73487449507E-03 +6.88087580641E-04 -2.24359527663E-01 +5.02015210952E-01
4.52500000000E+09 -2.02785041463E-01 +5.01950976622E-01 +1.60073364685E-03 +4.33459002635E-04 +1.61059662124E-03 +4.71089275993E-04 -2.10534319954E-01 +5.14458016706E-01
4.53000000000E+09 -1.89084723842E-01 +5.09803489754E-01 +1.73111995725E-03 +4.87045142183E-04 +1.70543471216E-03 +4.38891295510E-04 -1.96642229040E-01 +5.25789602553E-01
4.53500000000E+09 -1.73202932650E-01 +5.18284944912E-01 +1.83978676289E-03 +1.07779566608E-04 +1.78140880337E-03 +1.31901840350E-04 -1.81908351383E-01 +5.37432922891E-01
4.54000000000E+09 -1.57532643044E-01 +5.27754397576E-01 +2.00351178721E-03 +2.05660614639E-04 +2.00254790318E-03 +1.87570468814E-04 -1.65884809898E-01 +5.48018277667E-01
4.54500000000E+09 -1.42156897686E-01 +5.38409077087E-01 +2.29226075582E-03 -4.46449273808E-04 +2.22638779355E-03 -4.83796509916E-04 -1.51190357027E-01 +5.57597427377E-01
4.55000000000E+09 -1.28514985177E-01 +5.48916257981E-01 +2.16888768008E-03 -7.35738792263E-04 +2.13074339571E-03 -7.26026843925E-04 -1.36380716436E-01 +5.68070802214E-01
4.55500000000E+09 -1.16617665576E-01 +5.59680486508E-01 +1.89636120713E-03 -1.27316926234E-03 +1.85170201115E-03 -1.28556694242E-03 -1.22100057693E-01 +5.77395815262E-01
4.56000000000E+09 -1.05904651678E-01 +5.68751272728E-01 +1.42260942120E-03 -1.33783772657E-03 +1.40891302092E-03 -1.28728034711E-03 -1.07614390541E-01 +5.86105567041E-01
4.56500000000E+09 -9.68769466050E-02 +5.76329128903E-01 +1.21675517511E-03 -1.47721931359E-03 +1.22908285430E-03 -1.42251102395E-03 -9.37966319566E-02 +5.94762192386E-01
4.57000000000E+09 -8.76652176617E-02 +5.82672501625E-01 +1.19137032689E-03 -1.42145027387E-03 +1.14234343686E-03 -1.41763708644E-03 -7.79691793166E-02 +6.03419495189E-01
