# Hz S RI R 50
! CMT, C1220, 16058040, 17.2.0/1
! Date: 15/08/2018 12:23:36
! Data: Format (Calibration Info)
! Freq                      S11: Re/Im (F2)                       S21: Re/Im (F2)                       S12: Re/Im (F2)                       S22: Re/Im (F2)            
4.00000000000E+09 +6.53183278132E-01 -3.55545870955E-01 +9.00246388872E-04 -3.10798612858E-04 +9.12658579663E-04 -2.79547016479E-04 +7.44135606375E-01 -3.23090721837E-01
4.00500000000E+09 +6.45072990503E-01 -3.61785983215E-01 +1.00161039944E-03 -3.81706907261E-04 +1.03768544881E-03 -3.84133616867E-04 +7.33761744126E-01 -3.33806423416E-01
4.01000000000E+09 +6.35961957180E-01 -3.68039253331E-01 +1.07683921674E-03 -8.07205505806E-04 +1.16385532310E-03 -7.88133456627E-04 +7.23052723613E-01 -3.44879384373E-01
4.01500000000E+09 +6.25630703694E-01 -3.75124484926E-01 +8.04486146977E-04 -1.17382556403E-03 +9.10091346070E-04 -1.17149348486E-03 +7.11947624238E-01 -3.55373740246E-01
4.02000000000E+09 +6.14531310527E-01 -3.83049973761E-01 +3.23298939863E-04 -1.26849277948E-03 +3.72261136259E-04 -1.31133883882E-03 +7.00158292089E-01 -3.65598984711E-01
4.02500000000E+09 +6.03020711947E-01 -3.92248669409E-01 -2.14257586618E-05 -8.00110092919E-04 +4.21978555316E-05 -7.82225146267E-04 +6.88020189919E-01 -3.75487212208E-01
4.03000000000E+09 +5.91483429451E-01 -4.02195749799E-01 +3.45021095348E-04 -5.33069640821E-04 +3.42218794826E-04 -5.49681054626E-04 +6.75304269181E-01 -3.85034937220E-01
4.03500000000E+09 +5.80333582980E-01 -4.12990920470E-01 +6.22290631090E-04 -7.54021966132E-04 +7.08042007933E-04 -7.55622989641E-04 +6.62474242704E-01 -3.94876978230E-01
4.04000000000E+09 +5.69164170917E-01 -4.23857813182E-01 +6.32608245526E-04 -1.12863888468E-03 +6.91233826347E-04 -1.18882361059E-03 +6.49233678546E-01 -4.05213704764E-01
4.04500000000E+09 +5.57906214022E-01 -4.33990752450E-01 +2.72582473166E-04 -1.45465597328E-03 +3.46891995026E-04 -1.52819505329E-03 +6.35041235307E-01 -4.15120771676E-01
4.05000000000E+09 +5.46285774938E-01 -4.42083504744E-01 -2.02324764737E-04 -1.40953578378E-03 -2.00355054653E-04 -1.48783877619E-03 +6.20994022942E-01 -4.23939491103E-01
4.05500000000E+09 +5.34815858894E-01 -4.47779661074E-01 -2.76049165474E-04 -1.20503129053E-03 -2.79811128106E-04 -1.27058893104E-03 +6.06496745706E-01 -4.32536709784E-01
4.06000000000E+09 +5.23202898200E-01 -4.52379577366E-01 -4.32308429583E-04 -1.08939147429E-03 -4.61583953693E-04 -1.16637393584E-03 +5.91474181614E-01 -4.40517238158E-01
4.06500000000E+09 +5.10806766418E-01 -4.56126055062E-01 -3.23275848962E-04 -9.87421601996E-04 -3.57636017246E-04 -1.02458919709E-03 +5.75534375529E-01 -4.48259016490E-01
4.07000000000E+09 +4.97096433949E-01 -4.60501597166E-01 -3.81444338671E-04 -1.12383250135E-03 -3.95407071048E-04 -1.13306907739E-03 +5.59416440153E-01 -4.55579468376E-01
4.07500000000E+09 +4.81351502705E-01 -4.64898419736E-01 -4.21859650253E-04 -1.07463561789E-03 -3.81132910792E-04 -1.07713432132E-03 +5.42692155302E-01 -4.62983673466E-01
4.08000000000E+09 +4.64668782834E-01 -4.70080114911E-01 -5.99440956803E-04 -1.32118627878E-03 -5.65570279825E-04 -1.30622467988E-03 +5.26334331401E-01 -4.69373291037E-01
4.08500000000E+09 +4.47028931765E-01 -4.75221864105E-01 -9.74298629672E-04 -1.32545398231E-03 -9.10805586233E-04 -1.36321785969E-03 +5.09896511512E-01 -4.76801465154E-01
4.09000000000E+09 +4.30182074665E-01 -4.81276148697E-01 -1.22592235455E-03 -1.23356543478E-03 -1.22927123469E-03 -1.31140950534E-03 +4.91860475159E-01 -4.82303582303E-01
4.09500000000E+09 +4.13268194106E-01 -4.87838437685E-01 -1.57709983490E-03 -9.23880334068E-04 -1.59444388091E-03 -9.29817693412E-04 +4.74713448260E-01 -4.87013118353E-01
4.10000000000E+09 +3.96391991863E-01 -4.93919507031E-01 -1.64053404537E-03 -5.63491395216E-04 -1.62559280485E-03 -5.59244884860E-04 +4.56087043871E-01 -4.92069969337E-01
4.10500000000E+09 +3.79988121112E-01 -4.98538940681E-01 -1.40053036419E-03 -1.21615119815E-04 -1.37986893132E-03 -1.78196064042E-04 +4.36741568971E-01 -4.95627021015E-01
4.11000000000E+09 +3.63627401469E-01 -5.01295122948E-01 -1.23440547838E-03 -2.62915826350E-04 -1.24632909078E-03 -2.69634561232E-04 +4.17824832148E-01 -4.98980000251E-01
4.11500000000E+09 +3.48216043075E-01 -5.02510730799E-01 -1.18966114400E-03 -4.25584058240E-04 -1.20264377619E-03 -4.16123486475E-04 +3.98945666985E-01 -5.02871569392E-01
4.12000000000E+09 +3.32346803844E-01 -5.03229502331E-01 -1.55017795402E-03 -6.58609046058E-04 -1.58173368584E-03 -7.45895571668E-04 +3.79307217441E-01 -5.05951395952E-01
4.12500000000E+09 +3.15128030022E-01 -5.03820261278E-01 -2.27840980732E-03 -3.26601280424E-04 -2.34928481259E-03 -3.76441175997E-04 +3.58752069481E-01 -5.08111605969E-01
4.13000000000E+09 +2.96610402704E-01 -5.04561270576E-01 -2.38982611820E-03 +6.08716827659E-04 -2.47043104341E-03 +6.19523058939E-04 +3.38111402307E-01 -5.09237020495E-01
4.13500000000E+09 +2.77156402125E-01 -5.05473674504E-01 -1.86379287592E-03 +1.19291813829E-03 -2.01952963423E-03 +1.13141867687E-03 +3.16890972458E-01 -5.09066818799E-01
4.14000000000E+09 +2.57158770131E-01 -5.07566676839E-01 -1.48904068784E-03 +1.22930555615E-03 -1.54600362232E-03 +1.21479873693E-03 +2.95903379274E-01 -5.08345932894E-01
4.14500000000E+09 +2.37365897222E-01 -5.10925137709E-01 -1.24233678451E-03 +1.36282608666E-03 -1.26980431062E-03 +1.41978119739E-03 +2.75072454477E-01 -5.06959471212E-01
4.15000000000E+09 +2.17156137991E-01 -5.15197226377E-01 -8.01765485407E-04 +1.22180630999E-03 -8.99793789560E-04 +1.24650569810E-03 +2.54694987788E-01 -5.05260873688E-01
4.15500000000E+09 +1.97518088541E-01 -5.18912989417E-01 -1.03105160032E-03 +7.55657661369E-04 -1.08870882281E-03 +7.84044196049E-04 +2.33887309854E-01 -5.02443001747E-01
4.16000000000E+09 +1.79144559211E-01 -5.21571295734E-01 -1.53346674845E-03 +1.18255355427E-03 -1.56863175913E-03 +1.18204278834E-03 +2.13457651957E-01 -4.98350871430E-01
4.16500000000E+09 +1.61646941877E-01 -5.22242236010E-01 -1.41750970402E-03 +1.79861682338E-03 -1.46275042749E-03 +1.81706556163E-03 +1.93100130789E-01 -4.93459789776E-01
4.17000000000E+09 +1.45872946810E-01 -5.20465388218E-01 -1.17159736890E-03 +1.99673007572E-03 -1.20853005794E-03 +2.00376346789E-03 +1.72453698581E-01 -4.87867361746E-01
4.17500000000E+09 +1.30928176101E-01 -5.17440374108E-01 -8.56236078700E-04 +2.45700875971E-03 -9.36297327879E-04 +2.54686183040E-03 +1.51754835226E-01 -4.81120264751E-01
4.18000000000E+09 +1.15776509555E-01 -5.13170784648E-01 -2.16046260111E-04 +2.80036342400E-03 -2.20374999918E-04 +2.85923216177E-03 +1.31892155508E-01 -4.73726155881E-01
4.18500000000E+09 +9.93839305570E-02 -5.08494103858E-01 +6.78089185630E-04 +2.64083219004E-03 +7.37383774488E-04 +2.71857975552E-03 +1.12750011345E-01 -4.66745140294E-01
4.19000000000E+09 +8.12216508669E-02 -5.02779460025E-01 +7.64077976462E-04 +1.74966713851E-03 +7.71433773213E-04 +1.83241181708E-03 +9.21215649962E-02 -4.59336941111E-01
4.19500000000E+09 +6.27881227493E-02 -4.96330705385E-01 +4.39417710032E-04 +1.58851473264E-03 +4.41620888989E-04 +1.64305258404E-03 +7.19158182042E-02 -4.49870680312E-01
4.20000000000E+09 +4.41673222126E-02 -4.90750654411E-01 +5.21845460644E-04 +1.88637936871E-03 +5.29087173050E-04 +1.96004211605E-03 +5.26996134114E-02 -4.39390046121E-01
4.20500000000E+09 +2.51234517531E-02 -4.85844352127E-01 +4.05161438600E-04 +1.85597699372E-03 +4.07488925497E-04 +1.90249441503E-03 +3.33272342541E-02 -4.28745362874E-01
4.21000000000E+09 +6.64152857082E-03 -4.80942043652E-01 +6.96694694727E-04 +2.61869924474E-03 +6.90221878551E-04 +2.75925798148E-03 +1.41865241143E-02 -4.17090575741E-01
4.21500000000E+09 -1.12682665313E-02 -4.75070359975E-01 +1.97541524322E-03 +2.80088706957E-03 +2.04542235493E-03 +2.86660293540E-03 -4.33902950872E-03 -4.05518845211E-01
4.22000000000E+09 -2.75230129666E-02 -4.67852214120E-01 +2.54899114618E-03 +1.84894985134E-03 +2.62218012591E-03 +1.89386943395E-03 -2.26026308655E-02 -3.93336752397E-01
4.22500000000E+09 -4.21659521511E-02 -4.59559620632E-01 +2.68701776680E-03 +1.13797964206E-03 +2.76883480530E-03 +1.16805951508E-03 -4.03653623082E-02 -3.79270949812E-01
4.23000000000E+09 -5.65320359513E-02 -4.50113438464E-01 +2.37589611778E-03 +5.74975762746E-04 +2.49325205625E-03 +5.88690191901E-04 -5.65947232819E-02 -3.65164468130E-01
4.23500000000E+09 -7.17538114059E-02 -4.38820294994E-01 +2.07231801853E-03 +6.76294849548E-04 +2.10016955357E-03 +6.76967392516E-04 -7.34411725897E-02 -3.49897655828E-01
4.24000000000E+09 -8.79153553878E-02 -4.25794873889E-01 +2.12950231378E-03 +9.47194704617E-04 +2.14235298431E-03 +8.85367172885E-04 -8.88628180584E-02 -3.33356758246E-01
4.24500000000E+09 -1.04855496469E-01 -4.11505551115E-01 +2.99174368113E-03 +9.89495666321E-04 +2.99758630829E-03 +9.32718311843E-04 -1.04116042689E-01 -3.16425593919E-01
4.25000000000E+09 -1.22595306935E-01 -3.97343139748E-01 +3.66840904515E-03 +2.77965997765E-04 +3.68321668298E-03 +2.00486559207E-04 -1.18161990195E-01 -2.98613335632E-01
4.25500000000E+09 -1.40649441044E-01 -3.84439068601E-01 +3.58912645781E-03 -9.40516294637E-04 +3.60443145690E-03 -1.03645491974E-03 -1.30743530485E-01 -2.81274491985E-01
4.26000000000E+09 -1.60277970784E-01 -3.72841307956E-01 +2.84006262958E-03 -1.49391847430E-03 +2.88839564894E-03 -1.55592516761E-03 -1.43371803266E-01 -2.64259007825E-01
4.26500000000E+09 -1.79859272245E-01 -3.61271186624E-01 +2.70714121462E-03 -1.51590714418E-03 +2.68332205036E-03 -1.62530134371E-03 -1.55443055298E-01 -2.45752776006E-01
4.27000000000E+09 -1.97229409175E-01 -3.49906560242E-01 +2.63921280869E-03 -1.88668775550E-03 +2.65034461482E-03 -1.93281558429E-03 -1.67502035696E-01 -2.26974302189E-01
4.27500000000E+09 -2.13502200308E-01 -3.38829630255E-01 +2.33886477211E-03 -2.56559837081E-03 +2.25097623838E-03 -2.56526658414E-03 -1.78539003633E-01 -2.06842036620E-01
4.28000000000E+09 -2.27280747645E-01 -3.25476980405E-01 +1.82145785391E-03 -2.62380541477E-03 +1.83810661648E-03 -2.58948048179E-03 -1.88619481703E-01 -1.87075776191E-01
4.28500000000E+09 -2.38344585651E-01 -3.11276606810E-01 +1.69582022851E-03 -2.86651336588E-03 +1.65908918220E-03 -2.86220187152E-03 -1.97832081374E-01 -1.66615652927E-01
4.29000000000E+09 -2.47712665929E-01 -2.96598140041E-01 +1.25171813330E-03 -3.21309518972E-03 +1.23004205158E-03 -3.21555380225E-03 -2.05988924475E-01 -1.47122545852E-01
4.29500000000E+09 -2.58039988938E-01 -2.80409759090E-01 +8.07133375012E-04 -3.50016768695E-03 +8.03874564304E-04 -3.47344970224E-03 -2.13475866546E-01 -1.27955426611E-01
4.30000000000E+09 -2.69063250071E-01 -2.61881099246E-01 -3.50297278496E-07 -3.66672491600E-03 -6.72788410494E-05 -3.64827516694E-03 -2.20512831658E-01 -1.07925069979E-01
4.30500000000E+09 -2.80387441121E-01 -2.42346622598E-01 -4.63902013052E-04 -3.51385844984E-03 -4.70169813511E-04 -3.47674284284E-03 -2.26046158395E-01 -8.69216400399E-02
4.31000000000E+09 -2.92644967688E-01 -2.22719969747E-01 -1.08000843353E-03 -3.47382396120E-03 -1.10296626161E-03 -3.49488614752E-03 -2.30442332942E-01 -6.63131158432E-02
4.31500000000E+09 -3.06125526690E-01 -2.03323807707E-01 -1.77741879342E-03 -2.90792307241E-03 -1.72935647055E-03 -2.87388567078E-03 -2.34298982822E-01 -4.49514250547E-02
4.32000000000E+09 -3.18008435494E-01 -1.85038586010E-01 -1.86237498632E-03 -2.35622116269E-03 -1.91287268392E-03 -2.30568150518E-03 -2.37146464803E-01 -2.34639472855E-02
4.32500000000E+09 -3.29835133585E-01 -1.68821498870E-01 -1.72716330575E-03 -2.24854500324E-03 -1.75849264342E-03 -2.23434750330E-03 -2.39277294665E-01 -2.46516410490E-03
4.33000000000E+09 -3.39694258526E-01 -1.52428093716E-01 -2.25471535053E-03 -2.28114196935E-03 -2.30730731827E-03 -2.21943967578E-03 -2.40387517869E-01 +1.88580489060E-02
4.33500000000E+09 -3.46640638804E-01 -1.37581571755E-01 -2.45189104454E-03 -1.90869080893E-03 -2.40240932242E-03 -1.86985169412E-03 -2.40562029061E-01 +4.00079842498E-02
4.34000000000E+09 -3.52155259582E-01 -1.22539908901E-01 -3.09783525596E-03 -1.66709192539E-03 -3.07101614773E-03 -1.69055197257E-03 -2.40000107894E-01 +6.06393386717E-02
4.34500000000E+09 -3.56071203112E-01 -1.05797789894E-01 -3.26984651776E-03 -7.09070951510E-04 -3.29779428844E-03 -6.61700374693E-04 -2.38533843622E-01 +8.11814366807E-02
4.35000000000E+09 -3.58221464001E-01 -8.74180502835E-02 -2.65121568755E-03 -3.82207529374E-05 -2.70456507894E-03 -7.17879419524E-05 -2.37023033839E-01 +1.00579272415E-01
4.35500000000E+09 -3.60712822733E-01 -6.66750037047E-02 -2.66357827527E-03 -5.92584398532E-04 -2.70096504009E-03 -5.24280189474E-04 -2.34711018189E-01 +1.20473577129E-01
4.36000000000E+09 -3.62462417485E-01 -4.37695469166E-02 -3.12741723958E-03 +1.10335385024E-04 -3.08658984830E-03 +2.49337477485E-04 -2.31482657832E-01 +1.38988808909E-01
4.36500000000E+09 -3.64366391167E-01 -2.11197908218E-02 -3.03576668422E-03 +2.39973733231E-04 -2.98004605227E-03 +2.28724381200E-04 -2.27830572276E-01 +1.57608956022E-01
4.37000000000E+09 -3.68489639943E-01 +1.08084540031E-03 -3.32117904112E-03 +1.10366603150E-03 -3.31254670436E-03 +1.13023367419E-03 -2.23135257023E-01 +1.75882065310E-01
4.37500000000E+09 -3.73355579158E-01 +2.18777557116E-02 -2.66946649784E-03 +1.62776055063E-03 -2.57230110442E-03 +1.68873693498E-03 -2.17748890653E-01 +1.93736042214E-01
4.38000000000E+09 -3.79521151598E-01 +4.18113134429E-02 -2.26719191576E-03 +1.79567973456E-03 -2.19492155874E-03 +1.82324798590E-03 -2.11717940956E-01 +2.11222586989E-01
4.38500000000E+09 -3.84125491108E-01 +6.02549836654E-02 -1.98824498092E-03 +2.06626676270E-03 -1.98042100361E-03 +2.09663756904E-03 -2.05804351810E-01 +2.28739277187E-01
4.39000000000E+09 -3.86749429318E-01 +7.68984018839E-02 -1.63037200358E-03 +2.18304593685E-03 -1.57153803960E-03 +2.22554415171E-03 -1.99323165899E-01 +2.46236028506E-01
4.39500000000E+09 -3.86990188207E-01 +9.16764088639E-02 -1.46748356660E-03 +2.44687841968E-03 -1.41115653912E-03 +2.49402081060E-03 -1.92702862946E-01 +2.62541271330E-01
4.40000000000E+09 -3.85029230607E-01 +1.06067681866E-01 -8.63567067805E-04 +2.52995560262E-03 -7.94884685873E-04 +2.52950454348E-03 -1.85022327587E-01 +2.79682317841E-01
4.40500000000E+09 -3.80959614567E-01 +1.20882874346E-01 -7.96949886616E-04 +2.49152597872E-03 -7.33098778699E-04 +2.40589819213E-03 -1.75890082540E-01 +2.95172656180E-01
4.41000000000E+09 -3.75876212409E-01 +1.37417263132E-01 -4.43910441825E-04 +2.72745514201E-03 -3.76550971966E-04 +2.74012556712E-03 -1.66723202006E-01 +3.09722962789E-01
4.41500000000E+09 -3.70006105637E-01 +1.56467698812E-01 -1.63210475506E-05 +2.69800913441E-03 +8.10122750592E-05 +2.63868196907E-03 -1.57439341404E-01 +3.23783415612E-01
4.42000000000E+09 -3.63643330876E-01 +1.77266094615E-01 +1.87451866369E-04 +2.74255825434E-03 +1.93648497521E-04 +2.67644553709E-03 -1.47983074558E-01 +3.38566082196E-01
4.42500000000E+09 -3.58585410154E-01 +1.98460792753E-01 +9.13584554037E-04 +2.78495200102E-03 +9.85731558276E-04 +2.71602683756E-03 -1.37579299980E-01 +3.52039219691E-01
4.43000000000E+09 -3.54976142491E-01 +2.20274615277E-01 +1.34233671490E-03 +2.34258113993E-03 +1.36118103897E-03 +2.27964730014E-03 -1.28620069483E-01 +3.65332974449E-01
4.43500000000E+09 -3.52041697616E-01 +2.40678412784E-01 +1.41946857984E-03 +1.94799765044E-03 +1.42272946405E-03 +1.83223946797E-03 -1.18052571194E-01 +3.78723203572E-01
4.44000000000E+09 -3.49856269025E-01 +2.59261021800E-01 +1.51525429081E-03 +1.84755959283E-03 +1.52816040639E-03 +1.75270733275E-03 -1.07571248475E-01 +3.90463287564E-01
4.44500000000E+09 -3.47850671158E-01 +2.75147120225E-01 +1.73887145871E-03 +1.49289693574E-03 +1.68813085392E-03 +1.40534693369E-03 -9.67776221333E-02 +4.01942764193E-01
4.45000000000E+09 -3.45138366876E-01 +2.89247400727E-01 +1.74965940053E-03 +1.54488395520E-03 +1.69834647693E-03 +1.46825589488E-03 -8.55331528408E-02 +4.12355728350E-01
4.45500000000E+09 -3.40467304408E-01 +3.02157222044E-01 +2.31976561378E-03 +1.30635093625E-03 +2.30745436563E-03 +1.23695796877E-03 -7.45472507963E-02 +4.22469191644E-01
4.46000000000E+09 -3.33847372271E-01 +3.14482634335E-01 +2.47307524568E-03 +3.76068421728E-04 +2.38413457974E-03 +3.19296373879E-04 -6.32434560849E-02 +4.32253655072E-01
4.46500000000E+09 -3.24485581590E-01 +3.27471054588E-01 +2.03612732358E-03 +1.23541270078E-04 +1.98815398110E-03 +8.64268708026E-05 -5.17669484240E-02 +4.41160995490E-01
4.47000000000E+09 -3.13739400932E-01 +3.41548636198E-01 +1.79756427107E-03 -8.29556350384E-05 +1.72215054960E-03 -7.93003255358E-05 -4.10665131130E-02 +4.50484761437E-01
4.47500000000E+09 -3.01476783919E-01 +3.57843086524E-01 +1.80322799341E-03 +1.98413106232E-04 +1.71826969778E-03 +1.41985344430E-04 -2.92064335761E-02 +4.59805266504E-01
4.48000000000E+09 -2.89155301256E-01 +3.74973231152E-01 +2.16219044930E-03 +1.58019166331E-05 +2.05288739752E-03 -1.55898015984E-05 -1.72028089605E-02 +4.67769476979E-01
4.48500000000E+09 -2.77874220363E-01 +3.92425625453E-01 +2.17799337086E-03 -6.15366219689E-04 +2.02758983318E-03 -6.41419291076E-04 -5.72308829993E-03 +4.75802467771E-01
4.49000000000E+09 -2.69108903076E-01 +4.09937764008E-01 +2.15831553032E-03 -1.02694036769E-03 +2.06932093918E-03 -9.55448188220E-04 +6.48360208766E-03 +4.83011114547E-01
4.49500000000E+09 -2.61320008815E-01 +4.26929502594E-01 +1.44425748648E-03 -1.54866922044E-03 +1.42576752194E-03 -1.45200816118E-03 +1.77630142552E-02 +4.89622856116E-01
4.50000000000E+09 -2.54873012062E-01 +4.41149152652E-01 +1.13441890554E-03 -1.27535695905E-03 +1.09596440614E-03 -1.26193345603E-03 +2.93998724748E-02 +4.96025601650E-01
4.50500000000E+09 -2.49839752265E-01 +4.52965666364E-01 +1.08251425842E-03 -1.27136383144E-03 +1.01740042856E-03 -1.22055374517E-03 +4.09667067843E-02 +5.01917234635E-01
4.51000000000E+09 -2.44381491496E-01 +4.63277101948E-01 +9.85584242868E-04 -1.39303043103E-03 +9.51850013037E-04 -1.36745128109E-03 +5.23835357070E-02 +5.07441309611E-01
4.51500000000E+09 -2.36633781966E-01 +4.71123385437E-01 +7.61540435122E-04 -1.45724886905E-03 +7.98201360604E-04 -1.44328329183E-03 +6.36699816014E-02 +5.13055255090E-01
4.52000000000E+09 -2.27718435755E-01 +4.77911402002E-01 +5.40339698195E-04 -1.59083038624E-03 +5.41312021962E-04 -1.55688623295E-03 +7.58578105322E-02 +5.17850284975E-01
4.52500000000E+09 -2.16275625244E-01 +4.85137999822E-01 +3.85177772507E-04 -1.39397565670E-03 +3.73662515475E-04 -1.38903789195E-03 +8.71313750203E-02 +5.21561995291E-01
4.53000000000E+09 -2.03081205811E-01 +4.92865141481E-01 +5.32532005326E-04 -1.59902118822E-03 +5.09965952635E-04 -1.57034965485E-03 +9.85326589352E-02 +5.25341395934E-01
4.53500000000E+09 -1.88343005157E-01 +5.02265685323E-01 +9.11338292041E-05 -1.91003562745E-03 +3.89256589985E-05 -1.82822619210E-03 +1.09667758444E-01 +5.28854443578E-01
4.54000000000E+09 -1.73284723110E-01 +5.12366221798E-01 -3.38201445907E-04 -1.92054095881E-03 -2.84149442395E-04 -1.82041002371E-03 +1.21167480443E-01 +5.31914724440E-01
4.54500000000E+09 -1.58776117771E-01 +5.23448419177E-01 -8.32650438621E-04 -1.50467698594E-03 -7.84323172520E-04 -1.45816967634E-03 +1.31543408697E-01 +5.35247104548E-01
4.55000000000E+09 -1.45938043200E-01 +5.34223110284E-01 -8.93354486884E-04 -1.18387236122E-03 -8.30627249720E-04 -1.07375170965E-03 +1.43044946753E-01 +5.38862235840E-01
4.55500000000E+09 -1.35122378566E-01 +5.44640218708E-01 -6.46970129083E-04 -8.83838996128E-04 -6.05600940486E-04 -8.19649251528E-04 +1.53963206388E-01 +5.41350802403E-01
4.56000000000E+09 -1.26020237395E-01 +5.54017921425E-01 -6.46043125068E-04 -1.23798864188E-03 -6.35093368847E-04 -1.18976606244E-03 +1.64610550840E-01 +5.44201312674E-01
4.56500000000E+09 -1.17223520798E-01 +5.61831837232E-01 -9.92070319450E-04 -1.24275225883E-03 -9.15848909683E-04 -1.17526322781E-03 +1.74892393462E-01 +5.46429900336E-01
4.57000000000E+09 -1.08423740749E-01 +5.67958836482E-01 -1.42233601512E-03 -9.87964492088E-04 -1.39984518400E-03 -9.01971390859E-04 +1.85224667741E-01 +5.48681257105E-01
