# Hz S RI R 50
! CMT, C1220, 16058040, 17.2.0/1
! Date: 15/08/2018 12:34:53
! Data: Format (Calibration Info)
! Freq                      S11: Re/Im (F2)                       S21: Re/Im (F2)                       S12: Re/Im (F2)                       S22: Re/Im (F2)            
4.00000000000E+09 +6.64320213303E-01 -3.66739434780E-01 -4.50312985627E-04 -6.15655168055E-04 -4.66328480227E-04 -6.81791941885E-04 +7.82732889873E-01 -3.17977817055E-01
4.00500000000E+09 +6.56037726383E-01 -3.73708954292E-01 -4.53402322192E-04 -5.48472923161E-04 -4.30503595295E-04 -6.06550320679E-04 +7.74244053767E-01 -3.29802370904E-01
4.01000000000E+09 +6.46782169346E-01 -3.80252005171E-01 -5.39684203758E-04 -5.36303278618E-04 -5.53042853118E-04 -6.28852611933E-04 +7.65128088666E-01 -3.41668813541E-01
4.01500000000E+09 +6.36883457112E-01 -3.87345098619E-01 -4.93790784246E-04 -3.39852623871E-04 -5.89310862419E-04 -4.10181955703E-04 +7.56318317596E-01 -3.52634215771E-01
4.02000000000E+09 +6.26329911691E-01 -3.95967490216E-01 -4.33640175513E-04 -3.75259232589E-04 -5.65745961377E-04 -3.88408123013E-04 +7.47196332231E-01 -3.63190808055E-01
4.02500000000E+09 +6.15369731625E-01 -4.06010721955E-01 -3.88573679791E-04 -3.88030289968E-04 -4.74140792312E-04 -3.86644582619E-04 +7.37440518578E-01 -3.73095606656E-01
4.03000000000E+09 +6.03632474537E-01 -4.16900417329E-01 -5.59476089093E-04 -4.89054708893E-04 -6.42652543717E-04 -4.55987128765E-04 +7.27416577373E-01 -3.83260504417E-01
4.03500000000E+09 +5.92271850052E-01 -4.27459541904E-01 -6.09450666672E-04 -3.57490327048E-04 -7.00921464935E-04 -2.67363041310E-04 +7.16336714802E-01 -3.94146910316E-01
4.04000000000E+09 +5.81255198348E-01 -4.38113067378E-01 -6.61465742592E-04 -2.66730616053E-04 -6.94795726362E-04 -2.21551616596E-04 +7.05589283640E-01 -4.05168996849E-01
4.04500000000E+09 +5.69773791202E-01 -4.48050337926E-01 -6.58359777277E-04 -1.79469561135E-04 -7.04109175001E-04 -7.48721792048E-05 +6.94654234621E-01 -4.16339334753E-01
4.05000000000E+09 +5.58403482847E-01 -4.55708273398E-01 -5.54241513781E-04 -7.56492417572E-05 -5.63588641163E-04 +2.43839927986E-05 +6.83552753638E-01 -4.26754607153E-01
4.05500000000E+09 +5.46817721357E-01 -4.62520507092E-01 -4.70293013795E-04 -1.48922068612E-04 -4.73861738902E-04 -6.83008691176E-05 +6.72314580681E-01 -4.35885094511E-01
4.06000000000E+09 +5.34057497348E-01 -4.67691384870E-01 -6.16424855074E-04 -2.67486623542E-04 -6.02547288875E-04 -2.45003423951E-04 +6.61148417685E-01 -4.44895432042E-01
4.06500000000E+09 +5.21141421912E-01 -4.71752301234E-01 -7.33566288792E-04 -2.50894818351E-04 -6.67360710614E-04 -2.46476018253E-04 +6.48920802283E-01 -4.53819281386E-01
4.07000000000E+09 +5.07020605935E-01 -4.76812078346E-01 -9.33898030222E-04 -1.79775001409E-04 -8.31941931063E-04 -2.32545033327E-04 +6.36182295792E-01 -4.63618023473E-01
4.07500000000E+09 +4.91785413823E-01 -4.82061575269E-01 -1.07167411302E-03 +1.79292490595E-05 -1.03311384840E-03 -5.15389718774E-05 +6.22775660149E-01 -4.74032426637E-01
4.08000000000E+09 +4.75515551732E-01 -4.88265783730E-01 -1.11294540226E-03 +2.57750696874E-04 -1.08793704893E-03 +1.73483016918E-04 +6.09371959976E-01 -4.83691034392E-01
4.08500000000E+09 +4.58223595728E-01 -4.94834840475E-01 -1.09039824322E-03 +4.88477224360E-04 -1.04264619593E-03 +3.53025752808E-04 +5.96416628665E-01 -4.93360442239E-01
4.09000000000E+09 +4.41485706319E-01 -5.01534958025E-01 -8.86178949815E-04 +6.35298363602E-04 -9.10854435771E-04 +5.25678877318E-04 +5.82650463182E-01 -5.02237293586E-01
4.09500000000E+09 +4.25063878767E-01 -5.08558861326E-01 -8.34008033380E-04 +5.57960570007E-04 -8.31092391238E-04 +4.64662601954E-04 +5.68551726917E-01 -5.10060901607E-01
4.10000000000E+09 +4.07933250192E-01 -5.14515311836E-01 -9.85671796989E-04 +7.49645147132E-04 -1.00103473759E-03 +6.67392388192E-04 +5.53601222120E-01 -5.18085896792E-01
4.10500000000E+09 +3.91632507555E-01 -5.18701269120E-01 -8.64111977926E-04 +1.05122671186E-03 -9.63616561106E-04 +9.13621270246E-04 +5.37771354891E-01 -5.26233717087E-01
4.11000000000E+09 +3.75705684596E-01 -5.21723232482E-01 -6.10339144811E-04 +1.17993536638E-03 -7.52261555730E-04 +1.09206345878E-03 +5.21344576615E-01 -5.34507651738E-01
4.11500000000E+09 +3.59252167748E-01 -5.23380277506E-01 -4.35841853793E-04 +1.36756103605E-03 -5.86239559853E-04 +1.35478211757E-03 +5.04929355451E-01 -5.42025313462E-01
4.12000000000E+09 +3.41948094654E-01 -5.23921116030E-01 -7.82744016422E-05 +1.35172339333E-03 -2.42547123204E-04 +1.39279154347E-03 +4.88862709063E-01 -5.49377146220E-01
4.12500000000E+09 +3.24506828089E-01 -5.24028679176E-01 +1.93109997549E-04 +1.23438014410E-03 -2.67929715084E-05 +1.34105113312E-03 +4.72231095676E-01 -5.55973082044E-01
4.13000000000E+09 +3.05785484009E-01 -5.25485544523E-01 +4.30017408541E-04 +9.77206432935E-04 +3.43558158737E-04 +1.10737520360E-03 +4.55277606203E-01 -5.62095347333E-01
4.13500000000E+09 +2.85493906674E-01 -5.27124166764E-01 +2.22871858460E-04 +8.22853261156E-04 +1.21517000087E-04 +9.56867163851E-04 +4.37022209705E-01 -5.67863837576E-01
4.14000000000E+09 +2.65541344893E-01 -5.29414720723E-01 +1.82708128702E-04 +9.78863599658E-04 +1.21090788669E-04 +1.08111636497E-03 +4.18261152009E-01 -5.73379586174E-01
4.14500000000E+09 +2.45237343805E-01 -5.33596117988E-01 +2.24935052456E-04 +1.03000790629E-03 +1.64617159003E-04 +1.16633569010E-03 +3.99586848281E-01 -5.78753027351E-01
4.15000000000E+09 +2.24479662523E-01 -5.36924091369E-01 +4.46597416425E-04 +1.24967208845E-03 +4.89008233738E-04 +1.38494347302E-03 +3.81792828707E-01 -5.84099242116E-01
4.15500000000E+09 +2.05447165637E-01 -5.39389949418E-01 +8.91340946889E-04 +1.13731567029E-03 +9.90276369376E-04 +1.34313784108E-03 +3.63417590290E-01 -5.88523251378E-01
4.16000000000E+09 +1.87664027069E-01 -5.41142840257E-01 +1.18942530037E-03 +6.88816065137E-04 +1.31121842023E-03 +8.45441435919E-04 +3.45664842378E-01 -5.91530678138E-01
4.16500000000E+09 +1.69726917060E-01 -5.40909949106E-01 +9.30612792920E-04 +1.45995100273E-04 +1.10558668002E-03 +2.59238360077E-04 +3.26537244718E-01 -5.95116026633E-01
4.17000000000E+09 +1.52608687824E-01 -5.37813706592E-01 +5.85597423849E-04 +3.48139819286E-04 +7.70230167629E-04 +4.05530728750E-04 +3.06552753118E-01 -5.97460385563E-01
4.17500000000E+09 +1.36679980617E-01 -5.32467700063E-01 +7.17189910925E-04 +4.56926025359E-04 +8.97931970537E-04 +4.74493704470E-04 +2.85564460660E-01 -5.99738706080E-01
4.18000000000E+09 +1.20331367805E-01 -5.27147751302E-01 +7.06552198392E-04 +1.60569917167E-04 +8.21084116292E-04 +1.39191678098E-04 +2.64719858650E-01 -6.01833429951E-01
4.18500000000E+09 +1.02265853176E-01 -5.21005549220E-01 +3.43434102702E-04 +5.75923305014E-04 +4.23434284148E-04 +4.94501863498E-04 +2.43699761616E-01 -6.03258880576E-01
4.19000000000E+09 +8.33599254794E-02 -5.14855590134E-01 +9.42657583985E-04 +7.97495542447E-04 +9.57244305084E-04 +6.55746353534E-04 +2.22998793065E-01 -6.03631237930E-01
4.19500000000E+09 +6.31486137782E-02 -5.09367231388E-01 +1.17055076425E-03 +3.78348002923E-04 +1.11045161201E-03 +2.38939806543E-04 +2.01605610873E-01 -6.02619091843E-01
4.20000000000E+09 +4.24006438261E-02 -5.03511270824E-01 +1.04937639237E-03 +3.43816572669E-04 +1.01571967215E-03 +2.35631056091E-04 +1.80699344673E-01 -6.00983071504E-01
4.20500000000E+09 +2.24956851004E-02 -4.98326946284E-01 +1.50898879477E-03 +1.35614382571E-04 +1.45763425658E-03 +5.52490153790E-05 +1.57814064488E-01 -5.99091260603E-01
4.21000000000E+09 +3.73817527240E-03 -4.92659167847E-01 +1.26674286237E-03 -4.06908835450E-04 +1.18093374231E-03 -4.72187419194E-04 +1.35199020148E-01 -5.96442248651E-01
4.21500000000E+09 -1.30389364104E-02 -4.86695676866E-01 +8.86083488772E-04 -2.87598744095E-04 +7.88379860676E-04 -2.50070166202E-04 +1.12796648613E-01 -5.93800769329E-01
4.22000000000E+09 -2.91346553881E-02 -4.79983687229E-01 +9.86402341815E-04 -1.48201772513E-04 +8.77035249633E-04 -1.32844044317E-04 +9.06510128882E-02 -5.90878438776E-01
4.22500000000E+09 -4.41289987311E-02 -4.70412806575E-01 +1.44690631066E-03 -1.60537035161E-04 +1.32570310806E-03 -9.00531938749E-05 +6.85135312800E-02 -5.86166769598E-01
4.23000000000E+09 -5.78899111211E-02 -4.59717396892E-01 +1.34787545536E-03 -9.40806356692E-04 +1.27690526030E-03 -8.87430713384E-04 +4.72882241936E-02 -5.79994229630E-01
4.23500000000E+09 -7.33795224940E-02 -4.47010853016E-01 +7.54281312247E-04 -9.29804498369E-04 +6.62667467714E-04 -8.39152274759E-04 +2.53249601186E-02 -5.72692180761E-01
4.24000000000E+09 -8.93735112531E-02 -4.31964197963E-01 +8.24703806798E-04 -5.45456196560E-04 +8.21941918532E-04 -3.68569310939E-04 +3.41295719693E-03 -5.64551805881E-01
4.24500000000E+09 -1.05732857326E-01 -4.17462176009E-01 +1.24724593103E-03 -9.26646506236E-04 +1.18748407756E-03 -7.61941508572E-04 -1.91854021823E-02 -5.56326467265E-01
4.25000000000E+09 -1.25133193759E-01 -4.03199650234E-01 +8.57586214061E-04 -1.61118410932E-03 +8.55030907414E-04 -1.45635652082E-03 -4.13698730118E-02 -5.47299074366E-01
4.25500000000E+09 -1.44931648864E-01 -3.89216514915E-01 +3.38724310421E-04 -1.14873654856E-03 +4.23522457072E-04 -1.06173897591E-03 -6.23128901641E-02 -5.37731999406E-01
4.26000000000E+09 -1.64967695131E-01 -3.76379028550E-01 +6.37242261177E-04 -1.34669378657E-03 +7.89166104719E-04 -1.21318369219E-03 -8.32315440825E-02 -5.26953161448E-01
4.26500000000E+09 -1.84567751161E-01 -3.64414420921E-01 +3.11680742678E-04 -1.83434918881E-03 +5.18799883924E-04 -1.78125283769E-03 -1.03026307277E-01 -5.15420776783E-01
4.27000000000E+09 -2.01767530381E-01 -3.52336197657E-01 -4.39606213073E-04 -1.67513592978E-03 -2.48387137210E-04 -1.69089131260E-03 -1.24736766786E-01 -5.03160926091E-01
4.27500000000E+09 -2.16434928415E-01 -3.40578948395E-01 -4.37246045894E-04 -1.37513004825E-03 -2.95097913904E-04 -1.45842466275E-03 -1.46042147165E-01 -4.88116626896E-01
4.28000000000E+09 -2.28710732733E-01 -3.27852507828E-01 -8.15211043560E-04 -1.25077862602E-03 -7.77334766702E-04 -1.40347374116E-03 -1.66358893006E-01 -4.73836538185E-01
4.28500000000E+09 -2.39051616404E-01 -3.13704974900E-01 -8.03253737787E-04 -7.55778212429E-04 -7.35975009934E-04 -8.92464559996E-04 -1.87077161494E-01 -4.59583003485E-01
4.29000000000E+09 -2.48126714657E-01 -2.97058806455E-01 -8.66098036249E-04 -5.56137174438E-04 -8.26919242145E-04 -6.76400609762E-04 -2.06530514154E-01 -4.44110600054E-01
4.29500000000E+09 -2.56280108254E-01 -2.79176833609E-01 -3.38591152078E-04 -4.49978824576E-04 -3.66301902058E-04 -5.82072515613E-04 -2.24914122658E-01 -4.28242130773E-01
4.30000000000E+09 -2.66055900201E-01 -2.60084885323E-01 -6.53292406391E-04 -8.25210013581E-04 -6.87694103533E-04 -9.84183540266E-04 -2.42550215718E-01 -4.10906560203E-01
4.30500000000E+09 -2.77533772297E-01 -2.39406947847E-01 -9.21946588144E-04 -6.13712689179E-04 -1.02462655569E-03 -7.99112879795E-04 -2.59823169980E-01 -3.91937206772E-01
4.31000000000E+09 -2.89729410896E-01 -2.17792937393E-01 -9.59620477755E-04 -4.71473878675E-05 -1.12871968687E-03 -1.28828524073E-04 -2.76092006965E-01 -3.72606158559E-01
4.31500000000E+09 -3.02372493811E-01 -1.97338989373E-01 -7.17246981959E-04 -1.71435160212E-04 -8.84401903565E-04 -1.80858382356E-04 -2.92047356057E-01 -3.52503182614E-01
4.32000000000E+09 -3.14648398535E-01 -1.78387517023E-01 -6.89830166937E-04 +3.39394530472E-04 -8.65315261145E-04 +3.19733754877E-04 -3.06592085703E-01 -3.32533610404E-01
4.32500000000E+09 -3.26006456369E-01 -1.60793034953E-01 +1.73307168235E-04 -2.24875352606E-05 +2.38587728978E-05 +5.94377864813E-05 -3.21402360226E-01 -3.12243615076E-01
4.33000000000E+09 -3.34662562129E-01 -1.44454557499E-01 -4.48402274972E-04 -4.70227110599E-04 -5.74728835495E-04 -2.98024191211E-04 -3.34021633306E-01 -2.89969532289E-01
4.33500000000E+09 -3.41085888015E-01 -1.30191552929E-01 -1.08528497125E-04 -1.45060463802E-04 -1.73865948507E-04 +1.55312620226E-05 -3.45941068442E-01 -2.68255415548E-01
4.34000000000E+09 -3.46428117229E-01 -1.14536280318E-01 -2.46749164181E-04 -4.56398609623E-04 -2.59114322362E-04 -3.28539538634E-04 -3.58130040093E-01 -2.44849229952E-01
4.34500000000E+09 -3.47797867854E-01 -9.70058582672E-02 -6.08191117709E-04 -6.19979934198E-04 -5.17348906331E-04 -5.00158176098E-04 -3.68728208678E-01 -2.21382753757E-01
4.35000000000E+09 -3.48688688113E-01 -7.87544615990E-02 -5.46019611953E-04 -1.21052226605E-04 -5.44770686565E-04 -3.10176929443E-06 -3.79508483004E-01 -1.98484387933E-01
4.35500000000E+09 -3.48601853701E-01 -5.79812151459E-02 -3.78754699171E-04 -4.21975196177E-04 -2.99181802605E-04 -2.83364897280E-04 -3.88751409747E-01 -1.75016096010E-01
4.36000000000E+09 -3.49346859566E-01 -3.55440597480E-02 -6.98861968051E-04 -5.63883623571E-04 -5.39108411263E-04 -4.92663370637E-04 -3.96487826244E-01 -1.52215661525E-01
4.36500000000E+09 -3.51499558634E-01 -1.25200088346E-02 -8.17664852879E-04 -2.25662032127E-04 -6.60924080898E-04 -1.85213500664E-04 -4.04029854686E-01 -1.29311240924E-01
4.37000000000E+09 -3.54683459614E-01 +1.08003863377E-02 -6.67951088481E-04 -1.14997818901E-04 -4.87596325539E-04 -1.63905446234E-04 -4.09859365709E-01 -1.05118129263E-01
4.37500000000E+09 -3.59489163121E-01 +3.27134130913E-02 -4.52385597467E-04 -5.01964191717E-04 -2.75437821277E-04 -5.42173371474E-04 -4.15116221242E-01 -8.03030356096E-02
4.38000000000E+09 -3.64240956614E-01 +5.36384584847E-02 -1.18162602344E-03 -6.90119487357E-04 -1.05754783507E-03 -8.55278117103E-04 -4.19140349594E-01 -5.57144887071E-02
4.38500000000E+09 -3.67559056599E-01 +7.13358670026E-02 -1.55350937733E-03 -1.33604878375E-05 -1.47157095260E-03 -7.71208201364E-05 -4.23047245348E-01 -3.09992666931E-02
4.39000000000E+09 -3.70869606916E-01 +8.70246702794E-02 -1.11893735749E-03 +3.82359676999E-04 -1.09525204056E-03 +3.08118264258E-04 -4.25333642827E-01 -6.26285352278E-03
4.39500000000E+09 -3.71105269283E-01 +1.02296974679E-01 -1.16121517283E-03 +2.60677274715E-04 -1.15830174956E-03 +1.41205897508E-04 -4.26504569437E-01 +1.81919266303E-02
4.40000000000E+09 -3.68431205739E-01 +1.16395179899E-01 -8.99219155990E-04 +7.26580862813E-04 -9.58671344863E-04 +5.73941845120E-04 -4.25925455291E-01 +4.21217831538E-02
4.40500000000E+09 -3.63917650381E-01 +1.30836647595E-01 -8.57078892556E-04 +3.27042449207E-04 -9.48285888033E-04 +2.84684115679E-04 -4.25173049285E-01 +6.59591876925E-02
4.41000000000E+09 -3.58236092976E-01 +1.46476528472E-01 -9.83022624262E-04 +6.71083144132E-04 -1.11519151023E-03 +6.43962186935E-04 -4.23144590270E-01 +9.05157448548E-02
4.41500000000E+09 -3.52276099554E-01 +1.65346034203E-01 -6.94490964813E-04 +6.56503737133E-04 -8.28997865713E-04 +6.22181342469E-04 -4.20882266834E-01 +1.13945525378E-01
4.42000000000E+09 -3.46328407629E-01 +1.86090902681E-01 -9.68590469994E-04 +6.65604192591E-04 -1.06039291987E-03 +7.37419031449E-04 -4.18022692766E-01 +1.38384310541E-01
4.42500000000E+09 -3.41468141029E-01 +2.07865149194E-01 -7.88137148791E-04 +9.08564493637E-04 -8.74872439813E-04 +1.01187570551E-03 -4.12147381279E-01 +1.60777213662E-01
4.43000000000E+09 -3.37419435065E-01 +2.30574139917E-01 -7.78109858612E-04 +9.45774032300E-04 -8.89761319594E-04 +1.10448142201E-03 -4.08233061197E-01 +1.82536616856E-01
4.43500000000E+09 -3.33454310594E-01 +2.51222885391E-01 -6.98879399509E-04 +1.27308187850E-03 -7.87604365948E-04 +1.40346323417E-03 -4.01633443438E-01 +2.05394857433E-01
4.44000000000E+09 -3.30702504383E-01 +2.68402020218E-01 -2.44962435717E-04 +1.30104663488E-03 -2.40768128826E-04 +1.41787612728E-03 -3.95269781419E-01 +2.26448261114E-01
4.44500000000E+09 -3.29330509407E-01 +2.83790817092E-01 -3.64170312440E-04 +1.01111970594E-03 -3.26103462161E-04 +1.16860670743E-03 -3.88546285832E-01 +2.47852915816E-01
4.45000000000E+09 -3.27161774249E-01 +2.97183416220E-01 -1.92399397402E-04 +1.21157558691E-03 -7.97079370016E-05 +1.35815198706E-03 -3.81812551941E-01 +2.68310197185E-01
4.45500000000E+09 -3.22793003628E-01 +3.09544745730E-01 -2.73742996989E-04 +1.26590483490E-03 -4.56822059319E-05 +1.37623723851E-03 -3.73834801514E-01 +2.88459985670E-01
4.46000000000E+09 -3.15898969950E-01 +3.21376313290E-01 +2.01394998588E-05 +1.29507700598E-03 +2.43057279524E-04 +1.38427121255E-03 -3.65504759057E-01 +3.07613005291E-01
4.46500000000E+09 -3.06589269415E-01 +3.33411635614E-01 +1.14109308116E-04 +1.15863265104E-03 +3.46480122234E-04 +1.17739187601E-03 -3.55632767159E-01 +3.27247565509E-01
4.47000000000E+09 -2.95364833222E-01 +3.47337648628E-01 +1.56199430543E-04 +1.24630072650E-03 +3.69874262400E-04 +1.22000200062E-03 -3.44512627761E-01 +3.45431373853E-01
4.47500000000E+09 -2.82758144312E-01 +3.62061858192E-01 +9.54053890223E-05 +1.31360384979E-03 +2.85095518210E-04 +1.15173437255E-03 -3.34241328321E-01 +3.64222746080E-01
4.48000000000E+09 -2.71266932026E-01 +3.79072858458E-01 +4.70045940282E-04 +1.68830273880E-03 +5.72423989591E-04 +1.48931520653E-03 -3.22405835462E-01 +3.82895859377E-01
4.48500000000E+09 -2.59437017571E-01 +3.96922674810E-01 +6.80113863058E-04 +1.38572314169E-03 +6.98682310272E-04 +1.19830476411E-03 -3.10849600198E-01 +4.00001657840E-01
4.49000000000E+09 -2.49788453233E-01 +4.13473114335E-01 +9.11480379794E-04 +1.50282428954E-03 +8.62703998798E-04 +1.31712807287E-03 -2.99333437743E-01 +4.16249414802E-01
4.49500000000E+09 -2.42577907214E-01 +4.29801422882E-01 +1.28128066774E-03 +1.29467921915E-03 +1.12448522627E-03 +1.11804577161E-03 -2.87815203950E-01 +4.31394797146E-01
4.50000000000E+09 -2.36644573994E-01 +4.43248716661E-01 +1.14440847041E-03 +1.21656810121E-03 +1.02364725689E-03 +1.12523268052E-03 -2.75338968481E-01 +4.46990190894E-01
4.50500000000E+09 -2.32645232978E-01 +4.55405377114E-01 +1.72497521577E-03 +1.14111869529E-03 +1.60241578995E-03 +1.08619772761E-03 -2.62010815970E-01 +4.61361835784E-01
4.51000000000E+09 -2.26723680344E-01 +4.65559398157E-01 +1.74351492855E-03 +5.44654356803E-04 +1.62687929500E-03 +4.60414074760E-04 -2.48674424851E-01 +4.75668052051E-01
4.51500000000E+09 -2.19880196725E-01 +4.72993467691E-01 +1.59638938736E-03 +6.11056141846E-04 +1.47663027742E-03 +5.51353361113E-04 -2.35237200432E-01 +4.89635545687E-01
4.52000000000E+09 -2.10457962415E-01 +4.80596878657E-01 +1.98809163353E-03 +4.02737754949E-04 +1.85676772279E-03 +4.17462626683E-04 -2.22230642964E-01 +5.02515740659E-01
4.52500000000E+09 -1.98641163083E-01 +4.86842427402E-01 +1.85806662368E-03 -5.85305936023E-05 +1.69899783031E-03 +7.12601008964E-06 -2.08919826683E-01 +5.15018721140E-01
4.53000000000E+09 -1.85147012871E-01 +4.94919757533E-01 +1.78455259472E-03 -2.39171115274E-05 +1.70641049320E-03 +5.56048603981E-05 -1.95016176457E-01 +5.26138203557E-01
4.53500000000E+09 -1.69353285854E-01 +5.04193356305E-01 +1.76898302754E-03 -3.72342955756E-04 +1.71422617581E-03 -3.06450299053E-04 -1.80891100086E-01 +5.37853004557E-01
4.54000000000E+09 -1.53731057795E-01 +5.14261681207E-01 +1.93083460838E-03 -2.60965482662E-04 +1.89575356571E-03 -1.86929900886E-04 -1.64894419042E-01 +5.48509907837E-01
4.54500000000E+09 -1.38742579341E-01 +5.25815658186E-01 +2.04064735997E-03 -9.72947953422E-04 +2.05781590902E-03 -8.50859389705E-04 -1.50490174561E-01 +5.57905400665E-01
4.55000000000E+09 -1.25345710077E-01 +5.36894219800E-01 +1.72163192259E-03 -1.20373774611E-03 +1.78556428416E-03 -1.09141475766E-03 -1.36150059218E-01 +5.68675814190E-01
4.55500000000E+09 -1.14463397576E-01 +5.47873524766E-01 +1.42794465632E-03 -1.41112775730E-03 +1.41333161592E-03 -1.35983030393E-03 -1.21938734429E-01 +5.78350206552E-01
4.56000000000E+09 -1.04814422273E-01 +5.57656311388E-01 +1.13231597129E-03 -1.40554735056E-03 +1.21939417634E-03 -1.31191721755E-03 -1.07348861667E-01 +5.87295590422E-01
4.56500000000E+09 -9.68820989035E-02 +5.65695288189E-01 +1.05874734373E-03 -1.67273932714E-03 +1.12451230412E-03 -1.63001015814E-03 -9.36855948593E-02 +5.96113754707E-01
4.57000000000E+09 -8.82669643610E-02 +5.72547769120E-01 +8.75862474247E-04 -1.71714625419E-03 +9.53259051187E-04 -1.74690759466E-03 -7.76979710301E-02 +6.04751868931E-01
