# Hz S RI R 50
! CMT, C1220, 16058040, 17.2.0/1
! Date: 15/08/2018 12:04:32
! Data: Format (Calibration Info)
! Freq                      S11: Re/Im (F2)                       S21: Re/Im (F2)                       S12: Re/Im (F2)                       S22: Re/Im (F2)            
4.00000000000E+09 +6.69501310892E-01 -3.39834030675E-01 +9.80305729302E-04 -6.49835504201E-04 +1.05648477834E-03 -6.61371439721E-04 +7.77753182993E-01 -3.39896779792E-01
4.00500000000E+09 +6.61563876582E-01 -3.46459799124E-01 +8.74889195666E-04 -6.52212313791E-04 +8.76637366269E-04 -6.87920731399E-04 +7.69152837521E-01 -3.51594666931E-01
4.01000000000E+09 +6.52486261651E-01 -3.52941534723E-01 +7.39919262565E-04 -6.09015574234E-04 +7.50056302655E-04 -6.94919707816E-04 +7.59537079716E-01 -3.62915356421E-01
4.01500000000E+09 +6.41998259334E-01 -3.59627483580E-01 +8.10313984565E-04 -5.38318139852E-04 +8.27603055397E-04 -5.91817281640E-04 +7.50039504820E-01 -3.73349880746E-01
4.02000000000E+09 +6.31444317171E-01 -3.66740861432E-01 +1.01195583809E-03 -8.07855164791E-04 +9.97247404162E-04 -7.83058483091E-04 +7.40308483587E-01 -3.83914471384E-01
4.02500000000E+09 +6.20710632129E-01 -3.75769552701E-01 +9.44146110854E-04 -1.04028132167E-03 +9.81361634778E-04 -1.05128629510E-03 +7.30172950021E-01 -3.94348677907E-01
4.03000000000E+09 +6.09299063797E-01 -3.86449881574E-01 +5.86971423102E-04 -1.27940552540E-03 +6.14272748592E-04 -1.26270737386E-03 +7.19681858041E-01 -4.04518005528E-01
4.03500000000E+09 +5.97737197266E-01 -3.97521030501E-01 +3.32855653136E-04 -1.08382474674E-03 +3.16070589468E-04 -1.04613624219E-03 +7.08735568056E-01 -4.15190683929E-01
4.04000000000E+09 +5.86023572058E-01 -4.08714896550E-01 +3.98508271349E-04 -9.97571253926E-04 +4.17443332907E-04 -9.84258110772E-04 +6.97822688118E-01 -4.25958496914E-01
4.04500000000E+09 +5.74793203999E-01 -4.19068756476E-01 +2.91337101208E-04 -9.62076998858E-04 +3.17627482882E-04 -9.60113290027E-04 +6.86471887845E-01 -4.36736791505E-01
4.05000000000E+09 +5.63760772662E-01 -4.28160689177E-01 +4.68971316712E-04 -1.01830549269E-03 +5.30094638087E-04 -9.91891069838E-04 +6.74911804548E-01 -4.46690539620E-01
4.05500000000E+09 +5.52000630056E-01 -4.35641388462E-01 +4.83397558721E-04 -1.21160402197E-03 +6.27160159129E-04 -1.19479224871E-03 +6.63370121948E-01 -4.56422354240E-01
4.06000000000E+09 +5.39919668391E-01 -4.41420815474E-01 +3.28292025224E-04 -1.42009198957E-03 +4.06210845443E-04 -1.46299844132E-03 +6.50792172710E-01 -4.66328071177E-01
4.06500000000E+09 +5.27300735249E-01 -4.46314659224E-01 +2.25753786018E-05 -1.41656880679E-03 +7.15118400867E-05 -1.44599951959E-03 +6.37955961968E-01 -4.75437451816E-01
4.07000000000E+09 +5.13592154585E-01 -4.50638207935E-01 -8.55191621208E-05 -1.51688726102E-03 -1.92198285454E-05 -1.54556855091E-03 +6.24153392615E-01 -4.85382257768E-01
4.07500000000E+09 +4.99175328747E-01 -4.55648598561E-01 -3.61398420111E-04 -1.47035699945E-03 -2.65251074866E-04 -1.47964111944E-03 +6.10305702881E-01 -4.94660451946E-01
4.08000000000E+09 +4.83407171765E-01 -4.61316933898E-01 -4.70152338675E-04 -1.31739234583E-03 -3.63739381511E-04 -1.37206233904E-03 +5.96773202253E-01 -5.03865344527E-01
4.08500000000E+09 +4.66920852737E-01 -4.67856274553E-01 -5.95629938998E-04 -1.19967336810E-03 -5.25879372605E-04 -1.34753667434E-03 +5.82652417000E-01 -5.13259187535E-01
4.09000000000E+09 +4.50186478018E-01 -4.74738485531E-01 -3.70858935723E-04 -1.22851474183E-03 -3.56983248482E-04 -1.37098415202E-03 +5.68425757515E-01 -5.21226899507E-01
4.09500000000E+09 +4.33996637258E-01 -4.81897288122E-01 -6.09094502390E-04 -1.32412614102E-03 -6.06209518060E-04 -1.45784681786E-03 +5.54113212484E-01 -5.29510666073E-01
4.10000000000E+09 +4.17613721731E-01 -4.88648464107E-01 -7.68866582592E-04 -1.43009626109E-03 -7.37288689606E-04 -1.58074860019E-03 +5.38495964155E-01 -5.37740308052E-01
4.10500000000E+09 +4.01896724057E-01 -4.94254801778E-01 -9.99769322288E-04 -1.34845609981E-03 -1.00877613959E-03 -1.45785114281E-03 +5.21866593149E-01 -5.45680934624E-01
4.11000000000E+09 +3.85858718921E-01 -4.98321307598E-01 -1.21535485546E-03 -1.34955822021E-03 -1.24345577845E-03 -1.44433184489E-03 +5.04533326470E-01 -5.53295003663E-01
4.11500000000E+09 +3.70350973270E-01 -5.00389384388E-01 -1.51762634720E-03 -1.08264758078E-03 -1.55501260499E-03 -1.20687439458E-03 +4.87326084449E-01 -5.60255596913E-01
4.12000000000E+09 +3.54678096704E-01 -5.01163362011E-01 -1.43430464302E-03 -8.35064823547E-04 -1.49717330348E-03 -9.21996434843E-04 +4.70100562379E-01 -5.66570604355E-01
4.12500000000E+09 +3.38636978671E-01 -5.02163705099E-01 -1.47100269142E-03 -7.18609121758E-04 -1.55556234940E-03 -8.13452151013E-04 +4.52974087880E-01 -5.72771951025E-01
4.13000000000E+09 +3.20644794878E-01 -5.03435006157E-01 -1.54393621484E-03 -7.79523284964E-04 -1.60774833649E-03 -8.21928501442E-04 +4.35684825732E-01 -5.78314196643E-01
4.13500000000E+09 +3.01621441527E-01 -5.04585744177E-01 -1.70257075522E-03 -5.59642498693E-04 -1.75337292005E-03 -6.01769021126E-04 +4.17220995748E-01 -5.83864171180E-01
4.14000000000E+09 +2.82380985958E-01 -5.07154585915E-01 -1.72441568393E-03 -4.36322289722E-04 -1.79380212864E-03 -4.81015183582E-04 +3.98356969751E-01 -5.88685857711E-01
4.14500000000E+09 +2.62564617058E-01 -5.10850963161E-01 -1.78406295075E-03 -2.43982249065E-04 -1.87946504773E-03 -2.53319145269E-04 +3.79613637561E-01 -5.93848204837E-01
4.15000000000E+09 +2.42443055720E-01 -5.15138057005E-01 -1.85695506555E-03 -1.40941129666E-04 -1.95413779653E-03 -8.52909790178E-05 +3.59689407005E-01 -5.98893831427E-01
4.15500000000E+09 +2.22574201723E-01 -5.18828979324E-01 -1.74556646976E-03 -6.15516055636E-05 -1.83506889740E-03 +1.49192577724E-05 +3.40345544566E-01 -6.02050084246E-01
4.16000000000E+09 +2.03684147148E-01 -5.21523122057E-01 -1.94100623429E-03 +4.89372561455E-05 -1.95571111960E-03 +1.21443068888E-04 +3.20855553292E-01 -6.05241386257E-01
4.16500000000E+09 +1.85893013869E-01 -5.22009833513E-01 -2.11037552094E-03 +2.21045618799E-04 -2.12184578267E-03 +3.01186783682E-04 +3.00247829557E-01 -6.06805827333E-01
4.17000000000E+09 +1.69301972672E-01 -5.20936328211E-01 -2.07249992735E-03 +4.18222691982E-04 -2.03857488625E-03 +4.68122967948E-04 +2.80549195383E-01 -6.07311995447E-01
4.17500000000E+09 +1.52600710481E-01 -5.17734465225E-01 -2.24008671849E-03 +1.00936083255E-03 -2.24108929674E-03 +1.04940532640E-03 +2.59850768657E-01 -6.08151003654E-01
4.18000000000E+09 +1.36494064384E-01 -5.13220896826E-01 -1.58595307117E-03 +1.17007718282E-03 -1.51386164758E-03 +1.14201012217E-03 +2.39225657647E-01 -6.08899091637E-01
4.18500000000E+09 +1.19144506649E-01 -5.08325642854E-01 -1.62781641452E-03 +7.43432697386E-04 -1.61133511526E-03 +6.84606847939E-04 +2.17281553192E-01 -6.09692563425E-01
4.19000000000E+09 +1.00349991977E-01 -5.02643255227E-01 -1.96971985856E-03 +8.26516580504E-04 -1.96980570452E-03 +7.36839459134E-04 +1.95037567594E-01 -6.08391220938E-01
4.19500000000E+09 +8.09055522898E-02 -4.97030734086E-01 -2.29936131318E-03 +1.34266292803E-03 -2.28125810899E-03 +1.23011423228E-03 +1.73934724238E-01 -6.06134951001E-01
4.20000000000E+09 +6.08657405583E-02 -4.92302978026E-01 -2.25073972807E-03 +1.80280966473E-03 -2.29226053145E-03 +1.71668638379E-03 +1.52454633492E-01 -6.03824858904E-01
4.20500000000E+09 +4.08617675400E-02 -4.88235863997E-01 -2.01061972263E-03 +2.49433353642E-03 -2.16441462533E-03 +2.46256713970E-03 +1.30215309971E-01 -6.00563481216E-01
4.21000000000E+09 +2.13668815258E-02 -4.84511117130E-01 -1.31714809933E-03 +2.54792251120E-03 -1.46959473133E-03 +2.52170740514E-03 +1.08130685337E-01 -5.96663183278E-01
4.21500000000E+09 +2.28000981985E-03 -4.80548818234E-01 -1.24263131842E-03 +2.56764357445E-03 -1.43020598536E-03 +2.62677141556E-03 +8.56559662514E-02 -5.91977596442E-01
4.22000000000E+09 -1.54210411213E-02 -4.75238656966E-01 -1.12515016597E-03 +3.01386896300E-03 -1.28796243642E-03 +3.08067201692E-03 +6.44111286720E-02 -5.86838001429E-01
4.22500000000E+09 -3.20998439552E-02 -4.67767834482E-01 -5.01686962829E-04 +3.29802403717E-03 -6.60412556446E-04 +3.34059822211E-03 +4.31728281463E-02 -5.81905503936E-01
4.23000000000E+09 -4.71288555552E-02 -4.58596020647E-01 -1.13219111225E-04 +3.02310389785E-03 -2.41438914154E-04 +3.12311011435E-03 +2.13660671079E-02 -5.75916477260E-01
4.23500000000E+09 -6.22538053522E-02 -4.48211393103E-01 +3.02459793836E-04 +3.09608058102E-03 +1.94599463985E-04 +3.29399082088E-03 -1.27069826069E-04 -5.68327215389E-01
4.24000000000E+09 -7.88256534278E-02 -4.36491876089E-01 +3.58471776063E-04 +3.02685851643E-03 +2.21997749872E-04 +3.17068878878E-03 -2.22885237963E-02 -5.60109293357E-01
4.24500000000E+09 -9.61312650458E-02 -4.23382610943E-01 +6.95634805179E-04 +3.25813560995E-03 +6.69330060749E-04 +3.42617811879E-03 -4.42171155810E-02 -5.50274326768E-01
4.25000000000E+09 -1.15002324331E-01 -4.10514310601E-01 +1.15611350925E-03 +3.18483933032E-03 +1.20070809834E-03 +3.29463121609E-03 -6.58473107850E-02 -5.40795805936E-01
4.25500000000E+09 -1.35069774450E-01 -3.97666847991E-01 +1.61650057385E-03 +3.11087653621E-03 +1.71847604640E-03 +3.30186779994E-03 -8.85905375983E-02 -5.29504817523E-01
4.26000000000E+09 -1.55192385490E-01 -3.85946266157E-01 +1.83968882373E-03 +2.96613925932E-03 +1.97796356100E-03 +3.09274117639E-03 -1.09420046585E-01 -5.16387358341E-01
4.26500000000E+09 -1.75958220322E-01 -3.75236066870E-01 +2.37115426774E-03 +2.75357327333E-03 +2.56078686306E-03 +2.85421660883E-03 -1.29459544932E-01 -5.03567901436E-01
4.27000000000E+09 -1.95249452299E-01 -3.63626204564E-01 +2.58042533421E-03 +2.43478278740E-03 +2.75448933174E-03 +2.44100510906E-03 -1.50137098187E-01 -4.88929881893E-01
4.27500000000E+09 -2.11857816661E-01 -3.52060164997E-01 +3.02736025534E-03 +2.07576621309E-03 +3.17360634500E-03 +2.08204593580E-03 -1.69967396227E-01 -4.74082946063E-01
4.28000000000E+09 -2.25828286748E-01 -3.40103605578E-01 +3.13277924651E-03 +1.57495813513E-03 +3.32394627304E-03 +1.58837886205E-03 -1.90015962537E-01 -4.58305580883E-01
4.28500000000E+09 -2.38949819782E-01 -3.26890218954E-01 +3.11211859898E-03 +1.09664097395E-03 +3.23305346586E-03 +1.05839687806E-03 -2.09765098863E-01 -4.42537743774E-01
4.29000000000E+09 -2.49546777032E-01 -3.10821431839E-01 +2.91322813784E-03 +9.30183638729E-04 +3.06077529080E-03 +8.23505301358E-04 -2.28090300533E-01 -4.25834866403E-01
4.29500000000E+09 -2.60310852786E-01 -2.93677505672E-01 +2.63215712368E-03 +1.24617198891E-03 +2.71734295773E-03 +1.15259028525E-03 -2.47100199357E-01 -4.08816651361E-01
4.30000000000E+09 -2.71248544161E-01 -2.74806719103E-01 +3.60154159111E-03 +1.22041956055E-03 +3.66736296917E-03 +1.10062186047E-03 -2.63748651789E-01 -3.89332135982E-01
4.30500000000E+09 -2.83224050838E-01 -2.54288486458E-01 +3.92219544162E-03 +5.44869483921E-04 +3.93992059545E-03 +4.54012095756E-04 -2.78962302932E-01 -3.70122544001E-01
4.31000000000E+09 -2.96477533186E-01 -2.33763309388E-01 +4.34497817456E-03 +3.10602450030E-04 +4.34379380733E-03 +1.80953878990E-04 -2.94378266087E-01 -3.50415688180E-01
4.31500000000E+09 -3.10426772579E-01 -2.12940473520E-01 +4.45212458084E-03 -1.16417612274E-03 +4.43437806517E-03 -1.25295450958E-03 -3.08971141898E-01 -3.29845388935E-01
4.32000000000E+09 -3.23600625195E-01 -1.93263214367E-01 +3.52946066409E-03 -1.67653142411E-03 +3.47437781725E-03 -1.70059053625E-03 -3.22479254473E-01 -3.08994646000E-01
4.32500000000E+09 -3.36266147615E-01 -1.75592517695E-01 +2.93152761124E-03 -1.42064781935E-03 +2.84706337164E-03 -1.44839482768E-03 -3.36177547612E-01 -2.88199627923E-01
4.33000000000E+09 -3.46960869615E-01 -1.58675201894E-01 +3.42561618008E-03 -9.85354822037E-04 +3.37605095597E-03 -9.97631847187E-04 -3.49227212942E-01 -2.66138378940E-01
4.33500000000E+09 -3.55214911616E-01 -1.42720439911E-01 +3.94804552415E-03 -1.62167572564E-03 +3.87614661267E-03 -1.61074562150E-03 -3.61384019307E-01 -2.42680361792E-01
4.34000000000E+09 -3.61620006450E-01 -1.26680745908E-01 +4.33338461523E-03 -2.38937733441E-03 +4.30434381571E-03 -2.39284642877E-03 -3.72683544340E-01 -2.19078547331E-01
4.34500000000E+09 -3.65545118545E-01 -1.09443219403E-01 +3.82689333593E-03 -3.83615066482E-03 +3.76372310380E-03 -3.77115461987E-03 -3.83333693156E-01 -1.93211934263E-01
4.35000000000E+09 -3.67351264399E-01 -9.00530462304E-02 +2.66829761128E-03 -4.16533248335E-03 +2.66389302940E-03 -4.04969960311E-03 -3.91110149704E-01 -1.68225092486E-01
4.35500000000E+09 -3.68424681684E-01 -6.99927879713E-02 +2.42587454758E-03 -4.33400817583E-03 +2.42251449352E-03 -4.27806761750E-03 -3.99465348424E-01 -1.44726896172E-01
4.36000000000E+09 -3.70904502165E-01 -4.85544536883E-02 +1.75265187298E-03 -4.69152392669E-03 +1.79461137621E-03 -4.68542472422E-03 -4.06236497029E-01 -1.20284519871E-01
4.36500000000E+09 -3.74571368473E-01 -2.44131529701E-02 +9.47962194721E-04 -4.87921951655E-03 +9.91625665917E-04 -4.91500248864E-03 -4.11911279554E-01 -9.63959871366E-02
4.37000000000E+09 -3.79026113887E-01 -9.44458502367E-04 +2.39572506957E-04 -4.66676143931E-03 +2.63517320602E-04 -4.69737719200E-03 -4.16232174842E-01 -7.17953017531E-02
4.37500000000E+09 -3.84214155487E-01 +2.26438434974E-02 -2.19463505671E-04 -4.36291187134E-03 -1.87964818165E-04 -4.45382664871E-03 -4.19600275332E-01 -4.64399781664E-02
4.38000000000E+09 -3.89236301275E-01 +4.40250520237E-02 -2.68736863497E-04 -4.54713617000E-03 -3.20722047683E-04 -4.65085689867E-03 -4.21717608235E-01 -2.12716235949E-02
4.38500000000E+09 -3.93961365757E-01 +6.24646150699E-02 -7.14956809009E-04 -4.54256649079E-03 -7.54327187816E-04 -4.62894675298E-03 -4.23419529984E-01 +4.13187695448E-03
4.39000000000E+09 -3.97443639977E-01 +7.90229901075E-02 -1.30836720693E-03 -4.93477487156E-03 -1.36666610714E-03 -4.99916796473E-03 -4.24029937455E-01 +2.93466964522E-02
4.39500000000E+09 -3.99058429927E-01 +9.41557063259E-02 -2.54599510717E-03 -4.68041726773E-03 -2.62946550375E-03 -4.69159225022E-03 -4.23996558479E-01 +5.36557981387E-02
4.40000000000E+09 -3.98268662743E-01 +1.08926830209E-01 -2.92451213067E-03 -3.92751034622E-03 -3.05065665637E-03 -3.96650614261E-03 -4.22990302817E-01 +7.83144003177E-02
4.40500000000E+09 -3.95103111215E-01 +1.24897847590E-01 -3.46325893124E-03 -3.36853877251E-03 -3.60995942623E-03 -3.47505508149E-03 -4.19894900947E-01 +1.02694439552E-01
4.41000000000E+09 -3.89096913759E-01 +1.41570199275E-01 -3.38025249233E-03 -2.81074842683E-03 -3.47945114202E-03 -2.80629879670E-03 -4.15947315177E-01 +1.26004400551E-01
4.41500000000E+09 -3.83114712870E-01 +1.59775115323E-01 -3.84179207316E-03 -2.48682034919E-03 -3.99252734080E-03 -2.45533547588E-03 -4.11253795240E-01 +1.50194832863E-01
4.42000000000E+09 -3.77739214664E-01 +1.80831312015E-01 -3.80580005746E-03 -1.98424164273E-03 -3.94479474054E-03 -1.93338957164E-03 -4.05719506650E-01 +1.72677301707E-01
4.42500000000E+09 -3.71680036550E-01 +2.03358880609E-01 -4.22017013610E-03 -1.63839677169E-03 -4.28931779834E-03 -1.52692621346E-03 -4.00309909138E-01 +1.95799567389E-01
4.43000000000E+09 -3.67007619777E-01 +2.24790577554E-01 -3.74955522996E-03 -1.02984815872E-03 -3.87331448557E-03 -8.90677978783E-04 -3.94225362875E-01 +2.17903205788E-01
4.43500000000E+09 -3.64207572644E-01 +2.45685206528E-01 -4.13360320019E-03 -1.21176165865E-03 -4.14430571684E-03 -1.04283281799E-03 -3.87926832443E-01 +2.39924574163E-01
4.44000000000E+09 -3.61802811767E-01 +2.64356192097E-01 -4.36001967200E-03 -5.72834558763E-04 -4.33658483976E-03 -4.33166738803E-04 -3.79574222041E-01 +2.63042810353E-01
4.44500000000E+09 -3.60326798631E-01 +2.80898716023E-01 -4.29258844047E-03 -4.22576591937E-06 -4.33739727075E-03 +5.87492470774E-05 -3.69756855167E-01 +2.82887993031E-01
4.45000000000E+09 -3.57948372181E-01 +2.95601727628E-01 -4.42698309117E-03 +4.70581430268E-04 -4.43994874881E-03 +6.17074401552E-04 -3.60273257886E-01 +3.02733720245E-01
4.45500000000E+09 -3.53207591326E-01 +3.08638772501E-01 -4.37862788157E-03 +1.31749339312E-03 -4.34442864481E-03 +1.51393599028E-03 -3.49266371758E-01 +3.21667177128E-01
4.46000000000E+09 -3.46602174179E-01 +3.20381974909E-01 -3.47980951072E-03 +1.78489901809E-03 -3.34513677707E-03 +1.93590253623E-03 -3.39982507731E-01 +3.39548826707E-01
4.46500000000E+09 -3.37353459140E-01 +3.32727638076E-01 -3.20564869836E-03 +1.75191333827E-03 -3.05304538143E-03 +1.84708651934E-03 -3.27975530007E-01 +3.58526069977E-01
4.47000000000E+09 -3.26412106274E-01 +3.45918161419E-01 -2.89199363069E-03 +1.45753460666E-03 -2.70102741854E-03 +1.53790586750E-03 -3.16074342032E-01 +3.75995458720E-01
4.47500000000E+09 -3.14561508449E-01 +3.61552457694E-01 -3.84119214745E-03 +1.60251010116E-03 -3.68165464368E-03 +1.73653771473E-03 -3.04012355443E-01 +3.92434213001E-01
4.48000000000E+09 -3.01631943128E-01 +3.79059886219E-01 -3.38018376107E-03 +2.64974860889E-03 -3.20384477716E-03 +2.64884073286E-03 -2.91687389461E-01 +4.08883317161E-01
4.48500000000E+09 -2.88487473032E-01 +3.96571722135E-01 -2.85090852046E-03 +3.21184155913E-03 -2.64091064766E-03 +3.14392788727E-03 -2.79337055922E-01 +4.24268827465E-01
4.49000000000E+09 -2.78205247683E-01 +4.12701685450E-01 -2.40737291357E-03 +3.44361927409E-03 -2.20551611474E-03 +3.33761822474E-03 -2.66211382339E-01 +4.39853128455E-01
4.49500000000E+09 -2.70457329353E-01 +4.30036823648E-01 -1.71744415020E-03 +3.51361572469E-03 -1.60348960141E-03 +3.35645917270E-03 -2.52877984269E-01 +4.53778853020E-01
4.50000000000E+09 -2.63281551877E-01 +4.44718995916E-01 -1.37735608969E-03 +3.43902408062E-03 -1.36043964118E-03 +3.31512505910E-03 -2.39983145647E-01 +4.67240009310E-01
4.50500000000E+09 -2.57928018901E-01 +4.57694894348E-01 -1.03175013078E-03 +3.28106653809E-03 -9.99283674788E-04 +3.18927328070E-03 -2.26350112423E-01 +4.80465176502E-01
4.51000000000E+09 -2.51444307348E-01 +4.68940355062E-01 -1.00082427598E-03 +3.39812824324E-03 -9.85484186548E-04 +3.30101325276E-03 -2.12770543815E-01 +4.93148833504E-01
4.51500000000E+09 -2.42944164390E-01 +4.77534916601E-01 -6.18006846459E-04 +3.55143280141E-03 -6.01661981661E-04 +3.48635907620E-03 -1.99058783451E-01 +5.04783337360E-01
4.52000000000E+09 -2.33592718658E-01 +4.84317450551E-01 -4.43287243901E-04 +3.44951618748E-03 -4.64983738563E-04 +3.39667971552E-03 -1.85734923129E-01 +5.16287137185E-01
4.52500000000E+09 -2.22627505132E-01 +4.91742458491E-01 -2.88872543700E-04 +3.54602782907E-03 -3.19020757560E-04 +3.49237085444E-03 -1.72521249269E-01 +5.26897670873E-01
4.53000000000E+09 -2.09168432093E-01 +4.99993592479E-01 +1.21068973631E-04 +4.09512902874E-03 +9.11521224012E-05 +3.97293053707E-03 -1.58760315502E-01 +5.37645680590E-01
4.53500000000E+09 -1.94131682871E-01 +5.09631951536E-01 +9.40910528414E-04 +3.84361855659E-03 +9.59629692116E-04 +3.76513523547E-03 -1.44083159919E-01 +5.47813062720E-01
4.54000000000E+09 -1.78416399627E-01 +5.20122550542E-01 +1.28553109525E-03 +3.61702156914E-03 +1.24998983421E-03 +3.56332059187E-03 -1.29244330359E-01 +5.57735938620E-01
4.54500000000E+09 -1.63135120540E-01 +5.30813216555E-01 +1.37175095171E-03 +3.42203161823E-03 +1.35468179881E-03 +3.33798221206E-03 -1.13830841042E-01 +5.66743456424E-01
4.55000000000E+09 -1.50334633263E-01 +5.40991314619E-01 +2.13728919153E-03 +3.35933818920E-03 +2.16443253818E-03 +3.28456824440E-03 -9.90681751745E-02 +5.75142196407E-01
4.55500000000E+09 -1.40045972851E-01 +5.51793767657E-01 +2.17293654991E-03 +2.66626685795E-03 +2.15077345520E-03 +2.61290750284E-03 -8.52494078864E-02 +5.83194320140E-01
4.56000000000E+09 -1.30893203555E-01 +5.61694968090E-01 +2.20261344281E-03 +2.75633548653E-03 +2.18492189851E-03 +2.68708936148E-03 -7.09780974250E-02 +5.91926774822E-01
4.56500000000E+09 -1.22515856995E-01 +5.69977849881E-01 +2.66424028635E-03 +2.53398075442E-03 +2.68906260524E-03 +2.43376170764E-03 -5.65711685726E-02 +5.99299584415E-01
4.57000000000E+09 -1.13618096417E-01 +5.76756814466E-01 +2.73426124991E-03 +2.18717412843E-03 +2.69598419633E-03 +2.05190498311E-03 -4.19801281773E-02 +6.06369260996E-01
