# Hz S RI R 50
! CMT, C1220, 16058040, 17.2.0/1
! Date: 15/08/2018 12:00:51
! Data: Format (Calibration Info)
! Freq                      S11: Re/Im (F2)                       S21: Re/Im (F2)                       S12: Re/Im (F2)                       S22: Re/Im (F2)            
4.00000000000E+09 +6.65305041256E-01 -3.41495029320E-01 +1.06362378743E-03 -6.78055125402E-04 +1.06781222118E-03 -5.51627890923E-04 +7.76809814136E-01 -3.42623664546E-01
4.00500000000E+09 +6.57231705485E-01 -3.47747670253E-01 +9.69493695655E-04 -6.61573154717E-04 +9.76013688929E-04 -6.24712143948E-04 +7.68193055594E-01 -3.54331819821E-01
4.01000000000E+09 +6.48324582845E-01 -3.54174234782E-01 +8.57380457110E-04 -8.91818205821E-04 +9.06583728781E-04 -7.52407274352E-04 +7.58628068313E-01 -3.65759778492E-01
4.01500000000E+09 +6.37993976207E-01 -3.61067244774E-01 +8.28977440503E-04 -8.90711412050E-04 +9.01792553791E-04 -7.79584320832E-04 +7.48960490823E-01 -3.75981392903E-01
4.02000000000E+09 +6.26991433365E-01 -3.68083310609E-01 +7.92677546363E-04 -1.01159293333E-03 +9.39229645429E-04 -9.25070788487E-04 +7.39575826680E-01 -3.86412256673E-01
4.02500000000E+09 +6.16277145554E-01 -3.76718894110E-01 +7.02406936832E-04 -1.23526684274E-03 +8.19503394560E-04 -1.15456448273E-03 +7.29631346467E-01 -3.97015696742E-01
4.03000000000E+09 +6.04869520992E-01 -3.87207939589E-01 +3.71410884259E-04 -1.46648987266E-03 +5.20736227745E-04 -1.49439033912E-03 +7.19194926832E-01 -4.07465392050E-01
4.03500000000E+09 +5.93288448982E-01 -3.97624171656E-01 -6.69018645732E-05 -1.25552492248E-03 +1.08799489183E-04 -1.25761725487E-03 +7.08016118245E-01 -4.18285080843E-01
4.04000000000E+09 +5.82202651328E-01 -4.08449435388E-01 -9.57900681426E-07 -1.01731615322E-03 +1.56272650643E-04 -1.07016910607E-03 +6.96973252680E-01 -4.29131083452E-01
4.04500000000E+09 +5.70926528417E-01 -4.18865598696E-01 -6.51770847423E-05 -9.98326992174E-04 +7.66680357984E-05 -1.11013921371E-03 +6.85432469998E-01 -4.40132145755E-01
4.05000000000E+09 +5.59548125226E-01 -4.27309529907E-01 +8.17494426006E-05 -9.22854473273E-04 +1.70710022340E-04 -1.10922649279E-03 +6.73563740051E-01 -4.50171607173E-01
4.05500000000E+09 +5.47842077426E-01 -4.34217695738E-01 +1.17567041218E-05 -1.05176067195E-03 +9.98334864526E-06 -1.21362528314E-03 +6.61799607131E-01 -4.59759721363E-01
4.06000000000E+09 +5.35839361637E-01 -4.39627688107E-01 -1.75755216029E-04 -1.17634692417E-03 -1.59554335962E-04 -1.31699232849E-03 +6.49422941460E-01 -4.69495839096E-01
4.06500000000E+09 +5.23331442619E-01 -4.44006060245E-01 -4.17458735759E-04 -9.09862223298E-04 -4.50081111140E-04 -1.02224241650E-03 +6.36420670527E-01 -4.78521841350E-01
4.07000000000E+09 +5.09733912031E-01 -4.48287792793E-01 -1.92776729339E-04 -9.32909619498E-04 -1.80371691173E-04 -1.03208040769E-03 +6.22716603994E-01 -4.88512691818E-01
4.07500000000E+09 +4.95118160051E-01 -4.53363781126E-01 -3.63769858949E-04 -1.12811130816E-03 -4.21612723149E-04 -1.16819901239E-03 +6.08612730615E-01 -4.97741507484E-01
4.08000000000E+09 +4.79162855034E-01 -4.58690210544E-01 -4.75310664465E-04 -1.02074382126E-03 -5.55786418844E-04 -1.01907832778E-03 +5.95027864373E-01 -5.06793538529E-01
4.08500000000E+09 +4.63123598424E-01 -4.64668212574E-01 -6.71638236685E-04 -9.19498710347E-04 -7.60105962020E-04 -9.40974632743E-04 +5.80796055880E-01 -5.16099683790E-01
4.09000000000E+09 +4.46966355350E-01 -4.71616982428E-01 -5.74858995679E-04 -8.11390270658E-04 -6.36359374364E-04 -8.05115381912E-04 +5.66523520598E-01 -5.24016004533E-01
4.09500000000E+09 +4.31069505582E-01 -4.78439799028E-01 -4.37809510489E-04 -7.12037961200E-04 -5.38681894095E-04 -6.82375470658E-04 +5.52279512501E-01 -5.32384650099E-01
4.10000000000E+09 +4.14972410601E-01 -4.85189392721E-01 -3.86583918213E-04 -1.03676987553E-03 -4.74856387067E-04 -9.64748123512E-04 +5.36455623864E-01 -5.40413502127E-01
4.10500000000E+09 +3.99367722356E-01 -4.90334312911E-01 -6.82225048939E-04 -1.24878806844E-03 -6.69496066014E-04 -1.12438023816E-03 +5.20080859311E-01 -5.48174802949E-01
4.11000000000E+09 +3.83688090760E-01 -4.93779333144E-01 -9.55772888887E-04 -1.20289002725E-03 -9.41339048112E-04 -1.13686810631E-03 +5.02822535385E-01 -5.56032581045E-01
4.11500000000E+09 +3.68522712355E-01 -4.95356075872E-01 -1.30161305834E-03 -9.04150919222E-04 -1.29808982333E-03 -9.24387290334E-04 +4.85271805556E-01 -5.63051522662E-01
4.12000000000E+09 +3.53229923290E-01 -4.95964096520E-01 -1.28354070021E-03 -6.85662696702E-04 -1.19943623751E-03 -7.01661389003E-04 +4.67856005303E-01 -5.69331638926E-01
4.12500000000E+09 +3.37490967640E-01 -4.96828521906E-01 -1.26529557806E-03 -5.40596490916E-04 -1.24241642128E-03 -4.93209763100E-04 +4.50730985553E-01 -5.75251676879E-01
4.13000000000E+09 +3.19278426078E-01 -4.98255323807E-01 -1.22535312269E-03 -6.92447208112E-04 -1.15923227763E-03 -7.44005133501E-04 +4.33502303905E-01 -5.80899023397E-01
4.13500000000E+09 +3.00263170901E-01 -4.99018402127E-01 -1.57580149408E-03 -6.58662962962E-04 -1.42877223956E-03 -6.98449758489E-04 +4.14870809774E-01 -5.86702946787E-01
4.14000000000E+09 +2.81462678466E-01 -5.01154710272E-01 -1.72020408935E-03 -3.73999707580E-04 -1.63105069474E-03 -5.72134731026E-04 +3.95590241289E-01 -5.91498143210E-01
4.14500000000E+09 +2.61972366654E-01 -5.04742513572E-01 -1.84497983651E-03 -1.93213148653E-04 -1.80858866829E-03 -3.16971227176E-04 +3.76521364425E-01 -5.96472580227E-01
4.15000000000E+09 +2.42679388155E-01 -5.09172995606E-01 -1.87394280735E-03 +2.90216776980E-05 -1.84351911814E-03 -1.36411801857E-04 +3.56489461475E-01 -6.01192481154E-01
4.15500000000E+09 +2.23183217148E-01 -5.13158624591E-01 -1.83480865057E-03 +8.43388758331E-05 -1.87913673433E-03 -3.58547194776E-05 +3.37146141641E-01 -6.03877355297E-01
4.16000000000E+09 +2.04618132613E-01 -5.15824200815E-01 -2.06790106042E-03 +3.64107878927E-04 -2.21831601270E-03 +2.41310443968E-04 +3.17801453610E-01 -6.06879155884E-01
4.16500000000E+09 +1.87370931880E-01 -5.15916962786E-01 -2.07446298931E-03 +8.51921145918E-04 -2.22876724271E-03 +7.26156369166E-04 +2.97066327410E-01 -6.08447154190E-01
4.17000000000E+09 +1.71568735643E-01 -5.14658749078E-01 -1.78207182894E-03 +1.12455170783E-03 -1.86680977823E-03 +1.00839485207E-03 +2.77173368206E-01 -6.08743505817E-01
4.17500000000E+09 +1.55741536520E-01 -5.11456061169E-01 -1.75663041923E-03 +1.50645067363E-03 -1.91634285957E-03 +1.39361535031E-03 +2.56316015008E-01 -6.09225186475E-01
4.18000000000E+09 +1.40186540768E-01 -5.07322208099E-01 -1.03912121763E-03 +1.59695707485E-03 -1.28540716856E-03 +1.55960865423E-03 +2.35908000631E-01 -6.09530671384E-01
4.18500000000E+09 +1.23037259109E-01 -5.02399011498E-01 -1.02167488847E-03 +1.19681199843E-03 -1.24650243700E-03 +1.23436507304E-03 +2.14174157957E-01 -6.10013932126E-01
4.19000000000E+09 +1.04617608094E-01 -4.96844240225E-01 -1.09124393791E-03 +1.14326541443E-03 -1.38804033500E-03 +1.26952506973E-03 +1.92472798934E-01 -6.08661006641E-01
4.19500000000E+09 +8.56631751957E-02 -4.91091424025E-01 -1.22529987388E-03 +1.61576234063E-03 -1.37253986431E-03 +1.77909613422E-03 +1.71679466437E-01 -6.06611802830E-01
4.20000000000E+09 +6.63605192913E-02 -4.87010331740E-01 -8.98391051205E-04 +1.67672385575E-03 -1.03447116554E-03 +1.89669085012E-03 +1.50086973609E-01 -6.04384072078E-01
4.20500000000E+09 +4.64598390605E-02 -4.83514099785E-01 -9.14484540668E-04 +1.95114316396E-03 -9.18976287953E-04 +2.11733260018E-03 +1.27819614019E-01 -6.01326685699E-01
4.21000000000E+09 +2.73061728960E-02 -4.80013634122E-01 -4.89459304970E-04 +1.83417881859E-03 -4.89546456021E-04 +1.96171722044E-03 +1.05381251728E-01 -5.97436718488E-01
4.21500000000E+09 +8.58438660981E-03 -4.76432808712E-01 -4.38545170262E-04 +1.78163325912E-03 -4.63115868643E-04 +1.87969347107E-03 +8.27459090435E-02 -5.92843718114E-01
4.22000000000E+09 -8.77784638552E-03 -4.71241363726E-01 -7.00631274969E-04 +2.03497544610E-03 -6.64541696106E-04 +2.19669986300E-03 +6.14948333846E-02 -5.87412549590E-01
4.22500000000E+09 -2.48326288884E-02 -4.63806267656E-01 -3.71605467407E-05 +2.49156499488E-03 +1.24318143682E-04 +2.59928949918E-03 +4.02532461597E-02 -5.82412789130E-01
4.23000000000E+09 -3.90644991428E-02 -4.55453143716E-01 +2.32269008847E-04 +1.83492544872E-03 +3.60783955243E-04 +1.86562642236E-03 +1.82258137545E-02 -5.76224411570E-01
4.23500000000E+09 -5.40904876781E-02 -4.45551874111E-01 -3.23738291730E-06 +1.87809395878E-03 +1.41577496333E-04 +1.82517646214E-03 -3.06215645606E-03 -5.68257138143E-01
4.24000000000E+09 -7.04421276968E-02 -4.34374557108E-01 -1.74430698109E-04 +2.32830843362E-03 -6.01727743859E-05 +2.28505917004E-03 -2.53288144600E-02 -5.59868944192E-01
4.24500000000E+09 -8.79222726657E-02 -4.21552778517E-01 +4.37014563422E-04 +2.63990288027E-03 +5.15884542190E-04 +2.58241232847E-03 -4.74923599739E-02 -5.49946393501E-01
4.25000000000E+09 -1.06686895079E-01 -4.09138147489E-01 +7.89600363968E-04 +2.52686458551E-03 +8.04201182932E-04 +2.44683288435E-03 -6.91606390312E-02 -5.39743532559E-01
4.25500000000E+09 -1.26417997778E-01 -3.96775822977E-01 +1.21231023484E-03 +2.57938861531E-03 +1.24539793403E-03 +2.50704699071E-03 -9.14724805647E-02 -5.28033188593E-01
4.26000000000E+09 -1.46472009901E-01 -3.85896613944E-01 +1.40702785000E-03 +2.41157495222E-03 +1.35516833736E-03 +2.32616224305E-03 -1.11688966549E-01 -5.14725807344E-01
4.26500000000E+09 -1.67398253227E-01 -3.75512080503E-01 +1.81252478964E-03 +2.36988254113E-03 +1.76295457748E-03 +2.35816609218E-03 -1.31582607576E-01 -5.01934091537E-01
4.27000000000E+09 -1.86509864555E-01 -3.64527816596E-01 +2.13624951238E-03 +2.15126549055E-03 +2.05454688547E-03 +2.20311968235E-03 -1.51859462524E-01 -4.87004605478E-01
4.27500000000E+09 -2.03029941120E-01 -3.53483863032E-01 +2.53662608487E-03 +1.97406544598E-03 +2.52156003843E-03 +2.03773527690E-03 -1.71042449735E-01 -4.72233806134E-01
4.28000000000E+09 -2.16751611251E-01 -3.41730463657E-01 +3.07706618283E-03 +1.48300947846E-03 +3.06859846058E-03 +1.49141127070E-03 -1.90783847092E-01 -4.57065711159E-01
4.28500000000E+09 -2.29506348121E-01 -3.29106802665E-01 +2.86238113965E-03 +6.48092972435E-04 +2.83610340725E-03 +7.31388997093E-04 -2.10720688023E-01 -4.41318065508E-01
4.29000000000E+09 -2.39908198758E-01 -3.13595157110E-01 +2.54446140066E-03 +6.54416316853E-04 +2.56950522288E-03 +8.11037158997E-04 -2.28961998859E-01 -4.24733760446E-01
4.29500000000E+09 -2.50807786732E-01 -2.97217547602E-01 +2.48333660704E-03 +9.43939120712E-04 +2.51413540583E-03 +1.08748610438E-03 -2.47886649327E-01 -4.07778973359E-01
4.30000000000E+09 -2.62193261733E-01 -2.78422724199E-01 +3.26098661355E-03 +7.46970040851E-04 +3.41217880029E-03 +8.79123037170E-04 -2.64462657656E-01 -3.88388682641E-01
4.30500000000E+09 -2.74231891950E-01 -2.57946208657E-01 +3.53117653906E-03 +5.16625111129E-05 +3.69097412737E-03 +9.38211229093E-05 -2.79807829599E-01 -3.69500877901E-01
4.31000000000E+09 -2.87394892838E-01 -2.38017429117E-01 +3.57545624255E-03 -3.80107371653E-04 +3.71496953126E-03 -3.60827761114E-04 -2.95394533898E-01 -3.49647013710E-01
4.31500000000E+09 -3.01732838782E-01 -2.17960481204E-01 +3.51674805503E-03 -1.26345364914E-03 +3.74688335025E-03 -1.34927227292E-03 -3.10072657295E-01 -3.29126298717E-01
4.32000000000E+09 -3.15630972017E-01 -1.99284668909E-01 +2.64570376714E-03 -1.63737269816E-03 +2.75771425655E-03 -1.79157460769E-03 -3.23644576665E-01 -3.08035701868E-01
4.32500000000E+09 -3.29216710045E-01 -1.81993188387E-01 +2.20621725846E-03 -1.33175469409E-03 +2.25891876208E-03 -1.40875439731E-03 -3.37346108162E-01 -2.87245339881E-01
4.33000000000E+09 -3.40559473950E-01 -1.65302417548E-01 +2.69903513720E-03 -1.03220669035E-03 +2.72977989299E-03 -1.14688717481E-03 -3.50523881185E-01 -2.64890013189E-01
4.33500000000E+09 -3.48556251768E-01 -1.49473415155E-01 +2.86484844692E-03 -1.52417436947E-03 +2.89396392916E-03 -1.58030207305E-03 -3.62506851055E-01 -2.41053451349E-01
4.34000000000E+09 -3.54807474562E-01 -1.34687964474E-01 +3.14626490550E-03 -1.81025651292E-03 +3.14185886504E-03 -1.91780804706E-03 -3.73368333924E-01 -2.17381079908E-01
4.34500000000E+09 -3.59595653758E-01 -1.18200716962E-01 +3.12634969353E-03 -2.73558248005E-03 +3.17673794855E-03 -2.91862871557E-03 -3.83813561329E-01 -1.91748520868E-01
4.35000000000E+09 -3.61917014717E-01 -9.92476127931E-02 +2.37954504233E-03 -3.52846475941E-03 +2.39697778572E-03 -3.61871291360E-03 -3.91700780276E-01 -1.66672983199E-01
4.35500000000E+09 -3.63843215531E-01 -7.91684477025E-02 +1.92093728416E-03 -3.76424049740E-03 +1.84898900926E-03 -3.80961089335E-03 -3.99850131309E-01 -1.42977522921E-01
4.36000000000E+09 -3.66427826472E-01 -5.70631909343E-02 +1.41171912062E-03 -4.02817913518E-03 +1.31204651212E-03 -4.09779905459E-03 -4.06286488563E-01 -1.18543351512E-01
4.36500000000E+09 -3.69906436309E-01 -3.36167551732E-02 +5.37584177750E-04 -4.13361189170E-03 +4.73616697748E-04 -4.13953646074E-03 -4.11816620481E-01 -9.46900552697E-02
4.37000000000E+09 -3.74913146956E-01 -1.06724360986E-02 +8.90514853325E-05 -3.71969558667E-03 -2.65601303050E-06 -3.73476206655E-03 -4.15856812271E-01 -6.99824689304E-02
4.37500000000E+09 -3.81274498816E-01 +1.27690705662E-02 -6.80681984387E-05 -3.37625853973E-03 -1.74777446785E-04 -3.36728054962E-03 -4.18674684056E-01 -4.51670248900E-02
4.38000000000E+09 -3.87306724293E-01 +3.44764502473E-02 +2.44041171914E-05 -3.79677569282E-03 -5.71076263871E-05 -3.78781122475E-03 -4.21035417758E-01 -2.06864892337E-02
4.38500000000E+09 -3.92700196539E-01 +5.35786199150E-02 -1.77881719637E-04 -3.99111880693E-03 -2.80239148262E-04 -3.92403635389E-03 -4.23267199437E-01 +4.63668290901E-03
4.39000000000E+09 -3.96290908837E-01 +7.02907292058E-02 -1.06260237047E-03 -4.66631828482E-03 -1.09934282577E-03 -4.58029046283E-03 -4.23891945687E-01 +3.03048915840E-02
4.39500000000E+09 -3.98340581283E-01 +8.49396095720E-02 -2.28844276816E-03 -4.24193930482E-03 -2.33202222267E-03 -4.17703578847E-03 -4.23801855738E-01 +5.43844888584E-02
4.40000000000E+09 -3.98489404194E-01 +9.94390024984E-02 -2.81091808588E-03 -3.49040212108E-03 -2.76988128420E-03 -3.46370839527E-03 -4.22500186635E-01 +7.92754434226E-02
4.40500000000E+09 -3.96214426415E-01 +1.15261271754E-01 -3.04553581880E-03 -2.80404106579E-03 -2.98917491273E-03 -2.81090759523E-03 -4.19527087667E-01 +1.03073845984E-01
4.41000000000E+09 -3.91311028029E-01 +1.32671569483E-01 -2.74356496371E-03 -2.59148017533E-03 -2.80423504270E-03 -2.61300741543E-03 -4.16292020947E-01 +1.26437610712E-01
4.41500000000E+09 -3.85450531169E-01 +1.51679510831E-01 -3.28373365755E-03 -2.41696109844E-03 -3.31307464799E-03 -2.43325263587E-03 -4.11954091198E-01 +1.50975901347E-01
4.42000000000E+09 -3.79893270262E-01 +1.72822215721E-01 -3.47668469499E-03 -2.11558730164E-03 -3.52867215252E-03 -2.13869365151E-03 -4.06576584932E-01 +1.73987170752E-01
4.42500000000E+09 -3.74159695216E-01 +1.95081293433E-01 -3.97661183555E-03 -1.85712644540E-03 -4.01897496516E-03 -1.75379032135E-03 -4.00903034505E-01 +1.97485023393E-01
4.43000000000E+09 -3.70081444769E-01 +2.16746640509E-01 -3.87503993003E-03 -1.08158974255E-03 -3.93299377068E-03 -1.06815427398E-03 -3.94443939822E-01 +2.20035910439E-01
4.43500000000E+09 -3.67845864438E-01 +2.37909611878E-01 -4.15444092890E-03 -9.76863383415E-04 -4.24866766399E-03 -9.36070154268E-04 -3.87386904963E-01 +2.42218360925E-01
4.44000000000E+09 -3.65965309090E-01 +2.57434933883E-01 -4.30052140189E-03 -2.38298459772E-04 -4.35617692532E-03 -2.38004060081E-04 -3.78746022241E-01 +2.64973308242E-01
4.44500000000E+09 -3.64456835957E-01 +2.74519717071E-01 -4.11007740276E-03 +2.66659176707E-04 -4.18116124816E-03 +3.59483279833E-04 -3.68907219713E-01 +2.84795597561E-01
4.45000000000E+09 -3.61967281112E-01 +2.89329730852E-01 -4.20334578387E-03 +6.98435866127E-04 -4.24889947964E-03 +8.60656430473E-04 -3.59219765775E-01 +3.04802608326E-01
4.45500000000E+09 -3.57831620518E-01 +3.02567820366E-01 -4.09734553101E-03 +1.51426024784E-03 -4.11833045881E-03 +1.63996096712E-03 -3.48039695807E-01 +3.23437149988E-01
4.46000000000E+09 -3.51849463036E-01 +3.14721363619E-01 -3.33757602963E-03 +1.99165140125E-03 -3.34552535162E-03 +2.19815996171E-03 -3.38401954844E-01 +3.41135003772E-01
4.46500000000E+09 -3.43094761703E-01 +3.28068752837E-01 -2.89645029586E-03 +2.05409430657E-03 -2.84220322306E-03 +2.31144714891E-03 -3.26600530335E-01 +3.59809742720E-01
4.47000000000E+09 -3.32181270048E-01 +3.42055838789E-01 -2.59048011879E-03 +1.80327290879E-03 -2.50168892286E-03 +1.91390347366E-03 -3.14548716301E-01 +3.77062112819E-01
4.47500000000E+09 -3.20283543069E-01 +3.58384613949E-01 -3.23780762862E-03 +2.05963485242E-03 -3.12036722722E-03 +2.20222611954E-03 -3.02632369979E-01 +3.93459335406E-01
4.48000000000E+09 -3.07511460352E-01 +3.76042353906E-01 -2.55709453854E-03 +2.76282719179E-03 -2.40510420267E-03 +2.80896475076E-03 -2.90441500333E-01 +4.09932200135E-01
4.48500000000E+09 -2.94928727383E-01 +3.94182992292E-01 -2.26201287723E-03 +3.01246579515E-03 -2.05712797293E-03 +3.05156382027E-03 -2.78028215695E-01 +4.25712363493E-01
4.49000000000E+09 -2.84741968310E-01 +4.11373495496E-01 -1.89531575813E-03 +3.25494346479E-03 -1.73409120872E-03 +3.23514386469E-03 -2.64746195091E-01 +4.41364006499E-01
4.49500000000E+09 -2.76395229144E-01 +4.29244349113E-01 -1.26110193365E-03 +3.25674318544E-03 -1.03286160533E-03 +3.19673615389E-03 -2.51475746118E-01 +4.55143693586E-01
4.50000000000E+09 -2.68979449330E-01 +4.44399993267E-01 -1.14071393314E-03 +3.11248935350E-03 -9.64832469946E-04 +3.02291323897E-03 -2.38452345798E-01 +4.68859241562E-01
4.50500000000E+09 -2.63033585215E-01 +4.57361857276E-01 -8.09481503155E-04 +3.21137202819E-03 -7.20019494241E-04 +2.98624998357E-03 -2.24524047603E-01 +4.81910456837E-01
4.51000000000E+09 -2.56766950639E-01 +4.68528163736E-01 -6.49405394183E-04 +3.19505568196E-03 -5.82922303455E-04 +2.99344453917E-03 -2.11119663202E-01 +4.94306633554E-01
4.51500000000E+09 -2.48466302722E-01 +4.77713971080E-01 -4.09974522988E-04 +3.30196511517E-03 -3.29876947877E-04 +3.14334586324E-03 -1.97214996868E-01 +5.06226598877E-01
4.52000000000E+09 -2.38929429238E-01 +4.85280273260E-01 -3.34577511173E-04 +3.27104373576E-03 -2.71399008885E-04 +3.11831584464E-03 -1.83466623915E-01 +5.17712144726E-01
4.52500000000E+09 -2.27327189974E-01 +4.93207615459E-01 -8.68551699449E-06 +3.49221452395E-03 -4.45735965561E-05 +3.26413481664E-03 -1.70185986085E-01 +5.28218324201E-01
4.53000000000E+09 -2.13298411990E-01 +5.01792579244E-01 +3.06496280174E-04 +3.88844146258E-03 +2.84628173608E-04 +3.73669700844E-03 -1.56366930856E-01 +5.38989414645E-01
4.53500000000E+09 -1.97895014741E-01 +5.11278138722E-01 +1.18002104258E-03 +3.78252016156E-03 +1.13479380725E-03 +3.64405104271E-03 -1.41593997934E-01 +5.49022050147E-01
4.54000000000E+09 -1.82312366242E-01 +5.21960196253E-01 +1.64703387252E-03 +3.57112946820E-03 +1.56587628326E-03 +3.43023817159E-03 -1.26579218693E-01 +5.58746594289E-01
4.54500000000E+09 -1.67181568960E-01 +5.33000626903E-01 +1.90562748839E-03 +3.22600773388E-03 +1.84479056354E-03 +3.15695992003E-03 -1.11311865686E-01 +5.67594311964E-01
4.55000000000E+09 -1.54238149718E-01 +5.43930802420E-01 +2.52535606601E-03 +3.00865690424E-03 +2.38459656159E-03 +2.97559308876E-03 -9.64362177770E-02 +5.75956755755E-01
4.55500000000E+09 -1.43173875569E-01 +5.54894425705E-01 +2.72437389491E-03 +2.37753500745E-03 +2.64889528902E-03 +2.40226462175E-03 -8.25070233069E-02 +5.84213295143E-01
4.56000000000E+09 -1.33702588026E-01 +5.64796627186E-01 +2.63839916305E-03 +2.03578456291E-03 +2.60046549349E-03 +2.12665717534E-03 -6.78253655215E-02 +5.92598803714E-01
4.56500000000E+09 -1.25203911032E-01 +5.72952463395E-01 +2.95363029069E-03 +1.91241632645E-03 +2.95933985363E-03 +1.87859496330E-03 -5.33299920166E-02 +5.99771404983E-01
4.57000000000E+09 -1.16417599123E-01 +5.79879098279E-01 +2.89138984858E-03 +1.46777295350E-03 +2.85773655051E-03 +1.46385723057E-03 -3.85869227683E-02 +6.06636658902E-01
