# Hz S RI R 50
! CMT, C1220, 16058040, 17.2.0/1
! Date: 15/08/2018 12:04:12
! Data: Format (Calibration Info)
! Freq                      S11: Re/Im (F2)                       S21: Re/Im (F2)                       S12: Re/Im (F2)                       S22: Re/Im (F2)            
4.00000000000E+09 +6.65169193806E-01 -3.39838509769E-01 +1.48470636929E-03 -6.28469025247E-04 +1.52699062730E-03 -6.05897572421E-04 +7.77249969762E-01 -3.39469690485E-01
4.00500000000E+09 +6.57391291015E-01 -3.45991279033E-01 +1.40509429755E-03 -6.46839185039E-04 +1.43375828409E-03 -6.21089314943E-04 +7.68616848206E-01 -3.51177852309E-01
4.01000000000E+09 +6.48456982492E-01 -3.52393771128E-01 +1.27991232591E-03 -6.53916989938E-04 +1.33814715776E-03 -6.09586871604E-04 +7.59225904407E-01 -3.62359007953E-01
4.01500000000E+09 +6.37970912079E-01 -3.59100197549E-01 +1.43587987040E-03 -6.25468832976E-04 +1.45128740978E-03 -6.27148572683E-04 +7.49704015409E-01 -3.72789951934E-01
4.02000000000E+09 +6.27129575306E-01 -3.65905548267E-01 +1.51411494376E-03 -9.89925082618E-04 +1.62566051861E-03 -1.00829218331E-03 +7.40217458727E-01 -3.83253205424E-01
4.02500000000E+09 +6.16408557085E-01 -3.74655827798E-01 +1.42089721678E-03 -1.31535911532E-03 +1.47858501263E-03 -1.25932781385E-03 +7.30209974188E-01 -3.93544292562E-01
4.03000000000E+09 +6.04799710444E-01 -3.85026470330E-01 +1.06564529532E-03 -1.65344979103E-03 +1.10808749335E-03 -1.66879369821E-03 +7.19906499879E-01 -4.03820356007E-01
4.03500000000E+09 +5.93474116085E-01 -3.95486217778E-01 +6.36839560867E-04 -1.42061610036E-03 +7.31022404167E-04 -1.42007193135E-03 +7.09079404556E-01 -4.14567079420E-01
4.04000000000E+09 +5.82297318660E-01 -4.06528743748E-01 +7.63107252452E-04 -1.23243181911E-03 +8.34715196480E-04 -1.27269324659E-03 +6.98328807332E-01 -4.25511441186E-01
4.04500000000E+09 +5.70987153711E-01 -4.17012701816E-01 +7.10243798566E-04 -1.28989996584E-03 +7.43290131839E-04 -1.26025843657E-03 +6.86937754417E-01 -4.36412935456E-01
4.05000000000E+09 +5.59823497365E-01 -4.25661073124E-01 +8.05882250224E-04 -1.35541420637E-03 +9.26884583595E-04 -1.42188451301E-03 +6.75470506814E-01 -4.46395475345E-01
4.05500000000E+09 +5.48223373933E-01 -4.32737534182E-01 +8.02694857279E-04 -1.75809209128E-03 +8.99822270115E-04 -1.73374259292E-03 +6.63868036947E-01 -4.56320738218E-01
4.06000000000E+09 +5.36393418707E-01 -4.38188537379E-01 +5.06408258147E-04 -1.90609274956E-03 +5.58930859373E-04 -1.97200601499E-03 +6.51354465478E-01 -4.66486467303E-01
4.06500000000E+09 +5.24071494689E-01 -4.42582439177E-01 +2.41576702148E-04 -1.74666088473E-03 +2.62076193074E-04 -1.79546666086E-03 +6.38301174009E-01 -4.75458207450E-01
4.07000000000E+09 +5.10817799893E-01 -4.46854327654E-01 +3.12829470302E-04 -1.93602416809E-03 +3.45978975521E-04 -2.00412246687E-03 +6.24580045641E-01 -4.85322112136E-01
4.07500000000E+09 +4.96258472089E-01 -4.51844436661E-01 -4.90414297929E-05 -2.11513874813E-03 +4.82353765236E-05 -2.13650532460E-03 +6.10796119000E-01 -4.94577744408E-01
4.08000000000E+09 +4.80669345379E-01 -4.57093440806E-01 -2.17150270827E-04 -2.10941919584E-03 -1.75042161634E-04 -2.13908789310E-03 +5.97449860284E-01 -5.03887856434E-01
4.08500000000E+09 +4.64562584818E-01 -4.63308780829E-01 -6.32844601783E-04 -2.03628641854E-03 -5.69362240261E-04 -2.04172494713E-03 +5.83452334388E-01 -5.13416406384E-01
4.09000000000E+09 +4.48035143696E-01 -4.70101217581E-01 -5.76013212573E-04 -1.87225963237E-03 -5.02991793384E-04 -1.91165751384E-03 +5.69076475066E-01 -5.21536417893E-01
4.09500000000E+09 +4.32185280216E-01 -4.76935608043E-01 -6.77128630114E-04 -1.88614789855E-03 -6.43716612586E-04 -1.97905358568E-03 +5.54706305111E-01 -5.29824702526E-01
4.10000000000E+09 +4.15951754186E-01 -4.83666235432E-01 -7.82369537557E-04 -2.10499323234E-03 -7.38176073501E-04 -2.19099248717E-03 +5.38925467065E-01 -5.38094611260E-01
4.10500000000E+09 +4.00466522222E-01 -4.88761669869E-01 -1.20178086251E-03 -2.16768237536E-03 -1.15938794985E-03 -2.28067627102E-03 +5.22419176387E-01 -5.45850900116E-01
4.11000000000E+09 +3.84974485239E-01 -4.92553175641E-01 -1.52846775275E-03 -2.03874446316E-03 -1.50974524952E-03 -2.14221406255E-03 +5.05281477521E-01 -5.53542952006E-01
4.11500000000E+09 +3.69842444857E-01 -4.94414718133E-01 -1.97985664450E-03 -1.67357238875E-03 -1.99969651432E-03 -1.81641910626E-03 +4.88184801780E-01 -5.60724210908E-01
4.12000000000E+09 +3.54600971766E-01 -4.95208867206E-01 -1.91771036541E-03 -1.33971341883E-03 -1.90492665886E-03 -1.47490997769E-03 +4.70940609159E-01 -5.67327729827E-01
4.12500000000E+09 +3.39062758310E-01 -4.96167846439E-01 -1.98278231147E-03 -1.25563461159E-03 -2.03736341492E-03 -1.35996514517E-03 +4.53564753847E-01 -5.73639563770E-01
4.13000000000E+09 +3.21122631441E-01 -4.97536974666E-01 -2.07395718686E-03 -1.29655272089E-03 -2.07116318911E-03 -1.40894733256E-03 +4.36452239295E-01 -5.79125163985E-01
4.13500000000E+09 +3.02652865746E-01 -4.98222878957E-01 -2.38487019930E-03 -1.11831085931E-03 -2.41411557928E-03 -1.20354319806E-03 +4.17948138492E-01 -5.85002757655E-01
4.14000000000E+09 +2.84068796425E-01 -5.00783826194E-01 -2.56242117417E-03 -7.39811716663E-04 -2.63781324379E-03 -8.26598036804E-04 +3.98745500206E-01 -5.89983808707E-01
4.14500000000E+09 +2.64679318802E-01 -5.04557997118E-01 -2.52066419089E-03 -3.29565581628E-04 -2.62382196244E-03 -3.62399743859E-04 +3.79724630070E-01 -5.95046912907E-01
4.15000000000E+09 +2.45203181725E-01 -5.09197952888E-01 -2.37219415279E-03 -2.36082849287E-04 -2.47588506132E-03 -3.76685528651E-04 +3.59771083622E-01 -6.00054906518E-01
4.15500000000E+09 +2.25698373691E-01 -5.13142744872E-01 -2.46867871711E-03 -3.84092424209E-04 -2.55645907954E-03 -3.95269031289E-04 +3.40357423920E-01 -6.03370805172E-01
4.16000000000E+09 +2.06940436574E-01 -5.16074090411E-01 -2.83850740635E-03 -7.65219595725E-05 -2.92080605586E-03 -4.84400730206E-05 +3.20816485315E-01 -6.06485970867E-01
4.16500000000E+09 +1.89561825050E-01 -5.16568018511E-01 -2.98536962914E-03 +3.78376343762E-04 -3.01744069973E-03 +4.26624042584E-04 +2.99976533409E-01 -6.08375422834E-01
4.17000000000E+09 +1.73483256875E-01 -5.15711032623E-01 -2.77632596017E-03 +6.12028933875E-04 -2.82988135925E-03 +6.58540269608E-04 +2.79985541230E-01 -6.08586971545E-01
4.17500000000E+09 +1.57256122563E-01 -5.12655877324E-01 -2.91816853690E-03 +1.28955707389E-03 -2.95306372523E-03 +1.28363381415E-03 +2.59281765728E-01 -6.09352421556E-01
4.18000000000E+09 +1.41472692927E-01 -5.08596097707E-01 -2.07761435278E-03 +1.35825975154E-03 -2.16280117480E-03 +1.39932617474E-03 +2.38689101281E-01 -6.10083816328E-01
4.18500000000E+09 +1.24389984300E-01 -5.03937884856E-01 -2.30152584084E-03 +1.00661792991E-03 -2.34057719691E-03 +9.38223904901E-04 +2.16515233824E-01 -6.10911503762E-01
4.19000000000E+09 +1.05988346235E-01 -4.98520456043E-01 -2.62028924180E-03 +1.21153087412E-03 -2.67260316153E-03 +1.23055030979E-03 +1.94152526463E-01 -6.09486842316E-01
4.19500000000E+09 +8.70541329813E-02 -4.92925629595E-01 -2.69650882776E-03 +1.94578140669E-03 -2.79054280870E-03 +1.90015156272E-03 +1.72869373969E-01 -6.07116322985E-01
4.20000000000E+09 +6.75496951144E-02 -4.89040369171E-01 -2.43186843953E-03 +2.14963190076E-03 -2.51988267994E-03 +2.19031130512E-03 +1.51511981066E-01 -6.04671192487E-01
4.20500000000E+09 +4.74538165555E-02 -4.85537709732E-01 -2.35764931322E-03 +2.64436904920E-03 -2.42616314586E-03 +2.71431424310E-03 +1.29489664773E-01 -6.01567895571E-01
4.21000000000E+09 +2.83604993965E-02 -4.82012621052E-01 -1.90467854668E-03 +2.65759398183E-03 -1.95267800518E-03 +2.75040351576E-03 +1.07081862416E-01 -5.97762708408E-01
4.21500000000E+09 +9.56340618496E-03 -4.78507025240E-01 -1.94139944738E-03 +2.84371596779E-03 -2.05015476453E-03 +2.94314392965E-03 +8.44326601513E-02 -5.93188022007E-01
4.22000000000E+09 -7.97238418218E-03 -4.73591262129E-01 -1.85094430771E-03 +3.58565334739E-03 -1.87446581432E-03 +3.61700101129E-03 +6.28258117357E-02 -5.87883313255E-01
4.22500000000E+09 -2.40922047359E-02 -4.66371917520E-01 -9.03502464751E-04 +4.08145092907E-03 -9.82744771545E-04 +4.09753998687E-03 +4.13713062330E-02 -5.82373338349E-01
4.23000000000E+09 -3.87233714023E-02 -4.58479836881E-01 -4.55930183267E-04 +3.46400035854E-03 -5.00794427699E-04 +3.57098850781E-03 +1.94918442515E-02 -5.76287366474E-01
4.23500000000E+09 -5.42496192252E-02 -4.48745909796E-01 -3.65429355973E-04 +3.68976146464E-03 -4.15880344297E-04 +3.79393321719E-03 -2.02737543488E-03 -5.68516717851E-01
4.24000000000E+09 -7.09598769255E-02 -4.37521824321E-01 -2.08164389227E-04 +3.79287991440E-03 -2.71654117325E-04 +3.86789504147E-03 -2.43457150654E-02 -5.60060759321E-01
4.24500000000E+09 -8.84839253432E-02 -4.24668926344E-01 +1.68829049486E-04 +4.19832924321E-03 +1.33637479154E-04 +4.26076464473E-03 -4.62009952244E-02 -5.49920897253E-01
4.25000000000E+09 -1.07318111193E-01 -4.12159543889E-01 +7.79430742809E-04 +4.29580419061E-03 +7.64696783908E-04 +4.41708239033E-03 -6.76187234432E-02 -5.40200200092E-01
4.25500000000E+09 -1.27055896690E-01 -3.99707655583E-01 +1.39394965147E-03 +4.28897733894E-03 +1.41252942793E-03 +4.40608144697E-03 -9.03367377864E-02 -5.28909247592E-01
4.26000000000E+09 -1.47249369568E-01 -3.89081029771E-01 +1.79669777189E-03 +4.22609847031E-03 +1.76105972759E-03 +4.34483456355E-03 -1.11113763210E-01 -5.15646560619E-01
4.26500000000E+09 -1.68464407560E-01 -3.78684326472E-01 +2.54764713242E-03 +4.15959668952E-03 +2.65290694050E-03 +4.32704861356E-03 -1.31360193688E-01 -5.02440407278E-01
4.27000000000E+09 -1.88032875028E-01 -3.67618410780E-01 +3.16057667862E-03 +3.57905841953E-03 +3.24219298604E-03 +3.69377742682E-03 -1.51684129952E-01 -4.87374767878E-01
4.27500000000E+09 -2.04871470245E-01 -3.56373315467E-01 +3.61680653568E-03 +3.18521273479E-03 +3.76854274999E-03 +3.27115973457E-03 -1.71111445089E-01 -4.72355495301E-01
4.28000000000E+09 -2.19047441328E-01 -3.44824985362E-01 +3.81862341484E-03 +2.41718824773E-03 +4.00085900983E-03 +2.45074602286E-03 -1.90706450183E-01 -4.56547516946E-01
4.28500000000E+09 -2.32373248304E-01 -3.31967132378E-01 +3.66011484952E-03 +1.94421268240E-03 +3.79217367103E-03 +1.99528208152E-03 -2.10355589990E-01 -4.41010784012E-01
4.29000000000E+09 -2.42962910266E-01 -3.16661991691E-01 +3.70414171098E-03 +1.99051734784E-03 +3.80054191607E-03 +1.96310510953E-03 -2.28519292436E-01 -4.24383663652E-01
4.29500000000E+09 -2.54137117292E-01 -3.00267017226E-01 +3.79705468023E-03 +2.11797652534E-03 +3.93489209875E-03 +2.09175675425E-03 -2.47566978469E-01 -4.07341487427E-01
4.30000000000E+09 -2.65907411864E-01 -2.81957089506E-01 +4.77134520029E-03 +1.72453663734E-03 +4.92747795312E-03 +1.70169879532E-03 -2.64188528853E-01 -3.87672914679E-01
4.30500000000E+09 -2.78425910174E-01 -2.61599247644E-01 +5.11254497616E-03 +9.63338095281E-04 +5.21584499776E-03 +9.08643042561E-04 -2.79132522087E-01 -3.68418959503E-01
4.31000000000E+09 -2.92049951377E-01 -2.41462714672E-01 +5.41835294958E-03 +3.09075657505E-04 +5.56247502274E-03 +2.24517763253E-04 -2.94411473311E-01 -3.48993418555E-01
4.31500000000E+09 -3.06704494938E-01 -2.20972634257E-01 +5.37621584022E-03 -8.70086966865E-04 +5.47093401095E-03 -9.23230414314E-04 -3.09285344204E-01 -3.28140597097E-01
4.32000000000E+09 -3.20536500457E-01 -2.01672676797E-01 +4.52361323002E-03 -1.48429189847E-03 +4.61065115555E-03 -1.53515577746E-03 -3.22388612270E-01 -3.06843022701E-01
4.32500000000E+09 -3.34172641769E-01 -1.84127524408E-01 +4.08390337897E-03 -1.37122057035E-03 +4.10821017743E-03 -1.48927100201E-03 -3.35410285932E-01 -2.86302892756E-01
4.33000000000E+09 -3.45540929986E-01 -1.66817820995E-01 +4.57508095337E-03 -1.08129459805E-03 +4.57629400818E-03 -1.19882102120E-03 -3.48360213654E-01 -2.64434639938E-01
4.33500000000E+09 -3.53705605427E-01 -1.50520364700E-01 +4.81419125808E-03 -1.73098842707E-03 +4.82428838504E-03 -1.87685783202E-03 -3.60526023824E-01 -2.40995491660E-01
4.34000000000E+09 -3.60268777914E-01 -1.35054561794E-01 +5.13966297311E-03 -2.31306123900E-03 +5.05412702045E-03 -2.41286999992E-03 -3.71483614179E-01 -2.17388199698E-01
4.34500000000E+09 -3.64955433858E-01 -1.17917899904E-01 +5.08521697966E-03 -3.62374354978E-03 +4.98170885078E-03 -3.71594650146E-03 -3.81891823323E-01 -1.91653538859E-01
4.35000000000E+09 -3.67346261669E-01 -9.89248358230E-02 +4.05466754955E-03 -4.47624985771E-03 +4.02818774506E-03 -4.50950056311E-03 -3.89508830486E-01 -1.66856067653E-01
4.35500000000E+09 -3.69512989642E-01 -7.85255545387E-02 +3.76232363348E-03 -4.84291081800E-03 +3.78182152663E-03 -4.86382216746E-03 -3.97492303796E-01 -1.43672635884E-01
4.36000000000E+09 -3.72135072476E-01 -5.62759202551E-02 +2.89492370924E-03 -5.44269452793E-03 +2.92572649521E-03 -5.51787831528E-03 -4.04234517787E-01 -1.19473466307E-01
4.36500000000E+09 -3.75841941102E-01 -3.25799713029E-02 +2.05885127081E-03 -5.69184597891E-03 +1.99640445517E-03 -5.70833762818E-03 -4.09858942929E-01 -9.57761674187E-02
4.37000000000E+09 -3.80955415229E-01 -9.36808367297E-03 +1.36261121048E-03 -5.59278327239E-03 +1.38562664325E-03 -5.58991311923E-03 -4.13969897590E-01 -7.15850375728E-02
4.37500000000E+09 -3.86660680569E-01 +1.42083392954E-02 +8.59764160700E-04 -5.33857453947E-03 +7.78974244223E-04 -5.30967190803E-03 -4.17384465303E-01 -4.66284519305E-02
4.38000000000E+09 -3.92799736473E-01 +3.56054826237E-02 +8.54808309775E-04 -5.66425708847E-03 +7.54524821391E-04 -5.71048528055E-03 -4.19479224822E-01 -2.19561760033E-02
4.38500000000E+09 -3.97908536160E-01 +5.48953909323E-02 +4.24998668005E-04 -6.04058348014E-03 +3.26427546012E-04 -6.09140137277E-03 -4.21606885281E-01 +3.15907468723E-03
4.39000000000E+09 -4.01502320544E-01 +7.14366225299E-02 -7.02496810172E-04 -6.57584440698E-03 -8.42011742624E-04 -6.63979280244E-03 -4.22548204337E-01 +2.84810226126E-02
4.39500000000E+09 -4.03813428363E-01 +8.65771266573E-02 -1.97311286668E-03 -6.44392205835E-03 -2.09887700698E-03 -6.41207581498E-03 -4.22490010403E-01 +5.26985810407E-02
4.40000000000E+09 -4.03703252448E-01 +1.01778462269E-01 -2.73196342746E-03 -5.78092669091E-03 -2.83891482763E-03 -5.83590271656E-03 -4.21318799934E-01 +7.71073961118E-02
4.40500000000E+09 -4.01273961757E-01 +1.18127722182E-01 -3.51649755338E-03 -5.19515568785E-03 -3.54192754783E-03 -5.14554865804E-03 -4.18605252652E-01 +1.01194920129E-01
4.41000000000E+09 -3.95698431728E-01 +1.35597443017E-01 -3.60521099655E-03 -4.75132200966E-03 -3.72090728801E-03 -4.73032595723E-03 -4.15147526829E-01 +1.24113897708E-01
4.41500000000E+09 -3.89704226615E-01 +1.54563062256E-01 -4.35479803703E-03 -4.29293782753E-03 -4.40831907847E-03 -4.20551300851E-03 -4.10865084801E-01 +1.48604775657E-01
4.42000000000E+09 -3.84364520426E-01 +1.75757046133E-01 -4.59800503657E-03 -3.70478712897E-03 -4.66986035489E-03 -3.67195524609E-03 -4.05416132887E-01 +1.71280042720E-01
4.42500000000E+09 -3.79156896779E-01 +1.98372486484E-01 -4.96803459825E-03 -3.42034854149E-03 -5.02011723838E-03 -3.27695148584E-03 -4.00031508109E-01 +1.94170273316E-01
4.43000000000E+09 -3.74957121505E-01 +2.20901024965E-01 -5.05755882447E-03 -2.61474080219E-03 -5.14279376541E-03 -2.55206916434E-03 -3.94506040648E-01 +2.16545743806E-01
4.43500000000E+09 -3.72325788822E-01 +2.42562348161E-01 -5.65329351346E-03 -2.44068226410E-03 -5.62786326397E-03 -2.35846719164E-03 -3.88077893804E-01 +2.38841537169E-01
4.44000000000E+09 -3.69860681898E-01 +2.62317574540E-01 -5.88616251441E-03 -1.55657250455E-03 -5.89560304285E-03 -1.45950051060E-03 -3.79628459030E-01 +2.61917597665E-01
4.44500000000E+09 -3.67796711542E-01 +2.79118743656E-01 -5.88493417473E-03 -8.97870797960E-04 -5.84665079366E-03 -8.10363932912E-04 -3.69827314728E-01 +2.81809574671E-01
4.45000000000E+09 -3.65341317308E-01 +2.93699095078E-01 -6.20407480872E-03 -3.02575615975E-04 -6.19397213468E-03 -1.52530226970E-04 -3.60330094185E-01 +3.01588576872E-01
4.45500000000E+09 -3.61146637743E-01 +3.06997507481E-01 -6.16579440188E-03 +8.84260183725E-04 -6.10756163786E-03 +1.08797049483E-03 -3.49327617527E-01 +3.20386547480E-01
4.46000000000E+09 -3.55192294985E-01 +3.19746239527E-01 -5.32047908769E-03 +1.68173799241E-03 -5.26912270063E-03 +1.86429382857E-03 -3.40275687987E-01 +3.38184913228E-01
4.46500000000E+09 -3.45653169275E-01 +3.33218519801E-01 -4.91092953557E-03 +1.77551164268E-03 -4.84120434236E-03 +1.86923486786E-03 -3.28514215947E-01 +3.57085087844E-01
4.47000000000E+09 -3.34332949575E-01 +3.47247322147E-01 -4.59764554909E-03 +1.79270503666E-03 -4.52249279607E-03 +1.96582543486E-03 -3.16887827215E-01 +3.74496904849E-01
4.47500000000E+09 -3.21705595535E-01 +3.63198074736E-01 -5.11815093881E-03 +2.26918369291E-03 -4.99489670131E-03 +2.36899830510E-03 -3.05141304262E-01 +3.91013942228E-01
4.48000000000E+09 -3.08647072811E-01 +3.80634202950E-01 -4.66754015034E-03 +3.03801566469E-03 -4.49936167483E-03 +3.14052400554E-03 -2.93409492470E-01 +4.07753915558E-01
4.48500000000E+09 -2.95894238778E-01 +3.98629738467E-01 -4.21956374923E-03 +3.80348326574E-03 -4.04910611506E-03 +3.83751316728E-03 -2.81098620129E-01 +4.23918397130E-01
4.49000000000E+09 -2.85622356306E-01 +4.15758842499E-01 -3.74567116533E-03 +4.11439431375E-03 -3.55494383350E-03 +4.08759780228E-03 -2.67694479802E-01 +4.39770617553E-01
4.49500000000E+09 -2.77079413398E-01 +4.33783843132E-01 -3.06866758672E-03 +4.40477405625E-03 -2.87706522326E-03 +4.29671135867E-03 -2.54392858921E-01 +4.53602118541E-01
4.50000000000E+09 -2.69449677277E-01 +4.48819464203E-01 -2.48509412342E-03 +4.53972697828E-03 -2.39839121587E-03 +4.45428680181E-03 -2.41408112833E-01 +4.67402583677E-01
4.50500000000E+09 -2.63640118916E-01 +4.61898226726E-01 -1.87291385918E-03 +4.46512374001E-03 -1.77283696178E-03 +4.35330694017E-03 -2.27684827710E-01 +4.80656116355E-01
4.51000000000E+09 -2.57132941516E-01 +4.73355361398E-01 -1.76777959397E-03 +4.37667103345E-03 -1.65985305074E-03 +4.29212977772E-03 -2.14447690175E-01 +4.93520884192E-01
4.51500000000E+09 -2.48457717755E-01 +4.82477789095E-01 -1.41198033897E-03 +4.65052933478E-03 -1.34780012561E-03 +4.56863213318E-03 -2.00440037933E-01 +5.05763141628E-01
4.52000000000E+09 -2.38671120328E-01 +4.89663331862E-01 -1.15670825450E-03 +4.70129575811E-03 -1.07907588614E-03 +4.69059518860E-03 -1.86677260640E-01 +5.17449616876E-01
4.52500000000E+09 -2.27066377036E-01 +4.97301410401E-01 -7.42171456333E-04 +4.89553000998E-03 -6.16421344410E-04 +4.82447655579E-03 -1.73164856300E-01 +5.27935255734E-01
4.53000000000E+09 -2.13268482410E-01 +5.05649685190E-01 -2.81516001250E-04 +5.34230478657E-03 -2.11485704107E-04 +5.19729419795E-03 -1.59288653602E-01 +5.38698688686E-01
4.53500000000E+09 -1.97870126371E-01 +5.15221939005E-01 +5.04420309889E-04 +5.16420512712E-03 +6.36295243792E-04 +5.02854238649E-03 -1.44422138076E-01 +5.48581620291E-01
4.54000000000E+09 -1.81960375586E-01 +5.25955061956E-01 +1.11972183516E-03 +5.20805959312E-03 +1.18968877197E-03 +5.05279206610E-03 -1.29497022918E-01 +5.58370043246E-01
4.54500000000E+09 -1.66414078942E-01 +5.36942646290E-01 +1.50053244079E-03 +4.90786781918E-03 +1.56060398278E-03 +4.75090730401E-03 -1.14361074245E-01 +5.67232077519E-01
4.55000000000E+09 -1.52976119063E-01 +5.47657389537E-01 +2.40947042542E-03 +4.87605449520E-03 +2.41698243947E-03 +4.68179863528E-03 -9.96224350364E-02 +5.76101934646E-01
4.55500000000E+09 -1.41810920607E-01 +5.58249224308E-01 +2.84397620119E-03 +4.08760423006E-03 +2.83920594927E-03 +3.90927903668E-03 -8.55918505978E-02 +5.84330472751E-01
4.56000000000E+09 -1.32209746346E-01 +5.68000363560E-01 +2.71756170135E-03 +3.72976062766E-03 +2.75288530860E-03 +3.70152590138E-03 -7.11496564776E-02 +5.92989197019E-01
4.56500000000E+09 -1.23801585991E-01 +5.75989366349E-01 +3.19933340905E-03 +3.67478568373E-03 +3.21498495228E-03 +3.53599760856E-03 -5.66401696126E-02 +6.00279489738E-01
4.57000000000E+09 -1.14931415678E-01 +5.83139662317E-01 +3.35356064749E-03 +3.34154771971E-03 +3.33124644193E-03 +3.16543302809E-03 -4.19084840407E-02 +6.07400657278E-01
