# Hz S RI R 50
! CMT, C1220, 16058040, 17.2.0/1
! Date: 15/08/2018 12:33:46
! Data: Format (Calibration Info)
! Freq                      S11: Re/Im (F2)                       S21: Re/Im (F2)                       S12: Re/Im (F2)                       S22: Re/Im (F2)            
4.00000000000E+09 +6.60409065670E-01 -3.63825247293E-01 -4.79160452066E-04 -3.17379893530E-04 -4.78402127679E-04 -3.90426569458E-04 +7.82994691078E-01 -3.18189402360E-01
4.00500000000E+09 +6.52667632325E-01 -3.70599776681E-01 -3.24219066629E-04 -1.37887446433E-04 -3.37804479645E-04 -1.39327252262E-04 +7.74551419750E-01 -3.29967815729E-01
4.01000000000E+09 +6.43610523272E-01 -3.77059090583E-01 -3.47586852976E-04 -2.89380229198E-04 -3.06956336689E-04 -2.62027090739E-04 +7.65730221428E-01 -3.41994510761E-01
4.01500000000E+09 +6.34277239912E-01 -3.83791975527E-01 -4.17721245789E-04 -2.46131354818E-04 -4.05507818226E-04 -2.02078611982E-04 +7.56862449984E-01 -3.53016076754E-01
4.02000000000E+09 +6.23911161739E-01 -3.92099381895E-01 -3.50192010130E-04 -2.24639866033E-04 -3.38444067770E-04 -2.14201484376E-04 +7.47535897650E-01 -3.63635652405E-01
4.02500000000E+09 +6.12938745491E-01 -4.01345793321E-01 -4.26705962697E-04 -1.67175022370E-04 -3.59086564973E-04 -1.71421801608E-04 +7.37828354894E-01 -3.73609513131E-01
4.03000000000E+09 +6.01121933031E-01 -4.11466768716E-01 -4.19522675706E-04 -2.15995764355E-04 -4.29559301865E-04 -2.02131168013E-04 +7.27848828366E-01 -3.83857640873E-01
4.03500000000E+09 +5.89907811797E-01 -4.21595372075E-01 -4.71103076407E-04 -1.65381099014E-04 -4.47004432734E-04 -2.06112915411E-04 +7.17044297550E-01 -3.94750543432E-01
4.04000000000E+09 +5.78843842973E-01 -4.32114859166E-01 -5.86281496182E-04 -6.57182988362E-05 -5.64284878688E-04 -1.18098576445E-04 +7.06256395465E-01 -4.05940547054E-01
4.04500000000E+09 +5.67216994657E-01 -4.41978352177E-01 -5.63239842121E-04 +5.32908929794E-05 -5.64307687756E-04 +3.67945596961E-05 +6.95462329567E-01 -4.17321369810E-01
4.05000000000E+09 +5.55928192243E-01 -4.49635503468E-01 -4.56393549276E-04 +1.80093357130E-04 -4.43545869303E-04 +1.18728976419E-04 +6.84533258304E-01 -4.28152964811E-01
4.05500000000E+09 +5.44710728858E-01 -4.56622476561E-01 -3.87752276853E-04 +1.19107727619E-04 -3.97358714018E-04 +8.47419281284E-05 +6.73091950182E-01 -4.37724301050E-01
4.06000000000E+09 +5.32073761993E-01 -4.61952593233E-01 -4.50407725574E-04 +1.24590356574E-04 -4.58925537547E-04 +4.24966233766E-05 +6.61701796177E-01 -4.47073825075E-01
4.06500000000E+09 +5.19796326996E-01 -4.66048746567E-01 -4.72304262415E-04 +5.22301913959E-06 -5.54808169539E-04 +1.70661083005E-06 +6.48879304172E-01 -4.56421220499E-01
4.07000000000E+09 +5.06010318716E-01 -4.71414193412E-01 -6.33588201027E-04 +1.61884906672E-04 -6.67882368812E-04 +1.22811916862E-04 +6.35736409567E-01 -4.66283204757E-01
4.07500000000E+09 +4.91077607277E-01 -4.76473322948E-01 -6.47583633647E-04 +3.57990008411E-04 -6.66431438656E-04 +3.33311436263E-04 +6.21947332289E-01 -4.76463459678E-01
4.08000000000E+09 +4.75168012028E-01 -4.82465395434E-01 -5.12714660499E-04 +4.09036926806E-04 -6.23076541752E-04 +3.99738536113E-04 +6.08284419611E-01 -4.86253504989E-01
4.08500000000E+09 +4.58392591188E-01 -4.88827172236E-01 -4.63311250289E-04 +5.67576420605E-04 -5.53457915450E-04 +5.54567664914E-04 +5.94824448811E-01 -4.95832845011E-01
4.09000000000E+09 +4.41576198114E-01 -4.95552471612E-01 -3.03560844992E-04 +5.20390746604E-04 -3.61243954334E-04 +6.13553507782E-04 +5.80938651991E-01 -5.04458050735E-01
4.09500000000E+09 +4.25207617546E-01 -5.02516555705E-01 -2.93260938423E-04 +3.19680806402E-04 -3.52102205399E-04 +4.19410478244E-04 +5.66568826905E-01 -5.12232584577E-01
4.10000000000E+09 +4.08060656630E-01 -5.08481443361E-01 -4.76853509052E-04 +5.34582966123E-04 -4.76918465459E-04 +5.59837785869E-04 +5.51445100929E-01 -5.20256057021E-01
4.10500000000E+09 +3.92130975444E-01 -5.12827715144E-01 -4.49227116794E-04 +7.03564054703E-04 -4.56151025156E-04 +6.58573744366E-04 +5.35105754809E-01 -5.28038527692E-01
4.11000000000E+09 +3.76546163968E-01 -5.16111802023E-01 -2.43322973376E-04 +8.04391849007E-04 -2.81012584260E-04 +8.40994533411E-04 +5.18561474485E-01 -5.35811319626E-01
4.11500000000E+09 +3.60577205787E-01 -5.17731858773E-01 -8.07874563121E-05 +8.98777935825E-04 -1.11085903184E-04 +9.50263374298E-04 +5.02459643349E-01 -5.43526911824E-01
4.12000000000E+09 +3.44092152469E-01 -5.18749677591E-01 +4.82623201210E-05 +8.01984106135E-04 +1.82930314435E-05 +7.81997154697E-04 +4.86265102930E-01 -5.50797074939E-01
4.12500000000E+09 +3.27173935648E-01 -5.19224206199E-01 +1.02514861097E-04 +8.23475379943E-04 +7.29639468906E-05 +8.32784808044E-04 +4.69581782503E-01 -5.57181958020E-01
4.13000000000E+09 +3.08661533727E-01 -5.20768751251E-01 +2.66408510735E-04 +5.62299523954E-04 +2.19003532487E-04 +5.45114271495E-04 +4.52575625019E-01 -5.63454260403E-01
4.13500000000E+09 +2.88726029089E-01 -5.22066844290E-01 -3.52787756381E-05 +5.91579804802E-04 -8.08247231264E-05 +6.00456448286E-04 +4.34102596424E-01 -5.69205935252E-01
4.14000000000E+09 +2.69333561455E-01 -5.24079795312E-01 +4.74422055653E-05 +8.12634318906E-04 -2.72324425220E-05 +8.43343398566E-04 +4.14970723894E-01 -5.74863130370E-01
4.14500000000E+09 +2.49430841840E-01 -5.28159572756E-01 +7.62120091122E-05 +8.70723401472E-04 +5.28133193212E-06 +9.36461315644E-04 +3.95848306151E-01 -5.79998482476E-01
4.15000000000E+09 +2.29134137794E-01 -5.31569433092E-01 +2.97446240530E-04 +1.27426786480E-03 +2.79871893805E-04 +1.31555466240E-03 +3.77685956917E-01 -5.84936765028E-01
4.15500000000E+09 +2.10227635444E-01 -5.34737265042E-01 +9.28318850303E-04 +1.17637519419E-03 +8.86259377955E-04 +1.25158070322E-03 +3.59201346139E-01 -5.89173686877E-01
4.16000000000E+09 +1.92047903936E-01 -5.37404152994E-01 +1.26976525278E-03 +7.33880864517E-04 +1.29779030796E-03 +7.41444012392E-04 +3.41141108916E-01 -5.91817594487E-01
4.16500000000E+09 +1.74102631621E-01 -5.37477281776E-01 +1.14489914977E-03 +1.63925266853E-04 +1.20800858657E-03 +1.86352295586E-04 +3.22196154652E-01 -5.94825407319E-01
4.17000000000E+09 +1.57499160774E-01 -5.35164960373E-01 +7.40502011541E-04 +2.08746892571E-04 +7.74306084067E-04 +2.02909092001E-04 +3.02171929674E-01 -5.97154023367E-01
4.17500000000E+09 +1.41806830372E-01 -5.30805590423E-01 +9.42511348075E-04 +3.29234031300E-04 +9.31371700034E-04 +3.91193199298E-04 +2.80885531865E-01 -5.98943523336E-01
4.18000000000E+09 +1.26040840587E-01 -5.26257986155E-01 +9.49872613650E-04 +7.73685664951E-06 +9.60316750510E-04 +3.80889677465E-05 +2.60155142394E-01 -6.00587864871E-01
4.18500000000E+09 +1.08588801062E-01 -5.21043544338E-01 +6.17380960798E-04 +2.82822026184E-04 +6.44898720611E-04 +2.91109616750E-04 +2.38960728356E-01 -6.01792597226E-01
4.19000000000E+09 +8.99554339585E-02 -5.15443906509E-01 +1.16888215999E-03 +5.21498635361E-04 +1.19850397742E-03 +5.48907329793E-04 +2.18290023937E-01 -6.01555250776E-01
4.19500000000E+09 +6.98689855392E-02 -5.09935812076E-01 +1.46792579466E-03 -1.77765733655E-04 +1.54940794049E-03 -1.10071461170E-04 +1.97453577741E-01 -6.00197767787E-01
4.20000000000E+09 +4.95488740469E-02 -5.04050828483E-01 +1.12809603336E-03 -4.46774849897E-04 +1.20573294674E-03 -4.68357866710E-04 +1.76578731013E-01 -5.98311480227E-01
4.20500000000E+09 +2.98295365367E-02 -4.98772593163E-01 +1.17452740166E-03 -4.91895187322E-04 +1.21497951718E-03 -5.51358974711E-04 +1.54287968483E-01 -5.96096159892E-01
4.21000000000E+09 +1.10315032000E-02 -4.93703017556E-01 +1.03627746371E-03 -9.40567359565E-04 +1.07279690794E-03 -9.62257131778E-04 +1.31547072176E-01 -5.93406131631E-01
4.21500000000E+09 -6.77167958551E-03 -4.88095520486E-01 +5.38290070655E-04 -6.59444030047E-04 +5.54341030019E-04 -7.23455482285E-04 +1.09567899426E-01 -5.90445984341E-01
4.22000000000E+09 -2.30504006154E-02 -4.81240868670E-01 +7.86954043508E-04 -5.77017120738E-04 +7.85361193099E-04 -5.76018980101E-04 +8.77529100235E-02 -5.87430234918E-01
4.22500000000E+09 -3.80198810717E-02 -4.73048797994E-01 +1.04829487455E-03 -7.63567430192E-04 +1.08191843600E-03 -7.57080503240E-04 +6.58420358898E-02 -5.82390183740E-01
4.23000000000E+09 -5.28019376272E-02 -4.63741178585E-01 +7.79570015364E-04 -1.35032954347E-03 +8.26767620302E-04 -1.39014342312E-03 +4.50476137178E-02 -5.76331603638E-01
4.23500000000E+09 -6.85722634382E-02 -4.52027548898E-01 +2.28353212376E-04 -1.25567639802E-03 +2.50230701359E-04 -1.21856940689E-03 +2.32235841186E-02 -5.69462035203E-01
4.24000000000E+09 -8.45997302413E-02 -4.38114731550E-01 +2.66406922952E-04 -9.83750961944E-04 +2.12074533513E-04 -9.66193596618E-04 +1.33622751642E-03 -5.61138677435E-01
4.24500000000E+09 -1.01213265831E-01 -4.24313341943E-01 +4.25205268867E-04 -1.21977190186E-03 +4.23353000268E-04 -1.24032552493E-03 -2.08993580976E-02 -5.53157686137E-01
4.25000000000E+09 -1.19770889633E-01 -4.10409647229E-01 -6.23701008092E-05 -1.68252226208E-03 -1.91304999578E-05 -1.73990174362E-03 -4.32261107461E-02 -5.44072557869E-01
4.25500000000E+09 -1.39223638470E-01 -3.97125250418E-01 -4.83458441044E-04 -1.02260337436E-03 -4.42856899769E-04 -1.05318349855E-03 -6.40380376463E-02 -5.34352156145E-01
4.26000000000E+09 -1.59060634046E-01 -3.84824582163E-01 -8.43474608683E-05 -1.03349620664E-03 -5.87213363764E-05 -1.00970509670E-03 -8.48178076677E-02 -5.23553092072E-01
4.26500000000E+09 -1.79082975938E-01 -3.72933679979E-01 -2.95633791016E-04 -1.38147947685E-03 -3.15962871728E-04 -1.41112075150E-03 -1.04703370814E-01 -5.11881788737E-01
4.27000000000E+09 -1.96615495974E-01 -3.60731652830E-01 -7.41826253892E-04 -1.25829912434E-03 -7.50159502876E-04 -1.28811580702E-03 -1.25922006531E-01 -4.99416945327E-01
4.27500000000E+09 -2.12002774788E-01 -3.49018542958E-01 -8.13464044903E-04 -1.21555691431E-03 -8.52847606159E-04 -1.29903500359E-03 -1.47227218412E-01 -4.84702411108E-01
4.28000000000E+09 -2.25074804370E-01 -3.36584571445E-01 -1.41981235437E-03 -1.01444278404E-03 -1.49482400643E-03 -1.09791878564E-03 -1.67526112059E-01 -4.70225094998E-01
4.28500000000E+09 -2.36493000176E-01 -3.22803362799E-01 -1.33300555068E-03 -3.81998070932E-04 -1.40528984954E-03 -3.82541030059E-04 -1.87602408351E-01 -4.55862912450E-01
4.29000000000E+09 -2.46298591512E-01 -3.06901669419E-01 -1.29696082374E-03 -2.02317099372E-04 -1.34594774216E-03 -2.29934851193E-04 -2.07065306198E-01 -4.40550362453E-01
4.29500000000E+09 -2.55689368818E-01 -2.90014545918E-01 -9.93894166365E-04 +1.78019674959E-04 -1.02217359036E-03 +1.12334861311E-04 -2.25136288626E-01 -4.24419059069E-01
4.30000000000E+09 -2.66630236046E-01 -2.71503203277E-01 -7.32856784310E-04 -7.15480630876E-05 -8.19214479351E-04 -5.52918196558E-05 -2.42236026145E-01 -4.07221813217E-01
4.30500000000E+09 -2.78447272095E-01 -2.50972334820E-01 -1.02966852547E-03 -3.12396326956E-04 -1.06618364616E-03 -2.44721001264E-04 -2.58977680099E-01 -3.88796607309E-01
4.31000000000E+09 -2.90522653274E-01 -2.30499906849E-01 -1.26400811131E-03 +3.02340817765E-04 -1.30269646880E-03 +3.66679144455E-04 -2.74956485773E-01 -3.70450698050E-01
4.31500000000E+09 -3.03859461969E-01 -2.10549128266E-01 -9.04506843648E-04 +3.81447282083E-04 -9.72869931883E-04 +3.92420803913E-04 -2.91601797235E-01 -3.51056439439E-01
4.32000000000E+09 -3.16476146377E-01 -1.91701794724E-01 -8.33402415360E-04 +6.72172252050E-04 -8.88621498883E-04 +7.23436520647E-04 -3.06575504891E-01 -3.30978671184E-01
4.32500000000E+09 -3.28584259167E-01 -1.74247795654E-01 -3.99738221314E-04 +4.93063236929E-04 -3.70869687232E-04 +5.38239692632E-04 -3.21642488776E-01 -3.10891732574E-01
4.33000000000E+09 -3.38143667158E-01 -1.57418179515E-01 -7.78668164760E-04 +4.02251106535E-04 -7.30912376216E-04 +4.30526332956E-04 -3.34582245367E-01 -2.88661934637E-01
4.33500000000E+09 -3.45531841527E-01 -1.42483920561E-01 -4.74515567493E-04 +9.13152966871E-04 -4.69546837379E-04 +9.08688364712E-04 -3.46911611195E-01 -2.67133442826E-01
4.34000000000E+09 -3.51471202872E-01 -1.26667770778E-01 -6.52310721428E-06 +6.04717828476E-04 +5.00141117616E-05 +5.86798472857E-04 -3.59230872840E-01 -2.43363368015E-01
4.34500000000E+09 -3.54347715812E-01 -1.09051749621E-01 -2.30176005821E-04 +2.00775980175E-04 -1.85217594668E-04 +1.86830362142E-04 -3.70056598043E-01 -2.20454751715E-01
4.35000000000E+09 -3.56400130277E-01 -9.03278471554E-02 -3.55702998265E-04 +5.36116417868E-04 -3.19368204409E-04 +5.14907119708E-04 -3.81982390278E-01 -1.97122271768E-01
4.35500000000E+09 -3.57420814947E-01 -6.90883151511E-02 -2.85128455253E-04 +4.73605490764E-04 -2.20396031883E-04 +4.51988456271E-04 -3.91575382976E-01 -1.72773522097E-01
4.36000000000E+09 -3.58512296482E-01 -4.65309744884E-02 -3.45919337935E-04 +4.61945127752E-04 -3.01478669340E-04 +4.74630407253E-04 -3.99133231788E-01 -1.49458722863E-01
4.36500000000E+09 -3.61064446376E-01 -2.35364039243E-02 -9.59114214529E-05 +8.15870241134E-04 -6.81867069140E-05 +8.20553296336E-04 -4.06455711293E-01 -1.26059248909E-01
4.37000000000E+09 -3.64826159041E-01 -1.55389917721E-04 +2.07892994778E-04 +5.63859407347E-04 +2.59602602685E-04 +5.62665765590E-04 -4.12052442906E-01 -1.01423529666E-01
4.37500000000E+09 -3.69895567038E-01 +2.22248967811E-02 +4.29546731232E-04 +1.19219758182E-04 +4.71880451985E-04 +4.28669756047E-05 -4.16575132417E-01 -7.64574526571E-02
4.38000000000E+09 -3.75317551817E-01 +4.34752543695E-02 -2.46836262665E-04 -2.04004283081E-04 -2.58956389964E-04 -2.42878488450E-04 -4.20321835353E-01 -5.22863475403E-02
4.38500000000E+09 -3.78836825376E-01 +6.24879222126E-02 -4.94790680144E-04 +5.09536531731E-04 -5.52338802333E-04 +4.66758199171E-04 -4.24304673980E-01 -2.73330121997E-02
4.39000000000E+09 -3.81966569692E-01 +7.85666680208E-02 +3.01898753356E-05 +6.60060738035E-04 +3.64729681314E-06 +6.25171920271E-04 -4.26260421752E-01 -2.69262315040E-03
4.39500000000E+09 -3.82810579544E-01 +9.40808866209E-02 +4.10865775728E-05 +3.77091938493E-04 +2.88113522028E-05 +3.22215108065E-04 -4.27951664151E-01 +2.14255736559E-02
4.40000000000E+09 -3.80972291929E-01 +1.08676199330E-01 +1.87816895403E-04 +5.46266756089E-04 +1.73090344296E-04 +5.32781696325E-04 -4.27304769383E-01 +4.58316321117E-02
4.40500000000E+09 -3.77291544705E-01 +1.23933816570E-01 +2.97957910066E-04 +1.54620330316E-04 +3.13160362815E-04 +1.32405692819E-04 -4.26655380589E-01 +6.95426307786E-02
4.41000000000E+09 -3.71871416403E-01 +1.40568580472E-01 +2.54206793647E-04 +7.76630285804E-05 +2.43902659966E-04 +1.48187777924E-04 -4.24591947206E-01 +9.42505834063E-02
4.41500000000E+09 -3.65758492549E-01 +1.59725411518E-01 +7.40964841795E-05 -1.95858030204E-04 +1.16723420242E-04 -1.52310234496E-04 -4.22381216983E-01 +1.17642185257E-01
4.42000000000E+09 -3.59742754553E-01 +1.80762024559E-01 -2.81160285539E-04 -9.10745647815E-05 -2.96049539226E-04 -9.36412999335E-05 -4.19877763000E-01 +1.42472229212E-01
4.42500000000E+09 -3.54372950884E-01 +2.02525815893E-01 -3.33265849658E-04 +9.54197597249E-05 -3.34465409742E-04 +1.09194245594E-04 -4.14243792449E-01 +1.65593833168E-01
4.43000000000E+09 -3.50454193582E-01 +2.24909117251E-01 -5.44868448311E-04 +3.64138724048E-04 -5.03031388776E-04 +3.88492286803E-04 -4.10008561276E-01 +1.87918644255E-01
4.43500000000E+09 -3.47144068851E-01 +2.46587796738E-01 -1.83965484395E-04 +6.92565766197E-04 -1.72783409452E-04 +7.33359551584E-04 -4.03347561627E-01 +2.11301927924E-01
4.44000000000E+09 -3.44212848969E-01 +2.65093028924E-01 +9.81309023530E-05 +4.92319293189E-04 +1.83715857619E-04 +4.89604202396E-04 -3.96450917110E-01 +2.32981435123E-01
4.44500000000E+09 -3.42497072649E-01 +2.81730181453E-01 -5.45512424025E-05 +3.58581258194E-04 +3.27187658687E-05 +3.37023056025E-04 -3.88846140269E-01 +2.54707241805E-01
4.45000000000E+09 -3.39863688782E-01 +2.95800055554E-01 -4.39585481473E-05 +3.20176567139E-04 -7.68318175517E-05 +2.98902201401E-04 -3.81243781974E-01 +2.75208716545E-01
4.45500000000E+09 -3.35693795781E-01 +3.08809615586E-01 -2.43739975952E-04 +6.20817313407E-04 -2.29455574331E-04 +5.84241056368E-04 -3.72487319022E-01 +2.95170065397E-01
4.46000000000E+09 -3.29155580798E-01 +3.21078545918E-01 +5.80456237205E-05 +7.38934615059E-04 +1.48371101095E-05 +6.84934724605E-04 -3.63895694047E-01 +3.13880325665E-01
4.46500000000E+09 -3.20555628148E-01 +3.33607166046E-01 +4.61805056625E-05 +7.01780886792E-04 +5.95020463382E-05 +6.45973066939E-04 -3.53776845225E-01 +3.33337247818E-01
4.47000000000E+09 -3.09707978588E-01 +3.47921323292E-01 +3.36884309473E-04 +8.96259388778E-04 +3.02294181790E-04 +8.98493063258E-04 -3.42239159244E-01 +3.51690180128E-01
4.47500000000E+09 -2.97094348910E-01 +3.63015234906E-01 +3.09153305740E-04 +7.75074600249E-04 +3.27611358198E-04 +7.72665090756E-04 -3.31424264465E-01 +3.70150244247E-01
4.48000000000E+09 -2.85282835306E-01 +3.79910745221E-01 +7.70854221784E-04 +1.03016398642E-03 +7.59662367002E-04 +1.05951150558E-03 -3.19440468615E-01 +3.88128047894E-01
4.48500000000E+09 -2.72859083024E-01 +3.97852495896E-01 +9.51887140248E-04 +4.03517364899E-04 +9.06216127765E-04 +3.62022265434E-04 -3.07969153378E-01 +4.04997841442E-01
4.49000000000E+09 -2.62708632257E-01 +4.14650281809E-01 +7.54958104224E-04 +3.07647270700E-04 +7.54343244757E-04 +3.42827302980E-04 -2.96211048742E-01 +4.21012784713E-01
4.49500000000E+09 -2.54463049867E-01 +4.31285292112E-01 +7.78752737929E-04 +2.49816670398E-04 +7.33731492626E-04 +2.58210421288E-04 -2.84776790750E-01 +4.35911060350E-01
4.50000000000E+09 -2.47560259814E-01 +4.45189363930E-01 +6.12385714979E-04 +4.68298958906E-04 +5.91601549496E-04 +4.96998386538E-04 -2.72509164987E-01 +4.51439646021E-01
4.50500000000E+09 -2.42906948732E-01 +4.57646599913E-01 +1.16903593838E-03 +4.86230753912E-04 +1.16877489680E-03 +5.36804446042E-04 -2.59066161868E-01 +4.66086524439E-01
4.51000000000E+09 -2.36682640504E-01 +4.68522995705E-01 +1.28401719696E-03 -4.05606870458E-05 +1.26636732898E-03 -6.70175967482E-05 -2.45595326765E-01 +4.80331058682E-01
4.51500000000E+09 -2.29545102691E-01 +4.76993988431E-01 +1.08491644068E-03 -1.12688495300E-04 +1.05536951493E-03 -1.28113528827E-04 -2.31780911710E-01 +4.94396015223E-01
4.52000000000E+09 -2.20266361918E-01 +4.85288066105E-01 +1.17178006929E-03 -4.72993657513E-04 +1.12809678251E-03 -4.67367087241E-04 -2.18352912823E-01 +5.07250295061E-01
4.52500000000E+09 -2.08195024307E-01 +4.92247316200E-01 +7.76042867998E-04 -5.56303264404E-04 +7.23649267081E-04 -5.42818651252E-04 -2.04692324398E-01 +5.19234596304E-01
4.53000000000E+09 -1.94705951343E-01 +5.00196347783E-01 +7.17294975763E-04 -3.79764541961E-04 +7.17444588609E-04 -4.00029849295E-04 -1.90696182948E-01 +5.30302144479E-01
4.53500000000E+09 -1.79449595972E-01 +5.09176450132E-01 +5.79248873912E-04 -3.72270178140E-04 +5.48376859284E-04 -3.60690750111E-04 -1.76072743525E-01 +5.41697106586E-01
4.54000000000E+09 -1.64038941630E-01 +5.18979807046E-01 +9.49938293759E-04 -8.37618579442E-05 +9.29595165864E-04 -1.04155948323E-04 -1.60269416055E-01 +5.51963499777E-01
4.54500000000E+09 -1.49081181115E-01 +5.30560048747E-01 +1.20837856219E-03 -7.40084450628E-04 +1.15613696985E-03 -7.66034760674E-04 -1.45577631907E-01 +5.61522667014E-01
4.55000000000E+09 -1.34852129248E-01 +5.41656996495E-01 +8.90762755455E-04 -9.25541006847E-04 +8.62951356163E-04 -9.15136901408E-04 -1.30833836368E-01 +5.71714246976E-01
4.55500000000E+09 -1.22999890442E-01 +5.52348049392E-01 +7.72490852090E-04 -1.08715896515E-03 +7.02531994517E-04 -1.07903787320E-03 -1.16544692602E-01 +5.80971866854E-01
4.56000000000E+09 -1.12528466517E-01 +5.61953035710E-01 +4.17574219670E-04 -1.14402700370E-03 +4.03515348988E-04 -1.13339118065E-03 -1.02022787504E-01 +5.89362723918E-01
4.56500000000E+09 -1.03418456456E-01 +5.69937297637E-01 +3.04341536896E-04 -1.22276901910E-03 +2.42860205275E-04 -1.20229286311E-03 -8.83856573402E-02 +5.97728309812E-01
4.57000000000E+09 -9.43868212769E-02 +5.76999765655E-01 +2.67797595051E-04 -1.09518823901E-03 +2.44690266347E-04 -1.04514084995E-03 -7.27278485345E-02 +6.06056235380E-01
