# Hz S RI R 50
! CMT, C1220, 16058040, 17.2.0/1
! Date: 15/08/2018 12:34:32
! Data: Format (Calibration Info)
! Freq                      S11: Re/Im (F2)                       S21: Re/Im (F2)                       S12: Re/Im (F2)                       S22: Re/Im (F2)            
4.00000000000E+09 +6.62828880421E-01 -3.67948750789E-01 -4.66604627624E-04 -5.28092399727E-04 -4.41712541851E-04 -5.44778631701E-04 +7.83015423933E-01 -3.16791058025E-01
4.00500000000E+09 +6.54522230424E-01 -3.74542095626E-01 -4.43130070130E-04 -4.31497899631E-04 -4.12251703091E-04 -4.50954442398E-04 +7.74632884202E-01 -3.28643785460E-01
4.01000000000E+09 +6.45179383332E-01 -3.81125393470E-01 -5.47960642370E-04 -4.39395895595E-04 -5.75424432912E-04 -4.27966183991E-04 +7.65889452725E-01 -3.40512730904E-01
4.01500000000E+09 +6.35317589953E-01 -3.88193600776E-01 -5.56703172609E-04 -2.83891518155E-04 -5.61293509415E-04 -2.94167181080E-04 +7.57215505539E-01 -3.51323855536E-01
4.02000000000E+09 +6.24805276845E-01 -3.96839502550E-01 -5.09894784690E-04 -2.77279050383E-04 -5.43346669566E-04 -2.92094417304E-04 +7.48328945811E-01 -3.62098869361E-01
4.02500000000E+09 +6.13762797057E-01 -4.06794679943E-01 -5.39970831867E-04 -2.22804434403E-04 -5.26022151930E-04 -2.98401206068E-04 +7.38719349921E-01 -3.72093421310E-01
4.03000000000E+09 +6.01898848258E-01 -4.17687024062E-01 -6.72804516149E-04 -2.90271445742E-04 -6.43585106445E-04 -3.28256881735E-04 +7.28844740208E-01 -3.82504376360E-01
4.03500000000E+09 +5.90386619006E-01 -4.28130589898E-01 -6.94272428072E-04 -8.27350889437E-05 -7.40389414326E-04 -1.29822445659E-04 +7.17946293154E-01 -3.93623259030E-01
4.04000000000E+09 +5.79281648350E-01 -4.38683432673E-01 -7.61592222366E-04 -1.42115032659E-05 -7.88162514863E-04 -2.11336371927E-05 +7.07065741890E-01 -4.04928888622E-01
4.04500000000E+09 +5.67861303800E-01 -4.48487580186E-01 -7.02606742894E-04 +1.74753864198E-04 -7.60541429316E-04 +1.25995584247E-04 +6.96399364507E-01 -4.16005545078E-01
4.05000000000E+09 +5.56345848905E-01 -4.56173733447E-01 -5.56081925009E-04 +2.55942469120E-04 -5.91938701786E-04 +2.33468710925E-04 +6.85370455889E-01 -4.26901355390E-01
4.05500000000E+09 +5.44708739928E-01 -4.62887791177E-01 -4.54995060792E-04 +1.54613322616E-04 -4.90894609548E-04 +1.27499114956E-04 +6.74057917110E-01 -4.36248141893E-01
4.06000000000E+09 +5.31774050003E-01 -4.68001535571E-01 -5.75933212029E-04 +1.09986202360E-04 -5.43056182702E-04 +9.37222981552E-05 +6.62963017752E-01 -4.45378268214E-01
4.06500000000E+09 +5.18975970767E-01 -4.71924643190E-01 -5.67651144855E-04 +1.34078878339E-04 -6.36348079456E-04 +7.98151540603E-05 +6.50610052638E-01 -4.54700913532E-01
4.07000000000E+09 +5.04824672635E-01 -4.76925396200E-01 -6.67437194936E-04 +1.91695063211E-04 -6.76077773819E-04 +1.84463800101E-04 +6.37505442609E-01 -4.64714345518E-01
4.07500000000E+09 +4.89401118310E-01 -4.81837169138E-01 -6.50751732333E-04 +3.09448863355E-04 -6.82731958089E-04 +2.91566688142E-04 +6.23919149992E-01 -4.75145241305E-01
4.08000000000E+09 +4.73249365825E-01 -4.87962710406E-01 -6.89314300248E-04 +3.50382957788E-04 -7.59019395197E-04 +3.12741541898E-04 +6.10432719393E-01 -4.85005906157E-01
4.08500000000E+09 +4.55929352067E-01 -4.94437662192E-01 -7.89518086908E-04 +5.77294288255E-04 -8.53187926202E-04 +6.35628890432E-04 +5.97306360551E-01 -4.94670195468E-01
4.09000000000E+09 +4.39023339869E-01 -5.01033599105E-01 -4.98553989935E-04 +7.41444912635E-04 -5.39191508066E-04 +7.23133676177E-04 +5.83520598400E-01 -5.03629032337E-01
4.09500000000E+09 +4.22540139319E-01 -5.07876513733E-01 -4.47957922480E-04 +5.34628522670E-04 -4.82487356144E-04 +5.55897384360E-04 +5.69351506590E-01 -5.11534826606E-01
4.10000000000E+09 +4.05263927644E-01 -5.13712979191E-01 -5.11862268302E-04 +7.49186493216E-04 -5.99644715570E-04 +7.40374951504E-04 +5.54347798278E-01 -5.19845924176E-01
4.10500000000E+09 +3.89059426351E-01 -5.17651195090E-01 -4.96345604042E-04 +8.78820773986E-04 -4.51573905900E-04 +8.35017735176E-04 +5.38218734072E-01 -5.27885540732E-01
4.11000000000E+09 +3.73085388139E-01 -5.20356464302E-01 -2.48320765613E-04 +9.87165351651E-04 -2.66215724621E-04 +9.54739127387E-04 +5.21747418497E-01 -5.36177316502E-01
4.11500000000E+09 +3.56650757871E-01 -5.21932970857E-01 -1.52171693958E-04 +1.12241465240E-03 -1.78633605542E-04 +1.14852648726E-03 +5.05048715818E-01 -5.43985640774E-01
4.12000000000E+09 +3.39535087758E-01 -5.22094940743E-01 +1.49976257041E-04 +1.10222342228E-03 +1.16029341044E-04 +1.10360475838E-03 +4.88942759569E-01 -5.51336037077E-01
4.12500000000E+09 +3.22240785418E-01 -5.22160763219E-01 +2.94793311200E-04 +9.92670972402E-04 +2.36058058785E-04 +1.05167032746E-03 +4.72108990436E-01 -5.58012740414E-01
4.13000000000E+09 +3.03518697746E-01 -5.23529524787E-01 +5.16249569304E-04 +7.55183970933E-04 +4.56297599872E-04 +8.02983711282E-04 +4.54807475096E-01 -5.64228180093E-01
4.13500000000E+09 +2.83337868556E-01 -5.25084989824E-01 +2.82217218602E-04 +6.17471338108E-04 +2.24980203894E-04 +6.28539986321E-04 +4.36477464052E-01 -5.69953906492E-01
4.14000000000E+09 +2.63290462897E-01 -5.27128048401E-01 +2.40401707890E-04 +7.43759050370E-04 +1.97328736107E-04 +7.35554200441E-04 +4.17499453284E-01 -5.75716772651E-01
4.14500000000E+09 +2.43233884640E-01 -5.30908223944E-01 +2.73285913473E-04 +8.34137105204E-04 +2.36113407955E-04 +8.32863776245E-04 +3.98449284544E-01 -5.81044948054E-01
4.15000000000E+09 +2.22876915641E-01 -5.33965699242E-01 +4.23348751518E-04 +1.10601723552E-03 +4.29611391965E-04 +1.18671341217E-03 +3.80203450185E-01 -5.86306354748E-01
4.15500000000E+09 +2.04205679792E-01 -5.36471552338E-01 +8.78600702673E-04 +1.07736807645E-03 +9.08752036185E-04 +1.08081276667E-03 +3.61484454486E-01 -5.90749164740E-01
4.16000000000E+09 +1.86619313754E-01 -5.38307943536E-01 +1.22659318023E-03 +6.49009111543E-04 +1.25273904020E-03 +7.30162531189E-04 +3.43173301165E-01 -5.93378136329E-01
4.16500000000E+09 +1.68654604779E-01 -5.38053441088E-01 +1.04186932541E-03 +1.45671326058E-04 +1.04595890774E-03 +1.82471204166E-04 +3.24000175599E-01 -5.96585108229E-01
4.17000000000E+09 +1.51699722030E-01 -5.34631137055E-01 +7.59882624444E-04 +2.66736984575E-04 +7.57241637407E-04 +2.96577070535E-04 +3.03802848698E-01 -5.98737436195E-01
4.17500000000E+09 +1.36009868679E-01 -5.29145715090E-01 +8.80660893312E-04 +3.04840748483E-04 +8.79765279930E-04 +3.15929863876E-04 +2.82440744684E-01 -6.00526977413E-01
4.18000000000E+09 +1.19991360207E-01 -5.23685223432E-01 +8.40542654497E-04 -9.22922191420E-05 +8.51447027585E-04 -8.33614379154E-05 +2.61612861513E-01 -6.02333542480E-01
4.18500000000E+09 +1.02207760487E-01 -5.17730081391E-01 +3.72061252697E-04 +3.96528680131E-04 +4.03389291393E-04 +4.03027980159E-04 +2.40458148634E-01 -6.03442825807E-01
4.19000000000E+09 +8.34785641681E-02 -5.11540782606E-01 +1.06568332392E-03 +5.92370511390E-04 +1.04756368044E-03 +5.92518177599E-04 +2.19748878355E-01 -6.03467271120E-01
4.19500000000E+09 +6.34948499306E-02 -5.06195886083E-01 +1.20231921349E-03 +1.05793937338E-04 +1.29866860132E-03 +1.71613711892E-04 +1.98462597522E-01 -6.02160834378E-01
4.20000000000E+09 +4.28629312172E-02 -5.00225842945E-01 +1.19063460398E-03 -1.64352816728E-05 +1.22550190807E-03 +5.46667352859E-05 +1.77463269205E-01 -6.00125230634E-01
4.20500000000E+09 +2.31528879223E-02 -4.94891015638E-01 +1.51311938707E-03 -2.91369550122E-04 +1.54506765485E-03 -2.64197788121E-04 +1.54838263934E-01 -5.97886206983E-01
4.21000000000E+09 +4.90039818419E-03 -4.89245102520E-01 +1.19571289283E-03 -8.00944585941E-04 +1.24361846728E-03 -7.35142413607E-04 +1.32272417920E-01 -5.94949305427E-01
4.21500000000E+09 -1.18398396684E-02 -4.83485620584E-01 +8.12163168651E-04 -6.30793372267E-04 +8.43618436284E-04 -6.53327036213E-04 +1.10058609421E-01 -5.92097864703E-01
4.22000000000E+09 -2.77322358151E-02 -4.76479624798E-01 +8.24235412740E-04 -4.87184887390E-04 +8.55844126603E-04 -5.23552641781E-04 +8.80523708060E-02 -5.88714499611E-01
4.22500000000E+09 -4.22158006571E-02 -4.67015069317E-01 +1.31031826115E-03 -5.21825098873E-04 +1.35787178122E-03 -5.25666411503E-04 +6.63066590410E-02 -5.83677977231E-01
4.23000000000E+09 -5.58356821807E-02 -4.56541511593E-01 +1.20280605111E-03 -1.39830270888E-03 +1.20438731742E-03 -1.42287123212E-03 +4.53786135635E-02 -5.77550754735E-01
4.23500000000E+09 -7.11313388434E-02 -4.43897672866E-01 +4.14086056870E-04 -1.26403903503E-03 +4.36811700521E-04 -1.31352872332E-03 +2.34569363314E-02 -5.70349104149E-01
4.24000000000E+09 -8.68451219480E-02 -4.28927743356E-01 +5.42773797033E-04 -9.07630993137E-04 +5.81780856555E-04 -9.42252553404E-04 +1.51565596814E-03 -5.61842932229E-01
4.24500000000E+09 -1.02994526763E-01 -4.14737896348E-01 +7.38515154609E-04 -1.40783568700E-03 +7.31593434799E-04 -1.42867595765E-03 -2.08063060742E-02 -5.53446324476E-01
4.25000000000E+09 -1.22242830670E-01 -4.00541576291E-01 +1.37730561200E-04 -1.79103597347E-03 +1.68834901738E-04 -1.82220647026E-03 -4.28878570472E-02 -5.44098269546E-01
4.25500000000E+09 -1.41861520702E-01 -3.86659664093E-01 -2.85188210098E-04 -1.21842864635E-03 -2.54432520993E-04 -1.27661903690E-03 -6.34402519859E-02 -5.34215963288E-01
4.26000000000E+09 -1.61543966495E-01 -3.74011346164E-01 +1.10225401048E-04 -1.29176770244E-03 +8.64822198037E-05 -1.37254043116E-03 -8.36793389546E-02 -5.23291267852E-01
4.26500000000E+09 -1.81089643654E-01 -3.62359853295E-01 -1.56613585629E-04 -1.70352033843E-03 -1.88449843033E-04 -1.73481644127E-03 -1.03046667842E-01 -5.11952598692E-01
4.27000000000E+09 -1.98103631810E-01 -3.50426917068E-01 -9.05788530001E-04 -1.57185579475E-03 -9.24933049504E-04 -1.58973840635E-03 -1.24412722301E-01 -4.99662162823E-01
4.27500000000E+09 -2.12532958732E-01 -3.38939161720E-01 -8.73241144200E-04 -1.19378243661E-03 -9.11371607706E-04 -1.19146452292E-03 -1.45588143790E-01 -4.84909598134E-01
4.28000000000E+09 -2.24741877143E-01 -3.26559376684E-01 -1.34456903165E-03 -1.03477137633E-03 -1.33487763089E-03 -1.05924432530E-03 -1.65794011430E-01 -4.70389965684E-01
4.28500000000E+09 -2.34881307553E-01 -3.12788399924E-01 -1.16042879280E-03 -4.17195734271E-04 -1.27662730132E-03 -4.64835801154E-04 -1.85812976832E-01 -4.56223282677E-01
4.29000000000E+09 -2.43948546193E-01 -2.96332518466E-01 -1.10254399938E-03 -2.61720856869E-04 -1.16856519930E-03 -2.87767205144E-04 -2.05050860696E-01 -4.40940274669E-01
4.29500000000E+09 -2.52045786200E-01 -2.78809066015E-01 -7.93525240703E-04 -2.22136197136E-04 -8.98336249195E-04 -2.49171360135E-04 -2.22994554204E-01 -4.25036769009E-01
4.30000000000E+09 -2.61814118948E-01 -2.60102812543E-01 -9.44864877462E-04 -2.96426333551E-04 -1.00282674488E-03 -2.80504997957E-04 -2.40178413977E-01 -4.08022466670E-01
4.30500000000E+09 -2.73436744233E-01 -2.39572382035E-01 -1.03475395246E-03 -3.21341277730E-04 -1.08377055959E-03 -2.72775091510E-04 -2.56990141094E-01 -3.89457105970E-01
4.31000000000E+09 -2.85197897990E-01 -2.18266921321E-01 -1.04751385073E-03 +1.49227598513E-04 -1.13103441898E-03 +1.60693227389E-04 -2.72962453609E-01 -3.70772619896E-01
4.31500000000E+09 -2.97961985758E-01 -1.98583409897E-01 -9.75547489734E-04 +3.13980519977E-05 -9.66323805989E-04 +2.01032411451E-05 -2.88778542038E-01 -3.51159616142E-01
4.32000000000E+09 -3.10510082668E-01 -1.79882604660E-01 -9.81061005334E-04 +4.84936370875E-04 -1.03600958674E-03 +4.85210254547E-04 -3.03402231440E-01 -3.31621854424E-01
4.32500000000E+09 -3.22021951360E-01 -1.62590847014E-01 -4.21060989562E-04 +2.71009874479E-04 -4.44008782003E-04 +2.67690541070E-04 -3.18234173933E-01 -3.11676160437E-01
4.33000000000E+09 -3.30955114715E-01 -1.46482235069E-01 -8.68267473467E-04 +1.63090914481E-04 -8.42949812343E-04 +1.96065083383E-04 -3.30735754945E-01 -2.89860399132E-01
4.33500000000E+09 -3.37604043752E-01 -1.32283781386E-01 -5.42619139311E-04 +4.99396701348E-04 -5.32734505944E-04 +5.44613168221E-04 -3.43144814287E-01 -2.68716440488E-01
4.34000000000E+09 -3.42833723275E-01 -1.16658433034E-01 -3.89566031619E-04 +3.31357283717E-04 -3.28204471032E-04 +3.10487285110E-04 -3.55170197629E-01 -2.45271442835E-01
4.34500000000E+09 -3.44339626496E-01 -9.94912969038E-02 -6.42550663381E-04 +1.20644839918E-05 -6.65322281001E-04 +2.84229757046E-05 -3.65936489491E-01 -2.22651072912E-01
4.35000000000E+09 -3.45422439240E-01 -8.16357000188E-02 -6.99109863085E-04 +6.53211818093E-04 -7.07478196542E-04 +6.39779695884E-04 -3.77263765879E-01 -1.99852886306E-01
4.35500000000E+09 -3.45868771859E-01 -6.10210411626E-02 -4.45359647500E-04 +4.98078060117E-04 -4.57890107088E-04 +4.55484150744E-04 -3.86766115411E-01 -1.76449067467E-01
4.36000000000E+09 -3.46860587432E-01 -3.84601151772E-02 -5.47993047879E-04 +5.12111773895E-04 -5.96961886152E-04 +4.72285709797E-04 -3.94833856600E-01 -1.54119411314E-01
4.36500000000E+09 -3.49105137792E-01 -1.55038538708E-02 -4.53355037940E-04 +9.36532106365E-04 -4.20842889810E-04 +8.91672391789E-04 -4.02658226727E-01 -1.31164879271E-01
4.37000000000E+09 -3.52377167726E-01 +7.78686524340E-03 +3.66281356055E-05 +8.05381414719E-04 +9.61689174396E-05 +8.14246032968E-04 -4.08874733246E-01 -1.06875419308E-01
4.37500000000E+09 -3.57086424889E-01 +2.97002401213E-02 +3.25388269407E-04 +2.13908785090E-04 +3.10082635815E-04 +2.66611174764E-04 -4.14129694819E-01 -8.20356811190E-02
4.38000000000E+09 -3.62235301529E-01 +5.02988490495E-02 -3.52752799575E-04 -8.99809128054E-05 -3.71616928540E-04 -8.14338838905E-05 -4.18454084470E-01 -5.77063140116E-02
4.38500000000E+09 -3.65792909760E-01 +6.82048598766E-02 -7.37401160381E-04 +5.74666048953E-04 -7.36025921098E-04 +6.15639191036E-04 -4.22438585597E-01 -3.27076414594E-02
4.39000000000E+09 -3.68867759101E-01 +8.37199491984E-02 +2.63746876886E-06 +1.00222884151E-03 +3.17098494258E-05 +1.04244078210E-03 -4.24657733732E-01 -8.27969523978E-03
4.39500000000E+09 -3.69353667193E-01 +9.86298501601E-02 +2.49226305784E-04 +4.48385496586E-04 +2.20309622750E-04 +4.81751628512E-04 -4.26304237677E-01 +1.58032563791E-02
4.40000000000E+09 -3.66906603471E-01 +1.12604055085E-01 +3.42836888253E-04 +6.58347894567E-04 +3.50963301331E-04 +6.48250247538E-04 -4.26016640611E-01 +3.97295448865E-02
4.40500000000E+09 -3.62828229999E-01 +1.26974726144E-01 +4.22728873427E-04 +7.66100899373E-05 +5.16903553526E-04 +8.41405254985E-05 -4.25853969729E-01 +6.35990692540E-02
4.41000000000E+09 -3.57359196362E-01 +1.42967173488E-01 +1.03496487127E-04 +5.39589039551E-05 +1.23526968528E-04 +8.25247314267E-05 -4.24067830643E-01 +8.83952447568E-02
4.41500000000E+09 -3.51451884880E-01 +1.61801717926E-01 +3.63122641689E-05 +8.54489101541E-05 +2.02112142349E-05 +9.62712327756E-05 -4.22191559273E-01 +1.11483644086E-01
4.42000000000E+09 -3.45698752089E-01 +1.82404407408E-01 -7.96769571462E-05 +2.14853648243E-05 -8.05482767769E-05 +5.55720704705E-06 -4.19630942004E-01 +1.36326607068E-01
4.42500000000E+09 -3.40902302751E-01 +2.04127469020E-01 -2.26444105560E-04 +1.61827363219E-04 -1.60447028516E-04 +1.87254961786E-04 -4.14143276362E-01 +1.58781698698E-01
4.43000000000E+09 -3.37204015939E-01 +2.26409308713E-01 -3.85608004184E-04 +2.44281415577E-04 -4.00858870282E-04 +2.24571409859E-04 -4.10657011392E-01 +1.80663646187E-01
4.43500000000E+09 -3.33893182210E-01 +2.47211605319E-01 -2.87138819811E-04 +5.42534012049E-04 -2.36009391835E-04 +4.85193628730E-04 -4.04593285136E-01 +2.03991962928E-01
4.44000000000E+09 -3.31480330875E-01 +2.64701891590E-01 +8.60883087707E-05 +4.68840399983E-04 +1.51468968368E-04 +3.98538675915E-04 -3.98427973093E-01 +2.25566740471E-01
4.44500000000E+09 -3.30338073849E-01 +2.80364606539E-01 -2.79640184063E-04 +1.37123983091E-04 -2.72720070114E-04 +1.21750422329E-04 -3.91949970698E-01 +2.47642634025E-01
4.45000000000E+09 -3.28020437315E-01 +2.93914869983E-01 -2.90309641137E-04 +5.44910326766E-04 -2.97622687440E-04 +5.02977888943E-04 -3.84990279196E-01 +2.68530747168E-01
4.45500000000E+09 -3.23837435495E-01 +3.06215069710E-01 -2.97582293252E-04 +6.39691043125E-04 -2.89017047785E-04 +6.40075444609E-04 -3.77006605062E-01 +2.89040774354E-01
4.46000000000E+09 -3.17006331173E-01 +3.18205847080E-01 -1.80020967946E-04 +7.52231393814E-04 -2.00375899294E-04 +7.11679949198E-04 -3.68771197920E-01 +3.08701146674E-01
4.46500000000E+09 -3.07806108486E-01 +3.30237067291E-01 -4.07269027734E-05 +8.80558606614E-04 -4.49540096525E-05 +8.62623205313E-04 -3.58666878933E-01 +3.28769089623E-01
4.47000000000E+09 -2.96964407509E-01 +3.44216343933E-01 +3.55781827980E-04 +9.00327609323E-04 +3.30934290386E-04 +8.92679006120E-04 -3.47257830628E-01 +3.47699072425E-01
4.47500000000E+09 -2.84471057915E-01 +3.59406530184E-01 +2.29050260329E-04 +6.53642352579E-04 +1.87767846607E-04 +6.72563275232E-04 -3.36288877977E-01 +3.66598181105E-01
4.48000000000E+09 -2.72955154938E-01 +3.76609868337E-01 +4.61779344976E-04 +1.07799393509E-03 +4.74376683829E-04 +1.02732353780E-03 -3.24238664245E-01 +3.85251495935E-01
4.48500000000E+09 -2.61066957009E-01 +3.94623490212E-01 +5.81572195730E-04 +7.12898254591E-04 +5.14275728904E-04 +6.67770681175E-04 -3.12262106934E-01 +4.02297844915E-01
4.49000000000E+09 -2.51504380237E-01 +4.11217148207E-01 +7.31911159818E-04 +9.08123625861E-04 +6.64290005713E-04 +9.03915244850E-04 -3.00724001781E-01 +4.18404050738E-01
4.49500000000E+09 -2.44300316946E-01 +4.27656801803E-01 +9.71086815048E-04 +5.09278413952E-04 +1.01912329877E-03 +5.04412562116E-04 -2.89356161634E-01 +4.33791043528E-01
4.50000000000E+09 -2.38381439503E-01 +4.41240638610E-01 +7.04452612002E-04 +6.70158241291E-04 +7.44443529219E-04 +6.25986807744E-04 -2.76671656182E-01 +4.49513338564E-01
4.50500000000E+09 -2.34374056932E-01 +4.53342157060E-01 +1.43305246398E-03 +6.00011037613E-04 +1.42433354794E-03 +6.56353014342E-04 -2.63171223667E-01 +4.63965162239E-01
4.51000000000E+09 -2.28657430981E-01 +4.63397904477E-01 +1.27346615555E-03 -1.96619294448E-04 +1.30389772207E-03 -2.63567418925E-04 -2.49770560818E-01 +4.78467155609E-01
4.51500000000E+09 -2.21958863985E-01 +4.71063260187E-01 +9.28984094076E-04 -1.47833697014E-05 +8.97842255696E-04 -6.08362817919E-05 -2.35944337245E-01 +4.92543485170E-01
4.52000000000E+09 -2.12664189809E-01 +4.78599093763E-01 +1.17332416680E-03 -1.47377125816E-04 +1.14799099440E-03 -1.83728174997E-04 -2.22716951968E-01 +5.05565168694E-01
4.52500000000E+09 -2.00851786652E-01 +4.85321638685E-01 +8.79794299310E-04 -4.00794283086E-04 +8.56429228453E-04 -4.50843098253E-04 -2.09150939552E-01 +5.18074252066E-01
4.53000000000E+09 -1.87123033251E-01 +4.93488732272E-01 +8.54100561732E-04 -2.01148340404E-04 +8.29387937931E-04 -2.09750026115E-04 -1.95333593217E-01 +5.29361555132E-01
4.53500000000E+09 -1.71460722305E-01 +5.02627958627E-01 +6.92716082654E-04 -4.40999815847E-04 +6.27587464192E-04 -4.81302450025E-04 -1.80948996224E-01 +5.41324803473E-01
4.54000000000E+09 -1.55854762684E-01 +5.12792728851E-01 +8.61324620552E-04 -2.72750338797E-05 +8.42555326327E-04 -3.03870826554E-05 -1.64541812130E-01 +5.52304266359E-01
4.54500000000E+09 -1.41054357735E-01 +5.24599194254E-01 +1.22497461074E-03 -5.92721589755E-04 +1.19251510856E-03 -6.37134471054E-04 -1.49491550268E-01 +5.61944339753E-01
4.55000000000E+09 -1.27582129219E-01 +5.35960930663E-01 +9.89193058628E-04 -7.66006596173E-04 +8.95954194103E-04 -7.74586505566E-04 -1.34498767193E-01 +5.72551099261E-01
4.55500000000E+09 -1.16588782814E-01 +5.47104786991E-01 +7.99191662229E-04 -8.99030171123E-04 +7.76910858729E-04 -8.70161934706E-04 -1.19710321065E-01 +5.81882536567E-01
4.56000000000E+09 -1.06998587438E-01 +5.56957604482E-01 +4.52000884192E-04 -9.04951735619E-04 +4.54236893198E-04 -9.27435529432E-04 -1.04860819181E-01 +5.90374828589E-01
4.56500000000E+09 -9.88253452203E-02 +5.65064886166E-01 +4.31107486689E-04 -9.75970665161E-04 +4.06084885603E-04 -9.15163831536E-04 -9.06988807216E-02 +5.98736953377E-01
4.57000000000E+09 -9.04698116655E-02 +5.71842673576E-01 +5.26391868406E-04 -8.93079287949E-04 +4.97764935447E-04 -8.74983801684E-04 -7.48719227182E-02 +6.07053648887E-01
