# Hz S RI R 50
! CMT, C1220, 16058040, 17.2.0/1
! Date: 15/08/2018 12:32:11
! Data: Format (Calibration Info)
! Freq                      S11: Re/Im (F2)                       S21: Re/Im (F2)                       S12: Re/Im (F2)                       S22: Re/Im (F2)            
4.00000000000E+09 +6.59988336824E-01 -3.58510304985E-01 -4.68390410158E-04 -3.44685639777E-04 -4.79611991832E-04 -3.95661927367E-04 +7.83133852649E-01 -3.16902461874E-01
4.00500000000E+09 +6.52359534068E-01 -3.65234707544E-01 -2.99831670310E-04 -1.38732836843E-04 -3.01603712891E-04 -2.00847667213E-04 +7.74765867565E-01 -3.28571027379E-01
4.01000000000E+09 +6.43407512301E-01 -3.71603751244E-01 -3.75979339193E-04 -2.96442584257E-04 -3.74527763964E-04 -3.18106054837E-04 +7.66142449170E-01 -3.40496873471E-01
4.01500000000E+09 +6.34102420396E-01 -3.78284046349E-01 -4.67454342017E-04 -1.05993148938E-04 -4.56306922195E-04 -1.32915420858E-04 +7.57423336591E-01 -3.51497862401E-01
4.02000000000E+09 +6.24000459930E-01 -3.86362560640E-01 -3.93550086622E-04 -7.75448572385E-05 -3.53301867561E-04 -7.06805839774E-05 +7.48457030226E-01 -3.62104828053E-01
4.02500000000E+09 +6.13125258828E-01 -3.95796459563E-01 -3.79610116071E-04 -9.23318622635E-05 -4.11463084093E-04 -1.14919673160E-04 +7.38950595832E-01 -3.72277790513E-01
4.03000000000E+09 +6.01550748876E-01 -4.05829109494E-01 -4.03077943582E-04 -1.40697220536E-04 -4.27719922896E-04 -1.73462352547E-04 +7.29093499226E-01 -3.82718493272E-01
4.03500000000E+09 +5.90688661814E-01 -4.16131883003E-01 -3.71639843267E-04 -1.11114041632E-04 -3.83582089982E-04 -1.30838835741E-04 +7.18119465154E-01 -3.93748475279E-01
4.04000000000E+09 +5.79683292516E-01 -4.26667931833E-01 -5.12055353089E-04 +1.80389135004E-05 -5.66872559496E-04 +1.88299128540E-05 +7.07220610389E-01 -4.05056721533E-01
4.04500000000E+09 +5.68210124347E-01 -4.36662769447E-01 -4.12519445720E-04 +1.29481108632E-04 -4.41112882501E-04 +1.08170038212E-04 +6.96508228696E-01 -4.16235741557E-01
4.05000000000E+09 +5.56979121247E-01 -4.44656565864E-01 -3.42095432237E-04 +9.01527257036E-05 -3.09049070933E-04 +1.13793934551E-04 +6.85550632157E-01 -4.26847563754E-01
4.05500000000E+09 +5.45608614031E-01 -4.51635916172E-01 -2.86529174803E-04 +1.17102546441E-04 -3.42269957014E-04 +1.28196564011E-04 +6.74422651745E-01 -4.36335843860E-01
4.06000000000E+09 +5.33093776338E-01 -4.57024783506E-01 -2.55461186934E-04 +1.21467198284E-04 -2.79779587533E-04 +1.09339279929E-04 +6.63210999572E-01 -4.45603930227E-01
4.06500000000E+09 +5.20731272561E-01 -4.61286383138E-01 -3.10289792014E-04 -3.15469117438E-05 -2.76221617404E-04 -1.44465798486E-05 +6.50668290268E-01 -4.54803782215E-01
4.07000000000E+09 +5.06950579571E-01 -4.66655380080E-01 -4.32041132878E-04 +1.60381032463E-05 -3.80943167830E-04 +1.74751118331E-05 +6.37642445730E-01 -4.64599970635E-01
4.07500000000E+09 +4.91909067059E-01 -4.71754457679E-01 -5.17201928631E-04 +1.44549586216E-04 -4.65556882682E-04 +1.14451472752E-04 +6.24176837471E-01 -4.74918180086E-01
4.08000000000E+09 +4.75986772787E-01 -4.77751598539E-01 -5.81037684470E-04 +1.89573923074E-04 -5.40586676555E-04 +2.20232143636E-04 +6.10760314256E-01 -4.84766018728E-01
4.08500000000E+09 +4.59179495392E-01 -4.84344662917E-01 -5.15437505275E-04 +4.68467341765E-04 -4.82716119270E-04 +4.44911004469E-04 +5.97743623594E-01 -4.94587520795E-01
4.09000000000E+09 +4.42305169170E-01 -4.91295173155E-01 -2.96969900717E-04 +4.15357850399E-04 -3.34960031414E-04 +3.86540439204E-04 +5.84078887203E-01 -5.03389838312E-01
4.09500000000E+09 +4.25835293797E-01 -4.98486682700E-01 -2.95828839597E-04 +2.75159787725E-04 -3.04389622370E-04 +2.56065655342E-04 +5.69955615071E-01 -5.11327667785E-01
4.10000000000E+09 +4.08652202601E-01 -5.04611070054E-01 -4.75083903316E-04 +4.39221228940E-04 -5.09220013822E-04 +4.14269744529E-04 +5.54865258379E-01 -5.19671713527E-01
4.10500000000E+09 +3.92663923393E-01 -5.09155455119E-01 -4.35657336212E-04 +6.62651136095E-04 -4.72204777972E-04 +6.61774422483E-04 +5.38752018800E-01 -5.27693136172E-01
4.11000000000E+09 +3.77031422224E-01 -5.12779247451E-01 -1.61739726213E-04 +7.69017403007E-04 -2.57105313649E-04 +8.27181080459E-04 +5.22153314380E-01 -5.35840708990E-01
4.11500000000E+09 +3.61005083159E-01 -5.15078272323E-01 +1.29856219664E-04 +7.36015951005E-04 +2.64511059477E-05 +8.06173697847E-04 +5.05880842622E-01 -5.43526373740E-01
4.12000000000E+09 +3.44175523387E-01 -5.16443182562E-01 +1.15529711317E-04 +6.18378453449E-04 +5.07329918565E-05 +7.02023027500E-04 +4.89743842650E-01 -5.51083204406E-01
4.12500000000E+09 +3.26944987893E-01 -5.16843751085E-01 +1.59916778795E-04 +6.18348756031E-04 +1.17756142335E-04 +6.61007470498E-04 +4.73084184990E-01 -5.57505209988E-01
4.13000000000E+09 +3.08564412314E-01 -5.18476564042E-01 +3.12600116006E-04 +3.96754003386E-04 +2.75618182775E-04 +4.69168672656E-04 +4.55998375539E-01 -5.63839457393E-01
4.13500000000E+09 +2.88856173717E-01 -5.20050679503E-01 +5.39698677139E-05 +4.20558444709E-04 +5.94968580477E-06 +4.70211818111E-04 +4.37665913915E-01 -5.69618532535E-01
4.14000000000E+09 +2.69365795617E-01 -5.22301038617E-01 +1.44254228624E-04 +6.03180683809E-04 +1.40530077690E-04 +6.54145445750E-04 +4.18757474700E-01 -5.75323309685E-01
4.14500000000E+09 +2.49360367025E-01 -5.26522280825E-01 +7.67912467343E-05 +5.15823261686E-04 +9.09413017778E-05 +6.13347097809E-04 +3.99623701990E-01 -5.80841304929E-01
4.15000000000E+09 +2.28848833504E-01 -5.30111688230E-01 +2.05084045949E-04 +9.13818859714E-04 +2.43872836020E-04 +9.98602444719E-04 +3.81466513383E-01 -5.85895126713E-01
4.15500000000E+09 +2.09954577578E-01 -5.33376860878E-01 +6.64017506448E-04 +8.06702559527E-04 +7.69941887916E-04 +8.59684079681E-04 +3.62906188725E-01 -5.90431174491E-01
4.16000000000E+09 +1.91610347259E-01 -5.36066111585E-01 +8.51513433970E-04 +4.03549860508E-04 +9.94926765229E-04 +4.25134050920E-04 +3.44688640890E-01 -5.93251889682E-01
4.16500000000E+09 +1.73674582396E-01 -5.36260691134E-01 +7.47575119148E-04 +3.52153421286E-05 +8.16778905586E-04 +5.87550121768E-05 +3.25592474452E-01 -5.96167080981E-01
4.17000000000E+09 +1.56845981223E-01 -5.34345782706E-01 +3.33677631737E-04 +1.15475481775E-04 +4.42031678394E-04 +1.18760122262E-04 +3.05742300414E-01 -5.98441951394E-01
4.17500000000E+09 +1.41193943449E-01 -5.30079089726E-01 +5.25166247855E-04 +3.32489383121E-04 +5.88309278798E-04 +2.40138104004E-04 +2.84475373374E-01 -6.00507010580E-01
4.18000000000E+09 +1.25153998615E-01 -5.26031587754E-01 +4.55460344446E-04 -1.18408909892E-05 +5.41659713145E-04 -5.39790677767E-05 +2.63713486885E-01 -6.02160986405E-01
4.18500000000E+09 +1.07190626949E-01 -5.20906872959E-01 +1.45307347601E-04 +3.40299786876E-04 +7.73826726773E-05 +2.28936753383E-04 +2.42711225779E-01 -6.03404894102E-01
4.19000000000E+09 +8.82297416384E-02 -5.15361784213E-01 +6.94796609663E-04 +8.45176373737E-04 +6.61617800651E-04 +7.72372820340E-04 +2.22133739847E-01 -6.03459895499E-01
4.19500000000E+09 +6.80812115541E-02 -5.10106681889E-01 +1.10770778197E-03 +1.65775698464E-04 +1.10678898010E-03 +1.08856429793E-04 +2.01037556899E-01 -6.02287127786E-01
4.20000000000E+09 +4.73331165223E-02 -5.04642097068E-01 +8.72152720634E-04 -3.89757583327E-05 +8.59757039313E-04 -5.18890441074E-05 +1.80123182835E-01 -6.00371007211E-01
4.20500000000E+09 +2.73097437791E-02 -4.99531086985E-01 +1.08782905538E-03 -9.01362572982E-05 +1.04742187045E-03 -9.75430943403E-05 +1.57799267960E-01 -5.98093787360E-01
4.21000000000E+09 +8.04876829210E-03 -4.94801088989E-01 +9.79981298881E-04 -5.39968321819E-04 +9.50320668204E-04 -5.99138967109E-04 +1.35206486713E-01 -5.95562317121E-01
4.21500000000E+09 -1.01271617028E-02 -4.89329984423E-01 +4.97899222662E-04 -3.24904900823E-04 +4.19273165297E-04 -3.66616595466E-04 +1.13088592677E-01 -5.92805409767E-01
4.22000000000E+09 -2.68266300301E-02 -4.82912577346E-01 +8.01002028170E-04 -1.88419768047E-04 +7.89211995069E-04 -1.61289240634E-04 +9.11535409402E-02 -5.89742651112E-01
4.22500000000E+09 -4.25790766688E-02 -4.74750688946E-01 +1.11524277699E-03 -4.58377787280E-04 +1.15240543554E-03 -4.23037873817E-04 +6.91068411846E-02 -5.84883083660E-01
4.23000000000E+09 -5.77175402232E-02 -4.65101205031E-01 +8.93045087451E-04 -9.86259299227E-04 +9.19797066243E-04 -9.07430097874E-04 +4.81764341476E-02 -5.78670758253E-01
4.23500000000E+09 -7.37202675166E-02 -4.53228172386E-01 +4.13556240772E-04 -9.44129677526E-04 +4.52719044792E-04 -8.60361467800E-04 +2.63109833912E-02 -5.71607783183E-01
4.24000000000E+09 -9.01624198138E-02 -4.39334355887E-01 +4.66900326257E-04 -7.81716235037E-04 +5.04069528887E-04 -6.15151042177E-04 +4.51095702114E-03 -5.63202941121E-01
4.24500000000E+09 -1.07123276212E-01 -4.25108941974E-01 +6.66975910186E-04 -9.69983300806E-04 +7.51999739359E-04 -9.02612405233E-04 -1.77301070496E-02 -5.55163353214E-01
4.25000000000E+09 -1.25942285194E-01 -4.11101293292E-01 +3.07832406189E-04 -1.55257086213E-03 +3.77271923151E-04 -1.55468539817E-03 -4.00720051307E-02 -5.45821734210E-01
4.25500000000E+09 -1.45634171518E-01 -3.97573364114E-01 -3.12298763408E-04 -9.71176669192E-04 -2.22720019253E-04 -1.01365567543E-03 -6.06065913220E-02 -5.35810785241E-01
4.26000000000E+09 -1.65849445633E-01 -3.84861307864E-01 +1.10716323081E-04 -8.81296483316E-04 +2.32772940139E-04 -9.62354727387E-04 -8.07701985498E-02 -5.24990745833E-01
4.26500000000E+09 -1.85975019881E-01 -3.72661268574E-01 -1.00662603484E-04 -1.40144382015E-03 +2.51225712851E-05 -1.40578233572E-03 -1.00167531604E-01 -5.13654405548E-01
4.27000000000E+09 -2.03895556417E-01 -3.60224429407E-01 -5.62830191960E-04 -1.22030052431E-03 -5.12730003898E-04 -1.34219190768E-03 -1.21181394009E-01 -5.01487847966E-01
4.27500000000E+09 -2.19431705691E-01 -3.47957458336E-01 -6.05995209646E-04 -1.17822202384E-03 -5.64379669850E-04 -1.25242037110E-03 -1.42094167991E-01 -4.87029962214E-01
4.28000000000E+09 -2.32653960737E-01 -3.35373043746E-01 -1.18628759031E-03 -1.04507698290E-03 -1.18833289946E-03 -1.17138354036E-03 -1.62205188525E-01 -4.73036987620E-01
4.28500000000E+09 -2.44398679540E-01 -3.21194490061E-01 -1.00887074293E-03 -3.64905490720E-04 -1.08569275847E-03 -5.27424907323E-04 -1.82578590062E-01 -4.58996331125E-01
4.29000000000E+09 -2.54435705882E-01 -3.05083941982E-01 -1.07709913458E-03 -3.29621615772E-04 -1.19918892951E-03 -4.29073653520E-04 -2.01763901318E-01 -4.43785965647E-01
4.29500000000E+09 -2.64259941694E-01 -2.87660501683E-01 -7.53241313211E-04 +2.11244776181E-04 -8.65386325152E-04 +9.54688585268E-05 -2.19677696179E-01 -4.28222362753E-01
4.30000000000E+09 -2.75295062990E-01 -2.68409637958E-01 -4.72647881448E-04 -1.14202838706E-04 -5.09836221300E-04 -1.57716042851E-04 -2.36985648883E-01 -4.11375612991E-01
4.30500000000E+09 -2.86961592772E-01 -2.47596625114E-01 -7.27969180352E-04 -4.61641665448E-04 -8.13050005380E-04 -4.90197661616E-04 -2.53897566844E-01 -3.93231977497E-01
4.31000000000E+09 -2.99533690499E-01 -2.26705160277E-01 -9.74588941343E-04 +1.75600212304E-04 -1.14772617478E-03 +2.51788703377E-04 -2.70185203608E-01 -3.74844325289E-01
4.31500000000E+09 -3.13056869560E-01 -2.05899378154E-01 -6.04973745661E-04 +1.13727378249E-04 -7.69556637160E-04 +1.87411524476E-04 -2.86611832329E-01 -3.55475890150E-01
4.32000000000E+09 -3.25761633415E-01 -1.86723367151E-01 -6.72682439164E-04 +3.85293576271E-04 -7.88498359855E-04 +4.27577403991E-04 -3.01581199665E-01 -3.35438105213E-01
4.32500000000E+09 -3.38287832053E-01 -1.68788930930E-01 -1.27679946194E-04 +2.51767692206E-04 -1.62132652830E-04 +3.39970400147E-04 -3.16370883571E-01 -3.15363640627E-01
4.33000000000E+09 -3.48027022831E-01 -1.51447665738E-01 -5.41650530404E-04 -9.67905882289E-05 -5.90474310712E-04 +6.46304118381E-05 -3.29239067652E-01 -2.93449803217E-01
4.33500000000E+09 -3.55551662965E-01 -1.36087486439E-01 -3.95672976448E-04 +4.54123649189E-04 -3.81211071392E-04 +6.02931298543E-04 -3.41227576012E-01 -2.72073335374E-01
4.34000000000E+09 -3.61740943760E-01 -1.19732773612E-01 +1.66796524423E-05 +7.45570224970E-05 +5.32683972657E-05 +1.71074810683E-04 -3.53162294814E-01 -2.48818499426E-01
4.34500000000E+09 -3.64575498039E-01 -1.01631263898E-01 -4.42616516632E-04 -3.54286703918E-04 -3.14909470498E-04 -2.67464446048E-04 -3.63785973588E-01 -2.26334664494E-01
4.35000000000E+09 -3.66721128200E-01 -8.26477380272E-02 -5.57145451652E-04 +1.36165391208E-04 -4.77799313725E-04 +1.21033328798E-04 -3.75225652594E-01 -2.03803667389E-01
4.35500000000E+09 -3.67639246675E-01 -6.09670366516E-02 -5.72155955053E-04 +6.04608506446E-05 -4.90097635210E-04 +3.18054675800E-05 -3.84929008459E-01 -1.80255880261E-01
4.36000000000E+09 -3.68604940090E-01 -3.82882380458E-02 -7.45196225612E-04 +2.21131774652E-04 -6.28726176872E-04 +1.93023880366E-04 -3.92734386736E-01 -1.57987286346E-01
4.36500000000E+09 -3.71017485195E-01 -1.49114969115E-02 -4.99086894170E-04 +5.66407334331E-04 -4.17896843281E-04 +4.94981096829E-04 -4.00781656142E-01 -1.35294774808E-01
4.37000000000E+09 -3.74551451798E-01 +8.72324319281E-03 -3.61276550048E-04 +4.01770814425E-04 -2.71846900671E-04 +3.17969873948E-04 -4.06932539961E-01 -1.11305497560E-01
4.37500000000E+09 -3.79388012571E-01 +3.12556891673E-02 -6.44762667019E-05 +1.10970337511E-04 -1.26310421962E-05 -5.09539957431E-05 -4.12374709059E-01 -8.66250193576E-02
4.38000000000E+09 -3.84507733438E-01 +5.29833075426E-02 -7.82367806626E-04 -8.05267368595E-05 -7.77116951314E-04 -1.47935344982E-04 -4.16790462256E-01 -6.25254225083E-02
4.38500000000E+09 -3.87589871598E-01 +7.24661543980E-02 -9.87218709815E-04 +7.23733849720E-04 -9.99114935101E-04 +6.44461879959E-04 -4.21130873646E-01 -3.79187719721E-02
4.39000000000E+09 -3.90236650888E-01 +8.87829649674E-02 -3.17087473973E-04 +8.66330592999E-04 -4.08370039211E-04 +8.48014265598E-04 -4.23886587147E-01 -1.34358810929E-02
4.39500000000E+09 -3.90437885660E-01 +1.04643676844E-01 -2.91890905318E-04 +6.53903767746E-04 -3.57072087789E-04 +6.54934261128E-04 -4.26240177644E-01 +1.07587047752E-02
4.40000000000E+09 -3.88101950692E-01 +1.19534566375E-01 +1.65082350233E-05 +9.69127487014E-04 -1.18535169444E-04 +9.29368023331E-04 -4.26039209815E-01 +3.54231453972E-02
4.40500000000E+09 -3.83790115117E-01 +1.35161933990E-01 +1.64925781131E-04 +6.28003542371E-04 +3.87900114727E-05 +5.84379427286E-04 -4.25572023619E-01 +5.90561743183E-02
4.41000000000E+09 -3.77685221170E-01 +1.52158443500E-01 +2.49885802795E-04 +5.71453440766E-04 +2.08376563332E-04 +6.22057924757E-04 -4.24117192871E-01 +8.39141424629E-02
4.41500000000E+09 -3.70988484167E-01 +1.71445930130E-01 +2.08417295027E-04 +2.74162793783E-04 +1.25719403784E-04 +3.21443365272E-04 -4.22090063581E-01 +1.07558772915E-01
4.42000000000E+09 -3.64341150573E-01 +1.92673045663E-01 -4.00734187908E-05 +1.91838156279E-04 -1.08380507142E-04 +2.98250407130E-04 -4.19472939787E-01 +1.32299929850E-01
4.42500000000E+09 -3.58248203878E-01 +2.14555069154E-01 -1.65769017147E-04 +3.66262308379E-04 -1.52896981938E-04 +4.69938250252E-04 -4.13952302662E-01 +1.55061576244E-01
4.43000000000E+09 -3.53693769396E-01 +2.37089744877E-01 -2.86724304061E-04 +6.25657870263E-04 -1.83908097464E-04 +7.12262817863E-04 -4.10197349481E-01 +1.77081192189E-01
4.43500000000E+09 -3.49568569704E-01 +2.58836540743E-01 +1.37572053289E-04 +8.45044331702E-04 +2.02591735786E-04 +9.29779548719E-04 -4.03959994903E-01 +2.00317344126E-01
4.44000000000E+09 -3.45876466404E-01 +2.77369685300E-01 +4.49272378841E-04 +5.69413842776E-04 +5.04424126661E-04 +6.28664403680E-04 -3.97613413591E-01 +2.21525998272E-01
4.44500000000E+09 -3.43576691421E-01 +2.93870438526E-01 +2.34995061383E-04 +2.24107875746E-04 +4.20877210959E-04 +2.57149208049E-04 -3.91263422060E-01 +2.43239779621E-01
4.45000000000E+09 -3.40507393866E-01 +3.08088153729E-01 +5.67281038800E-05 +2.18985513628E-04 +2.27698891678E-04 +1.84939202739E-04 -3.84415758118E-01 +2.64118913555E-01
4.45500000000E+09 -3.35570457874E-01 +3.21204354602E-01 -1.70302540497E-04 +4.74304973471E-04 -3.25186601763E-05 +4.19840029999E-04 -3.76288385219E-01 +2.84380048491E-01
4.46000000000E+09 -3.28500526073E-01 +3.33394582459E-01 -1.41032964236E-05 +5.31451203745E-04 +8.76841517245E-05 +4.81765751845E-04 -3.68376255631E-01 +3.03482717376E-01
4.46500000000E+09 -3.19299303361E-01 +3.45866761222E-01 -8.70769985993E-06 +5.56589516438E-04 +7.06144577748E-05 +4.99248443235E-04 -3.58731458257E-01 +3.23406900508E-01
4.47000000000E+09 -3.07906266463E-01 +3.60089750831E-01 +2.10784379877E-04 +8.88854673151E-04 +2.93454553979E-04 +7.98417315204E-04 -3.47805456759E-01 +3.42204287453E-01
4.47500000000E+09 -2.94788894520E-01 +3.74917518374E-01 +2.64191962609E-04 +8.54401266116E-04 +2.66618640746E-04 +6.64002920964E-04 -3.37426648693E-01 +3.61494887063E-01
4.48000000000E+09 -2.82712215721E-01 +3.91558785412E-01 +8.16423108503E-04 +1.04773884239E-03 +8.05351432500E-04 +9.69006183275E-04 -3.25470947940E-01 +3.80257710655E-01
4.48500000000E+09 -2.70096405364E-01 +4.09199163111E-01 +8.93903197661E-04 +4.11243305524E-04 +8.17359513660E-04 +3.37907738269E-04 -3.14000461529E-01 +3.97705152887E-01
4.49000000000E+09 -2.59567650190E-01 +4.25643574117E-01 +7.51972721785E-04 +4.16325662957E-04 +6.57300435733E-04 +3.68905467097E-04 -3.02203310117E-01 +4.14171139114E-01
4.49500000000E+09 -2.51024977898E-01 +4.41971101192E-01 +7.42134819973E-04 +3.61532228091E-04 +7.08576897109E-04 +3.75670617086E-04 -2.90569925050E-01 +4.29632974320E-01
4.50000000000E+09 -2.43728115608E-01 +4.55376130799E-01 +6.70052280652E-04 +6.14594802421E-04 +6.17927528632E-04 +6.03314721584E-04 -2.78062619781E-01 +4.45311345336E-01
4.50500000000E+09 -2.38859413658E-01 +4.67420070536E-01 +1.27005831906E-03 +5.79526385960E-04 +1.17885729619E-03 +5.98955289072E-04 -2.64542194899E-01 +4.60181633593E-01
4.51000000000E+09 -2.32315942508E-01 +4.77757709360E-01 +1.47540655009E-03 +7.28734908524E-06 +1.34911809536E-03 +9.02259026546E-05 -2.51057128016E-01 +4.74533880664E-01
4.51500000000E+09 -2.24973749184E-01 +4.85700079176E-01 +1.33621757783E-03 -1.39258111631E-04 +1.27243356259E-03 -5.34254814654E-05 -2.37259848401E-01 +4.88840473449E-01
4.52000000000E+09 -2.15420663042E-01 +4.93611714354E-01 +1.37456708535E-03 -5.43845232769E-04 +1.33765405642E-03 -4.72017771927E-04 -2.23831575703E-01 +5.01769156364E-01
4.52500000000E+09 -2.02931435108E-01 +5.00066504635E-01 +9.98211158969E-04 -6.82041538662E-04 +9.35113367616E-04 -6.25278996564E-04 -2.10227645206E-01 +5.14008313688E-01
4.53000000000E+09 -1.89429869328E-01 +5.07376194059E-01 +8.02667124869E-04 -6.67185169152E-04 +8.75052412274E-04 -5.97874593202E-04 -1.96425170258E-01 +5.25240617076E-01
4.53500000000E+09 -1.73926750219E-01 +5.16029337906E-01 +5.85932349406E-04 -6.06798049062E-04 +6.84056497768E-04 -5.18647615681E-04 -1.82042809868E-01 +5.36840344417E-01
4.54000000000E+09 -1.58455899404E-01 +5.25464851186E-01 +9.80878908510E-04 -3.55110942107E-04 +1.04658602499E-03 -3.74017406050E-04 -1.66373910251E-01 +5.47599333977E-01
4.54500000000E+09 -1.43344055384E-01 +5.36796404047E-01 +1.13947523626E-03 -1.04751752318E-03 +1.15833076534E-03 -1.01493897845E-03 -1.51471076993E-01 +5.57481705756E-01
4.55000000000E+09 -1.28949684373E-01 +5.47261615664E-01 +7.93018186454E-04 -1.15857639193E-03 +8.20740951235E-04 -1.13663840984E-03 -1.36648974802E-01 +5.68159958648E-01
4.55500000000E+09 -1.17137075178E-01 +5.57420604880E-01 +5.35281056656E-04 -1.37688340936E-03 +5.77662897562E-04 -1.36991700928E-03 -1.22239138320E-01 +5.77688631006E-01
4.56000000000E+09 -1.06642033113E-01 +5.66653294820E-01 +1.41137944703E-04 -1.25120826078E-03 +2.10242506655E-04 -1.27593388288E-03 -1.07413744199E-01 +5.86330948111E-01
4.56500000000E+09 -9.75734404872E-02 +5.74173747122E-01 +9.10576422688E-05 -1.28439530420E-03 +1.56983754052E-04 -1.31044933289E-03 -9.35033074214E-02 +5.95038508200E-01
4.57000000000E+09 -8.86211560222E-02 +5.80759660681E-01 -4.82101936092E-05 -1.15802158603E-03 -4.26943912764E-05 -1.20286237546E-03 -7.75916036170E-02 +6.03490031871E-01
