# Hz S RI R 50
! CMT, C1220, 16058040, 17.2.0/1
! Date: 15/08/2018 12:37:47
! Data: Format (Calibration Info)
! Freq                      S11: Re/Im (F2)                       S21: Re/Im (F2)                       S12: Re/Im (F2)                       S22: Re/Im (F2)            
4.00000000000E+09 +6.53916912098E-01 -3.59881221528E-01 +1.15691934287E-03 -9.08030419565E-04 +1.22438363503E-03 -8.72708134309E-04 +7.85109572924E-01 -3.14179769310E-01
4.00500000000E+09 +6.45556265729E-01 -3.65255741459E-01 +9.75163742164E-04 -1.27840236929E-03 +9.79268131279E-04 -1.27544363222E-03 +7.76747420332E-01 -3.25403072666E-01
4.01000000000E+09 +6.36783959245E-01 -3.70737143161E-01 +5.45299846465E-04 -1.50868620384E-03 +5.72903266704E-04 -1.49013166285E-03 +7.68481803866E-01 -3.37280781257E-01
4.01500000000E+09 +6.27097827827E-01 -3.76936994573E-01 +1.73439538846E-04 -1.24706242705E-03 +1.87134934391E-04 -1.28085784575E-03 +7.59943628505E-01 -3.48412461276E-01
4.02000000000E+09 +6.17461427093E-01 -3.84068649553E-01 +1.80477185006E-04 -1.19747271630E-03 +2.94712929576E-04 -1.15901362373E-03 +7.51252039301E-01 -3.59304699639E-01
4.02500000000E+09 +6.07363558186E-01 -3.93261618805E-01 +1.26665353699E-04 -1.15401278338E-03 +2.23860188853E-04 -1.18445553065E-03 +7.41914851435E-01 -3.70123091698E-01
4.03000000000E+09 +5.96385919450E-01 -4.04011523363E-01 +6.79351531386E-05 -1.22867155000E-03 +1.62937419219E-04 -1.21399231700E-03 +7.31531766084E-01 -3.80488504816E-01
4.03500000000E+09 +5.84707636447E-01 -4.14286882840E-01 -3.70524688882E-05 -1.24164162149E-03 +1.24926033538E-05 -1.27093559319E-03 +7.20424332176E-01 -3.91444694037E-01
4.04000000000E+09 +5.73735166944E-01 -4.23962641109E-01 -1.40696227715E-04 -1.19621920461E-03 -7.59515964475E-05 -1.26663814896E-03 +7.09272777887E-01 -4.02674621361E-01
4.04500000000E+09 +5.62929844073E-01 -4.33510181376E-01 -2.51473723679E-04 -1.21252059065E-03 -1.82565819737E-04 -1.25563460266E-03 +6.98402035064E-01 -4.13496166970E-01
4.05000000000E+09 +5.51299218062E-01 -4.41426275281E-01 -3.63331342161E-04 -1.18288350239E-03 -3.57384007546E-04 -1.29896654436E-03 +6.88069914268E-01 -4.24155405556E-01
4.05500000000E+09 +5.39732686347E-01 -4.47050596644E-01 -3.29213550920E-04 -1.14429763955E-03 -3.15063156377E-04 -1.27077456156E-03 +6.76793840673E-01 -4.34037870878E-01
4.06000000000E+09 +5.28052170789E-01 -4.51956311163E-01 -6.69628540922E-04 -1.28182534771E-03 -6.26244564278E-04 -1.34144982233E-03 +6.65843197011E-01 -4.43416249540E-01
4.06500000000E+09 +5.15042885181E-01 -4.55933038195E-01 -7.99504289470E-04 -9.17584469883E-04 -8.20206526495E-04 -9.36825022842E-04 +6.53529614976E-01 -4.53358257560E-01
4.07000000000E+09 +5.01763317878E-01 -4.59992325048E-01 -5.43563621299E-04 -7.35604261779E-04 -5.49183121108E-04 -7.33432179475E-04 +6.40184554450E-01 -4.63322925012E-01
4.07500000000E+09 +4.87002310244E-01 -4.64775682616E-01 -5.13258706688E-04 -1.05343740542E-03 -4.70573391512E-04 -1.06602833811E-03 +6.26574133227E-01 -4.74055939110E-01
4.08000000000E+09 +4.71233132418E-01 -4.69997407677E-01 -7.80165227309E-04 -1.07022957237E-03 -8.22225653485E-04 -1.15983077538E-03 +6.12927175434E-01 -4.83891631349E-01
4.08500000000E+09 +4.54804940980E-01 -4.76423302371E-01 -8.31188675424E-04 -1.03275611966E-03 -8.38797433368E-04 -1.08556029256E-03 +5.99468105173E-01 -4.93872625347E-01
4.09000000000E+09 +4.37884405458E-01 -4.82855518011E-01 -1.21233762575E-03 -1.16215582028E-03 -1.25411002289E-03 -1.19580135748E-03 +5.85613718388E-01 -5.02670169923E-01
4.09500000000E+09 +4.21392712208E-01 -4.89157981261E-01 -1.60331383268E-03 -6.36580441070E-04 -1.64609213345E-03 -6.81274909495E-04 +5.71300040804E-01 -5.10920858218E-01
4.10000000000E+09 +4.04736174310E-01 -4.95110494716E-01 -1.23167448051E-03 -2.42322858945E-04 -1.22618009387E-03 -2.56307336079E-04 +5.55850862754E-01 -5.18670969207E-01
4.10500000000E+09 +3.88109097396E-01 -4.99535038825E-01 -1.17373125727E-03 -4.76804935568E-04 -1.18459778813E-03 -4.63005828233E-04 +5.40248477854E-01 -5.26761604579E-01
4.11000000000E+09 +3.71862650306E-01 -5.01551237279E-01 -1.32663010516E-03 -2.29551802023E-04 -1.37104802889E-03 -2.84643419344E-04 +5.23753373643E-01 -5.35331979385E-01
4.11500000000E+09 +3.56885110732E-01 -5.02724995436E-01 -1.05807069344E-03 -1.16216153772E-04 -1.08831022762E-03 -1.99513762575E-04 +5.07439008517E-01 -5.43391472119E-01
4.12000000000E+09 +3.41153713254E-01 -5.03526473387E-01 -1.22707143410E-03 -2.54049805825E-04 -1.25529014324E-03 -2.64851368884E-04 +4.91043729334E-01 -5.51351194884E-01
4.12500000000E+09 +3.24502409875E-01 -5.04312585647E-01 -1.34631874311E-03 -1.01483011837E-04 -1.39102808888E-03 -1.13499714656E-04 +4.73935803027E-01 -5.57924871780E-01
4.13000000000E+09 +3.07097033524E-01 -5.05209647750E-01 -1.34310190785E-03 +1.65271403465E-04 -1.34710236792E-03 +7.10746241365E-05 +4.56741309626E-01 -5.64054689125E-01
4.13500000000E+09 +2.88470071212E-01 -5.07875274464E-01 -9.53340196856E-04 +2.52310970728E-04 -1.04649275095E-03 +2.29984816389E-04 +4.38380358995E-01 -5.69660136945E-01
4.14000000000E+09 +2.68161546452E-01 -5.10596896860E-01 -1.17992888267E-03 -1.06035997800E-04 -1.22415877398E-03 -1.65584074096E-04 +4.20219131895E-01 -5.75904012356E-01
4.14500000000E+09 +2.48290744430E-01 -5.13232264019E-01 -1.56322016563E-03 +1.80245446029E-04 -1.64317180552E-03 +1.55767086029E-04 +4.00711262037E-01 -5.82314701970E-01
4.15000000000E+09 +2.28815284752E-01 -5.16964857201E-01 -1.37348678529E-03 +5.52745653246E-04 -1.45738497967E-03 +4.99366929314E-04 +3.82390083338E-01 -5.87429111600E-01
4.15500000000E+09 +2.09063352269E-01 -5.19907611779E-01 -1.21286962580E-03 +5.66699193539E-04 -1.29739320813E-03 +6.36731140849E-04 +3.63938435267E-01 -5.92785712563E-01
4.16000000000E+09 +1.90378255343E-01 -5.20627930618E-01 -1.17282531064E-03 +5.72234758411E-04 -1.26616179728E-03 +6.15386632853E-04 +3.44657899824E-01 -5.96167087378E-01
4.16500000000E+09 +1.73389113607E-01 -5.20641673218E-01 -1.09923575563E-03 +5.71847192963E-04 -1.11582667242E-03 +5.80363880275E-04 +3.24786093992E-01 -5.99042233801E-01
4.17000000000E+09 +1.56472305494E-01 -5.18246056526E-01 -1.25032865017E-03 +7.44638236012E-04 -1.31029163574E-03 +7.70649427845E-04 +3.03955886492E-01 -6.01287941039E-01
4.17500000000E+09 +1.40710132126E-01 -5.13913668040E-01 -1.14251018409E-03 +6.46797398304E-04 -1.15641926365E-03 +6.59109944921E-04 +2.82366281300E-01 -6.02696785063E-01
4.18000000000E+09 +1.24633645529E-01 -5.09380693081E-01 -1.32466253938E-03 +1.05243899077E-03 -1.35072665143E-03 +1.04304660289E-03 +2.61309531629E-01 -6.04197664702E-01
4.18500000000E+09 +1.07759574280E-01 -5.04097633834E-01 -9.16255914847E-04 +1.13248778109E-03 -9.62332006735E-04 +1.15008859316E-03 +2.40125426665E-01 -6.05655633142E-01
4.19000000000E+09 +8.95653302690E-02 -4.98950814912E-01 -1.10834542041E-03 +9.90367682418E-04 -1.11047043893E-03 +1.01666258114E-03 +2.18628282854E-01 -6.05595242783E-01
4.19500000000E+09 +7.05530228846E-02 -4.93396523317E-01 -1.25655692227E-03 +1.29220519662E-03 -1.30616951770E-03 +1.32927793615E-03 +1.97450715745E-01 -6.04150572917E-01
4.20000000000E+09 +5.17081427332E-02 -4.88808889887E-01 -9.32406811183E-04 +1.79923884077E-03 -9.42701688616E-04 +1.82806396003E-03 +1.75644931512E-01 -6.01946990917E-01
4.20500000000E+09 +3.24622101933E-02 -4.84276491338E-01 -4.93877907676E-04 +1.66704249300E-03 -4.76993978379E-04 +1.70917256243E-03 +1.54080366488E-01 -5.98727534724E-01
4.21000000000E+09 +1.41794408064E-02 -4.79625307153E-01 -6.68606234901E-04 +1.33658559477E-03 -6.95542975117E-04 +1.37550571942E-03 +1.31861792356E-01 -5.97330325767E-01
4.21500000000E+09 -3.42228000552E-03 -4.73988513019E-01 -6.10494333354E-04 +1.83778592928E-03 -5.74826523857E-04 +1.84637084105E-03 +1.08396981304E-01 -5.95017701465E-01
4.22000000000E+09 -1.93678447277E-02 -4.66700528567E-01 -2.38537461801E-04 +1.73227370820E-03 -2.43089251012E-04 +1.77147468649E-03 +8.59454132949E-02 -5.91031759521E-01
4.22500000000E+09 -3.44511720244E-02 -4.57805396323E-01 -5.07037262850E-04 +1.64668420412E-03 -5.09516345970E-04 +1.62424422431E-03 +6.42430408523E-02 -5.86343770981E-01
4.23000000000E+09 -4.86774851053E-02 -4.46571390512E-01 -3.11464967765E-04 +2.12921739659E-03 -3.51398395306E-04 +2.18502875733E-03 +4.25297640694E-02 -5.79821923420E-01
4.23500000000E+09 -6.25104363471E-02 -4.35265256795E-01 -5.19656267039E-05 +2.17828220515E-03 -6.20777433112E-05 +2.21298519891E-03 +2.07204157047E-02 -5.72731290030E-01
4.24000000000E+09 -7.86445781158E-02 -4.22980151794E-01 +2.67647931475E-04 +2.26550166586E-03 +2.67764224685E-04 +2.33155942723E-03 -1.65940688783E-03 -5.64149346129E-01
4.24500000000E+09 -9.62520089834E-02 -4.09722670146E-01 +5.44485181307E-04 +2.15937384527E-03 +5.15075876582E-04 +2.16351535195E-03 -2.38834927639E-02 -5.55694511768E-01
4.25000000000E+09 -1.15463501295E-01 -3.96323581477E-01 +3.89999438807E-04 +2.32170664556E-03 +3.42085989408E-04 +2.37119728679E-03 -4.61756407936E-02 -5.46615433830E-01
4.25500000000E+09 -1.35421575129E-01 -3.83363939903E-01 +1.20001629477E-03 +2.56015346272E-03 +1.15924293447E-03 +2.62665933837E-03 -6.73497341701E-02 -5.36918881628E-01
4.26000000000E+09 -1.56137922766E-01 -3.70882145494E-01 +1.54019731733E-03 +2.04776931172E-03 +1.58671900856E-03 +2.10362762835E-03 -8.82856924833E-02 -5.26477323583E-01
4.26500000000E+09 -1.75456398325E-01 -3.58030678469E-01 +1.23518135121E-03 +2.06875526896E-03 +1.32007396354E-03 +2.14719984525E-03 -1.08915729125E-01 -5.14585917293E-01
4.27000000000E+09 -1.92439519307E-01 -3.46132811768E-01 +1.91582690383E-03 +2.15455237211E-03 +1.93437548079E-03 +2.20168618908E-03 -1.30241297536E-01 -5.00955053214E-01
4.27500000000E+09 -2.08292004349E-01 -3.34366951285E-01 +2.06928916680E-03 +1.66919561171E-03 +2.11662575268E-03 +1.69788221302E-03 -1.51317703953E-01 -4.86594947801E-01
4.28000000000E+09 -2.21650778511E-01 -3.20852048593E-01 +2.11013454949E-03 +1.72911534834E-03 +2.12535501968E-03 +1.71967485671E-03 -1.72273546995E-01 -4.72058762497E-01
4.28500000000E+09 -2.33121349464E-01 -3.06074927087E-01 +2.57807293872E-03 +1.67647261200E-03 +2.62626449720E-03 +1.67973449209E-03 -1.92720321123E-01 -4.56713445862E-01
4.29000000000E+09 -2.43655835865E-01 -2.89975144042E-01 +2.90114587851E-03 +9.53327591166E-04 +3.00589754583E-03 +9.44782820846E-04 -2.11348360274E-01 -4.41373998942E-01
4.29500000000E+09 -2.54752397284E-01 -2.72137578597E-01 +2.50133903573E-03 +7.50479171335E-04 +2.59461818925E-03 +8.19437091332E-04 -2.29728539058E-01 -4.25231617430E-01
4.30000000000E+09 -2.65833549523E-01 -2.52303017617E-01 +2.91455565748E-03 +6.96959689726E-04 +3.01998012952E-03 +6.82396521053E-04 -2.45994220620E-01 -4.08257901146E-01
4.30500000000E+09 -2.77477600149E-01 -2.31936825909E-01 +3.03254480807E-03 +1.04639227814E-04 +3.14822697013E-03 +1.32954886418E-04 -2.63854171040E-01 -3.91126397292E-01
4.31000000000E+09 -2.90137257318E-01 -2.11848484323E-01 +2.57153795501E-03 +2.31237933895E-04 +2.68201834052E-03 +2.23007325035E-04 -2.81029200573E-01 -3.71437208538E-01
4.31500000000E+09 -3.02883825126E-01 -1.92663430547E-01 +3.31841542209E-03 +2.93366311289E-04 +3.41073476374E-03 +3.03940090034E-04 -2.97659935835E-01 -3.51945998138E-01
4.32000000000E+09 -3.15775175912E-01 -1.75110796623E-01 +3.64436792021E-03 -6.01433416079E-04 +3.68952766885E-03 -6.64128566627E-04 -3.13732178582E-01 -3.31351346581E-01
4.32500000000E+09 -3.27181812885E-01 -1.58317966744E-01 +3.10088110138E-03 -1.19821812565E-03 +3.09584930847E-03 -1.24952883983E-03 -3.27901157574E-01 -3.09841042071E-01
4.33000000000E+09 -3.36732401604E-01 -1.42800949294E-01 +3.26214128030E-03 -1.02505959542E-03 +3.21430089171E-03 -1.10011025212E-03 -3.40643454519E-01 -2.87964877372E-01
4.33500000000E+09 -3.43519739794E-01 -1.26270589062E-01 +3.29228158092E-03 -1.69861074514E-03 +3.33766933834E-03 -1.73422033436E-03 -3.52845830459E-01 -2.65299967809E-01
4.34000000000E+09 -3.46316340042E-01 -1.10339717858E-01 +2.97198872596E-03 -2.33220470669E-03 +2.92507396182E-03 -2.40352470192E-03 -3.64859294232E-01 -2.42290856941E-01
4.34500000000E+09 -3.48088946986E-01 -9.39395094499E-02 +2.59373596389E-03 -2.32869563759E-03 +2.54356208176E-03 -2.31229196786E-03 -3.76277897623E-01 -2.17776530618E-01
4.35000000000E+09 -3.48376953328E-01 -7.51986548017E-02 +2.56208373851E-03 -2.65796674897E-03 +2.57195582509E-03 -2.68060395139E-03 -3.86462245435E-01 -1.94890368592E-01
4.35500000000E+09 -3.49218265984E-01 -5.52265736771E-02 +2.26675693195E-03 -2.96592445076E-03 +2.28208374031E-03 -2.95526029454E-03 -3.96313545797E-01 -1.72347244414E-01
4.36000000000E+09 -3.50811251502E-01 -3.27655975178E-02 +1.97532711782E-03 -3.09494529703E-03 +1.97044673149E-03 -3.11454000298E-03 -4.05698641392E-01 -1.48893478012E-01
4.36500000000E+09 -3.53439336432E-01 -9.60739227176E-03 +2.12302182511E-03 -3.26962147488E-03 +2.05181203465E-03 -3.30026821469E-03 -4.12738033159E-01 -1.24101645148E-01
4.37000000000E+09 -3.57355178095E-01 +1.42060554750E-02 +1.90665847469E-03 -3.95861982633E-03 +1.89457830225E-03 -4.00324117909E-03 -4.18003184927E-01 -9.96586569328E-02
4.37500000000E+09 -3.61013555302E-01 +3.66434621870E-02 +1.25175081078E-03 -4.81678714810E-03 +1.28963226215E-03 -4.80807012120E-03 -4.23136834009E-01 -7.39551602648E-02
4.38000000000E+09 -3.65842579279E-01 +5.61619225253E-02 +3.23044106426E-04 -4.72652874577E-03 +2.58887504344E-04 -4.80872978321E-03 -4.26499323746E-01 -4.87578994106E-02
4.38500000000E+09 -3.69904453906E-01 +7.45866834851E-02 -3.56389881699E-04 -4.65265982591E-03 -4.14434846587E-04 -4.72062149251E-03 -4.29227929667E-01 -2.46366591473E-02
4.39000000000E+09 -3.72639057221E-01 +9.01534136223E-02 -9.06390150583E-04 -4.61840398169E-03 -9.50825672074E-04 -4.61860185012E-03 -4.32096793989E-01 -8.15465716604E-05
4.39500000000E+09 -3.73186131585E-01 +1.04368161164E-01 -1.56383156761E-03 -4.04244526770E-03 -1.60425584193E-03 -4.04745099903E-03 -4.32975979713E-01 +2.34320105203E-02
4.40000000000E+09 -3.71784516953E-01 +1.19041861718E-01 -1.55959173402E-03 -3.98897875566E-03 -1.60495247859E-03 -4.02479304382E-03 -4.33864433620E-01 +4.79416448235E-02
4.40500000000E+09 -3.67898682885E-01 +1.34801110204E-01 -2.25561664376E-03 -4.00296829570E-03 -2.29403683020E-03 -4.09807347041E-03 -4.33108787742E-01 +7.25136869090E-02
4.41000000000E+09 -3.61877282663E-01 +1.51149829714E-01 -2.50794033048E-03 -3.58161848081E-03 -2.59471554835E-03 -3.56099731895E-03 -4.31465372262E-01 +9.74595806439E-02
4.41500000000E+09 -3.56418021102E-01 +1.69380462307E-01 -2.91098765645E-03 -3.55463550674E-03 -3.01312301212E-03 -3.48551708201E-03 -4.28748840061E-01 +1.21874896427E-01
4.42000000000E+09 -3.50566431643E-01 +1.90097265659E-01 -3.29612576534E-03 -3.23928644726E-03 -3.38547567033E-03 -3.18555354360E-03 -4.26124333348E-01 +1.45801217026E-01
4.42500000000E+09 -3.45665046380E-01 +2.11680989613E-01 -3.78245104133E-03 -3.33953829594E-03 -3.79612740206E-03 -3.21897413211E-03 -4.21025745115E-01 +1.70339766182E-01
4.43000000000E+09 -3.41427782050E-01 +2.32802501206E-01 -4.78491834346E-03 -2.74632457035E-03 -4.76156277211E-03 -2.64078101324E-03 -4.15647317191E-01 +1.92166877112E-01
4.43500000000E+09 -3.39260153367E-01 +2.52974930038E-01 -4.96717197430E-03 -1.34924535438E-03 -4.93313493928E-03 -1.30709098044E-03 -4.09521875875E-01 +2.15329877946E-01
4.44000000000E+09 -3.36920406726E-01 +2.71916792983E-01 -4.66817046108E-03 -1.05915803139E-03 -4.68813780594E-03 -1.03383204460E-03 -4.02416442508E-01 +2.37275441484E-01
4.44500000000E+09 -3.34002216167E-01 +2.87479564104E-01 -4.63609366809E-03 -3.18382015470E-04 -4.69109753345E-03 -3.11360371174E-04 -3.95504427983E-01 +2.58594993765E-01
4.45000000000E+09 -3.30902026685E-01 +3.00782435634E-01 -4.37501147924E-03 -2.15336591169E-04 -4.39946895355E-03 -1.34781795912E-04 -3.88067122008E-01 +2.80115515164E-01
4.45500000000E+09 -3.26286045890E-01 +3.12886510016E-01 -4.58395322645E-03 -6.46700849863E-05 -4.58090999800E-03 +8.05731362069E-05 -3.80253763009E-01 +3.00772772287E-01
4.46000000000E+09 -3.20119915267E-01 +3.24669153718E-01 -4.83341128976E-03 +5.56861925840E-04 -4.86534230530E-03 +6.51383461244E-04 -3.70175955545E-01 +3.20667908270E-01
4.46500000000E+09 -3.10998411278E-01 +3.37510558890E-01 -4.71974440521E-03 +1.17268356453E-03 -4.68693667142E-03 +1.39024150175E-03 -3.60345192310E-01 +3.39386765596E-01
4.47000000000E+09 -3.00107807795E-01 +3.50937041400E-01 -4.71765302189E-03 +1.64764284074E-03 -4.62673582994E-03 +1.82423124545E-03 -3.48156978326E-01 +3.58637332206E-01
4.47500000000E+09 -2.88197229517E-01 +3.66646673479E-01 -4.61075978690E-03 +2.35783875569E-03 -4.53562013158E-03 +2.44943189650E-03 -3.36900756498E-01 +3.76128656281E-01
4.48000000000E+09 -2.76066870911E-01 +3.82134574240E-01 -4.24692335663E-03 +3.03698446371E-03 -4.06495222241E-03 +3.14902596149E-03 -3.25636621131E-01 +3.94792913743E-01
4.48500000000E+09 -2.66020132763E-01 +3.99124286034E-01 -3.67302059399E-03 +3.43197070090E-03 -3.48693364217E-03 +3.48941760340E-03 -3.14122174103E-01 +4.11851025677E-01
4.49000000000E+09 -2.56745698724E-01 +4.15856793385E-01 -3.33495943495E-03 +3.85866052342E-03 -3.12597164735E-03 +3.84160555770E-03 -3.02441679608E-01 +4.28498774353E-01
4.49500000000E+09 -2.49160602541E-01 +4.31364016786E-01 -2.77873197147E-03 +4.08453258340E-03 -2.65181409432E-03 +4.06741075820E-03 -2.90604183546E-01 +4.43954174744E-01
4.50000000000E+09 -2.42731285323E-01 +4.45090330835E-01 -2.46365816983E-03 +4.33690901810E-03 -2.29605241608E-03 +4.27292669569E-03 -2.77912663022E-01 +4.59096819448E-01
4.50500000000E+09 -2.37043729945E-01 +4.56381685783E-01 -1.99599099533E-03 +4.51759900077E-03 -1.88608727600E-03 +4.44867217189E-03 -2.64091594153E-01 +4.74300194803E-01
4.51000000000E+09 -2.30323140943E-01 +4.66038788801E-01 -1.67169996831E-03 +4.90802545037E-03 -1.53301380320E-03 +4.84068166847E-03 -2.50009808074E-01 +4.88283950797E-01
4.51500000000E+09 -2.21618253224E-01 +4.73573840217E-01 -8.33185506804E-04 +5.34765961960E-03 -7.29079136474E-04 +5.23924512787E-03 -2.36752867084E-01 +5.02553911043E-01
4.52000000000E+09 -2.11432343963E-01 +4.80010144645E-01 +6.60405023664E-05 +5.09704335516E-03 +1.63237115485E-04 +4.97103386834E-03 -2.22718084302E-01 +5.15982314133E-01
4.52500000000E+09 -1.98963173518E-01 +4.86937798200E-01 +2.15402297495E-04 +4.95503213742E-03 +2.76563907838E-04 +4.90617570111E-03 -2.08571139330E-01 +5.28036911560E-01
4.53000000000E+09 -1.85126877994E-01 +4.94787321552E-01 +1.04885064317E-03 +5.13928014604E-03 +1.10019666226E-03 +4.99686968831E-03 -1.94196304537E-01 +5.39091255559E-01
4.53500000000E+09 -1.69494951654E-01 +5.04774025835E-01 +1.64234076108E-03 +4.69014150256E-03 +1.71522712875E-03 +4.52983773858E-03 -1.79179918387E-01 +5.49452030937E-01
4.54000000000E+09 -1.53469368854E-01 +5.14908857430E-01 +2.14748995919E-03 +4.58188030284E-03 +2.19724035981E-03 +4.40303330385E-03 -1.64392445861E-01 +5.59972222851E-01
4.54500000000E+09 -1.38836629683E-01 +5.25867827872E-01 +2.87500596018E-03 +4.00201049273E-03 +2.77180025916E-03 +3.81987243644E-03 -1.49119052107E-01 +5.70542495894E-01
4.55000000000E+09 -1.25929794934E-01 +5.36406173603E-01 +2.69050249853E-03 +3.62601612528E-03 +2.65991436828E-03 +3.52751845894E-03 -1.33918280506E-01 +5.80760574764E-01
4.55500000000E+09 -1.16018990983E-01 +5.46114575883E-01 +3.26968623892E-03 +3.49256134083E-03 +3.22131318300E-03 +3.39618422375E-03 -1.19139017606E-01 +5.90160490240E-01
4.56000000000E+09 -1.07632759210E-01 +5.55911550371E-01 +3.61889931650E-03 +3.12034242338E-03 +3.58798645592E-03 +3.03107641095E-03 -1.05061743959E-01 +5.98734497393E-01
4.56500000000E+09 -9.94357300723E-02 +5.63901567268E-01 +4.01472124246E-03 +2.45907690561E-03 +4.03263070796E-03 +2.38896635892E-03 -8.99605653396E-02 +6.07657607791E-01
4.57000000000E+09 -9.02073063960E-02 +5.70062459907E-01 +3.95590994279E-03 +2.08332510783E-03 +3.94544623931E-03 +1.98850893411E-03 -7.43416870186E-02 +6.14683319077E-01
