# Hz S RI R 50
! CMT, C1220, 16058040, 17.2.0/1
! Date: 15/08/2018 11:37:13
! Data: Format (Calibration Info)
! Freq                      S11: Re/Im (F2)                       S21: Re/Im (F2)                       S12: Re/Im (F2)                       S22: Re/Im (F2)            
4.00000000000E+09 +6.69300150007E-01 -3.54739612134E-01 +4.29927002994E-04 -2.76449276660E-03 +5.18475322328E-04 -2.86541466882E-03 +7.75399002249E-01 -3.53032111554E-01
4.00500000000E+09 +6.61384885981E-01 -3.62805529400E-01 +6.44204862576E-05 -2.99682132286E-03 +2.00204800994E-04 -3.01278471476E-03 +7.67087536626E-01 -3.64373532079E-01
4.01000000000E+09 +6.52816766179E-01 -3.70118021413E-01 -5.14196251522E-04 -2.99122690117E-03 -4.18476239618E-04 -3.12465479485E-03 +7.58185380851E-01 -3.75848653293E-01
4.01500000000E+09 +6.43883198373E-01 -3.77736066222E-01 -9.40585888449E-04 -2.78125444034E-03 -8.78417534369E-04 -2.87031015624E-03 +7.48375615616E-01 -3.86459672063E-01
4.02000000000E+09 +6.33931001103E-01 -3.86645306485E-01 -9.93840223626E-04 -2.58721557157E-03 -9.10844533244E-04 -2.67428710919E-03 +7.38463252519E-01 -3.96743141328E-01
4.02500000000E+09 +6.22768354101E-01 -3.96025223552E-01 -1.15459359343E-03 -2.66608319095E-03 -1.05550654963E-03 -2.76275706187E-03 +7.28327627994E-01 -4.06780368987E-01
4.03000000000E+09 +6.10991908582E-01 -4.05961372065E-01 -1.54619035377E-03 -2.69720980122E-03 -1.46404641177E-03 -2.84768674874E-03 +7.18077294592E-01 -4.17529889991E-01
4.03500000000E+09 +5.98936194700E-01 -4.15535703881E-01 -2.03696076948E-03 -2.38367816725E-03 -1.94144609763E-03 -2.55870524939E-03 +7.06934469489E-01 -4.28747469370E-01
4.04000000000E+09 +5.87396086935E-01 -4.25248310005E-01 -2.02822918860E-03 -1.99499740184E-03 -2.01714996654E-03 -2.20308154750E-03 +6.95657010093E-01 -4.39684340102E-01
4.04500000000E+09 +5.75807620597E-01 -4.34616782263E-01 -2.17619193531E-03 -1.93566390756E-03 -2.18148751304E-03 -2.10392905122E-03 +6.83803586299E-01 -4.50497192671E-01
4.05000000000E+09 +5.64493257571E-01 -4.43376414570E-01 -2.37017766487E-03 -1.87236692594E-03 -2.43644957513E-03 -2.04244677990E-03 +6.72199523184E-01 -4.60217296507E-01
4.05500000000E+09 +5.52744305874E-01 -4.51913725876E-01 -2.52108111085E-03 -1.79099472370E-03 -2.58217388578E-03 -1.92127934198E-03 +6.59883642099E-01 -4.69904004129E-01
4.06000000000E+09 +5.39600009573E-01 -4.59785043903E-01 -3.10187284183E-03 -1.62677468026E-03 -3.28114516343E-03 -1.75984451184E-03 +6.47326708734E-01 -4.79247569203E-01
4.06500000000E+09 +5.25806461640E-01 -4.65955039403E-01 -3.40588011308E-03 -7.55791072800E-04 -3.55916388969E-03 -8.39347848640E-04 +6.34202629926E-01 -4.88166916394E-01
4.07000000000E+09 +5.12062378401E-01 -4.72570284398E-01 -2.92904656609E-03 -4.93743421830E-04 -3.01323154365E-03 -5.32844794209E-04 +6.20754174275E-01 -4.97834441114E-01
4.07500000000E+09 +4.96472146726E-01 -4.79735621180E-01 -3.05131858890E-03 -4.40698405053E-04 -3.08510886552E-03 -5.62920352571E-04 +6.06938725613E-01 -5.06961157872E-01
4.08000000000E+09 +4.80555679183E-01 -4.86191614451E-01 -3.11708638293E-03 -2.20319267963E-04 -3.21236609271E-03 -3.58583272233E-04 +5.93569215594E-01 -5.16604582982E-01
4.08500000000E+09 +4.64303819615E-01 -4.93347106627E-01 -3.18232637551E-03 +1.90360767705E-05 -3.29965350330E-03 -5.57692364259E-05 +5.79548674981E-01 -5.26155937442E-01
4.09000000000E+09 +4.47855369458E-01 -5.01120457942E-01 -3.38452390950E-03 +4.33797410200E-04 -3.54420446849E-03 +3.43543771015E-04 +5.64903205933E-01 -5.34842541747E-01
4.09500000000E+09 +4.31387859800E-01 -5.07952698187E-01 -3.36649942781E-03 +1.00834260194E-03 -3.51005364658E-03 +9.92036372040E-04 +5.49689760548E-01 -5.42447899521E-01
4.10000000000E+09 +4.15855436489E-01 -5.14866173461E-01 -2.67025173602E-03 +1.12412267937E-03 -2.76259172406E-03 +1.14899883855E-03 +5.34019652400E-01 -5.49513880551E-01
4.10500000000E+09 +3.99217125074E-01 -5.21358034978E-01 -2.94368441974E-03 +9.13052889268E-04 -3.02979410826E-03 +9.36580654985E-04 +5.17958156679E-01 -5.56703311217E-01
4.11000000000E+09 +3.82569421098E-01 -5.25347982253E-01 -3.21155297570E-03 +1.51683717096E-03 -3.31282109182E-03 +1.49391230514E-03 +5.00994117781E-01 -5.64655564100E-01
4.11500000000E+09 +3.66710780692E-01 -5.28141850951E-01 -2.93558497459E-03 +2.06328810848E-03 -3.11154723494E-03 +2.03482185963E-03 +4.83362492057E-01 -5.72318735675E-01
4.12000000000E+09 +3.50377692294E-01 -5.30613591445E-01 -2.65638082836E-03 +2.43090749699E-03 -2.72948066062E-03 +2.44921424392E-03 +4.65826781365E-01 -5.78865187225E-01
4.12500000000E+09 +3.33687535861E-01 -5.32314371419E-01 -2.36706308476E-03 +2.77323029871E-03 -2.49211930577E-03 +2.81301515140E-03 +4.48881334188E-01 -5.84586366240E-01
4.13000000000E+09 +3.16273442057E-01 -5.35339436202E-01 -1.61107278824E-03 +2.76726957879E-03 -1.69678477164E-03 +2.78187306370E-03 +4.31784369856E-01 -5.90343771865E-01
4.13500000000E+09 +2.96709349262E-01 -5.38883959895E-01 -1.52161209390E-03 +2.43366818100E-03 -1.60264551267E-03 +2.44740179957E-03 +4.13784291195E-01 -5.96110839071E-01
4.14000000000E+09 +2.76394076027E-01 -5.41872004673E-01 -1.69810208555E-03 +2.44286565747E-03 -1.79634636993E-03 +2.44359858198E-03 +3.93877346308E-01 -6.01408575464E-01
4.14500000000E+09 +2.56661098919E-01 -5.44503335259E-01 -1.84041248289E-03 +2.99147522951E-03 -1.97416688076E-03 +3.02935115879E-03 +3.73973463579E-01 -6.05945721436E-01
4.15000000000E+09 +2.37614511603E-01 -5.48878886693E-01 -1.12383084387E-03 +3.22288505320E-03 -1.19175905806E-03 +3.33559259518E-03 +3.54941392964E-01 -6.09855918156E-01
4.15500000000E+09 +2.17992808699E-01 -5.51763163899E-01 -1.07387424443E-03 +3.20094821144E-03 -1.13541005919E-03 +3.29223306503E-03 +3.35774054938E-01 -6.14051923344E-01
4.16000000000E+09 +2.00387277484E-01 -5.53935454427E-01 -8.29245597552E-04 +3.42739234269E-03 -8.91899541209E-04 +3.48592830144E-03 +3.16141773521E-01 -6.17480218332E-01
4.16500000000E+09 +1.83012521110E-01 -5.55140068011E-01 -4.31713922304E-04 +3.44317497018E-03 -4.70646678715E-04 +3.55311902180E-03 +2.95831545196E-01 -6.19270026930E-01
4.17000000000E+09 +1.65542641144E-01 -5.54913265780E-01 -5.04896405994E-04 +3.50443804350E-03 -6.41024995848E-04 +3.57637291847E-03 +2.75379340412E-01 -6.20126290891E-01
4.17500000000E+09 +1.48171612930E-01 -5.52349867200E-01 -2.79471910739E-06 +4.20456330243E-03 -7.20666003274E-05 +4.34655357097E-03 +2.55122820460E-01 -6.20542657221E-01
4.18000000000E+09 +1.30678804234E-01 -5.48499242863E-01 +1.09947318374E-03 +3.99759350789E-03 +1.06320022278E-03 +4.18188779346E-03 +2.34006796870E-01 -6.21862608675E-01
4.18500000000E+09 +1.11513931352E-01 -5.44238792836E-01 +1.15648932339E-03 +3.30748634346E-03 +1.19086039025E-03 +3.45514799855E-03 +2.11127941397E-01 -6.22479026948E-01
4.19000000000E+09 +9.15979265900E-02 -5.38437694699E-01 +9.69513795955E-04 +3.15954064960E-03 +8.82827720296E-04 +3.28013187779E-03 +1.88307380399E-01 -6.21074500022E-01
4.19500000000E+09 +7.17517023673E-02 -5.32943921219E-01 +8.96681535436E-04 +3.57256179513E-03 +8.84339174091E-04 +3.67023537971E-03 +1.66365284159E-01 -6.18777741291E-01
4.20000000000E+09 +5.11170771557E-02 -5.28475130495E-01 +1.31081650427E-03 +3.96834286374E-03 +1.27569486280E-03 +4.13611573492E-03 +1.44760090484E-01 -6.16450640136E-01
4.20500000000E+09 +2.98782416796E-02 -5.24443858178E-01 +2.27809926708E-03 +4.30457030349E-03 +2.29616903647E-03 +4.48256641666E-03 +1.22213938757E-01 -6.13097386427E-01
4.21000000000E+09 +8.98869277368E-03 -5.19704138715E-01 +3.32857417659E-03 +3.90324170974E-03 +3.40311902154E-03 +4.10517109745E-03 +9.91817973544E-02 -6.09080144765E-01
4.21500000000E+09 -1.05221407305E-02 -5.15375254261E-01 +3.56819385328E-03 +2.86668752787E-03 +3.62758289445E-03 +2.97124073945E-03 +7.59913730132E-02 -6.03874235030E-01
4.22000000000E+09 -2.93055019548E-02 -5.08964667824E-01 +3.55478016672E-03 +2.62400099649E-03 +3.64010915907E-03 +2.71223627182E-03 +5.40340798065E-02 -5.97657105647E-01
4.22500000000E+09 -4.57500902087E-02 -5.01874654032E-01 +3.86211800950E-03 +2.31069906023E-03 +3.99239660122E-03 +2.41270157090E-03 +3.25084621324E-02 -5.91583364665E-01
4.23000000000E+09 -6.19673306486E-02 -4.94138363606E-01 +4.09400360255E-03 +1.78648129026E-03 +4.13658631565E-03 +1.82387219413E-03 +1.16272683562E-02 -5.84703754424E-01
4.23500000000E+09 -7.90679049267E-02 -4.84223630496E-01 +3.90230844479E-03 +1.61077074220E-03 +3.95253789057E-03 +1.70373079559E-03 -1.02995611351E-02 -5.77481550425E-01
4.24000000000E+09 -9.63133323706E-02 -4.72580035580E-01 +4.03363778958E-03 +1.61771611525E-03 +4.13943097086E-03 +1.63368835698E-03 -3.29169020843E-02 -5.68607162641E-01
4.24500000000E+09 -1.14038931851E-01 -4.59714787641E-01 +4.31533363996E-03 +1.29966222720E-03 +4.42417141842E-03 +1.25117888370E-03 -5.51471454113E-02 -5.57721820067E-01
4.25000000000E+09 -1.33275630158E-01 -4.46604826898E-01 +4.72699926413E-03 +1.51477397765E-03 +4.80813568570E-03 +1.51047005846E-03 -7.62108881180E-02 -5.46957983513E-01
4.25500000000E+09 -1.53060812967E-01 -4.33298661549E-01 +5.58553177398E-03 +8.67070724956E-04 +5.73147790380E-03 +8.92813233133E-04 -9.67735207767E-02 -5.35609926938E-01
4.26000000000E+09 -1.73281130489E-01 -4.20771089430E-01 +6.26675723130E-03 -4.17535924771E-04 +6.45822790134E-03 -3.94080578565E-04 -1.17899558514E-01 -5.23394975325E-01
4.26500000000E+09 -1.93863060515E-01 -4.09083470663E-01 +5.56918412766E-03 -1.47451010327E-03 +5.66265116941E-03 -1.50478389537E-03 -1.37927360473E-01 -5.09545719663E-01
4.27000000000E+09 -2.13394809736E-01 -3.96521806608E-01 +5.14882851979E-03 -2.14306136128E-03 +5.24528137710E-03 -2.26127594471E-03 -1.58714326731E-01 -4.95120193353E-01
4.27500000000E+09 -2.31232895196E-01 -3.84672622408E-01 +4.53541231590E-03 -2.71357398195E-03 +4.60992346871E-03 -2.85082950207E-03 -1.78462583321E-01 -4.79142116404E-01
4.28000000000E+09 -2.47580010567E-01 -3.71895048458E-01 +3.94791087445E-03 -2.14978412657E-03 +3.97140282291E-03 -2.22036227542E-03 -1.97659825116E-01 -4.65103229374E-01
4.28500000000E+09 -2.61558026012E-01 -3.58579741741E-01 +4.83123714432E-03 -2.08783187469E-03 +4.82893226097E-03 -2.16419699979E-03 -2.19340340971E-01 -4.49793304180E-01
4.29000000000E+09 -2.74441739646E-01 -3.43803968941E-01 +5.29689514987E-03 -3.47512134836E-03 +5.35573539115E-03 -3.57512220349E-03 -2.39106755797E-01 -4.31339304281E-01
4.29500000000E+09 -2.86042134033E-01 -3.28186098968E-01 +4.15338699975E-03 -4.61143729290E-03 +4.14866461804E-03 -4.72557489292E-03 -2.55885743351E-01 -4.11732916792E-01
4.30000000000E+09 -2.98489682828E-01 -3.11334594509E-01 +3.94188978009E-03 -4.70838017980E-03 +3.96146478931E-03 -4.84241652991E-03 -2.71474112530E-01 -3.93493787928E-01
4.30500000000E+09 -3.11576919168E-01 -2.93130867546E-01 +3.04369591410E-03 -5.57123654497E-03 +3.09219329308E-03 -5.69890346499E-03 -2.86436894808E-01 -3.74116802259E-01
4.31000000000E+09 -3.24673780756E-01 -2.73352560769E-01 +2.22736348389E-03 -5.41352279141E-03 +2.23965454042E-03 -5.51369639121E-03 -3.01698164669E-01 -3.54511847640E-01
4.31500000000E+09 -3.37791850121E-01 -2.53517147398E-01 +2.05627670436E-03 -5.54420897938E-03 +2.11972584012E-03 -5.61047406965E-03 -3.17441673283E-01 -3.33728685341E-01
4.32000000000E+09 -3.49710861857E-01 -2.33822943710E-01 +1.30953088455E-03 -6.38844021063E-03 +1.24978559390E-03 -6.51328297014E-03 -3.30983962046E-01 -3.11528629140E-01
4.32500000000E+09 -3.60270877538E-01 -2.16058086352E-01 -4.67525916304E-04 -6.02238650229E-03 -5.69109399698E-04 -6.11196820641E-03 -3.43354795740E-01 -2.89929037616E-01
4.33000000000E+09 -3.71072058986E-01 -1.99749484701E-01 +6.33568766997E-05 -4.60606250576E-03 -6.66738425328E-06 -4.67046870661E-03 -3.55273528224E-01 -2.69087091976E-01
4.33500000000E+09 -3.81128226331E-01 -1.82300685604E-01 +5.96863496172E-04 -5.15827517391E-03 +5.83083439020E-04 -5.20821988096E-03 -3.67548446340E-01 -2.45337291896E-01
4.34000000000E+09 -3.89101351345E-01 -1.63795171240E-01 +3.32128381817E-04 -5.95299636810E-03 +2.98179468701E-04 -5.98292857198E-03 -3.77990297201E-01 -2.20657224610E-01
4.34500000000E+09 -3.94681456267E-01 -1.44149970461E-01 -3.12249966195E-04 -7.08043255304E-03 -3.52979240138E-04 -7.09328544007E-03 -3.86435016188E-01 -1.95396831900E-01
4.35000000000E+09 -3.98363341092E-01 -1.23433229474E-01 -2.25378567349E-03 -7.53458088397E-03 -2.29138328460E-03 -7.47916480551E-03 -3.95053940515E-01 -1.71771638791E-01
4.35500000000E+09 -4.01226187045E-01 -1.02116221143E-01 -3.83876878749E-03 -6.48866517071E-03 -3.86483389990E-03 -6.53168050046E-03 -4.03757532800E-01 -1.48747678738E-01
4.36000000000E+09 -4.04600101481E-01 -8.07473730890E-02 -3.84361557125E-03 -5.01022523030E-03 -3.88916652739E-03 -5.01162004293E-03 -4.12231613617E-01 -1.25477223801E-01
4.36500000000E+09 -4.09674759529E-01 -5.76515103410E-02 -3.98698529643E-03 -5.25014938228E-03 -4.11085011238E-03 -5.27269200145E-03 -4.18364014744E-01 -1.00234825433E-01
4.37000000000E+09 -4.15070353203E-01 -3.37208460078E-02 -4.24378170969E-03 -4.81264677480E-03 -4.28779985461E-03 -4.80617854349E-03 -4.21980912736E-01 -7.47639310413E-02
4.37500000000E+09 -4.19966059433E-01 -1.04144513823E-02 -4.69487922886E-03 -5.18174489575E-03 -4.86364491133E-03 -5.15125968970E-03 -4.23194727915E-01 -4.99475833541E-02
4.38000000000E+09 -4.24645526010E-01 +1.14048179342E-02 -5.73651467072E-03 -4.74609695874E-03 -5.93350002502E-03 -4.68663089828E-03 -4.26177590288E-01 -2.67676205510E-02
4.38500000000E+09 -4.28399682738E-01 +3.20782567797E-02 -6.77837931913E-03 -3.85745959238E-03 -6.94602287295E-03 -3.76132176378E-03 -4.29079885853E-01 -1.28163617716E-03
4.39000000000E+09 -4.30878562722E-01 +5.07603456103E-02 -6.76423116812E-03 -3.14506195971E-03 -6.92998618445E-03 -3.04248828546E-03 -4.31049268580E-01 +2.54699056164E-02
4.39500000000E+09 -4.31618281329E-01 +6.80685683763E-02 -7.79882291227E-03 -2.80783281645E-03 -7.91779148636E-03 -2.63244661250E-03 -4.29579332086E-01 +5.10489633339E-02
4.40000000000E+09 -4.31248800754E-01 +8.52685866797E-02 -8.55963540140E-03 -1.19295971244E-03 -8.59896757452E-03 -1.01186939713E-03 -4.27211140364E-01 +7.42977772021E-02
4.40500000000E+09 -4.28947284924E-01 +1.02954529962E-01 -8.54310662349E-03 -1.57438258256E-04 -8.56951126099E-03 +7.01572732493E-05 -4.25234961588E-01 +9.73601736234E-02
4.41000000000E+09 -4.25645754256E-01 +1.21937465311E-01 -8.17909561484E-03 +1.83418207499E-03 -8.13896573450E-03 +1.97709525890E-03 -4.23128860641E-01 +1.20067210763E-01
4.41500000000E+09 -4.22293905675E-01 +1.42917286916E-01 -7.16633068493E-03 +2.37823229741E-03 -7.15177812251E-03 +2.54228630753E-03 -4.19683719647E-01 +1.45608590284E-01
4.42000000000E+09 -4.17313847845E-01 +1.65220917026E-01 -6.76974156999E-03 +2.45503130305E-03 -6.75050665278E-03 +2.63817630419E-03 -4.13178998042E-01 +1.70171922099E-01
4.42500000000E+09 -4.13308541754E-01 +1.87365867970E-01 -6.73285031742E-03 +2.80585573977E-03 -6.62070123500E-03 +3.04449672358E-03 -4.06276748641E-01 +1.91871673173E-01
4.43000000000E+09 -4.10002653103E-01 +2.09684005548E-01 -7.06857195619E-03 +3.44750005863E-03 -6.89119097973E-03 +3.62092023667E-03 -4.02226116078E-01 +2.14064884025E-01
4.43500000000E+09 -4.06857782013E-01 +2.30487858419E-01 -7.03799888941E-03 +5.08292996873E-03 -6.87281502221E-03 +5.12444097887E-03 -3.96236837714E-01 +2.37622186404E-01
4.44000000000E+09 -4.04649735971E-01 +2.48968479996E-01 -5.73766125395E-03 +6.84511640293E-03 -5.56658125412E-03 +6.88213936187E-03 -3.87827394374E-01 +2.60753366214E-01
4.44500000000E+09 -4.02968443139E-01 +2.65782789616E-01 -3.82780017978E-03 +6.43224446265E-03 -3.70848814509E-03 +6.42891105587E-03 -3.77084635219E-01 +2.81632096261E-01
4.45000000000E+09 -4.00594933511E-01 +2.81825998229E-01 -3.32677290415E-03 +6.14339135657E-03 -3.23508675860E-03 +6.17393974804E-03 -3.67109154148E-01 +3.00041272290E-01
4.45500000000E+09 -3.95670970183E-01 +2.96980412339E-01 -3.66598247114E-03 +6.23766027136E-03 -3.48492625493E-03 +6.34613110610E-03 -3.57934037476E-01 +3.18088785870E-01
4.46000000000E+09 -3.88677782863E-01 +3.11487896515E-01 -2.87647229875E-03 +7.42260407014E-03 -2.66902768214E-03 +7.41796518122E-03 -3.49452711927E-01 +3.38759086197E-01
4.46500000000E+09 -3.78894154902E-01 +3.26896600584E-01 -1.72935705968E-03 +7.78638917448E-03 -1.53287460962E-03 +7.77520239663E-03 -3.36264399515E-01 +3.57873096687E-01
4.47000000000E+09 -3.66426653879E-01 +3.41596538817E-01 -2.82860067409E-04 +7.50988388087E-03 -9.94537550283E-05 +7.50442520130E-03 -3.24174110089E-01 +3.75627979874E-01
4.47500000000E+09 -3.54732184262E-01 +3.56741731341E-01 +5.73165569382E-05 +6.57357765581E-03 +2.21171020106E-04 +6.52340285507E-03 -3.11675373267E-01 +3.92163643521E-01
4.48000000000E+09 -3.43689437326E-01 +3.74216777118E-01 -3.54557296507E-04 +7.11345623450E-03 -1.51060166414E-04 +7.03298336328E-03 -3.00672602056E-01 +4.09493644278E-01
4.48500000000E+09 -3.32398293667E-01 +3.93171152706E-01 +8.50287542953E-04 +7.88914586331E-03 +1.04487796852E-03 +7.69085853063E-03 -2.88217132198E-01 +4.26481118210E-01
4.49000000000E+09 -3.22473549432E-01 +4.11204744538E-01 +2.33403139977E-03 +8.09016148304E-03 +2.42186370815E-03 +7.80233612334E-03 -2.74957152856E-01 +4.43068580551E-01
4.49500000000E+09 -3.13912494930E-01 +4.29100067183E-01 +3.58767018407E-03 +7.04765577161E-03 +3.60041533755E-03 +6.87755082456E-03 -2.60236490849E-01 +4.57033168449E-01
4.50000000000E+09 -3.05573768954E-01 +4.44863160574E-01 +4.18453439333E-03 +6.27209660293E-03 +4.19035722058E-03 +6.15742177964E-03 -2.46754310532E-01 +4.70592225894E-01
4.50500000000E+09 -2.98423016091E-01 +4.58303255898E-01 +4.75187896511E-03 +5.54525949363E-03 +4.65765047056E-03 +5.38204093182E-03 -2.33060984690E-01 +4.83068650523E-01
4.51000000000E+09 -2.91036495881E-01 +4.69555465749E-01 +4.86915281841E-03 +5.01018029858E-03 +4.84779970008E-03 +4.88639703643E-03 -2.20585243087E-01 +4.97500334123E-01
4.51500000000E+09 -2.82319195827E-01 +4.78729194823E-01 +5.34976492618E-03 +4.93419133589E-03 +5.29653891106E-03 +4.77231307964E-03 -2.05967636722E-01 +5.10955884934E-01
4.52000000000E+09 -2.72737882094E-01 +4.86650571490E-01 +6.28034272713E-03 +4.22486693592E-03 +6.25385736419E-03 +4.03730497574E-03 -1.91516819496E-01 +5.23249079298E-01
4.52500000000E+09 -2.61536423788E-01 +4.95439696204E-01 +6.42396533194E-03 +2.66461316837E-03 +6.23491935398E-03 +2.54603116357E-03 -1.77203518335E-01 +5.33458328035E-01
4.53000000000E+09 -2.47692947184E-01 +5.05325680319E-01 +6.24705840680E-03 +2.64399859410E-03 +6.17240769761E-03 +2.42473059394E-03 -1.63589983956E-01 +5.44314389784E-01
4.53500000000E+09 -2.31315137550E-01 +5.15841945915E-01 +6.53051565885E-03 +2.04474255125E-03 +6.45081481853E-03 +1.82695324752E-03 -1.48574340463E-01 +5.54816936389E-01
4.54000000000E+09 -2.14132122562E-01 +5.26406503271E-01 +6.81495699771E-03 +1.49495103781E-03 +6.67179926122E-03 +1.27076651227E-03 -1.32538934406E-01 +5.66223835533E-01
4.54500000000E+09 -1.97460839541E-01 +5.37109377068E-01 +7.32400745730E-03 +5.07538336125E-04 +7.12997021347E-03 +3.65901626370E-04 -1.15418481022E-01 +5.74743586380E-01
4.55000000000E+09 -1.82822642920E-01 +5.47604006964E-01 +7.29107701577E-03 -8.13642664523E-04 +7.08284103569E-03 -9.19252861914E-04 -9.95193616930E-02 +5.83008866213E-01
4.55500000000E+09 -1.70729995371E-01 +5.58143541254E-01 +6.59014900905E-03 -2.50935771205E-03 +6.38382109587E-03 -2.56131904006E-03 -8.50966077046E-02 +5.90238283528E-01
4.56000000000E+09 -1.60310104428E-01 +5.69371175319E-01 +4.90525791113E-03 -2.54163505071E-03 +4.72497017267E-03 -2.55220383405E-03 -7.15515971094E-02 +5.99444894488E-01
4.56500000000E+09 -1.49924277811E-01 +5.79905436294E-01 +4.60668395813E-03 -2.18780722751E-03 +4.42872609981E-03 -2.21430090603E-03 -5.60375938132E-02 +6.07605194186E-01
4.57000000000E+09 -1.39274065943E-01 +5.88925600784E-01 +4.68326027925E-03 -1.87905307956E-03 +4.48261176683E-03 -1.89867993412E-03 -4.02605107152E-02 +6.14103929351E-01
