# Hz S RI R 50
! CMT, C1220, 16058040, 17.2.0/1
! Date: 15/08/2018 12:03:50
! Data: Format (Calibration Info)
! Freq                      S11: Re/Im (F2)                       S21: Re/Im (F2)                       S12: Re/Im (F2)                       S22: Re/Im (F2)            
4.00000000000E+09 +6.64824390900E-01 -3.41070119829E-01 +1.96389681691E-03 -4.68628449464E-04 +2.01803703803E-03 -4.35872670887E-04 +7.76233565975E-01 -3.40353861508E-01
4.00500000000E+09 +6.56950220108E-01 -3.47148282368E-01 +1.74096918811E-03 -5.59229048045E-04 +1.86737229464E-03 -4.59882871137E-04 +7.67731419622E-01 -3.51952703881E-01
4.01000000000E+09 +6.48056659391E-01 -3.53327261400E-01 +1.70917814672E-03 -6.21748444812E-04 +1.76136817777E-03 -5.73634155932E-04 +7.58236297785E-01 -3.63075896272E-01
4.01500000000E+09 +6.37574515249E-01 -3.60114765976E-01 +1.83634310664E-03 -6.29079898741E-04 +1.88575844978E-03 -5.31772239463E-04 +7.48661820786E-01 -3.73564273210E-01
4.02000000000E+09 +6.26738963646E-01 -3.67188866466E-01 +2.01595067754E-03 -9.21220858606E-04 +2.16180448322E-03 -8.46902065873E-04 +7.38992186878E-01 -3.83948319492E-01
4.02500000000E+09 +6.15807929699E-01 -3.75964084453E-01 +1.96450712783E-03 -1.38432780862E-03 +2.11520540467E-03 -1.33993837492E-03 +7.28780757918E-01 -3.94188090655E-01
4.03000000000E+09 +6.03928307229E-01 -3.86355053287E-01 +1.51012039264E-03 -1.81989722225E-03 +1.61252365962E-03 -1.86775077803E-03 +7.18482562046E-01 -4.04189836315E-01
4.03500000000E+09 +5.92495670470E-01 -3.96475687600E-01 +1.07868018160E-03 -1.53852214737E-03 +1.11010089519E-03 -1.56422135997E-03 +7.07791931707E-01 -4.14736497336E-01
4.04000000000E+09 +5.81401816077E-01 -4.07432683866E-01 +1.07096218840E-03 -1.40846277390E-03 +1.14894259373E-03 -1.37687323848E-03 +6.96969370090E-01 -4.25367806254E-01
4.04500000000E+09 +5.70091171311E-01 -4.17854540590E-01 +1.09761770306E-03 -1.29378350000E-03 +1.18060865377E-03 -1.28178000522E-03 +6.85701289127E-01 -4.36195236236E-01
4.05000000000E+09 +5.58936542454E-01 -4.26702468732E-01 +1.43583270509E-03 -1.54002281955E-03 +1.52005247341E-03 -1.48720669075E-03 +6.74311981142E-01 -4.46032998971E-01
4.05500000000E+09 +5.47289174150E-01 -4.33752292035E-01 +1.33261794547E-03 -1.93960811859E-03 +1.44905348812E-03 -2.01375091121E-03 +6.63008240003E-01 -4.55756341746E-01
4.06000000000E+09 +5.35162843834E-01 -4.39248448969E-01 +1.06336141543E-03 -2.22338052620E-03 +1.08489038831E-03 -2.24401163967E-03 +6.50738271841E-01 -4.65854814519E-01
4.06500000000E+09 +5.22681392037E-01 -4.43352491819E-01 +6.38649644370E-04 -2.10642854798E-03 +7.07838414078E-04 -2.20847880831E-03 +6.37676257292E-01 -4.74933438091E-01
4.07000000000E+09 +5.09524178682E-01 -4.47532683217E-01 +7.44364220626E-04 -2.28524313338E-03 +8.08936057692E-04 -2.34629322241E-03 +6.23991657971E-01 -4.84789821827E-01
4.07500000000E+09 +4.95090128226E-01 -4.52433640262E-01 +4.37360022599E-04 -2.56986328305E-03 +5.46295335667E-04 -2.60590225938E-03 +6.10264160462E-01 -4.93973135948E-01
4.08000000000E+09 +4.79547791375E-01 -4.57783977186E-01 +1.59269951280E-04 -2.64510554381E-03 +2.74509347753E-04 -2.70117109140E-03 +5.96969433126E-01 -5.03164346664E-01
4.08500000000E+09 +4.63091748169E-01 -4.64058256272E-01 -2.38599355610E-04 -2.70652312697E-03 -1.41876945483E-04 -2.77865338403E-03 +5.83126975101E-01 -5.12822729105E-01
4.09000000000E+09 +4.46762996691E-01 -4.70591627293E-01 -4.43227300439E-04 -2.61886215668E-03 -3.38382546331E-04 -2.67887951343E-03 +5.68901007600E-01 -5.20935430538E-01
4.09500000000E+09 +4.30729738322E-01 -4.77408820583E-01 -5.61898725627E-04 -2.58681113600E-03 -5.19371514142E-04 -2.64776683849E-03 +5.54666963464E-01 -5.29417034108E-01
4.10000000000E+09 +4.14496171290E-01 -4.84057391133E-01 -6.74450733411E-04 -2.70390508342E-03 -6.28325983127E-04 -2.77884556580E-03 +5.38835627281E-01 -5.37896616450E-01
4.10500000000E+09 +3.98783438298E-01 -4.89255362739E-01 -9.76967228682E-04 -2.89449824875E-03 -9.21443496407E-04 -2.98859509827E-03 +5.22116642512E-01 -5.45481413041E-01
4.11000000000E+09 +3.83102433748E-01 -4.92832032202E-01 -1.55873415088E-03 -2.99294392464E-03 -1.48351471683E-03 -3.05469948175E-03 +5.05102592504E-01 -5.53128894269E-01
4.11500000000E+09 +3.67866827195E-01 -4.94402860915E-01 -2.22707681706E-03 -2.60521983658E-03 -2.17989930823E-03 -2.74801997111E-03 +4.87923792514E-01 -5.60283035383E-01
4.12000000000E+09 +3.52768844082E-01 -4.94853990252E-01 -2.20855544115E-03 -2.13645658541E-03 -2.24919195631E-03 -2.25414239229E-03 +4.70746230547E-01 -5.66766017667E-01
4.12500000000E+09 +3.37512010526E-01 -4.95788768028E-01 -2.40875439798E-03 -2.04362339444E-03 -2.41904001802E-03 -2.18145009940E-03 +4.53539982481E-01 -5.72885979142E-01
4.13000000000E+09 +3.19546880464E-01 -4.97326821130E-01 -2.63136750339E-03 -1.94344735121E-03 -2.61882065925E-03 -2.14239107598E-03 +4.36667170260E-01 -5.78383549756E-01
4.13500000000E+09 +3.00818390420E-01 -4.98216787047E-01 -2.90260153429E-03 -1.67371056117E-03 -2.94682086371E-03 -1.84915322529E-03 +4.18391887289E-01 -5.84349165873E-01
4.14000000000E+09 +2.81903319617E-01 -5.00447333816E-01 -3.12935161314E-03 -1.31742595058E-03 -3.30739645316E-03 -1.46885669211E-03 +3.99371634112E-01 -5.89476012561E-01
4.14500000000E+09 +2.62548501744E-01 -5.03523238293E-01 -3.25710545787E-03 -7.53817025360E-04 -3.37737502380E-03 -8.88534996116E-04 +3.80341756216E-01 -5.94717861343E-01
4.15000000000E+09 +2.43432641805E-01 -5.07866630183E-01 -2.95382545306E-03 -6.19997994740E-04 -3.09008519422E-03 -7.08061903710E-04 +3.60326805452E-01 -5.99701571825E-01
4.15500000000E+09 +2.24149887418E-01 -5.11968706028E-01 -3.09087355745E-03 -8.79990953206E-04 -3.22241057094E-03 -9.08736093433E-04 +3.41124532653E-01 -6.02895635979E-01
4.16000000000E+09 +2.05288770227E-01 -5.14907478504E-01 -3.73984085894E-03 -6.17253872236E-04 -3.88137700267E-03 -6.35884423422E-04 +3.21897315334E-01 -6.06149169935E-01
4.16500000000E+09 +1.87979199585E-01 -5.15249458451E-01 -3.99037073069E-03 +2.05286792671E-04 -4.03847745285E-03 +1.53862522934E-04 +3.01143871470E-01 -6.08275628448E-01
4.17000000000E+09 +1.71675585695E-01 -5.14295186853E-01 -3.80598294320E-03 +5.61725738875E-04 -3.88074105720E-03 +5.69744617399E-04 +2.81175512337E-01 -6.08839034938E-01
4.17500000000E+09 +1.55452528809E-01 -5.10635739361E-01 -3.89541190158E-03 +1.47398955731E-03 -4.01717814221E-03 +1.49106601911E-03 +2.60491743241E-01 -6.09801466245E-01
4.18000000000E+09 +1.40119692899E-01 -5.06244406234E-01 -2.77817741271E-03 +1.65239819686E-03 -2.86782716509E-03 +1.68994924949E-03 +2.39741961434E-01 -6.10772645682E-01
4.18500000000E+09 +1.23472592153E-01 -5.01586545362E-01 -2.92865524197E-03 +9.94293438303E-04 -3.03120967178E-03 +1.05157012627E-03 +2.17562573054E-01 -6.11952303386E-01
4.19000000000E+09 +1.05117041976E-01 -4.96497621336E-01 -3.34589081929E-03 +1.28878067766E-03 -3.46465970615E-03 +1.28744041306E-03 +1.94749386416E-01 -6.10668690643E-01
4.19500000000E+09 +8.61480670020E-02 -4.90580819792E-01 -3.62742745444E-03 +1.87723068212E-03 -3.76764192822E-03 +1.91510245079E-03 +1.73244307608E-01 -6.08246216690E-01
4.20000000000E+09 +6.69677445707E-02 -4.86524265549E-01 -3.54717415233E-03 +2.45764176375E-03 -3.69782754301E-03 +2.50729758194E-03 +1.51670808779E-01 -6.05651041767E-01
4.20500000000E+09 +4.71188833300E-02 -4.83033058738E-01 -3.30825426497E-03 +3.22738971259E-03 -3.40999772858E-03 +3.28377053284E-03 +1.29521466722E-01 -6.02443656452E-01
4.21000000000E+09 +2.81606532414E-02 -4.79330068383E-01 -2.70082323979E-03 +3.24500066193E-03 -2.79879572968E-03 +3.31194722585E-03 +1.07229883577E-01 -5.98696141510E-01
4.21500000000E+09 +9.45126912669E-03 -4.75862309344E-01 -2.72849023284E-03 +3.61161689397E-03 -2.84184098679E-03 +3.67615858976E-03 +8.43069832793E-02 -5.94142182049E-01
4.22000000000E+09 -7.98852725941E-03 -4.70769418972E-01 -2.54619510097E-03 +4.26960339249E-03 -2.64094360853E-03 +4.33417291983E-03 +6.27208047016E-02 -5.88669715427E-01
4.22500000000E+09 -2.37750255946E-02 -4.63282136811E-01 -1.70669691824E-03 +4.91758454617E-03 -1.78809117752E-03 +4.97607714008E-03 +4.13157457515E-02 -5.83338140973E-01
4.23000000000E+09 -3.77370581953E-02 -4.55469846242E-01 -9.72780932642E-04 +4.57537598131E-03 -1.06243037587E-03 +4.68968842151E-03 +1.96345930367E-02 -5.77078998407E-01
4.23500000000E+09 -5.30860509993E-02 -4.45963630883E-01 -7.14183171528E-04 +4.65439636391E-03 -7.82867896685E-04 +4.76075997980E-03 -1.79888994578E-03 -5.69405648734E-01
4.24000000000E+09 -6.96207559850E-02 -4.34778216287E-01 -7.52208993180E-04 +4.93088139464E-03 -8.34049056623E-04 +5.03166084632E-03 -2.41703796072E-02 -5.61120177460E-01
4.24500000000E+09 -8.70256349275E-02 -4.21966717428E-01 -6.89294110095E-05 +5.46566084097E-03 -1.09160189399E-04 +5.57014162533E-03 -4.62369642836E-02 -5.51112985906E-01
4.25000000000E+09 -1.05719977853E-01 -4.09448998043E-01 +7.27799800376E-04 +5.59788756553E-03 +7.67883942790E-04 +5.74762081887E-03 -6.76870490759E-02 -5.41464684169E-01
4.25500000000E+09 -1.25074963787E-01 -3.96653869242E-01 +1.56173222584E-03 +5.52642586375E-03 +1.53438215669E-03 +5.65599011230E-03 -9.04539032823E-02 -5.30258012865E-01
4.26000000000E+09 -1.44627202275E-01 -3.86395353624E-01 +2.04511424216E-03 +5.39011866796E-03 +2.05399359803E-03 +5.52245933841E-03 -1.11134591214E-01 -5.17075220550E-01
4.26500000000E+09 -1.65941665980E-01 -3.76422773629E-01 +2.84272105883E-03 +5.32851289348E-03 +2.94427422066E-03 +5.47193022374E-03 -1.31707578081E-01 -5.04377313704E-01
4.27000000000E+09 -1.85449808653E-01 -3.65346721447E-01 +3.64779970614E-03 +4.82094169262E-03 +3.80815723176E-03 +4.90310402521E-03 -1.52627776592E-01 -4.89307278631E-01
4.27500000000E+09 -2.02010960902E-01 -3.54178349688E-01 +4.21582459339E-03 +4.35378869662E-03 +4.33164110567E-03 +4.42314999116E-03 -1.72344826588E-01 -4.74169472602E-01
4.28000000000E+09 -2.16045739287E-01 -3.42702424904E-01 +4.82258942812E-03 +3.55096410143E-03 +4.91776939740E-03 +3.63219560576E-03 -1.92482768057E-01 -4.58426691249E-01
4.28500000000E+09 -2.28918659282E-01 -3.29787009169E-01 +4.75202631411E-03 +2.69527351962E-03 +4.85334731068E-03 +2.74426375531E-03 -2.12468338437E-01 -4.42423764605E-01
4.29000000000E+09 -2.38947650632E-01 -3.14912426674E-01 +4.59916702089E-03 +2.51628020233E-03 +4.70170212858E-03 +2.55200198062E-03 -2.30969693658E-01 -4.25443602567E-01
4.29500000000E+09 -2.50001237188E-01 -2.99284692813E-01 +4.53990643719E-03 +2.83689375025E-03 +4.69704590497E-03 +2.82262405332E-03 -2.50159666805E-01 -4.07724967196E-01
4.30000000000E+09 -2.61905308069E-01 -2.81127248222E-01 +5.75007010110E-03 +2.46391012523E-03 +5.81312614697E-03 +2.50471792437E-03 -2.66666465855E-01 -3.87800274348E-01
4.30500000000E+09 -2.74343995124E-01 -2.61009106555E-01 +6.22418599336E-03 +1.71108989894E-03 +6.39926205867E-03 +1.69431286622E-03 -2.81492406227E-01 -3.68120190447E-01
4.31000000000E+09 -2.87555370786E-01 -2.41200341358E-01 +6.97742417818E-03 +6.82874222059E-04 +7.14358849033E-03 +6.14668519052E-04 -2.96616350458E-01 -3.48489720207E-01
4.31500000000E+09 -3.02152234297E-01 -2.21024728585E-01 +6.65930110664E-03 -6.82116631954E-04 +6.78739824734E-03 -7.50087660401E-04 -3.11546887479E-01 -3.27467958069E-01
4.32000000000E+09 -3.15865710133E-01 -2.02498778731E-01 +5.99092113379E-03 -1.50004784563E-03 +6.07728782939E-03 -1.56060997890E-03 -3.24582553518E-01 -3.05570773319E-01
4.32500000000E+09 -3.30012946154E-01 -1.85385292750E-01 +5.29632300888E-03 -1.55006022859E-03 +5.38022745082E-03 -1.63768805166E-03 -3.36995254427E-01 -2.84633069278E-01
4.33000000000E+09 -3.41625933506E-01 -1.68165511701E-01 +5.84575320451E-03 -1.33513582018E-03 +5.91927857089E-03 -1.45898465010E-03 -3.49361549171E-01 -2.62998952995E-01
4.33500000000E+09 -3.49874351253E-01 -1.52037004268E-01 +6.16675082652E-03 -2.17136314412E-03 +6.16066467977E-03 -2.26873839195E-03 -3.61550245810E-01 -2.39776948975E-01
4.34000000000E+09 -3.56214732757E-01 -1.36781660457E-01 +6.36090263098E-03 -3.15841007369E-03 +6.33379302252E-03 -3.23835164358E-03 -3.72441153720E-01 -2.16219231587E-01
4.34500000000E+09 -3.61047737842E-01 -1.20299420415E-01 +5.93282545354E-03 -4.41958413955E-03 +5.89371791445E-03 -4.49800114061E-03 -3.82775189529E-01 -1.90399740371E-01
4.35000000000E+09 -3.63899846897E-01 -1.01890885895E-01 +4.98661448778E-03 -5.26014726736E-03 +4.92488338372E-03 -5.27487514341E-03 -3.90298921136E-01 -1.65742730586E-01
4.35500000000E+09 -3.66929457839E-01 -8.16760677331E-02 +4.53791838479E-03 -5.78082341569E-03 +4.53136072635E-03 -5.80545810821E-03 -3.98306304445E-01 -1.42472593379E-01
4.36000000000E+09 -3.70192766045E-01 -5.87199657616E-02 +3.63153488544E-03 -6.46519330419E-03 +3.56858954340E-03 -6.57650217270E-03 -4.05306496739E-01 -1.18440506808E-01
4.36500000000E+09 -3.73273030076E-01 -3.49238241454E-02 +2.55677126953E-03 -6.66216135291E-03 +2.52243476877E-03 -6.81349719211E-03 -4.11183560095E-01 -9.43759282136E-02
4.37000000000E+09 -3.78267045857E-01 -1.17714616469E-02 +1.73696328862E-03 -6.64843287271E-03 +1.67804671771E-03 -6.74572673851E-03 -4.15105180581E-01 -6.95760995092E-02
4.37500000000E+09 -3.83983225997E-01 +1.13296950687E-02 +1.00404496042E-03 -6.06526281868E-03 +9.13252778973E-04 -6.18421971941E-03 -4.17964294605E-01 -4.42788577616E-02
4.38000000000E+09 -3.90260945358E-01 +3.22318906497E-02 +1.12685053123E-03 -6.51763704156E-03 +1.00969402734E-03 -6.63057886386E-03 -4.19669195975E-01 -1.97327769002E-02
4.38500000000E+09 -3.96074250412E-01 +5.13013876248E-02 +6.89410891602E-04 -6.75807729727E-03 +5.62146255829E-04 -6.86888486615E-03 -4.21656824406E-01 +5.17793748938E-03
4.39000000000E+09 -4.00147353500E-01 +6.82509513632E-02 -3.50387967620E-04 -7.63660643172E-03 -5.33886260080E-04 -7.64720953598E-03 -4.22573081866E-01 +3.07792641597E-02
4.39500000000E+09 -4.02323921986E-01 +8.36657612913E-02 -1.79023020428E-03 -7.34565826693E-03 -1.98575869580E-03 -7.35255282552E-03 -4.22211834289E-01 +5.51929280785E-02
4.40000000000E+09 -4.01812859338E-01 +9.86316248729E-02 -2.50132560249E-03 -7.01847677057E-03 -2.70164413371E-03 -6.97733791889E-03 -4.20468341819E-01 +7.98673895644E-02
4.40500000000E+09 -3.99356338538E-01 +1.14631417659E-01 -3.84970709308E-03 -6.30840738346E-03 -3.97513393480E-03 -6.25259150104E-03 -4.17096992136E-01 +1.03557634843E-01
4.41000000000E+09 -3.94003865094E-01 +1.31583419914E-01 -3.72434062191E-03 -5.62315817901E-03 -3.78602567495E-03 -5.50821152399E-03 -4.13185199839E-01 +1.26149620386E-01
4.41500000000E+09 -3.88815865094E-01 +1.50475252398E-01 -4.46245393354E-03 -5.30163483937E-03 -4.56545552082E-03 -5.20832236653E-03 -4.08848311788E-01 +1.50060908273E-01
4.42000000000E+09 -3.83628863949E-01 +1.71750390870E-01 -4.88926218228E-03 -4.79951727495E-03 -5.04724367444E-03 -4.64546222769E-03 -4.03301395988E-01 +1.72478094768E-01
4.42500000000E+09 -3.78775339430E-01 +1.94432196348E-01 -5.23850655279E-03 -4.48849840952E-03 -5.31014494422E-03 -4.34193434907E-03 -3.97489596722E-01 +1.95053417196E-01
4.43000000000E+09 -3.74727055324E-01 +2.17165365711E-01 -5.73303110089E-03 -3.87616486832E-03 -5.71906173946E-03 -3.75652156894E-03 -3.92085507246E-01 +2.16560788446E-01
4.43500000000E+09 -3.72279786556E-01 +2.38652903830E-01 -6.56544355073E-03 -3.49477424800E-03 -6.52496702915E-03 -3.37153921164E-03 -3.86225343031E-01 +2.38510861348E-01
4.44000000000E+09 -3.70058928445E-01 +2.58497323658E-01 -6.88160614943E-03 -2.38860938488E-03 -6.82945225606E-03 -2.40000708421E-03 -3.78219497776E-01 +2.61696464576E-01
4.44500000000E+09 -3.68334381571E-01 +2.75362231923E-01 -6.94712828758E-03 -1.65979994753E-03 -6.89010450063E-03 -1.56810144745E-03 -3.68569687543E-01 +2.81518040105E-01
4.45000000000E+09 -3.66005686235E-01 +2.90079621796E-01 -7.40875710114E-03 -7.92374184659E-04 -7.38200075331E-03 -6.74644980519E-04 -3.59194293458E-01 +3.01267022524E-01
4.45500000000E+09 -3.62123092176E-01 +3.03183023939E-01 -7.20598314405E-03 +5.37733831086E-04 -7.14381797285E-03 +6.22130080309E-04 -3.48211580287E-01 +3.20081711312E-01
4.46000000000E+09 -3.56546877734E-01 +3.16072375316E-01 -6.51693522999E-03 +1.39276728414E-03 -6.48762196027E-03 +1.46290833043E-03 -3.39412091326E-01 +3.37756457487E-01
4.46500000000E+09 -3.47555504230E-01 +3.29959288045E-01 -5.93566991738E-03 +1.59471732917E-03 -5.91062783399E-03 +1.69348164462E-03 -3.27633566003E-01 +3.56866096960E-01
4.47000000000E+09 -3.36032061424E-01 +3.44708477702E-01 -5.69733148055E-03 +1.56056592280E-03 -5.68703048852E-03 +1.66792548796E-03 -3.16047116330E-01 +3.74274668319E-01
4.47500000000E+09 -3.23130182511E-01 +3.60651208859E-01 -6.60787445447E-03 +2.27050832272E-03 -6.50137989063E-03 +2.41978756415E-03 -3.04278330468E-01 +3.90835875427E-01
4.48000000000E+09 -3.10173804991E-01 +3.77942777297E-01 -5.96096150934E-03 +3.45090843738E-03 -5.80614058926E-03 +3.53637721613E-03 -2.92377766576E-01 +4.07663616387E-01
4.48500000000E+09 -2.97697522468E-01 +3.95979681469E-01 -5.26661817134E-03 +4.29222318123E-03 -5.13479123457E-03 +4.34550087552E-03 -2.79959011296E-01 +4.23744159803E-01
4.49000000000E+09 -2.87594608532E-01 +4.13331547822E-01 -4.58610017652E-03 +4.69318406814E-03 -4.44161978492E-03 +4.73451535602E-03 -2.66471515462E-01 +4.39453297953E-01
4.49500000000E+09 -2.79268657677E-01 +4.31694346019E-01 -3.67039293753E-03 +4.85607676910E-03 -3.54723690471E-03 +4.80545874540E-03 -2.52955910477E-01 +4.53086284146E-01
4.50000000000E+09 -2.71858710683E-01 +4.47081793789E-01 -3.33919402195E-03 +4.95056902225E-03 -3.22997156005E-03 +4.88601816470E-03 -2.40054999115E-01 +4.66732661722E-01
4.50500000000E+09 -2.65692383715E-01 +4.60704475831E-01 -2.75317652412E-03 +5.08144392994E-03 -2.66393612245E-03 +5.06100552340E-03 -2.26423003597E-01 +4.79485865503E-01
4.51000000000E+09 -2.58740209637E-01 +4.71932303348E-01 -2.39625262541E-03 +5.08597763109E-03 -2.34341884334E-03 +5.04229449533E-03 -2.13482063096E-01 +4.91993912627E-01
4.51500000000E+09 -2.50327710789E-01 +4.80759212450E-01 -2.06218293719E-03 +5.53235940642E-03 -1.93563022986E-03 +5.47353299424E-03 -1.99947517277E-01 +5.04226881802E-01
4.52000000000E+09 -2.40806433539E-01 +4.88118188042E-01 -1.59044637821E-03 +5.50833990662E-03 -1.48859991383E-03 +5.44483720695E-03 -1.86309846069E-01 +5.15958961658E-01
4.52500000000E+09 -2.29253512497E-01 +4.96196871419E-01 -1.14143405332E-03 +5.57189902045E-03 -9.60774170479E-04 +5.51775811792E-03 -1.73198429275E-01 +5.26405959922E-01
4.53000000000E+09 -2.15142931538E-01 +5.04415505293E-01 -8.58243609386E-04 +6.09165562935E-03 -6.18231663302E-04 +5.98392365326E-03 -1.59626247225E-01 +5.37385301663E-01
4.53500000000E+09 -1.99807817263E-01 +5.14146409047E-01 +1.45451539970E-04 +6.06066666159E-03 +3.49546451672E-04 +5.91042420134E-03 -1.44850438601E-01 +5.47621343980E-01
4.54000000000E+09 -1.83981468390E-01 +5.24923423430E-01 +8.80411592175E-04 +6.06537351399E-03 +1.05984581305E-03 +5.86204697621E-03 -1.30160711672E-01 +5.57554901935E-01
4.54500000000E+09 -1.68402754450E-01 +5.36024083799E-01 +1.28023292272E-03 +5.83620444405E-03 +1.39466971936E-03 +5.63124086106E-03 -1.15041019136E-01 +5.66750958568E-01
4.55000000000E+09 -1.55111310226E-01 +5.46689656391E-01 +2.32877509675E-03 +5.64480756752E-03 +2.36276276263E-03 +5.43861299005E-03 -1.00154792555E-01 +5.75660679942E-01
4.55500000000E+09 -1.43987213507E-01 +5.57705630961E-01 +2.67221298698E-03 +5.01751753791E-03 +2.69166858718E-03 +4.84386158076E-03 -8.61528448545E-02 +5.83885563233E-01
4.56000000000E+09 -1.34305368193E-01 +5.67647750042E-01 +2.84910900140E-03 +4.74460748307E-03 +2.83545945930E-03 +4.51285169826E-03 -7.17423294445E-02 +5.92722828667E-01
4.56500000000E+09 -1.25671051995E-01 +5.75586221971E-01 +3.41553493046E-03 +4.55887938849E-03 +3.38815569534E-03 +4.34971346380E-03 -5.71953105269E-02 +6.00123178693E-01
4.57000000000E+09 -1.16870095168E-01 +5.82463311756E-01 +3.54633425799E-03 +4.20558492983E-03 +3.49784045642E-03 +3.98080367025E-03 -4.24521678363E-02 +6.07505544673E-01
