# Hz S RI R 50
! CMT, C1220, 16058040, 17.2.0/1
! Date: 15/08/2018 11:37:24
! Data: Format (Calibration Info)
! Freq                      S11: Re/Im (F2)                       S21: Re/Im (F2)                       S12: Re/Im (F2)                       S22: Re/Im (F2)            
4.00000000000E+09 +6.68967603571E-01 -3.55041740541E-01 +6.43154305135E-04 -2.84507642140E-03 +7.38427809933E-04 -2.86372232915E-03 +7.75519276858E-01 -3.52815503154E-01
4.00500000000E+09 +6.60924009850E-01 -3.63025732605E-01 +2.57013512700E-04 -3.07667140281E-03 +3.47512108551E-04 -3.14887851352E-03 +7.67185468763E-01 -3.64082084800E-01
4.01000000000E+09 +6.52305521486E-01 -3.70327789718E-01 -3.18470913341E-04 -3.13835151362E-03 -1.79082707908E-04 -3.18172630427E-03 +7.58372889845E-01 -3.75579680786E-01
4.01500000000E+09 +6.43422540172E-01 -3.77923706043E-01 -7.89426887327E-04 -2.96946709122E-03 -6.71853114060E-04 -3.00707815379E-03 +7.48498010259E-01 -3.86319127648E-01
4.02000000000E+09 +6.33348752511E-01 -3.86801312808E-01 -8.71177053311E-04 -2.72875531980E-03 -7.71742653036E-04 -2.78884576374E-03 +7.38559829998E-01 -3.96702875354E-01
4.02500000000E+09 +6.22222187632E-01 -3.96183851648E-01 -1.01523907543E-03 -2.72559134394E-03 -9.15033422034E-04 -2.90045876655E-03 +7.28433885291E-01 -4.06601717697E-01
4.03000000000E+09 +6.10282523178E-01 -4.05901285632E-01 -1.38938276968E-03 -2.79802589163E-03 -1.27380779937E-03 -3.00083275222E-03 +7.18252972523E-01 -4.17339657435E-01
4.03500000000E+09 +5.98303046044E-01 -4.15464762017E-01 -1.86138373676E-03 -2.55933512323E-03 -1.82384530238E-03 -2.73020034543E-03 +7.07153531141E-01 -4.28523861547E-01
4.04000000000E+09 +5.86657845667E-01 -4.25101431039E-01 -1.89686989031E-03 -2.19819233654E-03 -1.86820113029E-03 -2.34659501890E-03 +6.95871221177E-01 -4.39696127443E-01
4.04500000000E+09 +5.75163677150E-01 -4.34382346852E-01 -2.09972296296E-03 -2.17176844155E-03 -2.05494384943E-03 -2.35450137909E-03 +6.84002927487E-01 -4.50458382171E-01
4.05000000000E+09 +5.63932318374E-01 -4.43215338824E-01 -2.28166899446E-03 -2.12484509975E-03 -2.34201800602E-03 -2.28730189863E-03 +6.72240103555E-01 -4.60168919066E-01
4.05500000000E+09 +5.52114503282E-01 -4.51592847538E-01 -2.47614599751E-03 -2.02199198709E-03 -2.52092954926E-03 -2.23618658086E-03 +6.59959068472E-01 -4.69835754156E-01
4.06000000000E+09 +5.39035576496E-01 -4.59391877230E-01 -3.07690410829E-03 -1.91880647979E-03 -3.16656178823E-03 -2.09599342316E-03 +6.47527953980E-01 -4.79138100080E-01
4.06500000000E+09 +5.25258621862E-01 -4.65529179311E-01 -3.44320277908E-03 -1.04100219073E-03 -3.54455655919E-03 -1.18580082067E-03 +6.34424506984E-01 -4.88186960058E-01
4.07000000000E+09 +5.11467424268E-01 -4.72024784781E-01 -3.00897853599E-03 -7.80019819858E-04 -3.12720075023E-03 -8.23128225848E-04 +6.20878717427E-01 -4.97817740967E-01
4.07500000000E+09 +4.96098883376E-01 -4.79169384797E-01 -3.15818970718E-03 -8.05122275695E-04 -3.20891884355E-03 -8.62446189012E-04 +6.07118183242E-01 -5.07080781352E-01
4.08000000000E+09 +4.80098665380E-01 -4.85648831837E-01 -3.30680642352E-03 -4.87826084459E-04 -3.36666770198E-03 -6.30206409877E-04 +5.93693255003E-01 -5.16707193937E-01
4.08500000000E+09 +4.63854606343E-01 -4.92803439665E-01 -3.43466084134E-03 -2.46436133588E-04 -3.51055354767E-03 -3.50751885371E-04 +5.79589711946E-01 -5.26362788566E-01
4.09000000000E+09 +4.47651071490E-01 -5.00491298959E-01 -3.69682477293E-03 +2.14237770256E-04 -3.87338914768E-03 +1.27610509491E-04 +5.64958692546E-01 -5.34895946872E-01
4.09500000000E+09 +4.31098740801E-01 -5.07389536936E-01 -3.67446117029E-03 +8.31179050846E-04 -3.80276374773E-03 +8.75545017358E-04 +5.49739856312E-01 -5.42497433207E-01
4.10000000000E+09 +4.15682651676E-01 -5.14391735771E-01 -2.94451117886E-03 +1.06648102408E-03 -2.98615195928E-03 +1.01386410852E-03 +5.34071875996E-01 -5.49672684978E-01
4.10500000000E+09 +3.99056662933E-01 -5.20942293076E-01 -3.20949629675E-03 +8.48145403567E-04 -3.26303225941E-03 +8.84132742106E-04 +5.17999872323E-01 -5.56918543987E-01
4.11000000000E+09 +3.82297741483E-01 -5.24864887695E-01 -3.52505124042E-03 +1.42356196586E-03 -3.60513631777E-03 +1.42171842882E-03 +5.01028835598E-01 -5.64923239542E-01
4.11500000000E+09 +3.66604477337E-01 -5.27541836138E-01 -3.29931843912E-03 +2.04002379575E-03 -3.40029525848E-03 +2.06231541714E-03 +4.83204359555E-01 -5.72440249369E-01
4.12000000000E+09 +3.50259976613E-01 -5.29995115225E-01 -2.92207929414E-03 +2.47615291077E-03 -3.06054004261E-03 +2.51894449051E-03 +4.65844750797E-01 -5.78950735288E-01
4.12500000000E+09 +3.33442561032E-01 -5.31782662569E-01 -2.60743473029E-03 +2.77829940684E-03 -2.76022388035E-03 +2.82079548017E-03 +4.48866384289E-01 -5.84772911614E-01
4.13000000000E+09 +3.16090869798E-01 -5.34619249007E-01 -1.93192372993E-03 +2.80808693759E-03 -2.02862873612E-03 +2.84069531888E-03 +4.31725714548E-01 -5.90598902739E-01
4.13500000000E+09 +2.96641023005E-01 -5.38272519954E-01 -1.75455670034E-03 +2.53473240650E-03 -1.90129504801E-03 +2.55981540918E-03 +4.13710428217E-01 -5.96424709835E-01
4.14000000000E+09 +2.76154822088E-01 -5.41119501802E-01 -1.95471802058E-03 +2.56117379289E-03 -2.15130486740E-03 +2.55358384843E-03 +3.93714844181E-01 -6.01614148809E-01
4.14500000000E+09 +2.56528345530E-01 -5.43591374692E-01 -2.12352280417E-03 +3.16102087914E-03 -2.33342346308E-03 +3.19244514005E-03 +3.73660109386E-01 -6.06111699416E-01
4.15000000000E+09 +2.37749985787E-01 -5.47963868604E-01 -1.33419845065E-03 +3.47026640918E-03 -1.41123534139E-03 +3.56276763567E-03 +3.54605866999E-01 -6.09978466265E-01
4.15500000000E+09 +2.18144602084E-01 -5.50807895309E-01 -1.26027160369E-03 +3.32196818304E-03 -1.33549802474E-03 +3.44397588823E-03 +3.35517801838E-01 -6.13997822717E-01
4.16000000000E+09 +2.00614851875E-01 -5.52978269522E-01 -1.07533843720E-03 +3.60696689061E-03 -1.18973842717E-03 +3.70885483478E-03 +3.16113008983E-01 -6.17353434726E-01
4.16500000000E+09 +1.83428776512E-01 -5.54213636187E-01 -6.86686382425E-04 +3.77545382129E-03 -7.69450680298E-04 +3.85038033159E-03 +2.95427872925E-01 -6.19206513119E-01
4.17000000000E+09 +1.66035020054E-01 -5.53903793821E-01 -6.92808078871E-04 +3.91247699364E-03 -8.24334277424E-04 +4.02410971756E-03 +2.75146633487E-01 -6.19894253844E-01
4.17500000000E+09 +1.48919216452E-01 -5.51250407801E-01 -5.49774165825E-05 +4.57372398471E-03 -1.64659948993E-04 +4.71912862937E-03 +2.54964193842E-01 -6.20332321460E-01
4.18000000000E+09 +1.31795284179E-01 -5.47718406935E-01 +1.10725270507E-03 +4.33538556179E-03 +1.02442560974E-03 +4.52454450407E-03 +2.33923405217E-01 -6.21519506356E-01
4.18500000000E+09 +1.12617873567E-01 -5.43667615918E-01 +1.12936348694E-03 +3.69655936607E-03 +1.14032536497E-03 +3.82004497313E-03 +2.11262722032E-01 -6.22213779844E-01
4.19000000000E+09 +9.27151806178E-02 -5.38074083812E-01 +9.79330888094E-04 +3.53581198053E-03 +9.49057926403E-04 +3.65835286506E-03 +1.88460306762E-01 -6.20995836443E-01
4.19500000000E+09 +7.28246960453E-02 -5.32589785154E-01 +9.13071725921E-04 +3.98752010077E-03 +9.39541477291E-04 +4.11073723882E-03 +1.66415125289E-01 -6.18892442218E-01
4.20000000000E+09 +5.22417893708E-02 -5.28223028028E-01 +1.45944293587E-03 +4.38168899351E-03 +1.43786976513E-03 +4.50415558145E-03 +1.44793545045E-01 -6.16565041791E-01
4.20500000000E+09 +3.10234744936E-02 -5.24443243129E-01 +2.46499213360E-03 +4.64735549341E-03 +2.56256516925E-03 +4.83310038392E-03 +1.22173898313E-01 -6.13249250290E-01
4.21000000000E+09 +1.01596239041E-02 -5.19830756566E-01 +3.60468653670E-03 +4.25441964953E-03 +3.66989670044E-03 +4.42949863016E-03 +9.89118001861E-02 -6.09126565308E-01
4.21500000000E+09 -9.47633293793E-03 -5.15674156249E-01 +3.80377599928E-03 +3.17151878738E-03 +3.89379116223E-03 +3.26985204565E-03 +7.58619772540E-02 -6.03774561402E-01
4.22000000000E+09 -2.84857784197E-02 -5.09422780592E-01 +3.94742213538E-03 +2.87716122614E-03 +4.09164832902E-03 +2.99245290022E-03 +5.38111809441E-02 -5.97592138935E-01
4.22500000000E+09 -4.50458792191E-02 -5.02161741760E-01 +4.17302596997E-03 +2.54058920319E-03 +4.30523176971E-03 +2.65064022972E-03 +3.22669259202E-02 -5.91406484621E-01
4.23000000000E+09 -6.12986172683E-02 -4.94519570124E-01 +4.49806753814E-03 +1.99113156921E-03 +4.64058166644E-03 +2.04025935703E-03 +1.15320501008E-02 -5.84490601669E-01
4.23500000000E+09 -7.84655243684E-02 -4.84515226794E-01 +4.29772128419E-03 +1.64995406983E-03 +4.42924059582E-03 +1.74613742419E-03 -1.05787569406E-02 -5.77295111310E-01
4.24000000000E+09 -9.55561891790E-02 -4.72804346205E-01 +4.40206414194E-03 +1.67416625170E-03 +4.53972164251E-03 +1.67352480321E-03 -3.30215303484E-02 -5.68220732584E-01
4.24500000000E+09 -1.13412417185E-01 -4.60133753756E-01 +4.78569317766E-03 +1.37483189394E-03 +4.89662203295E-03 +1.40453352312E-03 -5.53294948276E-02 -5.57312192263E-01
4.25000000000E+09 -1.32688496746E-01 -4.46805608400E-01 +5.23237573110E-03 +1.48773058648E-03 +5.39506921844E-03 +1.53257819906E-03 -7.63162127742E-02 -5.46321967354E-01
4.25500000000E+09 -1.52291457601E-01 -4.33574067946E-01 +6.20653350653E-03 +7.11479764195E-04 +6.27123236112E-03 +7.23897472359E-04 -9.65620110039E-02 -5.34835492745E-01
4.26000000000E+09 -1.72449053826E-01 -4.21235985333E-01 +6.69846656448E-03 -7.47069840179E-04 +6.84002352930E-03 -8.06953142093E-04 -1.17452537417E-01 -5.22921359844E-01
4.26500000000E+09 -1.93097784325E-01 -4.09751210421E-01 +5.91884255775E-03 -1.77582919870E-03 +5.98538693078E-03 -1.79968167409E-03 -1.37474082490E-01 -5.09223334123E-01
4.27000000000E+09 -2.12863923476E-01 -3.97189360389E-01 +5.43315362104E-03 -2.38385835066E-03 +5.51998438069E-03 -2.47644016811E-03 -1.58241106038E-01 -4.94925230101E-01
4.27500000000E+09 -2.30665701369E-01 -3.85276405752E-01 +4.84609652869E-03 -2.93535128831E-03 +4.90300137678E-03 -3.09472847806E-03 -1.78122224622E-01 -4.79149722677E-01
4.28000000000E+09 -2.46874221950E-01 -3.72542268376E-01 +4.37822245820E-03 -2.55524817729E-03 +4.39251776952E-03 -2.66358209727E-03 -1.97290970746E-01 -4.65115428012E-01
4.28500000000E+09 -2.60820563428E-01 -3.59412367010E-01 +4.99456356525E-03 -2.56430190897E-03 +5.00388225857E-03 -2.62377191442E-03 -2.18976675551E-01 -4.49891355915E-01
4.29000000000E+09 -2.73814179920E-01 -3.44856733861E-01 +5.47090029535E-03 -3.90278425794E-03 +5.51123986104E-03 -3.97523414829E-03 -2.38941587007E-01 -4.31679094099E-01
4.29500000000E+09 -2.85700254846E-01 -3.29431081560E-01 +4.20603118991E-03 -5.00041428368E-03 +4.26036367202E-03 -5.14196989582E-03 -2.55775084569E-01 -4.11784544872E-01
4.30000000000E+09 -2.98336386554E-01 -3.12594658672E-01 +4.07266418262E-03 -5.09080404770E-03 +4.06718939815E-03 -5.19675865938E-03 -2.71354223301E-01 -3.93559938294E-01
4.30500000000E+09 -3.11478075732E-01 -2.94290267379E-01 +3.14865911287E-03 -6.05688457241E-03 +3.20108316137E-03 -6.14740767949E-03 -2.86532522189E-01 -3.74273922454E-01
4.31000000000E+09 -3.24614667718E-01 -2.74457111914E-01 +2.23729894749E-03 -6.05613497424E-03 +2.27324046861E-03 -6.12512820397E-03 -3.01697051977E-01 -3.54570029099E-01
4.31500000000E+09 -3.37795658790E-01 -2.54795768664E-01 +1.89806134521E-03 -6.10430706504E-03 +1.90080470980E-03 -6.26913602458E-03 -3.17459581851E-01 -3.33857569422E-01
4.32000000000E+09 -3.49882054217E-01 -2.35136948149E-01 +9.90024376242E-04 -6.76211883603E-03 +9.77466752089E-04 -6.96021150586E-03 -3.31316458018E-01 -3.11398243507E-01
4.32500000000E+09 -3.60665180024E-01 -2.17389004293E-01 -6.32028315930E-04 -6.37412084122E-03 -7.13707657827E-04 -6.43350577076E-03 -3.43602165120E-01 -2.89556746086E-01
4.33000000000E+09 -3.71806228456E-01 -2.00897894266E-01 -1.29968297593E-04 -5.09916585144E-03 -1.70422078702E-04 -5.15305111599E-03 -3.55417368530E-01 -2.68604227522E-01
4.33500000000E+09 -3.81963664736E-01 -1.83203564886E-01 +2.38351575939E-04 -5.70430382054E-03 +1.75125813468E-04 -5.72034667097E-03 -3.67310120509E-01 -2.44753702190E-01
4.34000000000E+09 -3.89765090426E-01 -1.64604379006E-01 -1.90037612922E-04 -6.33233740063E-03 -2.63716909652E-04 -6.35683167919E-03 -3.77651437835E-01 -2.20225003372E-01
4.34500000000E+09 -3.95500388400E-01 -1.44988910789E-01 -8.41751051800E-04 -7.32927533469E-03 -9.10925761065E-04 -7.37286427648E-03 -3.86028709233E-01 -1.95023380306E-01
4.35000000000E+09 -3.99286874448E-01 -1.24131469539E-01 -2.71915097706E-03 -7.64168088263E-03 -2.80713455244E-03 -7.66666123101E-03 -3.94395330111E-01 -1.71494740730E-01
4.35500000000E+09 -4.02106204197E-01 -1.02659544183E-01 -4.27040799838E-03 -6.65245282790E-03 -4.36094480031E-03 -6.69731447685E-03 -4.03047048670E-01 -1.48684245939E-01
4.36000000000E+09 -4.05482308109E-01 -8.11254969805E-02 -4.29455157848E-03 -5.18819825952E-03 -4.45504967765E-03 -5.21865857153E-03 -4.11480136380E-01 -1.25565477257E-01
4.36500000000E+09 -4.10485221960E-01 -5.80914948740E-02 -4.58595490559E-03 -5.31340636549E-03 -4.70498914472E-03 -5.33124543636E-03 -4.17620004596E-01 -1.00459994764E-01
4.37000000000E+09 -4.15903391340E-01 -3.40687871477E-02 -4.89314909770E-03 -4.66231254538E-03 -5.07470200535E-03 -4.64924214475E-03 -4.21501563784E-01 -7.53111133908E-02
4.37500000000E+09 -4.20867244205E-01 -1.09254468181E-02 -5.25595923840E-03 -5.01967996799E-03 -5.45385280334E-03 -4.92717789610E-03 -4.22701367877E-01 -5.04777518600E-02
4.38000000000E+09 -4.25481854958E-01 +1.10498680584E-02 -6.35780604546E-03 -4.44066016497E-03 -6.52595791496E-03 -4.34758849948E-03 -4.25838209434E-01 -2.73958583385E-02
4.38500000000E+09 -4.29363873121E-01 +3.17498128548E-02 -7.27405716419E-03 -3.53778505896E-03 -7.49539033894E-03 -3.41954010108E-03 -4.29049493607E-01 -2.08479623209E-03
4.39000000000E+09 -4.31729389138E-01 +5.04696629309E-02 -7.26793867288E-03 -2.71023976480E-03 -7.42653594375E-03 -2.52341907311E-03 -4.31263482660E-01 +2.47990758064E-02
4.39500000000E+09 -4.32677572215E-01 +6.77960425295E-02 -8.22126921267E-03 -2.22489160633E-03 -8.28296060006E-03 -2.03115641649E-03 -4.29995653997E-01 +5.06959041159E-02
4.40000000000E+09 -4.32263411195E-01 +8.49863200338E-02 -8.84679373858E-03 -5.13918472851E-04 -8.87879640501E-03 -2.74701528799E-04 -4.27624658435E-01 +7.42179704352E-02
4.40500000000E+09 -4.30230628155E-01 +1.02799252422E-01 -8.57818597613E-03 +5.61239608964E-04 -8.59539841405E-03 +7.10280655379E-04 -4.25364020551E-01 +9.73787093823E-02
4.41000000000E+09 -4.27267221866E-01 +1.21940876231E-01 -8.05734070350E-03 +2.40519890997E-03 -7.98718974156E-03 +2.54437594502E-03 -4.23334355658E-01 +1.19919564269E-01
4.41500000000E+09 -4.23811061642E-01 +1.43216713067E-01 -7.10729009181E-03 +2.84851079739E-03 -7.05718371122E-03 +2.99628583096E-03 -4.19871945080E-01 +1.45552546134E-01
4.42000000000E+09 -4.18690462493E-01 +1.65839577195E-01 -6.73285033053E-03 +2.96606474017E-03 -6.62112207285E-03 +3.16526666776E-03 -4.13351019600E-01 +1.70243931882E-01
4.42500000000E+09 -4.14516560840E-01 +1.88103082442E-01 -6.53483156076E-03 +3.34391289840E-03 -6.36916366146E-03 +3.47049581879E-03 -4.06240367032E-01 +1.91976013399E-01
4.43000000000E+09 -4.11172566915E-01 +2.10362237467E-01 -6.79024058698E-03 +3.90203573174E-03 -6.64056721941E-03 +4.00381281153E-03 -4.02092589831E-01 +2.14121950889E-01
4.43500000000E+09 -4.08019019208E-01 +2.31297487716E-01 -6.59643733957E-03 +5.40728260063E-03 -6.46225413665E-03 +5.42977941047E-03 -3.96129498956E-01 +2.37624579052E-01
4.44000000000E+09 -4.05712032423E-01 +2.50112790728E-01 -5.43702716785E-03 +7.05094801183E-03 -5.30205746757E-03 +7.00855572247E-03 -3.87822444079E-01 +2.60622189830E-01
4.44500000000E+09 -4.03794911891E-01 +2.67025300951E-01 -3.58409091202E-03 +6.68823652375E-03 -3.52006734350E-03 +6.67184658218E-03 -3.77060918196E-01 +2.81459793714E-01
4.45000000000E+09 -4.01111429571E-01 +2.83080927655E-01 -2.99062333254E-03 +6.40784342592E-03 -2.86002497934E-03 +6.42833288614E-03 -3.67149593363E-01 +2.99720033463E-01
4.45500000000E+09 -3.95992853450E-01 +2.98067104715E-01 -3.18786205811E-03 +6.38591142316E-03 -3.04544286438E-03 +6.43234106256E-03 -3.58002232342E-01 +3.17852004042E-01
4.46000000000E+09 -3.89001405935E-01 +3.12429727854E-01 -2.50551334970E-03 +7.43550607112E-03 -2.29460954766E-03 +7.52363296200E-03 -3.49506831378E-01 +3.38354233908E-01
4.46500000000E+09 -3.79167866986E-01 +3.27875229989E-01 -1.40868490658E-03 +7.78325958217E-03 -1.24665629842E-03 +7.79286005137E-03 -3.36702267683E-01 +3.57563079123E-01
4.47000000000E+09 -3.66454080085E-01 +3.42690073460E-01 -2.93990337136E-06 +7.58803732639E-03 +1.68933360887E-04 +7.56333839618E-03 -3.24449814018E-01 +3.75516360178E-01
4.47500000000E+09 -3.54665524190E-01 +3.57653698358E-01 +4.83866800690E-04 +6.69175795492E-03 +6.67200075999E-04 +6.67261904061E-03 -3.12116778063E-01 +3.91820647899E-01
4.48000000000E+09 -3.43704070833E-01 +3.74985446769E-01 +9.78124806534E-05 +7.03723401113E-03 +3.11191716783E-04 +6.89700303213E-03 -3.01327786191E-01 +4.09364369397E-01
4.48500000000E+09 -3.32579545746E-01 +3.93801294596E-01 +1.22587677160E-03 +7.69094687849E-03 +1.40371510497E-03 +7.53368815372E-03 -2.88986929206E-01 +4.26613760396E-01
4.49000000000E+09 -3.22704675700E-01 +4.12027299418E-01 +2.60478216957E-03 +7.88883829075E-03 +2.66625549333E-03 +7.62790087355E-03 -2.75704426323E-01 +4.43517798733E-01
4.49500000000E+09 -3.13976098291E-01 +4.29922734541E-01 +3.94185482657E-03 +6.89798901192E-03 +3.92341948460E-03 +6.72729134047E-03 -2.60618299964E-01 +4.57778582362E-01
4.50000000000E+09 -3.05688672585E-01 +4.45634074744E-01 +4.49193476970E-03 +6.03277154409E-03 +4.45776418206E-03 +5.85633829301E-03 -2.46821841555E-01 +4.71199768971E-01
4.50500000000E+09 -2.98512191786E-01 +4.59101241215E-01 +5.04095742957E-03 +5.29004573835E-03 +5.00172985314E-03 +5.14321307520E-03 -2.33308641594E-01 +4.83751894421E-01
4.51000000000E+09 -2.91114309554E-01 +4.70475827349E-01 +5.05805764295E-03 +4.61042891739E-03 +5.04845334546E-03 +4.50035910671E-03 -2.20528027282E-01 +4.98389518524E-01
4.51500000000E+09 -2.82385928437E-01 +4.79841570814E-01 +5.38468281796E-03 +4.51776475428E-03 +5.39214137095E-03 +4.30281321625E-03 -2.05768888117E-01 +5.11719278564E-01
4.52000000000E+09 -2.72541272730E-01 +4.87810205688E-01 +6.26246603392E-03 +3.85289508615E-03 +6.19534573902E-03 +3.66987684469E-03 -1.91145967790E-01 +5.23967344823E-01
4.52500000000E+09 -2.61012064643E-01 +4.96549092603E-01 +6.40057524770E-03 +2.47553840033E-03 +6.30713757751E-03 +2.32224691206E-03 -1.76492246119E-01 +5.33981266218E-01
4.53000000000E+09 -2.47118755662E-01 +5.06298812856E-01 +6.28050509688E-03 +2.29748185579E-03 +6.15836845493E-03 +2.13299944428E-03 -1.62953074201E-01 +5.44566988751E-01
4.53500000000E+09 -2.30753931871E-01 +5.16654238106E-01 +6.50281212348E-03 +1.72975275249E-03 +6.37375394978E-03 +1.56318214253E-03 -1.48041147477E-01 +5.54913231931E-01
4.54000000000E+09 -2.13496622827E-01 +5.27227108038E-01 +6.67435703617E-03 +1.14679882460E-03 +6.49422051764E-03 +1.00262296175E-03 -1.31927063287E-01 +5.66175805663E-01
4.54500000000E+09 -1.96868457614E-01 +5.37927774873E-01 +7.11494164005E-03 +3.12654603911E-04 +6.93883387227E-03 +9.97650468251E-05 -1.14868708804E-01 +5.74437894585E-01
4.55000000000E+09 -1.82099353505E-01 +5.48261274436E-01 +7.08974634744E-03 -8.77686872840E-04 +6.87294994649E-03 -1.02331813578E-03 -9.92019612248E-02 +5.82654694394E-01
4.55500000000E+09 -1.69903486856E-01 +5.58849780031E-01 +6.55730600491E-03 -2.49971761289E-03 +6.30175146357E-03 -2.55793731809E-03 -8.48428700333E-02 +5.89945172928E-01
4.56000000000E+09 -1.59461565383E-01 +5.69825688322E-01 +4.83658272947E-03 -2.69290541568E-03 +4.66051849775E-03 -2.72421084213E-03 -7.14906548612E-02 +5.99155430077E-01
4.56500000000E+09 -1.49078084455E-01 +5.80304608630E-01 +4.46275852268E-03 -2.36448681784E-03 +4.32574494570E-03 -2.35014820096E-03 -5.59568313058E-02 +6.07507075812E-01
4.57000000000E+09 -1.38572021171E-01 +5.89342688844E-01 +4.45659211375E-03 -1.99611072100E-03 +4.28232750223E-03 -2.03335023049E-03 -4.02015745539E-02 +6.13892075104E-01
