# Hz S RI R 50
! CMT, C1220, 16058040, 17.2.0/1
! Date: 15/08/2018 11:43:26
! Data: Format (Calibration Info)
! Freq                      S11: Re/Im (F2)                       S21: Re/Im (F2)                       S12: Re/Im (F2)                       S22: Re/Im (F2)            
4.00000000000E+09 +6.36422098552E-01 -3.37416228018E-01 -2.06794633907E-03 -3.11710682242E-03 -2.02636225203E-03 -3.28092136125E-03 +7.70842841949E-01 -3.51076246215E-01
4.00500000000E+09 +6.27284988436E-01 -3.43588343758E-01 -2.26521238459E-03 -3.06610335129E-03 -2.21345298063E-03 -3.20328350340E-03 +7.62489213450E-01 -3.62472177959E-01
4.01000000000E+09 +6.17171869828E-01 -3.48797758156E-01 -2.64579042249E-03 -3.05248309313E-03 -2.65034910529E-03 -3.17360036029E-03 +7.52875233537E-01 -3.73523321167E-01
4.01500000000E+09 +6.06553073706E-01 -3.53844280891E-01 -3.01659869145E-03 -2.62326874453E-03 -3.00551686511E-03 -2.79300489243E-03 +7.43383722916E-01 -3.83755746711E-01
4.02000000000E+09 +5.95142495475E-01 -3.60474680010E-01 -3.17537879910E-03 -2.54776024495E-03 -3.16577107593E-03 -2.72126395628E-03 +7.33797752651E-01 -3.94339712453E-01
4.02500000000E+09 +5.82623526969E-01 -3.67654515915E-01 -3.77148081778E-03 -2.40608067123E-03 -3.81509314259E-03 -2.58546662453E-03 +7.23422382103E-01 -4.04950803887E-01
4.03000000000E+09 +5.70344603209E-01 -3.75820417135E-01 -4.24291871048E-03 -1.84372395664E-03 -4.28649035002E-03 -2.02551885995E-03 +7.12820728535E-01 -4.15485070810E-01
4.03500000000E+09 +5.57303924948E-01 -3.85107123413E-01 -4.28345821819E-03 -1.32824992359E-03 -4.28573279560E-03 -1.47131514145E-03 +7.01403306028E-01 -4.26437872266E-01
4.04000000000E+09 +5.44516291594E-01 -3.94188099099E-01 -4.51282066654E-03 -8.93578288258E-04 -4.64711207576E-03 -1.00529347429E-03 +6.89619436410E-01 -4.37032263651E-01
4.04500000000E+09 +5.32211620526E-01 -4.03450989206E-01 -4.42601518639E-03 -3.75467813837E-04 -4.57118776581E-03 -5.39316256945E-04 +6.78050181586E-01 -4.47172494337E-01
4.05000000000E+09 +5.19313321821E-01 -4.11913900318E-01 -4.49363275546E-03 -2.04480383914E-04 -4.66639135338E-03 -3.00672093560E-04 +6.66583971865E-01 -4.57508941981E-01
4.05500000000E+09 +5.05624348128E-01 -4.18431871182E-01 -4.84447264133E-03 +3.40266864445E-04 -5.00626843714E-03 +2.23795206764E-04 +6.54048942880E-01 -4.67481021795E-01
4.06000000000E+09 +4.92179637688E-01 -4.23044242409E-01 -4.85488875198E-03 +1.02245784852E-03 -5.03178395862E-03 +9.22698131512E-04 +6.41522831431E-01 -4.76817738416E-01
4.06500000000E+09 +4.78184681245E-01 -4.26704012326E-01 -4.42749075806E-03 +1.67536937508E-03 -4.54223735872E-03 +1.65750559687E-03 +6.27950017134E-01 -4.86077134740E-01
4.07000000000E+09 +4.63654199348E-01 -4.29542279108E-01 -4.29358538043E-03 +1.79341272739E-03 -4.38634511061E-03 +1.72491538422E-03 +6.14116889698E-01 -4.95598479284E-01
4.07500000000E+09 +4.48310986430E-01 -4.32627424461E-01 -4.09242245533E-03 +2.08028003306E-03 -4.23115471609E-03 +1.98646260484E-03 +6.00028883654E-01 -5.05217982847E-01
4.08000000000E+09 +4.31828629236E-01 -4.36194530710E-01 -4.17858222949E-03 +2.36594940561E-03 -4.31685557661E-03 +2.24032950741E-03 +5.85316805831E-01 -5.14963702656E-01
4.08500000000E+09 +4.14167050914E-01 -4.40396888523E-01 -4.22929632296E-03 +2.82459840212E-03 -4.46915106282E-03 +2.72662670180E-03 +5.70623138374E-01 -5.23499115089E-01
4.09000000000E+09 +3.96316352240E-01 -4.44018013347E-01 -4.04826706798E-03 +3.48644899117E-03 -4.25100782330E-03 +3.48161044444E-03 +5.55831757396E-01 -5.31352257685E-01
4.09500000000E+09 +3.78944502525E-01 -4.47862853026E-01 -3.81036616058E-03 +4.07451101422E-03 -3.99468585473E-03 +4.14640603138E-03 +5.40901364804E-01 -5.38811461772E-01
4.10000000000E+09 +3.62115367128E-01 -4.51859468239E-01 -3.12485123591E-03 +4.50078847870E-03 -3.31789287308E-03 +4.49079949659E-03 +5.25237501511E-01 -5.46377492869E-01
4.10500000000E+09 +3.45457768805E-01 -4.55271068994E-01 -2.67261812764E-03 +4.73781496930E-03 -2.87432765340E-03 +4.78124477318E-03 +5.08040472847E-01 -5.54142242405E-01
4.11000000000E+09 +3.28393146262E-01 -4.57128409460E-01 -2.39663871902E-03 +5.02001207150E-03 -2.59277354613E-03 +5.12110069367E-03 +4.90341361900E-01 -5.61062865940E-01
4.11500000000E+09 +3.12225249615E-01 -4.57229631887E-01 -1.61737660482E-03 +5.41521451162E-03 -1.85744634428E-03 +5.50903256232E-03 +4.73328409635E-01 -5.67733424915E-01
4.12000000000E+09 +2.95601238391E-01 -4.56770595908E-01 -1.32395920445E-03 +5.39195740929E-03 -1.54859230980E-03 +5.48027648895E-03 +4.55788292310E-01 -5.74651976665E-01
4.12500000000E+09 +2.78612606177E-01 -4.55086416585E-01 -1.04402392783E-03 +5.65347527762E-03 -1.29094360677E-03 +5.80795783441E-03 +4.37992064584E-01 -5.80524475574E-01
4.13000000000E+09 +2.61445378625E-01 -4.53214313286E-01 -3.57455257527E-04 +6.01550971930E-03 -4.71673549047E-04 +6.22211003669E-03 +4.19587031886E-01 -5.85962720152E-01
4.13500000000E+09 +2.43671219817E-01 -4.51934584972E-01 +1.52745229226E-04 +5.96413925657E-03 -7.12330668124E-05 +6.13943320912E-03 +4.00997383597E-01 -5.90536916656E-01
4.14000000000E+09 +2.25284399455E-01 -4.51699404147E-01 +6.46544194655E-04 +6.51289859722E-03 +5.21962183646E-04 +6.73826392967E-03 +3.81447672117E-01 -5.94984629796E-01
4.14500000000E+09 +2.06641118755E-01 -4.51925242486E-01 +1.85037340034E-03 +6.76994007699E-03 +1.78687230820E-03 +7.06372888044E-03 +3.61728695652E-01 -5.98757254808E-01
4.15000000000E+09 +1.88117740740E-01 -4.53825627906E-01 +2.75379765790E-03 +6.18048418607E-03 +2.78890696413E-03 +6.46182102846E-03 +3.42995551004E-01 -6.03204576160E-01
4.15500000000E+09 +1.68648111688E-01 -4.54993935629E-01 +3.37318804294E-03 +5.56933158564E-03 +3.43599709436E-03 +5.82404258047E-03 +3.22953845506E-01 -6.07461694223E-01
4.16000000000E+09 +1.50018806835E-01 -4.54364109910E-01 +3.67050004820E-03 +5.19325041554E-03 +3.77446844874E-03 +5.36673764061E-03 +3.02100845468E-01 -6.09507058088E-01
4.16500000000E+09 +1.32388309825E-01 -4.52039841293E-01 +3.73843574101E-03 +4.92716957547E-03 +3.79549754369E-03 +5.09392153309E-03 +2.82528175040E-01 -6.10564318504E-01
4.17000000000E+09 +1.16756170868E-01 -4.47294729104E-01 +4.27638826421E-03 +5.16885432551E-03 +4.30570184048E-03 +5.36855767200E-03 +2.61687840580E-01 -6.10874487506E-01
4.17500000000E+09 +1.01982640876E-01 -4.41796401478E-01 +5.21042917320E-03 +5.19103680945E-03 +5.25887165792E-03 +5.36748765836E-03 +2.40573151853E-01 -6.10663161316E-01
4.18000000000E+09 +8.69310204794E-02 -4.35295640200E-01 +6.35512782294E-03 +4.26777781848E-03 +6.51456070893E-03 +4.47867455166E-03 +2.19241711939E-01 -6.10569096330E-01
4.18500000000E+09 +7.07801554427E-02 -4.27580679454E-01 +6.63999281212E-03 +3.41825407677E-03 +6.81462371742E-03 +3.62245429447E-03 +1.96841585041E-01 -6.09819062202E-01
4.19000000000E+09 +5.43236306937E-02 -4.19222228653E-01 +7.17717667486E-03 +2.94250210059E-03 +7.29180224687E-03 +3.09381258126E-03 +1.75560961962E-01 -6.07950810067E-01
4.19500000000E+09 +3.66168037046E-02 -4.10516834807E-01 +7.57984396765E-03 +2.11423250974E-03 +7.75961670826E-03 +2.30808019209E-03 +1.54148766315E-01 -6.05653852043E-01
4.20000000000E+09 +1.91080936500E-02 -4.01748420407E-01 +7.89617840845E-03 +1.13597582946E-03 +8.09439612525E-03 +1.29459558009E-03 +1.32410739237E-01 -6.03293399700E-01
4.20500000000E+09 +2.37208629445E-03 -3.94087468180E-01 +8.02137384078E-03 +1.48232122325E-04 +8.20973251972E-03 +3.02414403872E-04 +1.09454167788E-01 -5.99670426181E-01
4.21000000000E+09 -1.38999224246E-02 -3.87020339721E-01 +7.95225755570E-03 -1.00847069903E-03 +8.17543837747E-03 -9.10803825302E-04 +8.61609365230E-02 -5.94239300160E-01
4.21500000000E+09 -2.98767490419E-02 -3.80463268244E-01 +7.42961114774E-03 -1.18637058830E-03 +7.62696104806E-03 -1.10734592693E-03 +6.45472447699E-02 -5.89121070316E-01
4.22000000000E+09 -4.51782849163E-02 -3.72206787508E-01 +7.86438798757E-03 -1.52983999254E-03 +8.02722913330E-03 -1.52123442341E-03 +4.20477472151E-02 -5.83512872991E-01
4.22500000000E+09 -5.89448357256E-02 -3.62484795786E-01 +8.40137549028E-03 -2.77896355306E-03 +8.61456055546E-03 -2.77891422261E-03 +1.92924850668E-02 -5.77032059277E-01
4.23000000000E+09 -7.12755543814E-02 -3.51069282940E-01 +8.14630984213E-03 -4.49084266642E-03 +8.35868120608E-03 -4.49968060822E-03 -2.99108720105E-03 -5.68847297521E-01
4.23500000000E+09 -8.30518262573E-02 -3.38405662837E-01 +7.10965196783E-03 -5.64074404547E-03 +7.32913881935E-03 -5.69450256321E-03 -2.44089568724E-02 -5.59008776923E-01
4.24000000000E+09 -9.54218332748E-02 -3.24636738927E-01 +6.08264983030E-03 -6.25195386378E-03 +6.26816436996E-03 -6.36312294557E-03 -4.49660512220E-02 -5.49029933450E-01
4.24500000000E+09 -1.08502502609E-01 -3.10303402344E-01 +5.26926155276E-03 -6.12266632193E-03 +5.43063713654E-03 -6.24065429045E-03 -6.55204080381E-02 -5.39339291669E-01
4.25000000000E+09 -1.22787155942E-01 -2.95362658160E-01 +5.34751265782E-03 -6.82227216227E-03 +5.49821439679E-03 -6.93535803733E-03 -8.76196958402E-02 -5.28398434780E-01
4.25500000000E+09 -1.38055835127E-01 -2.81262971522E-01 +4.34915857300E-03 -7.90084041236E-03 +4.48830373812E-03 -8.04976159605E-03 -1.09039271704E-01 -5.16100133882E-01
4.26000000000E+09 -1.54296809081E-01 -2.67831845389E-01 +3.30087706792E-03 -8.19448329889E-03 +3.41275758136E-03 -8.36625427427E-03 -1.29559982149E-01 -5.02239149991E-01
4.26500000000E+09 -1.71021002112E-01 -2.55587638795E-01 +2.41917373096E-03 -8.05120006303E-03 +2.54047047737E-03 -8.23178736036E-03 -1.49540754961E-01 -4.87670135728E-01
4.27000000000E+09 -1.87160737040E-01 -2.43051070397E-01 +1.95443979305E-03 -8.40467621449E-03 +1.94888263868E-03 -8.59651956238E-03 -1.68510929553E-01 -4.72540841659E-01
4.27500000000E+09 -2.01726731201E-01 -2.30319465249E-01 +1.06234604364E-03 -8.78622687869E-03 +1.10764952027E-03 -8.94741395655E-03 -1.88501302530E-01 -4.56578215326E-01
4.28000000000E+09 -2.13540900104E-01 -2.16799225216E-01 +3.31038591719E-04 -9.05342542636E-03 +3.21376722694E-04 -9.23013132936E-03 -2.07536222091E-01 -4.40379792626E-01
4.28500000000E+09 -2.22145798345E-01 -2.03120932042E-01 -6.10165930599E-04 -9.56758857843E-03 -6.49845298098E-04 -9.75274812898E-03 -2.27160420729E-01 -4.23890165766E-01
4.29000000000E+09 -2.29664806847E-01 -1.89363482693E-01 -2.49360559448E-03 -9.96105510650E-03 -2.57332180147E-03 -1.01330577640E-02 -2.45051396217E-01 -4.04878981767E-01
4.29500000000E+09 -2.37043756305E-01 -1.74965570357E-01 -4.01926513285E-03 -8.35264366276E-03 -4.18744157620E-03 -8.56071593223E-03 -2.59796196027E-01 -3.87910940193E-01
4.30000000000E+09 -2.45358120704E-01 -1.58113728821E-01 -4.43675516799E-03 -7.47809224390E-03 -4.52989223867E-03 -7.65708811440E-03 -2.76258825777E-01 -3.70568538301E-01
4.30500000000E+09 -2.53664124276E-01 -1.39639951452E-01 -4.60944650289E-03 -6.89012501680E-03 -4.74500040608E-03 -7.03591324036E-03 -2.92749525539E-01 -3.50225125931E-01
4.31000000000E+09 -2.61973416182E-01 -1.19214400076E-01 -4.61711125230E-03 -6.71787172678E-03 -4.78156403866E-03 -6.91556697393E-03 -3.07957851733E-01 -3.29426096208E-01
4.31500000000E+09 -2.69226106478E-01 -9.96857140341E-02 -5.26138782730E-03 -6.86119505931E-03 -5.46459933539E-03 -7.06030598912E-03 -3.22047497035E-01 -3.07344831301E-01
4.32000000000E+09 -2.76543854253E-01 -8.11890923639E-02 -6.19205963488E-03 -6.73501795922E-03 -6.41699160153E-03 -6.79922131106E-03 -3.35058820843E-01 -2.85864612242E-01
4.32500000000E+09 -2.82927894445E-01 -6.53950858440E-02 -7.73411484800E-03 -6.10679758255E-03 -7.96654583079E-03 -6.21746787422E-03 -3.47301489014E-01 -2.64094549213E-01
4.33000000000E+09 -2.90304018448E-01 -5.01522615944E-02 -8.17262583859E-03 -5.38467797186E-03 -8.44354407258E-03 -5.30150713932E-03 -3.59575974558E-01 -2.40897921437E-01
4.33500000000E+09 -2.95858642670E-01 -3.41835505721E-02 -9.31796177905E-03 -4.28842827773E-03 -9.47782387624E-03 -4.16641721397E-03 -3.69405198494E-01 -2.15662113849E-01
4.34000000000E+09 -2.98866360288E-01 -1.80549394256E-02 -9.84231943939E-03 -2.71056526714E-03 -9.95609912454E-03 -2.58945005058E-03 -3.77125454603E-01 -1.91537109711E-01
4.34500000000E+09 -2.99482776660E-01 -1.91282754804E-03 -9.37707942061E-03 -1.17660767975E-03 -9.41176392611E-03 -1.11995718469E-03 -3.86251257947E-01 -1.69463632794E-01
4.35000000000E+09 -2.99076067334E-01 +1.53427996938E-02 -8.97673218865E-03 -7.87437968886E-04 -9.07670100634E-03 -7.28430575239E-04 -3.96548613552E-01 -1.44853575153E-01
4.35500000000E+09 -2.97226892035E-01 +3.35131763113E-02 -9.17917446616E-03 -3.28059506762E-04 -9.28179965851E-03 -2.31141810581E-04 -4.04146421611E-01 -1.18537591478E-01
4.36000000000E+09 -2.96427265655E-01 +5.23518861358E-02 -9.01278520726E-03 +5.01831315135E-05 -9.07626198110E-03 +1.17305772312E-04 -4.09171249857E-01 -9.40357710757E-02
4.36500000000E+09 -2.95460277720E-01 +7.27477060618E-02 -1.02543157769E-02 +3.36961597748E-04 -1.03725340630E-02 +5.02960811460E-04 -4.13186724561E-01 -7.03480148520E-02
4.37000000000E+09 -2.95656230552E-01 +9.27387405731E-02 -1.12588996168E-02 +2.42156916429E-03 -1.12813031430E-02 +2.65851683752E-03 -4.16483234560E-01 -4.65104256413E-02
4.37500000000E+09 -2.96486409796E-01 +1.12074712965E-01 -1.03769043139E-02 +4.95027372849E-03 -1.04710512437E-02 +5.19205413367E-03 -4.19061670589E-01 -2.24520451709E-02
4.38000000000E+09 -2.98439084825E-01 +1.30622199222E-01 -9.24356262847E-03 +5.77739626790E-03 -9.20008277042E-03 +5.97667795552E-03 -4.21274318751E-01 +3.74597594582E-03
4.38500000000E+09 -2.99450669330E-01 +1.47966803117E-01 -8.21384829098E-03 +6.62779131348E-03 -8.17726546991E-03 +6.88170244470E-03 -4.20973041112E-01 +2.95243545951E-02
4.39000000000E+09 -2.99062492500E-01 +1.63779984596E-01 -7.21793216029E-03 +7.28553420869E-03 -7.09462507553E-03 +7.48330350030E-03 -4.20573887703E-01 +5.38973746938E-02
4.39500000000E+09 -2.97128338020E-01 +1.77908541304E-01 -7.06691410956E-03 +7.50251402453E-03 -6.92427620012E-03 +7.71598001818E-03 -4.20215563004E-01 +7.75985256384E-02
4.40000000000E+09 -2.93313106315E-01 +1.91398025552E-01 -6.16465241135E-03 +8.97964539772E-03 -6.01655733348E-03 +9.05716934352E-03 -4.19160979131E-01 +1.01767923489E-01
4.40500000000E+09 -2.88451626154E-01 +2.04322947113E-01 -5.13482265114E-03 +9.66339962630E-03 -5.08191065951E-03 +9.71277926006E-03 -4.15918523148E-01 +1.25977713295E-01
4.41000000000E+09 -2.82787187185E-01 +2.18717688409E-01 -3.77701341975E-03 +9.63857178832E-03 -3.66821203928E-03 +9.73183430134E-03 -4.11137728456E-01 +1.50432367908E-01
4.41500000000E+09 -2.75687619013E-01 +2.35308141025E-01 -3.22398035970E-03 +1.06901597998E-02 -3.10924403174E-03 +1.07375504961E-02 -4.05521203394E-01 +1.73808399627E-01
4.42000000000E+09 -2.68714722860E-01 +2.52590129265E-01 -1.86113597716E-03 +1.07699635105E-02 -1.69290457950E-03 +1.08490871681E-02 -3.98437694980E-01 +1.97031254274E-01
4.42500000000E+09 -2.61637732437E-01 +2.70849431673E-01 -6.88294809448E-04 +1.16140804021E-02 -5.07309868891E-04 +1.16602081938E-02 -3.93136959005E-01 +2.18517323453E-01
4.43000000000E+09 -2.55255883203E-01 +2.88504302262E-01 +1.68490060642E-03 +1.17287219036E-02 +1.81879782294E-03 +1.16287907553E-02 -3.86314056035E-01 +2.41927379126E-01
4.43500000000E+09 -2.49404957173E-01 +3.05227265653E-01 +3.12200150893E-03 +1.05026358293E-02 +3.20101361331E-03 +1.03906666332E-02 -3.77330121930E-01 +2.63862644686E-01
4.44000000000E+09 -2.44853778907E-01 +3.19122323225E-01 +4.13948391142E-03 +9.18080438758E-03 +4.15047319260E-03 +9.14258359083E-03 -3.68481545923E-01 +2.83599703942E-01
4.44500000000E+09 -2.41216639895E-01 +3.31734582645E-01 +4.13625005377E-03 +8.88498428050E-03 +4.24356406815E-03 +8.85023300209E-03 -3.60195714378E-01 +3.03348191519E-01
4.45000000000E+09 -2.37342093567E-01 +3.43172169770E-01 +4.65195980365E-03 +8.45195508267E-03 +4.78399914389E-03 +8.41387219668E-03 -3.50809450908E-01 +3.23331673545E-01
4.45500000000E+09 -2.31179990694E-01 +3.53249070574E-01 +5.58262616955E-03 +8.77906265839E-03 +5.76339998698E-03 +8.69823271744E-03 -3.40488763913E-01 +3.43226414073E-01
4.46000000000E+09 -2.23717577955E-01 +3.62883843007E-01 +6.97067019270E-03 +7.96447012997E-03 +7.17715368866E-03 +7.81346314536E-03 -3.27297933374E-01 +3.62268100055E-01
4.46500000000E+09 -2.13253191080E-01 +3.72957503526E-01 +7.86739540876E-03 +6.82546960582E-03 +8.03464219471E-03 +6.64097327418E-03 -3.14897093572E-01 +3.78318359479E-01
4.47000000000E+09 -2.01507718435E-01 +3.83023543178E-01 +8.47098551288E-03 +5.75028804375E-03 +8.61926053546E-03 +5.55933090196E-03 -3.03569935820E-01 +3.94776845414E-01
4.47500000000E+09 -1.88407894682E-01 +3.94063060308E-01 +8.45067126343E-03 +4.91073199120E-03 +8.55810246951E-03 +4.63231455379E-03 -2.92322189557E-01 +4.12460574026E-01
4.48000000000E+09 -1.75984897326E-01 +4.05488282230E-01 +9.20855016470E-03 +4.12809019110E-03 +9.21564552937E-03 +3.79792005454E-03 -2.79506648832E-01 +4.29500243611E-01
4.48500000000E+09 -1.65170452539E-01 +4.18066674243E-01 +9.84263716498E-03 +3.37043220136E-03 +9.77078241888E-03 +3.05962577076E-03 -2.65348456540E-01 +4.44928032000E-01
4.49000000000E+09 -1.55623204925E-01 +4.31333544863E-01 +1.01489682471E-02 +1.34332579540E-03 +9.98935065662E-03 +1.14862221760E-03 -2.52254937661E-01 +4.59065731675E-01
4.49500000000E+09 -1.47448384324E-01 +4.44085244109E-01 +9.26788282153E-03 +3.93340793683E-04 +9.16685158030E-03 +2.41754061077E-04 -2.39176694922E-01 +4.73543143522E-01
4.50000000000E+09 -1.40390857444E-01 +4.55253610189E-01 +9.13501714345E-03 +2.12602000906E-04 +9.04062323922E-03 +3.23032458189E-05 -2.24816226099E-01 +4.87373499556E-01
4.50500000000E+09 -1.33853708217E-01 +4.65041558508E-01 +9.23518398724E-03 -3.71623980608E-04 +9.17924772099E-03 -5.13089982556E-04 -2.10693600662E-01 +5.00943164896E-01
4.51000000000E+09 -1.26288386701E-01 +4.71812693270E-01 +9.90885027925E-03 -1.22157652566E-03 +9.76471401071E-03 -1.38753327905E-03 -1.94859415654E-01 +5.13016953792E-01
4.51500000000E+09 -1.18507397894E-01 +4.76549486348E-01 +9.84827502623E-03 -2.63517244505E-03 +9.64666714896E-03 -2.81737082088E-03 -1.80876540893E-01 +5.23428609337E-01
4.52000000000E+09 -1.09591669461E-01 +4.80521675321E-01 +9.77806631846E-03 -4.34362208102E-03 +9.45464221214E-03 -4.48746206319E-03 -1.67596148821E-01 +5.34232755425E-01
4.52500000000E+09 -9.89552924641E-02 +4.84610692864E-01 +8.34101296902E-03 -5.45471739959E-03 +8.06072087048E-03 -5.52430335236E-03 -1.53739032915E-01 +5.45131761397E-01
4.53000000000E+09 -8.61425937273E-02 +4.89448702453E-01 +7.59076670493E-03 -5.83899124913E-03 +7.26872244527E-03 -5.88757623792E-03 -1.38745991365E-01 +5.55057753251E-01
4.53500000000E+09 -7.18313537476E-02 +4.95619422059E-01 +6.87332854859E-03 -6.50928923662E-03 +6.64959236124E-03 -6.53839830597E-03 -1.23863604823E-01 +5.64295322211E-01
4.54000000000E+09 -5.64145284042E-02 +5.02467546996E-01 +6.20361198594E-03 -7.00922695586E-03 +5.93915249227E-03 -7.03510246062E-03 -1.07789907782E-01 +5.72947854314E-01
4.54500000000E+09 -4.19326513836E-02 +5.09581418098E-01 +5.29033632994E-03 -7.52066192728E-03 +4.99500533362E-03 -7.44467056879E-03 -9.33847392449E-02 +5.81677977413E-01
4.55000000000E+09 -2.89779667333E-02 +5.16920874415E-01 +4.88470647661E-03 -8.04126471933E-03 +4.54388468977E-03 -7.84781003778E-03 -7.76288711615E-02 +5.90587170513E-01
4.55500000000E+09 -1.84171923117E-02 +5.24227795899E-01 +3.64700678957E-03 -8.18525096526E-03 +3.48751954405E-03 -8.05694767792E-03 -6.20647284764E-02 +5.98900987796E-01
4.56000000000E+09 -9.87947943092E-03 +5.31894421226E-01 +3.10894413277E-03 -8.58973132088E-03 +2.91672536604E-03 -8.44330006451E-03 -4.67234303761E-02 +6.04984683672E-01
4.56500000000E+09 -1.23835470251E-03 +5.38669453384E-01 +2.31031899992E-03 -8.96934900607E-03 +2.14605359162E-03 -8.81470125987E-03 -3.25649841749E-02 +6.11205621118E-01
4.57000000000E+09 +7.06243742190E-03 +5.43638207582E-01 +1.11452303725E-03 -9.41192296832E-03 +9.84100112580E-04 -9.21112857860E-03 -1.77398776106E-02 +6.17116818366E-01
