# Hz S RI R 50
! CMT, C1220, 16058040, 17.2.0/1
! Date: 15/08/2018 12:13:58
! Data: Format (Calibration Info)
! Freq                      S11: Re/Im (F2)                       S21: Re/Im (F2)                       S12: Re/Im (F2)                       S22: Re/Im (F2)            
4.00000000000E+09 +6.51847502649E-01 -3.52946863644E-01 +5.39202007118E-05 -4.81463173710E-04 +5.02819940134E-05 -5.15255076012E-04 +7.67751953850E-01 -3.21682801428E-01
4.00500000000E+09 +6.43795859569E-01 -3.59021656596E-01 -4.38962164025E-05 -3.48387064661E-04 -5.08631289066E-05 -3.77645186258E-04 +7.58520781852E-01 -3.32310351793E-01
4.01000000000E+09 +6.35037598810E-01 -3.64590537959E-01 +1.18604760966E-04 -4.21956643069E-04 +1.04908785439E-04 -3.84854562306E-04 +7.48935048210E-01 -3.42752223532E-01
4.01500000000E+09 +6.25385796800E-01 -3.71262492616E-01 +3.12032341785E-05 -6.60764046856E-04 +1.77340685349E-05 -6.87843061580E-04 +7.39370831502E-01 -3.52676580991E-01
4.02000000000E+09 +6.14332248258E-01 -3.79330065086E-01 -3.67732933121E-04 -6.54036145187E-04 -3.76332410097E-04 -6.81203599063E-04 +7.29095983201E-01 -3.63032122959E-01
4.02500000000E+09 +6.02604818306E-01 -3.88165627820E-01 -5.33731039303E-04 -3.76487686809E-04 -5.23874949865E-04 -3.80023498892E-04 +7.18136490586E-01 -3.72652113328E-01
4.03000000000E+09 +5.91256765906E-01 -3.97993299686E-01 -3.36105559253E-04 -1.43852339751E-04 -3.70346357322E-04 -1.53335104928E-04 +7.07221646585E-01 -3.82209472582E-01
4.03500000000E+09 +5.80219999095E-01 -4.09151558765E-01 -1.77011787236E-04 -2.48041547881E-04 -2.50468260972E-04 -2.21589703522E-04 +6.95937729088E-01 -3.92084632811E-01
4.04000000000E+09 +5.69047347396E-01 -4.20338308010E-01 -2.30997035405E-04 -1.82717946941E-04 -2.31630952228E-04 -2.45963133513E-04 +6.84646035028E-01 -4.02090434025E-01
4.04500000000E+09 +5.58298992186E-01 -4.30573411440E-01 -1.61657996898E-04 -2.99426244427E-04 -1.89625130921E-04 -2.76432301375E-04 +6.72632479045E-01 -4.11998943317E-01
4.05000000000E+09 +5.47503218226E-01 -4.39221017853E-01 -1.98371705904E-04 -4.10695021781E-04 -1.33041329716E-04 -4.30486330634E-04 +6.60444299893E-01 -4.20638658432E-01
4.05500000000E+09 +5.36621866454E-01 -4.45537971417E-01 -4.56420207626E-04 -5.34982274651E-04 -4.75982220254E-04 -5.16232441581E-04 +6.48287189776E-01 -4.29272633650E-01
4.06000000000E+09 +5.25770171039E-01 -4.50648148525E-01 -5.60720848486E-04 -3.41920828636E-04 -5.54039711536E-04 -3.41013932967E-04 +6.35233565567E-01 -4.37545544955E-01
4.06500000000E+09 +5.13615532464E-01 -4.54504005677E-01 -5.82169837235E-04 -2.39224489563E-04 -6.17289352910E-04 -2.39088348674E-04 +6.21733885161E-01 -4.45478524708E-01
4.07000000000E+09 +5.00540365752E-01 -4.58173399049E-01 -5.84178468456E-04 -1.36822522180E-04 -5.59792319475E-04 -1.45192814638E-04 +6.07981798270E-01 -4.53426972098E-01
4.07500000000E+09 +4.85797907502E-01 -4.62435181338E-01 -5.79646014498E-04 -8.77875191006E-05 -5.91468104570E-04 -1.10214903703E-04 +5.93914078791E-01 -4.61457608189E-01
4.08000000000E+09 +4.69365900423E-01 -4.67079109353E-01 -6.94568228733E-04 -5.73600776047E-05 -6.77233871564E-04 -7.76192176105E-05 +5.80301718929E-01 -4.68980071070E-01
4.08500000000E+09 +4.52636522994E-01 -4.71808670894E-01 -6.94146706085E-04 +8.32943538209E-05 -6.78614792532E-04 +8.55662435432E-05 +5.66273407218E-01 -4.76906005136E-01
4.09000000000E+09 +4.36339325530E-01 -4.78253844060E-01 -5.21885997464E-04 +4.43927863789E-05 -5.73527664451E-04 -4.03804939734E-06 +5.51717706522E-01 -4.83294345554E-01
4.09500000000E+09 +4.19810400823E-01 -4.85564460092E-01 -7.89359369303E-04 +9.92889543055E-05 -8.09195288065E-04 +2.24341747780E-05 +5.37671441661E-01 -4.89757675019E-01
4.10000000000E+09 +4.02477575797E-01 -4.92537550680E-01 -8.57798377254E-04 +2.48550869639E-04 -8.72514751095E-04 +1.80396372430E-04 +5.21507448071E-01 -4.96300675388E-01
4.10500000000E+09 +3.85537352760E-01 -4.97229873258E-01 -9.03625574634E-04 +6.51022736203E-04 -9.55096168690E-04 +6.35268965791E-04 +5.05207529434E-01 -5.01732171609E-01
4.11000000000E+09 +3.69156933289E-01 -4.99990224188E-01 -4.91092944609E-04 +9.14089749137E-04 -6.26502632569E-04 +9.37058110077E-04 +4.88679147975E-01 -5.07398880691E-01
4.11500000000E+09 +3.54437659507E-01 -5.00722285608E-01 +1.17583968841E-04 +8.29789968217E-04 +5.49222534011E-05 +8.64715841709E-04 +4.72108336797E-01 -5.12359893206E-01
4.12000000000E+09 +3.39484251490E-01 -5.01261117507E-01 +3.29542578076E-05 +1.21125073234E-04 -2.49578935871E-05 +1.42433111553E-04 +4.56112415426E-01 -5.17796495740E-01
4.12500000000E+09 +3.23828170790E-01 -5.01839032125E-01 -4.84678725292E-04 +1.04166268642E-04 -5.19999613641E-04 +1.59507165703E-04 +4.38548628516E-01 -5.22394055188E-01
4.13000000000E+09 +3.06294703172E-01 -5.03168587992E-01 -6.59753724286E-04 +5.57158825253E-04 -6.77604972715E-04 +6.11181098235E-04 +4.21669882158E-01 -5.25443436263E-01
4.13500000000E+09 +2.86295042749E-01 -5.04659544852E-01 -4.81276998335E-04 +8.11885670550E-04 -5.15825511136E-04 +8.51565359505E-04 +4.04434797658E-01 -5.29032664865E-01
4.14000000000E+09 +2.65846143437E-01 -5.05942594741E-01 -1.44079836375E-04 +1.12397308825E-03 -1.10163400783E-04 +1.17516526476E-03 +3.85813521059E-01 -5.32085694643E-01
4.14500000000E+09 +2.45903305745E-01 -5.08454894472E-01 +4.27010097404E-04 +8.97858914674E-04 +4.49245261871E-04 +9.53897493723E-04 +3.67578955874E-01 -5.34728281978E-01
4.15000000000E+09 +2.25888529497E-01 -5.12413033478E-01 +4.19053262980E-04 +3.06523044253E-04 +5.11332011024E-04 +3.58968548594E-04 +3.49153435875E-01 -5.36979746272E-01
4.15500000000E+09 +2.05489924354E-01 -5.16560870768E-01 -1.02751221560E-04 +2.85149694372E-04 -4.40049221593E-05 +3.51859591133E-04 +3.30923258697E-01 -5.38228935679E-01
4.16000000000E+09 +1.86259245978E-01 -5.18880657900E-01 -1.80406900478E-04 +4.91601000622E-04 -8.17962831461E-05 +4.94726124120E-04 +3.13079533080E-01 -5.38876733312E-01
4.16500000000E+09 +1.68439089519E-01 -5.19460493701E-01 -1.17586425944E-04 +6.60994764533E-04 -4.55789342196E-05 +6.72123462755E-04 +2.94733695617E-01 -5.38664176899E-01
4.17000000000E+09 +1.52211563395E-01 -5.18020605805E-01 +1.05627154710E-04 +9.71101816154E-04 +1.13997382220E-04 +9.27488086477E-04 +2.76164929664E-01 -5.37597345421E-01
4.17500000000E+09 +1.37182219635E-01 -5.15314364821E-01 +4.20162480181E-04 +6.37954634155E-04 +4.37827443727E-04 +6.64038282421E-04 +2.57630010818E-01 -5.36183661532E-01
4.18000000000E+09 +1.21653848030E-01 -5.11419999210E-01 +3.07888386926E-04 +6.94859183135E-04 +2.93335645250E-04 +6.71011860824E-04 +2.38590231066E-01 -5.34563337279E-01
4.18500000000E+09 +1.05301013900E-01 -5.06519424896E-01 +4.28392683137E-04 +8.14656710464E-04 +4.28331649040E-04 +7.88279301839E-04 +2.19796593221E-01 -5.32568033348E-01
4.19000000000E+09 +8.79008519042E-02 -5.00871249507E-01 +6.37320025520E-04 +5.54843734932E-04 +5.75301957295E-04 +4.73371497069E-04 +2.00593502158E-01 -5.30307694297E-01
4.19500000000E+09 +6.96048255795E-02 -4.95101879234E-01 +4.00024800672E-04 +6.72255205136E-04 +3.48591800989E-04 +6.35848015844E-04 +1.81706188622E-01 -5.26938037736E-01
4.20000000000E+09 +5.07166225456E-02 -4.89897999770E-01 +8.10512121679E-04 +7.73231677518E-04 +7.05459224480E-04 +7.66885296137E-04 +1.62454775472E-01 -5.23529193917E-01
4.20500000000E+09 +3.15372671624E-02 -4.85555073750E-01 +1.06314028294E-03 +4.77029779110E-04 +9.79745188701E-04 +4.73712746272E-04 +1.42701229134E-01 -5.18382804008E-01
4.21000000000E+09 +1.26329139901E-02 -4.81005486434E-01 +8.15721882705E-04 +2.46430980352E-04 +7.06273760251E-04 +3.58440961514E-04 +1.23710512843E-01 -5.13040717283E-01
4.21500000000E+09 -5.98506365787E-03 -4.76026947303E-01 +9.08637967833E-04 +4.46557120469E-04 +8.49739937901E-04 +5.48993966434E-04 +1.04281317970E-01 -5.07549691826E-01
4.22000000000E+09 -2.33000434580E-02 -4.69104959744E-01 +1.33912208762E-03 +2.17246483016E-04 +1.33922449642E-03 +3.14503890587E-04 +8.53824243977E-02 -5.00745871174E-01
4.22500000000E+09 -3.84898896272E-02 -4.61044618720E-01 +1.19465395119E-03 -4.07577331094E-04 +1.22647743175E-03 -3.25259247929E-04 +6.72535125032E-02 -4.94277455376E-01
4.23000000000E+09 -5.34440904468E-02 -4.51642186325E-01 +8.05200186347E-04 -4.78666747029E-04 +8.22235322348E-04 -3.95589352205E-04 +4.82916456275E-02 -4.86984901469E-01
4.23500000000E+09 -6.79096760914E-02 -4.40373024385E-01 +4.34526330087E-04 -1.39149151338E-04 +4.64451120424E-04 -5.66680155101E-05 +2.98586239148E-02 -4.78276544296E-01
4.24000000000E+09 -8.30811141515E-02 -4.28384642167E-01 +9.38190710429E-04 +8.27945217692E-05 +9.88797457521E-04 +1.68072369255E-04 +1.14911939153E-02 -4.69024504232E-01
4.24500000000E+09 -1.00206684962E-01 -4.15954498209E-01 +1.38915310985E-03 -1.43106833185E-04 +1.51948938824E-03 -1.53171256753E-04 -6.88981367496E-03 -4.58668304408E-01
4.25000000000E+09 -1.19130621485E-01 -4.02579572023E-01 +1.43253850717E-03 -9.52786183221E-04 +1.48458935709E-03 -9.95137718003E-04 -2.40815960942E-02 -4.47487071858E-01
4.25500000000E+09 -1.38690523865E-01 -3.89030632897E-01 +7.88609156750E-04 -1.33158585001E-03 +8.58976154805E-04 -1.41487652182E-03 -4.14344551389E-02 -4.36608851341E-01
4.26000000000E+09 -1.58464717419E-01 -3.76667004308E-01 +2.36089603692E-04 -1.14007033378E-03 +3.08607400105E-04 -1.17437506871E-03 -5.84953747386E-02 -4.23984035773E-01
4.26500000000E+09 -1.78129428021E-01 -3.64260339663E-01 +2.64294091854E-04 -8.57877419518E-04 +3.00339425700E-04 -9.18545995808E-04 -7.38561056249E-02 -4.11178913205E-01
4.27000000000E+09 -1.95924611216E-01 -3.52156923145E-01 +1.88640690386E-04 -8.36178406150E-04 +1.85971826667E-04 -9.46954507164E-04 -9.02506679557E-02 -3.98731403213E-01
4.27500000000E+09 -2.11480412593E-01 -3.40646604293E-01 +1.48357191557E-04 -5.84869831356E-04 +1.95142542944E-04 -6.49706586021E-04 -1.06835019393E-01 -3.84576932222E-01
4.28000000000E+09 -2.25280873845E-01 -3.28563701144E-01 +4.09408658163E-04 -6.24382478608E-04 +3.61647670874E-04 -6.85445425069E-04 -1.22183630138E-01 -3.70518932300E-01
4.28500000000E+09 -2.37903496925E-01 -3.14919637191E-01 +3.33494631150E-04 -8.31944672220E-04 +2.56078830903E-04 -8.91495171207E-04 -1.37995215721E-01 -3.56310867778E-01
4.29000000000E+09 -2.48780989020E-01 -2.99315635773E-01 +3.57109531988E-04 -9.21752539042E-04 +2.55589836776E-04 -1.00194663571E-03 -1.53431180626E-01 -3.41259594305E-01
4.29500000000E+09 -2.59512699259E-01 -2.81587320210E-01 +5.66129370551E-05 -1.26002313766E-03 +2.84095985812E-05 -1.34271271505E-03 -1.67518242374E-01 -3.25142552497E-01
4.30000000000E+09 -2.69625785818E-01 -2.62105666963E-01 -3.04762081010E-04 -9.66244105684E-04 -3.91930369200E-04 -9.64232043491E-04 -1.80176033172E-01 -3.08884010440E-01
4.30500000000E+09 -2.80502290199E-01 -2.42480092505E-01 -2.51201208299E-04 -9.79267783067E-04 -2.91167011010E-04 -9.24103538425E-04 -1.92687481523E-01 -2.92282666690E-01
4.31000000000E+09 -2.93127078071E-01 -2.22864826760E-01 -3.45875286799E-04 -9.74881204064E-04 -3.95710120091E-04 -9.35664237583E-04 -2.04614827659E-01 -2.75041028971E-01
4.31500000000E+09 -3.07233026121E-01 -2.03534094585E-01 -4.94757802709E-04 -7.36308806538E-04 -5.21860422769E-04 -7.13900179733E-04 -2.15986050964E-01 -2.57591970125E-01
4.32000000000E+09 -3.21287022289E-01 -1.83930437498E-01 -3.96742822402E-04 -8.71065659830E-04 -3.76813180866E-04 -7.89343890189E-04 -2.27674916379E-01 -2.39054106681E-01
4.32500000000E+09 -3.33431545457E-01 -1.65303749286E-01 -4.37465445027E-04 -8.36588733026E-04 -4.00262852468E-04 -8.25515851006E-04 -2.37041471869E-01 -2.19977243523E-01
4.33000000000E+09 -3.42965061367E-01 -1.48184919699E-01 -5.89008242522E-04 -8.86936874417E-04 -5.43793724906E-04 -8.02358867615E-04 -2.46728241016E-01 -2.01470364694E-01
4.33500000000E+09 -3.50506207433E-01 -1.32079583188E-01 -6.28765354099E-04 -8.32865392274E-04 -6.17805909425E-04 -7.78793083720E-04 -2.55744258979E-01 -1.81279723619E-01
4.34000000000E+09 -3.55638405497E-01 -1.16138415927E-01 -9.67666293282E-04 -9.51431289427E-04 -9.53265652407E-04 -9.67674980471E-04 -2.63153588260E-01 -1.60808191238E-01
4.34500000000E+09 -3.58744684687E-01 -9.95755725238E-02 -1.14278730350E-03 -5.77618146893E-04 -1.07677222391E-03 -5.80428583413E-04 -2.70493198168E-01 -1.40601411060E-01
4.35000000000E+09 -3.61123281689E-01 -8.16194364765E-02 -1.17573278699E-03 -3.62871146523E-04 -1.10853759279E-03 -4.09868470082E-04 -2.76931512411E-01 -1.20475716925E-01
4.35500000000E+09 -3.63574291472E-01 -6.06352482267E-02 -1.00053572912E-03 -2.74132262242E-04 -9.69490863122E-04 -3.06630856071E-04 -2.83111402727E-01 -1.00446154331E-01
4.36000000000E+09 -3.65218197486E-01 -3.75926605894E-02 -1.19386519290E-03 -5.56304150100E-04 -1.13824508404E-03 -6.25974015190E-04 -2.88220978065E-01 -8.05677435787E-02
4.36500000000E+09 -3.67029448386E-01 -1.42397611616E-02 -1.48930812098E-03 -9.13353745349E-07 -1.49551777144E-03 -9.01687860411E-05 -2.91985688008E-01 -6.04933972050E-02
4.37000000000E+09 -3.70529251157E-01 +8.96058607156E-03 -1.32559039001E-03 +1.13831461994E-04 -1.31142855008E-03 +9.40033570395E-05 -2.94589372361E-01 -4.14235986421E-02
4.37500000000E+09 -3.74711956821E-01 +3.06406069106E-02 -1.38340292629E-03 +4.67066257971E-04 -1.38605785322E-03 +4.23084313748E-04 -2.97685968347E-01 -2.13585380726E-02
4.38000000000E+09 -3.79880303471E-01 +5.09182896078E-02 -1.14910088665E-03 +5.91005152878E-04 -1.21957513788E-03 +5.40412850887E-04 -2.99253332431E-01 -6.42055964987E-04
4.38500000000E+09 -3.84476872389E-01 +6.93105223810E-02 -1.02122543207E-03 +7.29787404056E-04 -1.04056024552E-03 +7.02334087314E-04 -3.00470250408E-01 +1.95200871590E-02
4.39000000000E+09 -3.87920974952E-01 +8.61043195231E-02 -7.88480160350E-04 +7.02356760854E-04 -8.82267306250E-04 +6.59144633715E-04 -3.01484716343E-01 +4.01094037356E-02
4.39500000000E+09 -3.88699531657E-01 +1.01554331895E-01 -6.93039535550E-04 +8.02653295463E-04 -7.00169085799E-04 +7.73591214415E-04 -3.02259144467E-01 +5.99002718607E-02
4.40000000000E+09 -3.86676230937E-01 +1.16467569120E-01 -7.16512057487E-04 +5.01677292329E-04 -7.20019451287E-04 +5.58010265149E-04 -3.01738065176E-01 +8.04159727240E-02
4.40500000000E+09 -3.82937412505E-01 +1.31022251945E-01 -1.11144442331E-03 +7.84156757447E-04 -1.16652443259E-03 +7.46311440233E-04 -2.99710149537E-01 +9.99771964751E-02
4.41000000000E+09 -3.78265074758E-01 +1.48076411861E-01 -8.47942531050E-04 +1.49028639029E-03 -8.50449903918E-04 +1.49327023924E-03 -2.97482634198E-01 +1.19413300837E-01
4.41500000000E+09 -3.72056318255E-01 +1.67362506304E-01 -1.83949425568E-04 +1.38788047467E-03 -1.40676143703E-04 +1.41457867850E-03 -2.93626916807E-01 +1.39103929094E-01
4.42000000000E+09 -3.65291722539E-01 +1.88417535106E-01 +4.27634659081E-05 +1.22382528159E-03 +9.48184005850E-05 +1.25328323294E-03 -2.89335029306E-01 +1.58634386428E-01
4.42500000000E+09 -3.58783381841E-01 +2.09991232972E-01 +2.72370921268E-04 +7.23849570489E-04 +2.82718042808E-04 +7.87400524399E-04 -2.84688913471E-01 +1.77676992597E-01
4.43000000000E+09 -3.54013495703E-01 +2.31090349814E-01 -2.76389538688E-04 +6.98590329166E-04 -2.35723338517E-04 +7.15631118594E-04 -2.79797502723E-01 +1.95860958374E-01
4.43500000000E+09 -3.50729569048E-01 +2.51501313793E-01 -2.31368190124E-04 +9.68604162733E-04 -1.93869131158E-04 +9.83433876695E-04 -2.75591765236E-01 +2.13912238451E-01
4.44000000000E+09 -3.48027048340E-01 +2.71048316624E-01 -1.57847421181E-04 +1.08957552789E-03 -1.01766316569E-04 +1.10725298117E-03 -2.70286354598E-01 +2.32884623427E-01
4.44500000000E+09 -3.44463860755E-01 +2.87892181715E-01 +1.59213591838E-04 +1.45012203450E-03 +2.37671774098E-04 +1.42645311603E-03 -2.62521496016E-01 +2.49951450915E-01
4.45000000000E+09 -3.39988374690E-01 +3.01842219795E-01 +6.96667989737E-04 +1.17833052400E-03 +7.40006010691E-04 +1.10553611060E-03 -2.55429664524E-01 +2.65929392380E-01
4.45500000000E+09 -3.34590904062E-01 +3.14115360578E-01 +5.90942279358E-04 +7.99406935688E-04 +6.80931287196E-04 +7.70680056884E-04 -2.47249739541E-01 +2.82303781266E-01
4.46000000000E+09 -3.27110725586E-01 +3.25796309159E-01 +5.56392328601E-04 +6.35890245562E-04 +6.12004258928E-04 +5.36310707234E-04 -2.38887227103E-01 +2.97504785173E-01
4.46500000000E+09 -3.18145325877E-01 +3.37850960512E-01 +5.30568626322E-04 +7.23058633804E-04 +5.83815416214E-04 +6.54580793223E-04 -2.30694412340E-01 +3.12583900435E-01
4.47000000000E+09 -3.07119108640E-01 +3.52254835244E-01 +5.67312145943E-04 +4.07663335431E-04 +5.84714176208E-04 +3.31721274681E-04 -2.22063930114E-01 +3.27680632625E-01
4.47500000000E+09 -2.94327974723E-01 +3.68001998193E-01 +2.45667886671E-04 +6.90820650912E-04 +2.56357559502E-04 +6.98499623152E-04 -2.13695980910E-01 +3.42150477502E-01
4.48000000000E+09 -2.81394245527E-01 +3.84390218123E-01 +5.23613579713E-04 +9.21883938767E-04 +4.83495601526E-04 +8.32356006149E-04 -2.04891407348E-01 +3.56921860827E-01
4.48500000000E+09 -2.69764119053E-01 +4.01423256815E-01 +7.91453299450E-04 +9.79803415373E-04 +7.25073053140E-04 +9.46701352365E-04 -1.95177084989E-01 +3.71146442347E-01
4.49000000000E+09 -2.59921958837E-01 +4.18149423842E-01 +1.26411865882E-03 +7.61762316478E-04 +1.26461055408E-03 +6.96341718563E-04 -1.85006700024E-01 +3.84401259831E-01
4.49500000000E+09 -2.52352738026E-01 +4.33974930886E-01 +1.33856683995E-03 +1.11005192745E-04 +1.34386206685E-03 +1.04502853946E-04 -1.75015489211E-01 +3.97342368495E-01
4.50000000000E+09 -2.46298294214E-01 +4.48625522841E-01 +8.64614095718E-04 +1.60655074067E-04 +7.73097419822E-04 +1.52953712316E-04 -1.64279997754E-01 +4.10099263164E-01
4.50500000000E+09 -2.40442842353E-01 +4.61030819523E-01 +9.61122877419E-04 -3.29575297689E-06 +9.42330371929E-04 -5.84422830157E-05 -1.53812583150E-01 +4.22365664354E-01
4.51000000000E+09 -2.34370265792E-01 +4.70955049031E-01 +7.55476530227E-04 +1.17778648996E-04 +6.68157657316E-04 +1.53612422746E-04 -1.42593084278E-01 +4.34145917066E-01
4.51500000000E+09 -2.26904533706E-01 +4.79119513578E-01 +8.76205276734E-04 +3.38726765020E-04 +8.07404211667E-04 +3.03816219607E-04 -1.32160220094E-01 +4.45229885659E-01
4.52000000000E+09 -2.17581020435E-01 +4.86746452353E-01 +1.22490566745E-03 +2.13714771108E-04 +1.22159206307E-03 +2.54892775987E-04 -1.21451337347E-01 +4.56357639065E-01
4.52500000000E+09 -2.05442008521E-01 +4.94063362731E-01 +1.38731882795E-03 +1.65187292283E-05 +1.32638597705E-03 -2.16630175162E-05 -1.09795111925E-01 +4.66986053439E-01
4.53000000000E+09 -1.91614230582E-01 +5.01726047911E-01 +1.59248593035E-03 -5.24322735480E-04 +1.56626898250E-03 -5.05107364241E-04 -9.78846903952E-02 +4.76249865297E-01
4.53500000000E+09 -1.76783813194E-01 +5.10682260862E-01 +1.07482632643E-03 -7.49807906096E-04 +1.04010769313E-03 -7.09433244235E-04 -8.55637498186E-02 +4.85794159075E-01
4.54000000000E+09 -1.61465641141E-01 +5.20852399494E-01 +1.07729938885E-03 -8.79566364180E-04 +1.03469584176E-03 -8.47603636664E-04 -7.28698583057E-02 +4.94592742207E-01
4.54500000000E+09 -1.46750275003E-01 +5.31687724895E-01 +7.30327373540E-04 -9.43342932791E-04 +7.21291540775E-04 -9.02221739225E-04 -6.09411553823E-02 +5.02743337617E-01
4.55000000000E+09 -1.33850394420E-01 +5.42316977229E-01 +6.11004243427E-04 -9.48810338723E-04 +6.00571478974E-04 -9.48473004512E-04 -4.86566094357E-02 +5.11192606179E-01
4.55500000000E+09 -1.23171064043E-01 +5.52665426980E-01 +4.88693424196E-04 -8.51353834299E-04 +4.94352983579E-04 -7.98827377332E-04 -3.73070376099E-02 +5.19363115827E-01
4.56000000000E+09 -1.13468957895E-01 +5.61372839144E-01 +4.56710561262E-04 -7.14693206536E-04 +4.94449766742E-04 -7.34590516646E-04 -2.52017289899E-02 +5.27184617536E-01
4.56500000000E+09 -1.05064177663E-01 +5.68163610279E-01 +8.21186279511E-04 -9.61827676576E-04 +8.28749847576E-04 -9.27141065902E-04 -1.34630982859E-02 +5.34233517923E-01
4.57000000000E+09 -9.70462337344E-02 +5.73474790376E-01 +5.67183073295E-04 -1.45099488480E-03 +4.72762622090E-04 -1.43125999779E-03 -1.59014632337E-03 +5.41433448699E-01
