# Hz S RI R 50
! CMT, C1220, 16058040, 17.2.0/1
! Date: 15/08/2018 12:06:07
! Data: Format (Calibration Info)
! Freq                      S11: Re/Im (F2)                       S21: Re/Im (F2)                       S12: Re/Im (F2)                       S22: Re/Im (F2)            
4.00000000000E+09 +6.66756949170E-01 -3.40173570682E-01 +1.41315241687E-03 -6.14487978667E-04 +1.46556123394E-03 -5.97946126904E-04 +7.77827465779E-01 -3.36847475581E-01
4.00500000000E+09 +6.58672312377E-01 -3.46416756284E-01 +1.15183036247E-03 -6.75181409951E-04 +1.20110005050E-03 -6.50732183290E-04 +7.69201531784E-01 -3.48657808533E-01
4.01000000000E+09 +6.49485900927E-01 -3.52610968031E-01 +1.06284927867E-03 -6.11985361323E-04 +1.15797213854E-03 -6.11760695315E-04 +7.59542605970E-01 -3.59798214844E-01
4.01500000000E+09 +6.39284896238E-01 -3.59347365369E-01 +1.15679222843E-03 -5.56630362386E-04 +1.22680558269E-03 -4.85517412921E-04 +7.50042126964E-01 -3.70348471562E-01
4.02000000000E+09 +6.28428987771E-01 -3.66877283472E-01 +1.41590051481E-03 -8.45027488947E-04 +1.45105495484E-03 -7.97641006552E-04 +7.40257644756E-01 -3.80721304663E-01
4.02500000000E+09 +6.17371149097E-01 -3.75899184455E-01 +1.30513497037E-03 -1.19262601539E-03 +1.40501720399E-03 -1.14702823034E-03 +7.30307255203E-01 -3.90928309568E-01
4.03000000000E+09 +6.05602621695E-01 -3.86331151591E-01 +9.65566875310E-04 -1.57223178916E-03 +1.09906657129E-03 -1.51416080128E-03 +7.19908239698E-01 -4.01123629622E-01
4.03500000000E+09 +5.93964481708E-01 -3.97027154768E-01 +5.12190101931E-04 -1.38518851148E-03 +6.17953362487E-04 -1.43171075765E-03 +7.09146876702E-01 -4.11686034786E-01
4.04000000000E+09 +5.82670834467E-01 -4.07834110211E-01 +4.88468751703E-04 -1.24608859728E-03 +6.01979709189E-04 -1.26102647092E-03 +6.98500138532E-01 -4.22457366251E-01
4.04500000000E+09 +5.71589541527E-01 -4.18010478121E-01 +4.24951411445E-04 -1.19134361768E-03 +4.56720344324E-04 -1.16882924418E-03 +6.87194440261E-01 -4.33273048954E-01
4.05000000000E+09 +5.60550522643E-01 -4.26731129346E-01 +6.14477835914E-04 -1.19722884027E-03 +7.50542915735E-04 -1.24748589982E-03 +6.75694647533E-01 -4.43149329030E-01
4.05500000000E+09 +5.49026657306E-01 -4.33816171708E-01 +5.40448849652E-04 -1.43980820467E-03 +6.44757386266E-04 -1.49747013381E-03 +6.63977546517E-01 -4.52863273612E-01
4.06000000000E+09 +5.36892033190E-01 -4.39363920991E-01 +4.61370991872E-04 -1.58124649180E-03 +5.01563937371E-04 -1.64544158790E-03 +6.51731004660E-01 -4.62599753723E-01
4.06500000000E+09 +5.24249553127E-01 -4.43516507455E-01 +9.76309592690E-05 -1.60765756419E-03 +1.32156584119E-04 -1.63419226735E-03 +6.38823713533E-01 -4.71647582386E-01
4.07000000000E+09 +5.10607307962E-01 -4.47646307748E-01 +8.44361946264E-05 -1.62400515986E-03 +1.44540640463E-04 -1.70544109604E-03 +6.25189261466E-01 -4.81560122238E-01
4.07500000000E+09 +4.96077376382E-01 -4.52407591267E-01 -1.32854261848E-04 -1.78600238014E-03 -1.14430688834E-04 -1.83770146528E-03 +6.11551912918E-01 -4.90354160993E-01
4.08000000000E+09 +4.80512556047E-01 -4.57756750262E-01 -4.11446808553E-04 -1.65908432446E-03 -3.06607850989E-04 -1.74995014565E-03 +5.98502756577E-01 -4.99815722416E-01
4.08500000000E+09 +4.64027285126E-01 -4.64165459767E-01 -5.83176562028E-04 -1.46957969261E-03 -5.76773612154E-04 -1.52482928652E-03 +5.84545298360E-01 -5.09485121104E-01
4.09000000000E+09 +4.47552303797E-01 -4.71302883589E-01 -5.22390944267E-04 -1.35246735458E-03 -5.60276328391E-04 -1.42691126395E-03 +5.70277955789E-01 -5.17374730859E-01
4.09500000000E+09 +4.31404008237E-01 -4.78447805902E-01 -4.05842115505E-04 -1.23562734182E-03 -4.76766067520E-04 -1.28934494108E-03 +5.56170066298E-01 -5.25661569961E-01
4.10000000000E+09 +4.14932222125E-01 -4.85363725030E-01 -2.89433787329E-04 -1.62681901101E-03 -3.04974713891E-04 -1.67981725576E-03 +5.40790310663E-01 -5.33810107790E-01
4.10500000000E+09 +3.99157305900E-01 -4.90518530880E-01 -6.48878266358E-04 -1.87549483011E-03 -6.35477207178E-04 -1.91086822264E-03 +5.24518603002E-01 -5.41671222894E-01
4.11000000000E+09 +3.83650238102E-01 -4.94003136599E-01 -1.12347223376E-03 -1.98858502731E-03 -1.12017305412E-03 -2.03463343029E-03 +5.07522038623E-01 -5.49645513561E-01
4.11500000000E+09 +3.68784099488E-01 -4.95808066114E-01 -1.58151010855E-03 -1.57010630257E-03 -1.58789224312E-03 -1.67026888569E-03 +4.90443705390E-01 -5.56601336856E-01
4.12000000000E+09 +3.53594345284E-01 -4.96375584072E-01 -1.58835573984E-03 -1.26164390771E-03 -1.59434025594E-03 -1.31547045908E-03 +4.73825034594E-01 -5.63088801421E-01
4.12500000000E+09 +3.38150164673E-01 -4.97090699675E-01 -1.60209167684E-03 -1.11526734741E-03 -1.59763177691E-03 -1.13631981640E-03 +4.57049026544E-01 -5.69745245936E-01
4.13000000000E+09 +3.20279745620E-01 -4.98583123655E-01 -1.65612868852E-03 -1.22294381774E-03 -1.60357875293E-03 -1.33509441929E-03 +4.39813445104E-01 -5.75768324571E-01
4.13500000000E+09 +3.01266384302E-01 -4.99647177298E-01 -1.85070536427E-03 -1.10619677467E-03 -1.88108614913E-03 -1.18516733393E-03 +4.21293857321E-01 -5.81794943767E-01
4.14000000000E+09 +2.81823431478E-01 -5.01886597260E-01 -2.01829165155E-03 -9.82545195769E-04 -2.07443465664E-03 -1.06299986098E-03 +4.02368256394E-01 -5.86873146375E-01
4.14500000000E+09 +2.62212176769E-01 -5.05060152017E-01 -2.27042257612E-03 -7.12777634023E-04 -2.33921303537E-03 -7.94087529844E-04 +3.83649247585E-01 -5.92381801380E-01
4.15000000000E+09 +2.42223046301E-01 -5.09364101062E-01 -2.24718526505E-03 -5.56069742016E-04 -2.33520097102E-03 -6.72189171831E-04 +3.63304100572E-01 -5.97594059385E-01
4.15500000000E+09 +2.22449308329E-01 -5.13136710891E-01 -2.44307630330E-03 -5.65147570858E-04 -2.48539808610E-03 -5.61077119653E-04 +3.44150528646E-01 -6.00662732493E-01
4.16000000000E+09 +2.03618642268E-01 -5.15913691613E-01 -2.91409865682E-03 -1.24342430208E-04 -2.98144087189E-03 -1.57274498592E-04 +3.24815429824E-01 -6.03969193663E-01
4.16500000000E+09 +1.86148432341E-01 -5.16670854223E-01 -2.76909499246E-03 +5.81761640325E-04 -2.86858888234E-03 +4.95262470507E-04 +3.04293844088E-01 -6.05873219733E-01
4.17000000000E+09 +1.69617316775E-01 -5.15988340579E-01 -2.55357210974E-03 +6.48499801477E-04 -2.60564780958E-03 +6.19684352481E-04 +2.84538099168E-01 -6.06809218689E-01
4.17500000000E+09 +1.53191298791E-01 -5.12671659160E-01 -2.62186301036E-03 +1.31171546068E-03 -2.74764110642E-03 +1.31346255395E-03 +2.63628968943E-01 -6.07786219829E-01
4.18000000000E+09 +1.37460544219E-01 -5.08513547742E-01 -1.69226804974E-03 +1.35690530629E-03 -1.80929861889E-03 +1.37820428176E-03 +2.43328458543E-01 -6.08672655503E-01
4.18500000000E+09 +1.20438778027E-01 -5.03554041424E-01 -1.89657258288E-03 +7.32198325627E-04 -1.96193173120E-03 +6.75893078021E-04 +2.21274187179E-01 -6.09980505880E-01
4.19000000000E+09 +1.02141829173E-01 -4.98086139554E-01 -2.40439936826E-03 +1.00838058419E-03 -2.51716808250E-03 +1.00172609963E-03 +1.98803537762E-01 -6.08831198641E-01
4.19500000000E+09 +8.32432804524E-02 -4.92182876595E-01 -2.50141403890E-03 +1.70153508791E-03 -2.61190405556E-03 +1.68695974419E-03 +1.77742712301E-01 -6.06967007033E-01
4.20000000000E+09 +6.38313104820E-02 -4.87931913828E-01 -2.26908816162E-03 +2.04903663802E-03 -2.40392277541E-03 +2.07726706068E-03 +1.56090102350E-01 -6.04882984332E-01
4.20500000000E+09 +4.37181702768E-02 -4.84282979492E-01 -2.01090905805E-03 +2.52484712732E-03 -2.14388579694E-03 +2.62125775671E-03 +1.33950212992E-01 -6.02035776845E-01
4.21000000000E+09 +2.39543099964E-02 -4.80249489982E-01 -1.43530319417E-03 +2.39742680425E-03 -1.50724883865E-03 +2.50118677323E-03 +1.11620704183E-01 -5.98911088507E-01
4.21500000000E+09 +4.94898758162E-03 -4.75967830174E-01 -1.51282047950E-03 +2.44466067406E-03 -1.66790517138E-03 +2.45721509570E-03 +8.84849818725E-02 -5.94659363371E-01
4.22000000000E+09 -1.27979910438E-02 -4.70294014286E-01 -1.68076709934E-03 +2.91086911868E-03 -1.79431677277E-03 +3.01510584914E-03 +6.66914567486E-02 -5.89541543363E-01
4.22500000000E+09 -2.89290196780E-02 -4.62445766148E-01 -1.06136889885E-03 +3.62488087142E-03 -1.13069734033E-03 +3.72656259559E-03 +4.46453900929E-02 -5.84682983172E-01
4.23000000000E+09 -4.32282095157E-02 -4.53909484694E-01 -3.41063715934E-04 +3.35926934105E-03 -3.38465729020E-04 +3.47693294739E-03 +2.24297623935E-02 -5.78265317833E-01
4.23500000000E+09 -5.82956544922E-02 -4.44304918478E-01 +4.64180087500E-05 +3.27035702737E-03 +2.87091977065E-05 +3.33771205845E-03 +5.83156402709E-04 -5.70605660209E-01
4.24000000000E+09 -7.49099656463E-02 -4.33228233215E-01 -1.40731116797E-04 +3.14128739595E-03 -1.26826223441E-04 +3.26632917001E-03 -2.19909510408E-02 -5.62023890764E-01
4.24500000000E+09 -9.26038332159E-02 -4.20646936470E-01 +2.83884280385E-04 +3.54739931587E-03 +3.29944397146E-04 +3.62477119247E-03 -4.37807597168E-02 -5.52068521070E-01
4.25000000000E+09 -1.11557867463E-01 -4.08062214358E-01 +6.21358905726E-04 +3.48691618316E-03 +6.18866918584E-04 +3.56662108996E-03 -6.56983736872E-02 -5.42606506604E-01
4.25500000000E+09 -1.31415795297E-01 -3.95229471176E-01 +1.09916762726E-03 +3.56741568279E-03 +1.19980636383E-03 +3.62345809328E-03 -8.86582856052E-02 -5.31100461333E-01
4.26000000000E+09 -1.51251990054E-01 -3.84149353817E-01 +1.29292089077E-03 +3.41830842696E-03 +1.33888646705E-03 +3.45626829569E-03 -1.09460837350E-01 -5.18012868520E-01
4.26500000000E+09 -1.72097263077E-01 -3.73647249248E-01 +1.79864637838E-03 +3.70849903305E-03 +1.81177776785E-03 +3.73706742173E-03 -1.30214581814E-01 -5.04812985942E-01
4.27000000000E+09 -1.91333051214E-01 -3.62211691497E-01 +2.49933148690E-03 +3.37891311014E-03 +2.64109128215E-03 +3.36699851925E-03 -1.50932712822E-01 -4.89645183371E-01
4.27500000000E+09 -2.07893731371E-01 -3.50883405266E-01 +2.95372189241E-03 +2.90113955599E-03 +3.08636861243E-03 +2.90919891166E-03 -1.70569918926E-01 -4.74338685693E-01
4.28000000000E+09 -2.22161680979E-01 -3.39017328019E-01 +3.14883175354E-03 +2.53077277863E-03 +3.25273394211E-03 +2.46505846509E-03 -1.90098966860E-01 -4.58383434065E-01
4.28500000000E+09 -2.35299434329E-01 -3.25792108823E-01 +3.18695120548E-03 +1.93630553979E-03 +3.25621129585E-03 +1.91408683624E-03 -2.09486567251E-01 -4.43021135284E-01
4.29000000000E+09 -2.45975736357E-01 -3.09913396825E-01 +3.09588067305E-03 +1.63898706658E-03 +3.08754792538E-03 +1.63101746588E-03 -2.28168379946E-01 -4.26855761394E-01
4.29500000000E+09 -2.56530595077E-01 -2.93176821168E-01 +2.74239165313E-03 +2.23585466989E-03 +2.83578390377E-03 +2.28064019863E-03 -2.47436906704E-01 -4.09568843866E-01
4.30000000000E+09 -2.67677070290E-01 -2.74684288868E-01 +4.00265559295E-03 +2.30194524740E-03 +4.09291999788E-03 +2.30721114810E-03 -2.64621317581E-01 -3.90231651786E-01
4.30500000000E+09 -2.79798301630E-01 -2.54669296749E-01 +4.68938355101E-03 +1.74077155197E-03 +4.74247318293E-03 +1.72933035489E-03 -2.80292684940E-01 -3.70281088203E-01
4.31000000000E+09 -2.92926218084E-01 -2.34284323008E-01 +5.56738572950E-03 +9.09480938107E-04 +5.60261208848E-03 +9.05160372019E-04 -2.95109092824E-01 -3.50539036819E-01
4.31500000000E+09 -3.06783017502E-01 -2.14242854117E-01 +5.44083602694E-03 -5.68021224372E-04 +5.55319187387E-03 -6.49956996368E-04 -3.10479260784E-01 -3.30034695999E-01
4.32000000000E+09 -3.20174783013E-01 -1.95217062480E-01 +4.67271444281E-03 -1.41054143809E-03 +4.79496595002E-03 -1.47543788782E-03 -3.23988140251E-01 -3.08231093618E-01
4.32500000000E+09 -3.33374408532E-01 -1.77612548730E-01 +3.97634886433E-03 -1.60350128686E-03 +4.01870822643E-03 -1.60184133531E-03 -3.37316008072E-01 -2.87272422716E-01
4.33000000000E+09 -3.44244706205E-01 -1.60416520540E-01 +4.15721605750E-03 -1.14041683724E-03 +4.21740438682E-03 -1.19713237145E-03 -3.50374641091E-01 -2.64826569146E-01
4.33500000000E+09 -3.52333789569E-01 -1.44031530338E-01 +4.47586774464E-03 -1.48568235821E-03 +4.45049922386E-03 -1.50078464760E-03 -3.62081842056E-01 -2.41131427587E-01
4.34000000000E+09 -3.58271515399E-01 -1.28165724200E-01 +5.07588980219E-03 -2.25207733943E-03 +5.05510068712E-03 -2.25984977443E-03 -3.73333042101E-01 -2.17428965266E-01
4.34500000000E+09 -3.62360909596E-01 -1.11253935071E-01 +4.82919181970E-03 -3.62565481726E-03 +4.83262703208E-03 -3.66347302359E-03 -3.83647282557E-01 -1.90899932200E-01
4.35000000000E+09 -3.64936325196E-01 -9.28051916788E-02 +3.90507223037E-03 -4.46544364542E-03 +3.89797382202E-03 -4.48009784104E-03 -3.90609230590E-01 -1.65816028798E-01
4.35500000000E+09 -3.67200102531E-01 -7.25092536717E-02 +3.29662056471E-03 -4.79410226012E-03 +3.31449431772E-03 -4.81541862536E-03 -3.98234097381E-01 -1.42467279385E-01
4.36000000000E+09 -3.70446178255E-01 -5.02056005656E-02 +2.37329920776E-03 -5.24521071682E-03 +2.42378995348E-03 -5.32801637877E-03 -4.04582515655E-01 -1.18271720077E-01
4.36500000000E+09 -3.73580099080E-01 -2.61789092160E-02 +1.64018588505E-03 -5.33333555268E-03 +1.60112483811E-03 -5.46942886278E-03 -4.10057900350E-01 -9.49054672017E-02
4.37000000000E+09 -3.77997654683E-01 -3.22512326866E-03 +6.88962423019E-04 -5.14021026576E-03 +6.43927901692E-04 -5.21448866457E-03 -4.14054403705E-01 -7.03180344191E-02
4.37500000000E+09 -3.83313776764E-01 +1.97812840622E-02 +4.72974152748E-04 -4.54610380135E-03 +3.64310917651E-04 -4.61348806919E-03 -4.17140048605E-01 -4.54286965392E-02
4.38000000000E+09 -3.88800864002E-01 +4.07877906262E-02 +6.99253462221E-04 -4.89515551614E-03 +6.13299869456E-04 -5.02168333306E-03 -4.19002512861E-01 -2.08503446440E-02
4.38500000000E+09 -3.93839933937E-01 +5.91981665579E-02 +3.78612324198E-04 -5.23060682813E-03 +2.32599966233E-04 -5.34824634598E-03 -4.20771780321E-01 +4.05623274749E-03
4.39000000000E+09 -3.97536305090E-01 +7.60921747294E-02 -4.32976335044E-04 -6.04689703174E-03 -6.08481795180E-04 -6.07735023008E-03 -4.21848660725E-01 +2.89227552743E-02
4.39500000000E+09 -3.99245711728E-01 +9.16568861602E-02 -2.04074913458E-03 -5.80266446069E-03 -2.25627401316E-03 -5.85443456387E-03 -4.21975249656E-01 +5.33348219282E-02
4.40000000000E+09 -3.98232741455E-01 +1.06482144030E-01 -2.50766642382E-03 -5.16541056591E-03 -2.66098961353E-03 -5.14403020269E-03 -4.20645633324E-01 +7.78961620315E-02
4.40500000000E+09 -3.95851005659E-01 +1.22584437196E-01 -3.47724984703E-03 -4.67835433124E-03 -3.65656837051E-03 -4.60082687784E-03 -4.17778047318E-01 +1.01713238907E-01
4.41000000000E+09 -3.90228639696E-01 +1.39786641045E-01 -3.44811914496E-03 -3.69400516827E-03 -3.57449192482E-03 -3.59769170876E-03 -4.14029141872E-01 +1.25069362067E-01
4.41500000000E+09 -3.84605915823E-01 +1.58318596472E-01 -3.66402067295E-03 -3.40824042042E-03 -3.73384418615E-03 -3.32444762818E-03 -4.09174703784E-01 +1.48990846937E-01
4.42000000000E+09 -3.79608232366E-01 +1.79139736577E-01 -3.73649771432E-03 -3.20465447689E-03 -3.82825083417E-03 -3.13122271806E-03 -4.04165276119E-01 +1.71538420959E-01
4.42500000000E+09 -3.74797991242E-01 +2.01352945445E-01 -4.16646038617E-03 -3.10683349598E-03 -4.19741152648E-03 -2.97688867754E-03 -3.97859708553E-01 +1.94736021420E-01
4.43000000000E+09 -3.70869702361E-01 +2.23225570827E-01 -4.40065292497E-03 -2.61540396628E-03 -4.38334686376E-03 -2.47558026310E-03 -3.91810751538E-01 +2.15841884852E-01
4.43500000000E+09 -3.68123842659E-01 +2.44379562098E-01 -5.22492862333E-03 -2.43644996375E-03 -5.16104621656E-03 -2.29649435604E-03 -3.85993873973E-01 +2.37349195446E-01
4.44000000000E+09 -3.65672085175E-01 +2.63279748236E-01 -5.42869262925E-03 -1.31430524779E-03 -5.38128083982E-03 -1.22089345199E-03 -3.77913150468E-01 +2.60488863561E-01
4.44500000000E+09 -3.63841410549E-01 +2.79442910002E-01 -5.18977536339E-03 -6.58379472847E-04 -5.20162442906E-03 -5.75783958815E-04 -3.68377458898E-01 +2.80162226265E-01
4.45000000000E+09 -3.61235936852E-01 +2.94066068733E-01 -5.39970223658E-03 -5.00674925323E-05 -5.29416996834E-03 +3.14566918665E-05 -3.58680472010E-01 +2.99877690271E-01
4.45500000000E+09 -3.56449767496E-01 +3.06979422029E-01 -5.04548646615E-03 +7.82875268676E-04 -4.98655875713E-03 +9.05251794811E-04 -3.47681172901E-01 +3.18260872222E-01
4.46000000000E+09 -3.50182484469E-01 +3.19210918278E-01 -4.53933104869E-03 +9.79595142454E-04 -4.40584684458E-03 +1.12281598125E-03 -3.38983050265E-01 +3.35416778655E-01
4.46500000000E+09 -3.40972493794E-01 +3.32730869764E-01 -4.37959877725E-03 +1.16362539762E-03 -4.34152341445E-03 +1.24291775742E-03 -3.27647434313E-01 +3.54453778498E-01
4.47000000000E+09 -3.29322944535E-01 +3.46967106659E-01 -4.29720530498E-03 +1.03722158880E-03 -4.17959668799E-03 +1.03765368913E-03 -3.16193718099E-01 +3.71469893167E-01
4.47500000000E+09 -3.16921703308E-01 +3.62751753069E-01 -5.41756739237E-03 +1.66654377308E-03 -5.37762834266E-03 +1.74374807055E-03 -3.04851981194E-01 +3.87739873386E-01
4.48000000000E+09 -3.04388324999E-01 +3.79918917007E-01 -4.76365296528E-03 +3.09255645533E-03 -4.60537794563E-03 +3.18733280311E-03 -2.93481405330E-01 +4.04452702022E-01
4.48500000000E+09 -2.92137372371E-01 +3.97910726344E-01 -3.92866692081E-03 +3.76203154576E-03 -3.75773767571E-03 +3.73421272728E-03 -2.81575496094E-01 +4.20480379852E-01
4.49000000000E+09 -2.82380631973E-01 +4.14767529291E-01 -3.33469061596E-03 +4.02374400015E-03 -3.18464328934E-03 +3.92824957552E-03 -2.68543417320E-01 +4.36373854568E-01
4.49500000000E+09 -2.74407190975E-01 +4.32447814147E-01 -2.54216354699E-03 +4.05780656022E-03 -2.49029060285E-03 +4.00639394194E-03 -2.55239453757E-01 +4.50378618382E-01
4.50000000000E+09 -2.67194027836E-01 +4.47106532433E-01 -2.24947814551E-03 +4.02530360509E-03 -2.27333368703E-03 +3.97433329672E-03 -2.42420635452E-01 +4.64033244185E-01
4.50500000000E+09 -2.61285891418E-01 +4.59985369265E-01 -1.91782653145E-03 +4.15710324535E-03 -1.85760911106E-03 +4.11315940382E-03 -2.29246058813E-01 +4.76819848430E-01
4.51000000000E+09 -2.54480653967E-01 +4.70483580743E-01 -1.64679177976E-03 +4.20243310206E-03 -1.59515631008E-03 +4.23029119084E-03 -2.16699101471E-01 +4.90007790897E-01
4.51500000000E+09 -2.46255055893E-01 +4.78859884134E-01 -1.19783878399E-03 +4.51346594270E-03 -1.14014025693E-03 +4.49786831167E-03 -2.03065344760E-01 +5.02562392596E-01
4.52000000000E+09 -2.36541592910E-01 +4.86060785793E-01 -8.23748346725E-04 +4.61329021432E-03 -7.16726367257E-04 +4.55499877127E-03 -1.89701275814E-01 +5.14469030566E-01
4.52500000000E+09 -2.24742573084E-01 +4.93849504771E-01 -1.89036128601E-04 +4.46498148329E-03 -1.39857274115E-04 +4.41587300940E-03 -1.76211712491E-01 +5.25587176174E-01
4.53000000000E+09 -2.10329474774E-01 +5.02016605570E-01 +4.45043229791E-05 +4.72094664666E-03 +8.76605228625E-05 +4.68845187493E-03 -1.62073388648E-01 +5.36152970468E-01
4.53500000000E+09 -1.95005178854E-01 +5.11534539201E-01 +7.77801716111E-04 +4.41559546064E-03 +8.43708611758E-04 +4.34803916667E-03 -1.47708736410E-01 +5.46283714224E-01
4.54000000000E+09 -1.79162394685E-01 +5.22465358410E-01 +1.14630603560E-03 +4.31363247422E-03 +1.26375729358E-03 +4.14537997732E-03 -1.32933594334E-01 +5.56285182861E-01
4.54500000000E+09 -1.63744607790E-01 +5.33489494587E-01 +1.07592712087E-03 +4.24838152642E-03 +1.17330581790E-03 +4.17953297964E-03 -1.17883445629E-01 +5.65099483451E-01
4.55000000000E+09 -1.50824541318E-01 +5.44014194333E-01 +2.16798061699E-03 +4.38055643625E-03 +2.22863755177E-03 +4.21716823646E-03 -1.03392235257E-01 +5.74234983882E-01
4.55500000000E+09 -1.40575814589E-01 +5.54979042601E-01 +2.50076889323E-03 +3.66051820331E-03 +2.48465953474E-03 +3.48781627464E-03 -8.96433205485E-02 +5.82482436363E-01
4.56000000000E+09 -1.31287271595E-01 +5.64998732095E-01 +2.48241795848E-03 +3.38154813393E-03 +2.54139163045E-03 +3.28151421979E-03 -7.54375774735E-02 +5.91376946319E-01
4.56500000000E+09 -1.22905020010E-01 +5.72941031548E-01 +3.02114175241E-03 +3.24015149761E-03 +3.00812132440E-03 +3.06257156415E-03 -6.11421838050E-02 +5.99303752160E-01
4.57000000000E+09 -1.14404739378E-01 +5.79482724874E-01 +3.05737239927E-03 +2.75199517850E-03 +3.01450831768E-03 +2.64098247515E-03 -4.62272676932E-02 +6.06707062672E-01
