# Hz S RI R 50
! CMT, C1220, 16058040, 17.2.0/1
! Date: 15/08/2018 12:31:39
! Data: Format (Calibration Info)
! Freq                      S11: Re/Im (F2)                       S21: Re/Im (F2)                       S12: Re/Im (F2)                       S22: Re/Im (F2)            
4.00000000000E+09 +6.62930066948E-01 -3.58903398587E-01 -2.69559554287E-04 -4.61556633724E-04 -2.57943140406E-04 -4.67408844210E-04 +7.82464173575E-01 -3.17573764176E-01
4.00500000000E+09 +6.55212828994E-01 -3.65843360252E-01 -1.87516290076E-04 -3.25074487228E-04 -1.29428542456E-04 -2.91876392721E-04 +7.73868189849E-01 -3.29157213446E-01
4.01000000000E+09 +6.46257807606E-01 -3.72222916870E-01 -2.89336853555E-04 -4.28646458947E-04 -2.38422028364E-04 -4.71076529370E-04 +7.65094965500E-01 -3.40912194228E-01
4.01500000000E+09 +6.37066227335E-01 -3.78913901926E-01 -3.07495178310E-04 -2.23924308873E-04 -2.96639426084E-04 -2.87695055067E-04 +7.56371635056E-01 -3.51703350408E-01
4.02000000000E+09 +6.26933634808E-01 -3.87313244388E-01 -2.64884341511E-04 -3.37480379352E-04 -2.23332949208E-04 -3.35730394242E-04 +7.47432814461E-01 -3.62196502862E-01
4.02500000000E+09 +6.16337499241E-01 -3.96700049199E-01 -3.55052554410E-04 -3.13393802338E-04 -2.62127518120E-04 -3.67863113762E-04 +7.37828859593E-01 -3.72225935094E-01
4.03000000000E+09 +6.04945224495E-01 -4.07265525215E-01 -4.43041381555E-04 -3.88955663265E-04 -4.00236821048E-04 -4.21340134291E-04 +7.27961585701E-01 -3.82558016651E-01
4.03500000000E+09 +5.93426673327E-01 -4.17954414659E-01 -5.38211521522E-04 -3.39608564653E-04 -5.14062495083E-04 -3.81801226769E-04 +7.17115495237E-01 -3.93468588146E-01
4.04000000000E+09 +5.82423134587E-01 -4.28482546163E-01 -7.19312085858E-04 -1.03104262567E-04 -7.89443774419E-04 -2.39430845722E-04 +7.06393315940E-01 -4.04534563602E-01
4.04500000000E+09 +5.70712901334E-01 -4.38679310722E-01 -6.14793740334E-04 +1.72375968568E-04 -6.48498140962E-04 +1.27701736426E-04 +6.95509800226E-01 -4.15751691942E-01
4.05000000000E+09 +5.59388805698E-01 -4.46559357086E-01 -4.29088791982E-04 +5.63013924033E-05 -4.99756664679E-04 +6.29946869822E-05 +6.84679508928E-01 -4.26336429724E-01
4.05500000000E+09 +5.48138180399E-01 -4.53846222055E-01 -4.23279052178E-04 +9.58325710572E-05 -5.06005201358E-04 +1.06374158987E-04 +6.73505759886E-01 -4.35534137280E-01
4.06000000000E+09 +5.35570806225E-01 -4.59587550151E-01 -3.37844535402E-04 +3.89011665057E-05 -4.32669892246E-04 +3.45133572884E-05 +6.62299048909E-01 -4.44764818924E-01
4.06500000000E+09 +5.22920845108E-01 -4.64127576960E-01 -4.64728122371E-04 -7.45239587376E-06 -4.95031825014E-04 +1.68847301959E-06 +6.49840576988E-01 -4.54118791261E-01
4.07000000000E+09 +5.08983974043E-01 -4.69590470382E-01 -4.84312146935E-04 +1.00159600730E-04 -5.40516878619E-04 +7.78760855207E-05 +6.36799883313E-01 -4.63837411164E-01
4.07500000000E+09 +4.93728540553E-01 -4.74908900068E-01 -5.79739777591E-04 +8.88936729448E-05 -6.09909163249E-04 +1.44721048783E-04 +6.23295703075E-01 -4.74048391192E-01
4.08000000000E+09 +4.77638349705E-01 -4.80846481825E-01 -7.05331844361E-04 +2.82178245063E-04 -7.46802783033E-04 +3.03960544337E-04 +6.09976677195E-01 -4.83747220329E-01
4.08500000000E+09 +4.60670569717E-01 -4.87576738206E-01 -5.40836813572E-04 +5.35392572094E-04 -5.71364568045E-04 +5.83958600527E-04 +5.96831404981E-01 -4.93468010070E-01
4.09000000000E+09 +4.43638359590E-01 -4.94483792375E-01 -3.67471334681E-04 +5.03892162653E-04 -3.50091265973E-04 +5.31735596251E-04 +5.83132800190E-01 -5.02043762069E-01
4.09500000000E+09 +4.27236205182E-01 -5.01754153803E-01 -2.43824832498E-04 +3.71996435862E-04 -2.27229376237E-04 +4.10206789518E-04 +5.68982114877E-01 -5.09823371607E-01
4.10000000000E+09 +4.09847502890E-01 -5.08343582714E-01 -3.98001371582E-04 +3.83800648410E-04 -3.37304857375E-04 +3.71347702488E-04 +5.54261195305E-01 -5.17691747140E-01
4.10500000000E+09 +3.93388459433E-01 -5.13096629406E-01 -5.29097476666E-04 +5.35053938261E-04 -4.78382668113E-04 +5.15833300065E-04 +5.38467649691E-01 -5.25653609705E-01
4.11000000000E+09 +3.77440344607E-01 -5.16782031975E-01 -2.87446870010E-04 +7.06142814272E-04 -2.94734978594E-04 +6.68369797060E-04 +5.22246659600E-01 -5.33826907176E-01
4.11500000000E+09 +3.61347163972E-01 -5.19041156623E-01 -9.76504670191E-05 +7.53892442218E-04 -1.02634437871E-04 +7.75156542756E-04 +5.06015221293E-01 -5.41764881189E-01
4.12000000000E+09 +3.44035759150E-01 -5.20280495233E-01 -4.36764173627E-05 +8.16131216984E-04 -1.74703085362E-04 +8.58265387214E-04 +4.90031868813E-01 -5.49233194123E-01
4.12500000000E+09 +3.26727750965E-01 -5.20462828649E-01 +1.39228345351E-04 +8.77739876485E-04 +1.01817100424E-04 +9.09994560178E-04 +4.73481328366E-01 -5.55716707480E-01
4.13000000000E+09 +3.08453018688E-01 -5.22101801117E-01 +3.39934866910E-04 +6.46829489445E-04 +3.38532437518E-04 +7.43328987502E-04 +4.56697421720E-01 -5.62118821240E-01
4.13500000000E+09 +2.88665143219E-01 -5.23884188279E-01 +2.61086424379E-04 +5.65893595765E-04 +2.11808353964E-04 +6.59080545456E-04 +4.38421348482E-01 -5.68032235349E-01
4.14000000000E+09 +2.68779970216E-01 -5.26710427213E-01 +2.84106615081E-04 +5.27727678765E-04 +2.71072932010E-04 +5.87717108469E-04 +4.19827155096E-01 -5.73720277655E-01
4.14500000000E+09 +2.48198474162E-01 -5.30914075168E-01 +1.07647953846E-04 +5.15503967710E-04 +1.39232019277E-04 +5.68963417989E-04 +4.00849543227E-01 -5.79414735278E-01
4.15000000000E+09 +2.27340692756E-01 -5.34361780455E-01 +2.88255442889E-04 +9.23778445666E-04 +2.77535895142E-04 +9.74509474605E-04 +3.82861569463E-01 -5.84348104572E-01
4.15500000000E+09 +2.07806763581E-01 -5.37617800257E-01 +5.77897501393E-04 +8.40196806367E-04 +6.22612372871E-04 +8.56430919460E-04 +3.64761353493E-01 -5.89025018375E-01
4.16000000000E+09 +1.89221360363E-01 -5.39740148591E-01 +9.30358883659E-04 +6.33063567456E-04 +9.49527789903E-04 +6.69857067844E-04 +3.46604754269E-01 -5.92263182502E-01
4.16500000000E+09 +1.71280544272E-01 -5.39941049033E-01 +9.82778732211E-04 +1.24246962473E-04 +1.03715456537E-03 +1.58677814262E-04 +3.27647054048E-01 -5.95513573517E-01
4.17000000000E+09 +1.54110414259E-01 -5.38170700271E-01 +5.10925572573E-04 +2.56447899934E-04 +6.14036190154E-04 +2.76184951825E-04 +3.07755050931E-01 -5.98055351417E-01
4.17500000000E+09 +1.37827203301E-01 -5.33819901837E-01 +7.89261010204E-04 +1.62194259041E-04 +8.79404747420E-04 +1.89684433823E-04 +2.86355949945E-01 -6.00360655837E-01
4.18000000000E+09 +1.21496415310E-01 -5.29609415783E-01 +6.25420420821E-04 -2.05489916265E-04 +6.77419938234E-04 -2.55814088229E-04 +2.65450917516E-01 -6.02078624739E-01
4.18500000000E+09 +1.02870689458E-01 -5.24212136637E-01 +1.09539358444E-04 +2.17598046625E-04 +7.13904616497E-05 +2.20733920455E-04 +2.44627947904E-01 -6.03373046725E-01
4.19000000000E+09 +8.37282103741E-02 -5.18001038867E-01 +8.35354210617E-04 +6.83706524689E-04 +8.06858399016E-04 +6.66573462122E-04 +2.24051967750E-01 -6.03843890331E-01
4.19500000000E+09 +6.36302633012E-02 -5.12571942341E-01 +1.01574355284E-03 +1.19468937413E-05 +1.03751152914E-03 +3.63789989587E-05 +2.02816899420E-01 -6.02717593684E-01
4.20000000000E+09 +4.24684544976E-02 -5.06841252374E-01 +9.09785065844E-04 +1.97710590302E-05 +8.47842454463E-04 +2.52319401923E-05 +1.81975104417E-01 -6.01070505918E-01
4.20500000000E+09 +2.22847710891E-02 -5.01530151494E-01 +1.29999443497E-03 -1.36591293148E-04 +1.29480437737E-03 -1.57157496581E-04 +1.59515348062E-01 -5.99074764314E-01
4.21000000000E+09 +2.60613283852E-03 -4.96300594353E-01 +1.04719911686E-03 -8.22454989196E-04 +1.04944094150E-03 -8.63086661807E-04 +1.36743762110E-01 -5.96685965838E-01
4.21500000000E+09 -1.54788559106E-02 -4.90415824341E-01 +5.85896782487E-04 -6.01202374602E-04 +5.27509762612E-04 -6.04068788200E-04 +1.14271134217E-01 -5.93848431698E-01
4.22000000000E+09 -3.25453245895E-02 -4.83996785353E-01 +5.79784831397E-04 -5.75137587501E-04 +5.33278358598E-04 -5.57118231331E-04 +9.25790689400E-02 -5.90627499732E-01
4.22500000000E+09 -4.87263270383E-02 -4.75351353105E-01 +8.28177645685E-04 -4.48288835095E-04 +7.86920359332E-04 -3.98893983477E-04 +7.07345623172E-02 -5.86046149638E-01
4.23000000000E+09 -6.38621728168E-02 -4.64915634646E-01 +8.09136576746E-04 -1.01144263211E-03 +8.18315690793E-04 -9.38168329896E-04 +4.97896639861E-02 -5.80315951797E-01
4.23500000000E+09 -7.99537541412E-02 -4.52748170298E-01 +2.78486546754E-04 -1.03146522660E-03 +2.63538440997E-04 -9.79636838503E-04 +2.75933487249E-02 -5.73656764753E-01
4.24000000000E+09 -9.66432690180E-02 -4.38135866961E-01 +2.00079684392E-04 -6.88424987074E-04 +2.03731632531E-04 -6.73241944718E-04 +5.41225546319E-03 -5.65416461171E-01
4.24500000000E+09 -1.12916154747E-01 -4.23319670702E-01 +4.54974214196E-04 -9.21843219803E-04 +5.63051442256E-04 -9.13625836772E-04 -1.71764926706E-02 -5.57248743026E-01
4.25000000000E+09 -1.31898193530E-01 -4.09468376839E-01 +1.50846961546E-04 -1.37876778781E-03 +2.01830110402E-04 -1.43417489158E-03 -3.94857418113E-02 -5.48126514636E-01
4.25500000000E+09 -1.51976580239E-01 -3.95489928272E-01 -4.82014842723E-04 -8.97799454105E-04 -4.21797355663E-04 -9.65981798112E-04 -6.01796606115E-02 -5.38275504958E-01
4.26000000000E+09 -1.72462830874E-01 -3.81979868793E-01 -4.60383978159E-05 -7.45264318849E-04 -1.43012409730E-05 -7.22091681222E-04 -8.09171416156E-02 -5.28112643308E-01
4.26500000000E+09 -1.92541622654E-01 -3.68829503632E-01 -1.20726302781E-04 -1.08171234732E-03 -7.97278903776E-05 -1.14438842751E-03 -1.01166475937E-01 -5.16769673208E-01
4.27000000000E+09 -2.10189577600E-01 -3.55695095173E-01 -7.34683842339E-04 -1.09618154781E-03 -7.16017424230E-04 -1.16326310570E-03 -1.22864168827E-01 -5.04204694311E-01
4.27500000000E+09 -2.25268640270E-01 -3.42968743061E-01 -6.98876406303E-04 -6.42699635026E-04 -7.29628304308E-04 -7.17815210219E-04 -1.44089585726E-01 -4.89191726928E-01
4.28000000000E+09 -2.38317285173E-01 -3.29839870610E-01 -8.28831928109E-04 -5.45234189335E-04 -8.60765725688E-04 -5.88995220548E-04 -1.64528505000E-01 -4.74561893239E-01
4.28500000000E+09 -2.49468284132E-01 -3.15130363588E-01 -7.00307340490E-04 -3.28609011727E-04 -7.70568248298E-04 -3.68064378061E-04 -1.84444057666E-01 -4.60193025629E-01
4.29000000000E+09 -2.59674764274E-01 -2.98683120051E-01 -9.17431022444E-04 -3.12099256191E-04 -8.89729057700E-04 -3.31882827083E-04 -2.03922605184E-01 -4.45169305285E-01
4.29500000000E+09 -2.69089235812E-01 -2.80315426584E-01 -5.89310846039E-04 +1.63933605603E-04 -6.56040757177E-04 +1.11667369243E-04 -2.22169813707E-01 -4.29234643643E-01
4.30000000000E+09 -2.79354166720E-01 -2.60585685539E-01 -3.55037507086E-04 -1.00206162676E-04 -4.17188231289E-04 -1.74486296300E-04 -2.39634572321E-01 -4.12071780038E-01
4.30500000000E+09 -2.90523824790E-01 -2.39595849083E-01 -5.59411332992E-04 -3.49094920092E-04 -5.93607369989E-04 -3.77098160682E-04 -2.56811726261E-01 -3.93190112185E-01
4.31000000000E+09 -3.02830878473E-01 -2.18129619720E-01 -7.30346951958E-04 +1.05445643625E-04 -7.70735895649E-04 +1.50481468248E-04 -2.72656480940E-01 -3.74093652651E-01
4.31500000000E+09 -3.15361626940E-01 -1.97046307531E-01 -5.54032263593E-04 -1.30020900996E-04 -6.21421461991E-04 -1.04738714746E-04 -2.88454083799E-01 -3.54513941557E-01
4.32000000000E+09 -3.27543717868E-01 -1.77639762821E-01 -7.74843316078E-04 +3.67842230173E-04 -7.84959232832E-04 +3.72036748497E-04 -3.02928985829E-01 -3.34782641824E-01
4.32500000000E+09 -3.39241280767E-01 -1.59267397919E-01 -2.90383626772E-05 +2.96033473625E-04 +1.59077344863E-05 +3.19359168409E-04 -3.17860760659E-01 -3.15078169116E-01
4.33000000000E+09 -3.47958561707E-01 -1.42159767083E-01 -5.03926465065E-04 -8.42735894489E-07 -5.92225691275E-04 -1.12440491947E-05 -3.30677305483E-01 -2.92990802887E-01
4.33500000000E+09 -3.55007194040E-01 -1.26997965386E-01 -1.23406266040E-04 +4.84760009120E-04 -1.56328424055E-04 +5.72618273895E-04 -3.42872976136E-01 -2.71749556184E-01
4.34000000000E+09 -3.60973078422E-01 -1.10572073759E-01 +1.21680805734E-04 -8.41426513059E-05 +1.35597934159E-04 -7.61423627071E-05 -3.55364917418E-01 -2.48200921765E-01
4.34500000000E+09 -3.63116581099E-01 -9.21957035602E-02 -3.74585539654E-04 -4.69371481496E-04 -3.65246801149E-04 -4.16284715604E-04 -3.65805553758E-01 -2.25196454837E-01
4.35000000000E+09 -3.64407978748E-01 -7.32336331240E-02 -6.25789557203E-04 +2.12111541475E-04 -5.58475135383E-04 +1.95237566288E-04 -3.77160055422E-01 -2.02387234713E-01
4.35500000000E+09 -3.64303157972E-01 -5.17021631468E-02 -4.62525353460E-04 +1.39363582147E-04 -3.62667387257E-04 +9.06084656089E-05 -3.86796379259E-01 -1.78617406597E-01
4.36000000000E+09 -3.64798576666E-01 -2.96215851638E-02 -4.51931791200E-04 +2.44858992514E-04 -3.67237581582E-04 +1.62738539879E-04 -3.94455571043E-01 -1.55798226739E-01
4.36500000000E+09 -3.66917732376E-01 -6.73583470381E-03 -3.46376938133E-04 +3.00135014658E-04 -3.39494918113E-04 +2.71368614944E-04 -4.02035744964E-01 -1.32944401614E-01
4.37000000000E+09 -3.70082862429E-01 +1.67205522815E-02 -1.85108983772E-04 +3.32606400447E-04 -1.81223589880E-04 +3.32308397808E-04 -4.08040297804E-01 -1.08873052260E-01
4.37500000000E+09 -3.74697202573E-01 +3.92638661189E-02 +2.38032670973E-04 -1.49680092957E-04 +3.14784037304E-04 -1.70651517327E-04 -4.13272914847E-01 -8.38303312871E-02
4.38000000000E+09 -3.79009395829E-01 +6.09345269392E-02 -6.60193966817E-04 -5.32887293029E-04 -6.00022208648E-04 -6.02356050292E-04 -4.17424979459E-01 -5.96054035628E-02
4.38500000000E+09 -3.81380939251E-01 +7.95133755796E-02 -9.32901822032E-04 +3.32695681513E-04 -1.04425848999E-03 +2.71013161001E-04 -4.21219776435E-01 -3.44462574453E-02
4.39000000000E+09 -3.83864357603E-01 +9.56389891295E-02 -4.14567057300E-04 +5.59291150930E-04 -4.44323033261E-04 +5.01914420295E-04 -4.23017866062E-01 -1.00233744974E-02
4.39500000000E+09 -3.83729885730E-01 +1.11174314163E-01 -4.63017297252E-04 +3.47893514308E-04 -4.95328301276E-04 +3.55856570908E-04 -4.24521580058E-01 +1.36672205928E-02
4.40000000000E+09 -3.80899889699E-01 +1.25900803620E-01 -1.72763671550E-04 +7.37321270602E-04 -2.20876682109E-04 +7.45266739311E-04 -4.23997671226E-01 +3.76817163821E-02
4.40500000000E+09 -3.75861595480E-01 +1.40747236362E-01 -5.23242190243E-07 +2.78306840235E-04 -4.08656481617E-05 +2.76091942199E-04 -4.23513598927E-01 +6.06467340659E-02
4.41000000000E+09 -3.69772575495E-01 +1.56886028344E-01 -8.13264707061E-05 +2.56409874478E-04 -1.49680824292E-04 +3.03816125990E-04 -4.22268007962E-01 +8.51751754817E-02
4.41500000000E+09 -3.63003383937E-01 +1.75696494695E-01 -1.75603959898E-04 +8.47269525579E-05 -1.93317708735E-04 +1.26440332039E-04 -4.20234248756E-01 +1.08765828287E-01
4.42000000000E+09 -3.56259997950E-01 +1.96604188365E-01 -6.42319504566E-04 +1.15772484657E-04 -7.27482466665E-04 +1.71720365720E-04 -4.17414342234E-01 +1.33421100652E-01
4.42500000000E+09 -3.50063180623E-01 +2.18252802016E-01 -6.03150726127E-04 +6.52808440460E-04 -6.24927187039E-04 +7.22355089858E-04 -4.11774507709E-01 +1.55728699575E-01
4.43000000000E+09 -3.45136993871E-01 +2.40561727355E-01 -3.39983839613E-04 +8.34127726009E-04 -4.20870917570E-04 +9.11099725907E-04 -4.08270173114E-01 +1.77358026621E-01
4.43500000000E+09 -3.40349205250E-01 +2.61386905864E-01 -2.14385303045E-04 +9.33945925229E-04 -1.62443010780E-04 +1.00186812425E-03 -4.02111677148E-01 +2.00335056525E-01
4.44000000000E+09 -3.36913303095E-01 +2.78886067084E-01 +3.14560246439E-04 +9.12225742214E-04 +3.47441274250E-04 +9.63072993955E-04 -3.95938430391E-01 +2.21522633094E-01
4.44500000000E+09 -3.34933748599E-01 +2.94775977237E-01 +1.94545329443E-04 +3.29358382015E-04 +2.78535697197E-04 +3.71656648758E-04 -3.89824373746E-01 +2.43254869306E-01
4.45000000000E+09 -3.32200305611E-01 +3.08764504509E-01 -1.76870019832E-04 +4.55076310208E-04 -7.04275582320E-05 +5.29920513560E-04 -3.82872024706E-01 +2.64402759488E-01
4.45500000000E+09 -3.27302032511E-01 +3.21575207108E-01 -1.43964790986E-04 +7.58130609145E-04 -6.17394843128E-05 +7.67644941395E-04 -3.74613729770E-01 +2.84470986144E-01
4.46000000000E+09 -3.20259969176E-01 +3.33524592059E-01 -3.06433471875E-06 +7.61123519647E-04 +9.20390201839E-05 +7.53664456615E-04 -3.66539730520E-01 +3.03518796538E-01
4.46500000000E+09 -3.10760936624E-01 +3.45563186134E-01 +2.08134666634E-04 +8.75055570035E-04 +3.05003387437E-04 +8.68657988759E-04 -3.56834965557E-01 +3.23204107774E-01
4.47000000000E+09 -2.99353300691E-01 +3.58810276587E-01 +2.97110075680E-04 +9.43856130139E-04 +4.16228639473E-04 +8.79414442648E-04 -3.45787197659E-01 +3.41875719562E-01
4.47500000000E+09 -2.86826813012E-01 +3.72894367029E-01 +4.25655724092E-04 +9.30185315835E-04 +4.56374785878E-04 +7.70833683862E-04 -3.35269155901E-01 +3.60716343807E-01
4.48000000000E+09 -2.75294702879E-01 +3.89344695373E-01 +7.68078422982E-04 +1.01089617021E-03 +7.83045846039E-04 +8.79410213104E-04 -3.23303277132E-01 +3.79272982777E-01
4.48500000000E+09 -2.62850897137E-01 +4.06821169331E-01 +7.81602138833E-04 +4.79155844405E-04 +7.75866906433E-04 +3.26269718688E-04 -3.11758854203E-01 +3.96111266154E-01
4.49000000000E+09 -2.52275489439E-01 +4.22976583349E-01 +6.49902241170E-04 +6.36158952636E-04 +5.88463233078E-04 +5.14478085671E-04 -3.00586547256E-01 +4.12022538320E-01
4.49500000000E+09 -2.44066764541E-01 +4.38793744996E-01 +7.48223276271E-04 +6.02897967035E-04 +7.23994630311E-04 +5.14600502532E-04 -2.89350793262E-01 +4.27496403280E-01
4.50000000000E+09 -2.37003614093E-01 +4.51796212580E-01 +8.12631441137E-04 +8.88203369007E-04 +7.05787864652E-04 +8.32729037885E-04 -2.77127510256E-01 +4.43074068675E-01
4.50500000000E+09 -2.32617141795E-01 +4.63430948214E-01 +1.50409839712E-03 +7.59123991347E-04 +1.38951189224E-03 +7.37991969352E-04 -2.63942375959E-01 +4.57671625993E-01
4.51000000000E+09 -2.26502812807E-01 +4.73661139704E-01 +1.57538464153E-03 -5.33803257049E-05 +1.52850232516E-03 -4.20836725961E-05 -2.50875037820E-01 +4.72205560330E-01
4.51500000000E+09 -2.19428263907E-01 +4.81411395117E-01 +1.33868123661E-03 +1.38475929335E-05 +1.20923817605E-03 +2.90347344590E-05 -2.37403169962E-01 +4.86493387094E-01
4.52000000000E+09 -2.10077071110E-01 +4.89131458684E-01 +1.61365346372E-03 -3.52040262267E-04 +1.53114999574E-03 -3.23914299787E-04 -2.24362253278E-01 +4.99364417125E-01
4.52500000000E+09 -1.98193961456E-01 +4.95008067492E-01 +1.15518016231E-03 -6.94004346618E-04 +1.11224530504E-03 -6.06263501067E-04 -2.11136964050E-01 +5.11960911452E-01
4.53000000000E+09 -1.85046786268E-01 +5.02497089227E-01 +9.58106128042E-04 -5.28461801583E-04 +9.75421280616E-04 -4.34180276121E-04 -1.97497103456E-01 +5.23425116370E-01
4.53500000000E+09 -1.69797080327E-01 +5.11055088925E-01 +9.13640914580E-04 -5.92595989596E-04 +9.48661315055E-04 -5.04947993538E-04 -1.83192362791E-01 +5.35484351883E-01
4.54000000000E+09 -1.54641016570E-01 +5.20480141192E-01 +1.15918513017E-03 -4.41746724671E-04 +1.21444204672E-03 -3.82709996505E-04 -1.67384471120E-01 +5.46317434982E-01
4.54500000000E+09 -1.39671757729E-01 +5.31356391858E-01 +1.32800431464E-03 -1.15616793240E-03 +1.34417486000E-03 -1.06242923814E-03 -1.52606388604E-01 +5.56354357133E-01
4.55000000000E+09 -1.25936119664E-01 +5.41667401009E-01 +9.15200202185E-04 -1.13369808839E-03 +9.53364216555E-04 -1.11877517978E-03 -1.37766025485E-01 +5.66984836493E-01
4.55500000000E+09 -1.14584129630E-01 +5.51830142177E-01 +7.82790203923E-04 -1.43404318281E-03 +8.32361044409E-04 -1.47067499008E-03 -1.23444120993E-01 +5.76548998772E-01
4.56000000000E+09 -1.04449590687E-01 +5.61099465134E-01 +3.22500205847E-04 -1.29147731124E-03 +3.97407835841E-04 -1.37765215795E-03 -1.08899766027E-01 +5.85513955367E-01
4.56500000000E+09 -9.59176912684E-02 +5.68760478698E-01 +2.59835315815E-04 -1.43337381913E-03 +3.42054041438E-04 -1.51141465894E-03 -9.48242987339E-02 +5.94200313424E-01
4.57000000000E+09 -8.67985586675E-02 +5.75571850800E-01 +3.67896676930E-05 -1.37789981053E-03 +7.65810453105E-05 -1.43951741356E-03 -7.88746969406E-02 +6.02789562019E-01
