# Hz S RI R 50
! CMT, C1220, 16058040, 17.2.0/1
! Date: 15/08/2018 12:10:30
! Data: Format (Calibration Info)
! Freq                      S11: Re/Im (F2)                       S21: Re/Im (F2)                       S12: Re/Im (F2)                       S22: Re/Im (F2)            
4.00000000000E+09 +6.53236760930E-01 -3.56750132835E-01 -1.57243464378E-04 -2.89093562579E-04 -1.40143030666E-04 -3.93028915871E-04 +7.66645462646E-01 -3.21707372373E-01
4.00500000000E+09 +6.44975239734E-01 -3.62806607674E-01 -1.52115080956E-04 -6.94721636633E-05 -1.92930806414E-04 -1.93772115048E-04 +7.57341317048E-01 -3.32248479727E-01
4.01000000000E+09 +6.36154945686E-01 -3.68566323267E-01 +1.28706927871E-04 -1.01718413239E-04 +4.57952387200E-05 -1.77525034544E-04 +7.47578640709E-01 -3.42543943461E-01
4.01500000000E+09 +6.26482702824E-01 -3.75237768733E-01 +2.40520744910E-05 -3.69460860329E-04 +5.33348909098E-05 -4.57283582716E-04 +7.37944408489E-01 -3.52487292983E-01
4.02000000000E+09 +6.15540829754E-01 -3.83601023084E-01 -1.48767324119E-04 -4.00028595388E-04 -2.41341835512E-04 -4.39993613558E-04 +7.27421528153E-01 -3.62585198223E-01
4.02500000000E+09 +6.03360638353E-01 -3.92622202142E-01 -2.97108803420E-04 -2.95142048802E-04 -4.17367547802E-04 -2.98736757906E-04 +7.16429557072E-01 -3.71841751745E-01
4.03000000000E+09 +5.91693749085E-01 -4.02691284655E-01 -2.99166662997E-04 -4.07928121431E-05 -3.93625601556E-04 +1.21007748296E-06 +7.05760232682E-01 -3.81013926264E-01
4.03500000000E+09 +5.80440363453E-01 -4.13606032636E-01 -9.30510436406E-05 -2.49500348974E-04 +5.48828912515E-05 -1.91655413227E-04 +6.95011407592E-01 -3.90974040536E-01
4.04000000000E+09 +5.69332944775E-01 -4.24831321568E-01 -1.45351388954E-04 -2.88979739590E-04 -6.14450454087E-05 -2.56881475305E-04 +6.83786578395E-01 -4.01109407696E-01
4.04500000000E+09 +5.58343583601E-01 -4.35155368263E-01 -1.27714183122E-04 -3.48817406017E-04 +1.78156537749E-05 -3.61713280343E-04 +6.71624683258E-01 -4.11015722682E-01
4.05000000000E+09 +5.47170883851E-01 -4.43860260037E-01 -1.59137046015E-04 -5.26863495794E-04 -1.79679264861E-05 -5.59817298529E-04 +6.59503447581E-01 -4.19667516253E-01
4.05500000000E+09 +5.35774071778E-01 -4.50409915647E-01 -4.96471334558E-04 -6.21887549808E-04 -4.34613950812E-04 -6.67239413432E-04 +6.47024627679E-01 -4.28398969273E-01
4.06000000000E+09 +5.24481088784E-01 -4.55217075594E-01 -5.74117908412E-04 -3.88768920691E-04 -5.30993959799E-04 -4.85418079756E-04 +6.34081356386E-01 -4.36573495248E-01
4.06500000000E+09 +5.11589240507E-01 -4.58887684770E-01 -6.82019587698E-04 -2.24380651007E-04 -6.43926861836E-04 -3.04767971686E-04 +6.20420973931E-01 -4.44441461901E-01
4.07000000000E+09 +4.98310185041E-01 -4.62155233822E-01 -7.12138371540E-04 +4.66949156493E-05 -7.32684407793E-04 -6.09544131865E-05 +6.06624807252E-01 -4.52021974864E-01
4.07500000000E+09 +4.83533987251E-01 -4.66566608618E-01 -6.00093672848E-04 +1.45067963945E-04 -5.93217417130E-04 +2.89988774406E-05 +5.92726234829E-01 -4.59698591994E-01
4.08000000000E+09 +4.66637109293E-01 -4.71409625494E-01 -5.09493258804E-04 +1.81326439545E-04 -6.05694732493E-04 +6.34821638477E-05 +5.79288479900E-01 -4.67337599007E-01
4.08500000000E+09 +4.49268975498E-01 -4.76298760309E-01 -4.94864964842E-04 +2.47721840790E-04 -5.97748172177E-04 +1.83072239384E-04 +5.65213732100E-01 -4.75175869978E-01
4.09000000000E+09 +4.32536528821E-01 -4.82428301637E-01 -2.80744083854E-04 +1.72430095738E-04 -3.75031527508E-04 +1.30571778841E-04 +5.50679559604E-01 -4.81507656116E-01
4.09500000000E+09 +4.15550350797E-01 -4.89430701075E-01 -5.30131271414E-04 +3.01999783365E-05 -6.63382790015E-04 +5.44604015518E-05 +5.36745925251E-01 -4.87742324554E-01
4.10000000000E+09 +3.97899164978E-01 -4.96095197396E-01 -6.34459728045E-04 +2.86595884375E-04 -7.86545969622E-04 +3.26181207433E-04 +5.20636222700E-01 -4.94203327635E-01
4.10500000000E+09 +3.80688766368E-01 -5.00460384499E-01 -5.14834597878E-04 +5.91039367604E-04 -6.67412861509E-04 +6.56258174297E-04 +5.04878297319E-01 -4.99412520177E-01
4.11000000000E+09 +3.64257869064E-01 -5.02995464226E-01 -2.80925003822E-04 +8.16621556637E-04 -4.33906485128E-04 +8.78313113346E-04 +4.88467873855E-01 -5.05121875390E-01
4.11500000000E+09 +3.48939785284E-01 -5.03455477640E-01 +4.32973409837E-04 +7.10158912830E-04 +3.84064308138E-04 +8.90083431098E-04 +4.72191624890E-01 -5.10062958494E-01
4.12000000000E+09 +3.33666074443E-01 -5.03502919617E-01 +3.47311400517E-04 -1.24795163193E-04 +3.37575696546E-04 -1.54721362675E-06 +4.56404849200E-01 -5.15651135174E-01
4.12500000000E+09 +3.17965353693E-01 -5.03600805591E-01 -2.19162469126E-04 -1.55060450040E-04 -2.12755172597E-04 -6.44245177201E-06 +4.39073263111E-01 -5.20579875537E-01
4.13000000000E+09 +3.00329976428E-01 -5.04907699481E-01 -4.69315482968E-04 +2.03215488602E-04 -3.74960823947E-04 +3.06611173337E-04 +4.22324522844E-01 -5.23969210459E-01
4.13500000000E+09 +2.79911782787E-01 -5.06351999726E-01 -4.26082494542E-04 +3.93191334122E-04 -3.82678310773E-04 +5.25437507526E-04 +4.04858936664E-01 -5.27753477369E-01
4.14000000000E+09 +2.58977838719E-01 -5.07225613962E-01 -7.32238354186E-05 +7.83774877735E-04 -4.18190793286E-05 +9.18277034488E-04 +3.86340397276E-01 -5.30912250984E-01
4.14500000000E+09 +2.38569449658E-01 -5.09252078406E-01 +4.22765774204E-04 +4.81361334978E-04 +5.49660305342E-04 +5.51335877337E-04 +3.68024948059E-01 -5.33554334009E-01
4.15000000000E+09 +2.18516039633E-01 -5.12503572470E-01 +2.52039083684E-04 -6.14456174596E-05 +3.91256693748E-04 -4.01009925535E-05 +3.49623314369E-01 -5.35835848903E-01
4.15500000000E+09 +1.98496540604E-01 -5.16127615743E-01 -3.48862327210E-04 +3.12831646292E-05 -2.01942366159E-04 -5.41731973108E-05 +3.31424278510E-01 -5.37225018520E-01
4.16000000000E+09 +1.79203161310E-01 -5.18171077164E-01 -3.52473301229E-04 +3.11127385522E-04 -2.71820523094E-04 +2.55009327543E-04 +3.13492624221E-01 -5.37947749883E-01
4.16500000000E+09 +1.61429604622E-01 -5.18536216708E-01 -2.62383473325E-04 +4.73980183461E-04 -1.52344391400E-04 +3.34074241948E-04 +2.94999498098E-01 -5.37952194762E-01
4.17000000000E+09 +1.44753790480E-01 -5.16654520971E-01 -7.10552720835E-05 +7.90936230377E-04 -7.56064657805E-05 +6.46731270132E-04 +2.76510634017E-01 -5.36918975530E-01
4.17500000000E+09 +1.29508085752E-01 -5.12926760101E-01 +1.13398979650E-04 +3.87641881943E-04 +1.22375737895E-04 +2.56630269547E-04 +2.57743576831E-01 -5.35577725814E-01
4.18000000000E+09 +1.14778529008E-01 -5.08082445176E-01 +6.98731091454E-08 +5.89456734691E-04 -4.61283328602E-05 +4.43296634856E-04 +2.38610274571E-01 -5.34017062852E-01
4.18500000000E+09 +9.86220401891E-02 -5.03155519430E-01 -3.53459109677E-05 +8.05041473087E-04 -9.60610264048E-05 +6.16680805480E-04 +2.19569242672E-01 -5.31903281415E-01
4.19000000000E+09 +8.12327767230E-02 -4.97039075924E-01 +3.33668549532E-04 +8.16514642702E-04 +1.42918116772E-04 +7.51031842497E-04 +2.00507065760E-01 -5.29482966344E-01
4.19500000000E+09 +6.29364085206E-02 -4.90922530554E-01 +4.19758855412E-04 +8.17418566714E-04 +2.21966776561E-04 +7.74312092199E-04 +1.81827982515E-01 -5.26116726624E-01
4.20000000000E+09 +4.39001906847E-02 -4.84982435318E-01 +6.74865241883E-04 +6.92467123295E-04 +5.40503491876E-04 +7.70346434957E-04 +1.62678443065E-01 -5.23016860628E-01
4.20500000000E+09 +2.51222679119E-02 -4.79639622051E-01 +8.75610689200E-04 +4.61006602853E-04 +7.29850227863E-04 +5.73975957653E-04 +1.42944553211E-01 -5.17821493356E-01
4.21000000000E+09 +6.85496571869E-03 -4.74646870968E-01 +6.81442786177E-04 +2.76227192110E-04 +6.22129136054E-04 +4.19947772989E-04 +1.23898569557E-01 -5.12743477886E-01
4.21500000000E+09 -1.17471429127E-02 -4.69295871467E-01 +7.18730069579E-04 +5.19059965925E-04 +6.81747632340E-04 +5.80098670560E-04 +1.04254102454E-01 -5.07408154539E-01
4.22000000000E+09 -2.86896018939E-02 -4.61862656003E-01 +1.16930975693E-03 +3.59293912415E-04 +1.10825340761E-03 +5.57781886922E-04 +8.51752062237E-02 -5.00658967141E-01
4.22500000000E+09 -4.36371016790E-02 -4.52912307691E-01 +1.12734204910E-03 -2.51195936796E-04 +1.10226169340E-03 -8.96338233573E-05 +6.68929792521E-02 -4.94300877202E-01
4.23000000000E+09 -5.77838852006E-02 -4.42813602556E-01 +8.61199394484E-04 -3.27683250779E-04 +9.86023923272E-04 -1.76698342288E-04 +4.77326438001E-02 -4.87130979986E-01
4.23500000000E+09 -7.13492977136E-02 -4.31147001993E-01 +4.99307736456E-04 -2.48137151213E-04 +6.20194176834E-04 -4.76842166025E-05 +2.92219037656E-02 -4.78398335921E-01
4.24000000000E+09 -8.57208562883E-02 -4.19494012299E-01 +7.87714980478E-04 -1.50795080007E-05 +1.00175112171E-03 +8.24476901379E-06 +1.08208523199E-02 -4.69277822861E-01
4.24500000000E+09 -1.02949469571E-01 -4.07131799801E-01 +1.25931431239E-03 -2.27894906941E-04 +1.43065489555E-03 -2.02027956548E-04 -7.92411825744E-03 -4.58903795399E-01
4.25000000000E+09 -1.21881828870E-01 -3.93064715894E-01 +1.12364902545E-03 -9.58227720269E-04 +1.29698889296E-03 -9.53794228054E-04 -2.55419582769E-02 -4.47537930805E-01
4.25500000000E+09 -1.40652652092E-01 -3.78359705013E-01 +5.33244473185E-04 -1.16102588245E-03 +6.61375319201E-04 -1.22669060636E-03 -4.31031199066E-02 -4.36410697060E-01
4.26000000000E+09 -1.58934420481E-01 -3.65725310953E-01 +8.89261270619E-05 -8.84665399564E-04 +1.81385559858E-04 -9.50264429105E-04 -6.03544283372E-02 -4.23606107848E-01
4.26500000000E+09 -1.77608833887E-01 -3.53847756193E-01 +8.10059417458E-05 -6.57552455587E-04 +1.51040080902E-04 -7.61828035153E-04 -7.58512786973E-02 -4.10574489378E-01
4.27000000000E+09 -1.94967678602E-01 -3.42283888226E-01 +2.37714256567E-04 -5.73905086811E-04 +2.31837900615E-04 -7.62597452119E-04 -9.23140751537E-02 -3.97870119937E-01
4.27500000000E+09 -2.10274685655E-01 -3.30737414292E-01 +2.11770065391E-04 -5.63985799229E-04 +2.80215115161E-04 -7.05022189261E-04 -1.08925225437E-01 -3.83401240857E-01
4.28000000000E+09 -2.23855628194E-01 -3.18299031170E-01 +1.43991869213E-04 -6.67329384685E-04 +1.18709115585E-04 -7.57158616619E-04 -1.24223409838E-01 -3.68937958143E-01
4.28500000000E+09 -2.35551061070E-01 -3.04253835733E-01 +7.40646501919E-05 -5.37203656337E-04 -7.69953698040E-06 -5.96451692198E-04 -1.39734174450E-01 -3.54527089553E-01
4.29000000000E+09 -2.45142942111E-01 -2.88656924465E-01 +2.36398435068E-04 -6.66215592183E-04 +1.12770866079E-04 -7.26496903680E-04 -1.54901971243E-01 -3.39415348635E-01
4.29500000000E+09 -2.55103989660E-01 -2.71594668090E-01 +2.37231568535E-05 -8.36582984965E-04 -8.48555640631E-05 -8.93345220534E-04 -1.69119662842E-01 -3.23258802700E-01
4.30000000000E+09 -2.65019848295E-01 -2.52539168730E-01 -4.73362083935E-06 -5.85908689606E-04 -1.43540337098E-04 -6.30804833704E-04 -1.81913666244E-01 -3.06904507582E-01
4.30500000000E+09 -2.75517686888E-01 -2.32814987845E-01 -4.71298124627E-05 -8.85870132267E-04 -1.98764160840E-04 -8.33824225138E-04 -1.94358858467E-01 -2.90230530100E-01
4.31000000000E+09 -2.87330603120E-01 -2.13120450902E-01 -1.78437395326E-04 -8.64788174747E-04 -3.10566167333E-04 -8.59384509068E-04 -2.06020457272E-01 -2.72772814177E-01
4.31500000000E+09 -3.00250326235E-01 -1.94236802159E-01 -4.25556727135E-04 -6.46326621820E-04 -5.19073964236E-04 -5.73469779500E-04 -2.17316460814E-01 -2.55384092603E-01
4.32000000000E+09 -3.13799430117E-01 -1.75786591451E-01 -2.83927744798E-04 -6.18389809493E-04 -3.63750916653E-04 -5.14722274474E-04 -2.28844527660E-01 -2.36859892758E-01
4.32500000000E+09 -3.25964884832E-01 -1.57887261079E-01 -1.53476151139E-04 -6.66415879317E-04 -1.81861662565E-04 -4.95858396339E-04 -2.38294281387E-01 -2.17678644451E-01
4.33000000000E+09 -3.35462088239E-01 -1.40927496275E-01 -2.52028523886E-04 -9.55613067392E-04 -2.39688608775E-04 -8.02140017140E-04 -2.47971725515E-01 -1.99041894382E-01
4.33500000000E+09 -3.42426349971E-01 -1.24942288342E-01 -5.12574032828E-04 -9.29287369406E-04 -5.04777452104E-04 -8.01596217621E-04 -2.56929270286E-01 -1.78721790052E-01
4.34000000000E+09 -3.46697221013E-01 -1.09431608814E-01 -8.48597803261E-04 -1.01864823098E-03 -7.27234730645E-04 -9.08832370702E-04 -2.64402931602E-01 -1.58307682435E-01
4.34500000000E+09 -3.48742870353E-01 -9.41560574995E-02 -1.13445230961E-03 -7.66765989654E-04 -1.01409996798E-03 -6.48594112971E-04 -2.71781385432E-01 -1.37747163614E-01
4.35000000000E+09 -3.51399910042E-01 -7.74532170421E-02 -1.23106371129E-03 -3.21445158625E-04 -1.07923398331E-03 -3.22239640623E-04 -2.77894147653E-01 -1.17398973965E-01
4.35500000000E+09 -3.54241122150E-01 -5.69446400655E-02 -8.86364656434E-04 -1.78165660118E-04 -7.40551114405E-04 -2.21552718411E-04 -2.83935983121E-01 -9.73986292469E-02
4.36000000000E+09 -3.55700153136E-01 -3.41158864499E-02 -1.20061917550E-03 -6.93087000593E-04 -1.04941670286E-03 -7.32024117296E-04 -2.88865383892E-01 -7.72348288454E-02
4.36500000000E+09 -3.57395135766E-01 -1.10975592928E-02 -1.61671780027E-03 -7.50672011605E-07 -1.52756278722E-03 -5.37627434869E-05 -2.92368550408E-01 -5.70893294895E-02
4.37000000000E+09 -3.60054371384E-01 +1.12289791029E-02 -1.29887412085E-03 +2.40075137270E-04 -1.22519184392E-03 +1.79902059799E-04 -2.94895769535E-01 -3.79324178362E-02
4.37500000000E+09 -3.64355884035E-01 +3.15975725420E-02 -1.28724004161E-03 +5.54719123303E-04 -1.26215787890E-03 +4.01643810910E-04 -2.97733675610E-01 -1.77687014113E-02
4.38000000000E+09 -3.69989988380E-01 +5.11437800179E-02 -1.08700010916E-03 +6.83592980695E-04 -1.10746732226E-03 +5.53278955977E-04 -2.99192800257E-01 +3.05372406259E-03
4.38500000000E+09 -3.74980393604E-01 +6.89710435109E-02 -9.54673081798E-04 +8.28353047032E-04 -1.03112788213E-03 +6.88023035560E-04 -2.99961547356E-01 +2.34111949442E-02
4.39000000000E+09 -3.78848339084E-01 +8.56497936062E-02 -7.18423261493E-04 +9.12891105090E-04 -7.78333201088E-04 +8.15364978909E-04 -3.00370374797E-01 +4.37354989980E-02
4.39500000000E+09 -3.79134114709E-01 +1.00614198621E-01 -4.68686353329E-04 +9.59968505816E-04 -5.35259550490E-04 +9.38171085255E-04 -3.00774698243E-01 +6.33273881816E-02
4.40000000000E+09 -3.77207352051E-01 +1.14724324366E-01 -4.97457232372E-04 +5.76195455632E-04 -6.36077094396E-04 +6.36573816035E-04 -2.99891875608E-01 +8.34758004119E-02
4.40500000000E+09 -3.74007360959E-01 +1.28548130624E-01 -7.50638314636E-04 +8.49184934918E-04 -8.60178689426E-04 +8.52651274606E-04 -2.97732379827E-01 +1.02671890178E-01
4.41000000000E+09 -3.69648587809E-01 +1.45302364274E-01 -5.44875363381E-04 +1.24826398921E-03 -6.70073331303E-04 +1.29571159598E-03 -2.95481312918E-01 +1.21721496157E-01
4.41500000000E+09 -3.63481001156E-01 +1.64155784108E-01 -1.06049368274E-04 +1.34271838606E-03 -1.57145738474E-04 +1.43396424917E-03 -2.91772746363E-01 +1.41139058516E-01
4.42000000000E+09 -3.57033198444E-01 +1.84703304581E-01 +3.51195845981E-04 +1.29090687944E-03 +2.34008028542E-04 +1.33108869915E-03 -2.87515301095E-01 +1.60348656754E-01
4.42500000000E+09 -3.50609923974E-01 +2.05605369380E-01 +5.55682920562E-04 +6.72702393055E-04 +4.99436427080E-04 +7.74148815393E-04 -2.82895287648E-01 +1.79027480242E-01
4.43000000000E+09 -3.46688157525E-01 +2.26163405997E-01 +6.17078487341E-05 +4.81858069596E-04 +9.22567948229E-05 +6.22838669749E-04 -2.78391057395E-01 +1.97039845529E-01
4.43500000000E+09 -3.44196846213E-01 +2.46605286874E-01 -3.49452227442E-06 +6.65949543774E-04 +6.61447991147E-05 +7.72560613113E-04 -2.74546743714E-01 +2.15069369359E-01
4.44000000000E+09 -3.41787293877E-01 +2.66340985545E-01 -5.69999402865E-05 +7.68329381006E-04 +9.37792121205E-05 +8.41407196968E-04 -2.69179401843E-01 +2.34341376586E-01
4.44500000000E+09 -3.38200100964E-01 +2.82874036629E-01 +3.09824006364E-04 +1.12376305303E-03 +4.73441315208E-04 +1.25528898033E-03 -2.61527953600E-01 +2.51441510523E-01
4.45000000000E+09 -3.34012041840E-01 +2.96487511492E-01 +7.80512511705E-04 +7.20121348586E-04 +9.36247149228E-04 +6.70528187953E-04 -2.54296532308E-01 +2.67565790088E-01
4.45500000000E+09 -3.28984478952E-01 +3.08354754348E-01 +4.85111049216E-04 +4.51553943005E-04 +6.77287194235E-04 +4.20186812941E-04 -2.46045200215E-01 +2.83784325761E-01
4.46000000000E+09 -3.22240269466E-01 +3.19863664111E-01 +5.09963935846E-04 +2.86311616124E-04 +6.06409169363E-04 +2.52165676140E-04 -2.37708574157E-01 +2.99048885669E-01
4.46500000000E+09 -3.13884924483E-01 +3.31968379992E-01 +2.21205908983E-04 +4.33764953442E-04 +3.40570956421E-04 +2.97236737736E-04 -2.29430780026E-01 +3.14094441060E-01
4.47000000000E+09 -3.03384051696E-01 +3.46540866437E-01 +3.81103453772E-04 +3.52873311170E-04 +4.00360176251E-04 +2.58411293861E-04 -2.20701580176E-01 +3.29034594254E-01
4.47500000000E+09 -2.90841320703E-01 +3.62395246760E-01 +1.89526522312E-04 +4.86150005504E-04 +2.68336261089E-04 +4.26050066892E-04 -2.12265108189E-01 +3.43468981002E-01
4.48000000000E+09 -2.78098919411E-01 +3.78833986072E-01 +2.09573994039E-04 +6.38766488507E-04 +2.15230972944E-04 +5.41935955551E-04 -2.03271693377E-01 +3.58199854502E-01
4.48500000000E+09 -2.66942109330E-01 +3.95461072921E-01 +4.81218313511E-04 +9.80042165609E-04 +4.65245684390E-04 +8.93754038837E-04 -1.93294898978E-01 +3.71924216453E-01
4.49000000000E+09 -2.57781559231E-01 +4.12264829843E-01 +1.09305081156E-03 +8.47369962690E-04 +9.99620812058E-04 +7.81889805740E-04 -1.83457138687E-01 +3.84936756686E-01
4.49500000000E+09 -2.50786765457E-01 +4.28086836280E-01 +1.21655757899E-03 +1.70129049275E-04 +1.10534278009E-03 +1.33126900771E-04 -1.73645659390E-01 +3.97815070987E-01
4.50000000000E+09 -2.45151163104E-01 +4.42828448929E-01 +8.49642619896E-04 +1.96638821774E-04 +7.42254627864E-04 +1.63074133106E-04 -1.63198388254E-01 +4.10387829229E-01
4.50500000000E+09 -2.39765352484E-01 +4.55178552839E-01 +1.00036508127E-03 -3.40547132977E-05 +9.50184018692E-04 +2.11979403408E-05 -1.52814635389E-01 +4.22598273630E-01
4.51000000000E+09 -2.33950789632E-01 +4.65038154144E-01 +7.75124905993E-04 +2.47366963110E-05 +6.90502342220E-04 +1.84852100835E-05 -1.41804895424E-01 +4.34255819163E-01
4.51500000000E+09 -2.27053510188E-01 +4.73013226272E-01 +7.43629956647E-04 +1.51428522135E-04 +7.42019892789E-04 +2.04135011272E-04 -1.31671946868E-01 +4.45532693113E-01
4.52000000000E+09 -2.18168783161E-01 +4.80991652753E-01 +1.00158831429E-03 +9.95142023940E-05 +9.19258744106E-04 +1.63225523259E-04 -1.20906417593E-01 +4.56678570888E-01
4.52500000000E+09 -2.06159221259E-01 +4.88385888019E-01 +1.21250337983E-03 +2.23961960058E-05 +1.16492896737E-03 +8.20107937629E-05 -1.09370561638E-01 +4.67365541123E-01
4.53000000000E+09 -1.92467380354E-01 +4.96033664732E-01 +1.44753607035E-03 -5.99431221058E-04 +1.49100274435E-03 -5.07445813201E-04 -9.75505852919E-02 +4.76705898437E-01
4.53500000000E+09 -1.78100815879E-01 +5.05047762711E-01 +9.59358062642E-04 -7.22307642624E-04 +9.22585450485E-04 -6.91200831253E-04 -8.54235056698E-02 +4.86282466815E-01
4.54000000000E+09 -1.63229799277E-01 +5.15398750400E-01 +9.98791232709E-04 -8.99082720622E-04 +1.02450518267E-03 -8.60546335084E-04 -7.29658040069E-02 +4.95228602691E-01
4.54500000000E+09 -1.48924375876E-01 +5.26698378035E-01 +5.02093165468E-04 -1.17737903592E-03 +5.68198425517E-04 -1.11922033756E-03 -6.11738717819E-02 +5.03787183332E-01
4.55000000000E+09 -1.36247687201E-01 +5.37898399974E-01 +2.05494148883E-04 -1.08664653811E-03 +2.75260098321E-04 -1.02233827652E-03 -4.85978701680E-02 +5.12472120783E-01
4.55500000000E+09 -1.25245885273E-01 +5.48548372137E-01 +7.75240047993E-05 -7.35086493743E-04 +1.32892168838E-04 -7.59526969196E-04 -3.71654311699E-02 +5.20571128381E-01
4.56000000000E+09 -1.15671349347E-01 +5.57320765403E-01 +7.17297965981E-05 -5.20844054588E-04 +7.73636924758E-05 -5.43027389006E-04 -2.48218684751E-02 +5.28537999360E-01
4.56500000000E+09 -1.07426409162E-01 +5.64209900537E-01 +5.75409543619E-04 -6.09177273571E-04 +5.75007070427E-04 -6.17484295134E-04 -1.28920077403E-02 +5.35466037200E-01
4.57000000000E+09 -9.94000868004E-02 +5.69746808534E-01 +4.11998502961E-04 -1.20157574017E-03 +3.42490439563E-04 -1.20955044410E-03 -7.93274847846E-04 +5.42554247967E-01
