# Hz S RI R 50
! CMT, C1220, 16058040, 17.2.0/1
! Date: 15/08/2018 12:21:38
! Data: Format (Calibration Info)
! Freq                      S11: Re/Im (F2)                       S21: Re/Im (F2)                       S12: Re/Im (F2)                       S22: Re/Im (F2)            
4.00000000000E+09 +6.54381367041E-01 -3.52349298003E-01 +1.78206889796E-04 -4.30132967934E-04 +2.36519830380E-04 -4.33819568557E-04 +7.42661568425E-01 -3.24191556004E-01
4.00500000000E+09 +6.46540284329E-01 -3.58492659234E-01 +2.75136815235E-04 -3.61185703403E-04 +2.68561985369E-04 -3.67029410427E-04 +7.32191605753E-01 -3.34942238371E-01
4.01000000000E+09 +6.37858905723E-01 -3.65022162989E-01 +3.29262670048E-04 -6.19391443112E-04 +3.49146821484E-04 -6.32327939038E-04 +7.21138841364E-01 -3.45724782647E-01
4.01500000000E+09 +6.27493910661E-01 -3.71752173274E-01 +1.73212754643E-04 -7.94889296206E-04 +2.66268670201E-04 -8.37421048146E-04 +7.10233798082E-01 -3.55966485962E-01
4.02000000000E+09 +6.17047043533E-01 -3.79724056111E-01 -2.73028265251E-04 -8.22456141397E-04 -1.96473892811E-04 -9.10444521837E-04 +6.98667050916E-01 -3.66039718615E-01
4.02500000000E+09 +6.05755177721E-01 -3.88972726574E-01 -4.41552137802E-04 -3.58648780820E-04 -4.39923490424E-04 -3.63137160964E-04 +6.86614738485E-01 -3.75941138690E-01
4.03000000000E+09 +5.94749939714E-01 -3.99255812282E-01 -7.18776797827E-05 -2.49710201362E-04 -1.15064005317E-04 -2.34858512852E-04 +6.73763190141E-01 -3.85360612567E-01
4.03500000000E+09 +5.83591408902E-01 -4.10417667173E-01 +9.98150674974E-05 -4.65145640200E-04 +1.09969361801E-04 -4.73317621867E-04 +6.60854076515E-01 -3.94903193867E-01
4.04000000000E+09 +5.72545911566E-01 -4.21100084900E-01 -1.17141028038E-05 -6.84043761912E-04 -7.80729702376E-06 -7.30031360291E-04 +6.47681690022E-01 -4.05155191713E-01
4.04500000000E+09 +5.61732542367E-01 -4.31153806776E-01 -3.55380203934E-04 -8.33344226249E-04 -3.34641860019E-04 -8.78629806465E-04 +6.33580905125E-01 -4.14597806847E-01
4.05000000000E+09 +5.50538194690E-01 -4.39573022663E-01 -6.31738593584E-04 -5.61263968634E-04 -7.07454952537E-04 -6.58223522706E-04 +6.19714125028E-01 -4.23203287516E-01
4.05500000000E+09 +5.39486443590E-01 -4.45166501161E-01 -5.65457709521E-04 -3.26664687026E-04 -5.82321614995E-04 -3.38026895335E-04 +6.05691761778E-01 -4.31613629992E-01
4.06000000000E+09 +5.28397212178E-01 -4.50171280404E-01 -6.07308875188E-04 -2.31545221281E-04 -6.87726819840E-04 -2.13130963411E-04 +5.91079770843E-01 -4.39595054076E-01
4.06500000000E+09 +5.16309913242E-01 -4.54455979618E-01 -3.81932113030E-04 -2.30876757192E-04 -4.27956352373E-04 -2.52491994262E-04 +5.75389691943E-01 -4.47141187754E-01
4.07000000000E+09 +5.02470375607E-01 -4.59099710136E-01 -5.47654258817E-04 -3.32645323625E-04 -5.39704515751E-04 -3.18399567720E-04 +5.59628745561E-01 -4.54475024770E-01
4.07500000000E+09 +4.87112643232E-01 -4.63781552681E-01 -5.10127752981E-04 -1.45171126675E-04 -5.55958691825E-04 -1.30130022716E-04 +5.43402130861E-01 -4.62083958092E-01
4.08000000000E+09 +4.70519033565E-01 -4.69214570395E-01 -6.30518363891E-04 -3.26319923224E-04 -5.70734825813E-04 -2.98682348384E-04 +5.27097573460E-01 -4.68837323489E-01
4.08500000000E+09 +4.53141935722E-01 -4.74856452565E-01 -8.10189186129E-04 -2.31171806513E-04 -8.70804677494E-04 -2.36784391646E-04 +5.10882832923E-01 -4.76518565900E-01
4.09000000000E+09 +4.36304289044E-01 -4.81128222863E-01 -9.33408848660E-04 +3.52263861554E-05 -8.97240916075E-04 -1.88732174113E-05 +4.92878008631E-01 -4.82184127844E-01
4.09500000000E+09 +4.19749580261E-01 -4.88225268312E-01 -8.96379825224E-04 +3.74118816280E-04 -9.40952999319E-04 +4.00560977263E-04 +4.75974396509E-01 -4.87171592424E-01
4.10000000000E+09 +4.02829596605E-01 -4.94921533137E-01 -6.95884669095E-04 +4.19342817470E-04 -7.37244378256E-04 +4.37587483997E-04 +4.57232392094E-01 -4.92429107167E-01
4.10500000000E+09 +3.86502640096E-01 -4.99967030932E-01 -4.72538496843E-04 +6.60261851241E-04 -4.83594533550E-04 +6.39550960197E-04 +4.37950269311E-01 -4.96091879269E-01
4.11000000000E+09 +3.70293303361E-01 -5.03387252862E-01 -2.27150811680E-04 +4.93382811899E-04 -2.51814328623E-04 +4.57958627058E-04 +4.18941243084E-01 -4.99640697026E-01
4.11500000000E+09 +3.54475117090E-01 -5.05160422933E-01 -4.30569180603E-05 +2.34762269678E-04 -7.05135112820E-05 +2.30195711911E-04 +3.99687556067E-01 -5.03129157159E-01
4.12000000000E+09 +3.38456759782E-01 -5.06177802985E-01 -3.86353652647E-04 -4.15364605607E-05 -4.52276743708E-04 -9.12618956708E-05 +3.80030560466E-01 -5.06334212328E-01
4.12500000000E+09 +3.21078348981E-01 -5.06836888472E-01 -8.84063999671E-04 +1.18434305817E-04 -9.11703967703E-04 +1.23187815424E-04 +3.59573342040E-01 -5.08445554887E-01
4.13000000000E+09 +3.02783201549E-01 -5.07673825306E-01 -9.88853618532E-04 +7.64995538413E-04 -1.04979506202E-03 +8.12290975785E-04 +3.39171393530E-01 -5.09328927056E-01
4.13500000000E+09 +2.83596452586E-01 -5.09327482313E-01 -3.62297745530E-04 +1.15322836087E-03 -4.06554165081E-04 +1.22583247963E-03 +3.18766816178E-01 -5.09260584614E-01
4.14000000000E+09 +2.63519856688E-01 -5.12214932119E-01 +9.82460939359E-05 +9.35908715796E-04 +3.46961124073E-05 +9.92064719006E-04 +2.98147584092E-01 -5.09090613550E-01
4.14500000000E+09 +2.43213484725E-01 -5.16393731731E-01 +1.45862748048E-04 +8.07247961249E-04 +1.61431305214E-04 +8.72592878749E-04 +2.77445210267E-01 -5.08243961270E-01
4.15000000000E+09 +2.22255817472E-01 -5.20998013037E-01 +3.70827798242E-04 +6.77567166536E-04 +4.28274945730E-04 +6.77159249161E-04 +2.57155170800E-01 -5.07511405365E-01
4.15500000000E+09 +2.02160486090E-01 -5.24919954056E-01 +2.21977284486E-04 +1.01808482363E-04 +2.43303920515E-04 +1.30626520331E-04 +2.35871294734E-01 -5.05204148037E-01
4.16000000000E+09 +1.83599244196E-01 -5.27610850908E-01 -2.04196511383E-04 +1.46078230637E-04 -2.02939088177E-04 +1.50150867124E-04 +2.15154914739E-01 -5.01272912439E-01
4.16500000000E+09 +1.66017408087E-01 -5.28502666671E-01 -3.92764214635E-04 +5.21985636934E-04 -3.41347398137E-04 +5.83039623768E-04 +1.94583454517E-01 -4.96998425267E-01
4.17000000000E+09 +1.50363217954E-01 -5.27341543861E-01 -3.10688849547E-04 +5.87008789925E-04 -2.77925380375E-04 +6.47209801077E-04 +1.73568256594E-01 -4.91756171335E-01
4.17500000000E+09 +1.35262814629E-01 -5.24973821090E-01 -2.50949741740E-04 +1.06544312671E-03 -2.27951785893E-04 +1.12240794446E-03 +1.52201834563E-01 -4.85667495061E-01
4.18000000000E+09 +1.19398413134E-01 -5.21242137966E-01 +1.91943322583E-04 +1.24045006635E-03 +2.21329864025E-04 +1.23150979336E-03 +1.31213183157E-01 -4.78353717907E-01
4.18500000000E+09 +1.02495135300E-01 -5.16708152809E-01 +8.68582533910E-04 +1.18894452701E-03 +9.33756654159E-04 +1.22104444280E-03 +1.11561462705E-01 -4.71180745932E-01
4.19000000000E+09 +8.43098265262E-02 -5.11138948110E-01 +8.73921430482E-04 +2.95342323649E-04 +9.03057228245E-04 +2.58376422082E-04 +9.02152455543E-02 -4.63484308781E-01
4.19500000000E+09 +6.56305479397E-02 -5.05153023978E-01 +3.26920957383E-04 +1.78531221494E-04 +2.96498655547E-04 +2.26981287641E-04 +6.96129175669E-02 -4.53407854205E-01
4.20000000000E+09 +4.63224689522E-02 -4.99866493410E-01 +2.54080228636E-04 +6.48287863471E-04 +3.13359958711E-04 +6.00477127038E-04 +5.00353014721E-02 -4.42680831640E-01
4.20500000000E+09 +2.68592227744E-02 -4.94995284477E-01 +1.96398944333E-04 +4.82217304719E-04 +1.75956453068E-04 +4.67831431531E-04 +3.00150235615E-02 -4.31498278990E-01
4.21000000000E+09 +8.07854702650E-03 -4.90196112386E-01 +1.58456190634E-04 +1.19956492201E-03 +1.49207232275E-04 +1.25956640851E-03 +1.09061313897E-02 -4.19120310858E-01
4.21500000000E+09 -1.00813717627E-02 -4.84935025047E-01 +1.05014456839E-03 +1.53695132212E-03 +1.00197114810E-03 +1.58823973742E-03 -7.13909511247E-03 -4.07131676034E-01
4.22000000000E+09 -2.73611085892E-02 -4.78438317129E-01 +1.74918585817E-03 +1.07531768136E-03 +1.77603334185E-03 +1.10585609711E-03 -2.51367471942E-02 -3.95011396188E-01
4.22500000000E+09 -4.32295581672E-02 -4.70263420075E-01 +2.06306565427E-03 +2.44888748922E-04 +2.09272450144E-03 +3.01044729908E-04 -4.31181988506E-02 -3.81188396800E-01
4.23000000000E+09 -5.87481490520E-02 -4.59983773482E-01 +1.69087362276E-03 -5.19273360006E-04 +1.72324487577E-03 -5.34688238679E-04 -5.96938149802E-02 -3.66717107427E-01
4.23500000000E+09 -7.41021564780E-02 -4.48307819293E-01 +1.04783929279E-03 -3.17602633019E-04 +1.01462687491E-03 -3.34481885511E-04 -7.65260615117E-02 -3.51379399743E-01
4.24000000000E+09 -9.02870797314E-02 -4.35024641616E-01 +1.03956353380E-03 -5.00521169446E-05 +1.07083965740E-03 +5.05325235233E-06 -9.21447215052E-02 -3.34593194592E-01
4.24500000000E+09 -1.07298549706E-01 -4.21488577633E-01 +1.61501671861E-03 +4.56464758142E-05 +1.62157473968E-03 +1.42330579483E-04 -1.07748548780E-01 -3.17590351898E-01
4.25000000000E+09 -1.26420930155E-01 -4.07975214844E-01 +1.99447502655E-03 -4.02100982861E-04 +2.05588723797E-03 -4.06781761120E-04 -1.22053719216E-01 -2.99657099170E-01
4.25500000000E+09 -1.46112956478E-01 -3.94611820397E-01 +1.95547944059E-03 -1.21804239504E-03 +1.99093916550E-03 -1.24531782031E-03 -1.35269438224E-01 -2.82094656861E-01
4.26000000000E+09 -1.66626318921E-01 -3.82006393539E-01 +1.38859608003E-03 -1.74250057092E-03 +1.41863541656E-03 -1.79385971855E-03 -1.48423929957E-01 -2.64407610890E-01
4.26500000000E+09 -1.86772768224E-01 -3.69598677058E-01 +1.00650591387E-03 -1.70416015120E-03 +1.06281368447E-03 -1.78939431870E-03 -1.60825448674E-01 -2.45156423733E-01
4.27000000000E+09 -2.04470527222E-01 -3.57608340043E-01 +5.79078965637E-04 -1.79172179610E-03 +6.32550719064E-04 -1.78830814518E-03 -1.72929600368E-01 -2.25261127858E-01
4.27500000000E+09 -2.21094475961E-01 -3.46220321061E-01 +3.70616238439E-04 -1.81203079405E-03 +3.66610651467E-04 -1.83411549508E-03 -1.83905974019E-01 -2.04177142075E-01
4.28000000000E+09 -2.35480510681E-01 -3.32747904066E-01 +1.98007373269E-04 -1.56232011245E-03 +1.84565964229E-04 -1.61231190976E-03 -1.93568183672E-01 -1.83124397612E-01
4.28500000000E+09 -2.47165838938E-01 -3.18230226233E-01 +3.60915369712E-04 -1.49667218389E-03 +3.51642723074E-04 -1.50759574418E-03 -2.01808290171E-01 -1.61910029480E-01
4.29000000000E+09 -2.57618456423E-01 -3.02864294379E-01 +3.07563454871E-04 -1.90689603112E-03 +2.65506855303E-04 -1.94437423055E-03 -2.09096214368E-01 -1.41946812538E-01
4.29500000000E+09 -2.68292465819E-01 -2.85544868507E-01 -1.65588272853E-04 -2.37297516299E-03 -2.32254023727E-04 -2.41130747578E-03 -2.15909502576E-01 -1.22367278408E-01
4.30000000000E+09 -2.79432488141E-01 -2.66622618588E-01 -1.00799691356E-03 -2.17330373558E-03 -1.12125048386E-03 -2.13225919524E-03 -2.21722425137E-01 -1.02234305684E-01
4.30500000000E+09 -2.91367368505E-01 -2.46405776377E-01 -1.06720515073E-03 -1.57421089149E-03 -1.16240013353E-03 -1.58217550445E-03 -2.26824957375E-01 -8.11026893226E-02
4.31000000000E+09 -3.03852730740E-01 -2.25852677809E-01 -1.15534521431E-03 -1.70501345276E-03 -1.23757895528E-03 -1.68965872197E-03 -2.29761711537E-01 -6.03484582025E-02
4.31500000000E+09 -3.17348600318E-01 -2.05942679384E-01 -1.52801379377E-03 -1.49300017821E-03 -1.59013350987E-03 -1.46186120383E-03 -2.32627452335E-01 -3.95879958966E-02
4.32000000000E+09 -3.29596276976E-01 -1.86845475173E-01 -1.81109810829E-03 -9.44102875541E-04 -1.87633633690E-03 -9.36061415304E-04 -2.34979646701E-01 -1.88117820300E-02
4.32500000000E+09 -3.41113533268E-01 -1.69817669001E-01 -1.36649908314E-03 -6.91759073337E-04 -1.36162253380E-03 -6.90529416692E-04 -2.36792809245E-01 +1.74832450099E-03
4.33000000000E+09 -3.51507605985E-01 -1.53296282009E-01 -1.63630232204E-03 -1.06220253795E-03 -1.63283141979E-03 -1.05760090581E-03 -2.37821559338E-01 +2.23844361580E-02
4.33500000000E+09 -3.58730128426E-01 -1.36766968076E-01 -1.67469762706E-03 -8.59148805220E-04 -1.67142208132E-03 -7.51580783819E-04 -2.38049344159E-01 +4.33891070288E-02
4.34000000000E+09 -3.63606042301E-01 -1.20841589358E-01 -2.43048714216E-03 -9.93139110219E-04 -2.40716208853E-03 -9.11582893811E-04 -2.37459778121E-01 +6.39041137514E-02
4.34500000000E+09 -3.67098569372E-01 -1.03449718317E-01 -2.82869861871E-03 +3.22124904379E-05 -2.74373148633E-03 +1.25337968819E-04 -2.35593024884E-01 +8.44497447812E-02
4.35000000000E+09 -3.68697629040E-01 -8.45747662505E-02 -2.27211698215E-03 +7.95935942123E-04 -2.16722252262E-03 +8.59433051058E-04 -2.33837313108E-01 +1.03522103213E-01
4.35500000000E+09 -3.70693853627E-01 -6.35171663093E-02 -1.86117681206E-03 +5.09391690196E-04 -1.75636735854E-03 +5.37730693117E-04 -2.31279682010E-01 +1.23439018212E-01
4.36000000000E+09 -3.72341243286E-01 -4.06283860316E-02 -1.96125406198E-03 +7.62880468430E-04 -1.90061119091E-03 +7.97676812136E-04 -2.27418969272E-01 +1.41892476061E-01
4.36500000000E+09 -3.74638986069E-01 -1.73948099198E-02 -2.02396756473E-03 +6.34098307126E-04 -1.93433230408E-03 +6.14905943242E-04 -2.23443527456E-01 +1.59769431700E-01
4.37000000000E+09 -3.78886258334E-01 +6.02258749667E-03 -2.42435731709E-03 +1.33390803750E-03 -2.36759881327E-03 +1.29734380815E-03 -2.18865115283E-01 +1.77738296877E-01
4.37500000000E+09 -3.82703166529E-01 +2.81644699613E-02 -2.06196226633E-03 +1.81019405243E-03 -1.96578333040E-03 +1.78657765823E-03 -2.13367150365E-01 +1.95353701565E-01
4.38000000000E+09 -3.87823363398E-01 +4.82244342738E-02 -1.59127648786E-03 +2.20643219324E-03 -1.52230357325E-03 +2.14306522622E-03 -2.06739219913E-01 +2.12652807373E-01
4.38500000000E+09 -3.92067176275E-01 +6.66493329352E-02 -1.09479293221E-03 +2.53596265489E-03 -1.01876909036E-03 +2.48297841495E-03 -2.00372609914E-01 +2.29710982196E-01
4.39000000000E+09 -3.94704788801E-01 +8.34984960184E-02 -6.72090821000E-04 +2.35745685572E-03 -6.12569865171E-04 +2.32850270043E-03 -1.93286045279E-01 +2.46447329604E-01
4.39500000000E+09 -3.94948544033E-01 +9.90729771204E-02 -5.29543533516E-04 +2.45717749309E-03 -4.60255706021E-04 +2.40329419658E-03 -1.86411664107E-01 +2.61574239186E-01
4.40000000000E+09 -3.92259453510E-01 +1.14148046466E-01 -1.59906729055E-04 +2.54550779738E-03 -1.83679373534E-04 +2.47994662084E-03 -1.79397601002E-01 +2.77507417290E-01
4.40500000000E+09 -3.87631426383E-01 +1.29687815288E-01 +6.67013922060E-05 +2.72438049696E-03 +4.09176904762E-05 +2.60605061935E-03 -1.70985101167E-01 +2.92704054009E-01
4.41000000000E+09 -3.81622788938E-01 +1.46561330401E-01 +7.87623652563E-04 +2.74586479439E-03 +7.82906755444E-04 +2.69922662283E-03 -1.62189987689E-01 +3.06595380573E-01
4.41500000000E+09 -3.75365131452E-01 +1.65816369222E-01 +1.15722437404E-03 +2.45549762713E-03 +1.12730832903E-03 +2.39795909484E-03 -1.53773127137E-01 +3.20634653977E-01
4.42000000000E+09 -3.68717941403E-01 +1.86934230242E-01 +1.32837092846E-03 +2.01361215516E-03 +1.27919568496E-03 +1.96678609706E-03 -1.44702102052E-01 +3.35460328586E-01
4.42500000000E+09 -3.62934929122E-01 +2.08781542738E-01 +1.65279626513E-03 +2.11570097123E-03 +1.58190892078E-03 +2.10516223747E-03 -1.34617418615E-01 +3.48838312837E-01
4.43000000000E+09 -3.58649357359E-01 +2.30641101968E-01 +1.95789846561E-03 +1.75847993422E-03 +1.93659216206E-03 +1.73175713727E-03 -1.25632426894E-01 +3.61808870695E-01
4.43500000000E+09 -3.55052152104E-01 +2.51444603813E-01 +2.28511951705E-03 +1.56613898269E-03 +2.22973021365E-03 +1.55583506632E-03 -1.15523972671E-01 +3.74648678035E-01
4.44000000000E+09 -3.52022717588E-01 +2.70141024041E-01 +2.65428835708E-03 +9.19714449112E-04 +2.59816060531E-03 +9.45236571147E-04 -1.05981260466E-01 +3.86334570080E-01
4.44500000000E+09 -3.49080283145E-01 +2.85957154188E-01 +2.45327118176E-03 +6.74312457078E-05 +2.44851899142E-03 +8.34280403508E-05 -9.58930228409E-02 +3.98186271701E-01
4.45000000000E+09 -3.46024096559E-01 +2.99596132847E-01 +1.76271649645E-03 +3.45874425409E-04 +1.76011725946E-03 +2.95595227133E-04 -8.50413894875E-02 +4.09141551863E-01
4.45500000000E+09 -3.41148215019E-01 +3.12963264206E-01 +2.49632249403E-03 +4.75397780659E-04 +2.44112779762E-03 +4.69366266278E-04 -7.40096074076E-02 +4.19602270355E-01
4.46000000000E+09 -3.33563306498E-01 +3.25364578274E-01 +2.63247760504E-03 -7.79079704258E-04 +2.59164627111E-03 -7.95347488686E-04 -6.25940022357E-02 +4.29482136657E-01
4.46500000000E+09 -3.23512551705E-01 +3.38209149397E-01 +2.04841351573E-03 -8.72474124905E-04 +2.04049248434E-03 -8.94006554890E-04 -5.09847272777E-02 +4.38322755435E-01
4.47000000000E+09 -3.12188429492E-01 +3.51914680277E-01 +1.47557041633E-03 -1.25793255816E-03 +1.49487469676E-03 -1.24817090861E-03 -4.03902086185E-02 +4.47396236513E-01
4.47500000000E+09 -2.99768537652E-01 +3.68168102661E-01 +1.24670963078E-03 -6.69871954210E-04 +1.26584555957E-03 -7.20149211483E-04 -2.88505947307E-02 +4.56675818055E-01
4.48000000000E+09 -2.87145471702E-01 +3.85386976765E-01 +1.62625593012E-03 -5.59089474008E-04 +1.53279890969E-03 -5.94896232092E-04 -1.73115455906E-02 +4.64692009725E-01
4.48500000000E+09 -2.75099131624E-01 +4.03328388535E-01 +1.83729423632E-03 -9.92583761494E-04 +1.75814430097E-03 -1.06783731444E-03 -5.99802845997E-03 +4.72942754069E-01
4.49000000000E+09 -2.65157031783E-01 +4.20383375603E-01 +1.90337271257E-03 -1.55098308305E-03 +1.83561471933E-03 -1.54435751938E-03 +5.96230424989E-03 +4.80407309882E-01
4.49500000000E+09 -2.57191003094E-01 +4.36776030345E-01 +1.14652339383E-03 -2.10180397387E-03 +1.05813772703E-03 -2.02657036043E-03 +1.69880888412E-02 +4.86862572498E-01
4.50000000000E+09 -2.50423793305E-01 +4.50535603275E-01 +6.69215777401E-04 -1.88464408881E-03 +5.91504597101E-04 -1.89519046581E-03 +2.82861752959E-02 +4.93489318208E-01
4.50500000000E+09 -2.45311171382E-01 +4.62220093189E-01 +4.58580624860E-04 -1.72643327707E-03 +4.14381403038E-04 -1.70177744909E-03 +3.96096304275E-02 +4.99661619166E-01
4.51000000000E+09 -2.39480136182E-01 +4.72612243921E-01 +3.65286735261E-04 -1.67712980625E-03 +3.30953751479E-04 -1.68364975981E-03 +5.08168140705E-02 +5.05535532133E-01
4.51500000000E+09 -2.30729108851E-01 +4.80753424296E-01 +4.16341721874E-04 -1.60458248956E-03 +3.50746820091E-04 -1.54369970808E-03 +6.18464254455E-02 +5.11373537332E-01
4.52000000000E+09 -2.20944661857E-01 +4.86522995477E-01 +2.06146414963E-04 -1.98321651144E-03 +2.15706429210E-04 -1.89635059499E-03 +7.34867267101E-02 +5.16805456675E-01
4.52500000000E+09 -2.09126319837E-01 +4.93240508069E-01 -1.34659453739E-04 -1.92228372806E-03 -1.43246612710E-04 -1.78935930132E-03 +8.51133861342E-02 +5.21263925830E-01
4.53000000000E+09 -1.95861882482E-01 +5.00265766504E-01 -9.55135716608E-05 -1.82220421563E-03 -1.11549187636E-04 -1.71632433425E-03 +9.68334939797E-02 +5.25437877507E-01
4.53500000000E+09 -1.80698974297E-01 +5.09818909305E-01 -5.88502987305E-04 -2.12422742149E-03 -5.99872187905E-04 -1.99419712894E-03 +1.08240110261E-01 +5.29167236911E-01
4.54000000000E+09 -1.64788421138E-01 +5.19611150121E-01 -8.92500149254E-04 -2.10498596309E-03 -8.86805392533E-04 -1.99005225998E-03 +1.19812150340E-01 +5.32572267898E-01
4.54500000000E+09 -1.50065832417E-01 +5.30129934229E-01 -1.39766949447E-03 -1.66015217788E-03 -1.30802351163E-03 -1.52544324704E-03 +1.30493155685E-01 +5.36050990934E-01
4.55000000000E+09 -1.36722784548E-01 +5.40299363046E-01 -1.66293391046E-03 -1.41264303253E-03 -1.57270805703E-03 -1.32413284431E-03 +1.42401455670E-01 +5.39908648152E-01
4.55500000000E+09 -1.25990505200E-01 +5.49816920172E-01 -1.51140515286E-03 -8.01018552364E-04 -1.41514058888E-03 -7.29136884226E-04 +1.53708322945E-01 +5.42429490713E-01
4.56000000000E+09 -1.16893141054E-01 +5.58954261657E-01 -1.26435482286E-03 -9.27606318552E-04 -1.17475293132E-03 -8.79477790899E-04 +1.64487345145E-01 +5.45265909417E-01
4.56500000000E+09 -1.08081668015E-01 +5.66714018268E-01 -1.41696996192E-03 -9.99025350412E-04 -1.30572999527E-03 -9.37331845426E-04 +1.74887327430E-01 +5.47544976912E-01
4.57000000000E+09 -9.86230566522E-02 +5.72280925330E-01 -1.75044752949E-03 -9.85195771766E-04 -1.62297051511E-03 -9.22890501613E-04 +1.85590222669E-01 +5.49992057641E-01
