# Hz S RI R 50
! CMT, C1220, 16058040, 17.2.0/1
! Date: 15/08/2018 12:28:07
! Data: Format (Calibration Info)
! Freq                      S11: Re/Im (F2)                       S21: Re/Im (F2)                       S12: Re/Im (F2)                       S22: Re/Im (F2)            
4.00000000000E+09 +6.62886138116E-01 -3.60716519236E-01 -2.40397464747E-04 -4.19477095432E-04 -1.43432642715E-04 -5.23095656007E-04 +7.82533224278E-01 -3.16296471388E-01
4.00500000000E+09 +6.54937219831E-01 -3.67577715810E-01 -1.41711039474E-04 -3.60406935188E-04 -1.00069048680E-04 -3.93051509896E-04 +7.74137963716E-01 -3.27821952759E-01
4.01000000000E+09 +6.45902580013E-01 -3.73951573586E-01 -2.45520624659E-04 -4.75779511806E-04 -2.13263127282E-04 -5.19416679946E-04 +7.65566942643E-01 -3.39496717627E-01
4.01500000000E+09 +6.36547542389E-01 -3.80756535285E-01 -3.33632186840E-04 -3.25590266757E-04 -3.26804271613E-04 -3.59477597475E-04 +7.56986340778E-01 -3.50426550993E-01
4.02000000000E+09 +6.26251542915E-01 -3.88792376027E-01 -2.27926324607E-04 -3.73109444076E-04 -2.28276351620E-04 -3.52434567349E-04 +7.48267854640E-01 -3.61026688568E-01
4.02500000000E+09 +6.15426670662E-01 -3.98147461283E-01 -4.30120497471E-04 -3.42149263528E-04 -3.80948750747E-04 -3.97868717753E-04 +7.38745081836E-01 -3.71064309442E-01
4.03000000000E+09 +6.03920982476E-01 -4.08231915957E-01 -4.18811842567E-04 -3.15086759978E-04 -4.51604003179E-04 -3.05585669357E-04 +7.29016628338E-01 -3.81551983735E-01
4.03500000000E+09 +5.92528749430E-01 -4.18439162000E-01 -3.46350805510E-04 -2.85619616166E-04 -4.49622186279E-04 -2.42772655592E-04 +7.18133077816E-01 -3.92509800804E-01
4.04000000000E+09 +5.81470533647E-01 -4.28929942272E-01 -5.33096269846E-04 -1.56641023972E-04 -6.37095385817E-04 -2.75358522996E-04 +7.07364830052E-01 -4.03502025464E-01
4.04500000000E+09 +5.69435096496E-01 -4.38782213347E-01 -4.58794319936E-04 +9.20217992891E-06 -4.85885738406E-04 -5.63088647926E-06 +6.96755542363E-01 -4.14675141268E-01
4.05000000000E+09 +5.58079749047E-01 -4.46253339821E-01 -3.75577513128E-04 -9.41981929155E-05 -3.78530136364E-04 -1.02044432917E-04 +6.85997219120E-01 -4.25456326004E-01
4.05500000000E+09 +5.46436171919E-01 -4.53176315117E-01 -3.72797130906E-04 -7.86442204179E-05 -3.64531344957E-04 -6.79632396082E-05 +6.74735883213E-01 -4.34994909065E-01
4.06000000000E+09 +5.33608542948E-01 -4.58360463065E-01 -4.70204017099E-04 -9.71661708443E-05 -4.79502701154E-04 -2.88196423563E-05 +6.63676071865E-01 -4.44096218303E-01
4.06500000000E+09 +5.20644029619E-01 -4.62336732601E-01 -5.05753433281E-04 -1.49168367521E-04 -5.47540241347E-04 -1.32857185184E-04 +6.51399900709E-01 -4.53568614347E-01
4.07000000000E+09 +5.06608751217E-01 -4.67155179343E-01 -6.35664099621E-04 -6.32866106752E-05 -6.35739190086E-04 -7.87802133400E-05 +6.38374335902E-01 -4.63464143846E-01
4.07500000000E+09 +4.91637206754E-01 -4.71946897777E-01 -6.76371786504E-04 +1.15300536698E-04 -6.52401430151E-04 +1.39751758778E-04 +6.24820374633E-01 -4.73757550914E-01
4.08000000000E+09 +4.75590679440E-01 -4.77752840770E-01 -6.38390256660E-04 +2.03064352306E-04 -6.46726271085E-04 +2.23133079117E-04 +6.11356334216E-01 -4.83423412926E-01
4.08500000000E+09 +4.58661806400E-01 -4.83928323175E-01 -5.95606872399E-04 +4.65151429268E-04 -6.05863571082E-04 +4.09994419456E-04 +5.98319704136E-01 -4.93034935501E-01
4.09000000000E+09 +4.41801241188E-01 -4.90796447461E-01 -4.05886070083E-04 +3.96413222421E-04 -3.79668726358E-04 +4.07553000693E-04 +5.84884808245E-01 -5.01714698433E-01
4.09500000000E+09 +4.25060998002E-01 -4.97759580108E-01 -4.47971076045E-04 +2.05634912641E-04 -4.10241512598E-04 +1.49331128014E-04 +5.70913775426E-01 -5.09676940018E-01
4.10000000000E+09 +4.07447579235E-01 -5.03624883380E-01 -6.41459415032E-04 +4.64260551784E-04 -7.23453777377E-04 +4.05966131836E-04 +5.56197646915E-01 -5.17978919680E-01
4.10500000000E+09 +3.91212555159E-01 -5.07723944441E-01 -6.22011472384E-04 +6.95167241750E-04 -6.59172870748E-04 +6.82763207944E-04 +5.40508495945E-01 -5.26139838741E-01
4.11000000000E+09 +3.75412073233E-01 -5.10890457173E-01 -3.51547342065E-04 +8.16401331242E-04 -3.76571938218E-04 +7.47431618133E-04 +5.24187534647E-01 -5.34427704918E-01
4.11500000000E+09 +3.59297218135E-01 -5.12850171839E-01 -2.06526771585E-04 +9.44185029708E-04 -2.38198078612E-04 +9.32725332224E-04 +5.07974402330E-01 -5.42357632357E-01
4.12000000000E+09 +3.42459514774E-01 -5.13755710718E-01 -7.11559914788E-05 +8.34480541944E-04 -6.58935926706E-05 +8.57728174008E-04 +4.91811104791E-01 -5.50063001787E-01
4.12500000000E+09 +3.25404848319E-01 -5.13830246787E-01 +1.49172556650E-04 +8.23281754777E-04 +7.58769454664E-05 +9.12940050581E-04 +4.75183964163E-01 -5.56715605548E-01
4.13000000000E+09 +3.07342432980E-01 -5.15582626938E-01 +3.44641983699E-04 +5.29001197096E-04 +2.95625477566E-04 +5.43679209492E-04 +4.58193659712E-01 -5.63410689194E-01
4.13500000000E+09 +2.87400729449E-01 -5.16927081215E-01 +1.97060397609E-05 +4.43506443999E-04 +1.10057270869E-05 +4.50506411733E-04 +4.39895649525E-01 -5.69400186486E-01
4.14000000000E+09 +2.67887820062E-01 -5.19194325277E-01 +6.28452109507E-05 +6.92663069979E-04 -1.28438917654E-05 +7.77386752234E-04 +4.21007337561E-01 -5.75324044467E-01
4.14500000000E+09 +2.47677516919E-01 -5.23183013272E-01 +7.68052129736E-05 +7.03610165330E-04 +2.34112337198E-05 +7.33724911744E-04 +4.01795963105E-01 -5.80922651647E-01
4.15000000000E+09 +2.26991576582E-01 -5.26200240581E-01 +1.70374575803E-04 +1.03596935324E-03 +1.53872195228E-04 +1.12957567108E-03 +3.83527693744E-01 -5.86075712352E-01
4.15500000000E+09 +2.07969400823E-01 -5.28872778723E-01 +7.05664351048E-04 +1.07468151928E-03 +7.12493959357E-04 +1.13320286474E-03 +3.65044885402E-01 -5.90619836576E-01
4.16000000000E+09 +1.89645753278E-01 -5.30865798639E-01 +1.10383553011E-03 +6.53229235572E-04 +1.13182539947E-03 +6.85870888154E-04 +3.46637648942E-01 -5.93784109241E-01
4.16500000000E+09 +1.72038485061E-01 -5.30722317292E-01 +1.00723370130E-03 +1.39565056292E-04 +1.06752109222E-03 +1.83413761653E-04 +3.27552316522E-01 -5.96760349531E-01
4.17000000000E+09 +1.54911616784E-01 -5.28579648422E-01 +6.36920872064E-04 +4.97682966892E-05 +6.55361955209E-04 +1.43224234076E-04 +3.07517115375E-01 -5.99114055392E-01
4.17500000000E+09 +1.38881122396E-01 -5.23840709239E-01 +6.44989554982E-04 +1.20466054685E-04 +6.70824808092E-04 +1.33602083200E-04 +2.86070582802E-01 -6.01197210722E-01
4.18000000000E+09 +1.22843437847E-01 -5.18995812730E-01 +6.06584328562E-04 -6.81564347011E-05 +6.89907635371E-04 -2.72909934310E-05 +2.65355134836E-01 -6.02750853625E-01
4.18500000000E+09 +1.05073338792E-01 -5.13065202490E-01 +2.74516018798E-04 +3.12023843928E-04 +3.15881025445E-04 +3.03320030415E-04 +2.44490875661E-01 -6.03954894052E-01
4.19000000000E+09 +8.72798807632E-02 -5.06889388736E-01 +8.53975363439E-04 +5.54601070411E-04 +8.78413646749E-04 +5.90908778596E-04 +2.23897515567E-01 -6.04073294694E-01
4.19500000000E+09 +6.79027844276E-02 -5.01744298170E-01 +1.08472569755E-03 -1.22428849765E-04 +1.18302937512E-03 -1.36128207368E-04 +2.03104981626E-01 -6.03001853638E-01
4.20000000000E+09 +4.74321643166E-02 -4.96064977605E-01 +8.25372618712E-04 -1.48459335809E-04 +8.32700184100E-04 -1.40238840918E-04 +1.82152771370E-01 -6.01559145993E-01
4.20500000000E+09 +2.77148254203E-02 -4.90478226335E-01 +1.10221232123E-03 -2.38206265788E-04 +1.16377893139E-03 -2.34472154727E-04 +1.59541409523E-01 -5.99532441312E-01
4.21000000000E+09 +8.94804822911E-03 -4.84853427393E-01 +8.91238580177E-04 -8.24205818173E-04 +9.15880639964E-04 -8.94328464636E-04 +1.36735097706E-01 -5.97078044447E-01
4.21500000000E+09 -8.43960849939E-03 -4.78893031249E-01 +3.54708382906E-04 -6.12243203627E-04 +3.51707574595E-04 -6.59792569978E-04 +1.14449131704E-01 -5.94366608335E-01
4.22000000000E+09 -2.50878361803E-02 -4.72055078015E-01 +4.67218819718E-04 -4.22878618185E-04 +4.82648901415E-04 -3.98639471896E-04 +9.25630568572E-02 -5.91255251173E-01
4.22500000000E+09 -4.01686030641E-02 -4.62955064694E-01 +6.83692700259E-04 -4.38469984400E-04 +6.52688430033E-04 -4.24468812700E-04 +7.04764521763E-02 -5.86565644788E-01
4.23000000000E+09 -5.46284144593E-02 -4.53029293442E-01 +6.21951058976E-04 -8.30903207610E-04 +6.25013721952E-04 -8.39607440156E-04 +4.94347264680E-02 -5.80685051672E-01
4.23500000000E+09 -7.04591289143E-02 -4.40857151532E-01 +1.38325376119E-04 -7.46241345243E-04 +1.68368748193E-04 -8.03846112355E-04 +2.72120900876E-02 -5.73708583665E-01
4.24000000000E+09 -8.62532720358E-02 -4.26789588298E-01 +3.22226358324E-04 -5.47482419594E-04 +2.98958752061E-04 -5.36151171410E-04 +5.15420873962E-03 -5.65185722107E-01
4.24500000000E+09 -1.02658073601E-01 -4.13094787049E-01 +3.99154780867E-04 -7.83507194969E-04 +4.08155857735E-04 -8.16874787117E-04 -1.72290106532E-02 -5.57076106076E-01
4.25000000000E+09 -1.21818635141E-01 -3.99483843538E-01 +2.34654730826E-04 -1.31694344223E-03 +1.35115572422E-04 -1.28521758831E-03 -3.98742211637E-02 -5.47600730636E-01
4.25500000000E+09 -1.41667178629E-01 -3.85871187757E-01 -3.67520926948E-04 -7.71117023108E-04 -4.20101823225E-04 -7.49437981718E-04 -6.04812602227E-02 -5.37392504485E-01
4.26000000000E+09 -1.61560887548E-01 -3.72644237316E-01 -1.17435537544E-04 -7.17755629899E-04 -1.28636181035E-04 -7.68808510886E-04 -8.07396351446E-02 -5.26672251398E-01
4.26500000000E+09 -1.81191107984E-01 -3.60603102038E-01 -2.01747479146E-04 -9.49610576509E-04 -2.07753828554E-04 -9.96087042060E-04 -1.00283168286E-01 -5.14976101150E-01
4.27000000000E+09 -1.98452194447E-01 -3.48079604375E-01 -7.65816794982E-04 -7.38032834329E-04 -7.82843402341E-04 -6.76303525827E-04 -1.21167770484E-01 -5.02673803971E-01
4.27500000000E+09 -2.13551216433E-01 -3.35935977439E-01 -4.88005623987E-04 -4.90401138329E-04 -4.82848631370E-04 -4.86911542066E-04 -1.42200971846E-01 -4.88223326949E-01
4.28000000000E+09 -2.26304019281E-01 -3.23227137658E-01 -8.56802446487E-04 -5.82691845385E-04 -7.98517692780E-04 -5.74800177525E-04 -1.62348846960E-01 -4.73889101160E-01
4.28500000000E+09 -2.37795807112E-01 -3.09148401242E-01 -6.27557712432E-04 -3.91056176928E-05 -6.49976050742E-04 -1.07374345868E-04 -1.82432427575E-01 -4.59837462124E-01
4.29000000000E+09 -2.47705082411E-01 -2.92196855815E-01 -7.45909641339E-04 -1.32951645831E-04 -7.12298799564E-04 -1.54152758367E-04 -2.01776479266E-01 -4.44777461571E-01
4.29500000000E+09 -2.56196807079E-01 -2.74580222675E-01 -5.23536551801E-04 +1.67081848197E-04 -5.07243260844E-04 +2.00236403366E-04 -2.19673253102E-01 -4.28885819085E-01
4.30000000000E+09 -2.66447999634E-01 -2.55742475242E-01 -2.92759887650E-04 -8.67198474265E-05 -2.62475518843E-04 -7.73591353168E-05 -2.36951949854E-01 -4.12283300047E-01
4.30500000000E+09 -2.77853707233E-01 -2.35463925811E-01 -6.73703442072E-04 -2.55056029549E-04 -6.27232822257E-04 -2.78194395399E-04 -2.53786290482E-01 -3.93706790825E-01
4.31000000000E+09 -2.90075246011E-01 -2.14567501626E-01 -6.62873270288E-04 +4.38557670701E-04 -6.48856206703E-04 +3.91907365756E-04 -2.69613127217E-01 -3.75408078026E-01
4.31500000000E+09 -3.02816506560E-01 -1.94131559741E-01 -4.29157947241E-04 +2.63905242092E-04 -4.27576365667E-04 +1.98781494929E-04 -2.85860380242E-01 -3.56218996970E-01
4.32000000000E+09 -3.15006276315E-01 -1.75533653726E-01 -3.43649118273E-04 +6.18131095968E-04 -3.65298438074E-04 +5.87129684200E-04 -3.00853543302E-01 -3.36467464087E-01
4.32500000000E+09 -3.26861157189E-01 -1.57973085903E-01 +2.85779072395E-04 +3.57992201497E-04 +3.53378556488E-04 +2.64571867312E-04 -3.15991830858E-01 -3.16520785934E-01
4.33000000000E+09 -3.35974545938E-01 -1.41238478021E-01 -1.82571230783E-04 +5.94241088295E-06 -1.61166008953E-04 -4.38895254605E-05 -3.28810052893E-01 -2.94407935436E-01
4.33500000000E+09 -3.43063257347E-01 -1.26650819442E-01 +6.09221759183E-05 +3.49003925662E-04 -4.86777300099E-05 +3.61123304757E-04 -3.41019161925E-01 -2.72930660076E-01
4.34000000000E+09 -3.49032774034E-01 -1.10629232180E-01 +1.76483909815E-04 +1.46590719426E-04 +4.10339157381E-05 +1.71822519122E-04 -3.52794208302E-01 -2.49306208343E-01
4.34500000000E+09 -3.50863028539E-01 -9.28985934277E-02 -2.01151235326E-06 -1.42183493072E-04 -3.04895687873E-05 -9.28117445165E-05 -3.63029339709E-01 -2.26748458824E-01
4.35000000000E+09 -3.52542012080E-01 -7.49616513195E-02 -3.43367885046E-05 +3.11724047765E-04 -1.00098719915E-04 +3.89206754564E-04 -3.74113747122E-01 -2.04336012430E-01
4.35500000000E+09 -3.53183651370E-01 -5.41228923430E-02 +3.22703105725E-04 +8.96616727917E-05 +2.94976640887E-04 +1.61693025699E-04 -3.83848636040E-01 -1.81276089505E-01
4.36000000000E+09 -3.53936212417E-01 -3.22241396752E-02 +2.16249814297E-04 -2.68367664045E-05 +1.74800262025E-04 -5.85905709419E-05 -3.91509733363E-01 -1.58658324647E-01
4.36500000000E+09 -3.56572203141E-01 -9.75444216443E-03 +3.74031153608E-04 -9.44452017414E-05 +3.48982946631E-04 -1.48805684299E-05 -3.99316642484E-01 -1.36305769039E-01
4.37000000000E+09 -3.60048277425E-01 +1.34855060730E-02 +2.71085648248E-04 -3.11538643508E-04 +2.88287413901E-04 -2.48606539557E-04 -4.05430636931E-01 -1.12427013877E-01
4.37500000000E+09 -3.64859126315E-01 +3.54636727641E-02 +4.70566283453E-04 -6.62496745768E-04 +5.10797441138E-04 -6.86733328052E-04 -4.10506853636E-01 -8.80336637136E-02
4.38000000000E+09 -3.69438085646E-01 +5.65970514741E-02 -3.01056493628E-04 -1.00507498382E-03 -3.05529237945E-04 -1.03730375332E-03 -4.15160281696E-01 -6.44645810735E-02
4.38500000000E+09 -3.72796050260E-01 +7.45936242996E-02 -7.15181436913E-04 -2.99683846569E-04 -7.01328579913E-04 -3.52466755704E-04 -4.19447035809E-01 -3.99100174358E-02
4.39000000000E+09 -3.75945475157E-01 +9.07003564266E-02 -1.23518306968E-04 -1.67724159092E-04 -2.67132116834E-05 -1.77769187359E-04 -4.21882000998E-01 -1.59249252881E-02
4.39500000000E+09 -3.76249538143E-01 +1.06116528322E-01 -3.51643429640E-04 -5.59436073414E-04 -2.97563644779E-04 -6.28658723934E-04 -4.24443100512E-01 +7.57522014754E-03
4.40000000000E+09 -3.74069369341E-01 +1.20511337216E-01 -3.94900119621E-04 -3.00771190897E-04 -3.46901579388E-04 -3.42757540240E-04 -4.24802832859E-01 +3.20538343849E-02
4.40500000000E+09 -3.69899591660E-01 +1.35172027406E-01 -4.93706432341E-04 -5.28211873544E-04 -4.95936045167E-04 -5.79865869518E-04 -4.24823387454E-01 +5.56616564104E-02
4.41000000000E+09 -3.64425269569E-01 +1.50979978211E-01 -6.31806710303E-04 -4.32722067998E-04 -6.25940545133E-04 -4.42896087362E-04 -4.23605607923E-01 +8.05213982743E-02
4.41500000000E+09 -3.58788920732E-01 +1.69721677708E-01 -7.94225321300E-04 -4.77516605943E-04 -8.17026484491E-04 -5.14321764029E-04 -4.21786824967E-01 +1.04184121156E-01
4.42000000000E+09 -3.52903073157E-01 +1.90463459205E-01 -1.28231272235E-03 -2.22852388386E-04 -1.25778952075E-03 -3.01526330316E-04 -4.19206486051E-01 +1.28656191714E-01
4.42500000000E+09 -3.47645529870E-01 +2.12703704667E-01 -1.21472235083E-03 +1.18799976324E-04 -1.24433016570E-03 +3.57285142943E-05 -4.13983200241E-01 +1.51373700183E-01
4.43000000000E+09 -3.42768764767E-01 +2.35199438496E-01 -1.34620283004E-03 +5.68456381484E-04 -1.39542533498E-03 +5.94066412667E-04 -4.10539051968E-01 +1.73152259327E-01
4.43500000000E+09 -3.38701700242E-01 +2.55758704839E-01 -9.14115083256E-04 +8.52773054673E-04 -9.56973720230E-04 +9.39444470217E-04 -4.04709440709E-01 +1.96481137604E-01
4.44000000000E+09 -3.35743694555E-01 +2.73653739156E-01 -6.00435183729E-04 +7.56446187022E-04 -6.95940778176E-04 +7.09871136226E-04 -3.98657349393E-01 +2.17833946628E-01
4.44500000000E+09 -3.34054691774E-01 +2.89735422778E-01 -8.15843541227E-04 +6.05296930228E-04 -8.32895132646E-04 +6.39967471972E-04 -3.92401857363E-01 +2.39799185754E-01
4.45000000000E+09 -3.31838316833E-01 +3.03931504867E-01 -7.19902406838E-04 +9.40670612389E-04 -7.14132359143E-04 +9.93609857903E-04 -3.85504246195E-01 +2.60698669168E-01
4.45500000000E+09 -3.27420104334E-01 +3.17308896257E-01 -6.79918505673E-04 +1.06921321570E-03 -6.50648575980E-04 +1.11392311129E-03 -3.77661848202E-01 +2.80699097629E-01
4.46000000000E+09 -3.20357165761E-01 +3.29518419532E-01 -4.76460476110E-04 +1.10496397125E-03 -4.86796447892E-04 +1.19438623869E-03 -3.69927209561E-01 +3.00040157165E-01
4.46500000000E+09 -3.11539128295E-01 +3.41949967805E-01 -3.15508716740E-04 +1.14727886566E-03 -2.78369316264E-04 +1.25914571105E-03 -3.60392018689E-01 +3.19775021356E-01
4.47000000000E+09 -3.00553621572E-01 +3.55830047165E-01 -1.22641411380E-04 +1.38615193334E-03 -5.20226159645E-05 +1.49588902862E-03 -3.49769447771E-01 +3.38762055144E-01
4.47500000000E+09 -2.88246647308E-01 +3.70425289021E-01 -3.29857051634E-05 +1.29364636825E-03 +9.41040019558E-05 +1.34418021807E-03 -3.39582870055E-01 +3.58059015551E-01
4.48000000000E+09 -2.76914715942E-01 +3.87253223816E-01 +3.62176698622E-04 +1.53317384589E-03 +4.99258045321E-04 +1.48222672907E-03 -3.27777705977E-01 +3.76859744876E-01
4.48500000000E+09 -2.64801291088E-01 +4.04648292115E-01 +4.03993418217E-04 +1.14136359966E-03 +4.64980018421E-04 +1.07232805319E-03 -3.16560000155E-01 +3.94232764459E-01
4.49000000000E+09 -2.55148311874E-01 +4.20944006671E-01 +5.09393827647E-04 +1.30791345490E-03 +5.60692955513E-04 +1.19685473185E-03 -3.05289796921E-01 +4.10865958792E-01
4.49500000000E+09 -2.47129750899E-01 +4.37339208055E-01 +7.09339610593E-04 +1.18490218573E-03 +7.89481000247E-04 +1.14396343205E-03 -2.93917684094E-01 +4.26545238364E-01
4.50000000000E+09 -2.40720350949E-01 +4.50640797169E-01 +7.15486118582E-04 +1.36159039836E-03 +8.04987703325E-04 +1.23082265985E-03 -2.81793821486E-01 +4.42499017847E-01
4.50500000000E+09 -2.36055501982E-01 +4.63026102453E-01 +1.30867750846E-03 +1.19778639272E-03 +1.34589027431E-03 +1.12813825986E-03 -2.68460897174E-01 +4.57830001589E-01
4.51000000000E+09 -2.29708691128E-01 +4.73305194989E-01 +1.39393884633E-03 +7.24211029815E-04 +1.41290390397E-03 +6.63514805711E-04 -2.54905305588E-01 +4.72395935847E-01
4.51500000000E+09 -2.22935025447E-01 +4.81407463457E-01 +1.40476987708E-03 +7.27135371044E-04 +1.36738442752E-03 +6.05648896403E-04 -2.41395769471E-01 +4.86991700782E-01
4.52000000000E+09 -2.13315409297E-01 +4.89188091063E-01 +1.63694081123E-03 +3.55970932567E-04 +1.57038590731E-03 +3.47059034906E-04 -2.28002031825E-01 +5.00389929950E-01
4.52500000000E+09 -2.01988772503E-01 +4.95609119228E-01 +1.45053250135E-03 +1.13957244089E-04 +1.38753252331E-03 +6.26971233034E-05 -2.14279357792E-01 +5.12941442457E-01
4.53000000000E+09 -1.88975321604E-01 +5.03746611694E-01 +1.41468989797E-03 +1.01848735441E-04 +1.30418421294E-03 +4.34192438905E-05 -2.00349581379E-01 +5.24470614348E-01
4.53500000000E+09 -1.73701785662E-01 +5.12841499772E-01 +1.21477779273E-03 +4.61026725057E-05 +1.12234113963E-03 +1.49480125439E-05 -1.85886915401E-01 +5.36257432913E-01
4.54000000000E+09 -1.58395964442E-01 +5.22585612270E-01 +1.74225776987E-03 +2.18088411045E-04 +1.67049486272E-03 +2.06948710658E-04 -1.70078823795E-01 +5.47209045392E-01
4.54500000000E+09 -1.43589136889E-01 +5.33943582362E-01 +1.99063295328E-03 -5.54962864209E-04 +1.90741636169E-03 -5.92563275739E-04 -1.55148955959E-01 +5.57254940217E-01
4.55000000000E+09 -1.29923100214E-01 +5.44424447905E-01 +1.79878321144E-03 -7.92797860858E-04 +1.68814960379E-03 -7.50098951495E-04 -1.40198813246E-01 +5.68090011986E-01
4.55500000000E+09 -1.18660839492E-01 +5.55013197579E-01 +1.52878573565E-03 -1.22097339110E-03 +1.48628480422E-03 -1.15155542595E-03 -1.25500221219E-01 +5.77655369988E-01
4.56000000000E+09 -1.08368041512E-01 +5.64433664840E-01 +1.17007866843E-03 -1.24253978303E-03 +1.13566641253E-03 -1.15100841441E-03 -1.10791872691E-01 +5.86428210230E-01
4.56500000000E+09 -9.95173068473E-02 +5.72267337633E-01 +1.07393247802E-03 -1.39139242890E-03 +1.05639399660E-03 -1.33054030146E-03 -9.67775752450E-02 +5.95016157501E-01
4.57000000000E+09 -9.02342398674E-02 +5.79022338713E-01 +9.40996173078E-04 -1.51277170421E-03 +9.22248563987E-04 -1.44679339237E-03 -8.10351652939E-02 +6.03573818947E-01
