# Hz S RI R 50
! CMT, C1220, 16058040, 17.2.0/1
! Date: 15/08/2018 12:40:31
! Data: Format (Calibration Info)
! Freq                      S11: Re/Im (F2)                       S21: Re/Im (F2)                       S12: Re/Im (F2)                       S22: Re/Im (F2)            
4.00000000000E+09 +6.55790783655E-01 -3.59882053186E-01 +1.03437842782E-03 -9.10923923209E-04 +1.14436843287E-03 -8.88115007924E-04 +7.87195692354E-01 -3.13214876400E-01
4.00500000000E+09 +6.47213016342E-01 -3.65432962054E-01 +9.01106013510E-04 -1.07717211708E-03 +9.94624874198E-04 -1.13294236005E-03 +7.78887760395E-01 -3.24722347086E-01
4.01000000000E+09 +6.38238361427E-01 -3.70923959992E-01 +6.74614801481E-04 -1.36879288663E-03 +7.72271698306E-04 -1.40843888889E-03 +7.70468161635E-01 -3.36867261008E-01
4.01500000000E+09 +6.28306351052E-01 -3.77241654026E-01 +3.74259181164E-04 -1.31054955809E-03 +3.86241175422E-04 -1.31641705156E-03 +7.61821043703E-01 -3.48151455573E-01
4.02000000000E+09 +6.18429842098E-01 -3.84367074018E-01 +3.97252108386E-04 -1.31987174365E-03 +5.41351229913E-04 -1.38317272742E-03 +7.52964787818E-01 -3.59160955570E-01
4.02500000000E+09 +6.07826722595E-01 -3.93279261122E-01 +2.21387238334E-04 -1.41626238602E-03 +2.73754326073E-04 -1.47539066226E-03 +7.43456269294E-01 -3.69916012020E-01
4.03000000000E+09 +5.96960473150E-01 -4.03706759974E-01 +2.65027646557E-05 -1.34792277808E-03 +1.43630987376E-04 -1.40570925481E-03 +7.33093725179E-01 -3.80442311297E-01
4.03500000000E+09 +5.85016552265E-01 -4.14297783083E-01 -8.52208267262E-05 -1.36588901453E-03 -5.16487526588E-05 -1.44606753319E-03 +7.22067632219E-01 -3.91583381681E-01
4.04000000000E+09 +5.73765111953E-01 -4.23793169152E-01 -1.57304911220E-04 -1.26829174109E-03 -1.35610069774E-04 -1.33992863415E-03 +7.10789204972E-01 -4.02927353745E-01
4.04500000000E+09 +5.62966198196E-01 -4.33404113880E-01 -2.12555023512E-04 -1.32047295401E-03 -2.22927683654E-04 -1.47288139303E-03 +6.99803827523E-01 -4.13805881877E-01
4.05000000000E+09 +5.51399494315E-01 -4.41523745108E-01 -3.64295964646E-04 -1.43257230705E-03 -3.43182826698E-04 -1.50464863792E-03 +6.89133537955E-01 -4.24434435595E-01
4.05500000000E+09 +5.39325927436E-01 -4.47557381112E-01 -4.22669600994E-04 -1.34875532070E-03 -4.47308624455E-04 -1.41726169270E-03 +6.77766276819E-01 -4.34212244753E-01
4.06000000000E+09 +5.27366372877E-01 -4.52103040924E-01 -7.17015481209E-04 -1.48902962692E-03 -7.40659991194E-04 -1.57526285212E-03 +6.66562447698E-01 -4.43419298494E-01
4.06500000000E+09 +5.14267229661E-01 -4.55827713356E-01 -1.03141164238E-03 -1.18776296615E-03 -1.07321292678E-03 -1.20728577991E-03 +6.54309066225E-01 -4.53162656045E-01
4.07000000000E+09 +5.01218680733E-01 -4.59594608133E-01 -1.02190957800E-03 -8.82919324717E-04 -1.00727467331E-03 -8.87190330493E-04 +6.41066805959E-01 -4.63153884572E-01
4.07500000000E+09 +4.86636727747E-01 -4.64258409562E-01 -9.50005687328E-04 -9.36205547994E-04 -8.94080194046E-04 -9.48160076258E-04 +6.27594844269E-01 -4.73769368607E-01
4.08000000000E+09 +4.71306791979E-01 -4.69239754211E-01 -1.20865468940E-03 -8.26140584578E-04 -1.14055727186E-03 -8.51747482796E-04 +6.13983332457E-01 -4.83692847193E-01
4.08500000000E+09 +4.55069036621E-01 -4.75625860420E-01 -1.00284129666E-03 -6.39575269309E-04 -9.27727635409E-04 -6.95863543057E-04 +6.00592132101E-01 -4.93686278785E-01
4.09000000000E+09 +4.38216272538E-01 -4.82087495733E-01 -1.11942812860E-03 -9.37740860717E-04 -1.10635531916E-03 -9.83850858827E-04 +5.86730610368E-01 -5.02575693860E-01
4.09500000000E+09 +4.21494407935E-01 -4.88388425405E-01 -1.49435921550E-03 -6.52139887150E-04 -1.46298814562E-03 -7.56473102016E-04 +5.72424071656E-01 -5.10940390565E-01
4.10000000000E+09 +4.04818668386E-01 -4.93953594426E-01 -1.35021161667E-03 -3.11493425102E-04 -1.35228024917E-03 -3.51999716083E-04 +5.56535733046E-01 -5.18722644972E-01
4.10500000000E+09 +3.88359607093E-01 -4.98192360126E-01 -1.38937368690E-03 -3.59606279489E-04 -1.32749115415E-03 -4.56737028858E-04 +5.40972014639E-01 -5.26680771662E-01
4.11000000000E+09 +3.72140729812E-01 -5.00029194428E-01 -1.57262664005E-03 -8.78364919758E-05 -1.59721565372E-03 -2.05414323379E-04 +5.24402777777E-01 -5.35165727099E-01
4.11500000000E+09 +3.57420656541E-01 -5.01224713876E-01 -1.24040040109E-03 +1.81961583678E-04 -1.23092354221E-03 +1.08497338067E-04 +5.07995011561E-01 -5.43120898020E-01
4.12000000000E+09 +3.41674437271E-01 -5.02291759572E-01 -1.14727046188E-03 -2.48032121960E-05 -1.17401420294E-03 -1.30575132475E-04 +4.91711051308E-01 -5.51111992232E-01
4.12500000000E+09 +3.24997193344E-01 -5.03226743293E-01 -1.25253155447E-03 -2.70064913319E-05 -1.32088278910E-03 -6.71882417902E-05 +4.74360847671E-01 -5.57680996199E-01
4.13000000000E+09 +3.07459489706E-01 -5.03856852468E-01 -1.30360819270E-03 +1.89197963285E-04 -1.39993592217E-03 +1.02979719401E-04 +4.56883429194E-01 -5.63596332676E-01
4.13500000000E+09 +2.88871119078E-01 -5.06111490096E-01 -9.51621192921E-04 +2.75694531282E-04 -1.09727728544E-03 +1.63805513670E-04 +4.38595789895E-01 -5.68768406950E-01
4.14000000000E+09 +2.69107339047E-01 -5.08632832051E-01 -1.25166641377E-03 -2.52277158394E-04 -1.41533393129E-03 -2.72486178261E-04 +4.20458634286E-01 -5.74500874326E-01
4.14500000000E+09 +2.49374505244E-01 -5.11098104320E-01 -1.93274064097E-03 +1.75744759522E-04 -2.08544328121E-03 +1.01922225741E-04 +4.01233904484E-01 -5.80524345773E-01
4.15000000000E+09 +2.30345272725E-01 -5.14485173689E-01 -1.74185377483E-03 +8.42191195715E-04 -1.84990097413E-03 +8.51179893810E-04 +3.83236418436E-01 -5.85365757615E-01
4.15500000000E+09 +2.11051356819E-01 -5.17496837425E-01 -1.46336631009E-03 +1.00386582906E-03 -1.47053916737E-03 +1.07638889128E-03 +3.64993518908E-01 -5.90405700152E-01
4.16000000000E+09 +1.92652314937E-01 -5.18192699652E-01 -1.26663095909E-03 +1.17012502337E-03 -1.30887051816E-03 +1.21931897046E-03 +3.46176312046E-01 -5.93818763125E-01
4.16500000000E+09 +1.75847072325E-01 -5.18279865164E-01 -9.73646689048E-04 +1.04154546423E-03 -9.59535273373E-04 +1.13340676321E-03 +3.27021241390E-01 -5.96666473252E-01
4.17000000000E+09 +1.59173998679E-01 -5.16090121386E-01 -1.00510186261E-03 +9.84620345074E-04 -1.02503115883E-03 +1.01720693469E-03 +3.06544729016E-01 -5.99060973606E-01
4.17500000000E+09 +1.42979563487E-01 -5.11986162845E-01 -1.09836110619E-03 +7.85774036758E-04 -1.05815323693E-03 +8.55860308250E-04 +2.85349004605E-01 -6.00849986538E-01
4.18000000000E+09 +1.26677525207E-01 -5.06768856544E-01 -1.28062293768E-03 +1.38713835139E-03 -1.30432900156E-03 +1.42091884662E-03 +2.64410068760E-01 -6.02469757893E-01
4.18500000000E+09 +1.10651311188E-01 -5.01616066202E-01 -9.01858052108E-04 +1.52306954978E-03 -8.82353100257E-04 +1.54835780710E-03 +2.43297885078E-01 -6.04177059423E-01
4.19000000000E+09 +9.23754002137E-02 -4.96712861807E-01 -9.60539182786E-04 +1.71228779602E-03 -8.97781982216E-04 +1.76849147591E-03 +2.21788074464E-01 -6.04198202365E-01
4.19500000000E+09 +7.39360502245E-02 -4.91165402662E-01 -6.35716955778E-04 +1.87170832135E-03 -6.27602258210E-04 +1.78949977326E-03 +2.00725400027E-01 -6.02727575584E-01
4.20000000000E+09 +5.55147000875E-02 -4.87383769809E-01 -2.07619807193E-04 +2.02513454790E-03 -2.23048312151E-04 +2.06821836659E-03 +1.79212789294E-01 -6.00767693736E-01
4.20500000000E+09 +3.58523339436E-02 -4.83400473254E-01 +1.98312369851E-04 +1.80019504085E-03 +2.03962083531E-04 +1.76881012995E-03 +1.57902996330E-01 -5.97625349437E-01
4.21000000000E+09 +1.77138366068E-02 -4.78794071746E-01 -3.98173092531E-05 +1.26152106623E-03 -4.47142875848E-05 +1.22934771518E-03 +1.35975777577E-01 -5.96328883323E-01
4.21500000000E+09 +1.48716323326E-04 -4.73002982378E-01 -1.09342109346E-04 +1.65677891012E-03 -1.89095396167E-04 +1.61372428257E-03 +1.12641878869E-01 -5.93919940525E-01
4.22000000000E+09 -1.51569627702E-02 -4.65925458440E-01 +1.65308063499E-04 +1.65672906926E-03 +1.56029125783E-04 +1.66383492447E-03 +9.04326668039E-02 -5.90063736978E-01
4.22500000000E+09 -2.99366434754E-02 -4.57833486939E-01 +1.90927696939E-05 +1.47425698139E-03 -3.69826310955E-05 +1.42241179530E-03 +6.87180631649E-02 -5.85558866819E-01
4.23000000000E+09 -4.44373070950E-02 -4.47010772722E-01 +1.50758916796E-04 +1.93864902749E-03 -2.60141399794E-05 +2.02159976829E-03 +4.72944003723E-02 -5.78902421039E-01
4.23500000000E+09 -5.80836303770E-02 -4.35809015930E-01 +5.16374872660E-04 +1.95159089123E-03 +4.67835013526E-04 +1.97054880810E-03 +2.58552370269E-02 -5.71927559243E-01
4.24000000000E+09 -7.40650307918E-02 -4.24088842747E-01 +6.19329351217E-04 +1.95308145219E-03 +5.75982567211E-04 +2.05850550700E-03 +4.17456300902E-03 -5.63635502034E-01
4.24500000000E+09 -9.16361539121E-02 -4.10897258074E-01 +1.10065438201E-03 +1.71639008571E-03 +1.03385890178E-03 +1.80917666014E-03 -1.72406447311E-02 -5.55672026532E-01
4.25000000000E+09 -1.10431741664E-01 -3.97928927979E-01 +7.56859038725E-04 +1.60049352633E-03 +7.48872995031E-04 +1.72025015266E-03 -3.90985633618E-02 -5.47343068281E-01
4.25500000000E+09 -1.30060080272E-01 -3.85411961753E-01 +1.03617126648E-03 +1.87193450521E-03 +1.08634456865E-03 +1.98737846847E-03 -5.99738180261E-02 -5.38678917957E-01
4.26000000000E+09 -1.51062156595E-01 -3.73463796496E-01 +1.36515017174E-03 +1.72375244488E-03 +1.44112996759E-03 +1.84695062106E-03 -8.13486872781E-02 -5.28955136640E-01
4.26500000000E+09 -1.69976319284E-01 -3.60961500217E-01 +1.15788160766E-03 +1.89993857524E-03 +1.24238106927E-03 +1.98219755370E-03 -1.02546108480E-01 -5.17622168285E-01
4.27000000000E+09 -1.86810553584E-01 -3.49948661942E-01 +2.05742805050E-03 +1.96088378999E-03 +2.20877022738E-03 +2.05403732071E-03 -1.24239068064E-01 -5.04361326554E-01
4.27500000000E+09 -2.02946033983E-01 -3.38878058479E-01 +2.28487155328E-03 +1.48052840175E-03 +2.49871772141E-03 +1.42963621600E-03 -1.45193921844E-01 -4.90391724703E-01
4.28000000000E+09 -2.16743716004E-01 -3.26038287785E-01 +2.36218077614E-03 +1.25372173927E-03 +2.49102702814E-03 +1.20364311605E-03 -1.66266175400E-01 -4.76211725465E-01
4.28500000000E+09 -2.28701250710E-01 -3.11561210780E-01 +2.75970784179E-03 +1.20726552564E-03 +2.86386214561E-03 +1.12376460128E-03 -1.86736513065E-01 -4.61271488871E-01
4.29000000000E+09 -2.39420084471E-01 -2.95819326708E-01 +3.05321201528E-03 +2.81448520040E-04 +3.14153196683E-03 +1.84894692128E-04 -2.05448193089E-01 -4.46498894522E-01
4.29500000000E+09 -2.50838078708E-01 -2.78263721504E-01 +2.32382943957E-03 +9.95270231370E-05 +2.40680319387E-03 -3.85758247879E-05 -2.24383383323E-01 -4.31033834915E-01
4.30000000000E+09 -2.61882821153E-01 -2.58179439172E-01 +2.70082817770E-03 +2.27351839316E-04 +2.74007880896E-03 +1.39874690401E-04 -2.41594481857E-01 -4.14039096889E-01
4.30500000000E+09 -2.73189443414E-01 -2.38596676160E-01 +2.94560602796E-03 -2.84096068781E-04 +2.90467286493E-03 -3.38213401617E-04 -2.59725134109E-01 -3.96662709984E-01
4.31000000000E+09 -2.86633421288E-01 -2.19409902597E-01 +2.50095283862E-03 -1.96067637612E-04 +2.50923673776E-03 -2.28140018429E-04 -2.76824084240E-01 -3.77187912589E-01
4.31500000000E+09 -3.00261397673E-01 -1.99983788775E-01 +3.32219689425E-03 -3.40198144567E-04 +3.29654520629E-03 -4.41457573050E-04 -2.93404537756E-01 -3.57907029249E-01
4.32000000000E+09 -3.13512185767E-01 -1.82336595596E-01 +3.36929826628E-03 -1.54544840732E-03 +3.32525347458E-03 -1.58537388055E-03 -3.09337893426E-01 -3.37897612580E-01
4.32500000000E+09 -3.25582691967E-01 -1.65589679291E-01 +2.48052722910E-03 -1.99206652670E-03 +2.43546094178E-03 -2.01338366198E-03 -3.23787889879E-01 -3.16877515789E-01
4.33000000000E+09 -3.35845834641E-01 -1.49980697880E-01 +2.42777005172E-03 -1.80923251393E-03 +2.37574070710E-03 -1.84089290811E-03 -3.36995110258E-01 -2.95558908092E-01
4.33500000000E+09 -3.43068260371E-01 -1.33272654967E-01 +2.28698682276E-03 -2.18519421821E-03 +2.17002962152E-03 -2.21152412431E-03 -3.49663164070E-01 -2.73259997969E-01
4.34000000000E+09 -3.46787599920E-01 -1.17699373984E-01 +1.85990450651E-03 -2.62257329781E-03 +1.77974576434E-03 -2.54052392052E-03 -3.62293177413E-01 -2.50884909277E-01
4.34500000000E+09 -3.49284175296E-01 -1.01234854990E-01 +1.35800186604E-03 -2.16460561750E-03 +1.31691895734E-03 -2.13466513583E-03 -3.74945463980E-01 -2.26910618445E-01
4.35000000000E+09 -3.50261223332E-01 -8.25422890556E-02 +1.82856759363E-03 -2.39472365494E-03 +1.83854347319E-03 -2.36669799897E-03 -3.85926097027E-01 -2.03553249520E-01
4.35500000000E+09 -3.51575815769E-01 -6.28290154529E-02 +1.42955473018E-03 -3.00910734653E-03 +1.48818946299E-03 -2.96249408406E-03 -3.96232839476E-01 -1.80739737296E-01
4.36000000000E+09 -3.53756905570E-01 -4.08067575378E-02 +8.05407412578E-04 -2.83369494752E-03 +9.15943172218E-04 -2.82153255837E-03 -4.06008560683E-01 -1.57286320333E-01
4.36500000000E+09 -3.57231121346E-01 -1.74883233699E-02 +1.02985933709E-03 -2.74326514640E-03 +1.16123522768E-03 -2.78568921237E-03 -4.13567333477E-01 -1.32324835144E-01
4.37000000000E+09 -3.61515725487E-01 +6.57345393336E-03 +9.61494576261E-04 -3.09768125151E-03 +1.02991401730E-03 -3.19648710630E-03 -4.19545447015E-01 -1.07740696731E-01
4.37500000000E+09 -3.65129054131E-01 +2.92834000844E-02 +6.49945263455E-04 -3.94097164862E-03 +6.34335575419E-04 -4.12212316338E-03 -4.25159253255E-01 -8.19374357529E-02
4.38000000000E+09 -3.70082454681E-01 +4.87187693663E-02 -4.37124989945E-04 -3.81555892350E-03 -4.66469099419E-04 -3.95513877353E-03 -4.29146479688E-01 -5.65342379920E-02
4.38500000000E+09 -3.74751268553E-01 +6.71298876811E-02 -7.67435396238E-04 -3.46154868227E-03 -7.96987637477E-04 -3.50234403235E-03 -4.32539019298E-01 -3.16216991569E-02
4.39000000000E+09 -3.77856975730E-01 +8.33173235883E-02 -1.04945096456E-03 -3.45096809393E-03 -1.05207446499E-03 -3.53431566525E-03 -4.35775920761E-01 -6.31833164857E-03
4.39500000000E+09 -3.78873531126E-01 +9.83229084024E-02 -1.43763394776E-03 -3.05031368786E-03 -1.51063670482E-03 -3.13611206797E-03 -4.36668115839E-01 +1.79906278512E-02
4.40000000000E+09 -3.77749474083E-01 +1.13538197764E-01 -1.29189879953E-03 -3.17458676783E-03 -1.46030065014E-03 -3.22981992098E-03 -4.37284016744E-01 +4.27681649179E-02
4.40500000000E+09 -3.74045227905E-01 +1.29883536633E-01 -2.06469445969E-03 -3.15374846245E-03 -2.23932060233E-03 -3.22142923739E-03 -4.36381528156E-01 +6.75543639993E-02
4.41000000000E+09 -3.68031754350E-01 +1.46528897422E-01 -2.18356104667E-03 -2.80421991952E-03 -2.30404848216E-03 -2.77738559194E-03 -4.34808130207E-01 +9.25547816333E-02
4.41500000000E+09 -3.62810340263E-01 +1.64656656290E-01 -2.70462027410E-03 -2.74159294145E-03 -2.85126316410E-03 -2.66959840851E-03 -4.32228203176E-01 +1.17130408700E-01
4.42000000000E+09 -3.57906378545E-01 +1.85584984005E-01 -2.77555661793E-03 -2.27395267003E-03 -2.87062420538E-03 -2.16197395520E-03 -4.29860032386E-01 +1.41223005571E-01
4.42500000000E+09 -3.53160073423E-01 +2.07684397790E-01 -3.13552802320E-03 -2.54585839171E-03 -3.14942385479E-03 -2.43252370948E-03 -4.24883998835E-01 +1.66150269757E-01
4.43000000000E+09 -3.49508886098E-01 +2.29113012868E-01 -3.95718145732E-03 -2.32922640792E-03 -3.94158278017E-03 -2.11826831451E-03 -4.19521835743E-01 +1.88594255773E-01
4.43500000000E+09 -3.47350949230E-01 +2.50108901940E-01 -4.25396591208E-03 -1.09231921953E-03 -4.24884796976E-03 -9.61179526268E-04 -4.13234924113E-01 +2.12033854500E-01
4.44000000000E+09 -3.44820247121E-01 +2.69355353270E-01 -4.08920088632E-03 -7.86731779193E-04 -4.08816285263E-03 -6.75811778769E-04 -4.06143484315E-01 +2.34372699656E-01
4.44500000000E+09 -3.42090142215E-01 +2.85133560677E-01 -3.97017944471E-03 +3.44816917936E-05 -3.96526578324E-03 +1.47206999103E-04 -3.98879052613E-01 +2.55963128726E-01
4.45000000000E+09 -3.39443663772E-01 +2.98928950142E-01 -3.70109663511E-03 -4.01461606213E-05 -3.64907318809E-03 +5.29564757617E-05 -3.91439875956E-01 +2.77174661970E-01
4.45500000000E+09 -3.34626870114E-01 +3.11759974117E-01 -3.84932623403E-03 +1.10609301774E-04 -3.85819639557E-03 +2.25775383557E-04 -3.83543733994E-01 +2.98178600083E-01
4.46000000000E+09 -3.28470230507E-01 +3.23539680264E-01 -4.06649493465E-03 +7.27124142317E-04 -4.00771540617E-03 +8.27086195170E-04 -3.73479933360E-01 +3.18242048014E-01
4.46500000000E+09 -3.19665522646E-01 +3.36887129294E-01 -3.84544226502E-03 +1.24119950457E-03 -3.75193357872E-03 +1.33237396789E-03 -3.63587518499E-01 +3.37561883417E-01
4.47000000000E+09 -3.09078269703E-01 +3.50648844687E-01 -3.74188767699E-03 +1.46999388466E-03 -3.69888783241E-03 +1.59260847819E-03 -3.50936167833E-01 +3.57223213323E-01
4.47500000000E+09 -2.97203846811E-01 +3.67012695194E-01 -3.89222182153E-03 +1.98110501180E-03 -3.78535888586E-03 +2.10122549172E-03 -3.39066559413E-01 +3.74796515606E-01
4.48000000000E+09 -2.84916513111E-01 +3.82793074684E-01 -3.50321749951E-03 +2.63940672093E-03 -3.38746884383E-03 +2.66325136085E-03 -3.27601590741E-01 +3.93288928010E-01
4.48500000000E+09 -2.74820193347E-01 +4.00229055300E-01 -3.14169176872E-03 +2.89750597296E-03 -3.04164463558E-03 +2.86948604173E-03 -3.15516799462E-01 +4.09876805554E-01
4.49000000000E+09 -2.65151035186E-01 +4.17316268769E-01 -2.77397369436E-03 +3.47903255484E-03 -2.63140310988E-03 +3.43753266564E-03 -3.03993397548E-01 +4.26260981673E-01
4.49500000000E+09 -2.57438617906E-01 +4.32739503820E-01 -2.17836410145E-03 +3.58430140029E-03 -2.16078975342E-03 +3.47101169616E-03 -2.91924579778E-01 +4.41600739401E-01
4.50000000000E+09 -2.51287782013E-01 +4.47054801496E-01 -1.78804396638E-03 +3.77957780733E-03 -1.79657712080E-03 +3.63560109792E-03 -2.79108651950E-01 +4.56568707128E-01
4.50500000000E+09 -2.45214084907E-01 +4.59072052654E-01 -1.50775366149E-03 +3.59354671924E-03 -1.56512122351E-03 +3.56030147074E-03 -2.65308565208E-01 +4.71597150516E-01
4.51000000000E+09 -2.38172770492E-01 +4.69083664156E-01 -1.54755247809E-03 +4.09378376220E-03 -1.52771078067E-03 +4.10831817918E-03 -2.51349083638E-01 +4.85511902326E-01
4.51500000000E+09 -2.29196460500E-01 +4.76948738350E-01 -7.03412512294E-04 +4.59508111205E-03 -6.62133675491E-04 +4.55728325203E-03 -2.38036635038E-01 +4.99540004259E-01
4.52000000000E+09 -2.18855106762E-01 +4.83596918934E-01 -6.12171240222E-05 +4.24136091780E-03 -3.28328026113E-05 +4.21706026786E-03 -2.24198837907E-01 +5.12619166750E-01
4.52500000000E+09 -2.06566418450E-01 +4.90833830356E-01 +1.29060471266E-04 +4.40217383775E-03 +1.42101271112E-04 +4.44174407688E-03 -2.10384739924E-01 +5.24348272934E-01
4.53000000000E+09 -1.92610354154E-01 +4.98742923389E-01 +8.56795304464E-04 +4.39730627813E-03 +8.86304885500E-04 +4.35914800851E-03 -1.96121845710E-01 +5.35414577122E-01
4.53500000000E+09 -1.77146483297E-01 +5.09148198094E-01 +1.28411864820E-03 +4.04040164598E-03 +1.32466064800E-03 +3.94440771905E-03 -1.81196015609E-01 +5.45770700798E-01
4.54000000000E+09 -1.60786544335E-01 +5.19845656919E-01 +1.67652133380E-03 +4.04264535964E-03 +1.79443088087E-03 +3.97137695321E-03 -1.66642231108E-01 +5.56150858758E-01
4.54500000000E+09 -1.45904150686E-01 +5.31042524818E-01 +2.35215438478E-03 +3.60403004543E-03 +2.44802598156E-03 +3.53111145744E-03 -1.51844771918E-01 +5.66987193853E-01
4.55000000000E+09 -1.32591863755E-01 +5.41708916601E-01 +2.27749469918E-03 +3.31396102504E-03 +2.35209476723E-03 +3.16622913251E-03 -1.36778213425E-01 +5.77427627780E-01
4.55500000000E+09 -1.22135284553E-01 +5.51723235825E-01 +2.64611874454E-03 +3.14377384427E-03 +2.74025939547E-03 +2.94794324400E-03 -1.22091404519E-01 +5.86881015281E-01
4.56000000000E+09 -1.13659535164E-01 +5.61651669209E-01 +2.91205780320E-03 +2.84201769653E-03 +2.97425266230E-03 +2.71165513323E-03 -1.07942549988E-01 +5.95462671866E-01
4.56500000000E+09 -1.05266082062E-01 +5.70094185597E-01 +3.32200900318E-03 +2.57949856126E-03 +3.31048556035E-03 +2.48903567226E-03 -9.29711362627E-02 +6.04187286968E-01
4.57000000000E+09 -9.56545059415E-02 +5.76470255572E-01 +3.55549812569E-03 +2.29539334221E-03 +3.51872174471E-03 +2.12742241394E-03 -7.73070285428E-02 +6.11280113985E-01
