# Hz S RI R 50
! CMT, C1220, 16058040, 17.2.0/1
! Date: 15/08/2018 12:22:33
! Data: Format (Calibration Info)
! Freq                      S11: Re/Im (F2)                       S21: Re/Im (F2)                       S12: Re/Im (F2)                       S22: Re/Im (F2)            
4.00000000000E+09 +6.48513946081E-01 -3.54400759292E-01 +7.31315875106E-04 -3.31589014040E-04 +7.41839892213E-04 -3.27933043176E-04 +7.42745363092E-01 -3.25145357804E-01
4.00500000000E+09 +6.40673845052E-01 -3.60226474885E-01 +6.01429794961E-04 -2.45811056830E-04 +6.58260231730E-04 -2.57962198448E-04 +7.32200187734E-01 -3.35840260780E-01
4.01000000000E+09 +6.32004098624E-01 -3.66522420566E-01 +9.20542735684E-04 -5.02570348686E-04 +9.23506559512E-04 -4.67631081566E-04 +7.21218705295E-01 -3.46805797813E-01
4.01500000000E+09 +6.21424597379E-01 -3.73655003741E-01 +8.06837024447E-04 -8.33428844051E-04 +8.99303022285E-04 -8.15752465856E-04 +7.09991574872E-01 -3.57049279661E-01
4.02000000000E+09 +6.10178588985E-01 -3.81136698988E-01 +4.31401738255E-04 -1.03995213385E-03 +4.80753882199E-04 -1.05970415805E-03 +6.98307238073E-01 -3.67085207536E-01
4.02500000000E+09 +5.98446670171E-01 -3.90029399371E-01 +1.00467439532E-04 -6.63376226845E-04 +1.36988743580E-04 -6.93159819600E-04 +6.86035808530E-01 -3.76882502298E-01
4.03000000000E+09 +5.86972636045E-01 -3.99607005928E-01 +3.68259476652E-04 -4.89418497967E-04 +3.61770337160E-04 -4.93004647654E-04 +6.73144743917E-01 -3.86491828847E-01
4.03500000000E+09 +5.75814800128E-01 -4.09823199601E-01 +6.01544752202E-04 -6.56523411833E-04 +6.36234273759E-04 -6.64863931141E-04 +6.60040147990E-01 -3.96150665190E-01
4.04000000000E+09 +5.65108604583E-01 -4.20460341259E-01 +5.79449022512E-04 -1.08231146675E-03 +6.25913615545E-04 -1.07452651002E-03 +6.46597376996E-01 -4.06312643092E-01
4.04500000000E+09 +5.53959895468E-01 -4.30329901184E-01 +1.32472810155E-04 -1.24600892755E-03 +1.71098559984E-04 -1.27517483597E-03 +6.32400865597E-01 -4.15839398465E-01
4.05000000000E+09 +5.42367059904E-01 -4.38036383223E-01 -1.44384867265E-04 -1.06458155661E-03 -1.17557301327E-04 -1.12392475374E-03 +6.18031253269E-01 -4.24244556853E-01
4.05500000000E+09 +5.31236113014E-01 -4.42968609652E-01 -1.43102813280E-04 -8.28292578894E-04 -1.96319921385E-04 -8.89790722472E-04 +6.03737771396E-01 -4.32269298728E-01
4.06000000000E+09 +5.20281458525E-01 -4.47443308129E-01 -9.11701569633E-05 -8.05150190596E-04 -1.21124998464E-04 -8.02343087980E-04 +5.88927749027E-01 -4.40069262022E-01
4.06500000000E+09 +5.08124927633E-01 -4.51300142108E-01 +8.11017174153E-05 -1.02337280266E-03 +1.01937517223E-04 -1.01741362772E-03 +5.73212623943E-01 -4.47248539041E-01
4.07000000000E+09 +4.94379501816E-01 -4.55399147227E-01 -2.42994162712E-04 -1.31230448181E-03 -1.97937652646E-04 -1.33190321036E-03 +5.57485035291E-01 -4.54264772666E-01
4.07500000000E+09 +4.79005180666E-01 -4.59462591569E-01 -5.65326390576E-04 -1.11723234359E-03 -5.40483096296E-04 -1.11185036479E-03 +5.41134247985E-01 -4.61929966161E-01
4.08000000000E+09 +4.62458146480E-01 -4.64177153201E-01 -5.86097792549E-04 -9.85695781615E-04 -6.12574786855E-04 -1.06427160042E-03 +5.24795841776E-01 -4.68212450653E-01
4.08500000000E+09 +4.45519005885E-01 -4.68853579028E-01 -8.49120450448E-04 -9.24920591627E-04 -8.30730224585E-04 -1.01047317362E-03 +5.08487651256E-01 -4.75452319083E-01
4.09000000000E+09 +4.29239592867E-01 -4.74959143663E-01 -8.38281477728E-04 -8.85275776718E-04 -7.96424325056E-04 -9.40208406568E-04 +4.90653974474E-01 -4.80840790320E-01
4.09500000000E+09 +4.12858848323E-01 -4.81679777398E-01 -1.01292614341E-03 -7.66700231323E-04 -1.07013651732E-03 -8.49250189225E-04 +4.73898757964E-01 -4.85383408813E-01
4.10000000000E+09 +3.96071382105E-01 -4.88019747285E-01 -1.28848197445E-03 -5.96491404299E-04 -1.25692478375E-03 -6.38183881795E-04 +4.55489534590E-01 -4.90490201357E-01
4.10500000000E+09 +3.79667693893E-01 -4.92235610339E-01 -9.69804744018E-04 -2.00444542082E-04 -9.53699857000E-04 -2.64833767311E-04 +4.36474717692E-01 -4.93966482274E-01
4.11000000000E+09 +3.63811349428E-01 -4.94702867330E-01 -9.75126589891E-04 -4.85346688983E-04 -1.03204507447E-03 -5.49226452028E-04 +4.17839893385E-01 -4.97514461648E-01
4.11500000000E+09 +3.49096846094E-01 -4.95857042401E-01 -9.27379585581E-04 -5.59495197085E-04 -9.68749305393E-04 -5.93235911415E-04 +3.98673031396E-01 -5.01213483524E-01
4.12000000000E+09 +3.33520516322E-01 -4.97126342205E-01 -1.34935987516E-03 -7.37360650696E-04 -1.36865698345E-03 -7.85211776128E-04 +3.79049155491E-01 -5.04143539729E-01
4.12500000000E+09 +3.16374234214E-01 -4.97366798911E-01 -2.01271888426E-03 -3.77635742294E-04 -2.04653765105E-03 -4.07861569965E-04 +3.58881824801E-01 -5.06114232345E-01
4.13000000000E+09 +2.98369329232E-01 -4.97842700058E-01 -1.94153389011E-03 +4.92694531425E-04 -2.04179117970E-03 +4.66393999818E-04 +3.38593489137E-01 -5.07141722150E-01
4.13500000000E+09 +2.79359801528E-01 -4.98782577188E-01 -1.40644563920E-03 +8.51716430047E-04 -1.48719513805E-03 +8.42573787598E-04 +3.18121247908E-01 -5.06866388224E-01
4.14000000000E+09 +2.59979054349E-01 -5.00879770300E-01 -9.47163121734E-04 +6.16059137225E-04 -9.88479440356E-04 +6.45219555373E-04 +2.97617416519E-01 -5.06614623718E-01
4.14500000000E+09 +2.40896772365E-01 -5.04881468953E-01 -1.07745126830E-03 +4.55019695383E-04 -1.14775355523E-03 +4.73628667059E-04 +2.77064850076E-01 -5.05305312770E-01
4.15000000000E+09 +2.20376005450E-01 -5.09326399126E-01 -1.11458655498E-03 +5.53943077965E-04 -1.23339240498E-03 +6.00151217017E-04 +2.57324891403E-01 -5.03979346076E-01
4.15500000000E+09 +2.00980734709E-01 -5.13013155564E-01 -1.28839988697E-03 +4.90987931006E-04 -1.32284697065E-03 +5.51460229176E-04 +2.36661385321E-01 -5.01742310374E-01
4.16000000000E+09 +1.82933788566E-01 -5.15313098584E-01 -1.58428768812E-03 +7.44059932320E-04 -1.67184156998E-03 +7.58340496455E-04 +2.16577146850E-01 -4.98170785796E-01
4.16500000000E+09 +1.66521429630E-01 -5.15755748715E-01 -1.60040145809E-03 +1.42463034646E-03 -1.61195346005E-03 +1.48404344837E-03 +1.96028911101E-01 -4.94065384565E-01
4.17000000000E+09 +1.51814578592E-01 -5.14784030210E-01 -1.13231651146E-03 +1.54787418257E-03 -1.22463731560E-03 +1.57848684564E-03 +1.75295628622E-01 -4.88830111193E-01
4.17500000000E+09 +1.37276984551E-01 -5.12466166028E-01 -1.22157175541E-03 +1.90212601746E-03 -1.22563458744E-03 +1.96240297902E-03 +1.54473216651E-01 -4.82825634317E-01
4.18000000000E+09 +1.22264095083E-01 -5.09031832973E-01 -6.32224736743E-04 +2.36869215228E-03 -6.49251359704E-04 +2.47450123756E-03 +1.34067089059E-01 -4.75718992726E-01
4.18500000000E+09 +1.05769459289E-01 -5.04418763363E-01 +2.13590626183E-04 +2.20502017359E-03 +2.05090741275E-04 +2.24674716903E-03 +1.14811339083E-01 -4.68894764614E-01
4.19000000000E+09 +8.81041892315E-02 -4.98559025627E-01 +8.94629224434E-05 +1.75553320427E-03 +5.60179012675E-05 +1.77545834445E-03 +9.39171240420E-02 -4.61949355857E-01
4.19500000000E+09 +7.06066354165E-02 -4.92425783963E-01 +1.78562952883E-04 +1.69932433863E-03 +1.05895413156E-04 +1.68693860125E-03 +7.32180063705E-02 -4.52732521863E-01
4.20000000000E+09 +5.25283311153E-02 -4.87789123933E-01 +5.49003673777E-05 +1.83311311720E-03 +2.62555971973E-05 +1.84969569498E-03 +5.32219235893E-02 -4.42294534591E-01
4.20500000000E+09 +3.38294988281E-02 -4.83835526430E-01 +1.13988058906E-04 +1.99039464210E-03 +6.87073522786E-05 +2.02370577674E-03 +3.34115351882E-02 -4.31489400914E-01
4.21000000000E+09 +1.52534620970E-02 -4.79469537469E-01 +4.56088326105E-04 +2.55943943213E-03 +4.66635768311E-04 +2.61165643858E-03 +1.40850731939E-02 -4.19491454739E-01
4.21500000000E+09 -2.51550467827E-03 -4.74339396285E-01 +1.50079000569E-03 +2.68229127450E-03 +1.53889779264E-03 +2.72727262853E-03 -4.34853147016E-03 -4.07799982088E-01
4.22000000000E+09 -1.90463244650E-02 -4.67621200009E-01 +2.02779051396E-03 +1.94301999836E-03 +2.01251558143E-03 +1.92244263394E-03 -2.25695838754E-02 -3.95511057835E-01
4.22500000000E+09 -3.34151587152E-02 -4.59644495210E-01 +2.27682242549E-03 +1.45369642445E-03 +2.32691331821E-03 +1.46505345536E-03 -4.02675443892E-02 -3.82207254768E-01
4.23000000000E+09 -4.77652000043E-02 -4.51025900077E-01 +2.11001117875E-03 +8.78714517372E-04 +2.16075700788E-03 +9.12559560192E-04 -5.72433072288E-02 -3.67941847435E-01
4.23500000000E+09 -6.31485963251E-02 -4.40092224693E-01 +1.87918874167E-03 +9.82693067957E-04 +1.92334178307E-03 +8.94376292939E-04 -7.42910788305E-02 -3.52506212681E-01
4.24000000000E+09 -7.90613854313E-02 -4.27488365188E-01 +1.92772350033E-03 +1.10572411285E-03 +1.97199622494E-03 +1.07179921089E-03 -8.98627541837E-02 -3.35825827178E-01
4.24500000000E+09 -9.56399095187E-02 -4.13922963075E-01 +2.59051478900E-03 +1.04401904414E-03 +2.60377004451E-03 +1.02824066361E-03 -1.05209566633E-01 -3.19010137727E-01
4.25000000000E+09 -1.13537979686E-01 -4.00918399350E-01 +3.10895576539E-03 +4.66972557887E-04 +3.15850414130E-03 +4.25976001044E-04 -1.19435854473E-01 -3.01408517401E-01
4.25500000000E+09 -1.32508583656E-01 -3.88982981162E-01 +3.15218185003E-03 -3.77468701885E-04 +3.14675572923E-03 -4.50585436114E-04 -1.32728797145E-01 -2.84520154055E-01
4.26000000000E+09 -1.52759820625E-01 -3.77643011836E-01 +2.73610608924E-03 -9.83937034662E-04 +2.76640542900E-03 -1.02348740442E-03 -1.46407624470E-01 -2.67234543895E-01
4.26500000000E+09 -1.72893140987E-01 -3.66104507944E-01 +2.47811200737E-03 -1.21688977853E-03 +2.47736123021E-03 -1.23392441611E-03 -1.58936148260E-01 -2.48036648066E-01
4.27000000000E+09 -1.90518523661E-01 -3.54776285981E-01 +2.41648743648E-03 -1.37143385606E-03 +2.47190999560E-03 -1.44391464712E-03 -1.71536528506E-01 -2.28607409189E-01
4.27500000000E+09 -2.06391547804E-01 -3.43876001978E-01 +2.25861264277E-03 -1.93210699252E-03 +2.22932239345E-03 -1.98760014790E-03 -1.82765360748E-01 -2.07545910485E-01
4.28000000000E+09 -2.20094551242E-01 -3.31902911893E-01 +1.65277155865E-03 -2.03431443336E-03 +1.66482866050E-03 -2.09909440008E-03 -1.92583010377E-01 -1.86832992020E-01
4.28500000000E+09 -2.31762849717E-01 -3.19009785596E-01 +1.71949474052E-03 -1.94821167938E-03 +1.69297455351E-03 -1.96932967543E-03 -2.01446773840E-01 -1.66188473845E-01
4.29000000000E+09 -2.43047857970E-01 -3.04611162364E-01 +1.61044578071E-03 -2.55227605399E-03 +1.61628494143E-03 -2.62074669003E-03 -2.09505821989E-01 -1.46373540586E-01
4.29500000000E+09 -2.53954838497E-01 -2.87856927050E-01 +1.06413773195E-03 -2.88628327948E-03 +1.09794379522E-03 -2.99145789141E-03 -2.17557695647E-01 -1.26716536734E-01
4.30000000000E+09 -2.65018526101E-01 -2.69365707741E-01 +5.29863836501E-04 -2.98909877038E-03 +3.75997600279E-04 -2.98550011253E-03 -2.23766639871E-01 -1.05537988884E-01
4.30500000000E+09 -2.76688177821E-01 -2.50120263681E-01 +7.23477752222E-05 -3.02254813600E-03 +4.43021457236E-05 -3.11153549938E-03 -2.28924937229E-01 -8.45429141100E-02
4.31000000000E+09 -2.89170977801E-01 -2.30765850504E-01 -4.00973785253E-04 -2.98089466632E-03 -4.23181220618E-04 -2.98794714225E-03 -2.32786194176E-01 -6.32736587870E-02
4.31500000000E+09 -3.02769353615E-01 -2.12373801868E-01 -9.05286904829E-04 -2.83599391049E-03 -9.05785689294E-04 -2.78701281270E-03 -2.35757600544E-01 -4.18159691491E-02
4.32000000000E+09 -3.16074603152E-01 -1.94649364680E-01 -1.25330026108E-03 -2.32695292343E-03 -1.28732550505E-03 -2.34020975002E-03 -2.37904980278E-01 -2.05498698525E-02
4.32500000000E+09 -3.28818782646E-01 -1.78072464079E-01 -1.07760217389E-03 -2.23553079457E-03 -1.07287296027E-03 -2.16931677815E-03 -2.39734948471E-01 +3.09128172747E-04
4.33000000000E+09 -3.39239504753E-01 -1.61966972524E-01 -1.64435854096E-03 -2.41602759447E-03 -1.64416304101E-03 -2.40508462348E-03 -2.40594777799E-01 +2.13897704901E-02
4.33500000000E+09 -3.47277506759E-01 -1.46904709554E-01 -1.75994466490E-03 -2.07703929945E-03 -1.82028120647E-03 -2.07101116558E-03 -2.40515004422E-01 +4.20983764046E-02
4.34000000000E+09 -3.53333920853E-01 -1.31390708437E-01 -2.46652908001E-03 -2.09855344882E-03 -2.53334465201E-03 -2.10918172438E-03 -2.40424513557E-01 +6.27256432933E-02
4.34500000000E+09 -3.57468257799E-01 -1.14407080093E-01 -2.96667519991E-03 -1.20644387650E-03 -2.94082249520E-03 -1.13812528273E-03 -2.38857375405E-01 +8.34205940071E-02
4.35000000000E+09 -3.60152119585E-01 -9.60415174621E-02 -2.61221919361E-03 -5.98665274470E-04 -2.60734981892E-03 -5.90825421194E-04 -2.37229256233E-01 +1.03330440277E-01
4.35500000000E+09 -3.62787113242E-01 -7.52523612560E-02 -2.56413878959E-03 -6.68457486903E-04 -2.55386436079E-03 -5.92226860461E-04 -2.34226196810E-01 +1.23283705959E-01
4.36000000000E+09 -3.65154535714E-01 -5.29424591277E-02 -2.73855664179E-03 -1.38543563892E-04 -2.73871119162E-03 -1.34861307068E-04 -2.30650898020E-01 +1.41518845694E-01
4.36500000000E+09 -3.68854666225E-01 -3.02639004630E-02 -2.70960864719E-03 -5.36414585455E-05 -2.76032968801E-03 -2.51741969637E-05 -2.27075871305E-01 +1.59828379547E-01
4.37000000000E+09 -3.73753593982E-01 -6.77095153565E-03 -3.03674692198E-03 +6.16301433027E-04 -3.08372762708E-03 +7.13947269686E-04 -2.22212198714E-01 +1.78149858678E-01
4.37500000000E+09 -3.78668906540E-01 +1.52691096790E-02 -2.45357115626E-03 +1.11743966499E-03 -2.45197351728E-03 +1.20065935062E-03 -2.17274580913E-01 +1.96001555359E-01
4.38000000000E+09 -3.84350934074E-01 +3.56292522981E-02 -2.32339252050E-03 +1.20305791453E-03 -2.24908317485E-03 +1.35752752350E-03 -2.10548422774E-01 +2.14293806078E-01
4.38500000000E+09 -3.88940380000E-01 +5.36025991336E-02 -2.19499108286E-03 +1.68110175444E-03 -2.10060919098E-03 +1.75738616093E-03 -2.03908532883E-01 +2.31847872817E-01
4.39000000000E+09 -3.92275863447E-01 +6.99868421450E-02 -1.76055975087E-03 +2.03907562717E-03 -1.66652707163E-03 +2.11790510902E-03 -1.96600685546E-01 +2.49046424333E-01
4.39500000000E+09 -3.93666630742E-01 +8.51918243187E-02 -1.26527185685E-03 +2.10978421244E-03 -1.14361284000E-03 +2.09852393939E-03 -1.89152221776E-01 +2.64823789472E-01
4.40000000000E+09 -3.92142833716E-01 +1.00603321869E-01 -9.82987520879E-04 +1.96126793372E-03 -9.42094429990E-04 +2.00260655529E-03 -1.81458736512E-01 +2.80813862463E-01
4.40500000000E+09 -3.88267840311E-01 +1.16388656844E-01 -1.00045036799E-03 +2.05185556582E-03 -8.72466600719E-04 +2.03587363937E-03 -1.72580710467E-01 +2.95787639559E-01
4.41000000000E+09 -3.82610664040E-01 +1.33668880600E-01 -4.57930554993E-04 +2.35738840308E-03 -3.44787893714E-04 +2.29748878804E-03 -1.63549954574E-01 +3.09893169847E-01
4.41500000000E+09 -3.76832625415E-01 +1.52317151802E-01 -4.52531466819E-04 +2.08045039612E-03 -3.27266727854E-04 +2.01620840348E-03 -1.54447851075E-01 +3.24041565372E-01
4.42000000000E+09 -3.70986756153E-01 +1.73393753810E-01 -3.89424354769E-04 +2.42375203573E-03 -3.11061618238E-04 +2.39854247921E-03 -1.45070675358E-01 +3.38683873081E-01
4.42500000000E+09 -3.66439408038E-01 +1.94935668061E-01 +3.41831087408E-04 +2.70328475245E-03 +4.06380279944E-04 +2.54769510333E-03 -1.34519700944E-01 +3.51770071258E-01
4.43000000000E+09 -3.63590519076E-01 +2.17199733434E-01 +8.61700346487E-04 +2.20311264386E-03 +8.35355334180E-04 +2.12055749979E-03 -1.25495017229E-01 +3.64741006881E-01
4.43500000000E+09 -3.60774931544E-01 +2.39022012012E-01 +1.03082240700E-03 +2.07302746314E-03 +9.99253228752E-04 +1.93579509555E-03 -1.15106722930E-01 +3.77541142759E-01
4.44000000000E+09 -3.58409807963E-01 +2.58039576644E-01 +1.42435254803E-03 +1.83056090784E-03 +1.27322226370E-03 +1.73563339352E-03 -1.05158381665E-01 +3.88894531954E-01
4.44500000000E+09 -3.56257487074E-01 +2.74781997113E-01 +1.55340450714E-03 +1.47367861735E-03 +1.48554998541E-03 +1.45279740387E-03 -9.49181452563E-02 +4.00434388366E-01
4.45000000000E+09 -3.53249145644E-01 +2.88966458322E-01 +1.34970011081E-03 +1.31876265650E-03 +1.27828586213E-03 +1.30820950486E-03 -8.38992649371E-02 +4.11272672250E-01
4.45500000000E+09 -3.48982694225E-01 +3.02461932017E-01 +1.73318144442E-03 +1.54251302400E-03 +1.66710564152E-03 +1.50177750162E-03 -7.27231350286E-02 +4.21295590379E-01
4.46000000000E+09 -3.41989443498E-01 +3.15341837233E-01 +2.21196473789E-03 +7.51375581097E-04 +2.14957516326E-03 +7.84097555797E-04 -6.15228522735E-02 +4.30959724263E-01
4.46500000000E+09 -3.32868371579E-01 +3.28717043759E-01 +1.93565050826E-03 +4.96180090957E-04 +1.86459798683E-03 +4.88761632215E-04 -4.99611094084E-02 +4.40032120277E-01
4.47000000000E+09 -3.21965080044E-01 +3.43624961837E-01 +1.92165563838E-03 +2.12833347638E-04 +1.86046895806E-03 +2.78380666055E-04 -3.90655192125E-02 +4.49063855378E-01
4.47500000000E+09 -3.09788746907E-01 +3.60740189055E-01 +1.89022463573E-03 +1.16000866318E-04 +1.88585666440E-03 +1.31616817435E-04 -2.74698300078E-02 +4.57985942710E-01
4.48000000000E+09 -2.96836018770E-01 +3.78525549843E-01 +2.02150641494E-03 -7.05003490907E-05 +1.97033627586E-03 -8.51362038284E-05 -1.57982929723E-02 +4.65936506011E-01
4.48500000000E+09 -2.85052147157E-01 +3.96499606940E-01 +1.92306820339E-03 -6.77913406526E-04 +1.90623731057E-03 -6.32082522152E-04 -4.62610172453E-03 +4.73854928886E-01
4.49000000000E+09 -2.75695378954E-01 +4.14239596603E-01 +1.90769723033E-03 -8.85200642004E-04 +1.87801136997E-03 -8.52297422958E-04 +7.51760174171E-03 +4.81340384218E-01
4.49500000000E+09 -2.67730865067E-01 +4.31265058818E-01 +1.28798557342E-03 -1.21987965138E-03 +1.24826037962E-03 -1.18939388848E-03 +1.86296583514E-02 +4.87752369816E-01
4.50000000000E+09 -2.61234883801E-01 +4.45626571623E-01 +1.05481706518E-03 -1.11292836954E-03 +1.07883065495E-03 -1.04591927699E-03 +3.02100931101E-02 +4.94114616765E-01
4.50500000000E+09 -2.56197165306E-01 +4.58115944348E-01 +1.04740371359E-03 -1.06556718205E-03 +1.08106283197E-03 -1.09007802361E-03 +4.15443039164E-02 +4.99892297247E-01
4.51000000000E+09 -2.50489690729E-01 +4.68731353149E-01 +8.92362244591E-04 -1.38044632913E-03 +8.41169529950E-04 -1.45267551491E-03 +5.27545335154E-02 +5.05382952521E-01
4.51500000000E+09 -2.42400598113E-01 +4.77644278822E-01 +5.40783675752E-04 -1.36370296183E-03 +5.22832245909E-04 -1.36843095750E-03 +6.36909756133E-02 +5.10886624602E-01
4.52000000000E+09 -2.32455018625E-01 +4.84601323310E-01 +3.78388784617E-04 -1.31700775968E-03 +3.31722210291E-04 -1.33245754393E-03 +7.52790106095E-02 +5.15997660481E-01
4.52500000000E+09 -2.20546268210E-01 +4.91807473790E-01 +3.05355433811E-04 -1.08374667804E-03 +2.64863162602E-04 -1.14500656765E-03 +8.65871971590E-02 +5.20213536104E-01
4.53000000000E+09 -2.06912984376E-01 +4.99539378615E-01 +3.30373523888E-04 -1.19665281307E-03 +2.43759445974E-04 -1.21418435854E-03 +9.81463626889E-02 +5.24228159483E-01
4.53500000000E+09 -1.92006458724E-01 +5.09158892397E-01 +1.66956261442E-04 -1.34162707469E-03 +7.32869743741E-05 -1.32053701036E-03 +1.09167065880E-01 +5.27679752521E-01
4.54000000000E+09 -1.76352578994E-01 +5.19507125526E-01 +9.56547240020E-05 -1.50757479821E-03 +6.97569411706E-05 -1.50045542703E-03 +1.20437904954E-01 +5.30904250147E-01
4.54500000000E+09 -1.61519144931E-01 +5.30863475275E-01 -5.92076285304E-04 -1.44721273478E-03 -5.88221028797E-04 -1.36102307932E-03 +1.30807330602E-01 +5.34420377570E-01
4.55000000000E+09 -1.48113937251E-01 +5.41894431650E-01 -6.32572677357E-04 -9.29892699484E-04 -6.74911663580E-04 -8.54773024405E-04 +1.42342057012E-01 +5.38353910300E-01
4.55500000000E+09 -1.36758930699E-01 +5.52360190733E-01 -4.46805548792E-04 -8.69766208718E-04 -4.18473181628E-04 -7.41746955348E-04 +1.53313751731E-01 +5.40906436384E-01
4.56000000000E+09 -1.26895144402E-01 +5.61779874505E-01 -3.09637855173E-04 -1.00766026043E-03 -3.25267459535E-04 -9.29290246353E-04 +1.63756918227E-01 +5.44167125313E-01
4.56500000000E+09 -1.17727886219E-01 +5.69399558901E-01 -5.40789546672E-04 -1.19592551755E-03 -4.71061417534E-04 -1.09809904149E-03 +1.74410306828E-01 +5.46772437463E-01
4.57000000000E+09 -1.08518370717E-01 +5.75353207482E-01 -9.79236592520E-04 -1.12541617705E-03 -9.39579783859E-04 -1.03276925122E-03 +1.85149297481E-01 +5.49151777290E-01
