# Hz S RI R 50
! CMT, C1220, 16058040, 17.2.0/1
! Date: 15/08/2018 12:23:23
! Data: Format (Calibration Info)
! Freq                      S11: Re/Im (F2)                       S21: Re/Im (F2)                       S12: Re/Im (F2)                       S22: Re/Im (F2)            
4.00000000000E+09 +6.51294093460E-01 -3.55503893183E-01 +1.04849676020E-03 -2.31479414821E-04 +1.11040939157E-03 -1.68604961888E-04 +7.43912447511E-01 -3.23384427121E-01
4.00500000000E+09 +6.43070430442E-01 -3.61646335605E-01 +1.14096918328E-03 -3.39482399687E-04 +1.17917258663E-03 -3.61807508206E-04 +7.33386364983E-01 -3.34120080616E-01
4.01000000000E+09 +6.34114333502E-01 -3.67728987901E-01 +1.26309555406E-03 -7.76007012126E-04 +1.31473607951E-03 -7.46527038864E-04 +7.22622786806E-01 -3.44906972132E-01
4.01500000000E+09 +6.23577556123E-01 -3.74853733289E-01 +1.00606085783E-03 -1.13520271296E-03 +1.13622987606E-03 -1.09020080573E-03 +7.11496033187E-01 -3.55345662013E-01
4.02000000000E+09 +6.12470119027E-01 -3.82479966808E-01 +5.16018395307E-04 -1.32980354408E-03 +5.53068905075E-04 -1.35980668369E-03 +7.00010849178E-01 -3.65412851317E-01
4.02500000000E+09 +6.01023640157E-01 -3.91578879852E-01 +2.05911777048E-04 -8.51688474302E-04 +2.62237128147E-04 -8.49296315925E-04 +6.87797773071E-01 -3.75418000228E-01
4.03000000000E+09 +5.89343628453E-01 -4.01456927753E-01 +5.35103634511E-04 -6.56560663509E-04 +6.00017321907E-04 -6.61052073478E-04 +6.75109213822E-01 -3.84988634320E-01
4.03500000000E+09 +5.78263070863E-01 -4.11989680843E-01 +8.00201061056E-04 -9.79862472016E-04 +8.64293667827E-04 -9.90046972271E-04 +6.62352688178E-01 -3.94681690387E-01
4.04000000000E+09 +5.67271786952E-01 -4.22792797928E-01 +7.79340555149E-04 -1.38051458268E-03 +8.42462087411E-04 -1.42163489381E-03 +6.49138642344E-01 -4.05237544928E-01
4.04500000000E+09 +5.55900156088E-01 -4.32896186155E-01 +2.95972184490E-04 -1.81818396659E-03 +3.33041067488E-04 -1.85342736590E-03 +6.34841555720E-01 -4.15016182006E-01
4.05000000000E+09 +5.44295565055E-01 -4.40677067306E-01 -2.30059974573E-04 -1.61937621100E-03 -2.18572701603E-04 -1.74847609208E-03 +6.20840723081E-01 -4.23690288024E-01
4.05500000000E+09 +5.32892498943E-01 -4.46207272281E-01 -4.06074047342E-04 -1.41475428580E-03 -3.48141325351E-04 -1.53629570924E-03 +6.06477000437E-01 -4.32111984340E-01
4.06000000000E+09 +5.21509276554E-01 -4.50548350225E-01 -5.61970810263E-04 -1.23656662154E-03 -6.27354811736E-04 -1.32148421037E-03 +5.91690655852E-01 -4.40318260311E-01
4.06500000000E+09 +5.09297143234E-01 -4.54234328468E-01 -4.40443568130E-04 -1.10848123582E-03 -4.15320818073E-04 -1.22375217589E-03 +5.75733203240E-01 -4.48273576656E-01
4.07000000000E+09 +4.95598915463E-01 -4.58724956259E-01 -5.30654328446E-04 -1.22600249769E-03 -5.32195667370E-04 -1.30538777125E-03 +5.59514173173E-01 -4.55451299373E-01
4.07500000000E+09 +4.79823829799E-01 -4.63002061197E-01 -6.05325380384E-04 -1.21070019010E-03 -5.59436914016E-04 -1.27297924876E-03 +5.42798102314E-01 -4.62883608682E-01
4.08000000000E+09 +4.63320609978E-01 -4.67917345994E-01 -8.53262955555E-04 -1.31540682583E-03 -8.52190746485E-04 -1.41797945598E-03 +5.26601762931E-01 -4.69205990412E-01
4.08500000000E+09 +4.45759145184E-01 -4.72917042938E-01 -1.14817201139E-03 -1.27879390466E-03 -1.22680377760E-03 -1.34372281057E-03 +5.10322759567E-01 -4.76711246751E-01
4.09000000000E+09 +4.29108323152E-01 -4.78705963286E-01 -1.34301382276E-03 -1.05855812701E-03 -1.40887165815E-03 -1.15731430746E-03 +4.92199814156E-01 -4.82405802933E-01
4.09500000000E+09 +4.12494691766E-01 -4.85343600476E-01 -1.52215030852E-03 -7.71381661546E-04 -1.57842776272E-03 -8.26989697315E-04 +4.75152530011E-01 -4.87348835102E-01
4.10000000000E+09 +3.95637444923E-01 -4.91409900143E-01 -1.59647305473E-03 -5.04553693741E-04 -1.60806902600E-03 -5.00385439712E-04 +4.56339708271E-01 -4.92362681288E-01
4.10500000000E+09 +3.79323625636E-01 -4.95794362574E-01 -1.39058520213E-03 -9.63763204263E-05 -1.36869517386E-03 -1.50946593690E-04 +4.37079633902E-01 -4.95954374438E-01
4.11000000000E+09 +3.63186860757E-01 -4.98405751359E-01 -1.21891197897E-03 -3.24093340191E-04 -1.24502559552E-03 -3.58361245974E-04 +4.17863495434E-01 -4.99367001002E-01
4.11500000000E+09 +3.48028537550E-01 -4.99636539501E-01 -1.19987922254E-03 -4.68163299648E-04 -1.18397101615E-03 -4.65160877365E-04 +3.98755727830E-01 -5.02737237450E-01
4.12000000000E+09 +3.32378447298E-01 -5.00535486710E-01 -1.54737287255E-03 -8.01873718062E-04 -1.52033551798E-03 -8.12236477745E-04 +3.79258662980E-01 -5.05835359123E-01
4.12500000000E+09 +3.15108871667E-01 -5.01059042349E-01 -2.35189233788E-03 -4.14308747892E-04 -2.33462980395E-03 -5.10026569535E-04 +3.58810926314E-01 -5.07965659222E-01
4.13000000000E+09 +2.96745828300E-01 -5.01611028427E-01 -2.43573155267E-03 +4.37968484743E-04 -2.49299970055E-03 +4.17383091270E-04 +3.38376598748E-01 -5.08932919338E-01
4.13500000000E+09 +2.77399469884E-01 -5.02399031343E-01 -1.99234692304E-03 +1.02234973898E-03 -2.05589638556E-03 +1.03192205425E-03 +3.17529196311E-01 -5.08961168512E-01
4.14000000000E+09 +2.57579140507E-01 -5.04243929729E-01 -1.60303870771E-03 +1.03873533692E-03 -1.70323822215E-03 +9.81486491994E-04 +2.96711706340E-01 -5.08541332729E-01
4.14500000000E+09 +2.38295271482E-01 -5.07782647581E-01 -1.42540851752E-03 +1.23244294500E-03 -1.47801692197E-03 +1.19457923593E-03 +2.75819034001E-01 -5.07396902700E-01
4.15000000000E+09 +2.18213802591E-01 -5.12248275841E-01 -1.09633853042E-03 +1.06238210216E-03 -1.11319630201E-03 +1.00736984307E-03 +2.55314160961E-01 -5.06048255823E-01
4.15500000000E+09 +1.98487668655E-01 -5.15920449136E-01 -1.38927851409E-03 +6.82195361609E-04 -1.45037997892E-03 +6.79334971392E-04 +2.34298374474E-01 -5.03149688255E-01
4.16000000000E+09 +1.80297773062E-01 -5.18487088616E-01 -1.86632561631E-03 +1.22374021289E-03 -1.92312851575E-03 +1.19253062810E-03 +2.14036572201E-01 -4.99228317354E-01
4.16500000000E+09 +1.63149316724E-01 -5.18982647076E-01 -1.77208301702E-03 +1.81502127677E-03 -1.84520113767E-03 +1.80860791760E-03 +1.93473895422E-01 -4.94865468032E-01
4.17000000000E+09 +1.47880710220E-01 -5.17314765097E-01 -1.53580951699E-03 +2.20521978955E-03 -1.62603995969E-03 +2.23629129083E-03 +1.72409431399E-01 -4.89399671339E-01
4.17500000000E+09 +1.33159247428E-01 -5.14537531502E-01 -1.23511674607E-03 +2.76945264504E-03 -1.30255672460E-03 +2.79699016544E-03 +1.51332107888E-01 -4.82749460520E-01
4.18000000000E+09 +1.18264039451E-01 -5.10452923676E-01 -4.92616402272E-04 +3.16051954941E-03 -5.84166390891E-04 +3.25158848273E-03 +1.30846424596E-01 -4.75064970112E-01
4.18500000000E+09 +1.01993761928E-01 -5.06060460826E-01 +5.34737274667E-04 +3.06237597012E-03 +4.10423220302E-04 +3.19488769093E-03 +1.11400229052E-01 -4.67809274206E-01
4.19000000000E+09 +8.40460117954E-02 -5.00444862437E-01 +7.12037486599E-04 +2.25736043482E-03 +6.36314386117E-04 +2.31241895334E-03 +9.06028127260E-02 -4.59912112409E-01
4.19500000000E+09 +6.57539970013E-02 -4.93923674579E-01 +4.99474541043E-04 +2.01869633704E-03 +4.28047039739E-04 +2.15376154832E-03 +7.04303082049E-02 -4.49948109922E-01
4.20000000000E+09 +4.75633246051E-02 -4.88700761117E-01 +6.27264203256E-04 +2.29732073550E-03 +5.75510253837E-04 +2.42060389846E-03 +5.14966878259E-02 -4.38986128582E-01
4.20500000000E+09 +2.86944257299E-02 -4.84255139651E-01 +6.05269398533E-04 +2.24388579361E-03 +5.64124393241E-04 +2.35887042585E-03 +3.23427167645E-02 -4.28234756547E-01
4.21000000000E+09 +1.03486662779E-02 -4.79600228609E-01 +9.76663825900E-04 +2.93110435397E-03 +9.93430236300E-04 +3.11416043397E-03 +1.35583786471E-02 -4.16644514047E-01
4.21500000000E+09 -7.51612559004E-03 -4.74002684695E-01 +2.25666811000E-03 +3.03242015044E-03 +2.33580732205E-03 +3.14576160905E-03 -4.80009960525E-03 -4.05171990240E-01
4.22000000000E+09 -2.37033614007E-02 -4.67064912221E-01 +2.96001532264E-03 +2.06837874004E-03 +3.11716071641E-03 +2.14022170072E-03 -2.30480819724E-02 -3.92903796218E-01
4.22500000000E+09 -3.81818960706E-02 -4.59084528586E-01 +3.08661625635E-03 +1.20478400206E-03 +3.26873932417E-03 +1.16938802364E-03 -4.04996663061E-02 -3.78920151974E-01
4.23000000000E+09 -5.25548028134E-02 -4.50001717650E-01 +2.68163800672E-03 +4.67272792162E-04 +2.79721182176E-03 +4.79994771970E-04 -5.67441040707E-02 -3.64988677412E-01
4.23500000000E+09 -6.79275620707E-02 -4.38912187408E-01 +2.21958611141E-03 +6.53034515883E-04 +2.38558442319E-03 +5.71679988450E-04 -7.34622172182E-02 -3.49862914547E-01
4.24000000000E+09 -8.41958189971E-02 -4.25983765492E-01 +2.33202705458E-03 +8.60373028961E-04 +2.47333116093E-03 +8.09198325202E-04 -8.90274519410E-02 -3.33536509660E-01
4.24500000000E+09 -1.00861242938E-01 -4.11871415426E-01 +3.06369453106E-03 +8.44957116222E-04 +3.12207734001E-03 +7.48925252230E-04 -1.04537759253E-01 -3.16757773955E-01
4.25000000000E+09 -1.18470097259E-01 -3.98023626622E-01 +3.66012152114E-03 +1.89067464469E-04 +3.77688960739E-03 +2.77827717163E-07 -1.18825033005E-01 -2.98887708247E-01
4.25500000000E+09 -1.36647213876E-01 -3.85736382826E-01 +3.57995693305E-03 -9.82577125112E-04 +3.67774627330E-03 -1.10363659705E-03 -1.31756536883E-01 -2.81533541490E-01
4.26000000000E+09 -1.56546830860E-01 -3.74363544621E-01 +2.87413123389E-03 -1.45200604212E-03 +2.83032914686E-03 -1.56870767629E-03 -1.44710614399E-01 -2.63975682086E-01
4.26500000000E+09 -1.76234144295E-01 -3.62959048426E-01 +2.76747051266E-03 -1.41433915474E-03 +2.69115718288E-03 -1.57086104194E-03 -1.56637637359E-01 -2.45058402211E-01
4.27000000000E+09 -1.93892328505E-01 -3.51750236936E-01 +2.73911131438E-03 -1.77995190239E-03 +2.59295704978E-03 -1.92874858582E-03 -1.68557191184E-01 -2.25940320048E-01
4.27500000000E+09 -2.10137826802E-01 -3.40668566531E-01 +2.48043982698E-03 -2.34405196199E-03 +2.35218816272E-03 -2.37779535630E-03 -1.79401475259E-01 -2.05651185286E-01
4.28000000000E+09 -2.23665219133E-01 -3.27696099050E-01 +2.06449142061E-03 -2.53028525567E-03 +1.91303184886E-03 -2.48036783987E-03 -1.89302765470E-01 -1.85527876569E-01
4.28500000000E+09 -2.34922971176E-01 -3.14119016751E-01 +1.85727344418E-03 -2.69183913894E-03 +1.79891108815E-03 -2.70526789946E-03 -1.97907102818E-01 -1.65021966094E-01
4.29000000000E+09 -2.44824984884E-01 -2.99564964812E-01 +1.62183845316E-03 -3.01971413197E-03 +1.53884093970E-03 -2.96446826407E-03 -2.05724607652E-01 -1.45426870584E-01
4.29500000000E+09 -2.55332679594E-01 -2.83481356004E-01 +1.30703392845E-03 -3.48845683954E-03 +1.19288484180E-03 -3.51305210937E-03 -2.12863154033E-01 -1.26416359052E-01
4.30000000000E+09 -2.66565513704E-01 -2.65112493172E-01 +4.35547501142E-04 -3.69002172615E-03 +3.24142704759E-04 -3.59292959884E-03 -2.19546507751E-01 -1.06492478616E-01
4.30500000000E+09 -2.78117822783E-01 -2.45728998893E-01 +7.77709185786E-05 -3.63544557250E-03 +1.05139269425E-04 -3.54827818981E-03 -2.24833714283E-01 -8.59182071842E-02
4.31000000000E+09 -2.90765918331E-01 -2.26350200022E-01 -6.08643678964E-04 -3.85831724050E-03 -5.81136551525E-04 -3.73024161329E-03 -2.29044135554E-01 -6.57803593949E-02
4.31500000000E+09 -3.04483201971E-01 -2.06983144407E-01 -1.28925797199E-03 -3.35713589639E-03 -1.28054810308E-03 -3.27770537590E-03 -2.32875705096E-01 -4.46536967704E-02
4.32000000000E+09 -3.16614406724E-01 -1.88847187093E-01 -1.64904093029E-03 -2.88161666964E-03 -1.55474007066E-03 -2.93719539233E-03 -2.35779293705E-01 -2.35627160560E-02
4.32500000000E+09 -3.28788573603E-01 -1.72607945127E-01 -1.63794757450E-03 -2.85673236907E-03 -1.68216547399E-03 -2.83987212750E-03 -2.37969903619E-01 -2.66394509579E-03
4.33000000000E+09 -3.38885575135E-01 -1.56255679885E-01 -2.29237083280E-03 -2.81616445634E-03 -2.25675102214E-03 -2.76660976062E-03 -2.39403553862E-01 +1.81758347942E-02
4.33500000000E+09 -3.46049619084E-01 -1.41514419486E-01 -2.54762464791E-03 -2.50742474869E-03 -2.47956731008E-03 -2.50888138414E-03 -2.39969810145E-01 +3.92246690134E-02
4.34000000000E+09 -3.52110679861E-01 -1.26355713406E-01 -3.31660320843E-03 -2.31970505798E-03 -3.27371338595E-03 -2.31769792531E-03 -2.39757898673E-01 +5.99058675978E-02
4.34500000000E+09 -3.56099552457E-01 -1.09429653037E-01 -3.70410535797E-03 -1.19100863815E-03 -3.61018004798E-03 -1.28149261634E-03 -2.38593726453E-01 +8.06394909558E-02
4.35000000000E+09 -3.58480015381E-01 -9.08811735982E-02 -3.20704044027E-03 -5.07001395060E-04 -3.17395205053E-03 -5.99704442641E-04 -2.37173765225E-01 +1.00480362227E-01
4.35500000000E+09 -3.60973155159E-01 -7.00866591554E-02 -3.31912310863E-03 -8.18394378277E-04 -3.30045084129E-03 -8.94393404308E-04 -2.34787177309E-01 +1.20630961851E-01
4.36000000000E+09 -3.62892458948E-01 -4.73978451079E-02 -3.66721877355E-03 +1.46896025167E-04 -3.73427925343E-03 +9.37521266558E-05 -2.31186357441E-01 +1.39247381981E-01
4.36500000000E+09 -3.65207153287E-01 -2.47815719424E-02 -3.51079750694E-03 +3.32653940984E-04 -3.55757980276E-03 +2.86209258394E-04 -2.27554573163E-01 +1.57769078881E-01
4.37000000000E+09 -3.69629382540E-01 -2.35153955104E-03 -3.71591898629E-03 +1.25260378114E-03 -3.70105588522E-03 +1.30193960843E-03 -2.22637024752E-01 +1.76187090425E-01
4.37500000000E+09 -3.74696665666E-01 +1.86658283329E-02 -3.00898558732E-03 +1.83277846149E-03 -3.08098992012E-03 +1.90572964228E-03 -2.17111895245E-01 +1.94029205410E-01
4.38000000000E+09 -3.80961370904E-01 +3.88506332703E-02 -2.61318625358E-03 +2.00854538116E-03 -2.60128087439E-03 +2.07042639064E-03 -2.10772474553E-01 +2.11302948821E-01
4.38500000000E+09 -3.85619927672E-01 +5.72864440148E-02 -2.27441305505E-03 +2.32960577869E-03 -2.27786884343E-03 +2.45494946026E-03 -2.04702763204E-01 +2.28486095108E-01
4.39000000000E+09 -3.88411704165E-01 +7.37844621157E-02 -1.81341087647E-03 +2.52716670703E-03 -1.80123568677E-03 +2.63662304550E-03 -1.98211380098E-01 +2.45704017353E-01
4.39500000000E+09 -3.88892164644E-01 +8.86385968811E-02 -1.38301624214E-03 +2.76010717944E-03 -1.34225038760E-03 +2.87608660750E-03 -1.91678067247E-01 +2.61763126784E-01
4.40000000000E+09 -3.87098802086E-01 +1.03186344140E-01 -8.18506278265E-04 +2.64805545936E-03 -7.24861840960E-04 +2.73248588445E-03 -1.84217308822E-01 +2.78358264748E-01
4.40500000000E+09 -3.83263900425E-01 +1.18202815346E-01 -7.72210353037E-04 +2.56446681860E-03 -7.17970495198E-04 +2.64212310881E-03 -1.75611260441E-01 +2.93822174375E-01
4.41000000000E+09 -3.78389122736E-01 +1.34852959945E-01 -4.12900049728E-04 +2.75859297850E-03 -3.03176318930E-04 +2.85772825842E-03 -1.66682966149E-01 +3.08427427029E-01
4.41500000000E+09 -3.72755084771E-01 +1.54100845051E-01 -8.05718031950E-05 +2.70863640277E-03 +7.39517430275E-05 +2.66759321634E-03 -1.57724334707E-01 +3.22568601813E-01
4.42000000000E+09 -3.66365346188E-01 +1.75100277723E-01 +1.82072369432E-04 +2.74896470087E-03 +3.65666184985E-04 +2.68022273673E-03 -1.48587102704E-01 +3.37552426967E-01
4.42500000000E+09 -3.61535178800E-01 +1.96485934020E-01 +9.25019580360E-04 +2.65727131398E-03 +1.00642931025E-03 +2.57164775425E-03 -1.38392885289E-01 +3.51260068064E-01
4.43000000000E+09 -3.57938809699E-01 +2.18415480053E-01 +1.13307109684E-03 +2.19396000139E-03 +1.24674243861E-03 +2.08923251626E-03 -1.29369868287E-01 +3.64880530524E-01
4.43500000000E+09 -3.55288011264E-01 +2.39108201791E-01 +1.06942366369E-03 +2.02854753814E-03 +1.15158899519E-03 +1.91522550941E-03 -1.18857599593E-01 +3.78391136897E-01
4.44000000000E+09 -3.53079501509E-01 +2.57871676388E-01 +1.38779425075E-03 +2.01525413063E-03 +1.40823094173E-03 +1.86779844682E-03 -1.08318967391E-01 +3.90356165451E-01
4.44500000000E+09 -3.51093193184E-01 +2.74106721575E-01 +1.55022315237E-03 +1.70684814215E-03 +1.54998748636E-03 +1.49366204726E-03 -9.73860709136E-02 +4.01994942841E-01
4.45000000000E+09 -3.48425640663E-01 +2.88444596573E-01 +1.63446475286E-03 +1.77688849114E-03 +1.59171029486E-03 +1.58601181888E-03 -8.60758525612E-02 +4.12419411126E-01
4.45500000000E+09 -3.43698218365E-01 +3.01579820303E-01 +2.23459622759E-03 +1.53954156545E-03 +2.11562995013E-03 +1.39978266301E-03 -7.49347151354E-02 +4.22741153347E-01
4.46000000000E+09 -3.36971332011E-01 +3.13988035945E-01 +2.30502783124E-03 +6.64953228362E-04 +2.19749879409E-03 +5.21126146277E-04 -6.33296828318E-02 +4.32536327798E-01
4.46500000000E+09 -3.27752588103E-01 +3.27211236401E-01 +2.03021142212E-03 +5.69672299657E-04 +1.90819385513E-03 +4.90397558108E-04 -5.17054549636E-02 +4.41362372924E-01
4.47000000000E+09 -3.16781170064E-01 +3.41567514045E-01 +1.87587900401E-03 +3.27806151569E-04 +1.75877014819E-03 +2.40400630305E-04 -4.07924610652E-02 +4.50460115820E-01
4.47500000000E+09 -3.04590321040E-01 +3.57941430228E-01 +2.03444291867E-03 +5.75173386648E-04 +1.87096068502E-03 +4.95614807221E-04 -2.92504331832E-02 +4.59619751964E-01
4.48000000000E+09 -2.92234215003E-01 +3.75412889595E-01 +2.47573662119E-03 +2.66056249802E-04 +2.27736046775E-03 +2.34843780202E-04 -1.74597005325E-02 +4.67504109656E-01
4.48500000000E+09 -2.80906894727E-01 +3.93091239158E-01 +2.50196036474E-03 -4.61123543853E-04 +2.28890404673E-03 -3.93311590227E-04 -6.05102997702E-03 +4.75647835335E-01
4.49000000000E+09 -2.72023045435E-01 +4.10862431409E-01 +2.48460092337E-03 -8.55668382676E-04 +2.33004436351E-03 -7.80306177021E-04 +6.17878213897E-03 +4.83107551513E-01
4.49500000000E+09 -2.64064196911E-01 +4.28015147956E-01 +1.76279759309E-03 -1.43282239670E-03 +1.72680214666E-03 -1.25034902025E-03 +1.74088888661E-02 +4.89490580616E-01
4.50000000000E+09 -2.57354991319E-01 +4.42360135927E-01 +1.42769883692E-03 -1.24028527987E-03 +1.44865921597E-03 -1.14006785307E-03 +2.90198982357E-02 +4.95942527098E-01
4.50500000000E+09 -2.52328017018E-01 +4.54229806765E-01 +1.37273489015E-03 -1.29358288522E-03 +1.37053761661E-03 -1.15393952428E-03 +4.04745077669E-02 +5.01959776078E-01
4.51000000000E+09 -2.46753402019E-01 +4.64704616843E-01 +1.29234740707E-03 -1.52092206088E-03 +1.31157093242E-03 -1.42383254916E-03 +5.17856962000E-02 +5.07661141832E-01
4.51500000000E+09 -2.38982539411E-01 +4.72751160928E-01 +1.03564379658E-03 -1.68131032646E-03 +1.12697539189E-03 -1.62501195366E-03 +6.30709877413E-02 +5.13504992112E-01
4.52000000000E+09 -2.29842962083E-01 +4.79798230670E-01 +7.26598987061E-04 -1.79377026367E-03 +8.07810834342E-04 -1.77839562079E-03 +7.52410124967E-02 +5.18636413996E-01
4.52500000000E+09 -2.18111850012E-01 +4.86943209359E-01 +5.41617964634E-04 -1.65082791044E-03 +6.17216605733E-04 -1.64033193437E-03 +8.69816959319E-02 +5.22431788796E-01
4.53000000000E+09 -2.04904071093E-01 +4.94744160542E-01 +5.79274462475E-04 -1.99115054575E-03 +6.03332994918E-04 -1.96305005985E-03 +9.85554533627E-02 +5.26112160824E-01
4.53500000000E+09 -1.90071700072E-01 +5.04156216255E-01 -1.72515723009E-04 -2.13785445040E-03 -1.28866947334E-04 -2.19228098069E-03 +1.09860441887E-01 +5.29587791776E-01
4.54000000000E+09 -1.74728859486E-01 +5.14395268173E-01 -5.63498817470E-04 -1.91440838535E-03 -5.26060561581E-04 -1.96757542969E-03 +1.21470955206E-01 +5.32615182667E-01
4.54500000000E+09 -1.60228402499E-01 +5.25441736714E-01 -9.01603217802E-04 -1.41435005159E-03 -8.51800907640E-04 -1.42917847880E-03 +1.31824464283E-01 +5.35936405448E-01
4.55000000000E+09 -1.47219769107E-01 +5.36380031269E-01 -9.01063701334E-04 -1.09441100947E-03 -8.82484186423E-04 -1.08353634898E-03 +1.43649534161E-01 +5.39619541142E-01
4.55500000000E+09 -1.36307151441E-01 +5.46751471805E-01 -6.26147515751E-04 -8.62346601948E-04 -6.19261099013E-04 -9.40854088057E-04 +1.54793752284E-01 +5.41815830753E-01
4.56000000000E+09 -1.27029258480E-01 +5.56203367998E-01 -6.04777018035E-04 -1.18452388510E-03 -6.78129917199E-04 -1.23108378655E-03 +1.65264013812E-01 +5.44464408759E-01
4.56500000000E+09 -1.18234659752E-01 +5.64050286349E-01 -9.49288688227E-04 -1.16271936520E-03 -9.87506814568E-04 -1.14166363402E-03 +1.75592891843E-01 +5.46570688007E-01
4.57000000000E+09 -1.09213571595E-01 +5.70198110164E-01 -1.34121392526E-03 -9.09648204555E-04 -1.37663423989E-03 -8.36776018890E-04 +1.85976529564E-01 +5.48788495815E-01
