# Hz S RI R 50
! CMT, C1220, 16058040, 17.2.0/1
! Date: 15/08/2018 12:06:16
! Data: Format (Calibration Info)
! Freq                      S11: Re/Im (F2)                       S21: Re/Im (F2)                       S12: Re/Im (F2)                       S22: Re/Im (F2)            
4.00000000000E+09 +6.66144768574E-01 -3.39659196243E-01 +1.44476033612E-03 -5.33727434554E-04 +1.49369374558E-03 -4.98293139956E-04 +7.78075380441E-01 -3.36963768035E-01
4.00500000000E+09 +6.58015194600E-01 -3.45731212835E-01 +1.23441569466E-03 -6.02249033605E-04 +1.24475968355E-03 -5.15131782947E-04 +7.69455465254E-01 -3.48813195934E-01
4.01000000000E+09 +6.49069101088E-01 -3.51942661027E-01 +1.11395742964E-03 -5.32794250229E-04 +1.14164357232E-03 -5.26415675532E-04 +7.59911626954E-01 -3.60127964060E-01
4.01500000000E+09 +6.38715094747E-01 -3.58716835225E-01 +1.20751328842E-03 -3.96440959338E-04 +1.21371596281E-03 -3.64888959204E-04 +7.50375778216E-01 -3.70579334603E-01
4.02000000000E+09 +6.27916447313E-01 -3.66064056702E-01 +1.52101093821E-03 -6.22436671176E-04 +1.51205867523E-03 -5.81769232158E-04 +7.40539550661E-01 -3.81057992740E-01
4.02500000000E+09 +6.16879017753E-01 -3.75171778336E-01 +1.50261359794E-03 -9.99456581136E-04 +1.62518948136E-03 -9.54627993106E-04 +7.30378841145E-01 -3.91309079142E-01
4.03000000000E+09 +6.04978899461E-01 -3.85635507018E-01 +1.20034520452E-03 -1.43410079711E-03 +1.32707007602E-03 -1.40997500617E-03 +7.19826831596E-01 -4.01504935312E-01
4.03500000000E+09 +5.93485948935E-01 -3.96176698513E-01 +7.99561201361E-04 -1.32669898222E-03 +8.94049893529E-04 -1.34255227836E-03 +7.09028576133E-01 -4.11883714260E-01
4.04000000000E+09 +5.82249359437E-01 -4.06981656121E-01 +7.86251082141E-04 -1.21981627152E-03 +8.18665580073E-04 -1.20365316912E-03 +6.98391142170E-01 -4.22606061958E-01
4.04500000000E+09 +5.71131590712E-01 -4.17187582022E-01 +6.60602456119E-04 -1.13052587044E-03 +8.05737687620E-04 -1.11610599258E-03 +6.87014038142E-01 -4.33476218978E-01
4.05000000000E+09 +5.60171301358E-01 -4.25860478056E-01 +9.29496584881E-04 -1.20687541767E-03 +1.05818878375E-03 -1.17381928857E-03 +6.75479371212E-01 -4.43320860865E-01
4.05500000000E+09 +5.48689810246E-01 -4.32998012947E-01 +9.25082619506E-04 -1.57068231516E-03 +1.02881540568E-03 -1.59694351498E-03 +6.63890974029E-01 -4.53101447911E-01
4.06000000000E+09 +5.36576263180E-01 -4.38437743481E-01 +7.44188730210E-04 -1.77047568347E-03 +8.42610913620E-04 -1.80659188299E-03 +6.51458482983E-01 -4.62905831519E-01
4.06500000000E+09 +5.23810053965E-01 -4.42608576461E-01 +3.59713403373E-04 -1.86146809768E-03 +4.30111544678E-04 -1.88212116229E-03 +6.38563776886E-01 -4.72049746057E-01
4.07000000000E+09 +5.10334730551E-01 -4.46577896132E-01 +3.02028077829E-04 -1.88186169177E-03 +3.39713374604E-04 -1.95890095441E-03 +6.24625855387E-01 -4.81889934973E-01
4.07500000000E+09 +4.95676661017E-01 -4.51328740402E-01 -2.08880590309E-05 -2.10623482227E-03 +2.51662067572E-05 -2.14894544016E-03 +6.11034043039E-01 -4.90635628299E-01
4.08000000000E+09 +4.80156998394E-01 -4.56742203107E-01 -2.99764716568E-04 -1.92630049820E-03 -1.97279702866E-04 -2.03869726981E-03 +5.97876795337E-01 -5.00018106866E-01
4.08500000000E+09 +4.63662438026E-01 -4.63117775501E-01 -5.54795236504E-04 -1.77570929236E-03 -4.94133630530E-04 -1.86344595304E-03 +5.83908254475E-01 -5.09530444472E-01
4.09000000000E+09 +4.47205083281E-01 -4.70012657534E-01 -5.23069261155E-04 -1.69651232143E-03 -5.34566485912E-04 -1.80715972811E-03 +5.69733562406E-01 -5.17328057395E-01
4.09500000000E+09 +4.31165597988E-01 -4.77129208982E-01 -5.20506930117E-04 -1.49933992544E-03 -5.21284422586E-04 -1.59744805905E-03 +5.55608865923E-01 -5.25700874919E-01
4.10000000000E+09 +4.14839783138E-01 -4.84151929914E-01 -4.30076077151E-04 -1.84173560223E-03 -4.20481174106E-04 -1.88077948109E-03 +5.40117833940E-01 -5.33793661928E-01
4.10500000000E+09 +3.98964996907E-01 -4.89267129598E-01 -6.47288220511E-04 -2.06767348906E-03 -6.66466316594E-04 -2.14117482955E-03 +5.23740598206E-01 -5.41446689661E-01
4.11000000000E+09 +3.83607172099E-01 -4.92754591617E-01 -1.16543457751E-03 -2.20760468237E-03 -1.22137996582E-03 -2.28175277370E-03 +5.06675121371E-01 -5.49361228911E-01
4.11500000000E+09 +3.68715601666E-01 -4.94494268591E-01 -1.69196040339E-03 -1.83676920600E-03 -1.70066106608E-03 -1.92999352784E-03 +4.89686800246E-01 -5.56036071559E-01
4.12000000000E+09 +3.53748923065E-01 -4.95030397882E-01 -1.72483149947E-03 -1.48200683995E-03 -1.76233575377E-03 -1.51841636022E-03 +4.73019364711E-01 -5.62502380849E-01
4.12500000000E+09 +3.38455057360E-01 -4.95823670732E-01 -1.64695246546E-03 -1.29919758465E-03 -1.74573334782E-03 -1.36824582982E-03 +4.56437895625E-01 -5.68865526039E-01
4.13000000000E+09 +3.20669995624E-01 -4.97439332269E-01 -1.70176845499E-03 -1.39758902056E-03 -1.74418051480E-03 -1.48756786018E-03 +4.39411395867E-01 -5.74877299521E-01
4.13500000000E+09 +3.01661456760E-01 -4.98406811434E-01 -1.96563198311E-03 -1.32035613433E-03 -1.97581595978E-03 -1.36817705165E-03 +4.21048103126E-01 -5.80933977877E-01
4.14000000000E+09 +2.82333562913E-01 -5.00602824457E-01 -2.17799763106E-03 -1.19056819534E-03 -2.15666073000E-03 -1.30840425303E-03 +4.02186114523E-01 -5.85972785187E-01
4.14500000000E+09 +2.62596519127E-01 -5.03824324726E-01 -2.50860187400E-03 -9.18791800600E-04 -2.65528729294E-03 -9.73068631864E-04 +3.83487330479E-01 -5.91508622023E-01
4.15000000000E+09 +2.42813066576E-01 -5.08171621504E-01 -2.42084380294E-03 -6.66617384791E-04 -2.51892024719E-03 -7.60865714054E-04 +3.63167422917E-01 -5.96638237390E-01
4.15500000000E+09 +2.23150330410E-01 -5.11939581044E-01 -2.62692591756E-03 -7.52570782116E-04 -2.65247944617E-03 -8.14939866762E-04 +3.44105703071E-01 -5.99825800168E-01
4.16000000000E+09 +2.04359658742E-01 -5.14701562475E-01 -3.19522426458E-03 -3.56171952131E-04 -3.23536600509E-03 -4.01217164869E-04 +3.24771847405E-01 -6.02957999720E-01
4.16500000000E+09 +1.86903618882E-01 -5.15393818613E-01 -3.18672372732E-03 +4.37989473815E-04 -3.26760096185E-03 +3.67651122052E-04 +3.04341713572E-01 -6.04995439990E-01
4.17000000000E+09 +1.70521531993E-01 -5.14730253069E-01 -3.00149513537E-03 +6.37330877706E-04 -3.01972854614E-03 +5.70872070045E-04 +2.84587318420E-01 -6.05679671537E-01
4.17500000000E+09 +1.54149428783E-01 -5.11423641520E-01 -3.05438285277E-03 +1.32736676801E-03 -3.13333817045E-03 +1.32133898530E-03 +2.63839809474E-01 -6.06592047312E-01
4.18000000000E+09 +1.38549781371E-01 -5.07299955066E-01 -2.06916898851E-03 +1.44251663953E-03 -2.16014872980E-03 +1.44911569211E-03 +2.43616014704E-01 -6.07483046577E-01
4.18500000000E+09 +1.21602858829E-01 -5.02381468531E-01 -2.28212422873E-03 +7.80050565793E-04 -2.30237470019E-03 +7.63736813535E-04 +2.21662932833E-01 -6.08908332238E-01
4.19000000000E+09 +1.03420658250E-01 -4.97010108931E-01 -2.76734720047E-03 +1.14508139015E-03 -2.89481427845E-03 +1.07449014095E-03 +1.99407360290E-01 -6.07689460462E-01
4.19500000000E+09 +8.44589596593E-02 -4.91144608177E-01 -2.86725477107E-03 +1.85989579584E-03 -2.94976874660E-03 +1.80443782560E-03 +1.78327315111E-01 -6.05972366077E-01
4.20000000000E+09 +6.52111880764E-02 -4.86807418400E-01 -2.67910462970E-03 +2.30925791910E-03 -2.83236871525E-03 +2.27240218905E-03 +1.56730235656E-01 -6.03867225200E-01
4.20500000000E+09 +4.52473926772E-02 -4.83257334614E-01 -2.39146327104E-03 +2.92442196779E-03 -2.46324173812E-03 +2.94123553095E-03 +1.34796597744E-01 -6.00773274227E-01
4.21000000000E+09 +2.57841372118E-02 -4.79302342557E-01 -1.66850773243E-03 +2.83554909867E-03 -1.81409382013E-03 +2.93137658315E-03 +1.12653379055E-01 -5.97673200298E-01
4.21500000000E+09 +6.85633352450E-03 -4.75267374983E-01 -1.73198654908E-03 +2.90324788812E-03 -1.85568714210E-03 +2.95617476256E-03 +8.97961060312E-02 -5.93600276187E-01
4.22000000000E+09 -1.09502765351E-02 -4.69826966613E-01 -1.82808049380E-03 +3.40735007120E-03 -1.92426888418E-03 +3.50468053546E-03 +6.83362121636E-02 -5.88861949378E-01
4.22500000000E+09 -2.71627522064E-02 -4.61941788212E-01 -1.15310408477E-03 +4.07032794326E-03 -1.20575500685E-03 +4.20457950738E-03 +4.63573659082E-02 -5.84452326384E-01
4.23000000000E+09 -4.12027058680E-02 -4.53473269637E-01 -3.31809393804E-04 +3.85221067720E-03 -3.55293132612E-04 +3.97467059816E-03 +2.40046487231E-02 -5.78152659773E-01
4.23500000000E+09 -5.63357399615E-02 -4.44119467796E-01 +1.27336622419E-04 +3.70755016512E-03 +1.10846378652E-04 +3.84396029484E-03 +2.04946962604E-03 -5.70750514249E-01
4.24000000000E+09 -7.29243420001E-02 -4.33121730672E-01 -7.56963298922E-05 +3.62629551557E-03 -1.17343415330E-04 +3.72660589477E-03 -2.06331509257E-02 -5.62335062235E-01
4.24500000000E+09 -9.05244118682E-02 -4.20785523286E-01 +5.08820025173E-04 +4.03088510088E-03 +5.75794109495E-04 +4.16979011798E-03 -4.25750998372E-02 -5.52431618682E-01
4.25000000000E+09 -1.09549462375E-01 -4.08347732571E-01 +9.31599577325E-04 +3.96946757812E-03 +9.91543982844E-04 +4.13380357737E-03 -6.44658815320E-02 -5.42932901786E-01
4.25500000000E+09 -1.29377205876E-01 -3.95675565654E-01 +1.58504562333E-03 +3.88451919028E-03 +1.64057549382E-03 +4.01492111481E-03 -8.73004427152E-02 -5.31609811080E-01
4.26000000000E+09 -1.49076841216E-01 -3.84744039992E-01 +1.75397883083E-03 +3.67218727770E-03 +1.88068301744E-03 +3.73549392872E-03 -1.08261198579E-01 -5.18866860350E-01
4.26500000000E+09 -1.70140846631E-01 -3.74432779786E-01 +2.22497590776E-03 +3.74713311208E-03 +2.32390426586E-03 +3.83248440000E-03 -1.29225611949E-01 -5.05807419088E-01
4.27000000000E+09 -1.89518554340E-01 -3.63241820177E-01 +2.89003327294E-03 +3.45998159149E-03 +3.01296990147E-03 +3.54959167661E-03 -1.50116256864E-01 -4.90716455637E-01
4.27500000000E+09 -2.06056327909E-01 -3.51852287513E-01 +3.37724453138E-03 +3.04245048397E-03 +3.40657709965E-03 +3.02982808655E-03 -1.69952460204E-01 -4.75350754550E-01
4.28000000000E+09 -2.20378071805E-01 -3.40186239699E-01 +3.66049079970E-03 +2.56292354185E-03 +3.77342019059E-03 +2.55587408929E-03 -1.89606548818E-01 -4.59453874013E-01
4.28500000000E+09 -2.33617163000E-01 -3.27150230782E-01 +3.69399048332E-03 +1.85730481868E-03 +3.78921259209E-03 +1.80053366129E-03 -2.09145321044E-01 -4.44075806611E-01
4.29000000000E+09 -2.44220492320E-01 -3.11487670352E-01 +3.51894199210E-03 +1.56244975942E-03 +3.52612442392E-03 +1.49118560414E-03 -2.27925693896E-01 -4.27697238483E-01
4.29500000000E+09 -2.55129450090E-01 -2.94985541023E-01 +3.15750364655E-03 +2.00272952179E-03 +3.20878774319E-03 +2.01924450935E-03 -2.46946010460E-01 -4.10467155684E-01
4.30000000000E+09 -2.66392467628E-01 -2.76509889048E-01 +4.29478736528E-03 +2.01942960691E-03 +4.38927527910E-03 +1.99532741668E-03 -2.64090113621E-01 -3.91262965774E-01
4.30500000000E+09 -2.78619440734E-01 -2.56568487429E-01 +4.82160756608E-03 +1.53279466694E-03 +4.92522006963E-03 +1.55669181003E-03 -2.79957387578E-01 -3.71554600938E-01
4.31000000000E+09 -2.91872161710E-01 -2.36317522684E-01 +5.78678501608E-03 +7.06456215856E-04 +5.89816031088E-03 +7.03976047353E-04 -2.94965580545E-01 -3.51742451006E-01
4.31500000000E+09 -3.05765772439E-01 -2.16263091663E-01 +5.65364438816E-03 -8.50435011253E-04 +5.72094813114E-03 -9.02509532229E-04 -3.10507204287E-01 -3.31489054097E-01
4.32000000000E+09 -3.19337882607E-01 -1.97447514872E-01 +4.88434266476E-03 -1.57578583516E-03 +4.92600470870E-03 -1.64099376367E-03 -3.24315696228E-01 -3.09507206430E-01
4.32500000000E+09 -3.32944189650E-01 -1.80026687556E-01 +4.20824504145E-03 -1.76571962701E-03 +4.16380861916E-03 -1.82325151826E-03 -3.37490284067E-01 -2.88615927396E-01
4.33000000000E+09 -3.44086983044E-01 -1.62725779963E-01 +4.35847371011E-03 -1.49685988229E-03 +4.39891058831E-03 -1.55456895670E-03 -3.50929945572E-01 -2.66141860098E-01
4.33500000000E+09 -3.52262323074E-01 -1.46224545373E-01 +4.54397301360E-03 -1.83951491280E-03 +4.52469286763E-03 -1.85169917366E-03 -3.62834996693E-01 -2.42371220480E-01
4.34000000000E+09 -3.58324625403E-01 -1.30345974640E-01 +5.12008931510E-03 -2.52888523071E-03 +5.13661133968E-03 -2.63491821325E-03 -3.74229415270E-01 -2.18655835357E-01
4.34500000000E+09 -3.62607154510E-01 -1.13525231155E-01 +4.80163909697E-03 -3.92150615223E-03 +4.73659499021E-03 -3.92169202833E-03 -3.84890339443E-01 -1.91939847782E-01
4.35000000000E+09 -3.65223779176E-01 -9.49401008563E-02 +3.88977271186E-03 -4.75032349558E-03 +3.84705801627E-03 -4.73111023198E-03 -3.92005913032E-01 -1.66698074028E-01
4.35500000000E+09 -3.67825231286E-01 -7.48126343968E-02 +3.23280137021E-03 -5.07422061180E-03 +3.26350225182E-03 -5.06413186033E-03 -3.99950823705E-01 -1.42953090984E-01
4.36000000000E+09 -3.71321229691E-01 -5.23190246061E-02 +2.38124845304E-03 -5.52217738232E-03 +2.36743309199E-03 -5.60391782381E-03 -4.06015837128E-01 -1.18384511717E-01
4.36500000000E+09 -3.74565944384E-01 -2.80988279367E-02 +1.55605313381E-03 -5.68537330708E-03 +1.51212591200E-03 -5.78157434782E-03 -4.11488743543E-01 -9.48205157622E-02
4.37000000000E+09 -3.79069262497E-01 -4.94087162928E-03 +5.28709502101E-04 -5.45289638780E-03 +4.89624646379E-04 -5.58697572428E-03 -4.15386480657E-01 -7.00235021420E-02
4.37500000000E+09 -3.84413898266E-01 +1.80681308246E-02 +1.56490417215E-04 -4.81993853852E-03 +8.18105012014E-05 -4.93585990538E-03 -4.18068500657E-01 -4.50521057315E-02
4.38000000000E+09 -3.89909052090E-01 +3.90371591186E-02 +3.53700945428E-04 -5.09714892246E-03 +2.68088652344E-04 -5.18967098318E-03 -4.20035864933E-01 -2.05227362904E-02
4.38500000000E+09 -3.95168867759E-01 +5.75826341481E-02 +5.63410562679E-05 -5.33211403024E-03 -4.11203026982E-05 -5.41002812360E-03 -4.21677751795E-01 +4.51175303361E-03
4.39000000000E+09 -3.98986794105E-01 +7.46603101012E-02 -7.28260709917E-04 -6.08091459368E-03 -8.98771655641E-04 -6.10364514463E-03 -4.22501856369E-01 +2.94061810740E-02
4.39500000000E+09 -4.00685539160E-01 +9.03602833897E-02 -2.24595542610E-03 -5.86100015148E-03 -2.44234058632E-03 -5.87989575842E-03 -4.22696133467E-01 +5.37956282392E-02
4.40000000000E+09 -3.99756108352E-01 +1.05382823936E-01 -2.72179634345E-03 -5.20185761623E-03 -2.92902656039E-03 -5.13513450575E-03 -4.21285642810E-01 +7.84575336561E-02
4.40500000000E+09 -3.97267829856E-01 +1.21534201931E-01 -3.82479096925E-03 -4.66101547488E-03 -3.91109815288E-03 -4.58970309981E-03 -4.18397743348E-01 +1.02221624898E-01
4.41000000000E+09 -3.91803822333E-01 +1.38824663975E-01 -3.69121238787E-03 -3.62643339168E-03 -3.78544285960E-03 -3.51167517467E-03 -4.14678585660E-01 +1.25583521507E-01
4.41500000000E+09 -3.86286661848E-01 +1.57483189133E-01 -3.88187014714E-03 -3.27524957217E-03 -3.95369437856E-03 -3.17725474532E-03 -4.09745329134E-01 +1.49546770741E-01
4.42000000000E+09 -3.81189502413E-01 +1.78476042650E-01 -3.98614848908E-03 -3.00955040106E-03 -4.03005932989E-03 -2.91541349252E-03 -4.04834100903E-01 +1.72213721641E-01
4.42500000000E+09 -3.76334775666E-01 +2.00652759764E-01 -4.22231420051E-03 -2.79085802549E-03 -4.25129700811E-03 -2.67492867563E-03 -3.98322651197E-01 +1.95584699973E-01
4.43000000000E+09 -3.72481440255E-01 +2.22615045236E-01 -4.32312042676E-03 -2.46739328158E-03 -4.31557456094E-03 -2.28809367219E-03 -3.92258689112E-01 +2.16658679293E-01
4.43500000000E+09 -3.69824140718E-01 +2.43898017072E-01 -5.20713833879E-03 -2.25376037209E-03 -5.15798513334E-03 -2.12800255204E-03 -3.86358751901E-01 +2.38214095167E-01
4.44000000000E+09 -3.67512928759E-01 +2.62946061133E-01 -5.35539280606E-03 -1.20864258574E-03 -5.32667982895E-03 -1.07777668154E-03 -3.78198052235E-01 +2.61341392544E-01
4.44500000000E+09 -3.65527942656E-01 +2.79396449803E-01 -5.11313174450E-03 -6.09624955602E-04 -5.09571434830E-03 -5.04564882586E-04 -3.68653334291E-01 +2.81146142207E-01
4.45000000000E+09 -3.62732408599E-01 +2.94039640272E-01 -5.32058254538E-03 -2.17742718096E-05 -5.30833021168E-03 +6.81815185105E-05 -3.58824233278E-01 +3.00948202380E-01
4.45500000000E+09 -3.58040484836E-01 +3.06843353956E-01 -5.05743194851E-03 +8.56308673563E-04 -4.95156786372E-03 +9.38978841934E-04 -3.47585382883E-01 +3.19320639237E-01
4.46000000000E+09 -3.51899326941E-01 +3.19156398040E-01 -4.42339673269E-03 +1.07643625644E-03 -4.35103899800E-03 +1.21553365025E-03 -3.38774022319E-01 +3.36619506777E-01
4.46500000000E+09 -3.42750855447E-01 +3.32727098891E-01 -4.24601443193E-03 +1.14581899293E-03 -4.19959704361E-03 +1.19703631941E-03 -3.27126064172E-01 +3.55532078610E-01
4.47000000000E+09 -3.31174634760E-01 +3.47242387993E-01 -4.21618336733E-03 +9.91161881912E-04 -4.10024596475E-03 +1.05130023008E-03 -3.15484240689E-01 +3.72346364740E-01
4.47500000000E+09 -3.18507646215E-01 +3.63094798658E-01 -5.45536860714E-03 +1.48971013918E-03 -5.30343534694E-03 +1.68081808113E-03 -3.04116614061E-01 +3.88518529743E-01
4.48000000000E+09 -3.05812670381E-01 +3.80273426185E-01 -4.82544043238E-03 +3.00293598985E-03 -4.67536871257E-03 +3.02559477089E-03 -2.92642076113E-01 +4.05019140781E-01
4.48500000000E+09 -2.93661861999E-01 +3.98202902914E-01 -3.96480731264E-03 +3.70835235021E-03 -3.87233212464E-03 +3.68292678928E-03 -2.80880464740E-01 +4.20855223274E-01
4.49000000000E+09 -2.83840321492E-01 +4.15052459601E-01 -3.38966129979E-03 +4.03524783683E-03 -3.23083362146E-03 +3.99784336163E-03 -2.67859480591E-01 +4.36823245787E-01
4.49500000000E+09 -2.75928808860E-01 +4.32813546576E-01 -2.56380870591E-03 +4.02604806395E-03 -2.47987956219E-03 +3.93562963021E-03 -2.54547432716E-01 +4.50646091970E-01
4.50000000000E+09 -2.68739349027E-01 +4.47657630798E-01 -2.37659222746E-03 +3.95850652618E-03 -2.33527001965E-03 +3.86705832180E-03 -2.41650163366E-01 +4.64302312343E-01
4.50500000000E+09 -2.62660033176E-01 +4.60720230989E-01 -2.07607308186E-03 +4.13268724731E-03 -2.04793459394E-03 +4.10075849325E-03 -2.28316844279E-01 +4.76941015326E-01
4.51000000000E+09 -2.55748277215E-01 +4.71132891464E-01 -1.70794241596E-03 +4.34503384282E-03 -1.62073060404E-03 +4.29502656291E-03 -2.15824472686E-01 +4.89826702917E-01
4.51500000000E+09 -2.47424773706E-01 +4.79522663789E-01 -1.18854130938E-03 +4.60291851769E-03 -1.11045834396E-03 +4.52905545143E-03 -2.02347787906E-01 +5.02215716827E-01
4.52000000000E+09 -2.37804480446E-01 +4.86672834443E-01 -8.26693565816E-04 +4.56475291720E-03 -7.03466091001E-04 +4.49875633924E-03 -1.89122904849E-01 +5.14022122993E-01
4.52500000000E+09 -2.25963442540E-01 +4.94637458175E-01 -3.17203412924E-04 +4.41345331972E-03 -2.16941193099E-04 +4.38210790042E-03 -1.75857750625E-01 +5.25189808152E-01
4.53000000000E+09 -2.11450515830E-01 +5.02892057092E-01 -1.32115957486E-04 +4.77953425156E-03 -1.66745108990E-05 +4.66555494415E-03 -1.61815172451E-01 +5.35787243157E-01
4.53500000000E+09 -1.96059870314E-01 +5.12294051886E-01 +7.40909306108E-04 +4.54617687750E-03 +7.91547088355E-04 +4.49704882077E-03 -1.47442199103E-01 +5.46061763637E-01
4.54000000000E+09 -1.80365417445E-01 +5.23220121301E-01 +1.21304056852E-03 +4.35642213298E-03 +1.27499940160E-03 +4.30354431666E-03 -1.32421338891E-01 +5.56318811724E-01
4.54500000000E+09 -1.64796584546E-01 +5.34389193372E-01 +1.15650707181E-03 +4.24798685512E-03 +1.22518586524E-03 +4.13034559203E-03 -1.17268389841E-01 +5.64981641287E-01
4.55000000000E+09 -1.51964772462E-01 +5.45038969594E-01 +2.04869998542E-03 +4.32608383277E-03 +2.14846425444E-03 +4.15493105895E-03 -1.02819584316E-01 +5.73839910728E-01
4.55500000000E+09 -1.41425496694E-01 +5.56088988557E-01 +2.39123176731E-03 +3.66009125093E-03 +2.38222885950E-03 +3.50846907230E-03 -8.92216877142E-02 +5.81987903711E-01
4.56000000000E+09 -1.32069604868E-01 +5.66167197696E-01 +2.43992933609E-03 +3.49870707163E-03 +2.45918512844E-03 +3.33534274536E-03 -7.51205921915E-02 +5.90939214524E-01
4.56500000000E+09 -1.23613577890E-01 +5.73936831216E-01 +2.91273362404E-03 +3.30075444007E-03 +2.93407637441E-03 +3.18243110641E-03 -6.08004767920E-02 +5.98817749223E-01
4.57000000000E+09 -1.15197753178E-01 +5.80470247081E-01 +3.00640928768E-03 +2.77542385849E-03 +3.01871526480E-03 +2.63900816754E-03 -4.58096307933E-02 +6.06045113117E-01
