# Hz S RI R 50
! CMT, C1220, 16058040, 17.2.0/1
! Date: 15/08/2018 11:36:24
! Data: Format (Calibration Info)
! Freq                      S11: Re/Im (F2)                       S21: Re/Im (F2)                       S12: Re/Im (F2)                       S22: Re/Im (F2)            
4.00000000000E+09 +6.69069542725E-01 -3.56423607668E-01 +1.21782641422E-03 -3.60249459484E-03 +1.39593059779E-03 -3.62686881334E-03 +7.75852955319E-01 -3.52748423275E-01
4.00500000000E+09 +6.60912956642E-01 -3.64557612695E-01 +7.88240496095E-04 -3.98332619322E-03 +9.60340515647E-04 -4.05519319082E-03 +7.67486801363E-01 -3.64097702338E-01
4.01000000000E+09 +6.52271370381E-01 -3.71964882952E-01 +1.32964245585E-04 -4.19759272786E-03 +2.97388965045E-04 -4.25389505077E-03 +7.58673573251E-01 -3.75601549061E-01
4.01500000000E+09 +6.43080254597E-01 -3.79516682209E-01 -5.36378049489E-04 -4.07009210900E-03 -4.13268926312E-04 -4.18202837140E-03 +7.48895767778E-01 -3.86185622557E-01
4.02000000000E+09 +6.33007465569E-01 -3.88280598484E-01 -8.19634505856E-04 -3.77162174761E-03 -6.96995994788E-04 -3.92907448765E-03 +7.39077708209E-01 -3.96585964898E-01
4.02500000000E+09 +6.21965623169E-01 -3.97427829488E-01 -9.45973032683E-04 -3.67376042473E-03 -8.64786805234E-04 -3.79646575384E-03 +7.28809025798E-01 -4.06810472418E-01
4.03000000000E+09 +6.10088470399E-01 -4.07431818467E-01 -1.22364698392E-03 -3.91401468625E-03 -1.15007658508E-03 -4.01384766161E-03 +7.18628882181E-01 -4.17437695814E-01
4.03500000000E+09 +5.98039451546E-01 -4.16983151283E-01 -1.89950861238E-03 -3.76073017060E-03 -1.85249416664E-03 -3.90922206154E-03 +7.07707604256E-01 -4.28738903765E-01
4.04000000000E+09 +5.86297848552E-01 -4.26798684000E-01 -2.19667264868E-03 -3.49533551124E-03 -2.07010188547E-03 -3.66591865346E-03 +6.96147275081E-01 -4.39837154425E-01
4.04500000000E+09 +5.74613892996E-01 -4.35999113093E-01 -2.60002882516E-03 -3.34984077507E-03 -2.51435531925E-03 -3.55083522814E-03 +6.84353298687E-01 -4.50565990032E-01
4.05000000000E+09 +5.63401969533E-01 -4.44805151960E-01 -2.77038657764E-03 -3.07891585886E-03 -2.81957681459E-03 -3.27388238480E-03 +6.72845466008E-01 -4.60486181990E-01
4.05500000000E+09 +5.51429179392E-01 -4.53436200545E-01 -2.86492492346E-03 -3.03484773454E-03 -2.91195388494E-03 -3.26456740727E-03 +6.60528845390E-01 -4.70254562744E-01
4.06000000000E+09 +5.38091614933E-01 -4.61230793438E-01 -3.51552212233E-03 -3.16314997427E-03 -3.60425535392E-03 -3.34442085917E-03 +6.47996908283E-01 -4.79740757368E-01
4.06500000000E+09 +5.24195349826E-01 -4.67075149906E-01 -4.30497690006E-03 -2.44771071963E-03 -4.42403598806E-03 -2.61109692170E-03 +6.34684763780E-01 -4.88906848018E-01
4.07000000000E+09 +5.10296981913E-01 -4.73689587834E-01 -4.24503552980E-03 -1.95128918982E-03 -4.25967693531E-03 -2.04913368376E-03 +6.20880974271E-01 -4.98543949788E-01
4.07500000000E+09 +4.94844489112E-01 -4.80731668035E-01 -4.43042010173E-03 -1.57504285325E-03 -4.43003478125E-03 -1.77271435685E-03 +6.07269902819E-01 -5.07539328037E-01
4.08000000000E+09 +4.78815041600E-01 -4.87273914817E-01 -4.64953945863E-03 -1.22074767692E-03 -4.72239117736E-03 -1.45827709945E-03 +5.93794061728E-01 -5.17317970862E-01
4.08500000000E+09 +4.62266693358E-01 -4.94494981125E-01 -4.78512169684E-03 -7.49205741802E-04 -4.94076864977E-03 -9.26629746646E-04 +5.79783586719E-01 -5.26869706892E-01
4.09000000000E+09 +4.45675264987E-01 -5.01979528691E-01 -5.07739882802E-03 -3.27441564838E-04 -5.32976357610E-03 -4.42706328065E-04 +5.65216077569E-01 -5.35843177235E-01
4.09500000000E+09 +4.28887582450E-01 -5.08710744121E-01 -5.24768780903E-03 +3.54777620229E-04 -5.45274516820E-03 +3.19724687490E-04 +5.49689704688E-01 -5.43722474051E-01
4.10000000000E+09 +4.13450393642E-01 -5.15083251722E-01 -4.73927101745E-03 +8.61728768022E-04 -4.83638999740E-03 +8.63335719361E-04 +5.33741020325E-01 -5.50824471123E-01
4.10500000000E+09 +3.97167947092E-01 -5.21485806646E-01 -4.95597026144E-03 +1.02004563512E-03 -5.09369755756E-03 +9.76657372212E-04 +5.17401104897E-01 -5.57848551294E-01
4.11000000000E+09 +3.80412368554E-01 -5.25663013236E-01 -5.14484770873E-03 +1.68351506611E-03 -5.33906736082E-03 +1.62689261190E-03 +5.00221744524E-01 -5.65619023858E-01
4.11500000000E+09 +3.64318579577E-01 -5.28236768889E-01 -4.98325344031E-03 +2.43461497209E-03 -5.12090065012E-03 +2.34907461784E-03 +4.82663508129E-01 -5.73039457989E-01
4.12000000000E+09 +3.47803486950E-01 -5.30269714291E-01 -4.69320021702E-03 +3.05401184481E-03 -4.86441974329E-03 +3.02732775388E-03 +4.65109280498E-01 -5.79632632702E-01
4.12500000000E+09 +3.31166042416E-01 -5.31973940297E-01 -4.36459703106E-03 +3.67525696744E-03 -4.55107573334E-03 +3.62735709284E-03 +4.47917420713E-01 -5.85425055983E-01
4.13000000000E+09 +3.13717451625E-01 -5.34504438031E-01 -3.45501154885E-03 +3.99944339677E-03 -3.66484095150E-03 +4.04469227638E-03 +4.30873158299E-01 -5.91200205219E-01
4.13500000000E+09 +2.94461317650E-01 -5.37980629060E-01 -3.00154744811E-03 +3.83405764348E-03 -3.16730844595E-03 +3.83797346219E-03 +4.12542635161E-01 -5.96826673627E-01
4.14000000000E+09 +2.74122521805E-01 -5.41176115921E-01 -3.20298566678E-03 +3.80918011387E-03 -3.42683347529E-03 +3.79772173549E-03 +3.92506330277E-01 -6.01983986278E-01
4.14500000000E+09 +2.53930077934E-01 -5.43456096277E-01 -3.48513658806E-03 +4.58430893257E-03 -3.69405701885E-03 +4.69362804760E-03 +3.72483892752E-01 -6.06083605941E-01
4.15000000000E+09 +2.35422108623E-01 -5.47163045663E-01 -2.43408453349E-03 +5.30586817184E-03 -2.63491538831E-03 +5.44538587266E-03 +3.53403048076E-01 -6.09856390228E-01
4.15500000000E+09 +2.16076482766E-01 -5.50268189788E-01 -1.99635603462E-03 +5.40111974317E-03 -2.07213017137E-03 +5.55526565562E-03 +3.34351557084E-01 -6.13643624217E-01
4.16000000000E+09 +1.98462843662E-01 -5.52319999893E-01 -1.37030149209E-03 +5.63475533423E-03 -1.38844812829E-03 +5.78146344924E-03 +3.15054962551E-01 -6.16983174605E-01
4.16500000000E+09 +1.81088583303E-01 -5.53669986556E-01 -9.05852763096E-04 +5.51051302537E-03 -9.55207473505E-04 +5.61792164806E-03 +2.94734165250E-01 -6.19024685945E-01
4.17000000000E+09 +1.63229726307E-01 -5.53012287856E-01 -9.26705172598E-04 +5.78246134159E-03 -1.07038941554E-03 +5.88951026797E-03 +2.74324245246E-01 -6.19798533752E-01
4.17500000000E+09 +1.45922733528E-01 -5.49725205177E-01 -2.06513135762E-04 +6.61265302319E-03 -2.91137010356E-04 +6.74685513433E-03 +2.53833833832E-01 -6.20265205451E-01
4.18000000000E+09 +1.29419092939E-01 -5.45347975970E-01 +1.32026748230E-03 +6.61204291305E-03 +1.24864182502E-03 +6.83220372391E-03 +2.32473174650E-01 -6.21061575012E-01
4.18500000000E+09 +1.10737599734E-01 -5.41589712571E-01 +1.81471498971E-03 +5.66161123724E-03 +1.74073808284E-03 +5.89437955789E-03 +2.10029391052E-01 -6.21427587536E-01
4.19000000000E+09 +9.08677430582E-02 -5.35948221614E-01 +1.70936291846E-03 +5.51050529530E-03 +1.69199366655E-03 +5.66730051152E-03 +1.87414245693E-01 -6.20283909233E-01
4.19500000000E+09 +7.08917965355E-02 -5.30600460531E-01 +1.86732275744E-03 +5.78450934118E-03 +1.79616134850E-03 +6.02498277084E-03 +1.65240696104E-01 -6.17998390094E-01
4.20000000000E+09 +4.99742716589E-02 -5.25765601995E-01 +2.52712181726E-03 +6.31327862313E-03 +2.44724655296E-03 +6.51893726951E-03 +1.43774424557E-01 -6.15209586308E-01
4.20500000000E+09 +2.91422984035E-02 -5.21248558304E-01 +3.94996132181E-03 +6.47796276969E-03 +3.98151195599E-03 +6.77424224165E-03 +1.21276178655E-01 -6.11989654026E-01
4.21000000000E+09 +8.96132254870E-03 -5.16184531395E-01 +5.32741685341E-03 +5.83640795667E-03 +5.36629612865E-03 +6.08714574007E-03 +9.81652898863E-02 -6.07642001999E-01
4.21500000000E+09 -9.87479717439E-03 -5.12134716083E-01 +5.61404424123E-03 +4.44904983746E-03 +5.77955337769E-03 +4.64866826167E-03 +7.50949404063E-02 -6.02214006821E-01
4.22000000000E+09 -2.84033765885E-02 -5.06234321741E-01 +5.74273692995E-03 +3.99211625389E-03 +5.86185843241E-03 +4.17468815067E-03 +5.32400782214E-02 -5.95783413249E-01
4.22500000000E+09 -4.51085702792E-02 -4.99106773235E-01 +6.08199613696E-03 +3.68916245922E-03 +6.21359804007E-03 +3.85152803018E-03 +3.20054058096E-02 -5.89400349793E-01
4.23000000000E+09 -6.08989406362E-02 -4.91182366395E-01 +6.88045145881E-03 +3.06268026356E-03 +7.07792852237E-03 +3.17905782992E-03 +1.15429260063E-02 -5.82315383665E-01
4.23500000000E+09 -7.79650133486E-02 -4.81235908401E-01 +7.00524864220E-03 +2.27136058957E-03 +7.18314436883E-03 +2.40856907942E-03 -1.01259471896E-02 -5.75173248506E-01
4.24000000000E+09 -9.46209875021E-02 -4.69498504108E-01 +7.21384755761E-03 +1.75601596630E-03 +7.49224605842E-03 +1.82740379618E-03 -3.22049690697E-02 -5.66026464321E-01
4.24500000000E+09 -1.11809925820E-01 -4.57181999795E-01 +7.28979520339E-03 +8.09388504352E-04 +7.55872728510E-03 +8.23437188534E-04 -5.40332568594E-02 -5.55355837034E-01
4.25000000000E+09 -1.31086920952E-01 -4.44101095308E-01 +7.32999322378E-03 +7.57904416924E-04 +7.55433459560E-03 +7.39090880927E-04 -7.45817117828E-02 -5.44772972903E-01
4.25500000000E+09 -1.50500960594E-01 -4.30888125179E-01 +8.15855787246E-03 +1.40715948142E-04 +8.44026105293E-03 +1.13770202953E-04 -9.47847472504E-02 -5.33632824108E-01
4.26000000000E+09 -1.70073767644E-01 -4.18658413822E-01 +8.87526640642E-03 -1.47102938478E-03 +9.18327976316E-03 -1.56055556012E-03 -1.15535385512E-01 -5.22069643317E-01
4.26500000000E+09 -1.90572583462E-01 -4.07704889917E-01 +8.02703327700E-03 -2.80869469944E-03 +8.24460213128E-03 -3.01121653578E-03 -1.35414335708E-01 -5.08751523197E-01
4.27000000000E+09 -2.10324631333E-01 -3.95509251771E-01 +7.57741442845E-03 -3.67221016997E-03 +7.68653800044E-03 -3.88863406112E-03 -1.56661341938E-01 -4.95107576928E-01
4.27500000000E+09 -2.28096419073E-01 -3.84063005172E-01 +6.87685381049E-03 -4.59604751692E-03 +6.89903669720E-03 -4.82382097046E-03 -1.76950148892E-01 -4.78906532817E-01
4.28000000000E+09 -2.44698661164E-01 -3.71348985737E-01 +6.06579766997E-03 -4.50093128454E-03 +6.04917216049E-03 -4.64566238394E-03 -1.95747328343E-01 -4.64689741541E-01
4.28500000000E+09 -2.58416087869E-01 -3.57835802934E-01 +6.50908609621E-03 -4.63650178431E-03 +6.47577018691E-03 -4.85217994139E-03 -2.17192221944E-01 -4.49659796387E-01
4.29000000000E+09 -2.70715879041E-01 -3.43599208265E-01 +6.56597361620E-03 -6.19493801097E-03 +6.51804987591E-03 -6.29291657137E-03 -2.37056773490E-01 -4.31939072778E-01
4.29500000000E+09 -2.82307567025E-01 -3.29015231965E-01 +4.97297963244E-03 -7.19419878981E-03 +4.91226781336E-03 -7.35710253624E-03 -2.54204954302E-01 -4.12493406913E-01
4.30000000000E+09 -2.95278389499E-01 -3.12596095150E-01 +4.74391802779E-03 -7.22162847428E-03 +4.68933664782E-03 -7.34928545406E-03 -2.70077184504E-01 -3.94263034225E-01
4.30500000000E+09 -3.08811590542E-01 -2.94676775493E-01 +3.83962822664E-03 -8.18524077931E-03 +3.82023574922E-03 -8.28873081787E-03 -2.85194357163E-01 -3.74923301376E-01
4.31000000000E+09 -3.22384294966E-01 -2.74899859063E-01 +3.03584384116E-03 -8.49283076403E-03 +2.98077379325E-03 -8.57356217980E-03 -3.00583265083E-01 -3.55310303667E-01
4.31500000000E+09 -3.35377133584E-01 -2.54897978658E-01 +2.22659904385E-03 -9.04317538883E-03 +2.17571784911E-03 -9.13890070349E-03 -3.16195119852E-01 -3.34302088477E-01
4.32000000000E+09 -3.47280175378E-01 -2.35575818390E-01 +8.03016262762E-04 -9.90057405673E-03 +7.38534186177E-04 -1.00286158857E-02 -3.29666635412E-01 -3.12081204983E-01
4.32500000000E+09 -3.57782114325E-01 -2.18075329603E-01 -1.67056282011E-03 -9.34970267130E-03 -1.74034202480E-03 -9.45582655878E-03 -3.41708532759E-01 -2.90687195391E-01
4.33000000000E+09 -3.69182992189E-01 -2.02229066144E-01 -1.47142806994E-03 -7.53065050461E-03 -1.50819553672E-03 -7.54336153779E-03 -3.53521007028E-01 -2.70375420807E-01
4.33500000000E+09 -3.79754284777E-01 -1.84833879024E-01 -9.83229744913E-04 -7.92062504851E-03 -1.05838172511E-03 -7.92647769364E-03 -3.65766104561E-01 -2.47215367464E-01
4.34000000000E+09 -3.87778779155E-01 -1.66189713139E-01 -1.68158713197E-03 -8.80192429715E-03 -1.75285710212E-03 -8.77400001242E-03 -3.76925592505E-01 -2.23040437392E-01
4.34500000000E+09 -3.93373331578E-01 -1.46769698293E-01 -2.85642922840E-03 -9.45918592225E-03 -2.92159680097E-03 -9.40994511294E-03 -3.85848915164E-01 -1.97752510732E-01
4.35000000000E+09 -3.97414274404E-01 -1.26286314755E-01 -4.94708619625E-03 -9.43969672851E-03 -5.01586034170E-03 -9.47472354741E-03 -3.94658372330E-01 -1.74191947468E-01
4.35500000000E+09 -4.00689812768E-01 -1.04924283161E-01 -6.58065659050E-03 -8.10452350081E-03 -6.54678581694E-03 -8.14681345226E-03 -4.03716519558E-01 -1.51121295529E-01
4.36000000000E+09 -4.04304007310E-01 -8.33286554061E-02 -6.66354744948E-03 -6.50287598851E-03 -6.71682829040E-03 -6.55249821488E-03 -4.12107971303E-01 -1.27938164382E-01
4.36500000000E+09 -4.09393541224E-01 -6.01994478224E-02 -7.15287419189E-03 -6.63055484319E-03 -7.33192516991E-03 -6.62902907515E-03 -4.18674840509E-01 -1.03039664382E-01
4.37000000000E+09 -4.14772921224E-01 -3.63523506313E-02 -8.06875590694E-03 -5.62003612742E-03 -8.25415608336E-03 -5.54496237000E-03 -4.23101230843E-01 -7.78749236297E-02
4.37500000000E+09 -4.19646050920E-01 -1.37866238548E-02 -8.51072343454E-03 -4.84483528647E-03 -8.64999731932E-03 -4.81707167613E-03 -4.24846214366E-01 -5.27714376673E-02
4.38000000000E+09 -4.25315707977E-01 +8.01577469229E-03 -9.03518530981E-03 -3.91790008367E-03 -9.20421222957E-03 -3.93983287602E-03 -4.28662784038E-01 -2.91644596367E-02
4.38500000000E+09 -4.29649907096E-01 +2.89284355953E-02 -9.66953852399E-03 -2.91261445377E-03 -9.90179197687E-03 -2.89649627701E-03 -4.31962885122E-01 -2.94632123704E-03
4.39000000000E+09 -4.32401977135E-01 +4.80760733544E-02 -9.43843397554E-03 -2.14784358771E-03 -9.72970988323E-03 -2.03508614875E-03 -4.33774884671E-01 +2.44004074774E-02
4.39500000000E+09 -4.33378562180E-01 +6.57308754669E-02 -1.05687134481E-02 -1.65827861146E-03 -1.07434314383E-02 -1.42663732480E-03 -4.32528325904E-01 +5.05257590717E-02
4.40000000000E+09 -4.32723704009E-01 +8.34326274194E-02 -1.13885117483E-02 +3.93183985627E-04 -1.15339964013E-02 +6.32510217175E-04 -4.29980369390E-01 +7.46691091504E-02
4.40500000000E+09 -4.30181291896E-01 +1.00912423927E-01 -1.10652692572E-02 +1.86431358095E-03 -1.11878030448E-02 +2.18063587459E-03 -4.27163591128E-01 +9.77546135652E-02
4.41000000000E+09 -4.27652365107E-01 +1.19530235749E-01 -1.03184429784E-02 +4.20766826653E-03 -1.02918625856E-02 +4.43479390907E-03 -4.25168894836E-01 +1.20253388164E-01
4.41500000000E+09 -4.24575722291E-01 +1.41123164629E-01 -9.03797676423E-03 +4.80060443406E-03 -8.96908715442E-03 +5.11295854263E-03 -4.22064494405E-01 +1.45971587433E-01
4.42000000000E+09 -4.19938495246E-01 +1.63790626641E-01 -8.25490724835E-03 +5.23484542170E-03 -8.21171958990E-03 +5.53858463896E-03 -4.15615865254E-01 +1.71297893391E-01
4.42500000000E+09 -4.15906711697E-01 +1.86759928774E-01 -7.86557281726E-03 +5.68131742827E-03 -7.59360827299E-03 +5.96738729432E-03 -4.08076309030E-01 +1.93572258595E-01
4.43000000000E+09 -4.12045479435E-01 +2.09102982350E-01 -7.69358217098E-03 +6.41505164541E-03 -7.43675298429E-03 +6.60526143853E-03 -4.03354490437E-01 +2.15588462049E-01
4.43500000000E+09 -4.09161631827E-01 +2.29891139782E-01 -7.16244351310E-03 +7.75138999407E-03 -6.82469215256E-03 +7.87335791772E-03 -3.97402566853E-01 +2.38936760255E-01
4.44000000000E+09 -4.06864918149E-01 +2.48544845477E-01 -5.76112663538E-03 +9.25416307784E-03 -5.49973276340E-03 +9.25413004365E-03 -3.88944999181E-01 +2.62123737515E-01
4.44500000000E+09 -4.05172128830E-01 +2.65672263981E-01 -4.06370528392E-03 +8.92587390987E-03 -3.84267458525E-03 +9.00988176306E-03 -3.78016921541E-01 +2.83044439911E-01
4.45000000000E+09 -4.02778285893E-01 +2.81675854774E-01 -3.21721079851E-03 +8.88161036465E-03 -2.94451737557E-03 +8.95805562417E-03 -3.68006039898E-01 +3.01396543089E-01
4.45500000000E+09 -3.97653330667E-01 +2.96836457738E-01 -3.08117265399E-03 +9.14682879066E-03 -2.77453892879E-03 +9.21731389980E-03 -3.58664000290E-01 +3.19674310194E-01
4.46000000000E+09 -3.90886899661E-01 +3.11174698672E-01 -1.75059440218E-03 +1.00119425061E-02 -1.35977949439E-03 +9.93969523766E-03 -3.50031738480E-01 +3.40097856502E-01
4.46500000000E+09 -3.81412121395E-01 +3.26955447451E-01 -3.05941436325E-04 +9.96495472963E-03 +1.89788645681E-05 +9.79035553713E-03 -3.37141760211E-01 +3.59625823326E-01
4.47000000000E+09 -3.69185346428E-01 +3.42239607082E-01 +9.84607293781E-04 +9.51481533160E-03 +1.27236188593E-03 +9.28518420308E-03 -3.24566425886E-01 +3.77412339057E-01
4.47500000000E+09 -3.56987401206E-01 +3.57957758034E-01 +1.46561391723E-03 +8.62866072319E-03 +1.66619505683E-03 +8.39101846838E-03 -3.12262569722E-01 +3.94154836880E-01
4.48000000000E+09 -3.45445830141E-01 +3.75466323469E-01 +1.49293614950E-03 +9.07439307985E-03 +1.69566447831E-03 +8.83685369099E-03 -3.00929539914E-01 +4.11755913893E-01
4.48500000000E+09 -3.33958409423E-01 +3.93976101438E-01 +2.91122911511E-03 +9.51524511859E-03 +3.01507116052E-03 +9.16704931705E-03 -2.88012936753E-01 +4.28986293414E-01
4.49000000000E+09 -3.24774553142E-01 +4.12044491532E-01 +4.50837915283E-03 +9.26897805563E-03 +4.57120954940E-03 +8.86401754256E-03 -2.74337080451E-01 +4.45357217324E-01
4.49500000000E+09 -3.16170713998E-01 +4.30533184149E-01 +5.76237574654E-03 +8.09389518038E-03 +5.69874248892E-03 +7.75646937029E-03 -2.59247051358E-01 +4.59361334820E-01
4.50000000000E+09 -3.07730643109E-01 +4.46778050829E-01 +6.24959509802E-03 +7.10915420415E-03 +6.13439663620E-03 +6.86813316207E-03 -2.45425559401E-01 +4.72599191416E-01
4.50500000000E+09 -3.00215775156E-01 +4.60607250740E-01 +7.09591390802E-03 +6.40113931697E-03 +6.90306309664E-03 +6.12938485828E-03 -2.31522985007E-01 +4.85166312564E-01
4.51000000000E+09 -2.92145313978E-01 +4.72161304342E-01 +7.33761967782E-03 +5.36015100629E-03 +7.13906656865E-03 +5.18770500756E-03 -2.18571136439E-01 +4.99337886589E-01
4.51500000000E+09 -2.83156413354E-01 +4.80906749743E-01 +7.75252935529E-03 +4.95424091945E-03 +7.66842283961E-03 +4.74534517892E-03 -2.03814467864E-01 +5.12270625887E-01
4.52000000000E+09 -2.73536408726E-01 +4.88761024261E-01 +8.71693753533E-03 +3.89329045841E-03 +8.53132506754E-03 +3.72173561090E-03 -1.89314384971E-01 +5.24364172579E-01
4.52500000000E+09 -2.62113423947E-01 +4.97582980375E-01 +8.60840008265E-03 +2.21981896740E-03 +8.42041158010E-03 +2.09667947225E-03 -1.74557014466E-01 +5.34165862465E-01
4.53000000000E+09 -2.48115201773E-01 +5.07377108925E-01 +8.30661804466E-03 +1.90021486239E-03 +8.12767062534E-03 +1.76447515192E-03 -1.60857007395E-01 +5.44450899971E-01
4.53500000000E+09 -2.31617984365E-01 +5.17813849754E-01 +8.69783450762E-03 +1.23242609120E-03 +8.55299293905E-03 +1.12762972697E-03 -1.45951533533E-01 +5.54320057992E-01
4.54000000000E+09 -2.14213777934E-01 +5.28399962922E-01 +8.90541423780E-03 +1.26920410121E-04 +8.68674578425E-03 +8.23212270061E-05 -1.30348855272E-01 +5.65154622539E-01
4.54500000000E+09 -1.97599737858E-01 +5.39124865706E-01 +8.91555586178E-03 -9.13261746522E-04 +8.74194326611E-03 -9.80309866720E-04 -1.13633231098E-01 +5.73450000440E-01
4.55000000000E+09 -1.82507954643E-01 +5.49679722182E-01 +8.74433427782E-03 -2.18314036113E-03 +8.57186969871E-03 -2.20208443566E-03 -9.80327265047E-02 +5.81791060342E-01
4.55500000000E+09 -1.70317342356E-01 +5.60193216102E-01 +7.99125164906E-03 -3.80451515715E-03 +7.84396796624E-03 -3.85042428131E-03 -8.36555281763E-02 +5.89051167807E-01
4.56000000000E+09 -1.59391211922E-01 +5.71020309631E-01 +6.37423439451E-03 -4.28348898517E-03 +6.22133762991E-03 -4.27871521525E-03 -7.05820913359E-02 +5.97876605545E-01
4.56500000000E+09 -1.49114588362E-01 +5.81117042933E-01 +5.76626969919E-03 -4.08013264019E-03 +5.62098129574E-03 -4.05535011879E-03 -5.53284303183E-02 +6.06409588683E-01
4.57000000000E+09 -1.38941966238E-01 +5.89903974370E-01 +5.44877799422E-03 -4.17662153514E-03 +5.26335559284E-03 -4.12189807612E-03 -3.94666777299E-02 +6.12879318668E-01
