# Hz S RI R 50
! CMT, C1220, 16058040, 17.2.0/1
! Date: 15/08/2018 12:05:19
! Data: Format (Calibration Info)
! Freq                      S11: Re/Im (F2)                       S21: Re/Im (F2)                       S12: Re/Im (F2)                       S22: Re/Im (F2)            
4.00000000000E+09 +6.66335132131E-01 -3.43255956006E-01 +7.54191855703E-04 -6.75390766884E-04 +7.51296719155E-04 -7.14314389514E-04 +7.77071088788E-01 -3.39506277041E-01
4.00500000000E+09 +6.57846341834E-01 -3.49459013328E-01 +6.19776430081E-04 -6.04939240956E-04 +7.00257226891E-04 -6.46695765627E-04 +7.68503103996E-01 -3.51295522734E-01
4.01000000000E+09 +6.48535210117E-01 -3.55650743713E-01 +6.05821173869E-04 -5.44914150987E-04 +6.38995841102E-04 -5.39862287426E-04 +7.58935573098E-01 -3.62680926672E-01
4.01500000000E+09 +6.38056216383E-01 -3.62364626684E-01 +6.78808565906E-04 -5.49043752476E-04 +7.46558556720E-04 -5.42942148976E-04 +7.49283158918E-01 -3.73160550883E-01
4.02000000000E+09 +6.27082533068E-01 -3.69817605196E-01 +7.51219749990E-04 -7.51652206274E-04 +7.80571857377E-04 -7.29425055657E-04 +7.39501747073E-01 -3.83415428379E-01
4.02500000000E+09 +6.15783598543E-01 -3.78897555376E-01 +6.64619031874E-04 -8.50847876698E-04 +7.04845431219E-04 -8.25616673651E-04 +7.29313588659E-01 -3.93781925919E-01
4.03000000000E+09 +6.04004165821E-01 -3.89559053973E-01 +4.94606252502E-04 -1.21154951778E-03 +5.51592390656E-04 -1.18595503688E-03 +7.18787845731E-01 -4.03880553691E-01
4.03500000000E+09 +5.92137372427E-01 -3.99779409717E-01 +9.97289053602E-05 -1.00438975316E-03 +1.47676706279E-04 -9.89260502444E-04 +7.07692955448E-01 -4.14334785928E-01
4.04000000000E+09 +5.80812181064E-01 -4.10526240474E-01 +1.38639683221E-04 -8.38835263311E-04 +2.26281194436E-04 -9.00880974265E-04 +6.97057691901E-01 -4.24869688006E-01
4.04500000000E+09 +5.69634105802E-01 -4.20750794776E-01 +9.24727533101E-05 -7.55644707793E-04 +1.51036568523E-04 -7.74992700263E-04 +6.85933581861E-01 -4.35691033571E-01
4.05000000000E+09 +5.58548016079E-01 -4.29429065187E-01 +3.24329563908E-04 -7.81964156029E-04 +3.44766986882E-04 -7.03398996414E-04 +6.74272753529E-01 -4.45847876274E-01
4.05500000000E+09 +5.46969575563E-01 -4.36471026328E-01 +4.59207042104E-04 -9.43311574290E-04 +4.55984256599E-04 -9.23938510226E-04 +6.62570570061E-01 -4.55475443152E-01
4.06000000000E+09 +5.34729821965E-01 -4.41906976645E-01 +2.50320791840E-04 -1.21555104662E-03 +2.82700442891E-04 -1.26673347763E-03 +6.50110038156E-01 -4.65195258698E-01
4.06500000000E+09 +5.21930895997E-01 -4.46008440764E-01 -1.54518087717E-04 -1.21040971292E-03 -5.54995738386E-05 -1.24668212307E-03 +6.36975507277E-01 -4.74091301115E-01
4.07000000000E+09 +5.08103299577E-01 -4.49910569366E-01 -6.69394426807E-05 -1.17614369143E-03 -7.96838453620E-05 -1.17261961694E-03 +6.23348219248E-01 -4.83781553202E-01
4.07500000000E+09 +4.93579877388E-01 -4.54694160114E-01 -3.48472463146E-04 -1.24637459599E-03 -2.55636362317E-04 -1.22580620917E-03 +6.09838817005E-01 -4.92578016761E-01
4.08000000000E+09 +4.77634637293E-01 -4.60114269339E-01 -3.77165944705E-04 -1.09659974970E-03 -3.64372590624E-04 -1.10326714332E-03 +5.96716481815E-01 -5.01804099128E-01
4.08500000000E+09 +4.60815888606E-01 -4.66480448314E-01 -5.22206130678E-04 -1.02197910596E-03 -4.86248277481E-04 -1.07161216470E-03 +5.82928457882E-01 -5.11449043595E-01
4.09000000000E+09 +4.43999346815E-01 -4.73475079734E-01 -5.37770269068E-04 -9.57787991815E-04 -5.42098643013E-04 -1.05836858738E-03 +5.68715665762E-01 -5.19474766671E-01
4.09500000000E+09 +4.27483987793E-01 -4.80509621420E-01 -5.27394138532E-04 -8.62992364977E-04 -5.00700366635E-04 -9.05679004798E-04 +5.54474751242E-01 -5.27793022720E-01
4.10000000000E+09 +4.11027375188E-01 -4.87069059318E-01 -4.48427306094E-04 -1.08432774205E-03 -4.37775849982E-04 -1.13656157394E-03 +5.38888326985E-01 -5.36114735162E-01
4.10500000000E+09 +3.95177254574E-01 -4.92385722979E-01 -6.45296425944E-04 -1.15976829477E-03 -6.12710742391E-04 -1.26408587149E-03 +5.22402207018E-01 -5.43876264326E-01
4.11000000000E+09 +3.79413510807E-01 -4.95783730156E-01 -9.43172315794E-04 -1.26873856492E-03 -9.65075076716E-04 -1.29542059407E-03 +5.05228621277E-01 -5.51602328897E-01
4.11500000000E+09 +3.64108703370E-01 -4.97317837370E-01 -1.25864731799E-03 -1.05037351548E-03 -1.26793064774E-03 -1.14687427735E-03 +4.88105953290E-01 -5.58580779656E-01
4.12000000000E+09 +3.48749421642E-01 -4.97369996047E-01 -1.31034774036E-03 -7.91538127724E-04 -1.32653657408E-03 -8.07261142381E-04 +4.71124058307E-01 -5.64900720493E-01
4.12500000000E+09 +3.33285798192E-01 -4.97551692931E-01 -1.40581433566E-03 -6.24754016146E-04 -1.42287652982E-03 -6.91368323115E-04 +4.54283176682E-01 -5.70911570447E-01
4.13000000000E+09 +3.15617889484E-01 -4.98795013172E-01 -1.25395303344E-03 -5.81385443227E-04 -1.26522593810E-03 -6.21979128979E-04 +4.37322135896E-01 -5.76912027632E-01
4.13500000000E+09 +2.96602377663E-01 -4.99627384473E-01 -1.39351821563E-03 -4.94241635605E-04 -1.41907781853E-03 -5.66755817094E-04 +4.18752571395E-01 -5.82708393210E-01
4.14000000000E+09 +2.77067358744E-01 -5.01573957545E-01 -1.47611788965E-03 -3.81645017499E-04 -1.50400185674E-03 -4.57094133370E-04 +3.99908486034E-01 -5.87502280235E-01
4.14500000000E+09 +2.57026317195E-01 -5.04720170803E-01 -1.58644816078E-03 -4.04459957012E-04 -1.65643207837E-03 -4.83160693782E-04 +3.81255899161E-01 -5.92763543329E-01
4.15000000000E+09 +2.36841287214E-01 -5.08490903630E-01 -1.74270554099E-03 -1.94553931650E-04 -1.85266907817E-03 -2.11056324211E-04 +3.61453801424E-01 -5.97883733692E-01
4.15500000000E+09 +2.17273017765E-01 -5.11662718018E-01 -1.75358083625E-03 -3.33094071577E-05 -1.76087974140E-03 -2.37244875206E-05 +3.42265739482E-01 -6.01091521998E-01
4.16000000000E+09 +1.98539353029E-01 -5.14036007508E-01 -1.92494058864E-03 +1.27119744430E-04 -1.94621558095E-03 +7.41704804301E-05 +3.23113189271E-01 -6.04076654175E-01
4.16500000000E+09 +1.81090807169E-01 -5.14524345925E-01 -2.05588624275E-03 +5.77708081360E-04 -2.14100372838E-03 +6.11948583295E-04 +3.02774935583E-01 -6.06054211421E-01
4.17000000000E+09 +1.64994714661E-01 -5.13263161553E-01 -1.77550333644E-03 +7.90116487007E-04 -1.76615704616E-03 +8.03498536034E-04 +2.83307616492E-01 -6.07111996441E-01
4.17500000000E+09 +1.48914289213E-01 -5.09986477493E-01 -1.71603395827E-03 +1.17860688755E-03 -1.75076014378E-03 +1.20619968848E-03 +2.62500489919E-01 -6.08324948915E-01
4.18000000000E+09 +1.33052560491E-01 -5.05416521395E-01 -1.04183744374E-03 +1.12511233074E-03 -1.11214751505E-03 +1.13191667337E-03 +2.41839140579E-01 -6.09364908004E-01
4.18500000000E+09 +1.16648032636E-01 -5.00100899290E-01 -1.15320535368E-03 +6.38047074021E-04 -1.21050812814E-03 +6.02027242132E-04 +2.19899795908E-01 -6.10593348872E-01
4.19000000000E+09 +9.85378264195E-02 -4.94431850341E-01 -1.67589202906E-03 +5.84363315751E-04 -1.70725633074E-03 +5.89453077372E-04 +1.97462874623E-01 -6.09673816964E-01
4.19500000000E+09 +7.97151896291E-02 -4.88376151276E-01 -2.09490601361E-03 +1.24078767747E-03 -2.14337429729E-03 +1.27240428187E-03 +1.76150579711E-01 -6.07602497998E-01
4.20000000000E+09 +6.06868273695E-02 -4.83614483866E-01 -1.77897636400E-03 +1.83841437571E-03 -1.78669424350E-03 +1.84343028034E-03 +1.54481006850E-01 -6.05732467569E-01
4.20500000000E+09 +4.08736793670E-02 -4.79891476354E-01 -1.44729000885E-03 +2.31028830695E-03 -1.53184332438E-03 +2.25941769220E-03 +1.32042325074E-01 -6.02681562834E-01
4.21000000000E+09 +2.13384197616E-02 -4.75621321301E-01 -8.14871204205E-04 +2.10774861033E-03 -8.95786746375E-04 +2.11899353526E-03 +1.09590187851E-01 -5.99083778183E-01
4.21500000000E+09 +2.68985329071E-03 -4.71270291273E-01 -8.12898818990E-04 +2.02703323411E-03 -8.99433831849E-04 +2.04256093783E-03 +8.67875431130E-02 -5.94831574194E-01
4.22000000000E+09 -1.47536234239E-02 -4.65629098684E-01 -1.11582694434E-03 +2.28866521360E-03 -1.18349016690E-03 +2.33805863511E-03 +6.49337515896E-02 -5.89508295505E-01
4.22500000000E+09 -3.10204209775E-02 -4.57612661839E-01 -5.07697222079E-04 +2.97724100131E-03 -5.70004923270E-04 +3.06195572853E-03 +4.32632273622E-02 -5.84551386342E-01
4.23000000000E+09 -4.50748822513E-02 -4.48461152801E-01 +1.03170949696E-04 +2.60490920127E-03 +7.29671774458E-05 +2.72802145748E-03 +2.09579787928E-02 -5.78335344831E-01
4.23500000000E+09 -5.96103453883E-02 -4.38483888536E-01 +3.65226896009E-04 +2.54478561643E-03 +3.21377277865E-04 +2.60829333929E-03 -8.14698890179E-04 -5.70370874225E-01
4.24000000000E+09 -7.56308327192E-02 -4.27418786925E-01 +9.32408159705E-05 +2.58669372632E-03 +5.45233346839E-05 +2.63775568973E-03 -2.31028362594E-02 -5.61806686883E-01
4.24500000000E+09 -9.28530072811E-02 -4.14747275248E-01 +6.86565947145E-04 +3.01083813379E-03 +6.84815523391E-04 +3.09121259762E-03 -4.49199444799E-02 -5.52080349264E-01
4.25000000000E+09 -1.11565897903E-01 -4.02154276607E-01 +1.21778547398E-03 +2.76916005792E-03 +1.23882194881E-03 +2.81495386201E-03 -6.67156069399E-02 -5.42400543203E-01
4.25500000000E+09 -1.31237178106E-01 -3.89201697478E-01 +1.47531026615E-03 +2.35046254780E-03 +1.48674078390E-03 +2.37110642942E-03 -8.95167677254E-02 -5.31225690728E-01
4.26000000000E+09 -1.50612081992E-01 -3.77577248273E-01 +1.24292093175E-03 +2.24583794714E-03 +1.30503810139E-03 +2.36201098305E-03 -1.10356182415E-01 -5.18070648186E-01
4.26500000000E+09 -1.70898489760E-01 -3.66798321054E-01 +1.63000236821E-03 +2.62325971991E-03 +1.70965407937E-03 +2.76296944350E-03 -1.30835253541E-01 -5.05297158217E-01
4.27000000000E+09 -1.89306534585E-01 -3.55404730308E-01 +2.24648590987E-03 +2.54155778449E-03 +2.24297817229E-03 +2.59595103392E-03 -1.51803186050E-01 -4.90524096583E-01
4.27500000000E+09 -2.05306114480E-01 -3.44408288319E-01 +2.76917082685E-03 +2.13786806552E-03 +2.81994646911E-03 +2.18362676795E-03 -1.71918216500E-01 -4.75382163622E-01
4.28000000000E+09 -2.19275090064E-01 -3.32852123428E-01 +3.15425368896E-03 +1.81034971138E-03 +3.23375017915E-03 +1.86173107242E-03 -1.92178006852E-01 -4.59401196627E-01
4.28500000000E+09 -2.31839562804E-01 -3.19679026407E-01 +3.29951361271E-03 +9.34990043142E-04 +3.41261712226E-03 +9.66641131812E-04 -2.11947547728E-01 -4.43283297813E-01
4.29000000000E+09 -2.41870872083E-01 -3.04156970534E-01 +2.95099845567E-03 +4.09072306609E-04 +3.02371482045E-03 +4.27630826573E-04 -2.30416583965E-01 -4.26496162751E-01
4.29500000000E+09 -2.51910223120E-01 -2.87941379266E-01 +2.32156531989E-03 +7.97589790289E-04 +2.43157381523E-03 +7.78557318378E-04 -2.49536249878E-01 -4.09151561516E-01
4.30000000000E+09 -2.62495646679E-01 -2.70166664107E-01 +3.18776694087E-03 +8.96226098510E-04 +3.29350576202E-03 +9.63284831871E-04 -2.66621145925E-01 -3.89476794056E-01
4.30500000000E+09 -2.74620829698E-01 -2.50714118586E-01 +3.58117268448E-03 +3.84996528287E-04 +3.67686792109E-03 +3.43680165807E-04 -2.82132626055E-01 -3.69636024432E-01
4.31000000000E+09 -2.87590116754E-01 -2.30658433727E-01 +3.95188490030E-03 +6.34633639042E-05 +4.02522922894E-03 +4.20092240176E-05 -2.97204654806E-01 -3.49170262679E-01
4.31500000000E+09 -3.01292531221E-01 -2.10782110946E-01 +4.18024027746E-03 -1.05367180710E-03 +4.32775425847E-03 -1.09282014643E-03 -3.11798799986E-01 -3.28351400727E-01
4.32000000000E+09 -3.14163540868E-01 -1.91920084005E-01 +3.42069288033E-03 -1.98571765268E-03 +3.47935615712E-03 -2.05993035075E-03 -3.25185104693E-01 -3.06474773282E-01
4.32500000000E+09 -3.26633668637E-01 -1.75099229090E-01 +2.52766848288E-03 -1.80834826481E-03 +2.59689127157E-03 -1.90559660452E-03 -3.37975206070E-01 -2.85464113925E-01
4.33000000000E+09 -3.37667509776E-01 -1.58737961131E-01 +2.92943652900E-03 -1.43535686466E-03 +2.93565486490E-03 -1.50517416530E-03 -3.50578144008E-01 -2.63130974629E-01
4.33500000000E+09 -3.45926569633E-01 -1.42937547581E-01 +2.94441149967E-03 -1.97733077734E-03 +2.90816964763E-03 -2.07693239884E-03 -3.61979269920E-01 -2.39456682507E-01
4.34000000000E+09 -3.52107644225E-01 -1.27484022262E-01 +2.98017893087E-03 -2.11208809523E-03 +2.93105485597E-03 -2.19749247234E-03 -3.72611792189E-01 -2.16332363579E-01
4.34500000000E+09 -3.56364259545E-01 -1.10830836147E-01 +3.04494973000E-03 -2.93185462899E-03 +3.00931498894E-03 -2.94402116320E-03 -3.83301970465E-01 -1.90734412359E-01
4.35000000000E+09 -3.58679124602E-01 -9.24721102460E-02 +2.54564643579E-03 -3.47603867665E-03 +2.47033164010E-03 -3.46929193775E-03 -3.90993947562E-01 -1.65638062509E-01
4.35500000000E+09 -3.60868422103E-01 -7.27166405138E-02 +2.31290476879E-03 -4.00119995236E-03 +2.29620717042E-03 -4.04022716483E-03 -3.98967652019E-01 -1.41973527878E-01
4.36000000000E+09 -3.64021289375E-01 -5.11380047266E-02 +1.54211224627E-03 -4.51435239661E-03 +1.48451684352E-03 -4.58365561721E-03 -4.05217400062E-01 -1.17600951886E-01
4.36500000000E+09 -3.67393247836E-01 -2.76647943503E-02 +5.15636773736E-04 -4.59326898155E-03 +4.30739306070E-04 -4.64672778848E-03 -4.10386029378E-01 -9.41039313786E-02
4.37000000000E+09 -3.72158818617E-01 -5.04752515524E-03 -1.84585169662E-04 -4.29148576367E-03 -3.03052653631E-04 -4.34117869126E-03 -4.14362759722E-01 -6.98339582844E-02
4.37500000000E+09 -3.77827547030E-01 +1.75305629216E-02 -7.55854971433E-04 -3.60202441597E-03 -8.16424278944E-04 -3.59006535835E-03 -4.17752897370E-01 -4.52053299051E-02
4.38000000000E+09 -3.83283567119E-01 +3.84791207485E-02 -2.20565012655E-04 -3.58255079860E-03 -2.90382362988E-04 -3.54653101257E-03 -4.19967479654E-01 -2.03318226801E-02
4.38500000000E+09 -3.88402276735E-01 +5.63345692293E-02 -2.39225855173E-04 -3.91070188074E-03 -3.13790362570E-04 -3.90820375177E-03 -4.22075745733E-01 +5.03374796412E-03
4.39000000000E+09 -3.92308748135E-01 +7.30451783404E-02 -8.22657181635E-04 -4.84545598581E-03 -9.08141494052E-04 -4.90760085651E-03 -4.22936111492E-01 +3.06708338946E-02
4.39500000000E+09 -3.94031498848E-01 +8.83806803925E-02 -2.61813515630E-03 -4.77043237310E-03 -2.65932193761E-03 -4.68760433528E-03 -4.22579657203E-01 +5.51170480832E-02
4.40000000000E+09 -3.93482848033E-01 +1.02998722847E-01 -3.23533508475E-03 -3.72784749667E-03 -3.28479641897E-03 -3.68976656665E-03 -4.20844054514E-01 +8.00446929160E-02
4.40500000000E+09 -3.90812968470E-01 +1.18726075171E-01 -3.75132126588E-03 -2.89323413273E-03 -3.77506478366E-03 -2.82949915122E-03 -4.17262710015E-01 +1.03779199543E-01
4.41000000000E+09 -3.86059411974E-01 +1.35199732997E-01 -3.33563989618E-03 -2.10443149990E-03 -3.39720214375E-03 -2.09536663811E-03 -4.13224196372E-01 +1.26750177267E-01
4.41500000000E+09 -3.81165033362E-01 +1.53651788334E-01 -3.58011201428E-03 -1.79919230306E-03 -3.65263337479E-03 -1.74482155475E-03 -4.08216204668E-01 +1.50429516597E-01
4.42000000000E+09 -3.76595352337E-01 +1.74977134848E-01 -3.26529690216E-03 -1.60607847474E-03 -3.28766276727E-03 -1.54721519507E-03 -4.02927152827E-01 +1.72320852332E-01
4.42500000000E+09 -3.71371773061E-01 +1.97333917249E-01 -3.65839118281E-03 -1.63285637575E-03 -3.64725883947E-03 -1.60173910801E-03 -3.97489490931E-01 +1.95290326488E-01
4.43000000000E+09 -3.67427926061E-01 +2.18688521090E-01 -3.69659174294E-03 -1.15356372619E-03 -3.58888055390E-03 -1.08387650288E-03 -3.91239776108E-01 +2.16871129636E-01
4.43500000000E+09 -3.65100046082E-01 +2.39032332255E-01 -4.34341340284E-03 -1.09623622291E-03 -4.29457039565E-03 -1.07518914239E-03 -3.85196585165E-01 +2.38225802890E-01
4.44000000000E+09 -3.63661054103E-01 +2.57429687877E-01 -4.60814040945E-03 -1.25315153217E-04 -4.59834512429E-03 -1.22437831212E-04 -3.77156018748E-01 +2.61076421021E-01
4.44500000000E+09 -3.62697911721E-01 +2.74080492301E-01 -4.24855218604E-03 +6.98934918369E-04 -4.22820603916E-03 +6.86039587369E-04 -3.67746841993E-01 +2.80356262496E-01
4.45000000000E+09 -3.60303182335E-01 +2.89124012238E-01 -4.04584281402E-03 +1.12793938322E-03 -4.00325032320E-03 +1.18127814394E-03 -3.58694006538E-01 +3.00289200927E-01
4.45500000000E+09 -3.55622502724E-01 +3.02098766479E-01 -3.74084919380E-03 +1.70241604790E-03 -3.67726667501E-03 +1.76442551563E-03 -3.47906377039E-01 +3.19042790558E-01
4.46000000000E+09 -3.49401421039E-01 +3.14277168442E-01 -3.04224335108E-03 +1.95982600948E-03 -3.02749889319E-03 +1.95297837682E-03 -3.38924820435E-01 +3.36544624012E-01
4.46500000000E+09 -3.40468827383E-01 +3.27611644212E-01 -2.66361268788E-03 +1.88510203694E-03 -2.64892075672E-03 +1.90955697551E-03 -3.27684982401E-01 +3.55528196996E-01
4.47000000000E+09 -3.29758643843E-01 +3.41869669138E-01 -2.61416269560E-03 +1.41858529576E-03 -2.64566377810E-03 +1.55040344890E-03 -3.16016826997E-01 +3.72976671760E-01
4.47500000000E+09 -3.17748653208E-01 +3.58380750509E-01 -3.61540666883E-03 +2.02667998350E-03 -3.54986037400E-03 +2.11849501251E-03 -3.04602673379E-01 +3.89425843051E-01
4.48000000000E+09 -3.05076396154E-01 +3.76088079110E-01 -2.97624685708E-03 +3.04855707898E-03 -2.83375345898E-03 +3.14740308790E-03 -2.92883491023E-01 +4.06276609741E-01
4.48500000000E+09 -2.93083081542E-01 +3.93974669582E-01 -2.25549048504E-03 +3.55592965200E-03 -2.09778459346E-03 +3.61659689401E-03 -2.80728351035E-01 +4.22400372651E-01
4.49000000000E+09 -2.83858783811E-01 +4.11085189894E-01 -1.49576111412E-03 +3.71570903559E-03 -1.38618921276E-03 +3.68264595991E-03 -2.67300793172E-01 +4.38405041901E-01
4.49500000000E+09 -2.76150468476E-01 +4.29062623658E-01 -7.09149086748E-04 +3.41620248433E-03 -6.61861943827E-04 +3.38883256969E-03 -2.53886994106E-01 +4.52018141581E-01
4.50000000000E+09 -2.69221650857E-01 +4.44272796789E-01 -5.41562820586E-04 +2.99494486733E-03 -4.98032763218E-04 +3.00188117146E-03 -2.41162108340E-01 +4.65791519224E-01
4.50500000000E+09 -2.63268960322E-01 +4.57418886031E-01 -4.48238601925E-04 +2.74971028659E-03 -2.94883503158E-04 +2.78569443551E-03 -2.27526664544E-01 +4.78973354050E-01
4.51000000000E+09 -2.56591919322E-01 +4.68111216430E-01 -5.85274213141E-04 +2.80654616172E-03 -4.93880250003E-04 +2.78479154939E-03 -2.14236667354E-01 +4.91491627000E-01
4.51500000000E+09 -2.48121388778E-01 +4.76487162210E-01 -3.90322322009E-04 +3.14433245629E-03 -2.78787259978E-04 +3.09597503265E-03 -2.00851089326E-01 +5.03463111967E-01
4.52000000000E+09 -2.38671984651E-01 +4.83563637271E-01 -1.49817009071E-04 +3.22731546209E-03 -7.05078353981E-05 +3.10802763490E-03 -1.87513636249E-01 +5.15249550186E-01
4.52500000000E+09 -2.27228363110E-01 +4.91458060318E-01 +1.85130533513E-04 +3.21500834132E-03 +2.62527155134E-04 +3.10830243294E-03 -1.74216886530E-01 +5.26143262494E-01
4.53000000000E+09 -2.13363604359E-01 +5.00363820556E-01 +5.05739809141E-04 +3.43787720611E-03 +5.97835252422E-04 +3.36360799258E-03 -1.60287715870E-01 +5.36943001519E-01
4.53500000000E+09 -1.97537895305E-01 +5.10426192403E-01 +1.07124453961E-03 +3.18423141584E-03 +1.12074535327E-03 +3.05523122435E-03 -1.45673401756E-01 +5.46937677388E-01
4.54000000000E+09 -1.81449466173E-01 +5.21413685713E-01 +1.32889373819E-03 +3.06688208105E-03 +1.38205870853E-03 +2.95791154178E-03 -1.30949076878E-01 +5.56738939934E-01
4.54500000000E+09 -1.65995201141E-01 +5.32426662227E-01 +1.32930275267E-03 +2.98321016779E-03 +1.29772973750E-03 +2.83328873369E-03 -1.16059934242E-01 +5.65625834395E-01
4.55000000000E+09 -1.53442613351E-01 +5.42940274511E-01 +2.07741263143E-03 +3.12605559670E-03 +2.02060949959E-03 +2.93256326187E-03 -1.01712463577E-01 +5.74527281923E-01
4.55500000000E+09 -1.43386054181E-01 +5.54407684736E-01 +2.28598312292E-03 +2.46663412562E-03 +2.24688138148E-03 +2.34906925349E-03 -8.80079340190E-02 +5.83368878052E-01
4.56000000000E+09 -1.34193859739E-01 +5.64752420831E-01 +2.34095309907E-03 +2.46729885530E-03 +2.26577446077E-03 +2.31638219584E-03 -7.34709716499E-02 +5.92434612944E-01
4.56500000000E+09 -1.25783988843E-01 +5.73051872775E-01 +2.88107567878E-03 +2.18013807165E-03 +2.79310237495E-03 +2.10701339729E-03 -5.89671923228E-02 +6.00098315469E-01
4.57000000000E+09 -1.17272047809E-01 +5.79847851150E-01 +3.09447056666E-03 +1.58573109259E-03 +2.97836394600E-03 +1.52895533989E-03 -4.39904953182E-02 +6.07541368473E-01
