# Hz S RI R 50
! CMT, C1220, 16058040, 17.2.0/1
! Date: 15/08/2018 11:33:19
! Data: Format (Calibration Info)
! Freq                      S11: Re/Im (F2)                       S21: Re/Im (F2)                       S12: Re/Im (F2)                       S22: Re/Im (F2)            
4.00000000000E+09 +6.66226010722E-01 -3.55821168385E-01 +7.59800977711E-04 -3.56075136812E-03 +9.04788746173E-04 -3.59142452205E-03 +7.74847338915E-01 -3.54951159696E-01
4.00500000000E+09 +6.58279938100E-01 -3.63824210769E-01 +1.86828737823E-04 -3.78808819657E-03 +4.01444595380E-04 -3.90034671309E-03 +7.66470428097E-01 -3.66244276354E-01
4.01000000000E+09 +6.49666489847E-01 -3.70948788790E-01 -4.15559019194E-04 -3.75356329972E-03 -2.10069221933E-04 -3.94742059268E-03 +7.57634502084E-01 -3.77552403784E-01
4.01500000000E+09 +6.40683910472E-01 -3.78544109324E-01 -9.83386532630E-04 -3.53227154145E-03 -8.19096020643E-04 -3.67383014376E-03 +7.47797264747E-01 -3.88147030958E-01
4.02000000000E+09 +6.30590277356E-01 -3.87128268414E-01 -1.13457738256E-03 -3.28638788035E-03 -9.67539327197E-04 -3.46861783500E-03 +7.38023036001E-01 -3.98701906303E-01
4.02500000000E+09 +6.19600733551E-01 -3.96264155930E-01 -1.20223996012E-03 -3.29440869051E-03 -1.07811447777E-03 -3.44406854796E-03 +7.27688900803E-01 -4.08872623683E-01
4.03000000000E+09 +6.07834352401E-01 -4.05891116098E-01 -1.63883003259E-03 -3.41888512335E-03 -1.53308441045E-03 -3.63477869924E-03 +7.17406772267E-01 -4.19428803868E-01
4.03500000000E+09 +5.96119156313E-01 -4.15245402199E-01 -2.26645958313E-03 -3.13640140842E-03 -2.19747122280E-03 -3.34326354704E-03 +7.06164015445E-01 -4.30655339033E-01
4.04000000000E+09 +5.84616146648E-01 -4.25082156340E-01 -2.35536977566E-03 -2.76449366104E-03 -2.33898288828E-03 -2.99437818401E-03 +6.94716436259E-01 -4.41872025115E-01
4.04500000000E+09 +5.72986798726E-01 -4.34516456952E-01 -2.55379355982E-03 -2.64960927187E-03 -2.62663805631E-03 -2.91969909901E-03 +6.82827597727E-01 -4.52450788423E-01
4.05000000000E+09 +5.61510302543E-01 -4.43206830509E-01 -2.84572237525E-03 -2.43765402846E-03 -2.92773047565E-03 -2.65390937548E-03 +6.71146172319E-01 -4.62183145690E-01
4.05500000000E+09 +5.49856172149E-01 -4.51356949275E-01 -2.88210001683E-03 -2.24225245740E-03 -3.00427725078E-03 -2.46118219779E-03 +6.58649812465E-01 -4.71953044790E-01
4.06000000000E+09 +5.36921955227E-01 -4.59079804133E-01 -3.48441662827E-03 -2.30346142366E-03 -3.58834915047E-03 -2.44248060982E-03 +6.46111013888E-01 -4.81378782613E-01
4.06500000000E+09 +5.23353772609E-01 -4.65156431580E-01 -4.00549317529E-03 -1.52371698790E-03 -4.17827340760E-03 -1.57816404196E-03 +6.32606175391E-01 -4.90278743485E-01
4.07000000000E+09 +5.09699770466E-01 -4.71902401159E-01 -3.71330762247E-03 -1.08876571756E-03 -3.85693098022E-03 -1.11381038057E-03 +6.18883908935E-01 -4.99678779198E-01
4.07500000000E+09 +4.94195054306E-01 -4.79115391765E-01 -3.86014812574E-03 -9.24495767343E-04 -3.91073285364E-03 -1.01092992910E-03 +6.05208959237E-01 -5.08654192355E-01
4.08000000000E+09 +4.78278357949E-01 -4.85500748115E-01 -4.04747345030E-03 -5.66003429685E-04 -4.10987882859E-03 -6.33964494417E-04 +5.91645607954E-01 -5.18089958710E-01
4.08500000000E+09 +4.62297200645E-01 -4.92713052206E-01 -4.03348618494E-03 -1.62898547248E-04 -4.18593074748E-03 -2.65050014991E-04 +5.77789291042E-01 -5.27506301003E-01
4.09000000000E+09 +4.45906216891E-01 -5.00278555322E-01 -4.28557810049E-03 +1.63068196959E-04 -4.41658181622E-03 +1.17101267892E-04 +5.63215860770E-01 -5.36247461072E-01
4.09500000000E+09 +4.29464355023E-01 -5.07153837701E-01 -4.29297484837E-03 +8.33002136603E-04 -4.47400764936E-03 +8.56550680514E-04 +5.47712816879E-01 -5.43755298870E-01
4.10000000000E+09 +4.14223296414E-01 -5.14008480023E-01 -3.73528124510E-03 +1.15559223559E-03 -3.83974274853E-03 +1.06997457385E-03 +5.31989081291E-01 -5.50590739601E-01
4.10500000000E+09 +3.97625000114E-01 -5.20718967825E-01 -3.95726123779E-03 +1.07985966799E-03 -4.03474288634E-03 +1.06027846170E-03 +5.15924163619E-01 -5.57595724724E-01
4.11000000000E+09 +3.80922898038E-01 -5.24528109784E-01 -4.21950922810E-03 +1.71219726466E-03 -4.31973153353E-03 +1.62842293469E-03 +4.99069866438E-01 -5.65262010032E-01
4.11500000000E+09 +3.65251012830E-01 -5.27251442030E-01 -3.96857803229E-03 +2.40389163641E-03 -4.10966336006E-03 +2.34143056270E-03 +4.81692474736E-01 -5.72815588650E-01
4.12000000000E+09 +3.48742700756E-01 -5.29629827636E-01 -3.65472074984E-03 +2.91246864067E-03 -3.80698059373E-03 +2.84095255263E-03 +4.64380373588E-01 -5.79557582230E-01
4.12500000000E+09 +3.32041533158E-01 -5.31420256230E-01 -3.26560948917E-03 +3.38009935333E-03 -3.40854857577E-03 +3.30502298809E-03 +4.47156920135E-01 -5.85281712974E-01
4.13000000000E+09 +3.14701432603E-01 -5.34124191144E-01 -2.48065217266E-03 +3.44501875686E-03 -2.65979189533E-03 +3.47305717700E-03 +4.30205395230E-01 -5.91073949513E-01
4.13500000000E+09 +2.95418912379E-01 -5.37649823952E-01 -2.20550506263E-03 +3.17496728001E-03 -2.46768248170E-03 +3.20986488092E-03 +4.11944373354E-01 -5.96576832222E-01
4.14000000000E+09 +2.75128139385E-01 -5.40536005866E-01 -2.48668199720E-03 +3.22574729348E-03 -2.67557853909E-03 +3.22283407473E-03 +3.92145261004E-01 -6.01744365069E-01
4.14500000000E+09 +2.55583726464E-01 -5.43292010224E-01 -2.58195932135E-03 +3.95785730794E-03 -2.81517646686E-03 +4.04407250969E-03 +3.72289966763E-01 -6.06121247802E-01
4.15000000000E+09 +2.36902591185E-01 -5.47536880549E-01 -1.61783852890E-03 +4.34682864034E-03 -1.81482339483E-03 +4.54808550540E-03 +3.53476028793E-01 -6.09895192709E-01
4.15500000000E+09 +2.17254649037E-01 -5.50844261354E-01 -1.52856219144E-03 +4.31906971780E-03 -1.63013920653E-03 +4.46230922090E-03 +3.34288874865E-01 -6.14076761113E-01
4.16000000000E+09 +1.99533671204E-01 -5.52924373186E-01 -1.07767593197E-03 +4.71217796261E-03 -1.12102574947E-03 +4.86950421023E-03 +3.14836856585E-01 -6.17298740874E-01
4.16500000000E+09 +1.82121148938E-01 -5.54164084450E-01 -4.43782905566E-04 +4.66624705477E-03 -5.31342264629E-04 +4.84477087193E-03 +2.94552043619E-01 -6.19176884193E-01
4.17000000000E+09 +1.64783241166E-01 -5.53523643908E-01 -4.20413723382E-04 +4.73769130711E-03 -5.35066388836E-04 +4.87875879684E-03 +2.74229213358E-01 -6.20032913413E-01
4.17500000000E+09 +1.47642345998E-01 -5.50759364489E-01 +2.48362665095E-04 +5.29562663932E-03 +1.25557766955E-04 +5.42431568416E-03 +2.53802872404E-01 -6.20363634924E-01
4.18000000000E+09 +1.30736666991E-01 -5.46999188377E-01 +1.28442703250E-03 +5.06517757570E-03 +1.28987037961E-03 +5.34984328554E-03 +2.32896585327E-01 -6.21222828561E-01
4.18500000000E+09 +1.11753848379E-01 -5.43133933235E-01 +1.43557485928E-03 +4.36096073342E-03 +1.46078050908E-03 +4.55716557247E-03 +2.10480536610E-01 -6.21926555753E-01
4.19000000000E+09 +9.17242476249E-02 -5.37577863426E-01 +1.34765250055E-03 +4.43617852171E-03 +1.40756214612E-03 +4.57219752586E-03 +1.87658823391E-01 -6.20860570152E-01
4.19500000000E+09 +7.17402836767E-02 -5.32385536992E-01 +1.65491468658E-03 +4.73057004257E-03 +1.67118866320E-03 +4.91452705089E-03 +1.65814253565E-01 -6.18448632343E-01
4.20000000000E+09 +5.06617456523E-02 -5.28113872715E-01 +2.20726091161E-03 +4.82330717145E-03 +2.25308339313E-03 +5.09988206226E-03 +1.44411416625E-01 -6.16096723690E-01
4.20500000000E+09 +2.93566320149E-02 -5.23777531988E-01 +3.16693785906E-03 +5.02868355712E-03 +3.23768658274E-03 +5.20388505753E-03 +1.22095772699E-01 -6.12943750728E-01
4.21000000000E+09 +8.63157431909E-03 -5.19032129174E-01 +4.16469330580E-03 +4.62237014956E-03 +4.30521021364E-03 +4.70420383653E-03 +9.89541524848E-02 -6.09101782784E-01
4.21500000000E+09 -1.06463728098E-02 -5.14688431816E-01 +4.45245874316E-03 +3.47964840520E-03 +4.54311210025E-03 +3.61489013625E-03 +7.57077563361E-02 -6.03957274270E-01
4.22000000000E+09 -2.93229025517E-02 -5.08442348425E-01 +4.55617234041E-03 +3.21011549780E-03 +4.66588320443E-03 +3.22867719979E-03 +5.36601762132E-02 -5.97731391377E-01
4.22500000000E+09 -4.58967354742E-02 -5.01583172288E-01 +4.77378643003E-03 +2.91192437190E-03 +4.85989297886E-03 +3.00670618560E-03 +3.22765639876E-02 -5.91696245822E-01
4.23000000000E+09 -6.22849826513E-02 -4.93850625927E-01 +5.35272727340E-03 +2.43250227867E-03 +5.43902165244E-03 +2.48045755110E-03 +1.16240866422E-02 -5.85032364138E-01
4.23500000000E+09 -7.96598118584E-02 -4.83741536859E-01 +5.35256005074E-03 +1.88042773437E-03 +5.51200148753E-03 +1.95803927211E-03 -1.06327312741E-02 -5.78038413250E-01
4.24000000000E+09 -9.67841372162E-02 -4.71716873327E-01 +5.53309405042E-03 +1.60831692005E-03 +5.70201431992E-03 +1.61482594065E-03 -3.33119229213E-02 -5.68975795506E-01
4.24500000000E+09 -1.14339865080E-01 -4.58960764168E-01 +5.75677814978E-03 +9.50746011744E-04 +5.83937632056E-03 +8.98933956020E-04 -5.56326938232E-02 -5.57950305718E-01
4.25000000000E+09 -1.33559657971E-01 -4.45642511600E-01 +5.79005535450E-03 +1.00462003336E-03 +5.86120121449E-03 +1.01799847392E-03 -7.64118365379E-02 -5.47186816249E-01
4.25500000000E+09 -1.53068588957E-01 -4.32604604691E-01 +6.54123898676E-03 +4.71372622223E-04 +6.65475374965E-03 +4.73323469149E-04 -9.70356317488E-02 -5.35885350535E-01
4.26000000000E+09 -1.73341382598E-01 -4.20297080664E-01 +7.30584382926E-03 -7.19328175163E-04 +7.49098911668E-03 -6.98620709386E-04 -1.17871224251E-01 -5.23785185437E-01
4.26500000000E+09 -1.94121513461E-01 -4.08952529370E-01 +6.61724035174E-03 -1.89022615519E-03 +6.79616293533E-03 -1.97391029391E-03 -1.37959813557E-01 -5.10078236145E-01
4.27000000000E+09 -2.14133232069E-01 -3.96518113684E-01 +6.40421297843E-03 -2.61971484852E-03 +6.52630051164E-03 -2.79672256421E-03 -1.59016629056E-01 -4.95970620216E-01
4.27500000000E+09 -2.32145931103E-01 -3.84442724267E-01 +5.73937958143E-03 -3.57461388224E-03 +5.77773399005E-03 -3.70104572133E-03 -1.78934345582E-01 -4.79768306655E-01
4.28000000000E+09 -2.48318976583E-01 -3.71672990452E-01 +4.91380318708E-03 -3.43143966636E-03 +4.99182516299E-03 -3.49355437823E-03 -1.97987138210E-01 -4.65770018203E-01
4.28500000000E+09 -2.62262376856E-01 -3.58556733653E-01 +5.20120744644E-03 -3.24811709346E-03 +5.31401648427E-03 -3.32702997926E-03 -2.19633020447E-01 -4.50263775085E-01
4.29000000000E+09 -2.75288744975E-01 -3.44135311247E-01 +5.62791499585E-03 -4.33063804912E-03 +5.71329794554E-03 -4.43015036225E-03 -2.39298742230E-01 -4.32270623158E-01
4.29500000000E+09 -2.87242180775E-01 -3.28756213767E-01 +4.68827713173E-03 -5.37831216490E-03 +4.73110959462E-03 -5.48960638587E-03 -2.56359754290E-01 -4.12809083089E-01
4.30000000000E+09 -2.99979018091E-01 -3.11810135418E-01 +4.61992573332E-03 -5.56676240048E-03 +4.66215568040E-03 -5.69023847877E-03 -2.72174471462E-01 -3.94502134856E-01
4.30500000000E+09 -3.13303412156E-01 -2.93378754785E-01 +3.79112890341E-03 -6.64679367637E-03 +3.81549813352E-03 -6.79337454479E-03 -2.87538401993E-01 -3.75187475187E-01
4.31000000000E+09 -3.26588026560E-01 -2.73433456397E-01 +2.79725274817E-03 -6.93560600968E-03 +2.80900038242E-03 -7.04273328392E-03 -3.02971434382E-01 -3.55453539358E-01
4.31500000000E+09 -3.39651771598E-01 -2.53478052014E-01 +2.18492457074E-03 -7.05148255382E-03 +2.22004151592E-03 -7.25456198798E-03 -3.18729888141E-01 -3.34244898327E-01
4.32000000000E+09 -3.51850105530E-01 -2.33547759845E-01 +1.25705289080E-03 -7.72958534528E-03 +1.21695206249E-03 -7.93509498876E-03 -3.32258962569E-01 -3.11768938355E-01
4.32500000000E+09 -3.62387292959E-01 -2.15378344975E-01 -6.34248816642E-04 -7.48390022777E-03 -7.72330485296E-04 -7.70578623275E-03 -3.44309200449E-01 -2.90096919237E-01
4.33000000000E+09 -3.73126707837E-01 -1.98697219265E-01 -4.93981973989E-04 -5.86932502237E-03 -5.45717023921E-04 -5.98436802786E-03 -3.56317350298E-01 -2.69437396520E-01
4.33500000000E+09 -3.83015823676E-01 -1.81006213887E-01 +1.10337802146E-04 -6.37503932526E-03 +6.70337638888E-05 -6.41908600752E-03 -3.68601491442E-01 -2.45712221798E-01
4.34000000000E+09 -3.90592021838E-01 -1.62412964605E-01 -2.23167969749E-04 -7.24997450780E-03 -3.47065072199E-04 -7.32133986114E-03 -3.79531024002E-01 -2.21015920154E-01
4.34500000000E+09 -3.96347966440E-01 -1.42833256420E-01 -1.18664524700E-03 -8.15173453071E-03 -1.22647374051E-03 -8.15291510806E-03 -3.87941980767E-01 -1.95273940406E-01
4.35000000000E+09 -4.00071518213E-01 -1.21729258161E-01 -2.99644624348E-03 -8.51674949733E-03 -3.09552001527E-03 -8.57510050433E-03 -3.96296550271E-01 -1.71601150564E-01
4.35500000000E+09 -4.02807706086E-01 -1.00035433782E-01 -4.74892719208E-03 -7.50899275556E-03 -4.89244520213E-03 -7.55391450101E-03 -4.05070199855E-01 -1.48413731453E-01
4.36000000000E+09 -4.05686874184E-01 -7.82826801918E-02 -4.90241433100E-03 -5.89734542612E-03 -5.05207667636E-03 -5.88945721397E-03 -4.13226324469E-01 -1.25128929277E-01
4.36500000000E+09 -4.10391273046E-01 -5.52539720344E-02 -5.12530252920E-03 -6.03396993928E-03 -5.26689352624E-03 -6.06700135265E-03 -4.19223530388E-01 -9.97934916718E-02
4.37000000000E+09 -4.15505444284E-01 -3.12617522815E-02 -5.64816264509E-03 -5.49373257151E-03 -5.82766736107E-03 -5.43575343837E-03 -4.22978179903E-01 -7.45803925660E-02
4.37500000000E+09 -4.20217794589E-01 -8.34647263798E-03 -6.09224034351E-03 -5.44797663849E-03 -6.28004673712E-03 -5.42401961125E-03 -4.24271778320E-01 -4.98274040885E-02
4.38000000000E+09 -4.24927306963E-01 +1.33063873108E-02 -6.94920414166E-03 -4.86853832620E-03 -7.20947308680E-03 -4.76377141323E-03 -4.27693344057E-01 -2.64426174450E-02
4.38500000000E+09 -4.28817417363E-01 +3.43246311469E-02 -8.02620050891E-03 -4.07870182139E-03 -8.22004201077E-03 -3.94499651327E-03 -4.30578399985E-01 -3.55189429950E-04
4.39000000000E+09 -4.31139439704E-01 +5.29583622846E-02 -8.07018009604E-03 -3.20779996954E-03 -8.19537216476E-03 -3.06792783551E-03 -4.32039416251E-01 +2.66176239535E-02
4.39500000000E+09 -4.31808300546E-01 +7.05111170587E-02 -9.08746536732E-03 -2.82950586968E-03 -9.17534754080E-03 -2.64146557366E-03 -4.30237990719E-01 +5.23061059440E-02
4.40000000000E+09 -4.31153822629E-01 +8.81444524031E-02 -9.96818998925E-03 -1.05352940586E-03 -1.00533845258E-02 -8.85931988940E-04 -4.27788379864E-01 +7.54549009191E-02
4.40500000000E+09 -4.28289500219E-01 +1.05667604411E-01 -1.00368047998E-02 +3.36118407938E-04 -1.00793711802E-02 +5.29391264047E-04 -4.25687349497E-01 +9.84911393423E-02
4.41000000000E+09 -4.25254972918E-01 +1.24261378555E-01 -9.31622285515E-03 +2.53345466080E-03 -9.27812947614E-03 +2.77336191364E-03 -4.23481963927E-01 +1.21306485448E-01
4.41500000000E+09 -4.21889132770E-01 +1.45600129457E-01 -8.28231667266E-03 +2.91203660441E-03 -8.14779736719E-03 +3.08758045360E-03 -4.19915816582E-01 +1.46678364033E-01
4.42000000000E+09 -4.17010762858E-01 +1.67968074954E-01 -7.92933237236E-03 +3.15327415035E-03 -7.84305319237E-03 +3.33564080124E-03 -4.13521301403E-01 +1.71602321522E-01
4.42500000000E+09 -4.12883739088E-01 +1.90564722913E-01 -7.82356819593E-03 +3.71431880462E-03 -7.64258870380E-03 +3.91420971772E-03 -4.06179321737E-01 +1.93311098455E-01
4.43000000000E+09 -4.09267835970E-01 +2.12861297558E-01 -7.97316113259E-03 +4.51539139250E-03 -7.79577812004E-03 +4.61690037295E-03 -4.01926158532E-01 +2.15583771053E-01
4.43500000000E+09 -4.05943563745E-01 +2.33794625352E-01 -7.71556828720E-03 +6.19892247092E-03 -7.46427679729E-03 +6.16503945592E-03 -3.95564127024E-01 +2.38981151035E-01
4.44000000000E+09 -4.03280462863E-01 +2.52268015547E-01 -6.44935096463E-03 +7.80434251799E-03 -6.29372229012E-03 +7.80639718432E-03 -3.86864081973E-01 +2.61866686533E-01
4.44500000000E+09 -4.01190531389E-01 +2.68887477865E-01 -4.49221407229E-03 +7.62183359080E-03 -4.33744820290E-03 +7.65125620164E-03 -3.76209364393E-01 +2.82353175130E-01
4.45000000000E+09 -3.98634453432E-01 +2.84679799572E-01 -3.81948463580E-03 +7.24988040875E-03 -3.70462404397E-03 +7.28188578335E-03 -3.66444642036E-01 +3.00740831991E-01
4.45500000000E+09 -3.93436372969E-01 +2.99547854112E-01 -4.16542602574E-03 +7.38370930709E-03 -3.98292403347E-03 +7.50786759385E-03 -3.57014145173E-01 +3.18874954099E-01
4.46000000000E+09 -3.86281329216E-01 +3.13690122049E-01 -3.34116126310E-03 +8.78958150767E-03 -3.13414243973E-03 +8.86547729188E-03 -3.48292747696E-01 +3.39073383118E-01
4.46500000000E+09 -3.76310477747E-01 +3.29099042766E-01 -1.83635463700E-03 +9.28213781631E-03 -1.59125803119E-03 +9.26665183939E-03 -3.35466001423E-01 +3.58184536007E-01
4.47000000000E+09 -3.63833645643E-01 +3.43832739070E-01 -2.66998448393E-04 +9.03433948370E-03 +5.80924986627E-08 +8.99910049964E-03 -3.23233146003E-01 +3.75667016974E-01
4.47500000000E+09 -3.51682345319E-01 +3.58910580351E-01 +3.55846632220E-04 +8.07913556234E-03 +6.45729511339E-04 +7.98256252023E-03 -3.11348465988E-01 +3.92079479890E-01
4.48000000000E+09 -3.40439769667E-01 +3.76213173644E-01 +2.52499621894E-04 +8.39552971361E-03 +4.68857391021E-04 +8.23955980581E-03 -3.00576844793E-01 +4.09902251296E-01
4.48500000000E+09 -3.29122792024E-01 +3.94884955219E-01 +1.31108433285E-03 +8.98545128884E-03 +1.53713857915E-03 +8.70874043908E-03 -2.87725043083E-01 +4.27329294985E-01
4.49000000000E+09 -3.19183727667E-01 +4.13035369619E-01 +2.82014113998E-03 +9.23421173001E-03 +2.84325064319E-03 +8.92114013697E-03 -2.74194308265E-01 +4.43609867779E-01
4.49500000000E+09 -3.10434670594E-01 +4.30655512308E-01 +4.27916148307E-03 +8.31171858284E-03 +4.18555248849E-03 +8.02163092666E-03 -2.59345410693E-01 +4.57532548366E-01
4.50000000000E+09 -3.02190425395E-01 +4.46074921992E-01 +4.98712799993E-03 +7.50629116049E-03 +4.87101527884E-03 +7.33261816836E-03 -2.45844531631E-01 +4.70974922699E-01
4.50500000000E+09 -2.95325424523E-01 +4.59683099127E-01 +5.85525473820E-03 +6.67859594097E-03 +5.82886400088E-03 +6.53765308693E-03 -2.32148369014E-01 +4.83641330078E-01
4.51000000000E+09 -2.87713475857E-01 +4.70958974254E-01 +6.01859978726E-03 +5.92358198347E-03 +6.02944532867E-03 +5.74755451576E-03 -2.19356070134E-01 +4.97985196736E-01
4.51500000000E+09 -2.78741924396E-01 +4.79841272548E-01 +6.66331322897E-03 +5.74460583943E-03 +6.64723389653E-03 +5.52963736834E-03 -2.04813455756E-01 +5.11082564123E-01
4.52000000000E+09 -2.68969694614E-01 +4.87754281149E-01 +7.73708955606E-03 +4.75390508293E-03 +7.65980430758E-03 +4.46421454885E-03 -1.90473493490E-01 +5.23371127583E-01
4.52500000000E+09 -2.57374519147E-01 +4.95963165893E-01 +7.81801193878E-03 +3.04373777340E-03 +7.68715788137E-03 +2.87374384264E-03 -1.75857726610E-01 +5.33599479864E-01
4.53000000000E+09 -2.43587299294E-01 +5.05436629836E-01 +7.56708949508E-03 +2.81029241872E-03 +7.50634317092E-03 +2.65553357141E-03 -1.62194554653E-01 +5.44176922419E-01
4.53500000000E+09 -2.27405594790E-01 +5.15561786506E-01 +7.96061894784E-03 +2.16037867755E-03 +7.83310110114E-03 +1.94495469162E-03 -1.47078198651E-01 +5.54242646128E-01
4.54000000000E+09 -2.10259085513E-01 +5.26124240954E-01 +8.22272650263E-03 +1.50955786961E-03 +8.08861751987E-03 +1.24739148638E-03 -1.31591369858E-01 +5.65358637036E-01
4.54500000000E+09 -1.93602090756E-01 +5.36988882057E-01 +8.77189220198E-03 +3.70231851829E-04 +8.54537557056E-03 +1.95391181467E-04 -1.14884574476E-01 +5.73909300490E-01
4.55000000000E+09 -1.78611250391E-01 +5.47356138962E-01 +8.70267019765E-03 -1.08773424139E-03 +8.43239949452E-03 -1.21807882699E-03 -9.90498804545E-02 +5.82602823127E-01
4.55500000000E+09 -1.66274814898E-01 +5.57702045308E-01 +8.08689249187E-03 -2.92869368326E-03 +7.80906551242E-03 -2.96884058527E-03 -8.45800573717E-02 +5.90147933825E-01
4.56000000000E+09 -1.55990837094E-01 +5.68175633038E-01 +6.28213002789E-03 -3.41226147084E-03 +6.09960670083E-03 -3.40937534251E-03 -7.10097497372E-02 +5.99113729091E-01
4.56500000000E+09 -1.46012835751E-01 +5.78504288124E-01 +5.71299506052E-03 -3.11066614569E-03 +5.52467978344E-03 -3.15779134289E-03 -5.54145102103E-02 +6.07317707517E-01
4.57000000000E+09 -1.35722822494E-01 +5.87523279848E-01 +5.61705400794E-03 -2.85756988228E-03 +5.38801727412E-03 -2.95635394824E-03 -3.97723718966E-02 +6.13787638583E-01
