# Hz S RI R 50
! CMT, C1220, 16058040, 17.2.0/1
! Date: 15/08/2018 11:45:44
! Data: Format (Calibration Info)
! Freq                      S11: Re/Im (F2)                       S21: Re/Im (F2)                       S12: Re/Im (F2)                       S22: Re/Im (F2)            
4.00000000000E+09 +6.40451768549E-01 -3.38446109466E-01 -1.85388910840E-03 -2.95044316903E-03 -1.85133176042E-03 -3.11588475247E-03 +7.71333016750E-01 -3.51128160803E-01
4.00500000000E+09 +6.31546997615E-01 -3.44844739266E-01 -1.97292251408E-03 -2.85067271458E-03 -1.88551144633E-03 -2.99818966803E-03 +7.62707118953E-01 -3.62474324410E-01
4.01000000000E+09 +6.21640734608E-01 -3.50471730203E-01 -2.37711758464E-03 -2.92989378197E-03 -2.28360886764E-03 -3.11762994780E-03 +7.53075984502E-01 -3.73575239271E-01
4.01500000000E+09 +6.10921774266E-01 -3.55833444279E-01 -2.74091423198E-03 -2.58057597477E-03 -2.71983372999E-03 -2.75643840587E-03 +7.43258532055E-01 -3.83699613135E-01
4.02000000000E+09 +5.99419572386E-01 -3.62443993727E-01 -2.86183598166E-03 -2.55889487199E-03 -2.79652944609E-03 -2.73862650252E-03 +7.33728261326E-01 -3.94047697003E-01
4.02500000000E+09 +5.87099232552E-01 -3.69691576894E-01 -3.58850244125E-03 -2.43688852025E-03 -3.55573439897E-03 -2.63974697068E-03 +7.23339848957E-01 -4.04748630374E-01
4.03000000000E+09 +5.74795259077E-01 -3.77759756350E-01 -3.98239265157E-03 -1.76923747900E-03 -4.02262123282E-03 -1.97149452445E-03 +7.12446154890E-01 -4.15011506793E-01
4.03500000000E+09 +5.62187999203E-01 -3.87159902076E-01 -3.97722531752E-03 -1.21664693037E-03 -4.08381160217E-03 -1.37940652353E-03 +7.01130306306E-01 -4.25920181248E-01
4.04000000000E+09 +5.49460894985E-01 -3.96553922548E-01 -4.16655005107E-03 -7.40904385207E-04 -4.28737420382E-03 -9.70605757904E-04 +6.89414536600E-01 -4.36573179663E-01
4.04500000000E+09 +5.37081701132E-01 -4.06060904083E-01 -3.93922628700E-03 -3.18178138451E-04 -4.09039490231E-03 -4.95067133801E-04 +6.77862426309E-01 -4.46531029605E-01
4.05000000000E+09 +5.24320016581E-01 -4.14530817732E-01 -3.99871501869E-03 -2.86569946364E-04 -4.12468590797E-03 -4.18181227928E-04 +6.66402697804E-01 -4.56877992741E-01
4.05500000000E+09 +5.10817901820E-01 -4.21206697495E-01 -4.33864064913E-03 +1.92914361670E-04 -4.57561747811E-03 +1.04317058598E-04 +6.53862347631E-01 -4.66860691382E-01
4.06000000000E+09 +4.97315501253E-01 -4.26061688968E-01 -4.35289571762E-03 +7.04248296917E-04 -4.57534970188E-03 +6.87593820864E-04 +6.41042910183E-01 -4.76176352306E-01
4.06500000000E+09 +4.83463813697E-01 -4.29843872848E-01 -4.05651970022E-03 +1.42737493272E-03 -4.21144149001E-03 +1.35170230866E-03 +6.27505879740E-01 -4.85214533435E-01
4.07000000000E+09 +4.69067734684E-01 -4.32869082459E-01 -3.90902131539E-03 +1.54025137423E-03 -4.04362537027E-03 +1.49296239353E-03 +6.13642699196E-01 -4.94642500458E-01
4.07500000000E+09 +4.53878330216E-01 -4.36342305528E-01 -3.78337845455E-03 +1.86801449546E-03 -3.89022650999E-03 +1.90910218052E-03 +5.99785315695E-01 -5.04324514232E-01
4.08000000000E+09 +4.37467635578E-01 -4.40117034812E-01 -3.67573832055E-03 +2.09193233202E-03 -3.83337344645E-03 +2.10189656509E-03 +5.84871868778E-01 -5.14054979052E-01
4.08500000000E+09 +4.19937604433E-01 -4.44748044186E-01 -3.56054049200E-03 +2.43318873972E-03 -3.68619677957E-03 +2.37250026342E-03 +5.70162829813E-01 -5.22141824365E-01
4.09000000000E+09 +4.01800746938E-01 -4.48851097951E-01 -3.34020298065E-03 +2.73807659187E-03 -3.48783925816E-03 +2.72642415706E-03 +5.55562492923E-01 -5.30220636337E-01
4.09500000000E+09 +3.84336489748E-01 -4.52669999277E-01 -3.39942250635E-03 +3.07184997204E-03 -3.57828798327E-03 +3.10471805427E-03 +5.40256384746E-01 -5.37513406863E-01
4.10000000000E+09 +3.67459247700E-01 -4.56666722946E-01 -3.13914910750E-03 +3.41512878328E-03 -3.24789828099E-03 +3.47809644067E-03 +5.24782785261E-01 -5.44585786844E-01
4.10500000000E+09 +3.50994863527E-01 -4.59950016625E-01 -3.00322887835E-03 +3.88850689842E-03 -3.16116593501E-03 +3.90035251121E-03 +5.07660959827E-01 -5.52342254105E-01
4.11000000000E+09 +3.34438755123E-01 -4.62236837243E-01 -2.62208582109E-03 +4.54931031345E-03 -2.78438117515E-03 +4.59631521870E-03 +4.90123447768E-01 -5.58860928037E-01
4.11500000000E+09 +3.18175122603E-01 -4.63162346126E-01 -1.71775460861E-03 +4.82745633851E-03 -1.87098227745E-03 +4.91368777228E-03 +4.73357447428E-01 -5.65359403853E-01
4.12000000000E+09 +3.01334740318E-01 -4.62900974542E-01 -1.41311809046E-03 +4.65764713995E-03 -1.58615980757E-03 +4.72206904676E-03 +4.56253988151E-01 -5.72301430670E-01
4.12500000000E+09 +2.84077067312E-01 -4.61687308023E-01 -1.33205426168E-03 +4.75173562312E-03 -1.47180277332E-03 +4.85184090545E-03 +4.38623983817E-01 -5.78315766586E-01
4.13000000000E+09 +2.66389913048E-01 -4.59978564626E-01 -8.75972250755E-04 +5.21677975116E-03 -1.04193252562E-03 +5.29454095258E-03 +4.20465097401E-01 -5.83747250003E-01
4.13500000000E+09 +2.48414474321E-01 -4.58696847642E-01 -5.41834169406E-04 +5.37777763351E-03 -7.33219467328E-04 +5.44749951901E-03 +4.01963154100E-01 -5.88331587303E-01
4.14000000000E+09 +2.30039504976E-01 -4.58358004292E-01 -3.81190490651E-05 +5.93096470525E-03 -1.72999680773E-04 +6.11162493368E-03 +3.82388646956E-01 -5.92781109230E-01
4.14500000000E+09 +2.11604030073E-01 -4.58963731992E-01 +1.08330097779E-03 +6.32647047763E-03 +9.00907948671E-04 +6.58417249612E-03 +3.63212311762E-01 -5.96577449348E-01
4.15000000000E+09 +1.92827144126E-01 -4.61224673564E-01 +2.08893448705E-03 +5.85797757489E-03 +1.98495793818E-03 +6.14242449121E-03 +3.44628864510E-01 -6.01488976478E-01
4.15500000000E+09 +1.72953442910E-01 -4.62373449284E-01 +2.67889007325E-03 +5.31285143684E-03 +2.69232151050E-03 +5.48562628216E-03 +3.24261724606E-01 -6.05865225439E-01
4.16000000000E+09 +1.54180116331E-01 -4.61901909767E-01 +2.96526317303E-03 +4.94440739382E-03 +3.02449612651E-03 +5.09760117830E-03 +3.03418950035E-01 -6.07487976112E-01
4.16500000000E+09 +1.36587554088E-01 -4.59656292835E-01 +3.08328327516E-03 +4.54465002608E-03 +3.09274560944E-03 +4.72710020162E-03 +2.84493193380E-01 -6.08341110964E-01
4.17000000000E+09 +1.20661353292E-01 -4.55150011567E-01 +3.32019677325E-03 +4.77530212943E-03 +3.32185041131E-03 +4.97605823941E-03 +2.63894191601E-01 -6.09341719390E-01
4.17500000000E+09 +1.05779707695E-01 -4.49759115038E-01 +4.06887875742E-03 +4.99438939625E-03 +4.11400901034E-03 +5.22603916671E-03 +2.42686600512E-01 -6.09645505996E-01
4.18000000000E+09 +9.05909042405E-02 -4.43588499539E-01 +5.18395295476E-03 +4.37412791115E-03 +5.27957635861E-03 +4.62784383800E-03 +2.20977485618E-01 -6.09419442251E-01
4.18500000000E+09 +7.40454192702E-02 -4.36345049849E-01 +5.55190981870E-03 +3.72322500954E-03 +5.61956133067E-03 +3.96271565156E-03 +1.98523592691E-01 -6.08226723497E-01
4.19000000000E+09 +5.70637176184E-02 -4.28162267665E-01 +6.08293272722E-03 +3.27912602181E-03 +6.15730466983E-03 +3.40726686023E-03 +1.77814450588E-01 -6.06196379951E-01
4.19500000000E+09 +3.90379648797E-02 -4.19586495459E-01 +6.57152538189E-03 +2.63377294370E-03 +6.69598162761E-03 +2.81035185241E-03 +1.56918670437E-01 -6.04120976068E-01
4.20000000000E+09 +2.10746414336E-02 -4.10838025107E-01 +6.80472188717E-03 +1.71204812534E-03 +6.92843105327E-03 +1.87300407690E-03 +1.35149182772E-01 -6.02118560638E-01
4.20500000000E+09 +4.17002743822E-03 -4.03363943061E-01 +7.02188842333E-03 +9.48928599742E-04 +7.15035917481E-03 +1.05515933073E-03 +1.12511724524E-01 -5.98714572760E-01
4.21000000000E+09 -1.26831530139E-02 -3.96460291451E-01 +7.01101119296E-03 -1.02234174426E-05 +7.23667625389E-03 +4.38384528783E-06 +8.93630400499E-02 -5.93806490680E-01
4.21500000000E+09 -2.88411625652E-02 -3.89706652077E-01 +6.56672721902E-03 -2.39486925271E-04 +6.71938048321E-03 -2.00540698282E-04 +6.76021028068E-02 -5.89117299622E-01
4.22000000000E+09 -4.43240013260E-02 -3.81665003328E-01 +6.88770268259E-03 -1.19199221933E-04 +7.07729036491E-03 -9.79624679057E-05 +4.51795518323E-02 -5.83689161026E-01
4.22500000000E+09 -5.83792510147E-02 -3.72206964839E-01 +7.96897918115E-03 -1.22364700405E-03 +8.13347883754E-03 -1.16714914240E-03 +2.21894188041E-02 -5.77637864657E-01
4.23000000000E+09 -7.12687740906E-02 -3.60883536891E-01 +7.86055405102E-03 -3.04633905525E-03 +8.08774039976E-03 -2.97111934661E-03 -2.09129551005E-04 -5.69527825093E-01
4.23500000000E+09 -8.36489947390E-02 -3.48024986190E-01 +6.94094911362E-03 -4.06641241243E-03 +7.17929462730E-03 -4.10362782234E-03 -2.17586786124E-02 -5.59832941342E-01
4.24000000000E+09 -9.66074760348E-02 -3.34130822019E-01 +6.30008535169E-03 -4.54968815681E-03 +6.42256533542E-03 -4.65554215628E-03 -4.24703342978E-02 -5.50129118401E-01
4.24500000000E+09 -1.09944859051E-01 -3.19125425084E-01 +5.66343508778E-03 -4.75135788495E-03 +5.77803885991E-03 -4.80219319248E-03 -6.29888499103E-02 -5.40637588974E-01
4.25000000000E+09 -1.24167307312E-01 -3.03872071110E-01 +5.64841727796E-03 -5.24106263558E-03 +5.84564701379E-03 -5.36646224576E-03 -8.52968099931E-02 -5.30130873846E-01
4.25500000000E+09 -1.39259785359E-01 -2.89975370254E-01 +4.99688490106E-03 -6.23899275300E-03 +5.13652903922E-03 -6.35715571199E-03 -1.07234891046E-01 -5.18120390997E-01
4.26000000000E+09 -1.56220718715E-01 -2.76747842557E-01 +4.30609187260E-03 -6.56704895608E-03 +4.43175737549E-03 -6.71537059614E-03 -1.28380848634E-01 -5.03966923203E-01
4.26500000000E+09 -1.73399368542E-01 -2.64074213346E-01 +3.87997008401E-03 -6.66433949632E-03 +3.92584052470E-03 -6.79113394943E-03 -1.48114098250E-01 -4.89350836370E-01
4.27000000000E+09 -1.89586736102E-01 -2.51142783224E-01 +3.58653674864E-03 -7.39054239945E-03 +3.60320263747E-03 -7.55612879397E-03 -1.67504634980E-01 -4.74515109325E-01
4.27500000000E+09 -2.04508267321E-01 -2.38271908532E-01 +2.66200658363E-03 -8.00557379431E-03 +2.69250495708E-03 -8.18091631978E-03 -1.87857793972E-01 -4.58322761188E-01
4.28000000000E+09 -2.16532211986E-01 -2.24286387115E-01 +2.00447309680E-03 -8.48896522064E-03 +1.98520873412E-03 -8.68461099438E-03 -2.06955185941E-01 -4.41623992228E-01
4.28500000000E+09 -2.25553612972E-01 -2.10184592423E-01 +1.01295022526E-03 -9.26184827092E-03 +9.61297263217E-04 -9.38055734030E-03 -2.26221307708E-01 -4.25141761902E-01
4.29000000000E+09 -2.32860775696E-01 -1.96007172573E-01 -8.46264481662E-04 -9.45009465946E-03 -9.41313737357E-04 -9.65386693680E-03 -2.43703014697E-01 -4.06933257533E-01
4.29500000000E+09 -2.40307789648E-01 -1.81295878994E-01 -2.07682981693E-03 -8.39897724377E-03 -2.10436161009E-03 -8.52110408219E-03 -2.59585737858E-01 -3.90276514921E-01
4.30000000000E+09 -2.48837625439E-01 -1.64355283686E-01 -2.59803220564E-03 -7.83993379559E-03 -2.64798973514E-03 -7.94432292357E-03 -2.76987084548E-01 -3.72338685223E-01
4.30500000000E+09 -2.57154637972E-01 -1.45477104517E-01 -2.74155370674E-03 -7.39125024015E-03 -2.82412422851E-03 -7.57682847996E-03 -2.93302120525E-01 -3.51403892605E-01
4.31000000000E+09 -2.65815907301E-01 -1.25032724828E-01 -2.86683231907E-03 -7.77427756917E-03 -2.94169763731E-03 -7.94056758503E-03 -3.08425371660E-01 -3.30356041250E-01
4.31500000000E+09 -2.73391253264E-01 -1.05109340979E-01 -3.93244690364E-03 -8.05826722140E-03 -4.06058355781E-03 -8.17328015407E-03 -3.22180642513E-01 -3.08311702243E-01
4.32000000000E+09 -2.80613099105E-01 -8.59815397329E-02 -5.08517894256E-03 -8.01289488586E-03 -5.28240303388E-03 -8.14949517667E-03 -3.35169748722E-01 -2.87349869776E-01
4.32500000000E+09 -2.86690560133E-01 -7.00801614618E-02 -6.84060006878E-03 -7.31906886654E-03 -7.09989657947E-03 -7.45429780959E-03 -3.48478169558E-01 -2.65479517626E-01
4.33000000000E+09 -2.93912995512E-01 -5.51209491150E-02 -7.18572462363E-03 -6.37029572166E-03 -7.39660472086E-03 -6.41816352887E-03 -3.60549804411E-01 -2.41300817129E-01
4.33500000000E+09 -3.00042997498E-01 -3.93143696511E-02 -8.16386652181E-03 -5.74562901488E-03 -8.40841200185E-03 -5.69036607388E-03 -3.70345495757E-01 -2.16312697826E-01
4.34000000000E+09 -3.03385204576E-01 -2.26779417035E-02 -9.05051617101E-03 -4.47326479197E-03 -9.20702752229E-03 -4.35794242008E-03 -3.78284696173E-01 -1.91888665355E-01
4.34500000000E+09 -3.04039412985E-01 -6.01113063796E-03 -8.84354805880E-03 -3.08661421734E-03 -8.92338101650E-03 -3.06168193213E-03 -3.87467911327E-01 -1.69511273975E-01
4.35000000000E+09 -3.03385918360E-01 +1.14479915313E-02 -8.96079260146E-03 -2.78558104389E-03 -9.05939773393E-03 -2.82719642700E-03 -3.97890656063E-01 -1.44299864129E-01
4.35500000000E+09 -3.01542251464E-01 +2.96144301705E-02 -9.62181255903E-03 -2.13939173814E-03 -9.78411161127E-03 -2.05131950853E-03 -4.05054528280E-01 -1.17652474589E-01
4.36000000000E+09 -3.00801081460E-01 +4.83137899606E-02 -9.48539539564E-03 -1.26355374999E-03 -9.63425269354E-03 -1.19675071839E-03 -4.09847016674E-01 -9.31526128567E-02
4.36500000000E+09 -3.00225986843E-01 +6.85014106447E-02 -1.06300008371E-02 -1.01621298043E-03 -1.07739553865E-02 -9.03562405540E-04 -4.13775474863E-01 -6.94148935712E-02
4.37000000000E+09 -3.01230189499E-01 +8.87773622910E-02 -1.14862674831E-02 +9.28685796847E-04 -1.16539578745E-02 +1.11418631743E-03 -4.17035819216E-01 -4.53144245503E-02
4.37500000000E+09 -3.02077728369E-01 +1.09255498347E-01 -1.12843851967E-02 +3.05159651725E-03 -1.13473972975E-02 +3.26869976264E-03 -4.19385589725E-01 -2.08890039662E-02
4.38000000000E+09 -3.03560924908E-01 +1.27718765321E-01 -1.04988667633E-02 +4.31924885242E-03 -1.05970370262E-02 +4.49268836710E-03 -4.21226528584E-01 +5.58097145546E-03
4.38500000000E+09 -3.04373777175E-01 +1.45143315465E-01 -9.65783379707E-03 +5.50121486984E-03 -9.64000805465E-03 +5.75258213073E-03 -4.20247869098E-01 +3.12996032816E-02
4.39000000000E+09 -3.04284726331E-01 +1.60890907499E-01 -8.64861614706E-03 +6.44572729078E-03 -8.57027579448E-03 +6.68715601539E-03 -4.19638550771E-01 +5.53025999065E-02
4.39500000000E+09 -3.02649441936E-01 +1.74938915486E-01 -8.42198053878E-03 +6.84176769963E-03 -8.33681740358E-03 +7.00947936551E-03 -4.19320070715E-01 +7.89609030927E-02
4.40000000000E+09 -2.99227024021E-01 +1.88928946206E-01 -7.57997873942E-03 +8.34038611797E-03 -7.48829635469E-03 +8.44909615874E-03 -4.18131196730E-01 +1.03389142612E-01
4.40500000000E+09 -2.94349177570E-01 +2.02248834584E-01 -6.69964037097E-03 +9.18763931022E-03 -6.57913070768E-03 +9.27254348016E-03 -4.14315124293E-01 +1.27689648359E-01
4.41000000000E+09 -2.88695155970E-01 +2.16987297727E-01 -5.31831063061E-03 +9.54477487533E-03 -5.21831433962E-03 +9.67818753665E-03 -4.08969018695E-01 +1.51494342243E-01
4.41500000000E+09 -2.81498496391E-01 +2.33757495059E-01 -4.66305254567E-03 +1.05641647800E-02 -4.56475770486E-03 +1.07190346558E-02 -4.03520103310E-01 +1.74336912521E-01
4.42000000000E+09 -2.74572634508E-01 +2.51134959372E-01 -3.47920619340E-03 +1.08829103017E-02 -3.29467125919E-03 +1.10165149077E-02 -3.96634984551E-01 +1.97534249839E-01
4.42500000000E+09 -2.67729409135E-01 +2.69633364534E-01 -2.26435300080E-03 +1.20090458746E-02 -2.04292490998E-03 +1.20024445661E-02 -3.91053061006E-01 +2.19116502168E-01
4.43000000000E+09 -2.61450291665E-01 +2.87701900680E-01 +2.39624154768E-04 +1.23250463927E-02 +3.75375257793E-04 +1.22431803313E-02 -3.83886048909E-01 +2.42322803070E-01
4.43500000000E+09 -2.55661512234E-01 +3.04641827483E-01 +1.79133794747E-03 +1.13459226470E-02 +1.83249891558E-03 +1.12130181447E-02 -3.74873873118E-01 +2.63715621616E-01
4.44000000000E+09 -2.51113105764E-01 +3.18902570613E-01 +3.04742700062E-03 +1.02487960096E-02 +3.03790845797E-03 +1.01603458519E-02 -3.66327791739E-01 +2.83431570315E-01
4.44500000000E+09 -2.47613755319E-01 +3.31841552513E-01 +3.29524346842E-03 +9.81960183784E-03 +3.38055238806E-03 +9.82822362755E-03 -3.57948559183E-01 +3.03193553601E-01
4.45000000000E+09 -2.43727563646E-01 +3.43595427000E-01 +3.87390472533E-03 +9.44776317585E-03 +4.02921600392E-03 +9.39309815176E-03 -3.48084090702E-01 +3.23128396441E-01
4.45500000000E+09 -2.37426767253E-01 +3.54408837007E-01 +4.75755307821E-03 +9.80710193795E-03 +5.00442338700E-03 +9.75633591155E-03 -3.37380349888E-01 +3.42252249194E-01
4.46000000000E+09 -2.29741361508E-01 +3.64003407201E-01 +6.50882013562E-03 +9.09263174193E-03 +6.75251296103E-03 +9.00486194205E-03 -3.24495106743E-01 +3.60531170421E-01
4.46500000000E+09 -2.19605441502E-01 +3.74343648278E-01 +7.29605312948E-03 +7.92279234723E-03 +7.47419775366E-03 +7.77646373470E-03 -3.12940288928E-01 +3.76251256403E-01
4.47000000000E+09 -2.07745256803E-01 +3.84801478920E-01 +8.10200198531E-03 +7.02381492680E-03 +8.26907719980E-03 +6.85819307254E-03 -3.01841068179E-01 +3.92942475502E-01
4.47500000000E+09 -1.94712017047E-01 +3.95995913140E-01 +8.38515809144E-03 +6.10613688541E-03 +8.54914244792E-03 +5.87168969610E-03 -2.90324779451E-01 +4.10783224075E-01
4.48000000000E+09 -1.82444183666E-01 +4.07828696120E-01 +9.04951395332E-03 +5.21116831854E-03 +9.12798867958E-03 +4.95298361223E-03 -2.77306145421E-01 +4.27309096249E-01
4.48500000000E+09 -1.71493224269E-01 +4.21049977541E-01 +9.81257307300E-03 +4.53356689252E-03 +9.82512446203E-03 +4.29594837198E-03 -2.63613113705E-01 +4.42179490724E-01
4.49000000000E+09 -1.61545007906E-01 +4.34454519107E-01 +1.03257031885E-02 +2.49455006532E-03 +1.01870675872E-02 +2.27911329728E-03 -2.50905366691E-01 +4.56130607070E-01
4.49500000000E+09 -1.53293410168E-01 +4.47525093983E-01 +9.46041969485E-03 +1.57422278721E-03 +9.32563990424E-03 +1.37836649483E-03 -2.38288108410E-01 +4.70595610220E-01
4.50000000000E+09 -1.45890920193E-01 +4.58856404525E-01 +9.53169870223E-03 +1.43217227203E-03 +9.43107090111E-03 +1.29576128601E-03 -2.23922341717E-01 +4.84491650294E-01
4.50500000000E+09 -1.39320228154E-01 +4.68618335169E-01 +9.82083209441E-03 +6.83211809611E-04 +9.71336262285E-03 +5.29717269231E-04 -2.10437637697E-01 +4.97718408845E-01
4.51000000000E+09 -1.31895501640E-01 +4.75803303527E-01 +1.05964205154E-02 -1.89876587999E-04 +1.04562657990E-02 -3.88808265375E-04 -1.95016658748E-01 +5.10096545104E-01
4.51500000000E+09 -1.24298132966E-01 +4.81026011239E-01 +1.06874883233E-02 -1.71973460719E-03 +1.04990448023E-02 -1.88172009740E-03 -1.81220897264E-01 +5.20725752490E-01
4.52000000000E+09 -1.14980930127E-01 +4.85647186161E-01 +1.06181136666E-02 -3.57805438983E-03 +1.03861685236E-02 -3.70507163170E-03 -1.67944264970E-01 +5.31894083469E-01
4.52500000000E+09 -1.03917146225E-01 +4.89743623382E-01 +9.25986780684E-03 -4.68346855411E-03 +8.95803685468E-03 -4.75851384197E-03 -1.54099828275E-01 +5.42740067822E-01
4.53000000000E+09 -9.10395500038E-02 +4.94852750002E-01 +8.74484110669E-03 -5.23348882686E-03 +8.49341329298E-03 -5.28838044178E-03 -1.39454187370E-01 +5.52352998612E-01
4.53500000000E+09 -7.66897715078E-02 +5.00978307087E-01 +8.09514619457E-03 -6.21600831342E-03 +7.80915640873E-03 -6.21143366716E-03 -1.24888232443E-01 +5.61707286357E-01
4.54000000000E+09 -6.12948955251E-02 +5.07910912649E-01 +7.37567051099E-03 -6.90599927689E-03 +7.05034016045E-03 -6.82046148409E-03 -1.09048810971E-01 +5.70465762146E-01
4.54500000000E+09 -4.68388255788E-02 +5.15454364426E-01 +6.36337336583E-03 -7.50748373189E-03 +6.04301903082E-03 -7.42188774303E-03 -9.49525073252E-02 +5.79709763995E-01
4.55000000000E+09 -3.34771885619E-02 +5.22967906494E-01 +5.83294757480E-03 -8.11284666216E-03 +5.50811895170E-03 -7.96496701635E-03 -7.88783524534E-02 +5.88883314222E-01
4.55500000000E+09 -2.29543621729E-02 +5.30195074017E-01 +4.60391663125E-03 -8.41785367603E-03 +4.35044835955E-03 -8.23270229265E-03 -6.33910293141E-02 +5.96899112752E-01
4.56000000000E+09 -1.44529500819E-02 +5.38246703574E-01 +3.93791518791E-03 -8.75374511849E-03 +3.72570774061E-03 -8.63114550170E-03 -4.86165258524E-02 +6.03048226877E-01
4.56500000000E+09 -5.63524470820E-03 +5.45343590007E-01 +3.23919303206E-03 -9.25153743213E-03 +3.03765241210E-03 -9.11946944055E-03 -3.45525698365E-02 +6.09821951645E-01
4.57000000000E+09 +3.09791255964E-03 +5.50431067140E-01 +2.02583419454E-03 -9.85133470203E-03 +1.80954608965E-03 -9.65017074609E-03 -1.96299853778E-02 +6.15853710327E-01
