# Hz S RI R 50
! CMT, C1220, 16058040, 17.2.0/1
! Date: 15/08/2018 12:03:14
! Data: Format (Calibration Info)
! Freq                      S11: Re/Im (F2)                       S21: Re/Im (F2)                       S12: Re/Im (F2)                       S22: Re/Im (F2)            
4.00000000000E+09 +6.67787034011E-01 -3.41233018827E-01 +1.69110305378E-03 -5.60156820801E-04 +1.79030451496E-03 -5.30014131439E-04 +7.76797195555E-01 -3.40980397699E-01
4.00500000000E+09 +6.59825756897E-01 -3.47546795546E-01 +1.49383938879E-03 -4.63229644227E-04 +1.57109112511E-03 -4.33672134448E-04 +7.68172721372E-01 -3.52645907809E-01
4.01000000000E+09 +6.51116467100E-01 -3.53862269952E-01 +1.54896085947E-03 -5.36433256072E-04 +1.61516861622E-03 -4.74102920252E-04 +7.58673761133E-01 -3.63914429885E-01
4.01500000000E+09 +6.41091956844E-01 -3.60905233300E-01 +1.61584783013E-03 -5.23447063304E-04 +1.65120953086E-03 -4.55551733259E-04 +7.49009947483E-01 -3.74355203060E-01
4.02000000000E+09 +6.30174835767E-01 -3.68422064732E-01 +1.89620979688E-03 -8.49258088001E-04 +1.97813022004E-03 -7.45265503483E-04 +7.39194588535E-01 -3.84738104312E-01
4.02500000000E+09 +6.19006575012E-01 -3.77451675554E-01 +1.73350025400E-03 -1.26725243690E-03 +1.88096040568E-03 -1.18911834634E-03 +7.29089035406E-01 -3.94954331628E-01
4.03000000000E+09 +6.07423287993E-01 -3.87683529943E-01 +1.43677327260E-03 -1.60219653667E-03 +1.56480550278E-03 -1.60323838063E-03 +7.18468532484E-01 -4.05137294318E-01
4.03500000000E+09 +5.95733806518E-01 -3.98535029751E-01 +9.86881397159E-04 -1.51183602872E-03 +1.07452482124E-03 -1.50880601797E-03 +7.07591007152E-01 -4.15697068464E-01
4.04000000000E+09 +5.84489527260E-01 -4.09417861066E-01 +1.04045999444E-03 -1.42906370459E-03 +1.11671750898E-03 -1.43727891093E-03 +6.96681049248E-01 -4.26340138148E-01
4.04500000000E+09 +5.73490972319E-01 -4.20080903843E-01 +9.03799779504E-04 -1.39858102374E-03 +1.07255404774E-03 -1.40464354445E-03 +6.85209770177E-01 -4.37062048199E-01
4.05000000000E+09 +5.62167711576E-01 -4.29293810704E-01 +1.03454360994E-03 -1.53668731641E-03 +1.17759473895E-03 -1.57391829810E-03 +6.73737607633E-01 -4.46895644949E-01
4.05500000000E+09 +5.50327364266E-01 -4.36647997699E-01 +9.79152861486E-04 -1.73920314292E-03 +1.10877979848E-03 -1.80146999260E-03 +6.62130448463E-01 -4.56592073531E-01
4.06000000000E+09 +5.38137740791E-01 -4.42222514206E-01 +8.81095973804E-04 -1.94769149727E-03 +9.53264503506E-04 -2.03516581299E-03 +6.49765104815E-01 -4.66448812184E-01
4.06500000000E+09 +5.25670031252E-01 -4.46657093240E-01 +5.87626104548E-04 -2.05446895252E-03 +5.93684617534E-04 -2.22048716835E-03 +6.36709561502E-01 -4.75555767875E-01
4.07000000000E+09 +5.12232074743E-01 -4.50996480170E-01 +5.05368649460E-04 -2.21464189187E-03 +5.56860362876E-04 -2.28342525384E-03 +6.22826388237E-01 -4.85264803221E-01
4.07500000000E+09 +4.97841491101E-01 -4.56119770715E-01 +1.87522319252E-04 -2.42479640127E-03 +3.31787394119E-04 -2.44177105305E-03 +6.09064831080E-01 -4.94255814427E-01
4.08000000000E+09 +4.82112525360E-01 -4.61738179446E-01 -1.21784676384E-04 -2.44916916874E-03 -8.82422866842E-05 -2.52317713103E-03 +5.95861078389E-01 -5.03396895175E-01
4.08500000000E+09 +4.65643287213E-01 -4.68039116652E-01 -4.89413135807E-04 -2.25429418568E-03 -4.95564057401E-04 -2.42397880828E-03 +5.81768665309E-01 -5.12739205690E-01
4.09000000000E+09 +4.48945779554E-01 -4.75073603766E-01 -4.95465624552E-04 -2.11955923317E-03 -4.83487413063E-04 -2.27082661768E-03 +5.67597148537E-01 -5.20609289131E-01
4.09500000000E+09 +4.32866443545E-01 -4.81999597088E-01 -5.36542558757E-04 -2.14275737920E-03 -5.36664329160E-04 -2.26740873824E-03 +5.53502425878E-01 -5.28968580757E-01
4.10000000000E+09 +4.16260693826E-01 -4.88857471897E-01 -4.90007212981E-04 -2.44301575350E-03 -5.67512173242E-04 -2.52134613071E-03 +5.37946582585E-01 -5.37339384245E-01
4.10500000000E+09 +4.00325950724E-01 -4.94263655442E-01 -9.76005882824E-04 -2.72403149591E-03 -9.53856441195E-04 -2.74507407569E-03 +5.21320097751E-01 -5.45158822562E-01
4.11000000000E+09 +3.84460021580E-01 -4.97984952041E-01 -1.56020615642E-03 -2.74096060547E-03 -1.52302387301E-03 -2.84084737526E-03 +5.04037637554E-01 -5.52889861935E-01
4.11500000000E+09 +3.69035968739E-01 -4.99950247590E-01 -2.19774840274E-03 -2.34475916002E-03 -2.18559864034E-03 -2.44008005386E-03 +4.86740111656E-01 -5.59689268818E-01
4.12000000000E+09 +3.53427869195E-01 -5.00793669591E-01 -2.26653697708E-03 -1.86738085461E-03 -2.30234068135E-03 -1.97589881462E-03 +4.69615267424E-01 -5.65938326874E-01
4.12500000000E+09 +3.37585297064E-01 -5.01684145094E-01 -2.36359707637E-03 -1.59276495794E-03 -2.42160976256E-03 -1.68245803885E-03 +4.52637454693E-01 -5.71891662889E-01
4.13000000000E+09 +3.19483548772E-01 -5.03205941034E-01 -2.39963590214E-03 -1.56253173615E-03 -2.41204360757E-03 -1.62508567377E-03 +4.35808089004E-01 -5.77357809881E-01
4.13500000000E+09 +3.00213019482E-01 -5.04251743566E-01 -2.55539365310E-03 -1.41432163409E-03 -2.55208313426E-03 -1.46025412808E-03 +4.17528837043E-01 -5.83290832429E-01
4.14000000000E+09 +2.80912342645E-01 -5.06352806666E-01 -2.77766560351E-03 -1.24976165903E-03 -2.88009055569E-03 -1.34401908089E-03 +3.98700084368E-01 -5.88334761798E-01
4.14500000000E+09 +2.61324182523E-01 -5.09755662789E-01 -3.03982951010E-03 -8.62898640515E-04 -3.12297121359E-03 -1.00208063413E-03 +3.79768098164E-01 -5.93771624066E-01
4.15000000000E+09 +2.41463190618E-01 -5.14218119816E-01 -3.03281173439E-03 -6.76264078416E-04 -3.14649509550E-03 -7.29184227605E-04 +3.59631456349E-01 -5.98637199161E-01
4.15500000000E+09 +2.21492104182E-01 -5.17942393657E-01 -3.26270806525E-03 -6.95716650623E-04 -3.38297562533E-03 -7.12466714094E-04 +3.40422067816E-01 -6.01749254208E-01
4.16000000000E+09 +2.02525629808E-01 -5.20479801719E-01 -3.77884588761E-03 -1.02782107572E-04 -3.83825005323E-03 -1.24874476074E-04 +3.21113760321E-01 -6.04804495660E-01
4.16500000000E+09 +1.84827772932E-01 -5.20882856382E-01 -3.71194407000E-03 +6.02013834650E-04 -3.79185848481E-03 +5.73711599647E-04 +3.00622422843E-01 -6.06334886162E-01
4.17000000000E+09 +1.68197592902E-01 -5.19624930040E-01 -3.53296958118E-03 +8.17576692516E-04 -3.62484118463E-03 +7.50343234360E-04 +2.81033067445E-01 -6.07080142638E-01
4.17500000000E+09 +1.51831297782E-01 -5.15921455571E-01 -3.53576645140E-03 +1.64593291589E-03 -3.68297898621E-03 +1.65340461699E-03 +2.60173172399E-01 -6.08064665743E-01
4.18000000000E+09 +1.36101854151E-01 -5.11558187493E-01 -2.60558047051E-03 +1.72189756892E-03 -2.73458899216E-03 +1.75013507299E-03 +2.39616373832E-01 -6.08830222900E-01
4.18500000000E+09 +1.18769973744E-01 -5.06391842789E-01 -2.88010756629E-03 +1.23864479073E-03 -2.98748731410E-03 +1.22420301404E-03 +2.17750419813E-01 -6.09741711016E-01
4.19000000000E+09 +1.00420356119E-01 -5.00862336768E-01 -3.20367659798E-03 +1.63579045959E-03 -3.33670940394E-03 +1.61845102893E-03 +1.95484743485E-01 -6.08359585450E-01
4.19500000000E+09 +8.13332058119E-02 -4.95140843479E-01 -3.32489306779E-03 +2.32533008698E-03 -3.43097181604E-03 +2.34056134373E-03 +1.74410627651E-01 -6.06195550021E-01
4.20000000000E+09 +6.15604569803E-02 -4.90878720754E-01 -3.23965537382E-03 +2.94240640034E-03 -3.37298085825E-03 +2.93227793002E-03 +1.53139731483E-01 -6.03939506635E-01
4.20500000000E+09 +4.12432259433E-02 -4.87073058037E-01 -2.76112732588E-03 +3.77887443285E-03 -2.93752713395E-03 +3.82436452221E-03 +1.31036866341E-01 -6.00872728367E-01
4.21000000000E+09 +2.18926911890E-02 -4.83014333018E-01 -1.83480729829E-03 +3.66471169916E-03 -1.91338511553E-03 +3.78395303331E-03 +1.08948033525E-01 -5.97361318313E-01
4.21500000000E+09 +2.91669789857E-03 -4.79048835361E-01 -1.81472269203E-03 +3.70653667555E-03 -1.96961192306E-03 +3.79542982579E-03 +8.61280341714E-02 -5.93043999528E-01
4.22000000000E+09 -1.46615963191E-02 -4.73516101442E-01 -1.73942774081E-03 +4.20024577920E-03 -1.80856101880E-03 +4.28050865852E-03 +6.47871970282E-02 -5.87760417278E-01
4.22500000000E+09 -3.08979879888E-02 -4.65807940212E-01 -9.89685661878E-04 +4.83768766314E-03 -1.04674061231E-03 +4.96321899484E-03 +4.34545666600E-02 -5.82997972183E-01
4.23000000000E+09 -4.52137577822E-02 -4.57234066217E-01 -5.63275877397E-05 +4.37788488456E-03 -1.05746694206E-04 +4.50949956967E-03 +2.13792264496E-02 -5.77186628748E-01
4.23500000000E+09 -6.06249032999E-02 -4.47259141370E-01 +1.89782401832E-04 +4.22164629052E-03 +1.86763524376E-04 +4.37300110859E-03 -3.04388773268E-04 -5.69411762133E-01
4.24000000000E+09 -7.73746737102E-02 -4.35490533827E-01 +1.95793417376E-05 +4.42630292416E-03 -2.82757181115E-05 +4.51454078754E-03 -2.28232588464E-02 -5.61226870255E-01
4.24500000000E+09 -9.48822104962E-02 -4.22166409195E-01 +7.63286942962E-04 +4.78354802695E-03 +7.90054201164E-04 +4.94997809066E-03 -4.49121911772E-02 -5.51196899115E-01
4.25000000000E+09 -1.13502652033E-01 -4.09103659500E-01 +1.41054647529E-03 +4.73619321383E-03 +1.49122447143E-03 +4.89388160835E-03 -6.64614168900E-02 -5.41532539757E-01
4.25500000000E+09 -1.33032484472E-01 -3.96108868065E-01 +2.15438553042E-03 +4.52056645328E-03 +2.22595876197E-03 +4.63842803399E-03 -8.91756570814E-02 -5.30228859165E-01
4.26000000000E+09 -1.52976874570E-01 -3.84835636192E-01 +2.34761111856E-03 +4.19385112815E-03 +2.45003071790E-03 +4.30497718290E-03 -1.09735647099E-01 -5.17088697443E-01
4.26500000000E+09 -1.73979581516E-01 -3.73997901374E-01 +2.87281731390E-03 +4.20088160441E-03 +3.03608772510E-03 +4.30730699184E-03 -1.29959280115E-01 -5.04381097505E-01
4.27000000000E+09 -1.93200065794E-01 -3.62363229905E-01 +3.54535367825E-03 +3.97164108932E-03 +3.64915892958E-03 +3.95543952763E-03 -1.50793927079E-01 -4.89678664182E-01
4.27500000000E+09 -2.09536944345E-01 -3.50658454643E-01 +4.20674728108E-03 +3.40648577807E-03 +4.31828612927E-03 +3.41151702936E-03 -1.70531506306E-01 -4.74643486556E-01
4.28000000000E+09 -2.23211861635E-01 -3.38422240110E-01 +4.50901524219E-03 +2.74060068307E-03 +4.64179166760E-03 +2.70488229222E-03 -1.90409578654E-01 -4.59348341589E-01
4.28500000000E+09 -2.35683299819E-01 -3.25498447170E-01 +4.46964441603E-03 +1.98481791862E-03 +4.54276638904E-03 +1.98885512646E-03 -2.10651827279E-01 -4.43704649841E-01
4.29000000000E+09 -2.45984030553E-01 -3.09873165260E-01 +4.29940554804E-03 +1.70055507652E-03 +4.40418785206E-03 +1.63945850111E-03 -2.29308476455E-01 -4.26971021142E-01
4.29500000000E+09 -2.56470496562E-01 -2.93238575421E-01 +4.15341758442E-03 +2.05122614531E-03 +4.20383601664E-03 +2.03438835906E-03 -2.48585878429E-01 -4.09538236590E-01
4.30000000000E+09 -2.67641998363E-01 -2.74692241792E-01 +5.28167839134E-03 +1.74005387300E-03 +5.29233276806E-03 +1.76031601380E-03 -2.65332934177E-01 -3.89836587036E-01
4.30500000000E+09 -2.79742648968E-01 -2.54168696023E-01 +5.67382546244E-03 +1.03094396139E-03 +5.71117178311E-03 +9.98309325904E-04 -2.80462326558E-01 -3.70556087016E-01
4.31000000000E+09 -2.92413941756E-01 -2.33580601549E-01 +6.25384558956E-03 +2.48085443404E-04 +6.36284808453E-03 +2.22782667710E-04 -2.95971702486E-01 -3.50963108804E-01
4.31500000000E+09 -3.06086633833E-01 -2.13414821341E-01 +6.27257908517E-03 -1.10392772119E-03 +6.31881557467E-03 -1.16660634186E-03 -3.11132322322E-01 -3.30443036783E-01
4.32000000000E+09 -3.19331183992E-01 -1.94494349252E-01 +5.39302247754E-03 -2.13064769312E-03 +5.43206921023E-03 -2.14155740582E-03 -3.25245659028E-01 -3.08765535142E-01
4.32500000000E+09 -3.32628943365E-01 -1.77106946920E-01 +4.66274209342E-03 -2.03023227038E-03 +4.72616113360E-03 -2.10004069827E-03 -3.38432257297E-01 -2.87276808927E-01
4.33000000000E+09 -3.43791095566E-01 -1.60343833205E-01 +4.94667225129E-03 -1.84709783616E-03 +4.98680135880E-03 -1.88442321245E-03 -3.51155655713E-01 -2.65105660731E-01
4.33500000000E+09 -3.51824450796E-01 -1.43625579141E-01 +5.31934034069E-03 -2.28830610687E-03 +5.37779853974E-03 -2.35518065109E-03 -3.63178411376E-01 -2.41426110765E-01
4.34000000000E+09 -3.57364861004E-01 -1.28114344477E-01 +5.78378858403E-03 -3.44330850782E-03 +5.76460899517E-03 -3.42388748638E-03 -3.74279315948E-01 -2.17571861800E-01
4.34500000000E+09 -3.61250903354E-01 -1.11695726334E-01 +5.08373555564E-03 -4.78620507669E-03 +5.11910678551E-03 -4.81314617157E-03 -3.84713297539E-01 -1.91582612784E-01
4.35000000000E+09 -3.63777609824E-01 -9.29870923218E-02 +4.12286840037E-03 -5.49037807379E-03 +4.20307023730E-03 -5.56742292901E-03 -3.92334021128E-01 -1.66530048071E-01
4.35500000000E+09 -3.65459605934E-01 -7.30138979491E-02 +3.50372592789E-03 -6.04404321836E-03 +3.56246897674E-03 -6.09391083245E-03 -4.00353855681E-01 -1.43005784028E-01
4.36000000000E+09 -3.68196241549E-01 -5.06748419527E-02 +2.43792953039E-03 -6.48919739923E-03 +2.48381151413E-03 -6.59519711253E-03 -4.07067637421E-01 -1.18680529637E-01
4.36500000000E+09 -3.71190891761E-01 -2.68890947764E-02 +1.30875817631E-03 -6.61072281609E-03 +1.25313263753E-03 -6.70209397511E-03 -4.12947801548E-01 -9.44395269125E-02
4.37000000000E+09 -3.75406552542E-01 -4.02475872174E-03 +3.42916548611E-04 -6.21007116390E-03 +2.92578936741E-04 -6.35444213833E-03 -4.16906434513E-01 -6.93333152300E-02
4.37500000000E+09 -3.80796764664E-01 +1.89594010295E-02 -7.04101571623E-05 -5.56926635086E-03 -1.60751045406E-04 -5.67867603528E-03 -4.19266106109E-01 -4.40967658935E-02
4.38000000000E+09 -3.86636613051E-01 +3.99245597422E-02 +8.33606910364E-05 -5.93689603449E-03 -5.32752678389E-05 -6.08705074767E-03 -4.21160606494E-01 -1.96189065635E-02
4.38500000000E+09 -3.91789865793E-01 +5.85581378007E-02 -4.34454786419E-04 -6.15869102470E-03 -5.58401293323E-04 -6.27765697093E-03 -4.23124752500E-01 +5.46537646129E-03
4.39000000000E+09 -3.95291369849E-01 +7.54035954332E-02 -1.47646870547E-03 -6.63429727176E-03 -1.70788078991E-03 -6.74600380824E-03 -4.24144094499E-01 +3.09128406569E-02
4.39500000000E+09 -3.96693571598E-01 +9.02951310776E-02 -2.92944825219E-03 -6.15022738766E-03 -3.08772201935E-03 -6.12010799582E-03 -4.23973331044E-01 +5.54789534881E-02
4.40000000000E+09 -3.96282701983E-01 +1.04314580548E-01 -3.30936204247E-03 -5.50146741654E-03 -3.55484025732E-03 -5.41373465710E-03 -4.22467706269E-01 +8.05926545278E-02
4.40500000000E+09 -3.93789033044E-01 +1.20406326474E-01 -4.14322785051E-03 -4.69371192898E-03 -4.29487263859E-03 -4.57817474725E-03 -4.18779175847E-01 +1.04531438720E-01
4.41000000000E+09 -3.87794449271E-01 +1.37266820375E-01 -3.82638627592E-03 -3.96414765421E-03 -3.94292962907E-03 -3.88748734140E-03 -4.15123200981E-01 +1.27622941065E-01
4.41500000000E+09 -3.81992150290E-01 +1.55610234639E-01 -4.18976556595E-03 -3.91628233884E-03 -4.31028287921E-03 -3.76337192227E-03 -4.10189869710E-01 +1.51812044123E-01
4.42000000000E+09 -3.76487262449E-01 +1.76373523615E-01 -4.64934893155E-03 -3.51260762269E-03 -4.75227468284E-03 -3.39068103740E-03 -4.04583118886E-01 +1.74293215917E-01
4.42500000000E+09 -3.71310984955E-01 +1.98629378872E-01 -5.00715949488E-03 -3.20932843757E-03 -5.07507461315E-03 -3.00265895618E-03 -3.98489369809E-01 +1.97205676058E-01
4.43000000000E+09 -3.66983932479E-01 +2.20659581485E-01 -5.06744254440E-03 -2.62780301264E-03 -5.05474149265E-03 -2.41004642664E-03 -3.92714757462E-01 +2.18741894876E-01
4.43500000000E+09 -3.64323992426E-01 +2.41856921376E-01 -5.81492561390E-03 -2.42389413478E-03 -5.76652284792E-03 -2.32035622969E-03 -3.86284546900E-01 +2.40814150446E-01
4.44000000000E+09 -3.61687441692E-01 +2.60842581827E-01 -6.05802978284E-03 -1.44514924383E-03 -5.94881040496E-03 -1.34329390624E-03 -3.77857741665E-01 +2.63945755711E-01
4.44500000000E+09 -3.60284520975E-01 +2.77232821125E-01 -6.04969390566E-03 -7.88451012827E-04 -5.91455356818E-03 -6.59277035441E-04 -3.67928262862E-01 +2.83417489837E-01
4.45000000000E+09 -3.57844811078E-01 +2.91702556088E-01 -6.27428596410E-03 +4.33459399741E-06 -6.20417935449E-03 +5.07257290558E-05 -3.58307797316E-01 +3.03139439175E-01
4.45500000000E+09 -3.53563551627E-01 +3.04362930699E-01 -6.00677045525E-03 +8.70788649826E-04 -5.94247721258E-03 +1.00096503893E-03 -3.47302321551E-01 +3.21442532328E-01
4.46000000000E+09 -3.47882506827E-01 +3.16301099432E-01 -5.61726658279E-03 +1.48904846225E-03 -5.41200275789E-03 +1.56349787995E-03 -3.38397825757E-01 +3.39177121576E-01
4.46500000000E+09 -3.38950137356E-01 +3.29839778877E-01 -5.21038377705E-03 +1.82953701964E-03 -5.13061238072E-03 +1.88904902893E-03 -3.26558713743E-01 +3.58227640873E-01
4.47000000000E+09 -3.27364235646E-01 +3.43691729463E-01 -4.99314551956E-03 +1.76432168884E-03 -4.87186348997E-03 +1.84569652061E-03 -3.14530433332E-01 +3.75344433548E-01
4.47500000000E+09 -3.15037897266E-01 +3.58897167715E-01 -5.88967680978E-03 +2.51877517784E-03 -5.80124739967E-03 +2.62046575576E-03 -3.02776063118E-01 +3.91347854445E-01
4.48000000000E+09 -3.02390137625E-01 +3.76134464417E-01 -4.87835649004E-03 +3.80567280858E-03 -4.69840317658E-03 +3.80867674780E-03 -2.90989986355E-01 +4.07910469383E-01
4.48500000000E+09 -2.89888762036E-01 +3.94042715174E-01 -4.14167916138E-03 +4.15597080066E-03 -3.92188363717E-03 +4.16298156114E-03 -2.79034553616E-01 +4.23927898928E-01
4.49000000000E+09 -2.79594964427E-01 +4.10995109209E-01 -3.68849176050E-03 +4.51292710657E-03 -3.55868821868E-03 +4.41896798105E-03 -2.65644142841E-01 +4.39963058712E-01
4.49500000000E+09 -2.71323807125E-01 +4.28523242867E-01 -3.01431820489E-03 +4.67814936380E-03 -2.92392642086E-03 +4.59541891794E-03 -2.51970030340E-01 +4.53500076241E-01
4.50000000000E+09 -2.64087574812E-01 +4.43245001931E-01 -2.56443574834E-03 +4.90912415831E-03 -2.53051589606E-03 +4.83675643798E-03 -2.39049237885E-01 +4.67062084209E-01
4.50500000000E+09 -2.58649328155E-01 +4.56115986148E-01 -1.83879783813E-03 +4.95468494354E-03 -1.76530345401E-03 +4.95699597071E-03 -2.25375168181E-01 +4.79981105628E-01
4.51000000000E+09 -2.52337200026E-01 +4.67055970474E-01 -1.40506558821E-03 +4.75897577822E-03 -1.31472184345E-03 +4.71846258390E-03 -2.12072669596E-01 +4.92420385258E-01
4.51500000000E+09 -2.44354622991E-01 +4.76025540648E-01 -1.15058116482E-03 +4.88371120265E-03 -1.06185679500E-03 +4.87220191967E-03 -1.98651153974E-01 +5.04287647545E-01
4.52000000000E+09 -2.34743896374E-01 +4.83289241963E-01 -9.10645954931E-04 +4.91289107228E-03 -7.86976476145E-04 +4.88150802088E-03 -1.84935958044E-01 +5.15824598368E-01
4.52500000000E+09 -2.23342358863E-01 +4.90804704401E-01 -4.29220729668E-04 +4.90196321945E-03 -2.98393427856E-04 +4.86125769939E-03 -1.71735440041E-01 +5.26032859563E-01
4.53000000000E+09 -2.09754138469E-01 +4.98338758543E-01 -1.17988055496E-04 +5.49792341872E-03 -2.39635620826E-05 +5.40058732672E-03 -1.58287933887E-01 +5.36843540460E-01
4.53500000000E+09 -1.95092638448E-01 +5.07864490951E-01 +9.30621146724E-04 +5.18527917397E-03 +1.00230214564E-03 +5.06601342787E-03 -1.43721210350E-01 +5.46942045202E-01
4.54000000000E+09 -1.79588533599E-01 +5.18604136476E-01 +1.33301063307E-03 +5.02694523232E-03 +1.38538102724E-03 +4.88656308641E-03 -1.29088814504E-01 +5.56921843718E-01
4.54500000000E+09 -1.64338156042E-01 +5.29441500100E-01 +1.58948704135E-03 +4.99096726233E-03 +1.66707566685E-03 +4.81177987644E-03 -1.13866094038E-01 +5.65826393261E-01
4.55000000000E+09 -1.51638729953E-01 +5.39847425698E-01 +2.65947311630E-03 +4.70042759604E-03 +2.72742129434E-03 +4.56793022836E-03 -9.92557881667E-02 +5.74461955428E-01
4.55500000000E+09 -1.41114236568E-01 +5.50830292054E-01 +2.79902841662E-03 +3.90422788772E-03 +2.82346885724E-03 +3.72283725422E-03 -8.55004755969E-02 +5.82590671532E-01
4.56000000000E+09 -1.31644825704E-01 +5.60900172098E-01 +2.73004105177E-03 +3.72551609673E-03 +2.77171164408E-03 +3.57447413933E-03 -7.12866990616E-02 +5.91537034298E-01
4.56500000000E+09 -1.23341776874E-01 +5.68772628478E-01 +3.29600813655E-03 +3.52404130130E-03 +3.32166381098E-03 +3.34838558011E-03 -5.68644149606E-02 +5.99078436116E-01
4.57000000000E+09 -1.14869962945E-01 +5.75578268238E-01 +3.27535873468E-03 +3.22883573337E-03 +3.26556562221E-03 +3.03726189458E-03 -4.20960685275E-02 +6.06357862863E-01
