# Hz S RI R 50
! CMT, C1220, 16058040, 17.2.0/1
! Date: 15/08/2018 12:09:41
! Data: Format (Calibration Info)
! Freq                      S11: Re/Im (F2)                       S21: Re/Im (F2)                       S12: Re/Im (F2)                       S22: Re/Im (F2)            
4.00000000000E+09 +6.50835689976E-01 -3.53509755807E-01 -1.94840373855E-04 -3.59479045343E-04 -2.41781271166E-04 -3.73233283918E-04 +7.66236168641E-01 -3.20609938223E-01
4.00500000000E+09 +6.42784482083E-01 -3.59464574094E-01 -1.54913457817E-04 -1.66358420376E-04 -1.99927035561E-04 -1.73867646361E-04 +7.57015200393E-01 -3.30964348983E-01
4.01000000000E+09 +6.34040907523E-01 -3.65117577552E-01 +1.17768952486E-04 -2.88422564893E-04 +1.21798765226E-04 -2.53879087894E-04 +7.47315619556E-01 -3.41301539220E-01
4.01500000000E+09 +6.24152226684E-01 -3.71967005074E-01 -3.88223545342E-05 -6.38855883507E-04 -5.87120107822E-05 -6.38019213495E-04 +7.37711212310E-01 -3.51056093965E-01
4.02000000000E+09 +6.12934122588E-01 -3.79914999395E-01 -4.85957943336E-04 -6.18801985424E-04 -5.70570994379E-04 -6.34378894536E-04 +7.27516632806E-01 -3.61150777787E-01
4.02500000000E+09 +6.01115883240E-01 -3.88476440871E-01 -6.19399414259E-04 -3.16632713173E-04 -6.47762470977E-04 -3.20886795817E-04 +7.16789229242E-01 -3.70579620856E-01
4.03000000000E+09 +5.89806770257E-01 -3.98060384757E-01 -5.69608426979E-04 -6.29674506522E-05 -5.60152206605E-04 +1.47605058547E-06 +7.06162271334E-01 -3.79858308406E-01
4.03500000000E+09 +5.79017645271E-01 -4.08982386449E-01 -2.59525468551E-04 +4.44011366250E-05 -2.39270062824E-04 +5.10028641367E-06 +6.95185501661E-01 -3.89589649777E-01
4.04000000000E+09 +5.68030454395E-01 -4.20044116921E-01 -2.05168047491E-04 -6.13556357204E-05 -2.53550742735E-04 -4.54935976669E-05 +6.83994632687E-01 -3.99631656586E-01
4.04500000000E+09 +5.57781810091E-01 -4.30238206666E-01 -2.12617085938E-04 -1.97199455044E-04 -2.04639518534E-04 -1.43408583496E-04 +6.72079299829E-01 -4.09432382351E-01
4.05000000000E+09 +5.46709704537E-01 -4.39077540078E-01 -2.14949328795E-04 -2.94874010801E-04 -1.40199822685E-04 -2.65222466086E-04 +6.60060550569E-01 -4.18154767773E-01
4.05500000000E+09 +5.35329283699E-01 -4.45177254105E-01 -5.09397521733E-04 -4.51254533472E-04 -4.78445479163E-04 -4.61257826017E-04 +6.47986639391E-01 -4.26728727749E-01
4.06000000000E+09 +5.24117344127E-01 -4.49608272614E-01 -6.32854913154E-04 -2.37837398833E-04 -6.32151253080E-04 -2.90007491943E-04 +6.35505830100E-01 -4.35028413468E-01
4.06500000000E+09 +5.12063340056E-01 -4.52934779000E-01 -7.86731354177E-04 -5.41149792731E-05 -7.90547400336E-04 -9.02346567382E-05 +6.22184553284E-01 -4.43209968061E-01
4.07000000000E+09 +4.99378844145E-01 -4.56351008706E-01 -7.76746908354E-04 +2.20971000028E-04 -7.64197051427E-04 +2.27364827949E-04 +6.08612435725E-01 -4.51194766419E-01
4.07500000000E+09 +4.84971598935E-01 -4.60785617891E-01 -5.39554794856E-04 +2.83793173378E-04 -4.94718611621E-04 +2.96161360014E-04 +5.94745143161E-01 -4.59347145320E-01
4.08000000000E+09 +4.68507774534E-01 -4.65814387556E-01 -5.82876399155E-04 +3.15493040562E-04 -5.93530816622E-04 +2.35991258482E-04 +5.81156368111E-01 -4.67129456402E-01
4.08500000000E+09 +4.51615137339E-01 -4.70965606917E-01 -4.75201372658E-04 +4.47458829742E-04 -4.86382460515E-04 +4.48195484624E-04 +5.67155397070E-01 -4.75321066082E-01
4.09000000000E+09 +4.34787072660E-01 -4.77535744227E-01 -1.62779076727E-04 +3.04825286031E-04 -2.19747480003E-04 +2.39987945536E-04 +5.52412691395E-01 -4.81912295172E-01
4.09500000000E+09 +4.17939802023E-01 -4.84332276394E-01 -5.23757760867E-04 +3.56850768846E-05 -5.70170503279E-04 -3.07401125255E-05 +5.38480903641E-01 -4.88398987899E-01
4.10000000000E+09 +4.00463267931E-01 -4.90783028249E-01 -7.80421899889E-04 +3.33098654442E-04 -8.23893389905E-04 +2.96505501448E-04 +5.22441988502E-01 -4.94973364592E-01
4.10500000000E+09 +3.84056107850E-01 -4.95024055600E-01 -8.13922291483E-04 +8.61037353756E-04 -8.99858928274E-04 +8.27977306274E-04 +5.06302626199E-01 -5.00498966056E-01
4.11000000000E+09 +3.68332432561E-01 -4.97444604252E-01 -4.16355748797E-04 +1.22138007227E-03 -4.89709800433E-04 +1.21127131890E-03 +4.89880742421E-01 -5.06245800272E-01
4.11500000000E+09 +3.53954669884E-01 -4.98502291655E-01 +3.69728803933E-04 +1.17280169214E-03 +3.14420723675E-04 +1.17522912810E-03 +4.73382321396E-01 -5.11302312713E-01
4.12000000000E+09 +3.38983666161E-01 -4.99341713213E-01 +4.15490646198E-04 +4.12347046828E-04 +3.37465558899E-04 +4.23995623682E-04 +4.57344775977E-01 -5.16869862217E-01
4.12500000000E+09 +3.22841570275E-01 -5.00150918901E-01 +3.85043998094E-05 +3.36944420507E-04 +1.26563651492E-05 +3.73419376178E-04 +4.39999577308E-01 -5.21746306736E-01
4.13000000000E+09 +3.04715807131E-01 -5.01138490588E-01 -5.76310581878E-05 +4.72678415453E-04 -8.60190258533E-05 +5.33592779876E-04 +4.23140812142E-01 -5.25211027175E-01
4.13500000000E+09 +2.84738938989E-01 -5.02137890511E-01 -1.41050207168E-04 +5.95184286977E-04 -1.62459749191E-04 +7.35517103163E-04 +4.05726920914E-01 -5.29064489968E-01
4.14000000000E+09 +2.64776365521E-01 -5.03143453213E-01 +1.84109044965E-04 +9.57942170538E-04 +1.53732181050E-04 +1.09294597752E-03 +3.87178646054E-01 -5.32226944132E-01
4.14500000000E+09 +2.45096005590E-01 -5.06046435609E-01 +5.66963597278E-04 +6.52600071441E-04 +6.34776980398E-04 +7.69260737562E-04 +3.69027041227E-01 -5.35052018921E-01
4.15000000000E+09 +2.24913498698E-01 -5.10268323455E-01 +4.49168882071E-04 +4.31310164466E-04 +5.39956181343E-04 +5.27499191073E-04 +3.50709888718E-01 -5.37683335100E-01
4.15500000000E+09 +2.04871836600E-01 -5.14366581317E-01 +4.22629145065E-04 +4.21329389915E-04 +4.99107829602E-04 +4.89867162151E-04 +3.32423632597E-01 -5.39332602212E-01
4.16000000000E+09 +1.85615183923E-01 -5.16819042527E-01 +5.22429116141E-04 +2.97468637315E-04 +6.57024558884E-04 +3.54875458114E-04 +3.14396074516E-01 -5.40463492211E-01
4.16500000000E+09 +1.67863117701E-01 -5.17351538916E-01 +4.41935770612E-04 +1.36880212012E-04 +5.50691591255E-04 +1.55691524236E-04 +2.95514517792E-01 -5.40722518186E-01
4.17000000000E+09 +1.51721451007E-01 -5.15649594050E-01 +4.75471000540E-04 +2.96369175932E-04 +5.67954834997E-04 +2.75674370981E-04 +2.76546786671E-01 -5.39918764446E-01
4.17500000000E+09 +1.36763903965E-01 -5.12363011499E-01 +3.38025214374E-04 -1.34648091517E-04 +3.57624296108E-04 -1.39310056487E-04 +2.57513892652E-01 -5.38743106155E-01
4.18000000000E+09 +1.21986017653E-01 -5.08021928340E-01 -2.66895259037E-06 +3.42928397554E-04 +7.36943478066E-05 +2.96295511934E-04 +2.37670886288E-01 -5.37353622390E-01
4.18500000000E+09 +1.06178902387E-01 -5.03264270534E-01 +2.90768968848E-04 +5.46736071400E-04 +3.49254358298E-04 +4.62420809036E-04 +2.18056689191E-01 -5.35143987766E-01
4.19000000000E+09 +8.89057025870E-02 -4.97617428851E-01 +6.72111639294E-04 +4.34967670048E-04 +6.46681562733E-04 +3.93077506511E-04 +1.98556960834E-01 -5.32462878511E-01
4.19500000000E+09 +7.06688369874E-02 -4.92179248801E-01 +6.81107649987E-04 +2.66059302895E-04 +6.92301120068E-04 +1.92198817653E-04 +1.79400746227E-01 -5.28919002310E-01
4.20000000000E+09 +5.15845054373E-02 -4.87014608322E-01 +7.62490907141E-04 +1.76482336070E-04 +7.02302072382E-04 +1.39441580574E-04 +1.59778594439E-01 -5.25446086419E-01
4.20500000000E+09 +3.21738873272E-02 -4.82575386155E-01 +7.91807015959E-04 +7.10638175786E-05 +7.78648846549E-04 +7.06579742796E-06 +1.39683149587E-01 -5.19883839766E-01
4.21000000000E+09 +1.29498503948E-02 -4.77825885129E-01 +4.53968846634E-04 -2.22927865702E-04 +4.44950330926E-04 -2.64376789316E-04 +1.20315022147E-01 -5.14296706937E-01
4.21500000000E+09 -5.57836579994E-03 -4.72077745457E-01 +3.89026600468E-04 +2.68388071021E-04 +3.45816128192E-04 +2.66590206750E-04 +1.00538104814E-01 -5.08378932236E-01
4.22000000000E+09 -2.16310821966E-02 -4.65252598200E-01 +9.93216875357E-04 +4.01276081705E-04 +9.39642736684E-04 +4.50984742200E-04 +8.13180428125E-02 -5.01135584910E-01
4.22500000000E+09 -3.65201556931E-02 -4.57746329117E-01 +1.24013752505E-03 -2.24368526879E-04 +1.18353185984E-03 -2.43141823624E-04 +6.32175104211E-02 -4.94128662809E-01
4.23000000000E+09 -5.11230128662E-02 -4.48854359668E-01 +9.96930959364E-04 -5.64782042659E-04 +9.62761139903E-04 -5.08737391586E-04 +4.44865017395E-02 -4.86587300029E-01
4.23500000000E+09 -6.59619473425E-02 -4.37964970111E-01 +5.23304344738E-04 -5.44418886028E-04 +5.21077058290E-04 -5.05278769000E-04 +2.62460981280E-02 -4.77546366578E-01
4.24000000000E+09 -8.13445540854E-02 -4.25902447148E-01 +6.94294635889E-04 -2.70059744718E-04 +7.15769858869E-04 -2.04883933906E-04 +8.03103104935E-03 -4.68373242762E-01
4.24500000000E+09 -9.84637324571E-02 -4.13155661259E-01 +1.08200274411E-03 -5.17047090422E-04 +1.15474472975E-03 -4.88647386645E-04 -1.06962173782E-02 -4.57950294744E-01
4.25000000000E+09 -1.17114804056E-01 -3.99378311099E-01 +1.05892026576E-03 -1.04760537240E-03 +1.09544154223E-03 -1.07933268471E-03 -2.81619304313E-02 -4.46501967803E-01
4.25500000000E+09 -1.36002730313E-01 -3.85977346664E-01 +5.53372921559E-04 -1.26958196369E-03 +6.13539051697E-04 -1.28469644319E-03 -4.57968109970E-02 -4.35265002128E-01
4.26000000000E+09 -1.55838816981E-01 -3.73889175400E-01 +3.11185395131E-04 -1.19306163261E-03 +3.38481273610E-04 -1.23749853251E-03 -6.33391957995E-02 -4.22180195377E-01
4.26500000000E+09 -1.75536818688E-01 -3.61866956794E-01 +2.40651041552E-04 -1.21850357847E-03 +2.88202048432E-04 -1.17470041238E-03 -7.87050933004E-02 -4.08751032635E-01
4.27000000000E+09 -1.93759637859E-01 -3.49853194196E-01 +4.61165773684E-05 -1.39561660266E-03 +2.90245699315E-05 -1.46014636423E-03 -9.48923338998E-02 -3.95710415097E-01
4.27500000000E+09 -2.09485109735E-01 -3.38032378758E-01 -2.76900939704E-04 -1.21258091232E-03 -2.08976524662E-04 -1.22463961301E-03 -1.11177200161E-01 -3.81057901959E-01
4.28000000000E+09 -2.23118893409E-01 -3.25818083944E-01 -4.45818480105E-04 -1.20761769238E-03 -4.01987414723E-04 -1.17884590250E-03 -1.26346304603E-01 -3.66463921206E-01
4.28500000000E+09 -2.35569533253E-01 -3.12020358701E-01 -6.17328187177E-04 -9.25908326476E-04 -6.39111713333E-04 -9.88077654477E-04 -1.41988922762E-01 -3.51835354646E-01
4.29000000000E+09 -2.45852885892E-01 -2.96178158338E-01 -4.68362834904E-04 -7.90113948730E-04 -4.52033743052E-04 -8.77116421832E-04 -1.57113725850E-01 -3.36295957808E-01
4.29500000000E+09 -2.56133315002E-01 -2.79177648491E-01 -6.83636830938E-04 -1.10078836811E-03 -7.49610993103E-04 -1.19523566666E-03 -1.71191124392E-01 -3.19695301588E-01
4.30000000000E+09 -2.66404336930E-01 -2.60545881142E-01 -9.18109283946E-04 -6.21844127565E-04 -9.93994006591E-04 -6.73482116144E-04 -1.83454122847E-01 -3.02662649912E-01
4.30500000000E+09 -2.78132993613E-01 -2.40838541814E-01 -8.63038331034E-04 -7.41900597207E-04 -8.98461009020E-04 -7.45637644705E-04 -1.94922027803E-01 -2.85767115838E-01
4.31000000000E+09 -2.90862510934E-01 -2.20714262671E-01 -9.71568766730E-04 -5.74877488408E-04 -1.04797573755E-03 -5.67838821396E-04 -2.05859161135E-01 -2.68159534976E-01
4.31500000000E+09 -3.04475049195E-01 -2.01154281387E-01 -1.09937452170E-03 -4.17335598203E-04 -1.16292915375E-03 -4.27885017827E-04 -2.16253230486E-01 -2.50923319982E-01
4.32000000000E+09 -3.18623379409E-01 -1.81753352230E-01 -1.26368963726E-03 -2.52034955281E-04 -1.30051932383E-03 -2.48232019877E-04 -2.27186087194E-01 -2.32883549739E-01
4.32500000000E+09 -3.30431163897E-01 -1.62908819017E-01 -1.03815733569E-03 +1.93413301794E-04 -1.11127356633E-03 +1.89648460700E-04 -2.36144822494E-01 -2.13924430761E-01
4.33000000000E+09 -3.39659159506E-01 -1.46312506243E-01 -9.36033237726E-04 +1.35216516183E-04 -9.80629119518E-04 +1.57596920156E-04 -2.45372807891E-01 -1.95868477896E-01
4.33500000000E+09 -3.47343114025E-01 -1.30818338612E-01 -7.34091682984E-04 +2.35268158001E-04 -7.77122050447E-04 +3.03472876043E-04 -2.54307497660E-01 -1.75987032446E-01
4.34000000000E+09 -3.52855611216E-01 -1.14834145012E-01 -6.73702042751E-04 +1.86179612899E-05 -7.21356874944E-04 +1.07776499491E-05 -2.61417911207E-01 -1.55775115655E-01
4.34500000000E+09 -3.56094509932E-01 -9.85039934441E-02 -9.49436550018E-04 +9.15994320283E-05 -9.78538976860E-04 +1.17858984154E-04 -2.68312127096E-01 -1.36054925648E-01
4.35000000000E+09 -3.58216124338E-01 -8.03118857897E-02 -1.07158416864E-03 +3.64793887264E-04 -1.05969961648E-03 +4.21699901539E-04 -2.74641535645E-01 -1.16278188166E-01
4.35500000000E+09 -3.60775352866E-01 -5.94854747378E-02 -7.27300270433E-04 +5.77806153356E-04 -7.42209727443E-04 +6.02862786288E-04 -2.80563113348E-01 -9.66161833984E-02
4.36000000000E+09 -3.62134919817E-01 -3.69003047367E-02 -8.35575241441E-04 +3.84976892386E-04 -8.03569870565E-04 +4.25643693997E-04 -2.85636672510E-01 -7.72708330202E-02
4.36500000000E+09 -3.64206451946E-01 -1.33347532194E-02 -8.27357281340E-04 +7.44207999260E-04 -7.94890146686E-04 +8.39608415662E-04 -2.89617487559E-01 -5.72817974271E-02
4.37000000000E+09 -3.67293977436E-01 +9.35066478579E-03 -5.05246781383E-04 +6.46658240321E-04 -4.22853003350E-04 +7.17402670786E-04 -2.92292315837E-01 -3.83035065369E-02
4.37500000000E+09 -3.71912369310E-01 +3.09815581253E-02 -5.55829465098E-04 +7.00782859321E-04 -4.60873084509E-04 +7.30286118082E-04 -2.95299476470E-01 -1.82612573939E-02
4.38000000000E+09 -3.77163089225E-01 +5.10055775863E-02 -4.39403377350E-04 +7.44001526839E-04 -3.75522182288E-04 +7.19076449389E-04 -2.96828594342E-01 +2.32771950723E-03
4.38500000000E+09 -3.81759008469E-01 +6.95051201884E-02 -5.01957953647E-04 +8.52527529394E-04 -4.37295753923E-04 +7.84551484863E-04 -2.97880078499E-01 +2.23955383456E-02
4.39000000000E+09 -3.85423327798E-01 +8.61556584705E-02 -3.77374752924E-04 +8.44864275674E-04 -3.02127156130E-04 +8.21703702048E-04 -2.98454218545E-01 +4.28809005096E-02
4.39500000000E+09 -3.85998398128E-01 +1.01694282656E-01 -2.61898545286E-04 +1.18312943462E-03 -1.88319383486E-04 +1.11253029637E-03 -2.98764836111E-01 +6.21889197447E-02
4.40000000000E+09 -3.84132951920E-01 +1.16195906997E-01 +4.60987345814E-05 +9.51115877760E-04 +5.27340703299E-05 +9.10234500902E-04 -2.98168097300E-01 +8.22176161426E-02
4.40500000000E+09 -3.80465529993E-01 +1.31100521132E-01 -3.73160156766E-05 +9.11482831568E-04 +8.19249683513E-06 +9.21092957392E-04 -2.95942009616E-01 +1.01295984254E-01
4.41000000000E+09 -3.75686959093E-01 +1.47699243057E-01 +1.37209978678E-05 +1.14636766753E-03 +5.44064829652E-05 +1.09651287604E-03 -2.93863262262E-01 +1.19974685732E-01
4.41500000000E+09 -3.69536065518E-01 +1.66840527766E-01 +4.65103062452E-04 +9.94681553560E-04 +5.12407951686E-04 +9.73964202152E-04 -2.90434742394E-01 +1.39314511893E-01
4.42000000000E+09 -3.63052701633E-01 +1.87976524600E-01 +4.70945678842E-04 +8.67426457055E-04 +4.91533708958E-04 +7.70357331650E-04 -2.86343810072E-01 +1.58477418339E-01
4.42500000000E+09 -3.56607727190E-01 +2.09632104380E-01 +6.01814871597E-04 +6.08535836180E-04 +6.20565746308E-04 +5.52829959035E-04 -2.81971975810E-01 +1.76671736409E-01
4.43000000000E+09 -3.51567082728E-01 +2.31062429380E-01 +3.14170848323E-04 +6.60289107668E-04 +2.34018908863E-04 +6.88582134087E-04 -2.77904644680E-01 +1.94622279330E-01
4.43500000000E+09 -3.48049555153E-01 +2.51479683709E-01 +4.53857105772E-04 +7.13265760402E-04 +4.36311078229E-04 +7.28398849684E-04 -2.74129373296E-01 +2.12780519780E-01
4.44000000000E+09 -3.45129928719E-01 +2.70620122316E-01 +5.96154791742E-04 +8.27283584253E-04 +5.82737523271E-04 +8.49806563425E-04 -2.69124971668E-01 +2.31578715003E-01
4.44500000000E+09 -3.41787875097E-01 +2.87236907875E-01 +1.11690913661E-03 +8.09902544012E-04 +1.07964864768E-03 +8.22550707428E-04 -2.61898389660E-01 +2.48900578182E-01
4.45000000000E+09 -3.37806975158E-01 +3.01225875649E-01 +1.18048087106E-03 +2.21916382776E-04 +1.14991942474E-03 +1.97185686178E-04 -2.55106926757E-01 +2.64834739695E-01
4.45500000000E+09 -3.32630995603E-01 +3.13942501690E-01 +9.37016902280E-04 +3.72384992883E-05 +9.30126664715E-04 +7.20214690560E-05 -2.47522180229E-01 +2.81339866158E-01
4.46000000000E+09 -3.25118940618E-01 +3.25848151761E-01 +9.19522331115E-04 -1.27786987297E-04 +8.75916910186E-04 -1.19418654935E-04 -2.39811052763E-01 +2.96799976764E-01
4.46500000000E+09 -3.16096160202E-01 +3.38273192498E-01 +6.49615911305E-04 -3.33164956482E-05 +6.81548411249E-04 +3.02627292470E-06 -2.31777680827E-01 +3.12516478449E-01
4.47000000000E+09 -3.04967431910E-01 +3.52677815729E-01 +8.33921624737E-04 -2.77909041711E-04 +8.16309326768E-04 -2.52984441713E-04 -2.23146917526E-01 +3.27982834732E-01
4.47500000000E+09 -2.92187509538E-01 +3.68266351023E-01 +4.74472346339E-04 -2.99582249230E-04 +4.62531412990E-04 -2.54700933604E-04 -2.14710236614E-01 +3.42818243220E-01
4.48000000000E+09 -2.79388532794E-01 +3.84770848217E-01 +4.31879492034E-04 -8.21008894957E-05 +4.92938989267E-04 -1.27187867472E-04 -2.05635578416E-01 +3.57872758235E-01
4.48500000000E+09 -2.68086770796E-01 +4.01605553894E-01 +5.71677480448E-04 +8.96474173098E-05 +6.24792377203E-04 +6.96740335472E-05 -1.95609867010E-01 +3.71905360999E-01
4.49000000000E+09 -2.58422009829E-01 +4.18469885134E-01 +8.37984585453E-04 -1.89339658550E-04 +8.46769588711E-04 -2.27209673680E-04 -1.85526984581E-01 +3.85180754373E-01
4.49500000000E+09 -2.50904045879E-01 +4.34317584352E-01 +8.59346542458E-04 -5.80816189538E-04 +8.66017209703E-04 -6.45915534830E-04 -1.75518651011E-01 +3.98069349982E-01
4.50000000000E+09 -2.44780756539E-01 +4.48856345436E-01 +2.91104260707E-04 -5.35734517769E-04 +2.82314155827E-04 -5.77862245479E-04 -1.65114840566E-01 +4.10778607593E-01
4.50500000000E+09 -2.38896417364E-01 +4.61394918773E-01 +3.93840953569E-04 -5.78174130908E-04 +4.15865253357E-04 -6.00400954466E-04 -1.54802195656E-01 +4.23246474238E-01
4.51000000000E+09 -2.32626825316E-01 +4.70981383186E-01 +3.88974256393E-05 -3.88022495538E-04 -1.33949839146E-05 -4.61390407804E-04 -1.43508131055E-01 +4.35222670263E-01
4.51500000000E+09 -2.25112469877E-01 +4.79205732940E-01 +1.01320304194E-04 -2.53570288580E-04 +4.76207713241E-05 -3.21981210588E-04 -1.33211325469E-01 +4.46423530803E-01
4.52000000000E+09 -2.15340603632E-01 +4.86543797386E-01 +1.86047581595E-04 -4.57000173224E-05 +1.38744357034E-04 -3.81713564725E-05 -1.22368799540E-01 +4.57578191360E-01
4.52500000000E+09 -2.03414100072E-01 +4.93402785031E-01 +5.13738750557E-04 -4.71380835362E-06 +4.67374001938E-04 -2.67263259955E-05 -1.10632404654E-01 +4.68243040827E-01
4.53000000000E+09 -1.89809037680E-01 +5.01271547308E-01 +8.27898977659E-04 -4.99473462847E-04 +8.24037163327E-04 -4.38277930146E-04 -9.90968074206E-02 +4.77403051144E-01
4.53500000000E+09 -1.74769668750E-01 +5.10550969285E-01 +3.47956216901E-04 -6.49255541904E-04 +3.34399181338E-04 -6.13128530215E-04 -8.72133350526E-02 +4.87384630283E-01
4.54000000000E+09 -1.59402133687E-01 +5.20670996861E-01 +4.09318549886E-04 -5.70961566961E-04 +3.73533998600E-04 -5.82823290170E-04 -7.46010773767E-02 +4.96521279858E-01
4.54500000000E+09 -1.44524651273E-01 +5.31479564939E-01 +2.81431911711E-04 -8.85739483394E-04 +2.17707307626E-04 -8.19733928646E-04 -6.27936078129E-02 +5.05307013051E-01
4.55000000000E+09 -1.31666289253E-01 +5.42012999632E-01 +4.87087843100E-05 -9.29242929397E-04 +8.59093584911E-05 -8.57761331152E-04 -5.01375011505E-02 +5.14480181510E-01
4.55500000000E+09 -1.20830481220E-01 +5.51963750056E-01 -2.54356990000E-04 -7.35486763018E-04 -2.54321581562E-04 -6.24565331284E-04 -3.82010898991E-02 +5.22771813836E-01
4.56000000000E+09 -1.11446900332E-01 +5.60509766703E-01 -2.16492185430E-04 -2.68636338419E-04 -1.47854067037E-04 -2.71689249741E-04 -2.56783377203E-02 +5.30743116457E-01
4.56500000000E+09 -1.03027160910E-01 +5.67415527228E-01 +3.12621396189E-04 -4.13088636689E-04 +3.19237211779E-04 -3.98028295869E-04 -1.34085253978E-02 +5.37723391931E-01
4.57000000000E+09 -9.45700608013E-02 +5.72697907035E-01 +1.76816903634E-04 -9.61972124657E-04 +1.42624917138E-04 -8.76454337983E-04 -1.20919380992E-03 +5.44638259819E-01
