# Hz S RI R 50
! CMT, C1220, 16058040, 17.2.0/1
! Date: 15/08/2018 12:19:06
! Data: Format (Calibration Info)
! Freq                      S11: Re/Im (F2)                       S21: Re/Im (F2)                       S12: Re/Im (F2)                       S22: Re/Im (F2)            
4.00000000000E+09 +6.48921284985E-01 -3.52894516630E-01 +6.78475001578E-04 +1.43839524935E-04 +6.62360470206E-04 +2.06696639450E-04 +7.40840042186E-01 -3.25997065308E-01
4.00500000000E+09 +6.40839419018E-01 -3.59153627497E-01 +7.28382590975E-04 +3.04206546510E-04 +7.20040946495E-04 +2.86787946399E-04 +7.30300447605E-01 -3.36616366317E-01
4.01000000000E+09 +6.31975765412E-01 -3.65839162028E-01 +1.05589668645E-03 +5.42734461931E-05 +1.03935777694E-03 +9.10652429975E-05 +7.19176386080E-01 -3.47336044517E-01
4.01500000000E+09 +6.21340264468E-01 -3.73476283367E-01 +1.12892960659E-03 -3.03784185684E-04 +1.10822902173E-03 -2.39121358871E-04 +7.07935091226E-01 -3.57242330008E-01
4.02000000000E+09 +6.10247519099E-01 -3.81648391189E-01 +7.59550765717E-04 -6.52488965821E-04 +8.40275229092E-04 -6.08112155279E-04 +6.96382050335E-01 -3.67063704190E-01
4.02500000000E+09 +5.98675250159E-01 -3.90678561162E-01 +4.67311486069E-04 -3.55303994128E-04 +4.82922573600E-04 -2.84551784446E-04 +6.84211855129E-01 -3.76688464467E-01
4.03000000000E+09 +5.87324896224E-01 -4.00055822323E-01 +7.68514358167E-04 -2.23513707356E-04 +8.26215711719E-04 -1.75412500950E-04 +6.71458390198E-01 -3.85798522878E-01
4.03500000000E+09 +5.76608761524E-01 -4.10247562130E-01 +1.01451850987E-03 -4.96325607216E-04 +1.11794919293E-03 -4.10681713017E-04 +6.58599440045E-01 -3.95301561384E-01
4.04000000000E+09 +5.66056277039E-01 -4.20670802716E-01 +9.43938704580E-04 -8.87438488122E-04 +9.45880899667E-04 -8.65299299268E-04 +6.45220366688E-01 -4.05344959026E-01
4.04500000000E+09 +5.54947519203E-01 -4.30498009016E-01 +4.29088050489E-04 -1.05090477345E-03 +5.93538237722E-04 -1.02789478784E-03 +6.31025946128E-01 -4.14650706021E-01
4.05000000000E+09 +5.42987856317E-01 -4.38104613870E-01 +3.32096311749E-04 -8.57745949579E-04 +3.39385699791E-04 -9.12571749217E-04 +6.17326526866E-01 -4.22918619909E-01
4.05500000000E+09 +5.31417160553E-01 -4.42867659584E-01 +4.23318177638E-04 -8.14443612234E-04 +5.07314184191E-04 -8.00156288417E-04 +6.03380920977E-01 -4.31035756729E-01
4.06000000000E+09 +5.20059684308E-01 -4.46941561034E-01 +4.84336821236E-04 -9.39880768207E-04 +5.06128020856E-04 -9.91441517039E-04 +5.89260671942E-01 -4.38950449439E-01
4.06500000000E+09 +5.07531476409E-01 -4.50614718088E-01 +4.85809424937E-04 -1.26195662403E-03 +5.27415150374E-04 -1.33036590484E-03 +5.73609227945E-01 -4.46820646154E-01
4.07000000000E+09 +4.93736738490E-01 -4.54638252438E-01 -1.02320269026E-04 -1.49435056241E-03 -5.92139246134E-05 -1.50176681639E-03 +5.57731371547E-01 -4.54106387693E-01
4.07500000000E+09 +4.78461882211E-01 -4.58869049927E-01 -3.04830220664E-04 -1.07642745654E-03 -2.66980355462E-04 -1.09140068857E-03 +5.41276799015E-01 -4.61508199175E-01
4.08000000000E+09 +4.61926580838E-01 -4.63951935113E-01 -2.45699849440E-04 -1.02580102707E-03 -1.95329025131E-04 -1.09145911034E-03 +5.24895221905E-01 -4.67875971833E-01
4.08500000000E+09 +4.44919358582E-01 -4.69087095137E-01 -3.43445634818E-04 -9.20798709944E-04 -2.70795386655E-04 -9.72068929184E-04 +5.08687572910E-01 -4.75303566991E-01
4.09000000000E+09 +4.28404169101E-01 -4.75210967757E-01 -1.75112436460E-04 -1.02858317526E-03 -1.61340160957E-04 -1.11285640063E-03 +4.90684644024E-01 -4.80674393168E-01
4.09500000000E+09 +4.11840675978E-01 -4.81914676425E-01 -3.30211293411E-04 -1.25602008268E-03 -3.81569558930E-04 -1.35405558573E-03 +4.74179040288E-01 -4.85317232689E-01
4.10000000000E+09 +3.94784527988E-01 -4.87905624870E-01 -7.16263068262E-04 -1.15902715475E-03 -7.67762807754E-04 -1.21386230764E-03 +4.55714960724E-01 -4.90465362775E-01
4.10500000000E+09 +3.78643095694E-01 -4.91767394788E-01 -7.33758558997E-04 -9.17775776581E-04 -7.53288344047E-04 -1.00212637331E-03 +4.36840921993E-01 -4.93917325817E-01
4.11000000000E+09 +3.63031041579E-01 -4.94081713400E-01 -8.39029357399E-04 -9.25199019030E-04 -8.97559755512E-04 -9.97547109630E-04 +4.18104032346E-01 -4.97463913430E-01
4.11500000000E+09 +3.48489303131E-01 -4.95553511198E-01 -7.47718561869E-04 -1.13190428461E-03 -7.24897296424E-04 -1.19676200577E-03 +3.99434967975E-01 -5.00896460661E-01
4.12000000000E+09 +3.32715296906E-01 -4.97054938189E-01 -1.20795231586E-03 -1.26239931493E-03 -1.19268553575E-03 -1.27863663586E-03 +3.80041527628E-01 -5.03678747229E-01
4.12500000000E+09 +3.15420824415E-01 -4.97398911795E-01 -1.70772676753E-03 -9.22327065569E-04 -1.73361379499E-03 -9.67574953147E-04 +3.60419817518E-01 -5.05898396071E-01
4.13000000000E+09 +2.97480335096E-01 -4.98052448317E-01 -1.69369115803E-03 -2.85418472387E-04 -1.72757844249E-03 -2.73945104715E-04 +3.40471914863E-01 -5.07401291566E-01
4.13500000000E+09 +2.78056717991E-01 -4.98910962447E-01 -1.36000615496E-03 -1.08105956631E-04 -1.34216667622E-03 -1.57192305569E-04 +3.20032856818E-01 -5.08014116561E-01
4.14000000000E+09 +2.58796176417E-01 -5.00386888916E-01 -1.26656761795E-03 -3.98155226175E-04 -1.24876629646E-03 -4.12707615802E-04 +2.99328195319E-01 -5.08362473248E-01
4.14500000000E+09 +2.40009506458E-01 -5.03908808612E-01 -1.66108323508E-03 -3.54370266819E-04 -1.66713484581E-03 -3.87032329764E-04 +2.78324215262E-01 -5.07711514076E-01
4.15000000000E+09 +2.19924754230E-01 -5.08712346835E-01 -1.85364379548E-03 +3.11559867327E-06 -1.84160419988E-03 -4.26383051134E-05 +2.57718264515E-01 -5.06779083691E-01
4.15500000000E+09 +2.00088734736E-01 -5.12288363325E-01 -1.74995563834E-03 +1.48270888922E-04 -1.80695579399E-03 +1.06255189517E-04 +2.36538542676E-01 -5.04508120423E-01
4.16000000000E+09 +1.81821091001E-01 -5.14284305438E-01 -2.05601125242E-03 +3.86061488970E-04 -2.09533507310E-03 +3.87216048731E-04 +2.15727430797E-01 -5.00772773597E-01
4.16500000000E+09 +1.65062459509E-01 -5.14603575947E-01 -2.04587490269E-03 +9.38949666322E-04 -2.06276868158E-03 +8.90079878592E-04 +1.94965454399E-01 -4.96463373168E-01
4.17000000000E+09 +1.49946492399E-01 -5.13600196995E-01 -1.84085976069E-03 +8.83164168697E-04 -1.89986920687E-03 +8.40636061144E-04 +1.73828988547E-01 -4.90919666687E-01
4.17500000000E+09 +1.35005709817E-01 -5.11153531293E-01 -2.09946806124E-03 +1.43857242914E-03 -2.16513824494E-03 +1.35201791150E-03 +1.52815955668E-01 -4.84647277162E-01
4.18000000000E+09 +1.19910251962E-01 -5.07568496564E-01 -1.78330723776E-03 +2.16876107655E-03 -1.85302505461E-03 +2.11156943051E-03 +1.32162386841E-01 -4.77321348577E-01
4.18500000000E+09 +1.03576041368E-01 -5.03262344771E-01 -1.05234508032E-03 +2.38328793446E-03 -1.11393614445E-03 +2.40060841795E-03 +1.12423119775E-01 -4.70157647969E-01
4.19000000000E+09 +8.61278840224E-02 -4.97464296168E-01 -7.09980302391E-04 +2.20736884547E-03 -8.56859756091E-04 +2.19863061168E-03 +9.14237211107E-02 -4.62603303645E-01
4.19500000000E+09 +6.89107750003E-02 -4.91345620469E-01 -5.67350887929E-04 +1.96688576784E-03 -6.59712822083E-04 +2.07827494763E-03 +7.11214713006E-02 -4.52719707535E-01
4.20000000000E+09 +5.11089155873E-02 -4.86814024596E-01 -6.23107474045E-04 +2.26338476073E-03 -6.98483851241E-04 +2.37083090405E-03 +5.18324328842E-02 -4.42157965848E-01
4.20500000000E+09 +3.25455562532E-02 -4.82556164215E-01 -5.00578528951E-04 +2.36595202710E-03 -5.72141322149E-04 +2.42133967596E-03 +3.20674226105E-02 -4.31877506058E-01
4.21000000000E+09 +1.39542400539E-02 -4.77666433513E-01 -1.92030539269E-04 +3.12686297409E-03 -2.46513811826E-04 +3.29129246276E-03 +1.26332373799E-02 -4.20152111221E-01
4.21500000000E+09 -3.76875416221E-03 -4.71663584130E-01 +9.19305791800E-04 +3.30262260375E-03 +9.47503852117E-04 +3.45286464101E-03 -6.07525045025E-03 -4.08887267551E-01
4.22000000000E+09 -2.00073930872E-02 -4.64329056752E-01 +1.58136242020E-03 +2.66460118740E-03 +1.58790338876E-03 +2.80440795721E-03 -2.50414007768E-02 -3.96519860151E-01
4.22500000000E+09 -3.45553538512E-02 -4.55977924014E-01 +1.81656288941E-03 +2.32970477662E-03 +1.84236320349E-03 +2.46467679820E-03 -4.30115108184E-02 -3.82558656903E-01
4.23000000000E+09 -4.90592663278E-02 -4.47156334144E-01 +2.08079662294E-03 +1.85388640651E-03 +2.15266988612E-03 +1.94364070464E-03 -5.98943444651E-02 -3.68223170352E-01
4.23500000000E+09 -6.48869890593E-02 -4.36404867137E-01 +2.05506155156E-03 +1.71895155754E-03 +2.19114468356E-03 +1.76651345380E-03 -7.74040654725E-02 -3.52845726609E-01
4.24000000000E+09 -8.11822593096E-02 -4.24055618688E-01 +2.15374835132E-03 +1.50328241303E-03 +2.25503799398E-03 +1.53658786808E-03 -9.36493807036E-02 -3.35518217346E-01
4.24500000000E+09 -9.80501814752E-02 -4.10785995479E-01 +2.60125383320E-03 +1.50993627734E-03 +2.70507063107E-03 +1.54515301376E-03 -1.09389747605E-01 -3.17996521663E-01
4.25000000000E+09 -1.16311429497E-01 -3.97992842977E-01 +3.03474070505E-03 +9.36198653444E-04 +3.15425753176E-03 +8.83874060915E-04 -1.23628229094E-01 -2.99694331712E-01
4.25500000000E+09 -1.34560422901E-01 -3.85741474301E-01 +3.11482198472E-03 +2.98611084384E-04 +3.22797468950E-03 +2.13821887618E-04 -1.37051586261E-01 -2.81684940222E-01
4.26000000000E+09 -1.53922137963E-01 -3.74788638510E-01 +2.72272938476E-03 -2.38762542371E-04 +2.72440229847E-03 -3.96107216169E-04 -1.50162888071E-01 -2.63410141244E-01
4.26500000000E+09 -1.73406016637E-01 -3.63788775457E-01 +2.62647143331E-03 -1.16649175310E-04 +2.71436684986E-03 -1.97115600435E-04 -1.62170596535E-01 -2.43473723396E-01
4.27000000000E+09 -1.90838852493E-01 -3.52150926465E-01 +3.05502293856E-03 -4.32175923477E-04 +3.02905727950E-03 -5.54167837496E-04 -1.73467434443E-01 -2.23114878087E-01
4.27500000000E+09 -2.06114803869E-01 -3.40831920519E-01 +3.07860148721E-03 -1.25645845847E-03 +3.01336271288E-03 -1.39795227119E-03 -1.83613200093E-01 -2.02497069258E-01
4.28000000000E+09 -2.19603434921E-01 -3.28245027027E-01 +2.33952276647E-03 -1.68922648651E-03 +2.27052248013E-03 -1.79742827956E-03 -1.93330929763E-01 -1.82008926758E-01
4.28500000000E+09 -2.31481889093E-01 -3.14772778879E-01 +2.47208436128E-03 -1.38589283091E-03 +2.40715354633E-03 -1.52195804558E-03 -2.01887048344E-01 -1.60892980449E-01
4.29000000000E+09 -2.42537801809E-01 -2.99503846397E-01 +2.46645700091E-03 -2.20164767468E-03 +2.35839902589E-03 -2.30498031181E-03 -2.09124788713E-01 -1.40860806990E-01
4.29500000000E+09 -2.53528298636E-01 -2.82245707535E-01 +2.01653729775E-03 -2.73087147097E-03 +1.91881856534E-03 -2.74104829096E-03 -2.16097880230E-01 -1.21364043947E-01
4.30000000000E+09 -2.64804538639E-01 -2.63935314758E-01 +1.29887966138E-03 -2.79917112330E-03 +1.20279203581E-03 -2.76769613059E-03 -2.21940630474E-01 -1.01015481747E-01
4.30500000000E+09 -2.77015685857E-01 -2.44394514972E-01 +1.16634258910E-03 -2.81309432312E-03 +1.14627372624E-03 -2.86208414825E-03 -2.26707455189E-01 -8.01458043586E-02
4.31000000000E+09 -2.89329693959E-01 -2.25347335617E-01 +8.27432675650E-04 -3.20231749651E-03 +7.33792425626E-04 -3.17525043563E-03 -2.30191785803E-01 -5.95186788511E-02
4.31500000000E+09 -3.03169410750E-01 -2.07477805791E-01 +1.33915585989E-04 -3.28040325922E-03 +6.76556026524E-05 -3.21345189976E-03 -2.33361080126E-01 -3.82657633029E-02
4.32000000000E+09 -3.16547434188E-01 -1.89714217775E-01 -2.58622652770E-04 -2.94258575807E-03 -3.07578794275E-04 -2.97135389524E-03 -2.35602280200E-01 -1.70558788392E-02
4.32500000000E+09 -3.28477440809E-01 -1.73171716432E-01 -2.93159425853E-04 -3.21224036020E-03 -3.51667226590E-04 -3.09961748708E-03 -2.37631308418E-01 +3.84205780589E-03
4.33000000000E+09 -3.37990710730E-01 -1.57226525305E-01 -1.23192734860E-03 -3.35938793044E-03 -1.23577703694E-03 -3.23504977225E-03 -2.38426626048E-01 +2.52283086105E-02
4.33500000000E+09 -3.45050541657E-01 -1.42744412666E-01 -1.54450474291E-03 -3.02770675418E-03 -1.55969078902E-03 -2.83885792425E-03 -2.38202777680E-01 +4.64160904754E-02
4.34000000000E+09 -3.50730047830E-01 -1.27561042056E-01 -2.26121482194E-03 -2.85096749473E-03 -2.21006457212E-03 -2.74904300996E-03 -2.36997297613E-01 +6.75373619798E-02
4.34500000000E+09 -3.54478049606E-01 -1.10625495310E-01 -2.58748792373E-03 -2.14441664974E-03 -2.50134521621E-03 -2.05646136299E-03 -2.34369972910E-01 +8.80388288318E-02
4.35000000000E+09 -3.56630027606E-01 -9.23252412979E-02 -2.52590379155E-03 -1.60373565513E-03 -2.40184327503E-03 -1.55887996492E-03 -2.31912532025E-01 +1.07177218927E-01
4.35500000000E+09 -3.59304558630E-01 -7.15642280450E-02 -2.60269305971E-03 -1.79076092362E-03 -2.53204132835E-03 -1.77990966611E-03 -2.28720420708E-01 +1.26427446533E-01
4.36000000000E+09 -3.61294751384E-01 -4.89481044013E-02 -3.12991680513E-03 -1.27301655876E-03 -3.08308525987E-03 -1.24088495868E-03 -2.24753813901E-01 +1.44538553919E-01
4.36500000000E+09 -3.64383706081E-01 -2.63849028790E-02 -3.41519949013E-03 -1.07350383669E-03 -3.35977275430E-03 -1.14613711540E-03 -2.20422255623E-01 +1.62272494368E-01
4.37000000000E+09 -3.68979872809E-01 -3.56965849610E-03 -4.00900538888E-03 -3.54447237508E-05 -3.92112679791E-03 -5.61502057768E-05 -2.15539591662E-01 +1.79881861943E-01
4.37500000000E+09 -3.74036437048E-01 +1.81884634231E-02 -3.33076560783E-03 +7.57717132033E-04 -3.33085237060E-03 +6.89438919071E-04 -2.09858403777E-01 +1.96926618728E-01
4.38000000000E+09 -3.79557683926E-01 +3.82336071618E-02 -3.18277982556E-03 +1.07327306066E-03 -3.23298329351E-03 +1.07869735981E-03 -2.03404160404E-01 +2.13859466665E-01
4.38500000000E+09 -3.84065390746E-01 +5.61336671419E-02 -2.84794848148E-03 +1.49987772200E-03 -2.84806872194E-03 +1.48883306062E-03 -1.97021456317E-01 +2.30466256525E-01
4.39000000000E+09 -3.87326816667E-01 +7.22598632639E-02 -2.56064378515E-03 +2.05401843837E-03 -2.54868340860E-03 +2.00241925294E-03 -1.90129975373E-01 +2.47078859971E-01
4.39500000000E+09 -3.88626776814E-01 +8.75158457582E-02 -1.99716557244E-03 +2.20148886814E-03 -1.99741393776E-03 +2.17521060233E-03 -1.83371018797E-01 +2.61963477040E-01
4.40000000000E+09 -3.87066289012E-01 +1.02721089600E-01 -1.67057922202E-03 +2.26821218883E-03 -1.75666276249E-03 +2.30336096046E-03 -1.76645287703E-01 +2.78169336849E-01
4.40500000000E+09 -3.83053186629E-01 +1.18242417397E-01 -1.67154314283E-03 +2.45213813589E-03 -1.67096024406E-03 +2.48858625031E-03 -1.68124356205E-01 +2.93363786981E-01
4.41000000000E+09 -3.77524369774E-01 +1.35299409575E-01 -9.51939106696E-04 +3.00089174020E-03 -9.12389983926E-04 +3.02861280959E-03 -1.59450930474E-01 +3.07488578559E-01
4.41500000000E+09 -3.71717343962E-01 +1.53378126993E-01 -5.04926458508E-04 +2.81702240450E-03 -4.69709502898E-04 +2.87816469184E-03 -1.50528227404E-01 +3.21607412795E-01
4.42000000000E+09 -3.66165289652E-01 +1.74182549974E-01 -8.79573590199E-05 +2.94163567583E-03 -5.40263235604E-05 +3.01741534394E-03 -1.41144243316E-01 +3.36183262201E-01
4.42500000000E+09 -3.61411324538E-01 +1.95257454746E-01 +7.29058929870E-04 +2.67981511686E-03 +8.00329845526E-04 +2.72624104190E-03 -1.30680446633E-01 +3.48966889207E-01
4.43000000000E+09 -3.58647627121E-01 +2.17293641857E-01 +7.65474546093E-04 +2.04790121047E-03 +8.79323973559E-04 +2.05539793693E-03 -1.22062604128E-01 +3.61851071814E-01
4.43500000000E+09 -3.55283037745E-01 +2.38793167350E-01 +7.67020188816E-04 +2.01592317682E-03 +8.87301733731E-04 +1.99777025954E-03 -1.11749870663E-01 +3.74710776084E-01
4.44000000000E+09 -3.52458519172E-01 +2.57225336876E-01 +1.06734827990E-03 +1.89393684106E-03 +1.12008278105E-03 +1.83847505133E-03 -1.01687665462E-01 +3.86098449929E-01
4.44500000000E+09 -3.50463053564E-01 +2.73520074466E-01 +1.32249297107E-03 +1.69788665017E-03 +1.37588768963E-03 +1.60326836782E-03 -9.15377583241E-02 +3.97348677849E-01
4.45000000000E+09 -3.47768213103E-01 +2.87838251480E-01 +1.32286373794E-03 +1.66254095738E-03 +1.35868348608E-03 +1.60342296588E-03 -8.07768274350E-02 +4.07719897964E-01
4.45500000000E+09 -3.43665520987E-01 +3.01545996753E-01 +1.74751144266E-03 +1.51649408063E-03 +1.81440978749E-03 +1.44507724685E-03 -7.01092537665E-02 +4.17670206322E-01
4.46000000000E+09 -3.36668211300E-01 +3.14840446980E-01 +1.94547500238E-03 +6.08273744913E-04 +1.93565701202E-03 +4.80814559712E-04 -5.92846896328E-02 +4.27194489957E-01
4.46500000000E+09 -3.27815585645E-01 +3.27923830808E-01 +1.43544755226E-03 +6.84858971811E-04 +1.44937754489E-03 +5.10811891359E-04 -4.78664854568E-02 +4.36139302912E-01
4.47000000000E+09 -3.17683006747E-01 +3.42589431631E-01 +1.63267212815E-03 +6.09035585686E-04 +1.56138620273E-03 +4.70877784116E-04 -3.74002784120E-02 +4.44943651799E-01
4.47500000000E+09 -3.06106183294E-01 +3.59497247459E-01 +1.55976388060E-03 +5.83124124420E-04 +1.50726758021E-03 +4.23504474019E-04 -2.62723410124E-02 +4.54129994627E-01
4.48000000000E+09 -2.93613662205E-01 +3.76738876721E-01 +1.85046851212E-03 +5.82311402929E-04 +1.68028370164E-03 +4.58556267320E-04 -1.48909841506E-02 +4.62083771480E-01
4.48500000000E+09 -2.82445740354E-01 +3.93824785896E-01 +1.94553225430E-03 +1.58689279309E-04 +1.76278608039E-03 +6.03127451312E-05 -4.04443355063E-03 +4.70435294918E-01
4.49000000000E+09 -2.73408470097E-01 +4.10831136186E-01 +2.25995537203E-03 -8.20035902953E-05 +2.08371363588E-03 -1.12053316737E-04 +7.77462397017E-03 +4.78041613985E-01
4.49500000000E+09 -2.65737657040E-01 +4.27164618169E-01 +1.92138348793E-03 -6.94122889232E-04 +1.76308353856E-03 -6.83015168211E-04 +1.85448324193E-02 +4.84805182103E-01
4.50000000000E+09 -2.59208158025E-01 +4.41053358880E-01 +1.59601574607E-03 -7.39436335263E-04 +1.47191580219E-03 -6.87559074344E-04 +2.99639242651E-02 +4.91612487630E-01
4.50500000000E+09 -2.54102532643E-01 +4.53467106233E-01 +1.78354798224E-03 -8.76797611154E-04 +1.63707463162E-03 -8.33819412550E-04 +4.14315716098E-02 +4.97604688734E-01
4.51000000000E+09 -2.47696817959E-01 +4.64514115565E-01 +1.43868589332E-03 -1.47456300411E-03 +1.34361693580E-03 -1.36125710165E-03 +5.24215974792E-02 +5.03488597176E-01
4.51500000000E+09 -2.38770576480E-01 +4.73218963549E-01 +9.43199101402E-04 -1.38013536104E-03 +9.21725171210E-04 -1.31746916376E-03 +6.35729359800E-02 +5.09498324703E-01
4.52000000000E+09 -2.28810815726E-01 +4.80444507909E-01 +8.51538033851E-04 -1.44067853195E-03 +8.29515626056E-04 -1.26800980427E-03 +7.55110031418E-02 +5.14735090328E-01
4.52500000000E+09 -2.16943718717E-01 +4.87973747296E-01 +7.92058188989E-04 -1.44957408011E-03 +7.35265768707E-04 -1.31027442300E-03 +8.69433785843E-02 +5.19066420965E-01
4.53000000000E+09 -2.03670447501E-01 +4.95927746747E-01 +7.52835308632E-04 -1.53289461492E-03 +8.04277857764E-04 -1.44253985844E-03 +9.86436788180E-02 +5.22978171875E-01
4.53500000000E+09 -1.89026885687E-01 +5.05832603098E-01 +3.90084870481E-04 -1.95340536080E-03 +4.46925975951E-04 -1.84000574148E-03 +1.09582209362E-01 +5.26629465299E-01
4.54000000000E+09 -1.74113736815E-01 +5.16096007748E-01 -4.86521123789E-05 -2.02615138391E-03 -8.43428601724E-06 -1.95592518931E-03 +1.21108469900E-01 +5.29992866597E-01
4.54500000000E+09 -1.59876694112E-01 +5.27781159471E-01 -7.00602559131E-04 -1.67449592636E-03 -6.06440264388E-04 -1.59363431582E-03 +1.31587614523E-01 +5.33348570256E-01
4.55000000000E+09 -1.46533654177E-01 +5.38203009388E-01 -7.44989071965E-04 -1.19345338815E-03 -7.08193595161E-04 -1.14188013974E-03 +1.43127867745E-01 +5.37342231746E-01
4.55500000000E+09 -1.35697944393E-01 +5.47901260051E-01 -5.25608451773E-04 -9.74056626043E-04 -4.71041815062E-04 -9.48944646663E-04 +1.54173711526E-01 +5.40029248955E-01
4.56000000000E+09 -1.26243308951E-01 +5.57043954034E-01 -5.02883256056E-04 -1.22706936029E-03 -3.88025728382E-04 -1.21268764476E-03 +1.64918282152E-01 +5.43171733417E-01
4.56500000000E+09 -1.16845009032E-01 +5.64308803758E-01 -8.53043062877E-04 -1.32146161141E-03 -7.84224190058E-04 -1.33706503292E-03 +1.75528581822E-01 +5.45589083612E-01
4.57000000000E+09 -1.07363087240E-01 +5.69995011304E-01 -1.21876544016E-03 -1.05032928519E-03 -1.16064112548E-03 -1.15609491546E-03 +1.86042154748E-01 +5.47990825788E-01
