# Hz S RI R 50
! CMT, C1220, 16058040, 17.2.0/1
! Date: 15/08/2018 12:36:30
! Data: Format (Calibration Info)
! Freq                      S11: Re/Im (F2)                       S21: Re/Im (F2)                       S12: Re/Im (F2)                       S22: Re/Im (F2)            
4.00000000000E+09 +6.50990767732E-01 -3.58562251519E-01 +2.14829989922E-03 -9.86479144278E-04 +2.19233819639E-03 -9.82322686673E-04 +7.84727280054E-01 -3.16845302070E-01
4.00500000000E+09 +6.42726467392E-01 -3.64472700680E-01 +1.81278333539E-03 -1.33093087514E-03 +1.93861312040E-03 -1.26720634726E-03 +7.76238538342E-01 -3.28469201170E-01
4.01000000000E+09 +6.34380694805E-01 -3.70115234812E-01 +1.58835193026E-03 -1.66196700156E-03 +1.63657139627E-03 -1.61811608610E-03 +7.67729345301E-01 -3.40364517739E-01
4.01500000000E+09 +6.25446419330E-01 -3.76602113538E-01 +1.33878862424E-03 -1.57336522219E-03 +1.36915582610E-03 -1.47676956178E-03 +7.59064842387E-01 -3.51680989152E-01
4.02000000000E+09 +6.16238894583E-01 -3.84011797762E-01 +1.32182342523E-03 -1.69506519222E-03 +1.39082284966E-03 -1.67179608430E-03 +7.49883161755E-01 -3.62579371320E-01
4.02500000000E+09 +6.06216013692E-01 -3.92729122729E-01 +1.18834573804E-03 -1.85643234938E-03 +1.28980317538E-03 -1.78813165467E-03 +7.40394451748E-01 -3.72995740668E-01
4.03000000000E+09 +5.95446921821E-01 -4.02705338263E-01 +9.94705451963E-04 -1.94888600747E-03 +1.11056579121E-03 -1.93194948940E-03 +7.29934096668E-01 -3.83538110883E-01
4.03500000000E+09 +5.83806728682E-01 -4.12317577458E-01 +7.84470472215E-04 -2.09384701985E-03 +9.27431123461E-04 -2.09658361832E-03 +7.18794771770E-01 -3.94411719069E-01
4.04000000000E+09 +5.72561110865E-01 -4.21560575239E-01 +5.94532875853E-04 -2.11918584610E-03 +6.70202921876E-04 -2.16061829602E-03 +7.07692641149E-01 -4.05776350830E-01
4.04500000000E+09 +5.61209310664E-01 -4.30702433770E-01 +4.09945134326E-04 -2.15570095578E-03 +5.71779468003E-04 -2.20597389755E-03 +6.96474393279E-01 -4.16971353186E-01
4.05000000000E+09 +5.49060688357E-01 -4.38197972020E-01 +3.18161866373E-04 -2.29567952976E-03 +4.13333061727E-04 -2.38464674580E-03 +6.85551869801E-01 -4.27548864259E-01
4.05500000000E+09 +5.37136560594E-01 -4.44104434086E-01 +1.44511970919E-04 -2.38897989763E-03 +2.52413816731E-04 -2.54199840162E-03 +6.74058961915E-01 -4.37406248378E-01
4.06000000000E+09 +5.24715583914E-01 -4.49340464276E-01 -2.59189781194E-04 -2.56777637331E-03 -2.30308334889E-04 -2.69715910764E-03 +6.62619755349E-01 -4.46562409982E-01
4.06500000000E+09 +5.11372545221E-01 -4.53378718778E-01 -5.59010822651E-04 -2.34487549057E-03 -5.28060775372E-04 -2.42008498397E-03 +6.49994623508E-01 -4.56212446467E-01
4.07000000000E+09 +4.98157362610E-01 -4.57513393662E-01 -6.35850735738E-04 -2.21442337911E-03 -5.90614931480E-04 -2.33202780640E-03 +6.36667311252E-01 -4.65868342134E-01
4.07500000000E+09 +4.83824346810E-01 -4.62436172139E-01 -8.85978959971E-04 -2.37277413931E-03 -8.26022915569E-04 -2.43448394616E-03 +6.22986815829E-01 -4.76460665932E-01
4.08000000000E+09 +4.68746179752E-01 -4.67412288781E-01 -1.16300268453E-03 -2.17295431182E-03 -1.11387397536E-03 -2.26263591827E-03 +6.09213160557E-01 -4.86359604215E-01
4.08500000000E+09 +4.53104871906E-01 -4.73708922022E-01 -1.17602020772E-03 -2.15173074016E-03 -1.13175457957E-03 -2.22427814565E-03 +5.95640864858E-01 -4.96276982002E-01
4.09000000000E+09 +4.36712967582E-01 -4.80120583218E-01 -1.54942042398E-03 -2.33596810866E-03 -1.59318871289E-03 -2.49404228872E-03 +5.81453974471E-01 -5.04806689138E-01
4.09500000000E+09 +4.20407071566E-01 -4.86262759096E-01 -2.00560393707E-03 -1.95792114489E-03 -2.03237593816E-03 -2.05153755260E-03 +5.66902784805E-01 -5.12913477498E-01
4.10000000000E+09 +4.03430198694E-01 -4.91873983012E-01 -1.97036786911E-03 -1.62117840309E-03 -2.02319698425E-03 -1.67856741855E-03 +5.51032395480E-01 -5.20295773399E-01
4.10500000000E+09 +3.86652988931E-01 -4.95897496070E-01 -2.12456132214E-03 -1.78945644318E-03 -2.13739997020E-03 -1.85284727532E-03 +5.35561982283E-01 -5.27838813879E-01
4.11000000000E+09 +3.70215172728E-01 -4.97657785100E-01 -2.67958500172E-03 -1.42183030433E-03 -2.66078423527E-03 -1.50836978061E-03 +5.19091123840E-01 -5.36208060123E-01
4.11500000000E+09 +3.54865955773E-01 -4.98706129882E-01 -2.47223353585E-03 -9.08233790929E-04 -2.52085787834E-03 -9.70559799158E-04 +5.02842762690E-01 -5.43912274126E-01
4.12000000000E+09 +3.39329233212E-01 -4.99586191058E-01 -2.59971328601E-03 -7.95692261812E-04 -2.67539787829E-03 -9.49887423324E-04 +4.86556210723E-01 -5.51835140212E-01
4.12500000000E+09 +3.22902517807E-01 -5.00964157633E-01 -2.64139179676E-03 -5.37303130503E-04 -2.66016680070E-03 -6.38326191824E-04 +4.69143498816E-01 -5.58409482043E-01
4.13000000000E+09 +3.05722239524E-01 -5.02530275399E-01 -2.59082960708E-03 -3.27402866351E-04 -2.65078365025E-03 -4.37180931788E-04 +4.51842772786E-01 -5.64265765029E-01
4.13500000000E+09 +2.87153853171E-01 -5.05570814819E-01 -2.41620407823E-03 -2.03878403618E-04 -2.52881810277E-03 -3.25839314748E-04 +4.33419560749E-01 -5.69796902453E-01
4.14000000000E+09 +2.67307142392E-01 -5.08490475865E-01 -2.70963771165E-03 -4.73391642363E-04 -2.74639528667E-03 -6.26729377645E-04 +4.14899086169E-01 -5.75513747946E-01
4.14500000000E+09 +2.47947573699E-01 -5.11215050698E-01 -3.39181440225E-03 -7.16551056730E-05 -3.56792336266E-03 -1.62647471630E-04 +3.95723437230E-01 -5.81260979948E-01
4.15000000000E+09 +2.28820129956E-01 -5.14754735664E-01 -3.39662590634E-03 +7.49431110506E-04 -3.58678630835E-03 +7.32428747333E-04 +3.77458206379E-01 -5.86270764863E-01
4.15500000000E+09 +2.09546622072E-01 -5.17171171918E-01 -3.07043218004E-03 +1.29583381569E-03 -3.21651425729E-03 +1.25191267703E-03 +3.59056764201E-01 -5.91011539659E-01
4.16000000000E+09 +1.91428493418E-01 -5.17557481677E-01 -2.76957396069E-03 +1.55387697701E-03 -2.87033447359E-03 +1.57927229862E-03 +3.40019916220E-01 -5.94456845197E-01
4.16500000000E+09 +1.74718736062E-01 -5.17482973971E-01 -2.41275413375E-03 +1.60333493235E-03 -2.50308266960E-03 +1.56996070329E-03 +3.20484290205E-01 -5.96964511261E-01
4.17000000000E+09 +1.57792898075E-01 -5.15185336880E-01 -2.29077704386E-03 +1.68879405407E-03 -2.37076150288E-03 +1.72325372236E-03 +2.99886803362E-01 -5.99131317994E-01
4.17500000000E+09 +1.41766694956E-01 -5.11005342737E-01 -2.30218107748E-03 +1.47623585841E-03 -2.42349233530E-03 +1.47668207875E-03 +2.78506453968E-01 -6.00549043390E-01
4.18000000000E+09 +1.24873957109E-01 -5.06292324068E-01 -2.61853863894E-03 +2.10206847041E-03 -2.76516195498E-03 +2.15264809787E-03 +2.57513187088E-01 -6.01683462036E-01
4.18500000000E+09 +1.07993708652E-01 -5.00445490874E-01 -2.03580873379E-03 +2.44092602110E-03 -2.18346760807E-03 +2.48170440745E-03 +2.36818291274E-01 -6.03199760401E-01
4.19000000000E+09 +8.99524345424E-02 -4.95202507735E-01 -2.23055404164E-03 +2.43592347263E-03 -2.26244424243E-03 +2.50921523012E-03 +2.15281073408E-01 -6.03204663417E-01
4.19500000000E+09 +7.13747622316E-02 -4.89564157815E-01 -2.17830032903E-03 +3.13605501124E-03 -2.23782945665E-03 +3.14787889426E-03 +1.94290500457E-01 -6.01415786555E-01
4.20000000000E+09 +5.30676697515E-02 -4.84955638658E-01 -1.28871117601E-03 +3.73200815070E-03 -1.39029369860E-03 +3.87277461001E-03 +1.72736390409E-01 -5.99343170752E-01
4.20500000000E+09 +3.39551529432E-02 -4.80987570112E-01 -5.66393375207E-04 +3.42934770703E-03 -6.32992982394E-04 +3.53999954645E-03 +1.51478069617E-01 -5.96209654915E-01
4.21000000000E+09 +1.55380208865E-02 -4.76447576356E-01 -6.70400133437E-04 +2.91165684988E-03 -6.98096916123E-04 +2.99892666525E-03 +1.29304666477E-01 -5.94996902679E-01
4.21500000000E+09 -2.43892906598E-03 -4.70621156073E-01 -5.53709077473E-04 +3.32826045058E-03 -6.08167156341E-04 +3.38043220843E-03 +1.05884424706E-01 -5.92797204963E-01
4.22000000000E+09 -1.86783082661E-02 -4.62782023940E-01 -3.84817150445E-04 +3.25005043051E-03 -4.01485430673E-04 +3.31197415942E-03 +8.31655039901E-02 -5.88815052585E-01
4.22500000000E+09 -3.36403748528E-02 -4.53611550644E-01 -4.94998148335E-04 +3.46575233499E-03 -5.05833757678E-04 +3.56774667861E-03 +6.15555665865E-02 -5.83961655831E-01
4.23000000000E+09 -4.78968134097E-02 -4.42555918006E-01 +1.09417427514E-05 +4.19803999734E-03 -2.93767750065E-05 +4.26929290778E-03 +3.98714617328E-02 -5.77161707146E-01
4.23500000000E+09 -6.16021437980E-02 -4.31580402288E-01 +7.59072475367E-04 +4.12561348337E-03 +7.34546763918E-04 +4.22068355925E-03 +1.84104035720E-02 -5.70175374219E-01
4.24000000000E+09 -7.76463833988E-02 -4.19870441089E-01 +1.36727278752E-03 +4.09020910709E-03 +1.37220176339E-03 +4.21050712342E-03 -3.87179013941E-03 -5.61444766471E-01
4.24500000000E+09 -9.56597791973E-02 -4.07245329762E-01 +1.90950760194E-03 +3.74134885529E-03 +1.95193631705E-03 +3.83457115450E-03 -2.56512760282E-02 -5.53003029216E-01
4.25000000000E+09 -1.15042155777E-01 -3.93994458282E-01 +2.00008535779E-03 +3.57985337026E-03 +2.03708711585E-03 +3.65221185858E-03 -4.74961187995E-02 -5.44414422903E-01
4.25500000000E+09 -1.34652158530E-01 -3.81132162328E-01 +2.68153970662E-03 +3.44398384548E-03 +2.65701972305E-03 +3.48160575059E-03 -6.88946301529E-02 -5.35395510904E-01
4.26000000000E+09 -1.55200222641E-01 -3.69052763070E-01 +2.84447376073E-03 +2.93421007944E-03 +2.87403017913E-03 +3.03213094833E-03 -9.00482826161E-02 -5.24822143108E-01
4.26500000000E+09 -1.74476976628E-01 -3.56223250023E-01 +2.69056419772E-03 +3.11751353746E-03 +2.73479594329E-03 +3.23080503124E-03 -1.10897498812E-01 -5.13292953925E-01
4.27000000000E+09 -1.91097394977E-01 -3.44504189928E-01 +3.63035254433E-03 +3.02885900234E-03 +3.74994171688E-03 +3.05549187161E-03 -1.32953983847E-01 -4.99554840439E-01
4.27500000000E+09 -2.06705892389E-01 -3.33004333727E-01 +3.94129217970E-03 +2.36311302135E-03 +3.99405573342E-03 +2.37185334395E-03 -1.53500070562E-01 -4.84657841201E-01
4.28000000000E+09 -2.20088397596E-01 -3.20027303752E-01 +4.30588692109E-03 +2.15241279149E-03 +4.35551665095E-03 +2.15756011995E-03 -1.74239952791E-01 -4.70757013307E-01
4.28500000000E+09 -2.32059727968E-01 -3.06021709677E-01 +4.69418521115E-03 +1.64548001730E-03 +4.73835885154E-03 +1.67881690647E-03 -1.95192435993E-01 -4.55624222331E-01
4.29000000000E+09 -2.43333974524E-01 -2.90231082518E-01 +4.99694391082E-03 +5.66011798803E-04 +5.00118532455E-03 +5.30326318760E-04 -2.14227287255E-01 -4.40569587780E-01
4.29500000000E+09 -2.54754476516E-01 -2.72255759114E-01 +4.22894019638E-03 +2.34473708354E-04 +4.32640445847E-03 +2.31611156363E-04 -2.33247437426E-01 -4.24429476285E-01
4.30000000000E+09 -2.65563419863E-01 -2.52206928080E-01 +4.41535227417E-03 +8.40572827780E-05 +4.53795578007E-03 +6.24582709306E-05 -2.50126026874E-01 -4.07149261586E-01
4.30500000000E+09 -2.76749263718E-01 -2.32403137392E-01 +4.53943795491E-03 -3.47612089534E-04 +4.61395443653E-03 -3.29894000973E-04 -2.68537556133E-01 -3.89336134580E-01
4.31000000000E+09 -2.88837228970E-01 -2.12750243504E-01 +4.30041370117E-03 -2.08615918563E-04 +4.37714186496E-03 -2.61582982755E-04 -2.85450625272E-01 -3.69065716960E-01
4.31500000000E+09 -3.01425578128E-01 -1.94177276050E-01 +5.26028976033E-03 -5.24435709668E-04 +5.33304256731E-03 -5.31400880445E-04 -3.01911919093E-01 -3.49055618395E-01
4.32000000000E+09 -3.14107724740E-01 -1.76414537926E-01 +5.45136005596E-03 -2.01509696213E-03 +5.52970542399E-03 -2.07559456050E-03 -3.17965565971E-01 -3.28494350013E-01
4.32500000000E+09 -3.25085951256E-01 -1.59646784860E-01 +4.55075751403E-03 -2.73480235245E-03 +4.57449508872E-03 -2.88565980694E-03 -3.32280746180E-01 -3.06535565315E-01
4.33000000000E+09 -3.34836015198E-01 -1.43928630766E-01 +4.42213486706E-03 -2.79640487840E-03 +4.46779487292E-03 -2.86516952618E-03 -3.45098297107E-01 -2.84556902016E-01
4.33500000000E+09 -3.41442382961E-01 -1.26717670637E-01 +4.25020055367E-03 -3.45464150748E-03 +4.25086326205E-03 -3.56521837354E-03 -3.57122143600E-01 -2.61422581411E-01
4.34000000000E+09 -3.44069752337E-01 -1.10446821072E-01 +3.69668236048E-03 -4.23208004739E-03 +3.65661959805E-03 -4.28069724413E-03 -3.69041779895E-01 -2.38742257532E-01
4.34500000000E+09 -3.45841124003E-01 -9.37382113293E-02 +3.01695687095E-03 -3.99611375997E-03 +2.96388792978E-03 -4.06923561376E-03 -3.81042445244E-01 -2.14054560241E-01
4.35000000000E+09 -3.46339050320E-01 -7.48951553144E-02 +3.19250066700E-03 -4.40736240713E-03 +3.20728871227E-03 -4.40738177630E-03 -3.91378937035E-01 -1.90280752128E-01
4.35500000000E+09 -3.47285747648E-01 -5.49252586460E-02 +2.63043404693E-03 -5.05330292169E-03 +2.61693192418E-03 -5.10944893264E-03 -4.00952483569E-01 -1.67152123824E-01
4.36000000000E+09 -3.48623470455E-01 -3.25693728192E-02 +1.97762746953E-03 -5.28014892316E-03 +1.97577498456E-03 -5.29529049598E-03 -4.10069411737E-01 -1.43555284040E-01
4.36500000000E+09 -3.51352828487E-01 -9.84937488446E-03 +1.73914022732E-03 -5.33150227455E-03 +1.70646423611E-03 -5.47213078540E-03 -4.17202813463E-01 -1.18485944170E-01
4.37000000000E+09 -3.55324512577E-01 +1.38425468823E-02 +1.30697423415E-03 -5.91880054581E-03 +1.25859615959E-03 -6.00748245728E-03 -4.22886660748E-01 -9.37282294592E-02
4.37500000000E+09 -3.58748012376E-01 +3.63201500773E-02 +4.33808680486E-04 -6.64393911257E-03 +3.20087943318E-04 -6.73815569622E-03 -4.27863390351E-01 -6.73581780254E-02
4.38000000000E+09 -3.62929917170E-01 +5.55230841053E-02 -7.47067002006E-04 -6.29292155132E-03 -8.55654377433E-04 -6.41397561659E-03 -4.30656854008E-01 -4.18697133748E-02
4.38500000000E+09 -3.66862701419E-01 +7.35577368360E-02 -1.47333910186E-03 -6.14239946199E-03 -1.58117843159E-03 -6.15596055649E-03 -4.33890684055E-01 -1.74461627468E-02
4.39000000000E+09 -3.69350806181E-01 +8.91142991164E-02 -2.21367938305E-03 -5.87226349699E-03 -2.35439368701E-03 -5.90931669549E-03 -4.36698135575E-01 +8.66635738228E-03
4.39500000000E+09 -3.69948099528E-01 +1.03136518231E-01 -2.83001278007E-03 -5.18408966487E-03 -2.95475089951E-03 -5.20179045050E-03 -4.36509207155E-01 +3.27037455163E-02
4.40000000000E+09 -3.68643176776E-01 +1.17673983969E-01 -3.01795993223E-03 -5.17386957505E-03 -3.16438719015E-03 -5.15723464419E-03 -4.36939558179E-01 +5.79061625909E-02
4.40500000000E+09 -3.65062219925E-01 +1.33317591172E-01 -3.96741392301E-03 -4.75501288050E-03 -4.07172890635E-03 -4.67390730922E-03 -4.34892456104E-01 +8.30629282263E-02
4.41000000000E+09 -3.59210775673E-01 +1.50045689044E-01 -4.06397631430E-03 -4.03313664222E-03 -4.14719314130E-03 -3.94423192733E-03 -4.32141442348E-01 +1.07840772691E-01
4.41500000000E+09 -3.53356211443E-01 +1.68076744976E-01 -4.43529333416E-03 -3.84306626719E-03 -4.56790995676E-03 -3.78035265786E-03 -4.29167596352E-01 +1.31833824827E-01
4.42000000000E+09 -3.47361166504E-01 +1.88363529123E-01 -4.74160870441E-03 -3.42875718385E-03 -4.84766189376E-03 -3.30317836686E-03 -4.26167354396E-01 +1.56018353551E-01
4.42500000000E+09 -3.42550298092E-01 +2.09446406115E-01 -5.25540638810E-03 -3.30181937868E-03 -5.33460613674E-03 -3.19483010207E-03 -4.20516488530E-01 +1.80534846047E-01
4.43000000000E+09 -3.38362683841E-01 +2.30072393946E-01 -6.07056811585E-03 -2.69309124656E-03 -6.09380654899E-03 -2.53213563470E-03 -4.14464243014E-01 +2.02711070419E-01
4.43500000000E+09 -3.36453344932E-01 +2.49946234986E-01 -6.27485031764E-03 -1.29325570931E-03 -6.25089981339E-03 -1.22090611284E-03 -4.07635343828E-01 +2.25494664840E-01
4.44000000000E+09 -3.34258164831E-01 +2.68893809000E-01 -6.18173294697E-03 -9.56289268148E-04 -6.15989988056E-03 -8.53815540625E-04 -3.99961778692E-01 +2.47722135130E-01
4.44500000000E+09 -3.31424380099E-01 +2.84407711128E-01 -6.07187070198E-03 +1.80528220194E-04 -6.06523129645E-03 +2.50663253951E-04 -3.92058861181E-01 +2.68726895785E-01
4.45000000000E+09 -3.28414193990E-01 +2.97609125519E-01 -5.62527558900E-03 +3.92291201625E-04 -5.62566871247E-03 +4.54016725214E-04 -3.84219119595E-01 +2.89871212994E-01
4.45500000000E+09 -3.23889257286E-01 +3.09417911185E-01 -5.72260933747E-03 +5.82758582576E-04 -5.71630423585E-03 +7.12252679145E-04 -3.75975890330E-01 +3.10136713059E-01
4.46000000000E+09 -3.18018834483E-01 +3.20910049204E-01 -5.91246939287E-03 +1.41591154482E-03 -5.81027955483E-03 +1.46674207155E-03 -3.65746866566E-01 +3.29672292023E-01
4.46500000000E+09 -3.09109545238E-01 +3.33407870340E-01 -5.67072362140E-03 +1.84980090456E-03 -5.60936114156E-03 +1.94597690208E-03 -3.55680957867E-01 +3.48464138025E-01
4.47000000000E+09 -2.98564023576E-01 +3.46529224377E-01 -5.78660643738E-03 +2.36445113497E-03 -5.65970021904E-03 +2.48830263247E-03 -3.42709321310E-01 +3.67815217161E-01
4.47500000000E+09 -2.86637056133E-01 +3.62010967629E-01 -5.77168370902E-03 +3.19154968987E-03 -5.59036474035E-03 +3.35269221957E-03 -3.30493067737E-01 +3.84987590669E-01
4.48000000000E+09 -2.74464213449E-01 +3.76780824651E-01 -5.20744282551E-03 +4.28743034186E-03 -5.06441175389E-03 +4.37312385042E-03 -3.18436451078E-01 +4.03264891741E-01
4.48500000000E+09 -2.64642088512E-01 +3.93416764281E-01 -4.25515926938E-03 +4.71525974344E-03 -4.02565097544E-03 +4.74155350270E-03 -3.06139242148E-01 +4.19365084299E-01
4.49000000000E+09 -2.55206179102E-01 +4.10368098464E-01 -3.72364721386E-03 +5.13176929271E-03 -3.55909799700E-03 +5.07175519033E-03 -2.94593308158E-01 +4.34886248315E-01
4.49500000000E+09 -2.47264249241E-01 +4.25676902279E-01 -2.98919323627E-03 +5.26093416608E-03 -2.86479800671E-03 +5.19361873116E-03 -2.82809243774E-01 +4.50338188519E-01
4.50000000000E+09 -2.40684207924E-01 +4.39466172002E-01 -2.54877011919E-03 +5.53848435651E-03 -2.48282639032E-03 +5.47174429973E-03 -2.69595159005E-01 +4.64590701101E-01
4.50500000000E+09 -2.34834922867E-01 +4.50745233438E-01 -1.88973451705E-03 +5.56748909284E-03 -1.84796720046E-03 +5.54859970998E-03 -2.55889496629E-01 +4.79049299985E-01
4.51000000000E+09 -2.28371922863E-01 +4.60280807301E-01 -1.59903494134E-03 +5.88401918452E-03 -1.50742203169E-03 +5.84596903621E-03 -2.41614398739E-01 +4.92664126963E-01
4.51500000000E+09 -2.20164561268E-01 +4.67885339728E-01 -7.36866233069E-04 +6.24510722246E-03 -6.50895254281E-04 +6.11659300219E-03 -2.28285394991E-01 +5.06131279462E-01
4.52000000000E+09 -2.10532732556E-01 +4.74296364665E-01 +7.03142353853E-05 +5.94247896465E-03 +1.59532140349E-04 +5.82550265081E-03 -2.14367265879E-01 +5.19231420909E-01
4.52500000000E+09 -1.98673225008E-01 +4.81179696299E-01 +2.58594870072E-04 +6.17479970197E-03 +3.71130929227E-04 +6.03258560425E-03 -2.00212367959E-01 +5.30473389016E-01
4.53000000000E+09 -1.85114879873E-01 +4.88636884944E-01 +1.39556358390E-03 +6.20723642389E-03 +1.44927466507E-03 +6.07466052565E-03 -1.86380031285E-01 +5.41013454732E-01
4.53500000000E+09 -1.69881655239E-01 +4.97614956585E-01 +2.14766195794E-03 +5.56578615018E-03 +2.21102441487E-03 +5.34105665267E-03 -1.71839110357E-01 +5.51276442920E-01
4.54000000000E+09 -1.54057245567E-01 +5.07377324180E-01 +2.48918904137E-03 +5.28492491816E-03 +2.59224879558E-03 +5.13278608058E-03 -1.56885960359E-01 +5.61448338874E-01
4.54500000000E+09 -1.39428529995E-01 +5.17629949239E-01 +3.17440793567E-03 +4.71171121928E-03 +3.12177986704E-03 +4.52022675719E-03 -1.42060072673E-01 +5.71680588881E-01
4.55000000000E+09 -1.26255652692E-01 +5.27486750244E-01 +3.07257041559E-03 +4.33818422167E-03 +3.04296544745E-03 +4.21167678517E-03 -1.26907213421E-01 +5.81731256995E-01
4.55500000000E+09 -1.15814823396E-01 +5.37188419047E-01 +3.56590556363E-03 +4.20312151876E-03 +3.53399430826E-03 +4.04661418894E-03 -1.12411158254E-01 +5.90851590879E-01
4.56000000000E+09 -1.06641660847E-01 +5.46871631331E-01 +3.98537293592E-03 +3.90118091413E-03 +4.00073918970E-03 +3.80727685352E-03 -9.82064598345E-02 +5.99398540363E-01
4.56500000000E+09 -9.78935757768E-02 +5.54681971685E-01 +4.48439138568E-03 +3.31006525826E-03 +4.44081765590E-03 +3.17729017088E-03 -8.33321858687E-02 +6.07728333568E-01
4.57000000000E+09 -8.82795971698E-02 +5.61007157528E-01 +4.57090978519E-03 +3.02389022569E-03 +4.57169355981E-03 +2.87595237494E-03 -6.81766042242E-02 +6.14588321065E-01
