# Hz S RI R 50
! CMT, C1220, 16058040, 17.2.0/1
! Date: 15/08/2018 11:32:46
! Data: Format (Calibration Info)
! Freq                      S11: Re/Im (F2)                       S21: Re/Im (F2)                       S12: Re/Im (F2)                       S22: Re/Im (F2)            
4.00000000000E+09 +6.67151633216E-01 -3.56985464696E-01 +1.53452669363E-03 -3.52469088969E-03 +1.78258054820E-03 -3.56067685308E-03 +7.74252825191E-01 -3.55417620035E-01
4.00500000000E+09 +6.59059361178E-01 -3.65070093451E-01 +1.14034700908E-03 -3.99138868727E-03 +1.30370741009E-03 -3.97173933220E-03 +7.65782176512E-01 -3.66626613221E-01
4.01000000000E+09 +6.50382094252E-01 -3.72509221442E-01 +4.32212619622E-04 -4.17119637234E-03 +5.26313745131E-04 -4.24521005362E-03 +7.56985507874E-01 -3.77912719556E-01
4.01500000000E+09 +6.41051389395E-01 -3.79991677023E-01 -1.47890927060E-04 -3.94165479884E-03 -4.56446808732E-05 -4.06683357448E-03 +7.47248472288E-01 -3.88480949600E-01
4.02000000000E+09 +6.30993360030E-01 -3.88517237855E-01 -3.71562117085E-04 -3.75481060123E-03 -2.36571451647E-04 -3.86745635140E-03 +7.37427329712E-01 -3.98878671328E-01
4.02500000000E+09 +6.20026243975E-01 -3.97758715943E-01 -4.77658953896E-04 -3.81758245058E-03 -3.02947991194E-04 -3.95329878632E-03 +7.27227792486E-01 -4.09013358438E-01
4.03000000000E+09 +6.08182632361E-01 -4.07547304735E-01 -8.59704215273E-04 -4.05420379915E-03 -6.92396580450E-04 -4.23067557457E-03 +7.16832328108E-01 -4.19819073236E-01
4.03500000000E+09 +5.96315960374E-01 -4.16928308171E-01 -1.52314170738E-03 -4.08927470761E-03 -1.40949299501E-03 -4.18878115006E-03 +7.05676764529E-01 -4.30965999200E-01
4.04000000000E+09 +5.84813558249E-01 -4.27017625704E-01 -1.88513102045E-03 -3.70743278870E-03 -1.77403924544E-03 -3.90451739856E-03 +6.94261965002E-01 -4.41870180043E-01
4.04500000000E+09 +5.72894512801E-01 -4.36481635420E-01 -2.26309725614E-03 -3.56630816506E-03 -2.13393244840E-03 -3.88835267939E-03 +6.82358185561E-01 -4.52508247850E-01
4.05000000000E+09 +5.61489800857E-01 -4.45239588997E-01 -2.49385330662E-03 -3.39657858432E-03 -2.48128806525E-03 -3.72558076848E-03 +6.70622005222E-01 -4.62300335346E-01
4.05500000000E+09 +5.49343743220E-01 -4.53696851685E-01 -2.67138697972E-03 -3.39461190610E-03 -2.70395431579E-03 -3.67323976903E-03 +6.58312257637E-01 -4.71921568149E-01
4.06000000000E+09 +5.36001039362E-01 -4.61200279948E-01 -3.40703244219E-03 -3.49112056718E-03 -3.47000553879E-03 -3.73113358798E-03 +6.45721716249E-01 -4.81199952564E-01
4.06500000000E+09 +5.22376127922E-01 -4.67146957653E-01 -4.10794167082E-03 -2.68988307097E-03 -4.20857671639E-03 -2.86787961588E-03 +6.32602339114E-01 -4.90190458904E-01
4.07000000000E+09 +5.08759957664E-01 -4.73876217359E-01 -3.99862940474E-03 -2.22309262428E-03 -4.04309600130E-03 -2.33179830319E-03 +6.19006692723E-01 -4.99716093541E-01
4.07500000000E+09 +4.93295069082E-01 -4.81033101039E-01 -4.13903660524E-03 -2.05992699879E-03 -4.19106120983E-03 -2.21469813613E-03 +6.05309646188E-01 -5.08859105945E-01
4.08000000000E+09 +4.77155631722E-01 -4.87655587178E-01 -4.46216390247E-03 -1.79622565094E-03 -4.55699764847E-03 -2.00009499719E-03 +5.91773948522E-01 -5.18353349523E-01
4.08500000000E+09 +4.60510575552E-01 -4.94744177873E-01 -4.76345000710E-03 -1.36802631592E-03 -4.91471287114E-03 -1.58373147751E-03 +5.77749566538E-01 -5.27844913490E-01
4.09000000000E+09 +4.44035367920E-01 -5.02041231793E-01 -5.15442901581E-03 -8.39530179245E-04 -5.35791500983E-03 -9.36113545978E-04 +5.63320807450E-01 -5.36396876013E-01
4.09500000000E+09 +4.27436580956E-01 -5.08777472392E-01 -5.30265852710E-03 -1.32312386026E-04 -5.47108341019E-03 -2.18260944062E-04 +5.47982203453E-01 -5.44116327197E-01
4.10000000000E+09 +4.12016059559E-01 -5.15395276588E-01 -4.80111962236E-03 +3.78275564471E-04 -4.90928351592E-03 +3.23992731863E-04 +5.32151245230E-01 -5.51163197579E-01
4.10500000000E+09 +3.95570065281E-01 -5.21784384451E-01 -5.05217342257E-03 +4.06026479892E-04 -5.14889289942E-03 +3.54425243145E-04 +5.16044775153E-01 -5.58144073704E-01
4.11000000000E+09 +3.78645357961E-01 -5.25979030457E-01 -5.46973900681E-03 +1.12693104023E-03 -5.61810187049E-03 +1.00298338970E-03 +4.99209262029E-01 -5.65922270080E-01
4.11500000000E+09 +3.62427446501E-01 -5.28323113412E-01 -5.33448484023E-03 +1.95048067499E-03 -5.52029871843E-03 +1.92014189394E-03 +4.81664452511E-01 -5.73497407544E-01
4.12000000000E+09 +3.46148319828E-01 -5.30335712269E-01 -4.99229205778E-03 +2.62572174447E-03 -5.14657756824E-03 +2.53690642219E-03 +4.64258188246E-01 -5.80031605293E-01
4.12500000000E+09 +3.29335002270E-01 -5.31989675812E-01 -4.72339770503E-03 +3.16096669450E-03 -4.86682197450E-03 +3.14322736646E-03 +4.47177325390E-01 -5.85829637561E-01
4.13000000000E+09 +3.11888850697E-01 -5.34560996317E-01 -3.98341616041E-03 +3.54702288596E-03 -4.19913268512E-03 +3.55510778625E-03 +4.30048339178E-01 -5.91545010922E-01
4.13500000000E+09 +2.92560259144E-01 -5.37915291747E-01 -3.57070915266E-03 +3.47237231309E-03 -3.79317939622E-03 +3.45984578449E-03 +4.12173157485E-01 -5.97122222823E-01
4.14000000000E+09 +2.72337174217E-01 -5.40863633963E-01 -3.77806167598E-03 +3.54878113548E-03 -4.00319340550E-03 +3.50684032070E-03 +3.92458456573E-01 -6.02606474318E-01
4.14500000000E+09 +2.52378311325E-01 -5.43297837110E-01 -4.00966646664E-03 +4.45012864144E-03 -4.29779564382E-03 +4.48074496518E-03 +3.72437533026E-01 -6.07096666510E-01
4.15000000000E+09 +2.33774021808E-01 -5.47325267714E-01 -2.84699942616E-03 +5.08504026993E-03 -3.06474343282E-03 +5.23301316392E-03 +3.53357483030E-01 -6.11034146363E-01
4.15500000000E+09 +2.14206369039E-01 -5.50233320934E-01 -2.61306732240E-03 +5.01388775012E-03 -2.73637618336E-03 +5.14377094482E-03 +3.33871313478E-01 -6.15204809799E-01
4.16000000000E+09 +1.96484938549E-01 -5.52209772998E-01 -2.26921769017E-03 +5.42512868137E-03 -2.36654705476E-03 +5.55340343495E-03 +3.14320703553E-01 -6.18399055752E-01
4.16500000000E+09 +1.79076948082E-01 -5.53200221234E-01 -1.80464912000E-03 +5.62779437885E-03 -1.84620877728E-03 +5.74648955208E-03 +2.94079126265E-01 -6.20185191074E-01
4.17000000000E+09 +1.61497398417E-01 -5.52259219408E-01 -1.58803045873E-03 +5.97258699407E-03 -1.73660881283E-03 +6.08354904715E-03 +2.73689349837E-01 -6.21056766854E-01
4.17500000000E+09 +1.44528812836E-01 -5.49022976521E-01 -8.49479893764E-04 +6.74223742686E-03 -1.00931802850E-03 +6.88297707957E-03 +2.53224149255E-01 -6.21424502242E-01
4.18000000000E+09 +1.28046199564E-01 -5.44930226081E-01 +6.36866911658E-04 +6.80363704308E-03 +5.82700061691E-04 +7.03960591891E-03 +2.32043838311E-01 -6.22465421432E-01
4.18500000000E+09 +1.09066756687E-01 -5.41168825010E-01 +1.11423718889E-03 +5.95650647092E-03 +1.06121090819E-03 +6.25290567362E-03 +2.09436214891E-01 -6.22695650434E-01
4.19000000000E+09 +8.89752087002E-02 -5.35370708036E-01 +1.01020688722E-03 +5.90296016705E-03 +9.69199943921E-04 +6.13424640831E-03 +1.86851746923E-01 -6.21495661874E-01
4.19500000000E+09 +6.90773257744E-02 -5.29546415408E-01 +1.22142750210E-03 +6.42336402797E-03 +1.18858904278E-03 +6.62240868916E-03 +1.64632293630E-01 -6.19386033787E-01
4.20000000000E+09 +4.85320065615E-02 -5.24725924211E-01 +2.10362863716E-03 +6.84412467722E-03 +2.04524493924E-03 +7.11085708895E-03 +1.43032468660E-01 -6.16739606422E-01
4.20500000000E+09 +2.78286526679E-02 -5.20373616879E-01 +3.47351717176E-03 +7.02587967151E-03 +3.47545898330E-03 +7.33499403696E-03 +1.20783175484E-01 -6.13241251352E-01
4.21000000000E+09 +7.38941088011E-03 -5.15567900427E-01 +4.78476404612E-03 +6.49689168591E-03 +4.85892376222E-03 +6.77807767229E-03 +9.78715972563E-02 -6.09217664255E-01
4.21500000000E+09 -1.14780104738E-02 -5.11285989747E-01 +5.33666428919E-03 +5.31674647505E-03 +5.47550073149E-03 +5.46628672206E-03 +7.47697527135E-02 -6.04198496938E-01
4.22000000000E+09 -3.02614247302E-02 -5.05226894335E-01 +5.53982729227E-03 +4.91448039538E-03 +5.73127676592E-03 +5.07488413349E-03 +5.28151455155E-02 -5.98143463975E-01
4.22500000000E+09 -4.64962039175E-02 -4.97827122886E-01 +6.09647208510E-03 +4.53458494364E-03 +6.26214519616E-03 +4.61955762580E-03 +3.10891687077E-02 -5.92043308596E-01
4.23000000000E+09 -6.23627601549E-02 -4.90045533802E-01 +6.91920850673E-03 +3.76927506324E-03 +7.09446287027E-03 +3.79296637866E-03 +1.04335998798E-02 -5.84963367913E-01
4.23500000000E+09 -7.93995962385E-02 -4.79874658575E-01 +6.76861363777E-03 +2.95690763426E-03 +6.96907659078E-03 +2.99859734669E-03 -1.15966145907E-02 -5.78047640213E-01
4.24000000000E+09 -9.60058812094E-02 -4.67911972541E-01 +7.10039954058E-03 +2.70746034627E-03 +7.27116714613E-03 +2.82866509039E-03 -3.42124112154E-02 -5.69083499393E-01
4.24500000000E+09 -1.13432665711E-01 -4.55363868702E-01 +7.46282573942E-03 +1.99109918440E-03 +7.73188949635E-03 +2.04827185340E-03 -5.66424750225E-02 -5.58095291011E-01
4.25000000000E+09 -1.32346245375E-01 -4.42101570663E-01 +7.83286809679E-03 +1.76813545829E-03 +8.03213231720E-03 +1.78322274435E-03 -7.75443800870E-02 -5.47277687201E-01
4.25500000000E+09 -1.51721611848E-01 -4.29118141666E-01 +8.80037866885E-03 +1.00045037636E-03 +8.95299491101E-03 +9.60031681151E-04 -9.81979560612E-02 -5.35560026076E-01
4.26000000000E+09 -1.71527283991E-01 -4.16817978602E-01 +9.59314639457E-03 -8.79836782811E-04 +9.70636254681E-03 -9.20068053089E-04 -1.18966431949E-01 -5.23324423452E-01
4.26500000000E+09 -1.92211306001E-01 -4.05847753698E-01 +8.53688163824E-03 -2.20995652741E-03 +8.73648022646E-03 -2.29474510835E-03 -1.38982590912E-01 -5.09831959360E-01
4.27000000000E+09 -2.11833301595E-01 -3.93431781830E-01 +8.16747452129E-03 -3.00402383526E-03 +8.31895398210E-03 -3.16224334583E-03 -1.60126135335E-01 -4.95703263933E-01
4.27500000000E+09 -2.29690567389E-01 -3.81657327583E-01 +7.70335357749E-03 -3.90474340501E-03 +7.82703180275E-03 -4.06037214449E-03 -1.80355973523E-01 -4.79487692637E-01
4.28000000000E+09 -2.45608745793E-01 -3.68983756606E-01 +7.00005999843E-03 -4.14921741465E-03 +7.06222746529E-03 -4.21147425629E-03 -1.99524292689E-01 -4.64701509776E-01
4.28500000000E+09 -2.59304551668E-01 -3.55981013490E-01 +7.36707241782E-03 -4.43718123201E-03 +7.40807133342E-03 -4.56156779135E-03 -2.20688453546E-01 -4.48905774981E-01
4.29000000000E+09 -2.71785810172E-01 -3.41907754993E-01 +7.48128711746E-03 -5.89282422824E-03 +7.53772421556E-03 -6.02655335990E-03 -2.40018649549E-01 -4.30862455507E-01
4.29500000000E+09 -2.83583659767E-01 -3.27173740379E-01 +6.03231417285E-03 -7.07864061590E-03 +6.06963406493E-03 -7.23987344649E-03 -2.56916480250E-01 -4.11160555058E-01
4.30000000000E+09 -2.96606884997E-01 -3.10497349561E-01 +5.79248672167E-03 -7.23828006434E-03 +5.85635386040E-03 -7.42667572176E-03 -2.72267782596E-01 -3.92780764296E-01
4.30500000000E+09 -3.09696699432E-01 -2.92276890434E-01 +4.80364428572E-03 -8.47919481668E-03 +4.81884965178E-03 -8.64052324935E-03 -2.87055987958E-01 -3.73550811619E-01
4.31000000000E+09 -3.22950013532E-01 -2.72474948937E-01 +3.69042670541E-03 -8.89931619168E-03 +3.65326849288E-03 -9.05775976147E-03 -3.02210304758E-01 -3.54017883285E-01
4.31500000000E+09 -3.35830182422E-01 -2.52787337762E-01 +2.83803923288E-03 -9.10865743579E-03 +2.82454074811E-03 -9.20750552237E-03 -3.17718062042E-01 -3.33400316134E-01
4.32000000000E+09 -3.47749509580E-01 -2.33481405877E-01 +1.71979009533E-03 -9.85158199126E-03 +1.70577714346E-03 -1.00757717336E-02 -3.31614561191E-01 -3.11227590591E-01
4.32500000000E+09 -3.58374727939E-01 -2.15929076195E-01 -3.47429140918E-04 -9.66529492721E-03 -4.75074211700E-04 -9.87040834588E-03 -3.43857800153E-01 -2.89359845786E-01
4.33000000000E+09 -3.69507031174E-01 -1.99708794101E-01 -4.20658253965E-04 -8.41581572788E-03 -5.81436079858E-04 -8.47065280416E-03 -3.55430633287E-01 -2.68593875386E-01
4.33500000000E+09 -3.79607038706E-01 -1.82213118936E-01 -4.12540574205E-04 -8.95703637083E-03 -5.42055554180E-04 -8.99284387225E-03 -3.67526379115E-01 -2.45097271654E-01
4.34000000000E+09 -3.87379408002E-01 -1.63736981338E-01 -1.49147423211E-03 -9.59210552932E-03 -1.56551366949E-03 -9.58443163580E-03 -3.77998932848E-01 -2.20949952718E-01
4.34500000000E+09 -3.92946792381E-01 -1.44376791515E-01 -2.49722820689E-03 -9.86393009720E-03 -2.57690108688E-03 -9.91886161394E-03 -3.87108147168E-01 -1.95863799198E-01
4.35000000000E+09 -3.96859082327E-01 -1.23917563284E-01 -4.36541520066E-03 -1.00384880156E-02 -4.40876671110E-03 -1.01152833457E-02 -3.95852493464E-01 -1.71882276081E-01
4.35500000000E+09 -4.00130551564E-01 -1.02495480082E-01 -5.95465598102E-03 -8.92361212685E-03 -6.07413087719E-03 -9.00448862752E-03 -4.04651613945E-01 -1.48616305825E-01
4.36000000000E+09 -4.03473432891E-01 -8.07134910174E-02 -6.39526205984E-03 -7.56200610133E-03 -6.53022104452E-03 -7.62117078893E-03 -4.12721268700E-01 -1.25256494786E-01
4.36500000000E+09 -4.08160259826E-01 -5.76324204121E-02 -7.05568174787E-03 -7.49583367415E-03 -7.26644037758E-03 -7.51588623008E-03 -4.18898609137E-01 -9.99386586393E-02
4.37000000000E+09 -4.13431927295E-01 -3.36792217874E-02 -7.86011318184E-03 -6.42697494763E-03 -8.08418576647E-03 -6.34341066473E-03 -4.22591965033E-01 -7.46403426505E-02
4.37500000000E+09 -4.18003590974E-01 -1.13561936094E-02 -8.38061674933E-03 -5.86837020485E-03 -8.61036322842E-03 -5.83726992732E-03 -4.23754189452E-01 -4.95782539852E-02
4.38000000000E+09 -4.23553318692E-01 +1.02574299185E-02 -9.06287068608E-03 -4.99103890430E-03 -9.32083190235E-03 -4.89127970577E-03 -4.26711505775E-01 -2.62603222530E-02
4.38500000000E+09 -4.27624921758E-01 +3.12884031879E-02 -1.00355551576E-02 -4.08106292648E-03 -1.02996732876E-02 -3.91307749296E-03 -4.29367932073E-01 -8.20870987760E-04
4.39000000000E+09 -4.30180201306E-01 +5.01750651737E-02 -1.01463772377E-02 -2.91502991703E-03 -1.04247756463E-02 -2.76355142113E-03 -4.31225559709E-01 +2.56799590077E-02
4.39500000000E+09 -4.30981115654E-01 +6.76497634237E-02 -1.08403796375E-02 -2.02276018473E-03 -1.10558522782E-02 -1.78900834387E-03 -4.30203359497E-01 +5.15395604546E-02
4.40000000000E+09 -4.30492911794E-01 +8.50368805375E-02 -1.15594536218E-02 -2.69518151127E-04 -1.15973504195E-02 +2.77868262138E-05 -4.27633607381E-01 +7.52543549761E-02
4.40500000000E+09 -4.28166162093E-01 +1.02445669036E-01 -1.12366980915E-02 +1.06872424840E-03 -1.12711824661E-02 +1.29551931950E-03 -4.24653549434E-01 +9.82164435051E-02
4.41000000000E+09 -4.25416795366E-01 +1.21490364001E-01 -1.08353081171E-02 +3.12658195789E-03 -1.08326732256E-02 +3.38674939198E-03 -4.22403262107E-01 +1.20061873922E-01
4.41500000000E+09 -4.22063443405E-01 +1.42903437127E-01 -9.95376955679E-03 +3.94796380226E-03 -9.90021494336E-03 +4.26292751333E-03 -4.19724680198E-01 +1.45191454116E-01
4.42000000000E+09 -4.17100819821E-01 +1.65162754912E-01 -9.28656462213E-03 +4.72306113411E-03 -9.15681425318E-03 +5.01974050199E-03 -4.13640578045E-01 +1.70230280539E-01
4.42500000000E+09 -4.13488917819E-01 +1.87733252562E-01 -8.61888301853E-03 +5.35619750293E-03 -8.33124606001E-03 +5.55278774024E-03 -4.06709055152E-01 +1.92423842021E-01
4.43000000000E+09 -4.09941878672E-01 +2.10208984420E-01 -8.64623736270E-03 +5.96599984013E-03 -8.34470143115E-03 +6.06861247352E-03 -4.02127174374E-01 +2.14518423687E-01
4.43500000000E+09 -4.06954542431E-01 +2.31223088420E-01 -8.15445379005E-03 +7.43235249071E-03 -7.82917329281E-03 +7.50569489315E-03 -3.96172706712E-01 +2.37804683905E-01
4.44000000000E+09 -4.04461645461E-01 +2.50027480273E-01 -6.97216048147E-03 +9.06602138166E-03 -6.70460804057E-03 +9.04241892080E-03 -3.87918720596E-01 +2.60671343130E-01
4.44500000000E+09 -4.02263089292E-01 +2.66818061498E-01 -5.04267090791E-03 +8.93908339861E-03 -4.76060000018E-03 +8.96521595670E-03 -3.77575098478E-01 +2.81741749251E-01
4.45000000000E+09 -3.99858807226E-01 +2.82380672945E-01 -4.23285929843E-03 +8.76571532241E-03 -3.98258882036E-03 +8.74959226484E-03 -3.67689701554E-01 +3.00417068502E-01
4.45500000000E+09 -3.94872104339E-01 +2.97333366712E-01 -4.40512160272E-03 +9.24300643113E-03 -4.11310848019E-03 +9.23047211609E-03 -3.58175874631E-01 +3.18815964262E-01
4.46000000000E+09 -3.88079553434E-01 +3.11738812983E-01 -3.13846198461E-03 +1.05119539826E-02 -2.87861880571E-03 +1.04429696100E-02 -3.49485142934E-01 +3.39285628876E-01
4.46500000000E+09 -3.78280575554E-01 +3.27278149535E-01 -1.52915074901E-03 +1.08319679065E-02 -1.22346754026E-03 +1.07264774048E-02 -3.36596913166E-01 +3.58460442414E-01
4.47000000000E+09 -3.65939376723E-01 +3.42408960234E-01 +1.61081616602E-04 +1.06493216621E-02 +4.63430029443E-04 +1.04722725543E-02 -3.24269435014E-01 +3.76429393082E-01
4.47500000000E+09 -3.53745385808E-01 +3.57927541545E-01 +1.26024929117E-03 +9.71116021837E-03 +1.50392027032E-03 +9.50256320507E-03 -3.11737644504E-01 +3.93230421536E-01
4.48000000000E+09 -3.42381912687E-01 +3.75435152944E-01 +1.36403527866E-03 +9.64978773944E-03 +1.52153610234E-03 +9.35828048994E-03 -3.00708305264E-01 +4.10407199946E-01
4.48500000000E+09 -3.30841739221E-01 +3.93969712349E-01 +2.44574027491E-03 +9.91917066178E-03 +2.54322279121E-03 +9.57244885063E-03 -2.87970314574E-01 +4.27810750597E-01
4.49000000000E+09 -3.21407946216E-01 +4.12198433366E-01 +3.85070897702E-03 +1.00703261344E-02 +3.85536508362E-03 +9.76445683170E-03 -2.74469470244E-01 +4.44217438056E-01
4.49500000000E+09 -3.12782478811E-01 +4.30270999636E-01 +5.49094377209E-03 +9.18381788687E-03 +5.32620124833E-03 +8.94217275307E-03 -2.59413551210E-01 +4.58310916340E-01
4.50000000000E+09 -3.04500820369E-01 +4.46046559943E-01 +6.36980913861E-03 +8.17828933394E-03 +6.24511735237E-03 +8.00249280544E-03 -2.45567757816E-01 +4.71618690397E-01
4.50500000000E+09 -2.97430137271E-01 +4.59890969956E-01 +7.47840545604E-03 +7.05881714315E-03 +7.38030632339E-03 +7.02200914851E-03 -2.31698592416E-01 +4.83949684118E-01
4.51000000000E+09 -2.89663868131E-01 +4.71248834514E-01 +7.58488280738E-03 +5.80529116568E-03 +7.51206286222E-03 +5.73246177432E-03 -2.19208427443E-01 +4.97894118967E-01
4.51500000000E+09 -2.80720499809E-01 +4.80482555547E-01 +7.78288550046E-03 +5.28403278108E-03 +7.75198510788E-03 +5.15320932576E-03 -2.04995472492E-01 +5.11033558983E-01
4.52000000000E+09 -2.70555622572E-01 +4.88436001448E-01 +8.62601771579E-03 +4.50562275311E-03 +8.57677992176E-03 +4.28292312379E-03 -1.90964983849E-01 +5.23521499990E-01
4.52500000000E+09 -2.58830197550E-01 +4.96693667075E-01 +8.77601365596E-03 +2.90459847152E-03 +8.69593410646E-03 +2.69521414829E-03 -1.76335761143E-01 +5.34178840742E-01
4.53000000000E+09 -2.44921119114E-01 +5.06190082272E-01 +8.57411615766E-03 +2.31790857588E-03 +8.54362529729E-03 +2.14872549944E-03 -1.62410993618E-01 +5.44798536568E-01
4.53500000000E+09 -2.28732553285E-01 +5.16266301099E-01 +8.59785022652E-03 +1.57764300267E-03 +8.54503910603E-03 +1.36420477417E-03 -1.47249407561E-01 +5.54909247002E-01
4.54000000000E+09 -2.11607653235E-01 +5.27053444136E-01 +8.77160950068E-03 +8.97928271959E-04 +8.69851959142E-03 +6.66382540997E-04 -1.31677858811E-01 +5.66115451659E-01
4.54500000000E+09 -1.95024622618E-01 +5.38105519572E-01 +9.14087798564E-03 -1.39150161706E-04 +8.97411208952E-03 -3.50879919863E-04 -1.14681686587E-01 +5.74929670555E-01
4.55000000000E+09 -1.79783970324E-01 +5.48806833727E-01 +9.10437595025E-03 -1.40771959008E-03 +8.83504955085E-03 -1.58154130435E-03 -9.87831084684E-02 +5.83505100069E-01
4.55500000000E+09 -1.67043639449E-01 +5.59198057878E-01 +8.59375519630E-03 -3.31015737791E-03 +8.39434067148E-03 -3.45034373752E-03 -8.38366608788E-02 +5.90997218669E-01
4.56000000000E+09 -1.56364503000E-01 +5.69533034413E-01 +6.71423253256E-03 -3.87750189850E-03 +6.49788876505E-03 -3.97909026052E-03 -7.03573003252E-02 +5.99643192057E-01
4.56500000000E+09 -1.46450778279E-01 +5.79672681690E-01 +6.03173291172E-03 -3.56057913243E-03 +5.79655735704E-03 -3.58754733568E-03 -5.49381001070E-02 +6.07970439039E-01
4.57000000000E+09 -1.36415834276E-01 +5.88516306091E-01 +5.88841513221E-03 -3.35626629377E-03 +5.61626182858E-03 -3.45471119044E-03 -3.89826123076E-02 +6.14613779547E-01
