# Hz S RI R 50
! CMT, C1220, 16058040, 17.2.0/1
! Date: 15/08/2018 11:42:42
! Data: Format (Calibration Info)
! Freq                      S11: Re/Im (F2)                       S21: Re/Im (F2)                       S12: Re/Im (F2)                       S22: Re/Im (F2)            
4.00000000000E+09 +6.37498299647E-01 -3.36175591064E-01 -2.37124968172E-03 -2.73017125476E-03 -2.29068092003E-03 -2.96378720648E-03 +7.70777663007E-01 -3.52582877032E-01
4.00500000000E+09 +6.28666753318E-01 -3.42496799171E-01 -2.45786166668E-03 -2.61903855503E-03 -2.42961740691E-03 -2.83359679119E-03 +7.62198708673E-01 -3.63939039615E-01
4.01000000000E+09 +6.18595474363E-01 -3.47858444483E-01 -2.90228527734E-03 -2.66139493956E-03 -2.81739504680E-03 -2.76606634172E-03 +7.52484196715E-01 -3.75058357777E-01
4.01500000000E+09 +6.07973966205E-01 -3.53170147678E-01 -3.21699283965E-03 -2.10953453946E-03 -3.24396999407E-03 -2.32849794469E-03 +7.42737886258E-01 -3.85227690101E-01
4.02000000000E+09 +5.96573359533E-01 -3.59803879037E-01 -3.23339755223E-03 -2.13896565257E-03 -3.19833222962E-03 -2.28867029577E-03 +7.33203336844E-01 -3.95702160153E-01
4.02500000000E+09 +5.84013481443E-01 -3.67052923537E-01 -3.93147606057E-03 -2.01369731694E-03 -3.94471547977E-03 -2.17583478716E-03 +7.22738479373E-01 -4.06293479481E-01
4.03000000000E+09 +5.71807695259E-01 -3.75104337412E-01 -4.28615540395E-03 -1.30807148978E-03 -4.34864555335E-03 -1.47667424943E-03 +7.11839222283E-01 -4.16606782469E-01
4.03500000000E+09 +5.59132169950E-01 -3.84531126779E-01 -4.23718374367E-03 -7.50399190138E-04 -4.33762504866E-03 -8.81167221299E-04 +7.00391555239E-01 -4.27313992169E-01
4.04000000000E+09 +5.46449073825E-01 -3.93859920522E-01 -4.41698795823E-03 -1.84114293454E-04 -4.54226320481E-03 -3.26504628290E-04 +6.88710580065E-01 -4.38077269064E-01
4.04500000000E+09 +5.34201336660E-01 -4.03385884039E-01 -4.07616022607E-03 +3.27992888460E-04 -4.27393640681E-03 +1.89189490423E-04 +6.77126483632E-01 -4.48087670058E-01
4.05000000000E+09 +5.21323389637E-01 -4.11916839090E-01 -4.03697756357E-03 +3.44047341815E-04 -4.18370757447E-03 +1.74951815244E-04 +6.65724930365E-01 -4.58445299221E-01
4.05500000000E+09 +5.07668560558E-01 -4.18670285752E-01 -4.34426784587E-03 +7.73429463140E-04 -4.55784016978E-03 +6.78249321114E-04 +6.52990006097E-01 -4.68557379100E-01
4.06000000000E+09 +4.94110012308E-01 -4.23291902469E-01 -4.39358029218E-03 +1.38579895413E-03 -4.61321822963E-03 +1.34948989738E-03 +6.40185225111E-01 -4.77701133368E-01
4.06500000000E+09 +4.80274859514E-01 -4.26792307838E-01 -4.05201466290E-03 +2.10020270551E-03 -4.19686852154E-03 +2.10169900766E-03 +6.26696278993E-01 -4.86712051414E-01
4.07000000000E+09 +4.66153314136E-01 -4.29825815470E-01 -3.73982625137E-03 +2.27695576694E-03 -3.84212755410E-03 +2.25782371967E-03 +6.12802590224E-01 -4.95995280846E-01
4.07500000000E+09 +4.50909751236E-01 -4.33463683687E-01 -3.44286306882E-03 +2.53081888323E-03 -3.57443766228E-03 +2.49889962373E-03 +5.98848372777E-01 -5.05753459707E-01
4.08000000000E+09 +4.34270867397E-01 -4.37327587654E-01 -3.29458693607E-03 +2.62887232429E-03 -3.38387335613E-03 +2.63819038159E-03 +5.84081350800E-01 -5.15601503537E-01
4.08500000000E+09 +4.16400649275E-01 -4.41778858355E-01 -3.25947808636E-03 +2.87740849376E-03 -3.41569742954E-03 +2.88409607949E-03 +5.69277951324E-01 -5.23832879498E-01
4.09000000000E+09 +3.98369354993E-01 -4.45410461949E-01 -3.03339218196E-03 +3.29403688090E-03 -3.20528207625E-03 +3.28334785291E-03 +5.54619095491E-01 -5.31733305705E-01
4.09500000000E+09 +3.81096429355E-01 -4.49468059604E-01 -3.07278156093E-03 +3.61554304334E-03 -3.19260569060E-03 +3.72458991145E-03 +5.39390434436E-01 -5.39050947510E-01
4.10000000000E+09 +3.64194938298E-01 -4.53784722840E-01 -2.54199936272E-03 +4.03084706729E-03 -2.64470266176E-03 +4.12304232525E-03 +5.23730596885E-01 -5.46302578196E-01
4.10500000000E+09 +3.47455382868E-01 -4.57411688547E-01 -2.28943530590E-03 +4.24500868954E-03 -2.34791205318E-03 +4.30211019522E-03 +5.06475941853E-01 -5.53917383163E-01
4.11000000000E+09 +3.30255369285E-01 -4.59690965096E-01 -1.99020561976E-03 +4.78052731296E-03 -2.13313565452E-03 +4.85325929187E-03 +4.88918047918E-01 -5.60464349390E-01
4.11500000000E+09 +3.13719726319E-01 -4.60098346967E-01 -1.10168691689E-03 +5.08309290567E-03 -1.23425262001E-03 +5.13119223052E-03 +4.72074901904E-01 -5.66854812900E-01
4.12000000000E+09 +2.96792757828E-01 -4.59661675079E-01 -7.11024099743E-04 +4.82334044593E-03 -8.13953283684E-04 +4.92527210665E-03 +4.54982370116E-01 -5.73760260837E-01
4.12500000000E+09 +2.79692100778E-01 -4.58135577572E-01 -6.60156868701E-04 +4.83741176559E-03 -8.02488368929E-04 +4.90229640385E-03 +4.37306642519E-01 -5.79811453425E-01
4.13000000000E+09 +2.62271894704E-01 -4.56380618674E-01 -2.34596562526E-04 +5.24522288383E-03 -3.97433146831E-04 +5.31849630312E-03 +4.19025523823E-01 -5.85228807933E-01
4.13500000000E+09 +2.44063358587E-01 -4.55319087721E-01 -1.90999650652E-06 +5.38379502129E-03 -2.19965439382E-04 +5.49964227774E-03 +4.00472988114E-01 -5.89577663150E-01
4.14000000000E+09 +2.25751776599E-01 -4.55112533633E-01 +6.54863256931E-04 +6.05746498457E-03 +3.91227076977E-04 +6.28853177541E-03 +3.81000185057E-01 -5.93781640018E-01
4.14500000000E+09 +2.06576828966E-01 -4.55807698895E-01 +1.95939169994E-03 +6.32788622582E-03 +1.73461676680E-03 +6.63320163055E-03 +3.61923383012E-01 -5.97639234324E-01
4.15000000000E+09 +1.87337643754E-01 -4.57589514595E-01 +2.86863998529E-03 +5.62254562102E-03 +2.85280621508E-03 +5.89361619299E-03 +3.43250844691E-01 -6.02525999248E-01
4.15500000000E+09 +1.67721572163E-01 -4.58437575459E-01 +3.45103437654E-03 +4.89619487502E-03 +3.46026888421E-03 +5.14787789255E-03 +3.23301452175E-01 -6.06991567713E-01
4.16000000000E+09 +1.48882563983E-01 -4.58050069937E-01 +3.56357437905E-03 +4.43752223664E-03 +3.63752029767E-03 +4.60013417461E-03 +3.02381201386E-01 -6.08966908482E-01
4.16500000000E+09 +1.30921177824E-01 -4.55772082469E-01 +3.43737296583E-03 +4.14579432190E-03 +3.48714038755E-03 +4.34301230415E-03 +2.83099616784E-01 -6.09858800079E-01
4.17000000000E+09 +1.14933298710E-01 -4.51065507062E-01 +3.81587928862E-03 +4.60787790929E-03 +3.81845765732E-03 +4.89153446505E-03 +2.62476625530E-01 -6.10574806451E-01
4.17500000000E+09 +9.97713186123E-02 -4.45318485980E-01 +4.82499179639E-03 +4.68978234263E-03 +4.90454917909E-03 +4.92162864043E-03 +2.41098355661E-01 -6.10793456400E-01
4.18000000000E+09 +8.46711298559E-02 -4.38710920276E-01 +5.83458545157E-03 +3.74908494148E-03 +5.94787667714E-03 +4.02509276416E-03 +2.19409006306E-01 -6.10695456366E-01
4.18500000000E+09 +6.82044893511E-02 -4.31045132790E-01 +6.13949898131E-03 +3.02624097917E-03 +6.28705318872E-03 +3.25548807697E-03 +1.96917923273E-01 -6.09642172053E-01
4.19000000000E+09 +5.13413426476E-02 -4.22726252462E-01 +6.49516092000E-03 +2.53350535781E-03 +6.66256257275E-03 +2.64408741889E-03 +1.75912143752E-01 -6.07535883278E-01
4.19500000000E+09 +3.31153060264E-02 -4.13869045523E-01 +6.86003386239E-03 +1.87215565458E-03 +7.01749921518E-03 +2.02597059140E-03 +1.54949905265E-01 -6.05328885678E-01
4.20000000000E+09 +1.51700579776E-02 -4.04616100922E-01 +7.15623669947E-03 +1.02806936560E-03 +7.32782404695E-03 +1.19458390927E-03 +1.33164919102E-01 -6.03288237143E-01
4.20500000000E+09 -1.79865673913E-03 -3.96623476650E-01 +7.26001628186E-03 +1.28414069537E-04 +7.50471914813E-03 +2.16934874358E-04 +1.10214231566E-01 -5.99738403408E-01
4.21000000000E+09 -1.84065480895E-02 -3.89050848303E-01 +7.16828139599E-03 -1.02045449411E-03 +7.43659279201E-03 -9.58184482430E-04 +8.71389485022E-02 -5.94368791183E-01
4.21500000000E+09 -3.44338069390E-02 -3.82299390685E-01 +6.45662691780E-03 -1.10396401753E-03 +6.66885869386E-03 -1.06967506482E-03 +6.56024135789E-02 -5.89425584040E-01
4.22000000000E+09 -5.01748300903E-02 -3.73932011930E-01 +6.91964407137E-03 -9.50321108933E-04 +7.11748203585E-03 -9.22784947257E-04 +4.33009450465E-02 -5.84046523435E-01
4.22500000000E+09 -6.43062931492E-02 -3.63680722299E-01 +7.83552171067E-03 -2.16459873425E-03 +8.07828782870E-03 -2.11905741374E-03 +2.06090843425E-02 -5.78024146122E-01
4.23000000000E+09 -7.69562420055E-02 -3.51876572836E-01 +7.62922712139E-03 -3.85951963732E-03 +7.80576616579E-03 -3.86964899544E-03 -1.88919759252E-03 -5.70247011616E-01
4.23500000000E+09 -8.89305402118E-02 -3.38681533760E-01 +6.74947741180E-03 -4.91464490019E-03 +6.96724236705E-03 -4.95700490855E-03 -2.35217365449E-02 -5.60606756785E-01
4.24000000000E+09 -1.01537210861E-01 -3.24312993110E-01 +5.91205026665E-03 -5.65901644171E-03 +6.07181787617E-03 -5.83268681248E-03 -4.42755503494E-02 -5.50823634172E-01
4.24500000000E+09 -1.14309296004E-01 -3.09342539999E-01 +4.89700438277E-03 -5.50330301024E-03 +5.08290377105E-03 -5.61907355660E-03 -6.50497380530E-02 -5.41284598333E-01
4.25000000000E+09 -1.28820754842E-01 -2.94136365193E-01 +5.16033050348E-03 -5.92846311190E-03 +5.28822719406E-03 -6.05124001094E-03 -8.72364949397E-02 -5.30590143126E-01
4.25500000000E+09 -1.44087721531E-01 -2.79540613218E-01 +4.45771656974E-03 -7.06556786224E-03 +4.63668666203E-03 -7.18991938915E-03 -1.09262433838E-01 -5.18584833419E-01
4.26000000000E+09 -1.60431952370E-01 -2.65760297665E-01 +3.52164389825E-03 -7.43219742912E-03 +3.65938090389E-03 -7.59003787237E-03 -1.30558708008E-01 -5.04567893658E-01
4.26500000000E+09 -1.77498378476E-01 -2.52838570424E-01 +2.82463303389E-03 -7.31781348379E-03 +2.89173217692E-03 -7.54633926241E-03 -1.50398327383E-01 -4.89627448810E-01
4.27000000000E+09 -1.93450164220E-01 -2.39492593892E-01 +2.43803627807E-03 -7.71773935253E-03 +2.45580381177E-03 -7.97146104531E-03 -1.69608123873E-01 -4.74781224056E-01
4.27500000000E+09 -2.08114511008E-01 -2.26348321918E-01 +1.76203073249E-03 -8.30355440239E-03 +1.74293783513E-03 -8.39654398521E-03 -1.90224294757E-01 -4.58664340952E-01
4.28000000000E+09 -2.19725030599E-01 -2.11726428400E-01 +1.10968503494E-03 -8.84701415467E-03 +1.06693463242E-03 -8.95150708382E-03 -2.09617637361E-01 -4.41601519226E-01
4.28500000000E+09 -2.27757117808E-01 -1.97364871954E-01 -6.39051915912E-05 -9.65980376170E-03 -1.44569181649E-04 -9.80011631355E-03 -2.28926913104E-01 -4.24644853011E-01
4.29000000000E+09 -2.34529557590E-01 -1.83360189626E-01 -2.07267011878E-03 -9.62560733133E-03 -2.10247268023E-03 -9.76925505540E-03 -2.46230004560E-01 -4.05941863504E-01
4.29500000000E+09 -2.41710898962E-01 -1.69004913475E-01 -3.40293473810E-03 -8.16495229620E-03 -3.47503782731E-03 -8.27553025162E-03 -2.61259350652E-01 -3.89384557682E-01
4.30000000000E+09 -2.50082923826E-01 -1.51573465756E-01 -3.61175353537E-03 -7.42872222166E-03 -3.68676798419E-03 -7.55833329738E-03 -2.78444068380E-01 -3.71936167264E-01
4.30500000000E+09 -2.57758082838E-01 -1.32342291415E-01 -3.65706938904E-03 -7.04297971628E-03 -3.71993908119E-03 -7.17824527205E-03 -2.95298980671E-01 -3.51041145218E-01
4.31000000000E+09 -2.65682378254E-01 -1.11470476711E-01 -3.72376792989E-03 -7.38687994539E-03 -3.77557315563E-03 -7.48132433792E-03 -3.10350355523E-01 -3.29682668508E-01
4.31500000000E+09 -2.72301486747E-01 -9.13255088435E-02 -4.67868005783E-03 -7.81413208340E-03 -4.80278215731E-03 -7.92553675150E-03 -3.24126129605E-01 -3.07388572278E-01
4.32000000000E+09 -2.78362052385E-01 -7.24488138997E-02 -6.09530314781E-03 -7.65488497424E-03 -6.27175159325E-03 -7.70125940287E-03 -3.36632856001E-01 -2.86138573117E-01
4.32500000000E+09 -2.84124517633E-01 -5.70185259713E-02 -7.82051883946E-03 -6.72248125917E-03 -7.92300599104E-03 -6.76944841588E-03 -3.49420199271E-01 -2.64707534968E-01
4.33000000000E+09 -2.91287247822E-01 -4.17755802872E-02 -8.04452699432E-03 -5.79223325004E-03 -8.15807098202E-03 -5.83062160930E-03 -3.62032871806E-01 -2.40698526164E-01
4.33500000000E+09 -2.96675038725E-01 -2.53936808934E-02 -9.17763522892E-03 -5.00671644156E-03 -9.25771515441E-03 -5.08966330929E-03 -3.71570505429E-01 -2.15507617310E-01
4.34000000000E+09 -2.98817469250E-01 -8.62438886140E-03 -9.99643725529E-03 -3.66467441800E-03 -1.00343270153E-02 -3.62958583921E-03 -3.79474397735E-01 -1.91182110406E-01
4.34500000000E+09 -2.98194454864E-01 +7.60545800902E-03 -9.81458006589E-03 -2.05695984493E-03 -9.84050461275E-03 -2.07451529511E-03 -3.88601234080E-01 -1.68929706359E-01
4.35000000000E+09 -2.96842178513E-01 +2.43164487566E-02 -9.67506172517E-03 -1.40432966028E-03 -9.82684520344E-03 -1.49235091296E-03 -3.99126638093E-01 -1.44259682713E-01
4.35500000000E+09 -2.94685781127E-01 +4.19193694159E-02 -9.97513711173E-03 -6.90097772413E-04 -1.01308307526E-02 -7.45310562534E-04 -4.06715117057E-01 -1.17370887206E-01
4.36000000000E+09 -2.93670233742E-01 +6.08064922815E-02 -9.75410310677E-03 -9.36701523831E-05 -9.92748849535E-03 -1.26426972212E-04 -4.11524767128E-01 -9.21791105931E-02
4.36500000000E+09 -2.92321514297E-01 +8.12266527510E-02 -1.10152650689E-02 +3.47569964178E-04 -1.12505096077E-02 +4.21640686670E-04 -4.14978114589E-01 -6.85097594227E-02
4.37000000000E+09 -2.92013957094E-01 +1.01237302294E-01 -1.17837236846E-02 +2.51683688344E-03 -1.20823433835E-02 +2.74024915838E-03 -4.18226653544E-01 -4.45429300970E-02
4.37500000000E+09 -2.91764290972E-01 +1.20483889762E-01 -1.11236666721E-02 +5.09680015388E-03 -1.12958460016E-02 +5.36689472588E-03 -4.20711247811E-01 -2.03651236115E-02
4.38000000000E+09 -2.93153157673E-01 +1.38442432329E-01 -9.88130867496E-03 +6.07589706905E-03 -9.93684215394E-03 +6.43013013411E-03 -4.22838935662E-01 +6.32476557809E-03
4.38500000000E+09 -2.93632084594E-01 +1.55223696677E-01 -8.58857659807E-03 +7.07570629175E-03 -8.60890305853E-03 +7.36938114779E-03 -4.21780192473E-01 +3.24279923915E-02
4.39000000000E+09 -2.93051458688E-01 +1.70665039073E-01 -7.55045910466E-03 +7.64165555881E-03 -7.50823075489E-03 +7.88901490955E-03 -4.20638608305E-01 +5.65953268697E-02
4.39500000000E+09 -2.90914886066E-01 +1.84205440371E-01 -7.25441641177E-03 +7.87483535303E-03 -7.15216306339E-03 +8.14631428485E-03 -4.20202881839E-01 +7.98592981029E-02
4.40000000000E+09 -2.86786619835E-01 +1.97591081495E-01 -6.47055950366E-03 +9.20321926154E-03 -6.36568241233E-03 +9.41910042328E-03 -4.19043716459E-01 +1.04161642133E-01
4.40500000000E+09 -2.81418703505E-01 +2.10030891946E-01 -5.44044191299E-03 +1.00390686865E-02 -5.21627421889E-03 +1.02236782641E-02 -4.15479446545E-01 +1.28370385307E-01
4.41000000000E+09 -2.75505655165E-01 +2.23934269337E-01 -3.92278526516E-03 +1.00236457386E-02 -3.71448530029E-03 +1.01921111322E-02 -4.10137642074E-01 +1.52638374816E-01
4.41500000000E+09 -2.68275054401E-01 +2.40048992002E-01 -3.48612295272E-03 +1.09761131566E-02 -3.29298516644E-03 +1.10716973866E-02 -4.04252269963E-01 +1.75171652310E-01
4.42000000000E+09 -2.61032999485E-01 +2.57016554643E-01 -2.05988467764E-03 +1.12684563174E-02 -1.75710958014E-03 +1.13673132392E-02 -3.97677402736E-01 +1.98320433146E-01
4.42500000000E+09 -2.53629376526E-01 +2.74728775197E-01 -8.25690752051E-04 +1.21085015761E-02 -5.22915881288E-04 +1.20181130282E-02 -3.92326363650E-01 +2.19903988174E-01
4.43000000000E+09 -2.47100497356E-01 +2.91930953831E-01 +1.58800032073E-03 +1.21656525665E-02 +1.79727516849E-03 +1.19909792142E-02 -3.85268363765E-01 +2.43352084373E-01
4.43500000000E+09 -2.41102193216E-01 +3.07941328246E-01 +3.00694657807E-03 +1.10352594732E-02 +3.11276357798E-03 +1.08691490433E-02 -3.76079174337E-01 +2.65096045697E-01
4.44000000000E+09 -2.36685847371E-01 +3.21357935274E-01 +3.97249484274E-03 +9.73673330128E-03 +4.09298816147E-03 +9.64660988556E-03 -3.67066314464E-01 +2.84594822054E-01
4.44500000000E+09 -2.32984097414E-01 +3.33623885566E-01 +4.04557390961E-03 +9.52225171872E-03 +4.15679625245E-03 +9.39753087525E-03 -3.59088480527E-01 +3.03970410473E-01
4.45000000000E+09 -2.29255996195E-01 +3.44516405431E-01 +4.72991317275E-03 +9.24756536561E-03 +4.84559580778E-03 +9.05610365406E-03 -3.49710412756E-01 +3.24376696470E-01
4.45500000000E+09 -2.22900571660E-01 +3.54699834705E-01 +5.76357064261E-03 +9.76500271697E-03 +5.95638744057E-03 +9.56797160003E-03 -3.38923286911E-01 +3.43923733019E-01
4.46000000000E+09 -2.15225357806E-01 +3.63521910686E-01 +7.76853201290E-03 +8.85933493752E-03 +7.86590171704E-03 +8.59926447555E-03 -3.25510610078E-01 +3.62647703262E-01
4.46500000000E+09 -2.04979606307E-01 +3.73256992078E-01 +8.60007235501E-03 +7.27524242130E-03 +8.65576270185E-03 +7.00752014812E-03 -3.13452658183E-01 +3.78135527826E-01
4.47000000000E+09 -1.93006416109E-01 +3.82989333282E-01 +9.06592821419E-03 +6.21931064247E-03 +9.04941100924E-03 +5.89381136767E-03 -3.02454704612E-01 +3.94381876109E-01
4.47500000000E+09 -1.79968301674E-01 +3.93268078355E-01 +9.22471094269E-03 +5.31551354910E-03 +9.15604780314E-03 +5.03556716926E-03 -2.91582586875E-01 +4.12268938637E-01
4.48000000000E+09 -1.68060920103E-01 +4.04227306542E-01 +9.91667858169E-03 +4.42649667817E-03 +9.84668441707E-03 +4.15265139573E-03 -2.78312227498E-01 +4.29387919002E-01
4.48500000000E+09 -1.57406781982E-01 +4.16767865435E-01 +1.06957657780E-02 +3.73277343742E-03 +1.05296034183E-02 +3.48899336085E-03 -2.64312518497E-01 +4.44558040376E-01
4.49000000000E+09 -1.48094824584E-01 +4.29646775797E-01 +1.12501048979E-02 +1.36006905060E-03 +1.10098293189E-02 +1.27188360195E-03 -2.51147444448E-01 +4.58549603001E-01
4.49500000000E+09 -1.40012069816E-01 +4.42252920788E-01 +1.02013199368E-02 +1.88160317757E-04 +1.00231992254E-02 +1.75597178489E-04 -2.38458451686E-01 +4.72710948538E-01
4.50000000000E+09 -1.32794943509E-01 +4.53298912819E-01 +1.00097014709E-02 -4.06411784071E-05 +9.92569828876E-03 -5.11227426664E-05 -2.24131950172E-01 +4.86721595091E-01
4.50500000000E+09 -1.26244554933E-01 +4.62434286268E-01 +1.01760242014E-02 -7.78271330802E-04 +1.01065355086E-02 -8.76941970966E-04 -2.10169131250E-01 +5.00044116983E-01
4.51000000000E+09 -1.19065153273E-01 +4.68604496981E-01 +1.07051281409E-02 -1.84337227781E-03 +1.05575902963E-02 -1.97117349068E-03 -1.94447067471E-01 +5.12062425582E-01
4.51500000000E+09 -1.11840881142E-01 +4.73145699980E-01 +1.05108021644E-02 -3.32191530047E-03 +1.03033037066E-02 -3.40715994927E-03 -1.80779764233E-01 +5.22537613737E-01
4.52000000000E+09 -1.03090729006E-01 +4.77011995468E-01 +1.03090276868E-02 -5.17274888309E-03 +1.00655288298E-02 -5.22045754790E-03 -1.67471623986E-01 +5.33417800603E-01
4.52500000000E+09 -9.25491044574E-02 +4.80856549603E-01 +8.51416932481E-03 -6.13418872381E-03 +8.35547202569E-03 -6.15438001224E-03 -1.53905475526E-01 +5.44547318729E-01
4.53000000000E+09 -8.00482217435E-02 +4.85546163998E-01 +7.96450062014E-03 -6.46985072578E-03 +7.73805866877E-03 -6.51365929398E-03 -1.38779019555E-01 +5.54326883584E-01
4.53500000000E+09 -6.57499669319E-02 +4.91354801094E-01 +7.25229917346E-03 -7.31249245760E-03 +6.98653316645E-03 -7.29760334699E-03 -1.24069672616E-01 +5.63599099288E-01
4.54000000000E+09 -5.05120236086E-02 +4.97652381516E-01 +6.43581886552E-03 -7.87546776459E-03 +6.16616585569E-03 -7.87207975389E-03 -1.08124274991E-01 +5.72149740836E-01
4.54500000000E+09 -3.65570501725E-02 +5.04349347989E-01 +5.38993548514E-03 -8.38895821024E-03 +5.17801010703E-03 -8.28793672506E-03 -9.41571519730E-02 +5.81123957821E-01
4.55000000000E+09 -2.42597652038E-02 +5.11581881724E-01 +4.74098327029E-03 -9.04865229243E-03 +4.50827651079E-03 -8.88200807037E-03 -7.83324902433E-02 +5.90284316840E-01
4.55500000000E+09 -1.40997736041E-02 +5.19078831386E-01 +3.23395569818E-03 -8.98054399119E-03 +3.04208178797E-03 -8.86789085431E-03 -6.27683977706E-02 +5.98856945034E-01
4.56000000000E+09 -5.77745294783E-03 +5.26757146198E-01 +2.63178241212E-03 -9.06217065561E-03 +2.45214436985E-03 -9.02930451759E-03 -4.73879367685E-02 +6.04829083660E-01
4.56500000000E+09 +2.59124759359E-03 +5.33541210982E-01 +2.06970933986E-03 -9.35081552104E-03 +1.82176652311E-03 -9.25381902147E-03 -3.32096892043E-02 +6.11343562510E-01
4.57000000000E+09 +1.09208234000E-02 +5.38356914071E-01 +9.86012223071E-04 -9.93181809977E-03 +6.51832576866E-04 -9.80062094570E-03 -1.82550064760E-02 +6.17124841295E-01
