# Hz S RI R 50
! CMT, C1220, 16058040, 17.2.0/1
! Date: 15/08/2018 12:22:04
! Data: Format (Calibration Info)
! Freq                      S11: Re/Im (F2)                       S21: Re/Im (F2)                       S12: Re/Im (F2)                       S22: Re/Im (F2)            
4.00000000000E+09 +6.54997349877E-01 -3.55242081937E-01 +1.96461155343E-04 -4.33994454732E-04 +2.59278491670E-04 -4.18562621789E-04 +7.43077577803E-01 -3.24029111555E-01
4.00500000000E+09 +6.47177753286E-01 -3.61466330292E-01 +1.66463770130E-04 -2.91329637807E-04 +1.52187964023E-04 -3.60216174545E-04 +7.32594094374E-01 -3.34747149596E-01
4.01000000000E+09 +6.38575626178E-01 -3.68000277914E-01 +2.17441215952E-04 -3.75165234144E-04 +2.81489525429E-04 -3.51240032250E-04 +7.21800862806E-01 -3.45548381953E-01
4.01500000000E+09 +6.28155432226E-01 -3.75210869370E-01 +2.11467573218E-04 -5.26413818251E-04 +1.92463509877E-04 -5.41165142968E-04 +7.10800592757E-01 -3.55868857213E-01
4.02000000000E+09 +6.17371418874E-01 -3.83408587409E-01 -8.94377967429E-05 -5.73244893803E-04 -6.17808862340E-05 -6.48434251076E-04 +6.99264956668E-01 -3.66005551195E-01
4.02500000000E+09 +6.05553610884E-01 -3.92896801271E-01 -1.28662026227E-04 -2.90394063721E-04 -1.39773427670E-04 -2.94723939966E-04 +6.87128128692E-01 -3.75831150552E-01
4.03000000000E+09 +5.94019391382E-01 -4.03033801892E-01 +3.98732944883E-05 -3.28569292796E-04 +3.01081067690E-05 -3.64022507030E-04 +6.74298053452E-01 -3.85528875829E-01
4.03500000000E+09 +5.82616629141E-01 -4.13886514751E-01 +1.48881661431E-04 -3.36071379171E-04 +1.17522931538E-04 -3.42345270158E-04 +6.61424844889E-01 -3.95168147417E-01
4.04000000000E+09 +5.71614555448E-01 -4.24700325554E-01 +1.36089267535E-04 -5.75526534879E-04 +1.37186578696E-04 -5.94807810505E-04 +6.48189796241E-01 -4.05291619987E-01
4.04500000000E+09 +5.60723150257E-01 -4.34684631101E-01 -2.81318768735E-04 -6.61068950847E-04 -2.09278472760E-04 -7.31937214653E-04 +6.34176382161E-01 -4.14996051724E-01
4.05000000000E+09 +5.49473345275E-01 -4.43248250286E-01 -4.19993596219E-04 -3.66168073199E-04 -3.86766029208E-04 -3.79100298930E-04 +6.20177256354E-01 -4.23841969588E-01
4.05500000000E+09 +5.37897796218E-01 -4.49220351564E-01 -2.63333083837E-04 -3.33212265890E-04 -2.19617109384E-04 -3.10496639118E-04 +6.05741543367E-01 -4.32305581251E-01
4.06000000000E+09 +5.26376626863E-01 -4.54139193083E-01 -2.19807096991E-04 -2.13176470927E-04 -2.19320691932E-04 -1.97186118412E-04 +5.90955442810E-01 -4.40323275705E-01
4.06500000000E+09 +5.13757321245E-01 -4.58300497065E-01 -4.34738438664E-06 -3.94722135092E-04 -3.34771767982E-05 -3.84815306680E-04 +5.75193617973E-01 -4.47746972719E-01
4.07000000000E+09 +4.99665008557E-01 -4.62648074580E-01 -2.30382230052E-04 -6.36142044678E-04 -1.87754153037E-04 -6.81971439400E-04 +5.59450222117E-01 -4.54842751391E-01
4.07500000000E+09 +4.84220400535E-01 -4.67103227220E-01 -4.74008025172E-04 -4.79463511781E-04 -4.58188839871E-04 -5.00433517307E-04 +5.43073077978E-01 -4.62535220072E-01
4.08000000000E+09 +4.67621288425E-01 -4.72497402649E-01 -5.16163142803E-04 -3.81067912774E-04 -5.14347078168E-04 -4.19329843659E-04 +5.26667574733E-01 -4.69251990407E-01
4.08500000000E+09 +4.49924157240E-01 -4.78119628030E-01 -7.01688263530E-04 -3.13216000225E-04 -7.22772314948E-04 -3.58795522523E-04 +5.10257438302E-01 -4.76739227051E-01
4.09000000000E+09 +4.33009564181E-01 -4.84377271502E-01 -6.10904213323E-04 -1.38438653254E-04 -6.17718042612E-04 -1.57983156764E-04 +4.92312473076E-01 -4.82220041845E-01
4.09500000000E+09 +4.15907338474E-01 -4.91449717955E-01 -6.01133280093E-04 -7.22946431462E-05 -5.99630043520E-04 -6.77006063857E-05 +4.75421121336E-01 -4.87270491644E-01
4.10000000000E+09 +3.98626264699E-01 -4.97915600486E-01 -6.77914002396E-04 -1.30652735055E-04 -6.82264588884E-04 -1.12288000628E-04 +4.56611375051E-01 -4.92346624793E-01
4.10500000000E+09 +3.81897188711E-01 -5.02396592655E-01 -5.41501925937E-04 +2.63368674478E-04 -6.13355828471E-04 +2.61067095919E-04 +4.37607503896E-01 -4.95882356684E-01
4.11000000000E+09 +3.65495411322E-01 -5.05404040769E-01 -3.99330028319E-04 -2.11557614594E-05 -4.16003496307E-04 -4.59895965474E-05 +4.18774394621E-01 -4.99594525263E-01
4.11500000000E+09 +3.49797768034E-01 -5.06655027556E-01 -4.13836753066E-04 -1.05552171617E-04 -4.08489871783E-04 -1.29595333828E-04 +3.99487104527E-01 -5.03311211359E-01
4.12000000000E+09 +3.33780104717E-01 -5.07929685876E-01 -6.44603960165E-04 -2.14079363427E-04 -6.53369916994E-04 -1.77186713225E-04 +3.79668367631E-01 -5.06520734517E-01
4.12500000000E+09 +3.15954115470E-01 -5.08372941091E-01 -9.59401264337E-04 -1.23179430472E-04 -9.85296082554E-04 -7.82516351600E-05 +3.59133068312E-01 -5.08553325742E-01
4.13000000000E+09 +2.97545973637E-01 -5.08729176011E-01 -1.14113261952E-03 +4.99474828869E-04 -1.11367365478E-03 +5.82652275067E-04 +3.38751615709E-01 -5.09509432938E-01
4.13500000000E+09 +2.78095381643E-01 -5.10366425952E-01 -6.56011093194E-04 +7.75474038645E-04 -6.76166064973E-04 +8.02761710291E-04 +3.18083573807E-01 -5.09396978316E-01
4.14000000000E+09 +2.57605757771E-01 -5.12701114650E-01 -2.86935325475E-04 +7.07901569219E-04 -3.46884765287E-04 +7.87841934493E-04 +2.97262047515E-01 -5.09115640571E-01
4.14500000000E+09 +2.37347833893E-01 -5.16299338457E-01 -2.59392349416E-04 +5.75704399631E-04 -2.53780295975E-04 +6.17693853551E-04 +2.76544247701E-01 -5.07998184877E-01
4.15000000000E+09 +2.16391860624E-01 -5.20519547135E-01 -1.83686772775E-04 +4.91407244874E-04 -1.23716960925E-04 +5.13928738874E-04 +2.56156805666E-01 -5.06932019828E-01
4.15500000000E+09 +1.96485000125E-01 -5.24003857565E-01 -3.17494162838E-04 +1.93721630514E-04 -3.03192775454E-04 +1.99731675389E-04 +2.34959407000E-01 -5.04402906053E-01
4.16000000000E+09 +1.77958280050E-01 -5.26709353052E-01 -6.64277219225E-04 +3.14285270844E-04 -6.53438438870E-04 +2.72704279264E-04 +2.14498865250E-01 -5.00431526766E-01
4.16500000000E+09 +1.60198810255E-01 -5.27233684283E-01 -7.95936121678E-04 +7.64253665345E-04 -7.51218723116E-04 +7.84400709682E-04 +1.93972238636E-01 -4.96078178804E-01
4.17000000000E+09 +1.44543527645E-01 -5.25790830947E-01 -5.51916609698E-04 +9.87439558008E-04 -5.37877803332E-04 +9.22067388072E-04 +1.72945895715E-01 -4.90700509242E-01
4.17500000000E+09 +1.29083065313E-01 -5.23032234472E-01 -3.65578455036E-04 +1.18315918813E-03 -3.99281308712E-04 +1.16889471241E-03 +1.51666202927E-01 -4.84504926767E-01
4.18000000000E+09 +1.13404993146E-01 -5.18694375003E-01 -1.07599778002E-04 +1.43176463098E-03 -1.68871700559E-04 +1.40699013873E-03 +1.30885238604E-01 -4.76860838372E-01
4.18500000000E+09 +9.66417454410E-02 -5.13896604847E-01 +6.81558061736E-04 +1.44132362160E-03 +5.82372574777E-04 +1.44657510343E-03 +1.11261775748E-01 -4.69538377792E-01
4.19000000000E+09 +7.83780606327E-02 -5.08058578451E-01 +5.67168718559E-04 +5.86390095231E-04 +5.70759880923E-04 +6.10404302442E-04 +9.05901883681E-02 -4.61829571670E-01
4.19500000000E+09 +5.96273321613E-02 -5.01508663038E-01 +1.95784793110E-04 +6.01400153790E-04 +1.12114693740E-04 +6.52816835359E-04 +7.03538567654E-02 -4.52068767033E-01
4.20000000000E+09 +4.05823139355E-02 -4.95765144363E-01 +2.88925877426E-04 +8.57841389202E-04 +2.67726011541E-04 +8.88787217864E-04 +5.07675322331E-02 -4.41666897100E-01
4.20500000000E+09 +2.15037769703E-02 -4.90597278387E-01 +2.85744674820E-05 +7.00007206447E-04 -2.98092636424E-05 +7.88652847817E-04 +3.09070216453E-02 -4.30451373792E-01
4.21000000000E+09 +2.83166713200E-03 -4.85627774628E-01 +1.14770795685E-04 +1.53022203547E-03 +4.78542971944E-05 +1.63457455017E-03 +1.19780693562E-02 -4.18229136710E-01
4.21500000000E+09 -1.52969107242E-02 -4.80178521455E-01 +1.04641035606E-03 +1.86679995080E-03 +1.02727350538E-03 +1.94381611622E-03 -6.15789514649E-03 -4.06474969134E-01
4.22000000000E+09 -3.27229458923E-02 -4.73000918516E-01 +1.78638847017E-03 +1.24932521719E-03 +1.80015849606E-03 +1.29829735329E-03 -2.42199064761E-02 -3.94308695274E-01
4.22500000000E+09 -4.81099164258E-02 -4.63963642359E-01 +1.88347501207E-03 +4.90499480901E-04 +2.00797123126E-03 +5.46256365240E-04 -4.19374120579E-02 -3.81030277951E-01
4.23000000000E+09 -6.27934694277E-02 -4.53508135847E-01 +1.48025024367E-03 -1.06060763497E-04 +1.55043252260E-03 -7.93343642667E-05 -5.91064646835E-02 -3.66763234265E-01
4.23500000000E+09 -7.78001069899E-02 -4.41690920692E-01 +1.01599281535E-03 +1.82555357975E-04 +1.08527012022E-03 +2.11688605778E-04 -7.60087865729E-02 -3.51010991930E-01
4.24000000000E+09 -9.35429137921E-02 -4.28412098791E-01 +1.05110188583E-03 +4.78082410979E-04 +1.23010189898E-03 +4.44262731797E-04 -9.16591400726E-02 -3.34249359209E-01
4.24500000000E+09 -1.10739946801E-01 -4.14715732562E-01 +1.83941291374E-03 +6.60144186511E-04 +1.95537539866E-03 +5.68264283960E-04 -1.07329984054E-01 -3.17011343240E-01
4.25000000000E+09 -1.29481144195E-01 -4.00517570530E-01 +2.49832073480E-03 +2.85353311734E-05 +2.51117609463E-03 +1.22784599578E-05 -1.21303858691E-01 -2.98740103109E-01
4.25500000000E+09 -1.48684173052E-01 -3.86545802566E-01 +2.40198367826E-03 -1.04986906788E-03 +2.49335204667E-03 -1.11119306586E-03 -1.34068630857E-01 -2.81224341495E-01
4.26000000000E+09 -1.68473912786E-01 -3.73717166383E-01 +1.68400876951E-03 -1.54589002447E-03 +1.72656889583E-03 -1.73292383003E-03 -1.46986407497E-01 -2.63716104408E-01
4.26500000000E+09 -1.87541806665E-01 -3.61280281212E-01 +1.21404988153E-03 -1.48471536282E-03 +1.20086574910E-03 -1.64090537792E-03 -1.58884854730E-01 -2.44687152775E-01
4.27000000000E+09 -2.04882145090E-01 -3.49700311568E-01 +1.04063103894E-03 -1.38468379829E-03 +9.77145419653E-04 -1.48508537258E-03 -1.70958975110E-01 -2.25334904464E-01
4.27500000000E+09 -2.21051375978E-01 -3.37789766637E-01 +1.04475991558E-03 -1.60834139435E-03 +9.60627030062E-04 -1.67055520528E-03 -1.81895008348E-01 -2.04556279927E-01
4.28000000000E+09 -2.34695039304E-01 -3.24681407232E-01 +8.70916259977E-04 -1.76589777791E-03 +7.74012048680E-04 -1.78072755362E-03 -1.91672024837E-01 -1.83822547085E-01
4.28500000000E+09 -2.45965936211E-01 -3.10248574899E-01 +6.33233853089E-04 -1.71136777549E-03 +6.03791376955E-04 -1.70894094867E-03 -1.99902164372E-01 -1.63053014942E-01
4.29000000000E+09 -2.55801749493E-01 -2.94816034143E-01 +7.08750049026E-04 -2.10543100585E-03 +5.97179320013E-04 -2.10788507860E-03 -2.07441233054E-01 -1.43587587036E-01
4.29500000000E+09 -2.65917848367E-01 -2.77886900188E-01 +7.52042261913E-05 -2.59806375386E-03 +1.87353578289E-05 -2.53329590790E-03 -2.14761680988E-01 -1.24422520186E-01
4.30000000000E+09 -2.76782710377E-01 -2.58974252669E-01 -7.84848292029E-04 -2.12428754799E-03 -8.24073638388E-04 -2.03640622494E-03 -2.20874985491E-01 -1.04112234555E-01
4.30500000000E+09 -2.88376593633E-01 -2.38819241295E-01 -5.06353358591E-04 -1.84254505614E-03 -5.93745384580E-04 -1.76043718384E-03 -2.26367372341E-01 -8.33495756370E-02
4.31000000000E+09 -3.00149022503E-01 -2.18091802940E-01 -9.16800963479E-04 -2.11487639175E-03 -9.10839774725E-04 -1.98631708538E-03 -2.29992525181E-01 -6.24293926752E-02
4.31500000000E+09 -3.12514723732E-01 -1.98661351334E-01 -1.36556996756E-03 -1.75777947630E-03 -1.35749242516E-03 -1.69326405921E-03 -2.33105321481E-01 -4.13444666679E-02
4.32000000000E+09 -3.24427781706E-01 -1.80478458508E-01 -1.50179226237E-03 -1.25220052004E-03 -1.43711376333E-03 -1.21983963183E-03 -2.35647589637E-01 -2.03154540022E-02
4.32500000000E+09 -3.36202001406E-01 -1.64055349665E-01 -1.21515646912E-03 -1.23401938030E-03 -1.16922787010E-03 -1.17049040048E-03 -2.37456672638E-01 +4.69507374427E-04
4.33000000000E+09 -3.46503434325E-01 -1.47274546441E-01 -1.59449317332E-03 -1.41026237724E-03 -1.55741866515E-03 -1.33819164268E-03 -2.38635287326E-01 +2.13388536184E-02
4.33500000000E+09 -3.53203414263E-01 -1.30997313123E-01 -1.69206395467E-03 -1.27013895758E-03 -1.58524874636E-03 -1.26379410915E-03 -2.38585673702E-01 +4.24215717801E-02
4.34000000000E+09 -3.57929671246E-01 -1.15232333096E-01 -2.49501472093E-03 -1.33922936044E-03 -2.43596564199E-03 -1.31532125823E-03 -2.38145142421E-01 +6.27622240283E-02
4.34500000000E+09 -3.60442753002E-01 -9.79806020507E-02 -3.00464791710E-03 -3.15528832956E-04 -2.85985605584E-03 -2.94778210971E-04 -2.36514110744E-01 +8.33363183362E-02
4.35000000000E+09 -3.61584831950E-01 -8.01708469270E-02 -2.46006454128E-03 +5.95053622833E-04 -2.44541402218E-03 +5.11525828586E-04 -2.34957423413E-01 +1.02762389557E-01
4.35500000000E+09 -3.63682687814E-01 -5.97948342051E-02 -1.82148548530E-03 +4.79064742828E-04 -1.80852412742E-03 +4.05189151168E-04 -2.32208167059E-01 +1.22840543799E-01
4.36000000000E+09 -3.65589237364E-01 -3.72718737333E-02 -1.95212281433E-03 +4.84123379493E-04 -1.92824731855E-03 +4.07474155535E-04 -2.28171184279E-01 +1.41328104854E-01
4.36500000000E+09 -3.67867168410E-01 -1.41773848148E-02 -2.14285659147E-03 +3.90578590044E-04 -2.12153537954E-03 +3.68960826977E-04 -2.24201135101E-01 +1.59097640255E-01
4.37000000000E+09 -3.71594682900E-01 +9.11766176669E-03 -2.58436264387E-03 +1.11294370881E-03 -2.56113338997E-03 +1.07147136138E-03 -2.19454948168E-01 +1.77014326131E-01
4.37500000000E+09 -3.75094839251E-01 +3.05019491949E-02 -2.07644110591E-03 +1.76019133545E-03 -2.12582590817E-03 +1.72380872449E-03 -2.14212106306E-01 +1.94364451667E-01
4.38000000000E+09 -3.80264066214E-01 +5.01370712299E-02 -1.71968115776E-03 +1.96739665677E-03 -1.73577530860E-03 +1.97848893891E-03 -2.07839262309E-01 +2.11815568910E-01
4.38500000000E+09 -3.84058316602E-01 +6.78374728520E-02 -1.18118986442E-03 +2.29048762060E-03 -1.24302427712E-03 +2.26707043990E-03 -2.01842132324E-01 +2.28810610739E-01
4.39000000000E+09 -3.86941473102E-01 +8.38638672099E-02 -7.51812929726E-04 +2.21379562008E-03 -7.98271062688E-04 +2.28613716364E-03 -1.94912250076E-01 +2.45815169342E-01
4.39500000000E+09 -3.87560041215E-01 +9.90765346101E-02 -5.58363158396E-04 +2.23453327181E-03 -5.33527261765E-04 +2.24910836285E-03 -1.88239084046E-01 +2.61190734653E-01
4.40000000000E+09 -3.84937207265E-01 +1.13862757220E-01 -2.47188780420E-04 +2.15943027572E-03 -2.79254197721E-04 +2.23552881665E-03 -1.81185327488E-01 +2.77371143995E-01
4.40500000000E+09 -3.80442825707E-01 +1.28986588932E-01 -1.48893610840E-04 +2.29411621329E-03 -1.29676354571E-04 +2.29607845738E-03 -1.72852849409E-01 +2.92745486364E-01
4.41000000000E+09 -3.74726338108E-01 +1.45719895808E-01 +3.52645420523E-04 +2.47783495032E-03 +4.57369365902E-04 +2.50798753462E-03 -1.64142863998E-01 +3.07034271807E-01
4.41500000000E+09 -3.68103991626E-01 +1.64439425513E-01 +6.27950995235E-04 +2.24653239299E-03 +6.86642339310E-04 +2.28568904119E-03 -1.55574039835E-01 +3.21491823220E-01
4.42000000000E+09 -3.61536194532E-01 +1.85213694394E-01 +7.36829957096E-04 +2.18201274506E-03 +8.27742301360E-04 +2.10932540214E-03 -1.46196550823E-01 +3.36323971588E-01
4.42500000000E+09 -3.55472808383E-01 +2.06281464839E-01 +1.22723061825E-03 +2.38133574858E-03 +1.38075162609E-03 +2.26393956823E-03 -1.36014299612E-01 +3.49874888955E-01
4.43000000000E+09 -3.51939604102E-01 +2.27083750283E-01 +1.76345222207E-03 +1.91371277651E-03 +1.81843204037E-03 +1.82515961014E-03 -1.26886788788E-01 +3.63171543792E-01
4.43500000000E+09 -3.49056015441E-01 +2.47976972163E-01 +2.07125369280E-03 +1.55368261084E-03 +2.08275816290E-03 +1.41136630376E-03 -1.16263131744E-01 +3.76226211784E-01
4.44000000000E+09 -3.46078302808E-01 +2.66629030158E-01 +2.28965904515E-03 +8.43018138241E-04 +2.28004503051E-03 +8.17773064492E-04 -1.06298858771E-01 +3.87648590912E-01
4.44500000000E+09 -3.43212965905E-01 +2.82177711859E-01 +1.86857820686E-03 +3.79260307184E-04 +1.91749518342E-03 +3.42287637289E-04 -9.59475297253E-02 +3.99177043028E-01
4.45000000000E+09 -3.40079063035E-01 +2.95743218456E-01 +1.67407261027E-03 +7.03914837832E-04 +1.62907456939E-03 +5.85747423180E-04 -8.51581199968E-02 +4.09804592438E-01
4.45500000000E+09 -3.34938143630E-01 +3.08175700558E-01 +2.30428374984E-03 +6.78588914959E-04 +2.29227013883E-03 +4.98544561650E-04 -7.41235250388E-02 +4.20172282601E-01
4.46000000000E+09 -3.28157258456E-01 +3.19619180222E-01 +2.43060989400E-03 -3.60148529074E-04 +2.36389069213E-03 -4.35017048919E-04 -6.28726611536E-02 +4.29887615359E-01
4.46500000000E+09 -3.18933242677E-01 +3.32060999329E-01 +2.14053595829E-03 -5.79727534220E-04 +2.01796954617E-03 -6.54363665658E-04 -5.13939666420E-02 +4.38806586514E-01
4.47000000000E+09 -3.08278893865E-01 +3.46174032392E-01 +1.48361623673E-03 -9.17566179664E-04 +1.30863124268E-03 -1.03392195693E-03 -4.08536479385E-02 +4.47817558515E-01
4.47500000000E+09 -2.96110966449E-01 +3.62399166211E-01 +1.30810579708E-03 -4.66097586710E-04 +1.20754249534E-03 -4.78185177696E-04 -2.94255092697E-02 +4.57106125225E-01
4.48000000000E+09 -2.83494504354E-01 +3.79768840349E-01 +1.71254178031E-03 -4.42701343972E-04 +1.60177431802E-03 -4.40987745803E-04 -1.79392535699E-02 +4.65144857114E-01
4.48500000000E+09 -2.71248157089E-01 +3.96999015406E-01 +1.71995245027E-03 -1.13810600091E-03 +1.58952334525E-03 -1.02020903959E-03 -6.88501673795E-03 +4.73486013455E-01
4.49000000000E+09 -2.62073822758E-01 +4.13464262757E-01 +1.68519484616E-03 -1.34277317663E-03 +1.54216302645E-03 -1.27710194802E-03 +5.08199306578E-03 +4.81267921259E-01
4.49500000000E+09 -2.54506087530E-01 +4.29665906536E-01 +1.03729708182E-03 -1.68119139271E-03 +9.54531350286E-04 -1.54426815539E-03 +1.62329244454E-02 +4.88107686211E-01
4.50000000000E+09 -2.48504470227E-01 +4.43223707311E-01 +7.45574859770E-04 -1.53463091032E-03 +7.07708905574E-04 -1.42493595549E-03 +2.79098451606E-02 +4.94842908043E-01
4.50500000000E+09 -2.44114961959E-01 +4.55186356418E-01 +7.90706607146E-04 -1.40439362094E-03 +7.61002268010E-04 -1.35784127948E-03 +3.94536820794E-02 +5.01018643756E-01
4.51000000000E+09 -2.38414851391E-01 +4.65718569205E-01 +7.37029673664E-04 -1.75370467372E-03 +7.16310327386E-04 -1.71254567098E-03 +5.08893062519E-02 +5.06682527195E-01
4.51500000000E+09 -2.30012536851E-01 +4.73568956438E-01 +4.34880995230E-04 -1.81004303861E-03 +4.43222809834E-04 -1.68392857792E-03 +6.21550529294E-02 +5.12453855999E-01
4.52000000000E+09 -2.20816187104E-01 +4.79637063372E-01 +6.96446592663E-05 -1.96535635713E-03 +1.12192393425E-04 -1.92477421602E-03 +7.39552628911E-02 +5.17781865696E-01
4.52500000000E+09 -2.09295974839E-01 +4.86115211422E-01 -2.59981120562E-04 -1.68793251319E-03 -2.21115848187E-04 -1.61093783815E-03 +8.56078513776E-02 +5.21993836802E-01
4.53000000000E+09 -1.96572257457E-01 +4.93368052183E-01 -1.14369693834E-04 -1.60510452695E-03 -9.76088077039E-05 -1.56733352365E-03 +9.71520698519E-02 +5.26000448129E-01
4.53500000000E+09 -1.81709711298E-01 +5.02727525286E-01 -5.04749281216E-04 -1.83489350191E-03 -4.73318207275E-04 -1.79498337876E-03 +1.08733384297E-01 +5.29831554812E-01
4.54000000000E+09 -1.66574141615E-01 +5.12343435266E-01 -6.25867792891E-04 -1.79664134294E-03 -5.76749149493E-04 -1.75369316124E-03 +1.20437411839E-01 +5.32967097000E-01
4.54500000000E+09 -1.52569704608E-01 +5.23404489715E-01 -1.18552503469E-03 -1.67090270921E-03 -1.12062414615E-03 -1.63035368397E-03 +1.31117681810E-01 +5.36289327936E-01
4.55000000000E+09 -1.39387255187E-01 +5.34159232082E-01 -1.67733550488E-03 -1.12913928030E-03 -1.58385588004E-03 -1.15085212441E-03 +1.42862335810E-01 +5.39891264483E-01
4.55500000000E+09 -1.28815699267E-01 +5.44049146705E-01 -1.29822929063E-03 -6.11088909922E-04 -1.24155064370E-03 -6.23155680557E-04 +1.53902341066E-01 +5.42294071025E-01
4.56000000000E+09 -1.19696616458E-01 +5.53304076224E-01 -1.08233720185E-03 -8.34831522256E-04 -1.08887834062E-03 -8.12111923011E-04 +1.64474605212E-01 +5.45269299729E-01
4.56500000000E+09 -1.10864975218E-01 +5.60901090419E-01 -1.27020903203E-03 -8.30600107537E-04 -1.26586301941E-03 -7.75617295485E-04 +1.74830953075E-01 +5.47604948987E-01
4.57000000000E+09 -1.02031804646E-01 +5.66343092448E-01 -1.58167440747E-03 -6.87268491767E-04 -1.54604553334E-03 -6.74064818880E-04 +1.85521879231E-01 +5.50141510833E-01
