# Hz S RI R 50
! CMT, C1220, 16058040, 17.2.0/1
! Date: 15/08/2018 12:18:11
! Data: Format (Calibration Info)
! Freq                      S11: Re/Im (F2)                       S21: Re/Im (F2)                       S12: Re/Im (F2)                       S22: Re/Im (F2)            
4.00000000000E+09 +6.51447378257E-01 -3.50883536908E-01 +8.68138757663E-05 -2.01210957550E-04 +1.39485278917E-04 -2.35470811955E-04 +7.42622072981E-01 -3.23865950655E-01
4.00500000000E+09 +6.43304590840E-01 -3.57181972270E-01 +1.09756388074E-04 -1.97672516250E-04 +2.26414870385E-04 -1.96598768299E-04 +7.32190862938E-01 -3.34613652608E-01
4.01000000000E+09 +6.34523740504E-01 -3.63691551627E-01 +2.00568092559E-04 -4.38175605391E-04 +2.71335208870E-04 -4.59485663324E-04 +7.21382055622E-01 -3.45431009150E-01
4.01500000000E+09 +6.24341014306E-01 -3.70888376647E-01 +1.40011756206E-04 -5.44920980212E-04 +1.09931137381E-04 -5.57240998389E-04 +7.10330496600E-01 -3.55848610409E-01
4.02000000000E+09 +6.13944903342E-01 -3.79148805260E-01 -1.35770607303E-04 -6.65934416305E-04 -8.63774302952E-05 -6.73500200711E-04 +6.98732871640E-01 -3.65888380223E-01
4.02500000000E+09 +6.02751842121E-01 -3.88705277957E-01 -3.61490025531E-04 -2.25995073618E-04 -3.54266904495E-04 -2.72918969985E-04 +6.86569106143E-01 -3.75718413881E-01
4.03000000000E+09 +5.91673329853E-01 -3.98816416342E-01 +5.36960843885E-05 -1.33002550914E-04 +3.74722154075E-05 -1.78133717121E-04 +6.73827882869E-01 -3.85167287237E-01
4.03500000000E+09 +5.80588558001E-01 -4.09547896935E-01 +1.33933081796E-04 -3.49254476044E-04 +1.91561681230E-04 -4.29488934108E-04 +6.60927543050E-01 -3.94786794834E-01
4.04000000000E+09 +5.69673655885E-01 -4.20015961277E-01 +1.46047505062E-04 -6.52722197668E-04 +1.42319363151E-04 -7.05355250337E-04 +6.47663121979E-01 -4.05078247828E-01
4.04500000000E+09 +5.58569222028E-01 -4.29509415628E-01 -2.51111198116E-04 -9.02350744381E-04 -2.47800406989E-04 -9.77082705604E-04 +6.33456828750E-01 -4.14712532084E-01
4.05000000000E+09 +5.47150704966E-01 -4.37155684707E-01 -6.65201829005E-04 -6.77693944720E-04 -7.37149777385E-04 -7.10668027705E-04 +6.19559522590E-01 -4.23453839035E-01
4.05500000000E+09 +5.35762837211E-01 -4.42429609675E-01 -6.27635728508E-04 -3.17934727320E-04 -7.14324671263E-04 -3.57689919662E-04 +6.05087176633E-01 -4.31765482279E-01
4.06000000000E+09 +5.24519539349E-01 -4.46945014433E-01 -5.81081941565E-04 -1.69421561909E-04 -6.53312042239E-04 -2.26407841566E-04 +5.90694443682E-01 -4.39649038396E-01
4.06500000000E+09 +5.12048275992E-01 -4.51008884016E-01 -4.49145005833E-04 -2.39903079622E-04 -5.00716898692E-04 -2.61383194166E-04 +5.75020095720E-01 -4.47379625926E-01
4.07000000000E+09 +4.97893446771E-01 -4.55522143034E-01 -5.69219553218E-04 -4.00336328239E-04 -6.14684075130E-04 -3.86900713959E-04 +5.59247880127E-01 -4.54558474362E-01
4.07500000000E+09 +4.82498087363E-01 -4.60003397586E-01 -7.25913961812E-04 -1.78954075064E-04 -7.74589081260E-04 -1.41445892330E-04 +5.42855951932E-01 -4.62442385901E-01
4.08000000000E+09 +4.65938060973E-01 -4.65271824159E-01 -7.15457663484E-04 -1.09529515465E-04 -7.61137708859E-04 -8.10578937325E-05 +5.26135648115E-01 -4.69120323531E-01
4.08500000000E+09 +4.48807225232E-01 -4.70709369435E-01 -8.60402183303E-04 +6.18875521739E-05 -9.06374350361E-04 +7.20882850782E-05 +5.09610684698E-01 -4.76346372654E-01
4.09000000000E+09 +4.32162253210E-01 -4.76910952364E-01 -8.09133691377E-04 +2.78576705874E-04 -7.71110902298E-04 +2.35455383097E-04 +4.91858354554E-01 -4.82001110853E-01
4.09500000000E+09 +4.15677869948E-01 -4.83825511114E-01 -7.90089023156E-04 +4.63598697474E-04 -7.41326408936E-04 +5.17544985923E-04 +4.74856644549E-01 -4.87018446391E-01
4.10000000000E+09 +3.98865480731E-01 -4.90056214101E-01 -6.42549373672E-04 +5.01041168642E-04 -5.83186329635E-04 +5.70512489621E-04 +4.56240736343E-01 -4.92229815670E-01
4.10500000000E+09 +3.82759494076E-01 -4.94672852786E-01 -4.40897514577E-04 +8.10560128422E-04 -3.59070000550E-04 +8.87112018787E-04 +4.37019349315E-01 -4.95925213058E-01
4.11000000000E+09 +3.66849517005E-01 -4.97718229643E-01 +2.22481966285E-05 +5.73818911896E-04 +3.84985112651E-05 +5.77776665164E-04 +4.17703810588E-01 -4.99554439471E-01
4.11500000000E+09 +3.51362118864E-01 -4.99305763888E-01 +1.92159375999E-04 +2.32924562410E-04 +2.24855182928E-04 +2.58619745889E-04 +3.98319161961E-01 -5.02992042152E-01
4.12000000000E+09 +3.35460886003E-01 -5.00474468272E-01 -1.68630654189E-04 -5.87782574955E-05 -1.99792039646E-04 -6.30366764413E-05 +3.78443952834E-01 -5.06018552884E-01
4.12500000000E+09 +3.18061122119E-01 -5.00883730678E-01 -4.71314689786E-04 +6.15068955826E-05 -4.69484534925E-04 +1.76528706060E-05 +3.58030068277E-01 -5.07807496842E-01
4.13000000000E+09 +3.00126334847E-01 -5.01345352184E-01 -6.93500238172E-04 +5.00296254859E-04 -6.76402269601E-04 +4.48899336398E-04 +3.37726929684E-01 -5.08757230271E-01
4.13500000000E+09 +2.81242507225E-01 -5.02798740778E-01 -1.95856508898E-04 +7.43672258303E-04 -2.13746716493E-04 +7.20598425404E-04 +3.17086833816E-01 -5.08879735129E-01
4.14000000000E+09 +2.61489659894E-01 -5.05295292237E-01 +2.21229096319E-05 +6.31329845066E-04 -1.89948866737E-05 +5.56832769589E-04 +2.96145160989E-01 -5.08597183842E-01
4.14500000000E+09 +2.41916201563E-01 -5.09093074666E-01 +1.58304014577E-04 +5.69325016326E-04 +1.18190511463E-04 +5.15429919686E-04 +2.74928994815E-01 -5.07561272622E-01
4.15000000000E+09 +2.21201528928E-01 -5.13658595458E-01 +2.83070923058E-04 +3.44294509415E-04 +1.98722623825E-04 +3.07026940746E-04 +2.54258061247E-01 -5.05796636532E-01
4.15500000000E+09 +2.01222149214E-01 -5.17146017944E-01 +1.21009249131E-04 -1.09501496062E-04 +7.37225849661E-05 -1.50674777678E-04 +2.33540235090E-01 -5.03034925265E-01
4.16000000000E+09 +1.82701508013E-01 -5.19480904273E-01 -3.90104083353E-04 -5.53035838064E-05 -4.10509774341E-04 -4.53930350178E-05 +2.12990652895E-01 -4.99088009065E-01
4.16500000000E+09 +1.65243682731E-01 -5.19980310042E-01 -5.78169519774E-04 +3.72720105111E-04 -6.49219448641E-04 +3.71575852609E-04 +1.92540276011E-01 -4.94342308513E-01
4.17000000000E+09 +1.49937718657E-01 -5.18501324165E-01 -6.56627909897E-04 +4.43666357228E-04 -7.61545273025E-04 +4.77728515637E-04 +1.71630368458E-01 -4.89183271506E-01
4.17500000000E+09 +1.35089078158E-01 -5.16255318473E-01 -5.78928916811E-04 +1.11500725180E-03 -6.16583997647E-04 +1.16369829245E-03 +1.50328008627E-01 -4.82592825741E-01
4.18000000000E+09 +1.19732557441E-01 -5.12779106047E-01 -1.40126628984E-04 +1.28339460168E-03 -1.70037207947E-04 +1.42211247643E-03 +1.29752958084E-01 -4.74945045786E-01
4.18500000000E+09 +1.02987705406E-01 -5.08807120580E-01 +5.87451735246E-04 +1.35356699364E-03 +5.62547957135E-04 +1.48505015635E-03 +1.10127907854E-01 -4.67384381203E-01
4.19000000000E+09 +8.50626630861E-02 -5.03160511937E-01 +6.79158459475E-04 +6.13752356705E-04 +7.32337239823E-04 +6.98887949400E-04 +8.94392338975E-02 -4.59181266057E-01
4.19500000000E+09 +6.71235000907E-02 -4.97238191297E-01 +2.24967918818E-04 +4.30601534475E-04 +2.83329565565E-04 +4.83763167478E-04 +6.92803057223E-02 -4.49414743125E-01
4.20000000000E+09 +4.85254877286E-02 -4.92031051909E-01 +1.80299310956E-04 +7.74438802706E-04 +2.65239563920E-04 +8.23469865791E-04 +4.99434316754E-02 -4.38728553926E-01
4.20500000000E+09 +2.98122204249E-02 -4.87120660091E-01 +6.68107958543E-05 +6.67739486956E-04 +1.09828964014E-04 +6.95567031343E-04 +3.02166433887E-02 -4.27817623302E-01
4.21000000000E+09 +1.16377269577E-02 -4.82065217994E-01 +8.25430683390E-05 +1.44568179560E-03 +1.78100898470E-04 +1.47518390153E-03 +1.09800156187E-02 -4.15548734230E-01
4.21500000000E+09 -5.84504988613E-03 -4.76571690127E-01 +1.01977881036E-03 +1.79271231107E-03 +1.14396982179E-03 +1.82474017756E-03 -7.07386718470E-03 -4.03488066611E-01
4.22000000000E+09 -2.29707196657E-02 -4.70065328993E-01 +1.81667544880E-03 +1.22887268461E-03 +1.89495416232E-03 +1.24748379305E-03 -2.51639193341E-02 -3.91169475078E-01
4.22500000000E+09 -3.88062217818E-02 -4.61465847150E-01 +2.11524081833E-03 +5.13119818968E-04 +2.22629256771E-03 +4.91961394042E-04 -4.26788958245E-02 -3.77076513512E-01
4.23000000000E+09 -5.40857375157E-02 -4.51469249176E-01 +1.90660802324E-03 -3.15648199084E-04 +1.94022051478E-03 -4.21470260492E-04 -5.90200995553E-02 -3.62442166750E-01
4.23500000000E+09 -6.96709567515E-02 -4.40136582355E-01 +1.28016728250E-03 -2.86439390217E-04 +1.28867218573E-03 -3.19387355823E-04 -7.54853063387E-02 -3.46647742479E-01
4.24000000000E+09 -8.59210768764E-02 -4.27392448335E-01 +1.20989800474E-03 -3.48670808397E-05 +1.10734843699E-03 -1.16031815131E-04 -9.06007415431E-02 -3.29978486071E-01
4.24500000000E+09 -1.02841298784E-01 -4.14562944940E-01 +1.61563916039E-03 +1.47585368394E-04 +1.57927386803E-03 +7.94518357792E-05 -1.05932667019E-01 -3.13179998592E-01
4.25000000000E+09 -1.21522046868E-01 -4.01671796768E-01 +2.06277689982E-03 -2.82359787121E-04 +2.10206186374E-03 -3.28248776526E-04 -1.20039460866E-01 -2.94764756375E-01
4.25500000000E+09 -1.40574670727E-01 -3.89211624393E-01 +2.15509754208E-03 -1.04770673852E-03 +2.06368429158E-03 -1.11767170726E-03 -1.32278230653E-01 -2.77153442169E-01
4.26000000000E+09 -1.60625830791E-01 -3.77790101339E-01 +1.62685997315E-03 -1.69491179774E-03 +1.61951653416E-03 -1.77411032894E-03 -1.44820511537E-01 -2.60011063130E-01
4.26500000000E+09 -1.80386081972E-01 -3.65840668177E-01 +1.15589316852E-03 -1.79113498093E-03 +1.09632778238E-03 -1.76401024253E-03 -1.56758091154E-01 -2.40861128352E-01
4.27000000000E+09 -1.97600421185E-01 -3.54026698537E-01 +7.97618029644E-04 -1.79670387297E-03 +7.57364512808E-04 -1.72908900332E-03 -1.68133545378E-01 -2.21555925392E-01
4.27500000000E+09 -2.13697870403E-01 -3.42214011139E-01 +5.00044895307E-04 -1.96849808457E-03 +5.21848502123E-04 -1.93410635530E-03 -1.79111729106E-01 -2.01089410286E-01
4.28000000000E+09 -2.27319424542E-01 -3.28831064437E-01 +1.48817424822E-04 -1.69946936198E-03 +1.02704149721E-04 -1.64499990962E-03 -1.88530386957E-01 -1.80280561273E-01
4.28500000000E+09 -2.38954750577E-01 -3.14397261110E-01 +3.17307122435E-04 -1.48055356910E-03 +3.01950296756E-04 -1.46217597797E-03 -1.96650043519E-01 -1.59960613573E-01
4.29000000000E+09 -2.49537674819E-01 -2.99042653912E-01 +2.68407541037E-04 -1.82935252685E-03 +2.52948294917E-04 -1.84781201758E-03 -2.04050174457E-01 -1.40389206350E-01
4.29500000000E+09 -2.60555315980E-01 -2.81995800859E-01 -1.34211476484E-04 -2.18214952778E-03 -1.05899076666E-04 -2.18109906107E-03 -2.10914213354E-01 -1.21371572919E-01
4.30000000000E+09 -2.72470788964E-01 -2.63287780207E-01 -7.65187829665E-04 -1.94316529034E-03 -8.05331770460E-04 -1.91710794785E-03 -2.17128340496E-01 -1.01584162489E-01
4.30500000000E+09 -2.84949384408E-01 -2.43267544381E-01 -6.08173950176E-04 -1.77210344889E-03 -6.13542893361E-04 -1.68046281027E-03 -2.22193817902E-01 -8.07267331879E-02
4.31000000000E+09 -2.97740105368E-01 -2.23184653705E-01 -1.08566078172E-03 -2.07272131665E-03 -1.10084103646E-03 -2.07043694450E-03 -2.25700132694E-01 -6.03278900740E-02
4.31500000000E+09 -3.11051657572E-01 -2.04147901312E-01 -1.69898084949E-03 -1.50769919798E-03 -1.70641197212E-03 -1.57321358429E-03 -2.28626291215E-01 -3.91243832803E-02
4.32000000000E+09 -3.23583812654E-01 -1.86030452141E-01 -1.64306469198E-03 -7.93821860071E-04 -1.61882392027E-03 -7.77178334049E-04 -2.30561080332E-01 -1.85347717045E-02
4.32500000000E+09 -3.34921590529E-01 -1.69866711435E-01 -1.12491402718E-03 -7.95601593434E-04 -1.10212246691E-03 -8.08176230081E-04 -2.32608164135E-01 +1.36223450498E-03
4.33000000000E+09 -3.45367038099E-01 -1.54445842035E-01 -1.36111319424E-03 -1.17454091193E-03 -1.40794150216E-03 -1.14646463846E-03 -2.34078112577E-01 +2.22108087817E-02
4.33500000000E+09 -3.53000679375E-01 -1.38708919009E-01 -1.45377287101E-03 -1.11614593451E-03 -1.44528649892E-03 -1.10346728399E-03 -2.34204924735E-01 +4.33588310385E-02
4.34000000000E+09 -3.58189000105E-01 -1.22589378597E-01 -2.31963368052E-03 -1.36209045026E-03 -2.32606897286E-03 -1.31261021763E-03 -2.33174477283E-01 +6.37914304841E-02
4.34500000000E+09 -3.61470271311E-01 -1.04953850981E-01 -2.80449977128E-03 -3.08534762963E-04 -2.73849189071E-03 -2.96872047056E-04 -2.31128730068E-01 +8.34444672695E-02
4.35000000000E+09 -3.62896176583E-01 -8.62580031030E-02 -2.41140435107E-03 +4.82114587674E-04 -2.35512222110E-03 +4.63124578767E-04 -2.29927527461E-01 +1.02195564442E-01
4.35500000000E+09 -3.65096324868E-01 -6.53081966170E-02 -2.04654666925E-03 +5.28956043441E-04 -2.02590961683E-03 +5.18030536267E-04 -2.27386204368E-01 +1.22115049434E-01
4.36000000000E+09 -3.66950866097E-01 -4.25520580617E-02 -1.91469762276E-03 +7.05501056309E-04 -1.90565334137E-03 +6.78528881948E-04 -2.23808842421E-01 +1.39984577187E-01
4.36500000000E+09 -3.69682876800E-01 -1.94909049778E-02 -1.98625022531E-03 +3.37178178166E-04 -1.98250354560E-03 +3.15043578872E-04 -2.20310676606E-01 +1.57919257694E-01
4.37000000000E+09 -3.74225813667E-01 +3.85049748145E-03 -2.55978515027E-03 +1.00470724526E-03 -2.53636375797E-03 +1.07198565506E-03 -2.15902307216E-01 +1.75834184478E-01
4.37500000000E+09 -3.78567445165E-01 +2.60462019611E-02 -2.15501621382E-03 +1.66366389255E-03 -2.17143086452E-03 +1.71432773711E-03 -2.10581004023E-01 +1.93313220309E-01
4.38000000000E+09 -3.83821052749E-01 +4.63449640484E-02 -1.82901342419E-03 +1.94891490740E-03 -1.79335336481E-03 +2.00169077736E-03 -2.04368227894E-01 +2.10531208889E-01
4.38500000000E+09 -3.87629087431E-01 +6.47197488862E-02 -1.42192497755E-03 +2.44049558811E-03 -1.38326259684E-03 +2.41405258966E-03 -1.98233459279E-01 +2.27604532840E-01
4.39000000000E+09 -3.90217711415E-01 +8.11458585607E-02 -8.42149191493E-04 +2.45054225678E-03 -7.59717747986E-04 +2.43675188176E-03 -1.91372801359E-01 +2.44249000181E-01
4.39500000000E+09 -3.90768499295E-01 +9.61632890684E-02 -6.43527387330E-04 +2.41845482237E-03 -6.26910056326E-04 +2.40402241184E-03 -1.85201974049E-01 +2.59645182288E-01
4.40000000000E+09 -3.88715029152E-01 +1.11343932953E-01 -2.71338580273E-04 +2.61553593009E-03 -2.17685859083E-04 +2.59794912724E-03 -1.78105987622E-01 +2.76205656799E-01
4.40500000000E+09 -3.84418557507E-01 +1.26859883599E-01 +1.35611045677E-04 +2.51225914439E-03 +1.44286519710E-04 +2.45224978933E-03 -1.69610929774E-01 +2.91559406213E-01
4.41000000000E+09 -3.78993198238E-01 +1.43572044632E-01 +6.38221032102E-04 +2.46129924079E-03 +6.74243526092E-04 +2.43038895246E-03 -1.60803669382E-01 +3.05965862792E-01
4.41500000000E+09 -3.72849834178E-01 +1.62518695444E-01 +7.89371225718E-04 +2.10366149400E-03 +8.34324840280E-04 +2.10230904130E-03 -1.52066011447E-01 +3.19950907665E-01
4.42000000000E+09 -3.66689863316E-01 +1.83484342472E-01 +6.71289825977E-04 +2.07715510125E-03 +6.63371357381E-04 +2.01064058027E-03 -1.42938492992E-01 +3.34370340791E-01
4.42500000000E+09 -3.61294488577E-01 +2.04916428985E-01 +1.25762508346E-03 +2.52061896814E-03 +1.28865757575E-03 +2.43281358118E-03 -1.32675923494E-01 +3.47644157166E-01
4.43000000000E+09 -3.57373295400E-01 +2.26597562395E-01 +1.90045431515E-03 +2.04343210671E-03 +1.92859337676E-03 +1.92633915116E-03 -1.24228904088E-01 +3.60631143443E-01
4.43500000000E+09 -3.53849418356E-01 +2.47389203287E-01 +2.22845080436E-03 +1.67287576706E-03 +2.21262733047E-03 +1.57183533395E-03 -1.14053759221E-01 +3.73930027970E-01
4.44000000000E+09 -3.51154679042E-01 +2.66021345059E-01 +2.54459960942E-03 +9.37331974321E-04 +2.42079995689E-03 +8.02130503598E-04 -1.04137902999E-01 +3.85753650182E-01
4.44500000000E+09 -3.48624386024E-01 +2.82520672197E-01 +2.13937930438E-03 +2.56436794842E-04 +2.10088765349E-03 +2.22352720874E-04 -9.37685116154E-02 +3.97385886961E-01
4.45000000000E+09 -3.45188389533E-01 +2.96846364449E-01 +1.70585120608E-03 +5.83695726399E-04 +1.67056913998E-03 +5.37932858001E-04 -8.31363750588E-02 +4.08043574524E-01
4.45500000000E+09 -3.40321562495E-01 +3.10423009051E-01 +2.39903676993E-03 +5.61219528715E-04 +2.36107905891E-03 +5.29408373746E-04 -7.22518331773E-02 +4.18461435955E-01
4.46000000000E+09 -3.32884553169E-01 +3.23016025353E-01 +2.37106902203E-03 -4.58288688499E-04 +2.28768194302E-03 -5.00572957997E-04 -6.07107670785E-02 +4.28408286310E-01
4.46500000000E+09 -3.23653218338E-01 +3.35827391539E-01 +1.95237834478E-03 -4.16951285714E-04 +1.88134577734E-03 -4.33600273801E-04 -4.93326489079E-02 +4.37034421861E-01
4.47000000000E+09 -3.13108583032E-01 +3.50238608107E-01 +1.71340564049E-03 -7.22618902413E-04 +1.58556251956E-03 -7.31228592560E-04 -3.88894465552E-02 +4.46189903082E-01
4.47500000000E+09 -3.01115999548E-01 +3.66582350583E-01 +1.67352051133E-03 -4.89383249082E-04 +1.57855018973E-03 -4.56677882658E-04 -2.74316247759E-02 +4.55827740170E-01
4.48000000000E+09 -2.88856948238E-01 +3.83801951177E-01 +1.89009705857E-03 -6.82092575127E-04 +1.80431530987E-03 -6.95474017823E-04 -1.57756576646E-02 +4.63977460921E-01
4.48500000000E+09 -2.77030246030E-01 +4.01080729317E-01 +1.71784673852E-03 -1.25248194672E-03 +1.68257381484E-03 -1.22790003859E-03 -4.19267027459E-03 +4.72380503508E-01
4.49000000000E+09 -2.67388866583E-01 +4.17651772648E-01 +1.71462183208E-03 -1.41925033598E-03 +1.61182229266E-03 -1.33672614244E-03 +7.75809275506E-03 +4.79660070648E-01
4.49500000000E+09 -2.59352120375E-01 +4.33387880033E-01 +1.07889380941E-03 -1.95469024409E-03 +1.04310833667E-03 -1.85661284426E-03 +1.88750883652E-02 +4.86191246223E-01
4.50000000000E+09 -2.52511414893E-01 +4.46782964223E-01 +5.58420217729E-04 -1.55591488624E-03 +5.71730798578E-04 -1.54173930358E-03 +3.02388029775E-02 +4.93001714386E-01
4.50500000000E+09 -2.47288481768E-01 +4.58535275619E-01 +6.43231935005E-04 -1.31776108870E-03 +6.40433678675E-04 -1.31051965271E-03 +4.21830870392E-02 +4.98964716867E-01
4.51000000000E+09 -2.40834521596E-01 +4.69115402589E-01 +7.37709538289E-04 -1.53786991203E-03 +6.84968275082E-04 -1.51281093644E-03 +5.32210543652E-02 +5.04359936965E-01
4.51500000000E+09 -2.31987791059E-01 +4.77532213799E-01 +6.32160263961E-04 -1.69303379309E-03 +5.86249961250E-04 -1.72832254070E-03 +6.43309256234E-02 +5.10469431233E-01
4.52000000000E+09 -2.21734202130E-01 +4.84478103012E-01 +2.63298462672E-04 -1.99348909144E-03 +2.25779366059E-04 -1.95304280853E-03 +7.64159704340E-02 +5.15596214965E-01
4.52500000000E+09 -2.09438760242E-01 +4.91489808656E-01 -2.19452034913E-04 -1.78740961436E-03 -1.10881028865E-04 -1.72757091173E-03 +8.78909256445E-02 +5.19742844202E-01
4.53000000000E+09 -1.96249863562E-01 +4.98887065385E-01 -2.07321725232E-04 -1.70720460902E-03 -1.84106817450E-04 -1.66609602182E-03 +9.95187687756E-02 +5.23674650339E-01
4.53500000000E+09 -1.81532922824E-01 +5.08430419375E-01 -5.13968416830E-04 -1.74923568794E-03 -5.24889760188E-04 -1.70515288596E-03 +1.10655491769E-01 +5.27133285094E-01
4.54000000000E+09 -1.66454271754E-01 +5.18463378661E-01 -5.68763876553E-04 -1.73217361127E-03 -5.68512778895E-04 -1.68000314009E-03 +1.22179645330E-01 +5.30619810974E-01
4.54500000000E+09 -1.52293233189E-01 +5.29284608670E-01 -9.66899048808E-04 -1.74668652888E-03 -9.64893678904E-04 -1.64178429814E-03 +1.32954274816E-01 +5.33986960098E-01
4.55000000000E+09 -1.39270793649E-01 +5.39463456387E-01 -1.41943161048E-03 -1.39285728598E-03 -1.39720797558E-03 -1.30293564300E-03 +1.44600375250E-01 +5.37417572167E-01
4.55500000000E+09 -1.28518142010E-01 +5.48943044856E-01 -1.38555889167E-03 -8.18402124756E-04 -1.31331056513E-03 -8.46543040800E-04 +1.55697452815E-01 +5.40304542717E-01
4.56000000000E+09 -1.19085866212E-01 +5.57709657198E-01 -1.07407860451E-03 -9.17037148004E-04 -1.02189268834E-03 -9.08702977660E-04 +1.66688410538E-01 +5.43092397271E-01
4.56500000000E+09 -1.09934955634E-01 +5.64753378025E-01 -1.28642963438E-03 -1.09364276158E-03 -1.21674678232E-03 -9.86621731172E-04 +1.77204674480E-01 +5.45253654883E-01
4.57000000000E+09 -1.00351532851E-01 +5.70054556665E-01 -1.73392435107E-03 -9.05190238093E-04 -1.63463994142E-03 -8.16047735905E-04 +1.87871937698E-01 +5.47289937071E-01
