# Hz S RI R 50
! CMT, C1220, 16058040, 17.2.0/1
! Date: 15/08/2018 11:29:20
! Data: Format (Calibration Info)
! Freq                      S11: Re/Im (F2)                       S21: Re/Im (F2)                       S12: Re/Im (F2)                       S22: Re/Im (F2)            
4.00000000000E+09 +6.72630516365E-01 -3.62131356501E-01 +3.05940364701E-03 -1.17515148425E-03 +3.18206048162E-03 -1.11194067002E-03 +7.73964275410E-01 -3.56548862595E-01
4.00500000000E+09 +6.65383361643E-01 -3.69790960189E-01 +2.73803715448E-03 -1.58566742151E-03 +2.81990742200E-03 -1.47686225607E-03 +7.65777347495E-01 -3.67692444543E-01
4.01000000000E+09 +6.57257404547E-01 -3.77309768504E-01 +2.59638188151E-03 -1.60893903817E-03 +2.74138220748E-03 -1.57381147754E-03 +7.56967378276E-01 -3.79001731382E-01
4.01500000000E+09 +6.47753723741E-01 -3.84827777576E-01 +2.59832789071E-03 -1.91241910077E-03 +2.72191718523E-03 -1.85366985801E-03 +7.47239057686E-01 -3.89631022626E-01
4.02000000000E+09 +6.37077136484E-01 -3.93323518147E-01 +2.44399993845E-03 -2.23852074730E-03 +2.53394607070E-03 -2.26425762221E-03 +7.37375053865E-01 -4.00074130339E-01
4.02500000000E+09 +6.25432470508E-01 -4.01991378541E-01 +2.12900690302E-03 -2.50653768408E-03 +2.31631556592E-03 -2.50842090808E-03 +7.27119313868E-01 -4.10217786605E-01
4.03000000000E+09 +6.13410230935E-01 -4.11240255717E-01 +1.97333228214E-03 -2.92060495496E-03 +2.13523399043E-03 -2.93472746461E-03 +7.17000034916E-01 -4.20902655449E-01
4.03500000000E+09 +6.01551831735E-01 -4.20920975508E-01 +1.30125791331E-03 -2.99596392413E-03 +1.44692516019E-03 -3.03413933963E-03 +7.05912337128E-01 -4.32074807284E-01
4.04000000000E+09 +5.89854376627E-01 -4.31402688009E-01 +1.32041095249E-03 -2.72080387848E-03 +1.45789880403E-03 -2.74177397276E-03 +6.94488193387E-01 -4.43217252135E-01
4.04500000000E+09 +5.77470869170E-01 -4.41523158679E-01 +1.43198987141E-03 -3.01266133513E-03 +1.67223211402E-03 -3.03117514887E-03 +6.82474888795E-01 -4.54004367505E-01
4.05000000000E+09 +5.65851861320E-01 -4.50032676301E-01 +1.01348513923E-03 -3.71175130321E-03 +1.23009444161E-03 -3.81739861602E-03 +6.70611895073E-01 -4.63653094820E-01
4.05500000000E+09 +5.54081275079E-01 -4.58115790591E-01 +4.82505861577E-04 -3.70886248531E-03 +7.01007799262E-04 -3.96890630298E-03 +6.58328251624E-01 -4.73225472514E-01
4.06000000000E+09 +5.41707935240E-01 -4.65235649714E-01 -1.33395788711E-05 -3.87337896882E-03 +1.01164462259E-05 -4.10355106609E-03 +6.45979667793E-01 -4.82720101148E-01
4.06500000000E+09 +5.28765237511E-01 -4.71454940572E-01 -5.61692026645E-04 -3.46519050850E-03 -5.59068993179E-04 -3.62190928247E-03 +6.32827270126E-01 -4.91944826389E-01
4.07000000000E+09 +5.15038104696E-01 -4.77805264802E-01 -4.85300487232E-04 -3.32973223302E-03 -4.52198092819E-04 -3.42939332268E-03 +6.19052419016E-01 -5.01525048092E-01
4.07500000000E+09 +4.99797289405E-01 -4.84313039021E-01 -7.03413213883E-04 -3.64236323123E-03 -5.65320830663E-04 -3.69519804153E-03 +6.05166767932E-01 -5.10497280080E-01
4.08000000000E+09 +4.83665983864E-01 -4.89923536596E-01 -1.24382602462E-03 -3.89447490852E-03 -1.15516714285E-03 -4.06306837041E-03 +5.91516344978E-01 -5.19826410860E-01
4.08500000000E+09 +4.68304985709E-01 -4.96934287918E-01 -1.90035713380E-03 -3.37235771991E-03 -1.89362688284E-03 -3.62778526696E-03 +5.77720871016E-01 -5.29225069735E-01
4.09000000000E+09 +4.51471604298E-01 -5.04793860725E-01 -2.05663004106E-03 -3.01556186462E-03 -2.14241510611E-03 -3.13451379122E-03 +5.63455936083E-01 -5.38025395582E-01
4.09500000000E+09 +4.34560695531E-01 -5.12255652792E-01 -2.17728792409E-03 -2.92738122971E-03 -2.28232415288E-03 -3.01006062868E-03 +5.48045485131E-01 -5.45984502428E-01
4.10000000000E+09 +4.17647269699E-01 -5.19064529966E-01 -2.24883670859E-03 -2.84905666609E-03 -2.27089640705E-03 -2.93035846123E-03 +5.32095249525E-01 -5.53032631473E-01
4.10500000000E+09 +4.01103810259E-01 -5.24897587234E-01 -2.64809430678E-03 -3.09321105696E-03 -2.67508835052E-03 -3.15903549059E-03 +5.15872279046E-01 -5.59977967928E-01
4.11000000000E+09 +3.84683463094E-01 -5.29053829319E-01 -3.47721995496E-03 -2.70160758345E-03 -3.50440897656E-03 -2.83608489746E-03 +4.99033443324E-01 -5.67734390828E-01
4.11500000000E+09 +3.69680152770E-01 -5.32146585025E-01 -3.63015010764E-03 -1.86090148786E-03 -3.71147781921E-03 -1.99289057665E-03 +4.81404102323E-01 -5.75401479871E-01
4.12000000000E+09 +3.52941873221E-01 -5.36192350281E-01 -3.47221227119E-03 -1.50832758670E-03 -3.52706528351E-03 -1.61287583816E-03 +4.63769123162E-01 -5.82306588762E-01
4.12500000000E+09 +3.34837264589E-01 -5.38008431105E-01 -3.57816079904E-03 -1.39653733227E-03 -3.66162539660E-03 -1.49565144063E-03 +4.46509453000E-01 -5.87979325344E-01
4.13000000000E+09 +3.16540118483E-01 -5.39953625273E-01 -3.52988988807E-03 -1.28929735359E-03 -3.54849056656E-03 -1.34236230259E-03 +4.29307758088E-01 -5.93499779654E-01
4.13500000000E+09 +2.97368088466E-01 -5.42063536058E-01 -3.75289273673E-03 -1.09967950350E-03 -3.78772388354E-03 -1.14975460189E-03 +4.11367223579E-01 -5.99124456717E-01
4.14000000000E+09 +2.77568623545E-01 -5.44522232508E-01 -4.04314665274E-03 -8.86018449927E-04 -4.13172337375E-03 -1.10423264910E-03 +3.91411750876E-01 -6.04477411494E-01
4.14500000000E+09 +2.58248928955E-01 -5.47251629916E-01 -4.41809584593E-03 -2.92385969689E-04 -4.62371083968E-03 -3.85340342785E-04 +3.71128949777E-01 -6.08849342631E-01
4.15000000000E+09 +2.39296148059E-01 -5.52072996096E-01 -4.05866763782E-03 +1.50343768398E-04 -4.19025197265E-03 +3.64029530186E-05 +3.51805228169E-01 -6.12510655459E-01
4.15500000000E+09 +2.18911257107E-01 -5.55694426718E-01 -4.09717821795E-03 +6.74013540675E-05 -4.22245373213E-03 +1.13212932423E-05 +3.32647015412E-01 -6.16161326510E-01
4.16000000000E+09 +2.00137926041E-01 -5.57626971430E-01 -4.72082332810E-03 +1.96681029287E-04 -4.83183792579E-03 +1.29056132385E-04 +3.13402009236E-01 -6.19395028881E-01
4.16500000000E+09 +1.82519387796E-01 -5.58473161888E-01 -5.17088691690E-03 +1.19044514165E-03 -5.29919887384E-03 +1.12167148827E-03 +2.92978092541E-01 -6.21578974297E-01
4.17000000000E+09 +1.64966411518E-01 -5.57459259477E-01 -5.08536771431E-03 +2.09807993806E-03 -5.23886540716E-03 +2.00299428337E-03 +2.72432599091E-01 -6.22053085375E-01
4.17500000000E+09 +1.48128331715E-01 -5.54601382546E-01 -4.51504085176E-03 +3.10579375377E-03 -4.76165159665E-03 +3.00009889885E-03 +2.52019975503E-01 -6.22143844933E-01
4.18000000000E+09 +1.31459966233E-01 -5.50693400392E-01 -3.40070989423E-03 +3.28217702085E-03 -3.59748016388E-03 +3.29671793807E-03 +2.31345135317E-01 -6.22896760593E-01
4.18500000000E+09 +1.12657771146E-01 -5.46849096962E-01 -3.31768385322E-03 +2.72057320043E-03 -3.46671729385E-03 +2.74463014165E-03 +2.08677136655E-01 -6.23580758964E-01
4.19000000000E+09 +9.26821966516E-02 -5.41008265506E-01 -3.86684078043E-03 +2.91020912724E-03 -4.07264213996E-03 +2.99789866031E-03 +1.85902946363E-01 -6.22391743560E-01
4.19500000000E+09 +7.24200539692E-02 -5.35391129402E-01 -4.20042263112E-03 +4.22579609554E-03 -4.48023230330E-03 +4.32978065534E-03 +1.63584815431E-01 -6.20119366764E-01
4.20000000000E+09 +5.09184643353E-02 -5.30634924812E-01 -3.10556496502E-03 +4.93055254881E-03 -3.31498652204E-03 +5.03260367062E-03 +1.41832763417E-01 -6.17190292537E-01
4.20500000000E+09 +2.94645126874E-02 -5.25205828790E-01 -2.47086299950E-03 +5.24679521620E-03 -2.65346464152E-03 +5.43290878207E-03 +1.19824915714E-01 -6.13500852490E-01
4.21000000000E+09 +9.10705382255E-03 -5.20357219009E-01 -1.66348410684E-03 +5.37927361635E-03 -1.79888644817E-03 +5.55995711231E-03 +9.70314242430E-02 -6.09448633192E-01
4.21500000000E+09 -1.03590050985E-02 -5.15539108962E-01 -1.30855657307E-03 +5.51101343283E-03 -1.32909321205E-03 +5.75986825772E-03 +7.38970542673E-02 -6.04238246044E-01
4.22000000000E+09 -2.86694731274E-02 -5.09683502870E-01 -6.15915420945E-04 +5.67391515949E-03 -5.91710749968E-04 +5.88209893665E-03 +5.21223450662E-02 -5.97995492722E-01
4.22500000000E+09 -4.54144864562E-02 -5.02350423609E-01 +3.69872868001E-06 +5.73594614505E-03 +2.75763147101E-05 +5.93314298694E-03 +3.05630130574E-02 -5.91975238143E-01
4.23000000000E+09 -6.11072714523E-02 -4.94985321947E-01 +1.07299119135E-03 +5.10723206342E-03 +1.17475424889E-03 +5.25153348533E-03 +1.00800905307E-02 -5.84640990136E-01
4.23500000000E+09 -7.83893322055E-02 -4.85079866319E-01 +5.17102176441E-04 +4.46926886356E-03 +5.65792344405E-04 +4.53823283417E-03 -1.18881356317E-02 -5.77594427594E-01
4.24000000000E+09 -9.57592377593E-02 -4.73090174626E-01 +1.18516126326E-04 +5.16395478654E-03 +1.61082580025E-04 +5.28289707317E-03 -3.43586024469E-02 -5.68431463646E-01
4.24500000000E+09 -1.13876587801E-01 -4.59803249829E-01 +8.62945626896E-04 +6.14126224384E-03 +8.73548660557E-04 +6.21775651976E-03 -5.67279895868E-02 -5.57367400618E-01
4.25000000000E+09 -1.33298167722E-01 -4.45387439436E-01 +1.74981291738E-03 +6.34825558049E-03 +1.82613934827E-03 +6.40803629742E-03 -7.71179379435E-02 -5.45919984473E-01
4.25500000000E+09 -1.52746960598E-01 -4.31304730155E-01 +3.25627539137E-03 +6.31626059802E-03 +3.36841910654E-03 +6.47881806775E-03 -9.68611254051E-02 -5.34334660088E-01
4.26000000000E+09 -1.72326504504E-01 -4.18364225009E-01 +4.59577828605E-03 +5.23771281786E-03 +4.69948375099E-03 +5.24599037080E-03 -1.16855663611E-01 -5.22811448775E-01
4.26500000000E+09 -1.93373385005E-01 -4.07378842226E-01 +4.25299203987E-03 +4.23434957091E-03 +4.33536181666E-03 +4.28956312257E-03 -1.36973969103E-01 -5.09853573273E-01
4.27000000000E+09 -2.13839933116E-01 -3.94930072006E-01 +4.02002156000E-03 +4.22942398273E-03 +4.10188053535E-03 +4.32474978448E-03 -1.58224570465E-01 -4.95799281102E-01
4.27500000000E+09 -2.32351930009E-01 -3.82946341497E-01 +4.93570857992E-03 +4.37891437593E-03 +5.11439544018E-03 +4.44134993495E-03 -1.78158901938E-01 -4.79290773267E-01
4.28000000000E+09 -2.48504572443E-01 -3.70058308370E-01 +5.43567605382E-03 +3.44933361186E-03 +5.56679579185E-03 +3.45987784617E-03 -1.96533148793E-01 -4.65271474058E-01
4.28500000000E+09 -2.62166360632E-01 -3.56452052996E-01 +5.62330753677E-03 +3.69999152958E-03 +5.77569340122E-03 +3.66454398650E-03 -2.17945790972E-01 -4.50235979585E-01
4.29000000000E+09 -2.73565011535E-01 -3.42114600215E-01 +6.88111890798E-03 +2.88162282585E-03 +6.97084428569E-03 +2.82319781119E-03 -2.37564968242E-01 -4.32605792992E-01
4.29500000000E+09 -2.84673541330E-01 -3.27972500316E-01 +6.58269835950E-03 +1.87319211971E-03 +6.75327402003E-03 +1.85761212238E-03 -2.54726027560E-01 -4.13131924213E-01
4.30000000000E+09 -2.97038582020E-01 -3.11544202629E-01 +7.18774677757E-03 +2.03692096141E-03 +7.24255883111E-03 +1.96453196195E-03 -2.69949573888E-01 -3.95048723456E-01
4.30500000000E+09 -3.09868602514E-01 -2.93213661184E-01 +8.27826682390E-03 +6.78907120183E-04 +8.41284258558E-03 +6.31200278114E-04 -2.84836163093E-01 -3.76108971782E-01
4.31000000000E+09 -3.22981693551E-01 -2.73397433148E-01 +8.22559502687E-03 -1.24551066970E-03 +8.36958065456E-03 -1.30350367167E-03 -3.00204499950E-01 -3.57237286676E-01
4.31500000000E+09 -3.36738677570E-01 -2.53402219083E-01 +7.30925874538E-03 -1.90919274222E-03 +7.43451247901E-03 -1.96469756448E-03 -3.16577358747E-01 -3.36592564804E-01
4.32000000000E+09 -3.49612599357E-01 -2.32826909839E-01 +6.90245644556E-03 -2.74174036829E-03 +6.96516454600E-03 -2.71028892899E-03 -3.30769831630E-01 -3.13967845556E-01
4.32500000000E+09 -3.61253810443E-01 -2.13708366194E-01 +5.76615272148E-03 -2.72313056952E-03 +5.85928387050E-03 -2.79253684362E-03 -3.42756883323E-01 -2.91695411936E-01
4.33000000000E+09 -3.71716719344E-01 -1.95574973762E-01 +6.64374485396E-03 -2.33958608954E-03 +6.77890844650E-03 -2.39122852856E-03 -3.53962837446E-01 -2.71355836267E-01
4.33500000000E+09 -3.81191121409E-01 -1.78078709841E-01 +7.57661284712E-03 -3.62967399748E-03 +7.65698398742E-03 -3.75929478577E-03 -3.66184105248E-01 -2.48259351557E-01
4.34000000000E+09 -3.88309059005E-01 -1.60080912020E-01 +6.87716492811E-03 -5.73176303019E-03 +6.92390598230E-03 -5.83839122295E-03 -3.77188984394E-01 -2.24186075264E-01
4.34500000000E+09 -3.94436423839E-01 -1.42613085972E-01 +5.66222150484E-03 -6.36120247400E-03 +5.66256115339E-03 -6.46018724299E-03 -3.86290958208E-01 -1.98843429307E-01
4.35000000000E+09 -4.00069221534E-01 -1.22113197701E-01 +4.91751619494E-03 -6.96617560497E-03 +4.91089701752E-03 -7.02021211470E-03 -3.94693829303E-01 -1.75021844942E-01
4.35500000000E+09 -4.03531028089E-01 -9.92521467577E-02 +3.75634142140E-03 -7.37607488612E-03 +3.77225804582E-03 -7.54290348281E-03 -4.03581523362E-01 -1.52350875467E-01
4.36000000000E+09 -4.05910262982E-01 -7.60001186085E-02 +3.59323313019E-03 -7.47207024919E-03 +3.58363010148E-03 -7.62011401980E-03 -4.12002531295E-01 -1.29317562421E-01
4.36500000000E+09 -4.08598527834E-01 -5.30628140848E-02 +2.27610987886E-03 -8.54588604046E-03 +2.21196827299E-03 -8.80644595654E-03 -4.18680551832E-01 -1.04137130511E-01
4.37000000000E+09 -4.12977501627E-01 -3.02278167893E-02 +7.09689842818E-04 -8.07263672013E-03 +5.77819548547E-04 -8.32320271627E-03 -4.22754944669E-01 -7.88267866393E-02
4.37500000000E+09 -4.18184202167E-01 -7.53462091237E-03 +3.46028571248E-04 -7.32125147717E-03 +1.47210396585E-04 -7.49796069041E-03 -4.24055978772E-01 -5.35935165636E-02
4.38000000000E+09 -4.24050048839E-01 +1.50728502148E-02 +4.50186085517E-04 -7.53066409750E-03 +1.83904570230E-04 -7.67911100922E-03 -4.27116703509E-01 -3.10044859847E-02
4.38500000000E+09 -4.28581696123E-01 +3.65054771426E-02 -3.49285766290E-04 -8.35291002585E-03 -5.63598247173E-04 -8.41570054315E-03 -4.30781636030E-01 -5.69749197423E-03
4.39000000000E+09 -4.31501906876E-01 +5.63014366858E-02 -1.20222023395E-03 -8.59502824245E-03 -1.45456347912E-03 -8.67328148709E-03 -4.33223496643E-01 +2.14989215522E-02
4.39500000000E+09 -4.32801282157E-01 +7.41652725393E-02 -3.02897781188E-03 -8.78357287083E-03 -3.31948325791E-03 -8.83302269468E-03 -4.32188397267E-01 +4.77901098540E-02
4.40000000000E+09 -4.32273753905E-01 +9.25929794824E-02 -4.57340412358E-03 -7.83154550256E-03 -4.81510640193E-03 -7.74474825630E-03 -4.29650911675E-01 +7.14317483876E-02
4.40500000000E+09 -4.29657590201E-01 +1.10126997168E-01 -5.10006650163E-03 -6.73885330403E-03 -5.28355924537E-03 -6.64064141694E-03 -4.27512033417E-01 +9.46156241293E-02
4.41000000000E+09 -4.27070827292E-01 +1.28954316831E-01 -5.16018696221E-03 -5.76242854160E-03 -5.25637114713E-03 -5.65762772871E-03 -4.25565986866E-01 +1.17163921691E-01
4.41500000000E+09 -4.22862495485E-01 +1.50411349257E-01 -5.54620696386E-03 -5.74932673045E-03 -5.67886704204E-03 -5.57562804142E-03 -4.22642853318E-01 +1.43113134057E-01
4.42000000000E+09 -4.17516238526E-01 +1.72689234072E-01 -6.01116025011E-03 -5.56326535986E-03 -6.08983683069E-03 -5.33655072373E-03 -4.16307390744E-01 +1.68476477018E-01
4.42500000000E+09 -4.13035251486E-01 +1.95075632954E-01 -7.22645627158E-03 -5.12959933319E-03 -7.28615147420E-03 -4.90185903924E-03 -4.08868957519E-01 +1.90952982047E-01
4.43000000000E+09 -4.09488329346E-01 +2.17704669512E-01 -7.81936135827E-03 -3.84340139713E-03 -7.71948275926E-03 -3.62083590120E-03 -4.04070524331E-01 +2.12637617184E-01
4.43500000000E+09 -4.06136811217E-01 +2.39364929176E-01 -7.88353538266E-03 -2.83985103268E-03 -7.84090910647E-03 -2.67050734484E-03 -3.98549995257E-01 +2.36131649208E-01
4.44000000000E+09 -4.03245000724E-01 +2.58731234503E-01 -8.09568320708E-03 -2.09861534932E-03 -8.07121930022E-03 -1.99402458655E-03 -3.90118888253E-01 +2.59401883306E-01
4.44500000000E+09 -4.00660026988E-01 +2.76256136443E-01 -8.52813507288E-03 -1.53208920036E-03 -8.43541726020E-03 -1.34012896271E-03 -3.79362773597E-01 +2.80807196411E-01
4.45000000000E+09 -3.97021693042E-01 +2.91630844116E-01 -8.82649504352E-03 -5.15476521761E-04 -8.73368874948E-03 -3.37204491765E-04 -3.69116780394E-01 +2.99183326193E-01
4.45500000000E+09 -3.92406097842E-01 +3.05325840659E-01 -9.37772570935E-03 +8.66302434837E-04 -9.28842703288E-03 +1.08291672790E-03 -3.59654579890E-01 +3.17283797368E-01
4.46000000000E+09 -3.86901777506E-01 +3.19178866965E-01 -8.44842736253E-03 +2.75753174104E-03 -8.29808950711E-03 +2.99866467092E-03 -3.51346656000E-01 +3.37246565035E-01
4.46500000000E+09 -3.77618160882E-01 +3.34556046205E-01 -7.32867881339E-03 +2.99743842663E-03 -7.19415589788E-03 +3.12416556133E-03 -3.38727009850E-01 +3.56907386390E-01
4.47000000000E+09 -3.66338990644E-01 +3.49898235983E-01 -7.15980109706E-03 +2.97394945752E-03 -7.01876014821E-03 +3.10835392583E-03 -3.26291613641E-01 +3.75057970203E-01
4.47500000000E+09 -3.53295542779E-01 +3.66351661611E-01 -7.66523632128E-03 +3.94793428367E-03 -7.42212097447E-03 +4.06334685109E-03 -3.13910000918E-01 +3.91881247921E-01
4.48000000000E+09 -3.40682684629E-01 +3.83736790861E-01 -7.02418337610E-03 +5.21764071695E-03 -6.76258989734E-03 +5.23894365439E-03 -3.02899506562E-01 +4.09486416557E-01
4.48500000000E+09 -3.28551721613E-01 +4.01486645857E-01 -5.99275123632E-03 +6.16029090534E-03 -5.74431028233E-03 +6.15720033812E-03 -2.90272907349E-01 +4.26936861155E-01
4.49000000000E+09 -3.18198735238E-01 +4.19004455007E-01 -4.77542689868E-03 +6.95951817901E-03 -4.59788564545E-03 +6.77581675706E-03 -2.76808048191E-01 +4.43596667966E-01
4.49500000000E+09 -3.10023708215E-01 +4.36457396894E-01 -3.88639629570E-03 +6.66424292227E-03 -3.82464952325E-03 +6.52768608835E-03 -2.61442752072E-01 +4.58138319140E-01
4.50000000000E+09 -3.02468342296E-01 +4.52573450937E-01 -3.58079757719E-03 +6.99350139317E-03 -3.46923488720E-03 +6.91211591538E-03 -2.47464711041E-01 +4.71360039319E-01
4.50500000000E+09 -2.96322176764E-01 +4.66785822823E-01 -2.81420865518E-03 +7.85792908808E-03 -2.68177882347E-03 +7.74753415360E-03 -2.33484035497E-01 +4.83959594599E-01
4.51000000000E+09 -2.88982288303E-01 +4.79189517543E-01 -1.01760909505E-03 +7.96432901382E-03 -9.46329056446E-04 +7.91492643791E-03 -2.20926268639E-01 +4.98038813555E-01
4.51500000000E+09 -2.80202744860E-01 +4.89162247751E-01 -1.63026520380E-04 +7.35075069720E-03 -7.28315928368E-05 +7.30781192599E-03 -2.06298464632E-01 +5.11470627064E-01
4.52000000000E+09 -2.69828267824E-01 +4.97469019912E-01 +5.70225613069E-04 +6.96844542076E-03 +7.06602339779E-04 +6.84388101495E-03 -1.91934699917E-01 +5.23818770051E-01
4.52500000000E+09 -2.58440676821E-01 +5.05160153138E-01 +9.34355653742E-04 +6.17118007776E-03 +9.83689074686E-04 +6.10592866024E-03 -1.76849746522E-01 +5.34488526835E-01
4.53000000000E+09 -2.44766752141E-01 +5.14076550709E-01 +9.33925440405E-04 +6.44653337303E-03 +1.05585986985E-03 +6.30636427504E-03 -1.62843331777E-01 +5.44817008891E-01
4.53500000000E+09 -2.29124468151E-01 +5.23893167100E-01 +1.34679450502E-03 +6.67141725939E-03 +1.48305682252E-03 +6.51868516077E-03 -1.47684638900E-01 +5.54793158965E-01
4.54000000000E+09 -2.12707176635E-01 +5.35125345004E-01 +3.10321735566E-03 +6.80063967910E-03 +3.20662483293E-03 +6.58649196663E-03 -1.32153891828E-01 +5.65926413911E-01
4.54500000000E+09 -1.96144244191E-01 +5.47040734225E-01 +4.01709660414E-03 +5.43363985295E-03 +4.08258602227E-03 +5.17247191078E-03 -1.14706506854E-01 +5.74536769520E-01
4.55000000000E+09 -1.79989010715E-01 +5.58880461110E-01 +3.98134739539E-03 +4.31544054322E-03 +4.02191559954E-03 +4.08316999246E-03 -9.89660243306E-02 +5.82724925187E-01
4.55500000000E+09 -1.66390134304E-01 +5.70069391527E-01 +3.94855140652E-03 +3.51036120580E-03 +3.87766599811E-03 +3.33136134485E-03 -8.43605726751E-02 +5.90164143384E-01
4.56000000000E+09 -1.54397330783E-01 +5.81043850178E-01 +3.30845793119E-03 +3.32864282508E-03 +3.31278174656E-03 +3.14881083318E-03 -7.09726957427E-02 +5.99048812776E-01
4.56500000000E+09 -1.43815243894E-01 +5.90665817020E-01 +3.33828265466E-03 +3.51872122388E-03 +3.29383171003E-03 +3.29741762522E-03 -5.54450849821E-02 +6.07405652842E-01
4.57000000000E+09 -1.34078222806E-01 +5.98907897045E-01 +3.94999565267E-03 +3.74135165214E-03 +3.86997356766E-03 +3.50516569199E-03 -3.96047534515E-02 +6.14166899507E-01
