# Hz S RI R 50
! CMT, C1220, 16058040, 17.2.0/1
! Date: 15/08/2018 12:04:43
! Data: Format (Calibration Info)
! Freq                      S11: Re/Im (F2)                       S21: Re/Im (F2)                       S12: Re/Im (F2)                       S22: Re/Im (F2)            
4.00000000000E+09 +6.69335983441E-01 -3.41839765558E-01 +9.71169986113E-04 -5.83817436943E-04 +9.84263683349E-04 -5.18293624945E-04 +7.77509572063E-01 -3.39891663010E-01
4.00500000000E+09 +6.61165733031E-01 -3.48400851548E-01 +8.84961666251E-04 -5.81490032771E-04 +9.05450227231E-04 -5.30245864745E-04 +7.68951681349E-01 -3.51536025866E-01
4.01000000000E+09 +6.52049851895E-01 -3.54739599046E-01 +8.42102570403E-04 -6.09220391352E-04 +7.95778265516E-04 -5.85646960118E-04 +7.59317400827E-01 -3.62900740761E-01
4.01500000000E+09 +6.41668980623E-01 -3.61535551303E-01 +8.68738569015E-04 -5.78562978473E-04 +9.25249069390E-04 -5.21585990878E-04 +7.49847986681E-01 -3.73264677760E-01
4.02000000000E+09 +6.30940843095E-01 -3.68852165190E-01 +9.35885630701E-04 -7.93562523634E-04 +1.00955247579E-03 -7.29517868724E-04 +7.40203676982E-01 -3.83715918958E-01
4.02500000000E+09 +6.19954378326E-01 -3.77950370738E-01 +8.84050950062E-04 -1.01207827429E-03 +9.69012570870E-04 -9.97504904187E-04 +7.30078044664E-01 -3.94219981270E-01
4.03000000000E+09 +6.08344042618E-01 -3.88546286405E-01 +6.07710498184E-04 -1.28789754408E-03 +6.29068193131E-04 -1.27508952848E-03 +7.19375804436E-01 -4.04530436658E-01
4.03500000000E+09 +5.96486104869E-01 -3.99571265211E-01 +2.23493534533E-04 -1.13918744881E-03 +2.98605028916E-04 -1.18709865556E-03 +7.08365133749E-01 -4.14998721717E-01
4.04000000000E+09 +5.84850651787E-01 -4.10446719488E-01 +2.56683504595E-04 -9.65484087978E-04 +3.40646136575E-04 -1.05189281796E-03 +6.97545780486E-01 -4.25656001994E-01
4.04500000000E+09 +5.73606884576E-01 -4.20994058333E-01 +1.01502211901E-04 -9.31471346750E-04 +1.87187378644E-04 -1.00835427549E-03 +6.86206900975E-01 -4.36339514316E-01
4.05000000000E+09 +5.62140673735E-01 -4.30110452237E-01 +2.96547273106E-04 -8.89958339775E-04 +3.93566915081E-04 -8.95237359554E-04 +6.74716681662E-01 -4.46315552017E-01
4.05500000000E+09 +5.50295799331E-01 -4.37348745999E-01 +4.27193735726E-04 -1.09256575990E-03 +4.64709950238E-04 -1.13531017779E-03 +6.63071395526E-01 -4.56103703227E-01
4.06000000000E+09 +5.38190553395E-01 -4.43005696064E-01 +2.45501651720E-04 -1.31808183130E-03 +2.78307840692E-04 -1.43957649158E-03 +6.50813315148E-01 -4.66052983308E-01
4.06500000000E+09 +5.25435172897E-01 -4.47854786505E-01 -8.73263652762E-05 -1.29559140931E-03 -1.30849559989E-04 -1.39068475424E-03 +6.37657213599E-01 -4.75195190116E-01
4.07000000000E+09 +5.11587332999E-01 -4.52048572329E-01 -1.88832135294E-04 -1.22643830281E-03 -1.61516030533E-04 -1.33035279278E-03 +6.23790558974E-01 -4.85016054255E-01
4.07500000000E+09 +4.97107381082E-01 -4.57158476413E-01 -3.19003399995E-04 -1.19684993248E-03 -3.52481905904E-04 -1.29114096266E-03 +6.09835400056E-01 -4.94122799085E-01
4.08000000000E+09 +4.81028701643E-01 -4.62770657791E-01 -3.23813142102E-04 -1.10869297810E-03 -4.10270891536E-04 -1.10067965697E-03 +5.96397841362E-01 -5.03113254952E-01
4.08500000000E+09 +4.64479724534E-01 -4.68982912443E-01 -4.49859279547E-04 -1.05504134328E-03 -4.82855494171E-04 -1.09838863539E-03 +5.82512900082E-01 -5.12410393914E-01
4.09000000000E+09 +4.47767173579E-01 -4.75835842461E-01 -3.22521838981E-04 -1.11362618715E-03 -2.89249751270E-04 -1.11953571405E-03 +5.68510944766E-01 -5.20383177158E-01
4.09500000000E+09 +4.31467534046E-01 -4.82931981182E-01 -4.90952180454E-04 -1.22315510228E-03 -5.10843503445E-04 -1.23901775205E-03 +5.54149519758E-01 -5.28821635239E-01
4.10000000000E+09 +4.15063796267E-01 -4.89646031279E-01 -6.12084196720E-04 -1.27527073196E-03 -6.16355322566E-04 -1.29059800641E-03 +5.38542128240E-01 -5.36936698779E-01
4.10500000000E+09 +3.99031636859E-01 -4.95217781280E-01 -7.30091623351E-04 -1.26566281890E-03 -7.78840046926E-04 -1.27628315239E-03 +5.21965512098E-01 -5.44872429239E-01
4.11000000000E+09 +3.82721145878E-01 -4.99037060101E-01 -1.02801251846E-03 -1.34475812785E-03 -1.07528202015E-03 -1.36214933130E-03 +5.04734734003E-01 -5.52476729870E-01
4.11500000000E+09 +3.67037785013E-01 -5.00866125051E-01 -1.36406410675E-03 -1.11861965711E-03 -1.33358270590E-03 -1.14017628644E-03 +4.87423270402E-01 -5.59414164302E-01
4.12000000000E+09 +3.51292692917E-01 -5.01521987176E-01 -1.27028879461E-03 -9.50352660471E-04 -1.26334592407E-03 -1.00485541638E-03 +4.70445220303E-01 -5.65619758281E-01
4.12500000000E+09 +3.35084300185E-01 -5.02104857198E-01 -1.48959731772E-03 -9.32282153662E-04 -1.45040528102E-03 -9.57952370782E-04 +4.53564194185E-01 -5.71804649008E-01
4.13000000000E+09 +3.17295581004E-01 -5.03350511005E-01 -1.58766835493E-03 -8.45740047778E-04 -1.55284715875E-03 -8.97543330398E-04 +4.36462771988E-01 -5.77490422145E-01
4.13500000000E+09 +2.98064049569E-01 -5.04401813019E-01 -1.76154640576E-03 -6.10911370020E-04 -1.78142690698E-03 -6.58674414118E-04 +4.17916385430E-01 -5.83294124789E-01
4.14000000000E+09 +2.78657157684E-01 -5.06458335833E-01 -1.82368239274E-03 -3.98707879827E-04 -1.83732393716E-03 -4.70437060826E-04 +3.99033839421E-01 -5.88083520127E-01
4.14500000000E+09 +2.58868732255E-01 -5.09809687934E-01 -1.77992493581E-03 -2.09498490669E-04 -1.82994300359E-03 -3.06299932425E-04 +3.80262315502E-01 -5.93276149467E-01
4.15000000000E+09 +2.38785700177E-01 -5.13770025808E-01 -1.85322426752E-03 -1.04776384281E-04 -1.88966029637E-03 -1.83935750423E-04 +3.60324062422E-01 -5.98319118890E-01
4.15500000000E+09 +2.19152209491E-01 -5.17165313679E-01 -1.86584948329E-03 -4.91531881408E-05 -1.96221033847E-03 -1.12421894987E-04 +3.41027063366E-01 -6.01493276976E-01
4.16000000000E+09 +2.00146161690E-01 -5.19668340170E-01 -2.14727628897E-03 +1.30895166610E-04 -2.23520979868E-03 +5.19201355355E-05 +3.21737859029E-01 -6.04342245943E-01
4.16500000000E+09 +1.82344277393E-01 -5.19807489692E-01 -2.31454455546E-03 +5.70060364542E-04 -2.40560882726E-03 +5.26467076293E-04 +3.01335722940E-01 -6.06164111607E-01
4.17000000000E+09 +1.66022550582E-01 -5.18305547961E-01 -2.03292739401E-03 +8.76622892953E-04 -2.13436210691E-03 +9.08542316498E-04 +2.81643384821E-01 -6.07048309830E-01
4.17500000000E+09 +1.49624194743E-01 -5.14917588697E-01 -1.98861225921E-03 +1.41396456601E-03 -2.07733640048E-03 +1.41908128586E-03 +2.60782056015E-01 -6.07818478257E-01
4.18000000000E+09 +1.33594198850E-01 -5.10288108120E-01 -1.18606745795E-03 +1.45400403603E-03 -1.22141701714E-03 +1.51193194187E-03 +2.40299888469E-01 -6.08357516363E-01
4.18500000000E+09 +1.16499366522E-01 -5.05218466200E-01 -1.16204316805E-03 +7.78821999124E-04 -1.21725577739E-03 +8.15039814633E-04 +2.18678508924E-01 -6.09179560010E-01
4.19000000000E+09 +9.77881229253E-02 -4.99464079412E-01 -1.65021186580E-03 +8.09327735855E-04 -1.74954882493E-03 +8.34499537699E-04 +1.96664597599E-01 -6.08172260146E-01
4.19500000000E+09 +7.82780750687E-02 -4.93577146376E-01 -1.97894202529E-03 +1.43964045909E-03 -2.10125728651E-03 +1.44085488006E-03 +1.75581194512E-01 -6.06434296301E-01
4.20000000000E+09 +5.86362274593E-02 -4.88341730142E-01 -1.82020369180E-03 +1.99719254154E-03 -1.96292004868E-03 +2.04853958965E-03 +1.53851802887E-01 -6.04400937646E-01
4.20500000000E+09 +3.89770264047E-02 -4.84278886918E-01 -1.37322436266E-03 +2.57365343467E-03 -1.43086103894E-03 +2.70914498647E-03 +1.31479459445E-01 -6.01205062924E-01
4.21000000000E+09 +1.96844963629E-02 -4.80483313423E-01 -6.08192983760E-04 +2.19035332292E-03 -6.75670228998E-04 +2.30457161626E-03 +1.09279354346E-01 -5.97382890774E-01
4.21500000000E+09 +7.62932579424E-04 -4.76355110624E-01 -7.81110223690E-04 +2.04024916480E-03 -7.46400132650E-04 +2.16768580627E-03 +8.67415459846E-02 -5.92975435349E-01
4.22000000000E+09 -1.67101072383E-02 -4.70868326332E-01 -9.24077147008E-04 +2.42675001473E-03 -9.43581818033E-04 +2.48055559422E-03 +6.55419727623E-02 -5.87937836237E-01
4.22500000000E+09 -3.33041260372E-02 -4.63159324304E-01 -4.03540419017E-04 +2.83033741975E-03 -4.61883693514E-04 +2.88476046789E-03 +4.40086809671E-02 -5.83245073730E-01
4.23000000000E+09 -4.76998966090E-02 -4.53677315429E-01 -2.28903007893E-05 +2.63562792353E-03 -1.71274989665E-05 +2.71805543171E-03 +2.18563281564E-02 -5.77286291858E-01
4.23500000000E+09 -6.25163028930E-02 -4.43365337328E-01 +3.41121722247E-04 +2.64251035442E-03 +3.67367164735E-04 +2.70734082393E-03 +1.56853503487E-06 -5.69533838320E-01
4.24000000000E+09 -7.86155186213E-02 -4.31478352985E-01 +2.13862606519E-04 +2.60273106389E-03 +2.40523937609E-04 +2.68337865354E-03 -2.22614720548E-02 -5.61176651283E-01
4.24500000000E+09 -9.55913501227E-02 -4.18569117836E-01 +5.56887088120E-04 +2.91771811816E-03 +6.32707781981E-04 +2.93781239580E-03 -4.41836709441E-02 -5.51130632207E-01
4.25000000000E+09 -1.14266490754E-01 -4.05927696591E-01 +1.05673351902E-03 +2.82659211456E-03 +1.07143050682E-03 +2.84258266096E-03 -6.57968873254E-02 -5.41618615908E-01
4.25500000000E+09 -1.34295794701E-01 -3.92839936532E-01 +1.38457567763E-03 +2.78528903473E-03 +1.47864992109E-03 +2.80050664160E-03 -8.85145843187E-02 -5.30450786407E-01
4.26000000000E+09 -1.53818535444E-01 -3.80967117881E-01 +1.54287197607E-03 +2.59498356803E-03 +1.61460884848E-03 +2.68269470286E-03 -1.09245059974E-01 -5.17274294079E-01
4.26500000000E+09 -1.74278585327E-01 -3.70362679569E-01 +1.97534041788E-03 +2.65056766732E-03 +1.95145319062E-03 +2.69935871653E-03 -1.29306476204E-01 -5.04493454353E-01
4.27000000000E+09 -1.93082953607E-01 -3.58705014695E-01 +2.41368534995E-03 +2.53313260256E-03 +2.44158113584E-03 +2.55719206222E-03 -1.50117354641E-01 -4.89898771803E-01
4.27500000000E+09 -2.09260502820E-01 -3.47406107385E-01 +2.98819670276E-03 +2.05552343217E-03 +3.02448679384E-03 +2.10664837425E-03 -1.69964056780E-01 -4.75277566822E-01
4.28000000000E+09 -2.22900402872E-01 -3.35588505464E-01 +3.17868955809E-03 +1.52162625244E-03 +3.23955917602E-03 +1.51525177327E-03 -1.90397196025E-01 -4.59659679610E-01
4.28500000000E+09 -2.35796089975E-01 -3.22374591983E-01 +3.06052420031E-03 +9.46702356205E-04 +3.04375448442E-03 +9.82298979977E-04 -2.10355089052E-01 -4.43623987859E-01
4.29000000000E+09 -2.45805166109E-01 -3.06427651122E-01 +2.90957537894E-03 +8.26341184193E-04 +2.91786287945E-03 +7.92520574104E-04 -2.28597690756E-01 -4.26982493052E-01
4.29500000000E+09 -2.55968054385E-01 -2.89636124406E-01 +2.67039082934E-03 +1.13069396097E-03 +2.67870372263E-03 +1.17286167539E-03 -2.47890581946E-01 -4.09881705123E-01
4.30000000000E+09 -2.66495742305E-01 -2.71151798040E-01 +3.67276643166E-03 +1.04945705096E-03 +3.75848418009E-03 +1.05911464683E-03 -2.64652309962E-01 -3.90404305769E-01
4.30500000000E+09 -2.78292287651E-01 -2.51128853312E-01 +4.01231547742E-03 +1.66027772055E-04 +4.06461863999E-03 +1.72128776880E-04 -2.80303106299E-01 -3.71178904673E-01
4.31000000000E+09 -2.91288033649E-01 -2.30780017637E-01 +4.18628094442E-03 -2.12035838488E-04 +4.33098609899E-03 -2.97609168190E-04 -2.95984015376E-01 -3.51051913511E-01
4.31500000000E+09 -3.04814219208E-01 -2.10325207386E-01 +4.12182268084E-03 -1.53578116841E-03 +4.18918225219E-03 -1.54906305963E-03 -3.10726716847E-01 -3.30157147451E-01
4.32000000000E+09 -3.17586526736E-01 -1.91429231912E-01 +3.11214262179E-03 -2.04969032447E-03 +3.25938143514E-03 -2.07550180974E-03 -3.24363894858E-01 -3.08736138610E-01
4.32500000000E+09 -3.30285146150E-01 -1.74458163672E-01 +2.50500496517E-03 -1.71885501088E-03 +2.56367092989E-03 -1.70751279333E-03 -3.37647282321E-01 -2.87661001284E-01
4.33000000000E+09 -3.41282713364E-01 -1.58094622138E-01 +3.03247438624E-03 -1.26507354005E-03 +3.14447756114E-03 -1.30350077816E-03 -3.50481248947E-01 -2.65427933857E-01
4.33500000000E+09 -3.49571479984E-01 -1.42256457503E-01 +3.31720721280E-03 -1.96737827847E-03 +3.40604143652E-03 -2.02493445464E-03 -3.62425034480E-01 -2.41701008956E-01
4.34000000000E+09 -3.55816277251E-01 -1.26555307028E-01 +3.48166634785E-03 -2.54519687325E-03 +3.47937718579E-03 -2.64606080157E-03 -3.73324468929E-01 -2.18148091392E-01
4.34500000000E+09 -3.59611986055E-01 -1.09896274417E-01 +2.96356515777E-03 -3.61249187334E-03 +2.93953741371E-03 -3.66709914631E-03 -3.83984935456E-01 -1.92354735627E-01
4.35000000000E+09 -3.61313935700E-01 -9.10963587709E-02 +2.01743242955E-03 -3.74892667396E-03 +2.00395993790E-03 -3.82360860444E-03 -3.91598064041E-01 -1.67310833843E-01
4.35500000000E+09 -3.62880063508E-01 -7.16907586162E-02 +1.84323308382E-03 -3.88605663156E-03 +1.81041914757E-03 -3.98580603180E-03 -3.99749788313E-01 -1.43761651029E-01
4.36000000000E+09 -3.65792079875E-01 -5.03179644647E-02 +1.29396588410E-03 -4.30207225237E-03 +1.29819730441E-03 -4.41322642699E-03 -4.06537665660E-01 -1.19542659982E-01
4.36500000000E+09 -3.69404580765E-01 -2.64172043033E-02 +5.03386607419E-04 -4.42073597938E-03 +4.21552928431E-04 -4.44632619034E-03 -4.12151059178E-01 -9.55020294412E-02
4.37000000000E+09 -3.73808059642E-01 -3.32953996064E-03 -4.87576369664E-05 -4.02069620743E-03 -1.35672907731E-04 -4.08909091741E-03 -4.16224342555E-01 -7.08495350998E-02
4.37500000000E+09 -3.79130371864E-01 +1.95861025886E-02 -4.17555408653E-04 -3.68793031627E-03 -5.17410954089E-04 -3.77169871473E-03 -4.19543474973E-01 -4.59391205068E-02
4.38000000000E+09 -3.84535689969E-01 +4.05386708352E-02 -3.67053173982E-04 -3.94903254118E-03 -4.27642801496E-04 -3.94423167619E-03 -4.21800821134E-01 -2.05473136324E-02
4.38500000000E+09 -3.89815599330E-01 +5.87984029261E-02 -6.76042717764E-04 -3.90741080847E-03 -7.80721765619E-04 -3.87285459904E-03 -4.23587153687E-01 +4.89014514723E-03
4.39000000000E+09 -3.93535387773E-01 +7.54088843881E-02 -1.10627382610E-03 -4.40834084578E-03 -1.25646121763E-03 -4.44991459966E-03 -4.24262465514E-01 +3.04265391907E-02
4.39500000000E+09 -3.95163083484E-01 +9.04044762211E-02 -2.33237556992E-03 -4.21149803231E-03 -2.47862497773E-03 -4.11643182336E-03 -4.23909871541E-01 +5.47009334973E-02
4.40000000000E+09 -3.94567501213E-01 +1.04648628216E-01 -2.73810873813E-03 -3.50952960530E-03 -2.84294472580E-03 -3.49679977326E-03 -4.22630134901E-01 +7.96329556996E-02
4.40500000000E+09 -3.91717241502E-01 +1.20087290510E-01 -3.27772715583E-03 -3.02066442476E-03 -3.33371728872E-03 -2.94215889823E-03 -4.19219155274E-01 +1.03958892934E-01
4.41000000000E+09 -3.86531631283E-01 +1.36564336326E-01 -3.07615528687E-03 -2.51490544805E-03 -3.09647451654E-03 -2.42436136332E-03 -4.15080863615E-01 +1.27053014839E-01
4.41500000000E+09 -3.81014232976E-01 +1.54868740077E-01 -3.51703932768E-03 -2.27161160342E-03 -3.52678309827E-03 -2.17486722669E-03 -4.10287403439E-01 +1.51008121984E-01
4.42000000000E+09 -3.75840706082E-01 +1.76075428340E-01 -3.56982952261E-03 -1.86774261642E-03 -3.63677751414E-03 -1.69337027893E-03 -4.04697068892E-01 +1.73599086378E-01
4.42500000000E+09 -3.69810046368E-01 +1.98361513629E-01 -3.84088308354E-03 -1.45252389291E-03 -3.85249049449E-03 -1.31220788759E-03 -3.98894641880E-01 +1.96633461849E-01
4.43000000000E+09 -3.65536940012E-01 +2.19530957828E-01 -3.52152808028E-03 -1.03397375632E-03 -3.43844775116E-03 -9.33917701301E-04 -3.92515493737E-01 +2.18372849622E-01
4.43500000000E+09 -3.63115054849E-01 +2.40118571357E-01 -4.05497898999E-03 -1.15168936482E-03 -3.99299017691E-03 -1.12159212842E-03 -3.85926576560E-01 +2.39870943507E-01
4.44000000000E+09 -3.61438716758E-01 +2.58760134010E-01 -4.28908086653E-03 -4.19087082560E-04 -4.26902952639E-03 -3.58569604582E-04 -3.77882571766E-01 +2.62485635379E-01
4.44500000000E+09 -3.60467039195E-01 +2.75585778004E-01 -4.18003881917E-03 +1.60574650464E-04 -4.15876273036E-03 +1.46985954227E-04 -3.68552820641E-01 +2.82036882051E-01
4.45000000000E+09 -3.58281820373E-01 +2.90520318377E-01 -4.27456953765E-03 +6.47453232067E-04 -4.23740862613E-03 +6.93836175219E-04 -3.59181471825E-01 +3.02015355035E-01
4.45500000000E+09 -3.53618748359E-01 +3.03353277822E-01 -4.16416691506E-03 +1.49115505204E-03 -4.15315128985E-03 +1.61419656894E-03 -3.48247249342E-01 +3.21002409418E-01
4.46000000000E+09 -3.47639968245E-01 +3.14889572985E-01 -3.31253426827E-03 +1.89831481805E-03 -3.24947713253E-03 +1.95430080909E-03 -3.38778809868E-01 +3.38697551408E-01
4.46500000000E+09 -3.38901182557E-01 +3.27438338189E-01 -3.04828888543E-03 +1.97413462087E-03 -2.93938616396E-03 +1.94594407458E-03 -3.26960141573E-01 +3.57411041080E-01
4.47000000000E+09 -3.28665889822E-01 +3.41025245121E-01 -2.70797707374E-03 +1.63769912049E-03 -2.68003364041E-03 +1.67736405815E-03 -3.15174424085E-01 +3.74459667725E-01
4.47500000000E+09 -3.16868971974E-01 +3.57281510176E-01 -3.61327004311E-03 +2.02764776221E-03 -3.53750992261E-03 +2.08849110744E-03 -3.03630500714E-01 +3.90796312463E-01
4.48000000000E+09 -3.03778232578E-01 +3.74895126839E-01 -2.86539123177E-03 +3.02794037472E-03 -2.80237422993E-03 +3.04419008476E-03 -2.91811340796E-01 +4.07445096505E-01
4.48500000000E+09 -2.90977208939E-01 +3.92147489932E-01 -2.28243926059E-03 +3.32873859313E-03 -2.21321304817E-03 +3.38414595083E-03 -2.79596453078E-01 +4.23394814899E-01
4.49000000000E+09 -2.81376204970E-01 +4.08563776764E-01 -1.89888290469E-03 +3.52252950118E-03 -1.78041307716E-03 +3.52412208149E-03 -2.66140853981E-01 +4.39153079601E-01
4.49500000000E+09 -2.73827755820E-01 +4.26318114608E-01 -1.08566937436E-03 +3.53473711839E-03 -1.02195750589E-03 +3.56119592284E-03 -2.52749017290E-01 +4.52798959663E-01
4.50000000000E+09 -2.66934735234E-01 +4.41690300410E-01 -7.45708344134E-04 +3.26428612424E-03 -6.87414256827E-04 +3.23447351203E-03 -2.39908645324E-01 +4.66301199812E-01
4.50500000000E+09 -2.61199128535E-01 +4.55155973274E-01 -4.85839570413E-04 +3.06993064426E-03 -4.40275022371E-04 +3.07254989975E-03 -2.26266014502E-01 +4.79233084284E-01
4.51000000000E+09 -2.54575573639E-01 +4.66183579000E-01 -3.58256117605E-04 +2.96302166342E-03 -3.51508063199E-04 +3.00403264937E-03 -2.12947016714E-01 +4.91817901101E-01
4.51500000000E+09 -2.46459857146E-01 +4.74694753398E-01 -2.00414313490E-04 +2.98989658348E-03 -8.78268448071E-05 +2.98747867912E-03 -1.99392419511E-01 +5.03691247985E-01
4.52000000000E+09 -2.37439224286E-01 +4.81840242783E-01 -1.75767849665E-04 +3.00748255200E-03 -1.33646323134E-04 +2.90980578062E-03 -1.86128954534E-01 +5.15152670955E-01
4.52500000000E+09 -2.26534960316E-01 +4.89627955509E-01 -6.32073303896E-05 +3.11275181512E-03 -1.10022546444E-05 +3.05744664759E-03 -1.72998252971E-01 +5.25751406864E-01
4.53000000000E+09 -2.13242229441E-01 +4.98329104237E-01 +2.71620898111E-04 +3.52242362809E-03 +3.74261429205E-04 +3.47179302372E-03 -1.59207211241E-01 +5.36470989275E-01
4.53500000000E+09 -1.97973185538E-01 +5.08342628189E-01 +9.94413234049E-04 +3.28020405078E-03 +1.08417186763E-03 +3.17492783227E-03 -1.44787609333E-01 +5.46618322337E-01
4.54000000000E+09 -1.82118219384E-01 +5.18760291233E-01 +1.32325490659E-03 +3.07174095288E-03 +1.35918736751E-03 +2.97900638258E-03 -1.30116247646E-01 +5.56505583753E-01
4.54500000000E+09 -1.66951252026E-01 +5.29618406743E-01 +1.29372182536E-03 +2.95209228608E-03 +1.34416095200E-03 +2.86492730002E-03 -1.15037992534E-01 +5.65507018491E-01
4.55000000000E+09 -1.54386286570E-01 +5.40013536962E-01 +2.04573434780E-03 +2.90636284746E-03 +2.06476676839E-03 +2.78139845231E-03 -1.00416564178E-01 +5.74274214073E-01
4.55500000000E+09 -1.44142917417E-01 +5.51166165668E-01 +2.01940227620E-03 +2.35544118450E-03 +1.96830526622E-03 +2.26194771195E-03 -8.66540107269E-02 +5.82632620699E-01
4.56000000000E+09 -1.34937128063E-01 +5.61436617166E-01 +2.08626355332E-03 +2.40541352087E-03 +2.04520834487E-03 +2.30776844570E-03 -7.25024341682E-02 +5.91423614242E-01
4.56500000000E+09 -1.26380109202E-01 +5.69883041439E-01 +2.52450738268E-03 +2.23438446437E-03 +2.53438743533E-03 +2.13665954067E-03 -5.81413637265E-02 +5.99027291786E-01
4.57000000000E+09 -1.17538250039E-01 +5.76596470573E-01 +2.61075724441E-03 +1.93311599379E-03 +2.63140885137E-03 +1.81940701112E-03 -4.34465653614E-02 +6.06359949519E-01
