# Hz S RI R 50
! CMT, C1220, 16058040, 17.2.0/1
! Date: 15/08/2018 12:20:49
! Data: Format (Calibration Info)
! Freq                      S11: Re/Im (F2)                       S21: Re/Im (F2)                       S12: Re/Im (F2)                       S22: Re/Im (F2)            
4.00000000000E+09 +6.50634563541E-01 -3.55278730177E-01 +6.66550236862E-04 +3.01478492686E-05 +6.48728295649E-04 +6.51370197315E-05 +7.42587034133E-01 -3.24059692287E-01
4.00500000000E+09 +6.42446057749E-01 -3.61591438022E-01 +8.07949946088E-04 +1.36645471583E-06 +8.15595406228E-04 +2.18110384884E-06 +7.32325760745E-01 -3.34695496432E-01
4.01000000000E+09 +6.33469110975E-01 -3.68114448615E-01 +8.83227350284E-04 -4.10493093947E-04 +9.43565384707E-04 -3.86199876874E-04 +7.21538727469E-01 -3.45530411276E-01
4.01500000000E+09 +6.22965252241E-01 -3.75554051275E-01 +7.02581966456E-04 -6.69549366620E-04 +7.18253411193E-04 -6.52189230785E-04 +7.10597321959E-01 -3.55665644391E-01
4.02000000000E+09 +6.11903147330E-01 -3.83465152095E-01 +3.21764189665E-04 -7.78547138910E-04 +3.07907844476E-04 -7.75557602220E-04 +6.99176890701E-01 -3.65841693281E-01
4.02500000000E+09 +6.00213059700E-01 -3.92697009747E-01 -7.35932914353E-06 -2.50423518372E-04 -4.17993237798E-05 -2.46419717502E-04 +6.87101818311E-01 -3.75894024896E-01
4.03000000000E+09 +5.88592131117E-01 -4.02284918371E-01 +5.59644463195E-04 -2.66830332811E-07 +5.69605187120E-04 -3.80433075875E-06 +6.74422839045E-01 -3.85429746667E-01
4.03500000000E+09 +5.77605164035E-01 -4.12478163648E-01 +8.24000707805E-04 -3.88310666866E-04 +8.46889402045E-04 -3.66686878823E-04 +6.61588031104E-01 -3.95221801215E-01
4.04000000000E+09 +5.66754752860E-01 -4.22991218057E-01 +8.72363324968E-04 -7.69646868647E-04 +8.95041058174E-04 -7.99907121179E-04 +6.48230817327E-01 -4.05599284513E-01
4.04500000000E+09 +5.55220712823E-01 -4.32852344089E-01 +4.51895504046E-04 -1.16591755261E-03 +4.74478747598E-04 -1.16981400870E-03 +6.33991283171E-01 -4.15112203527E-01
4.05000000000E+09 +5.43453716857E-01 -4.40396495744E-01 +1.08615018672E-05 -1.01041983977E-03 +1.29458522687E-05 -1.04456484648E-03 +6.20067251702E-01 -4.23835655451E-01
4.05500000000E+09 +5.31662175744E-01 -4.45777336769E-01 +3.45262761198E-05 -7.38107379805E-04 -3.85273845436E-06 -7.32424609902E-04 +6.05679817652E-01 -4.32290344225E-01
4.06000000000E+09 +5.19928880372E-01 -4.49991868420E-01 +4.46788011221E-05 -6.76091486277E-04 -1.49954700877E-05 -6.66927112263E-04 +5.91178814814E-01 -4.40235816591E-01
4.06500000000E+09 +5.07741823153E-01 -4.53620835877E-01 +1.88225150813E-04 -7.60808342462E-04 +2.08061192649E-04 -7.88080615277E-04 +5.75363201257E-01 -4.48027427880E-01
4.07000000000E+09 +4.93908436376E-01 -4.58254091799E-01 +3.70291570464E-05 -9.19061610979E-04 +7.24764391782E-05 -9.06956266480E-04 +5.59179096708E-01 -4.55239932431E-01
4.07500000000E+09 +4.78287916900E-01 -4.62404844328E-01 +2.53712831022E-05 -9.03936592473E-04 +6.16990310946E-05 -9.51952272558E-04 +5.42621731117E-01 -4.62591112031E-01
4.08000000000E+09 +4.61822029216E-01 -4.67531072665E-01 -2.20226035797E-04 -1.11652809264E-03 -1.70640540945E-04 -1.10671632868E-03 +5.26414792382E-01 -4.68856938947E-01
4.08500000000E+09 +4.44341904984E-01 -4.72508124990E-01 -4.50042568831E-04 -1.10465875029E-03 -4.37252286858E-04 -1.13846638430E-03 +5.10342320911E-01 -4.76229694572E-01
4.09000000000E+09 +4.27735541885E-01 -4.78126093769E-01 -7.07667114329E-04 -9.93436521194E-04 -6.37433844929E-04 -1.03147508322E-03 +4.92585190551E-01 -4.81892130024E-01
4.09500000000E+09 +4.11356737520E-01 -4.84475462464E-01 -8.01391138587E-04 -7.58706096937E-04 -7.77960827221E-04 -7.98564989082E-04 +4.75902318691E-01 -4.86759758777E-01
4.10000000000E+09 +3.94512283585E-01 -4.90502681023E-01 -8.45062151553E-04 -6.51551006492E-04 -8.62311435255E-04 -6.69461233890E-04 +4.57614415005E-01 -4.92024023251E-01
4.10500000000E+09 +3.77969935364E-01 -4.94551099650E-01 -7.03454884435E-04 -3.05290150006E-04 -6.59310090519E-04 -3.15688570809E-04 +4.38463434033E-01 -4.96061742636E-01
4.11000000000E+09 +3.61935174412E-01 -4.96847266072E-01 -5.96295160406E-04 -5.73349854089E-04 -5.94975468970E-04 -6.35228606163E-04 +4.19305678813E-01 -4.99790108659E-01
4.11500000000E+09 +3.46775285702E-01 -4.97930616079E-01 -5.98800855145E-04 -7.35142218077E-04 -6.44485297386E-04 -7.81730780395E-04 +3.99975954106E-01 -5.03381978063E-01
4.12000000000E+09 +3.31207645158E-01 -4.99246968218E-01 -9.47145169043E-04 -1.03148832836E-03 -1.01498107299E-03 -1.12657005053E-03 +3.80415056223E-01 -5.06621619013E-01
4.12500000000E+09 +3.13506511617E-01 -5.00242085378E-01 -1.59594867050E-03 -7.45180632237E-04 -1.64400054605E-03 -8.14505002152E-04 +3.60241369928E-01 -5.09020820554E-01
4.13000000000E+09 +2.94719778691E-01 -5.00700196174E-01 -1.83019583870E-03 -4.71539367962E-05 -1.91614734000E-03 -1.83543878336E-04 +3.39547390061E-01 -5.10578704766E-01
4.13500000000E+09 +2.75415591983E-01 -5.01395517758E-01 -1.42209686446E-03 +4.76079144477E-04 -1.49277955898E-03 +4.68135315577E-04 +3.18322525730E-01 -5.10493086204E-01
4.14000000000E+09 +2.55655947393E-01 -5.03035463851E-01 -1.02794287301E-03 +3.37839045558E-04 -1.08759134587E-03 +2.99891854059E-04 +2.97565130707E-01 -5.10173636132E-01
4.14500000000E+09 +2.36627851785E-01 -5.06065985855E-01 -1.05593247260E-03 +2.89114242364E-04 -1.10030115690E-03 +2.67076521989E-04 +2.76214941949E-01 -5.09270897783E-01
4.15000000000E+09 +2.17210392873E-01 -5.10477762132E-01 -1.05293704221E-03 +2.39217085559E-04 -1.14159031882E-03 +3.13011160243E-04 +2.55629664065E-01 -5.07634125574E-01
4.15500000000E+09 +1.97550310116E-01 -5.14022723016E-01 -1.22804651772E-03 +5.92997965926E-05 -1.32149132132E-03 +1.22365500227E-04 +2.34655368825E-01 -5.05062556019E-01
4.16000000000E+09 +1.79216664997E-01 -5.16306225443E-01 -1.61562436425E-03 +5.27418508068E-04 -1.58457110841E-03 +5.27004833618E-04 +2.13985890416E-01 -5.00977994855E-01
4.16500000000E+09 +1.61957895612E-01 -5.16571560618E-01 -1.50097711751E-03 +9.42419571866E-04 -1.52138734476E-03 +9.85557072156E-04 +1.93541309973E-01 -4.96212426964E-01
4.17000000000E+09 +1.46649236116E-01 -5.14465716617E-01 -1.49630442037E-03 +1.02488729236E-03 -1.52908293343E-03 +1.07854913809E-03 +1.72720746229E-01 -4.91043267981E-01
4.17500000000E+09 +1.31987047406E-01 -5.11327088452E-01 -1.38720703383E-03 +1.66620920058E-03 -1.41893974520E-03 +1.77931744864E-03 +1.51453945952E-01 -4.84493341657E-01
4.18000000000E+09 +1.17287228643E-01 -5.07291240845E-01 -8.58731430701E-04 +2.02080787599E-03 -8.89531629180E-04 +2.07965734073E-03 +1.31195628757E-01 -4.76855705876E-01
4.18500000000E+09 +1.01278051857E-01 -5.03048397436E-01 -1.66023372508E-04 +2.02400010582E-03 -2.02042982640E-04 +2.13560533545E-03 +1.11822676407E-01 -4.69862891267E-01
4.19000000000E+09 +8.33707651771E-02 -4.97517768799E-01 -1.51094201667E-05 +1.52730486726E-03 +2.42115082970E-05 +1.58970429726E-03 +9.08090452698E-02 -4.62525699909E-01
4.19500000000E+09 +6.53399993939E-02 -4.91102237291E-01 -1.98185816364E-04 +1.34111871922E-03 -1.89214632140E-04 +1.34667477927E-03 +7.02498467739E-02 -4.52917024099E-01
4.20000000000E+09 +4.74368985793E-02 -4.85689097018E-01 -2.12625754867E-04 +1.77306777412E-03 -1.95447946765E-04 +1.79441520709E-03 +5.08309164978E-02 -4.42186080821E-01
4.20500000000E+09 +2.90529978094E-02 -4.80999466721E-01 -1.68075170805E-04 +1.77433789962E-03 -1.69013762481E-04 +1.82655467948E-03 +3.10372312685E-02 -4.31760805875E-01
4.21000000000E+09 +1.09731874624E-02 -4.76004679352E-01 +6.84613294478E-05 +2.36357957932E-03 +7.13537118119E-05 +2.41796611267E-03 +1.13451913758E-02 -4.20009022106E-01
4.21500000000E+09 -6.25078571063E-03 -4.69865857737E-01 +1.00491221480E-03 +2.53019255213E-03 +1.04935334905E-03 +2.56047842492E-03 -7.71498399845E-03 -4.08084188866E-01
4.22000000000E+09 -2.18343471487E-02 -4.62977584515E-01 +1.35377171697E-03 +2.11903104910E-03 +1.41636685620E-03 +2.10723187349E-03 -2.63984641446E-02 -3.95345920518E-01
4.22500000000E+09 -3.65754234000E-02 -4.55156311465E-01 +1.93054539339E-03 +1.81970715887E-03 +1.94387274474E-03 +1.77419354697E-03 -4.43011616745E-02 -3.80872911063E-01
4.23000000000E+09 -5.10805668823E-02 -4.45818178262E-01 +2.00288815014E-03 +1.21479743146E-03 +1.97259125262E-03 +1.20980187260E-03 -6.07473281056E-02 -3.66082753324E-01
4.23500000000E+09 -6.66310745321E-02 -4.34737126325E-01 +1.87794766259E-03 +1.01335442358E-03 +1.84203065148E-03 +1.00668473334E-03 -7.76720838753E-02 -3.50414780494E-01
4.24000000000E+09 -8.24688792459E-02 -4.21746149218E-01 +1.76967282380E-03 +1.05484986921E-03 +1.76156088656E-03 +1.05384567293E-03 -9.31939803826E-02 -3.33052904725E-01
4.24500000000E+09 -9.90535132384E-02 -4.08212800889E-01 +2.39411680372E-03 +1.12958925122E-03 +2.42979524056E-03 +1.10952149528E-03 -1.08314159496E-01 -3.15739573335E-01
4.25000000000E+09 -1.16589249034E-01 -3.94846753880E-01 +2.90230770456E-03 +4.95899790423E-04 +2.93895922748E-03 +4.69082676122E-04 -1.22284146340E-01 -2.97339356240E-01
4.25500000000E+09 -1.34337811774E-01 -3.82357011030E-01 +2.85627690622E-03 -3.32667965909E-04 +2.78984692852E-03 -3.93729148371E-04 -1.34721852354E-01 -2.79601121915E-01
4.26000000000E+09 -1.53380723968E-01 -3.71604404436E-01 +2.38651313849E-03 -6.16609921826E-04 +2.35061488148E-03 -6.20665442665E-04 -1.47291157122E-01 -2.62065215145E-01
4.26500000000E+09 -1.72712366265E-01 -3.60368064819E-01 +2.52400037324E-03 -7.38643466588E-04 +2.48970730462E-03 -7.17154255954E-04 -1.58843300040E-01 -2.42820891690E-01
4.27000000000E+09 -1.89909027302E-01 -3.49064492486E-01 +2.58068480763E-03 -1.15027062647E-03 +2.58273616052E-03 -1.15784694261E-03 -1.70179207107E-01 -2.23933810900E-01
4.27500000000E+09 -2.05862570713E-01 -3.37699408886E-01 +2.23337276370E-03 -2.02477355263E-03 +2.24241797829E-03 -1.99220428797E-03 -1.81324677425E-01 -2.03735963574E-01
4.28000000000E+09 -2.18980916253E-01 -3.24435391890E-01 +1.49204570689E-03 -2.00183750418E-03 +1.52911234592E-03 -1.97318598597E-03 -1.91170451119E-01 -1.83023121256E-01
4.28500000000E+09 -2.29831211138E-01 -3.10610588322E-01 +1.43560097826E-03 -1.88232568761E-03 +1.44668947031E-03 -1.87561758382E-03 -1.99639184143E-01 -1.62474963694E-01
4.29000000000E+09 -2.39794102959E-01 -2.96231952407E-01 +1.38811912133E-03 -2.09257961870E-03 +1.38401192211E-03 -2.10967350317E-03 -2.07378378058E-01 -1.42750739364E-01
4.29500000000E+09 -2.50664594840E-01 -2.80022603065E-01 +1.23392348133E-03 -2.58692780670E-03 +1.23527701140E-03 -2.60369647715E-03 -2.14433493839E-01 -1.23468604753E-01
4.30000000000E+09 -2.61886060297E-01 -2.61983778637E-01 +4.26605176525E-04 -2.66688529587E-03 +4.13295962785E-04 -2.68049381355E-03 -2.20867150593E-01 -1.03414052568E-01
4.30500000000E+09 -2.73749557664E-01 -2.43034125947E-01 +3.81169716863E-04 -2.64514781530E-03 +3.56943166780E-04 -2.65251341801E-03 -2.26219609943E-01 -8.21753341932E-02
4.31000000000E+09 -2.86297117909E-01 -2.24041909228E-01 -1.62251957607E-04 -3.11985584738E-03 -1.84870579296E-04 -3.10505504423E-03 -2.29707987294E-01 -6.13155346269E-02
4.31500000000E+09 -2.99386927612E-01 -2.05495574015E-01 -1.02434457106E-03 -2.77403888115E-03 -1.00721253583E-03 -2.78629586836E-03 -2.32862135764E-01 -3.98709143980E-02
4.32000000000E+09 -3.11646955611E-01 -1.88397401431E-01 -1.26570686238E-03 -2.18349547721E-03 -1.34174292923E-03 -2.20006221077E-03 -2.34864969260E-01 -1.86928361296E-02
4.32500000000E+09 -3.23681351203E-01 -1.72636717473E-01 -1.13092887689E-03 -2.03574147849E-03 -1.21444959518E-03 -2.05826358253E-03 -2.36482222071E-01 +2.01648775307E-03
4.33000000000E+09 -3.33212024217E-01 -1.56875158233E-01 -1.59076418877E-03 -2.14540863746E-03 -1.62426090693E-03 -2.14646557893E-03 -2.37194174962E-01 +2.29807590787E-02
4.33500000000E+09 -3.40409696720E-01 -1.42572346388E-01 -1.73506956507E-03 -1.89187796625E-03 -1.75642021971E-03 -1.87336657831E-03 -2.37010730232E-01 +4.37164026825E-02
4.34000000000E+09 -3.46249400527E-01 -1.27716290889E-01 -2.29790752108E-03 -1.87725745712E-03 -2.35356634299E-03 -1.83475545520E-03 -2.36113906904E-01 +6.41732387857E-02
4.34500000000E+09 -3.50250874542E-01 -1.10911705511E-01 -2.74347571394E-03 -9.91318516557E-04 -2.73258577341E-03 -9.39333468852E-04 -2.34033880359E-01 +8.44197375556E-02
4.35000000000E+09 -3.52535044903E-01 -9.27898144774E-02 -2.32259502131E-03 -5.09785918318E-04 -2.32462434095E-03 -4.84166271940E-04 -2.31851120241E-01 +1.03135403019E-01
4.35500000000E+09 -3.55417199741E-01 -7.20632172661E-02 -2.52436730107E-03 -6.41152917091E-04 -2.55374583229E-03 -5.83945004846E-04 -2.29201195366E-01 +1.22215238098E-01
4.36000000000E+09 -3.57273768805E-01 -4.95772917631E-02 -2.55344148775E-03 +1.24011932128E-04 -2.60201649996E-03 +1.73126700609E-04 -2.26189501255E-01 +1.39883607951E-01
4.36500000000E+09 -3.59689191615E-01 -2.76728198814E-02 -2.60966783344E-03 +1.27627331909E-05 -2.59348000557E-03 +6.08283827827E-05 -2.22709934789E-01 +1.58121769879E-01
4.37000000000E+09 -3.64483681261E-01 -6.08154085272E-03 -2.93118743330E-03 +9.44485384731E-04 -2.91997278618E-03 +1.01491115934E-03 -2.18038304958E-01 +1.75955363580E-01
4.37500000000E+09 -3.70434403728E-01 +1.44497500386E-02 -1.99652089213E-03 +1.47391074494E-03 -1.98980974572E-03 +1.53998265894E-03 -2.12939425777E-01 +1.93361507334E-01
4.38000000000E+09 -3.76747497761E-01 +3.46112452278E-02 -1.66631224900E-03 +1.19342348909E-03 -1.62115859620E-03 +1.23299120530E-03 -2.07011394098E-01 +2.10575886337E-01
4.38500000000E+09 -3.81362725654E-01 +5.30111630378E-02 -1.78963568086E-03 +1.38581206540E-03 -1.73136241402E-03 +1.40335984964E-03 -2.01068730247E-01 +2.27870178282E-01
4.39000000000E+09 -3.83996948570E-01 +6.92823785664E-02 -1.61451286550E-03 +1.66467490026E-03 -1.51834496929E-03 +1.69431219408E-03 -1.94484493829E-01 +2.44830397498E-01
4.39500000000E+09 -3.84603274722E-01 +8.38886297372E-02 -1.44728466176E-03 +1.99773999410E-03 -1.30065801195E-03 +2.03235227737E-03 -1.87966881386E-01 +2.60551090484E-01
4.40000000000E+09 -3.83240338420E-01 +9.81928647573E-02 -8.27623567048E-04 +2.10530060472E-03 -7.44719936083E-04 +2.08071800787E-03 -1.80925996067E-01 +2.77328053217E-01
4.40500000000E+09 -3.79781226248E-01 +1.13309226772E-01 -7.70118504024E-04 +2.07914341010E-03 -6.94268507549E-04 +2.04743983048E-03 -1.72088537465E-01 +2.92758016984E-01
4.41000000000E+09 -3.75563105651E-01 +1.29975370834E-01 -3.19164273931E-04 +2.30374384359E-03 -2.52258640923E-04 +2.20942470671E-03 -1.63216916174E-01 +3.07263135043E-01
4.41500000000E+09 -3.70035999724E-01 +1.49484682151E-01 -5.55192743188E-05 +2.05455190652E-03 -5.94147542700E-05 +1.91274343057E-03 -1.54009089731E-01 +3.21331891609E-01
4.42000000000E+09 -3.64038928070E-01 +1.70010373397E-01 -1.84876820497E-04 +2.16250514800E-03 -1.20186122438E-04 +2.04714819442E-03 -1.44695148379E-01 +3.35928330154E-01
4.42500000000E+09 -3.59608909651E-01 +1.90937721380E-01 +4.56308095849E-04 +2.52146130702E-03 +4.92228037562E-04 +2.35782933789E-03 -1.34142733233E-01 +3.49009932196E-01
4.43000000000E+09 -3.56731351571E-01 +2.12682605360E-01 +9.84041260756E-04 +2.16540573940E-03 +9.43256774136E-04 +2.03896287481E-03 -1.25398890390E-01 +3.61755244063E-01
4.43500000000E+09 -3.54499679560E-01 +2.33316367521E-01 +1.07732606769E-03 +1.93018734941E-03 +1.04972328175E-03 +1.81830497653E-03 -1.15281547800E-01 +3.74691060111E-01
4.44000000000E+09 -3.52465058641E-01 +2.52176704627E-01 +1.52716133309E-03 +1.87409991809E-03 +1.50314955691E-03 +1.79095283840E-03 -1.05390087744E-01 +3.86212063277E-01
4.44500000000E+09 -3.50606936344E-01 +2.68392110087E-01 +1.78300388994E-03 +1.19423778250E-03 +1.76270990194E-03 +1.16659664940E-03 -9.52873395549E-02 +3.97671830409E-01
4.45000000000E+09 -3.48158001722E-01 +2.82795051823E-01 +1.52834924562E-03 +1.10078542053E-03 +1.44788168536E-03 +1.06849886508E-03 -8.45353213526E-02 +4.08380333274E-01
4.45500000000E+09 -3.43891297700E-01 +2.96171662648E-01 +1.98182968182E-03 +1.08271854579E-03 +1.87126540340E-03 +9.99866690093E-04 -7.38261270159E-02 +4.18475685313E-01
4.46000000000E+09 -3.37526138661E-01 +3.09047264351E-01 +2.02691255233E-03 +2.32997717444E-04 +1.94046157955E-03 +2.30659849499E-04 -6.30037307505E-02 +4.28324404500E-01
4.46500000000E+09 -3.28836583733E-01 +3.22664796289E-01 +1.62845752131E-03 +2.28552577892E-04 +1.60513884971E-03 +2.43026992864E-04 -5.18089128962E-02 +4.37381230580E-01
4.47000000000E+09 -3.18615703906E-01 +3.37497093098E-01 +1.53239658899E-03 +8.93649022689E-05 +1.54827592750E-03 +8.63503093396E-05 -4.15355737814E-02 +4.46807682795E-01
4.47500000000E+09 -3.06707063814E-01 +3.54091741625E-01 +1.77981950440E-03 +2.80601593552E-04 +1.70678805113E-03 +2.81775206239E-04 -3.00579833622E-02 +4.56662384638E-01
4.48000000000E+09 -2.94888086874E-01 +3.71425037643E-01 +1.98874675070E-03 -4.38227402305E-05 +1.95242498766E-03 -4.51802829285E-05 -1.83454991586E-02 +4.65002795509E-01
4.48500000000E+09 -2.84321431430E-01 +3.89203925426E-01 +2.05633468578E-03 -7.27931881457E-04 +1.94967559086E-03 -6.84282173503E-04 -6.81840832148E-03 +4.73493892284E-01
4.49000000000E+09 -2.75399942792E-01 +4.07209809488E-01 +1.87133126935E-03 -1.04693978057E-03 +1.83114535355E-03 -1.03307503861E-03 +5.33099858154E-03 +4.81053025572E-01
4.49500000000E+09 -2.67322647495E-01 +4.24037951365E-01 +1.15929595729E-03 -1.39617195558E-03 +1.20049464631E-03 -1.34931480953E-03 +1.65291127512E-02 +4.87669669373E-01
4.50000000000E+09 -2.60721867231E-01 +4.37945440401E-01 +8.90338214376E-04 -1.09599548009E-03 +9.20714485736E-04 -1.11966086128E-03 +2.80803309001E-02 +4.94389777623E-01
4.50500000000E+09 -2.55862518184E-01 +4.50072220449E-01 +1.00560013654E-03 -1.01088930277E-03 +9.92935523368E-04 -1.01275965975E-03 +3.96478482887E-02 +5.00393995303E-01
4.51000000000E+09 -2.50254066551E-01 +4.60949342470E-01 +1.04381404777E-03 -1.38873089518E-03 +1.01238283467E-03 -1.36861481355E-03 +5.10738635816E-02 +5.06280105952E-01
4.51500000000E+09 -2.42203540439E-01 +4.69646493679E-01 +8.08336940737E-04 -1.55995990178E-03 +7.59022560535E-04 -1.60208204690E-03 +6.24307956094E-02 +5.12192773467E-01
4.52000000000E+09 -2.32928415787E-01 +4.77362753635E-01 +3.60504540467E-04 -1.72679312074E-03 +3.20414967698E-04 -1.73092536803E-03 +7.45792918067E-02 +5.17166155502E-01
4.52500000000E+09 -2.21041153828E-01 +4.85065935432E-01 +1.83908732764E-04 -1.46006227533E-03 +1.57234924427E-04 -1.44413381835E-03 +8.58723721819E-02 +5.21360299996E-01
4.53000000000E+09 -2.07753812225E-01 +4.93169387692E-01 +1.71803789176E-04 -1.54904894274E-03 +1.68909268064E-04 -1.51928720628E-03 +9.76462116843E-02 +5.25317080137E-01
4.53500000000E+09 -1.93228743649E-01 +5.02885301667E-01 -2.39126574336E-04 -1.69662324368E-03 -2.52062421788E-04 -1.62573675288E-03 +1.08796956557E-01 +5.28771841273E-01
4.54000000000E+09 -1.78343771455E-01 +5.13231124851E-01 -5.17622233495E-04 -1.58049496127E-03 -4.61299430242E-04 -1.52034770154E-03 +1.20257822385E-01 +5.32247244954E-01
4.54500000000E+09 -1.64205394106E-01 +5.24691882689E-01 -8.04843206904E-04 -1.32381354552E-03 -7.68862430461E-04 -1.27028869704E-03 +1.30787421516E-01 +5.35676110741E-01
4.55000000000E+09 -1.51274323009E-01 +5.35563369548E-01 -9.00123861103E-04 -1.01332289031E-03 -9.09639000748E-04 -9.33259280255E-04 +1.42450551331E-01 +5.39536406151E-01
4.55500000000E+09 -1.40283963878E-01 +5.45815237156E-01 -8.46838189281E-04 -8.01910400680E-04 -8.70272813369E-04 -7.62642345041E-04 +1.53626141884E-01 +5.42409382963E-01
4.56000000000E+09 -1.30704513869E-01 +5.55276214313E-01 -7.23413840137E-04 -8.29895297694E-04 -6.67675684966E-04 -7.83697609787E-04 +1.64554398450E-01 +5.45232314304E-01
4.56500000000E+09 -1.21618897706E-01 +5.63044056187E-01 -9.29746616761E-04 -9.49774728606E-04 -9.24677793132E-04 -8.92731798727E-04 +1.74989752404E-01 +5.47584798583E-01
4.57000000000E+09 -1.12334452053E-01 +5.69395851587E-01 -1.25095499309E-03 -6.68504502190E-04 -1.24985277082E-03 -6.10901135597E-04 +1.85642143685E-01 +5.50049097563E-01
