# Hz S RI R 50
! CMT, C1220, 16058040, 17.2.0/1
! Date: 15/08/2018 11:45:01
! Data: Format (Calibration Info)
! Freq                      S11: Re/Im (F2)                       S21: Re/Im (F2)                       S12: Re/Im (F2)                       S22: Re/Im (F2)            
4.00000000000E+09 +6.40484712575E-01 -3.37066806340E-01 -1.17450287684E-03 -2.94080989752E-03 -1.11506080891E-03 -3.14827487290E-03 +7.70720847026E-01 -3.51540681783E-01
4.00500000000E+09 +6.31332741494E-01 -3.43430655704E-01 -1.31096519097E-03 -3.05058817500E-03 -1.24133959030E-03 -3.19743180521E-03 +7.62129825399E-01 -3.63002452943E-01
4.01000000000E+09 +6.21412293385E-01 -3.48965148787E-01 -1.73171685560E-03 -3.19065310424E-03 -1.72624374336E-03 -3.26743523335E-03 +7.52308731153E-01 -3.73997876313E-01
4.01500000000E+09 +6.10632222455E-01 -3.54433385241E-01 -2.15190462243E-03 -2.86644205272E-03 -2.07746708987E-03 -2.99428379313E-03 +7.42540223014E-01 -3.84014216032E-01
4.02000000000E+09 +5.99356700128E-01 -3.61160479698E-01 -2.30036944877E-03 -2.96330963559E-03 -2.26143929700E-03 -3.08212994566E-03 +7.33174356497E-01 -3.94232357134E-01
4.02500000000E+09 +5.86837933543E-01 -3.68374681399E-01 -3.01115698586E-03 -2.91724606362E-03 -3.00615355960E-03 -3.16269944319E-03 +7.22849616330E-01 -4.05004782709E-01
4.03000000000E+09 +5.74584067216E-01 -3.76566829011E-01 -3.56607790612E-03 -2.34217815548E-03 -3.56389979541E-03 -2.57212216584E-03 +7.11891152735E-01 -4.15369700293E-01
4.03500000000E+09 +5.61806626029E-01 -3.86046501837E-01 -3.67789229000E-03 -1.93219842111E-03 -3.71119820576E-03 -2.13175242999E-03 +7.00493947202E-01 -4.26076678429E-01
4.04000000000E+09 +5.49179935986E-01 -3.95299474489E-01 -4.04773418318E-03 -1.41944096055E-03 -4.07240465151E-03 -1.65388151572E-03 +6.88761479061E-01 -4.36728031319E-01
4.04500000000E+09 +5.36917656191E-01 -4.05018501103E-01 -3.93478625110E-03 -9.59735156448E-04 -3.98277061298E-03 -1.14785336530E-03 +6.77198652109E-01 -4.46604227294E-01
4.05000000000E+09 +5.23947471424E-01 -4.13779797772E-01 -4.01789417356E-03 -8.01717859269E-04 -4.15752999524E-03 -1.08641594725E-03 +6.65850366779E-01 -4.56721876001E-01
4.05500000000E+09 +5.10153711472E-01 -4.20688198911E-01 -4.43399941427E-03 -3.39945350145E-04 -4.64380157239E-03 -5.59536703811E-04 +6.53508776569E-01 -4.66714157051E-01
4.06000000000E+09 +4.96527435387E-01 -4.25401076283E-01 -4.54147108312E-03 +2.14334452533E-04 -4.75687400788E-03 +1.35567203606E-04 +6.40975635242E-01 -4.75936826391E-01
4.06500000000E+09 +4.82478190096E-01 -4.29081438187E-01 -4.31822359608E-03 +9.30438537554E-04 -4.46633128052E-03 +9.53593136035E-04 +6.27442655394E-01 -4.85218405452E-01
4.07000000000E+09 +4.68089029612E-01 -4.32086872797E-01 -4.11096075495E-03 +1.27723103637E-03 -4.25206383035E-03 +1.21067865425E-03 +6.13515560353E-01 -4.94735549191E-01
4.07500000000E+09 +4.52838544944E-01 -4.35893696030E-01 -3.83218436616E-03 +1.55864922829E-03 -3.94802919508E-03 +1.42376192477E-03 +5.99585945893E-01 -5.04252886362E-01
4.08000000000E+09 +4.36100084246E-01 -4.39772031716E-01 -3.82425007488E-03 +1.65452208008E-03 -3.95551126770E-03 +1.57386093352E-03 +5.84930238958E-01 -5.13888365539E-01
4.08500000000E+09 +4.18247464246E-01 -4.44269903433E-01 -3.88365778383E-03 +1.92026313560E-03 -4.12576420082E-03 +1.92765547013E-03 +5.70300660128E-01 -5.22180001193E-01
4.09000000000E+09 +4.00222830735E-01 -4.48107262605E-01 -3.68547724764E-03 +2.45652864381E-03 -3.92115951895E-03 +2.50537450032E-03 +5.55713129086E-01 -5.30186630642E-01
4.09500000000E+09 +3.82820344940E-01 -4.51991506944E-01 -3.63606827857E-03 +2.82222176962E-03 -3.80545103745E-03 +2.88244106700E-03 +5.40589613227E-01 -5.37564821066E-01
4.10000000000E+09 +3.65860997832E-01 -4.56291952298E-01 -3.26723896527E-03 +3.10717613026E-03 -3.40162024134E-03 +3.24386307374E-03 +5.25037432003E-01 -5.44822347771E-01
4.10500000000E+09 +3.49126400239E-01 -4.59760252941E-01 -3.25816342602E-03 +3.47162266526E-03 -3.34539154351E-03 +3.48351267527E-03 +5.08024729747E-01 -5.52534594633E-01
4.11000000000E+09 +3.31998427556E-01 -4.62083606576E-01 -3.06367837300E-03 +4.12935004467E-03 -3.16773227442E-03 +4.11876442775E-03 +4.90413691577E-01 -5.59288288903E-01
4.11500000000E+09 +3.15499065591E-01 -4.62295721934E-01 -2.21766943819E-03 +4.52915163041E-03 -2.41516897260E-03 +4.63981428452E-03 +4.73701770377E-01 -5.65789485377E-01
4.12000000000E+09 +2.98845159132E-01 -4.61872701175E-01 -1.88057042082E-03 +4.43016782927E-03 -2.00047547268E-03 +4.55514848328E-03 +4.56617549874E-01 -5.72796138750E-01
4.12500000000E+09 +2.81585553541E-01 -4.60606563000E-01 -1.74601100264E-03 +4.47201202456E-03 -1.90383978147E-03 +4.59482828502E-03 +4.39213450614E-01 -5.78787317796E-01
4.13000000000E+09 +2.64116006955E-01 -4.58887784432E-01 -1.47833665197E-03 +4.87922260974E-03 -1.61757791493E-03 +4.91458466060E-03 +4.20869011685E-01 -5.84554045909E-01
4.13500000000E+09 +2.45925455022E-01 -4.57783632989E-01 -1.41185398772E-03 +5.21233235368E-03 -1.63109127215E-03 +5.23910875841E-03 +4.02276264436E-01 -5.89226470898E-01
4.14000000000E+09 +2.27513281704E-01 -4.57358946728E-01 -9.39350014612E-04 +6.12620667824E-03 -1.13639115150E-03 +6.22019945804E-03 +3.82815706803E-01 -5.93580085605E-01
4.14500000000E+09 +2.08954184180E-01 -4.57910112067E-01 +4.12439618314E-04 +6.73908889610E-03 +2.84207927954E-04 +7.00042318989E-03 +3.63426847506E-01 -5.97453455878E-01
4.15000000000E+09 +1.90123232754E-01 -4.60044844994E-01 +1.59096382633E-03 +6.17268845418E-03 +1.48114072909E-03 +6.44159619361E-03 +3.44885837547E-01 -6.02305702055E-01
4.15500000000E+09 +1.70421193874E-01 -4.61424975181E-01 +2.07330071806E-03 +5.66152138390E-03 +2.11951937483E-03 +5.81779520702E-03 +3.24512940727E-01 -6.06812452792E-01
4.16000000000E+09 +1.51475341498E-01 -4.61173449639E-01 +2.41250884100E-03 +5.36028817272E-03 +2.37680066562E-03 +5.53263617909E-03 +3.03891851681E-01 -6.08656695270E-01
4.16500000000E+09 +1.33356826674E-01 -4.58788039024E-01 +2.46171883732E-03 +5.23932905369E-03 +2.43312737560E-03 +5.41480259966E-03 +2.84530715407E-01 -6.10049216665E-01
4.17000000000E+09 +1.17336045067E-01 -4.54088788102E-01 +3.07528438060E-03 +5.76795762808E-03 +3.01681047145E-03 +5.99429193252E-03 +2.63667267479E-01 -6.10758077021E-01
4.17500000000E+09 +1.02131684347E-01 -4.48374225508E-01 +4.21136295633E-03 +5.89144670778E-03 +4.26542483918E-03 +6.13520481677E-03 +2.42295097775E-01 -6.10795826476E-01
4.18000000000E+09 +8.70579724198E-02 -4.41980153637E-01 +5.43538841128E-03 +4.83463886201E-03 +5.47051665787E-03 +5.11492883476E-03 +2.20575176041E-01 -6.10501367036E-01
4.18500000000E+09 +7.03716602826E-02 -4.34794739208E-01 +5.68400372241E-03 +4.17150890676E-03 +5.84110894062E-03 +4.39887896761E-03 +1.98305107345E-01 -6.09557919147E-01
4.19000000000E+09 +5.32146816272E-02 -4.26359229001E-01 +6.26802720521E-03 +3.78436552475E-03 +6.43963899038E-03 +3.97810986773E-03 +1.77465509943E-01 -6.07651217090E-01
4.19500000000E+09 +3.50052888276E-02 -4.17404523309E-01 +6.84922143542E-03 +2.99686688374E-03 +7.02484393914E-03 +3.20582034114E-03 +1.56413341007E-01 -6.05773351836E-01
4.20000000000E+09 +1.73284676500E-02 -4.08373804660E-01 +7.13207768405E-03 +2.10529207109E-03 +7.28317257331E-03 +2.31976020203E-03 +1.34372712495E-01 -6.03827913652E-01
4.20500000000E+09 +1.46616353916E-04 -4.00738222833E-01 +7.43936964238E-03 +1.30372048774E-03 +7.64428055318E-03 +1.43704582847E-03 +1.11437101072E-01 -6.00486672218E-01
4.21000000000E+09 -1.65129660793E-02 -3.93484218447E-01 +7.48076297360E-03 +2.71340771847E-05 +7.73944106763E-03 +9.18023492509E-05 +8.78621687468E-02 -5.95367684438E-01
4.21500000000E+09 -3.27776591922E-02 -3.86704516574E-01 +6.89505830657E-03 -1.36799841311E-04 +7.11330141756E-03 -6.85883084767E-05 +6.58492714587E-02 -5.90285991693E-01
4.22000000000E+09 -4.84505299019E-02 -3.78419781988E-01 +7.36613552257E-03 -1.48760468056E-04 +7.56517635395E-03 -1.29313915520E-04 +4.33273777552E-02 -5.84478781503E-01
4.22500000000E+09 -6.23295961867E-02 -3.68209901401E-01 +8.35406484163E-03 -1.50440569558E-03 +8.60480644743E-03 -1.45528879381E-03 +2.08295148850E-02 -5.78207781744E-01
4.23000000000E+09 -7.47593594920E-02 -3.56756944117E-01 +7.90486982125E-03 -3.46212453362E-03 +8.18322579256E-03 -3.44999185738E-03 -1.43964856087E-03 -5.70387041347E-01
4.23500000000E+09 -8.69064912264E-02 -3.43965626783E-01 +6.78393373415E-03 -4.29599754064E-03 +6.98145515741E-03 -4.37273266750E-03 -2.31515607910E-02 -5.61069051706E-01
4.24000000000E+09 -9.96535394020E-02 -3.30027143834E-01 +6.09595625489E-03 -4.60753065216E-03 +6.25661620300E-03 -4.75984112623E-03 -4.43038191616E-02 -5.51244980665E-01
4.24500000000E+09 -1.12991451250E-01 -3.15033647411E-01 +5.55798163678E-03 -4.53012234441E-03 +5.68699145058E-03 -4.69009965239E-03 -6.57558162070E-02 -5.41559751185E-01
4.25000000000E+09 -1.27399125407E-01 -2.99692724342E-01 +5.80421310133E-03 -5.11888374115E-03 +5.97769219322E-03 -5.17748333280E-03 -8.78077025171E-02 -5.29882808885E-01
4.25500000000E+09 -1.42424559624E-01 -2.85353720567E-01 +5.33366216068E-03 -6.35831143527E-03 +5.45496498804E-03 -6.52884215442E-03 -1.09530939700E-01 -5.17619587938E-01
4.26000000000E+09 -1.58680185507E-01 -2.71833839405E-01 +4.10605859474E-03 -7.10643737361E-03 +4.22963951229E-03 -7.24793990529E-03 -1.30166689922E-01 -5.03358749258E-01
4.26500000000E+09 -1.75786325930E-01 -2.59358247267E-01 +3.39596294500E-03 -6.75478715588E-03 +3.40389817677E-03 -6.88725240850E-03 -1.49842655096E-01 -4.88726587644E-01
4.27000000000E+09 -1.91773371083E-01 -2.46530701522E-01 +3.14547210545E-03 -7.22182303687E-03 +3.13572133872E-03 -7.38910689686E-03 -1.69078622937E-01 -4.73875129423E-01
4.27500000000E+09 -2.06782298259E-01 -2.33526649539E-01 +2.50142515181E-03 -7.75407024603E-03 +2.56498055107E-03 -7.82212274748E-03 -1.89356036994E-01 -4.57805260069E-01
4.28000000000E+09 -2.18597637165E-01 -2.19371204923E-01 +1.83324331428E-03 -8.28046080989E-03 +1.79685422021E-03 -8.36723653260E-03 -2.08755840008E-01 -4.41420289546E-01
4.28500000000E+09 -2.27113452058E-01 -2.05360298865E-01 +8.49652920807E-04 -8.93012053302E-03 +8.22679212181E-04 -9.13681047869E-03 -2.28640150019E-01 -4.24143939671E-01
4.29000000000E+09 -2.34345404967E-01 -1.91517774476E-01 -8.93832029683E-04 -9.02462844222E-03 -9.16351220040E-04 -9.17972786710E-03 -2.45739348417E-01 -4.04894484453E-01
4.29500000000E+09 -2.42122937573E-01 -1.76776283663E-01 -1.87433565717E-03 -8.06878541387E-03 -1.92073066971E-03 -8.11675230343E-03 -2.60751065092E-01 -3.88253239888E-01
4.30000000000E+09 -2.50390024240E-01 -1.59403653574E-01 -2.35236098091E-03 -7.79945726820E-03 -2.40237359647E-03 -7.90932957886E-03 -2.77650923901E-01 -3.70402830033E-01
4.30500000000E+09 -2.58405010945E-01 -1.40483112935E-01 -2.87827659496E-03 -7.47008599173E-03 -2.92890963968E-03 -7.65196875299E-03 -2.93760682352E-01 -3.49854104530E-01
4.31000000000E+09 -2.66453276345E-01 -1.20164593672E-01 -3.22902612354E-03 -7.44743769894E-03 -3.30569054057E-03 -7.55153264273E-03 -3.08938373774E-01 -3.29037772118E-01
4.31500000000E+09 -2.74042022501E-01 -1.00493817850E-01 -4.03710878039E-03 -7.52944738442E-03 -4.14855306862E-03 -7.71851045239E-03 -3.23051629478E-01 -3.06889719745E-01
4.32000000000E+09 -2.81145213419E-01 -8.14737705445E-02 -4.99511162194E-03 -7.31804399884E-03 -5.11616458147E-03 -7.40495395102E-03 -3.36023067666E-01 -2.85203176710E-01
4.32500000000E+09 -2.87303499356E-01 -6.56507728916E-02 -6.30100763145E-03 -6.72932512188E-03 -6.45230994931E-03 -6.82895936377E-03 -3.48367396397E-01 -2.63035434784E-01
4.33000000000E+09 -2.94759527265E-01 -5.02211121731E-02 -6.57359363989E-03 -6.26464943612E-03 -6.80961219557E-03 -6.31221281381E-03 -3.60168311806E-01 -2.39577904145E-01
4.33500000000E+09 -3.00389814694E-01 -3.39039742530E-02 -7.86373545943E-03 -5.76672785629E-03 -8.07752930151E-03 -5.68676963283E-03 -3.69934274599E-01 -2.14347903393E-01
4.34000000000E+09 -3.02853035499E-01 -1.73210174302E-02 -8.90629696381E-03 -4.38425652349E-03 -8.98044266805E-03 -4.30889152599E-03 -3.77553392311E-01 -1.90103987445E-01
4.34500000000E+09 -3.02985601020E-01 -1.12030520547E-03 -8.71848511002E-03 -2.79025713805E-03 -8.78401696292E-03 -2.79762755933E-03 -3.86508910749E-01 -1.67725042642E-01
4.35000000000E+09 -3.02262664752E-01 +1.58132493618E-02 -8.66718339055E-03 -2.31470523763E-03 -8.84861979168E-03 -2.31194292534E-03 -3.96475583482E-01 -1.42902714378E-01
4.35500000000E+09 -3.00523160108E-01 +3.39535523677E-02 -9.05103741340E-03 -1.57234739088E-03 -9.15499658676E-03 -1.50329852473E-03 -4.03762070875E-01 -1.16624654270E-01
4.36000000000E+09 -2.99750179673E-01 +5.29973433013E-02 -8.67411845913E-03 -9.85125976088E-04 -8.80056722501E-03 -9.08388478113E-04 -4.08644877084E-01 -9.19802563594E-02
4.36500000000E+09 -2.98815612032E-01 +7.33377518085E-02 -9.86585538787E-03 -9.72853744489E-04 -1.00391024624E-02 -8.11266679826E-04 -4.12000809914E-01 -6.82380122149E-02
4.37000000000E+09 -2.99003813495E-01 +9.36598837109E-02 -1.07492076279E-02 +9.56904647189E-04 -1.08173544261E-02 +1.09292064847E-03 -4.15213880193E-01 -4.46918754118E-02
4.37500000000E+09 -2.99422613801E-01 +1.13518451534E-01 -1.03914064472E-02 +2.99592599209E-03 -1.04414396287E-02 +3.11843438399E-03 -4.17313394401E-01 -2.05241113694E-02
4.38000000000E+09 -3.00743442252E-01 +1.31837877038E-01 -9.84032601945E-03 +3.94358159456E-03 -9.92466809228E-03 +4.13785206276E-03 -4.19253527159E-01 +5.36840448768E-03
4.38500000000E+09 -3.01513588480E-01 +1.48815266885E-01 -9.11729756202E-03 +5.33243761773E-03 -9.14920006196E-03 +5.56131219067E-03 -4.18535197114E-01 +3.07604889990E-02
4.39000000000E+09 -3.01216764575E-01 +1.64468035748E-01 -7.91186363257E-03 +6.36504728291E-03 -7.86509080251E-03 +6.60766840066E-03 -4.18264040540E-01 +5.48535366398E-02
4.39500000000E+09 -2.99259551435E-01 +1.78287185274E-01 -7.36329844115E-03 +6.49636077481E-03 -7.32574588943E-03 +6.72995720336E-03 -4.17556068923E-01 +7.83516081336E-02
4.40000000000E+09 -2.95688269981E-01 +1.92011957642E-01 -6.53381012676E-03 +7.59025694163E-03 -6.42495989678E-03 +7.75042138252E-03 -4.16506273775E-01 +1.02119812171E-01
4.40500000000E+09 -2.90691343595E-01 +2.05068709217E-01 -5.85036639977E-03 +8.11961362478E-03 -5.75425610220E-03 +8.23757377081E-03 -4.13171935811E-01 +1.26093935717E-01
4.41000000000E+09 -2.84670698095E-01 +2.19865078758E-01 -4.93581354356E-03 +8.20703696646E-03 -4.88401011881E-03 +8.33152484862E-03 -4.08509419797E-01 +1.50020766480E-01
4.41500000000E+09 -2.77331308558E-01 +2.35963963335E-01 -4.64021085869E-03 +9.48172423790E-03 -4.50001849859E-03 +9.61446239549E-03 -4.02953224321E-01 +1.72937792762E-01
4.42000000000E+09 -2.69964401169E-01 +2.53085334793E-01 -3.57396196801E-03 +1.00352206465E-02 -3.35987692079E-03 +1.01393877829E-02 -3.96350360942E-01 +1.95890132357E-01
4.42500000000E+09 -2.63073535722E-01 +2.70734519152E-01 -2.14409871999E-03 +1.11311295177E-02 -1.91614089557E-03 +1.11472310777E-02 -3.91300719517E-01 +2.17662680854E-01
4.43000000000E+09 -2.56917023807E-01 +2.88311001637E-01 +3.14571909045E-04 +1.11532982407E-02 +4.84207595712E-04 +1.10716932769E-02 -3.84257784642E-01 +2.41194866730E-01
4.43500000000E+09 -2.51484158798E-01 +3.04932562026E-01 +1.53040122858E-03 +1.00393691218E-02 +1.61127157760E-03 +9.94701353167E-03 -3.75169971981E-01 +2.62876688143E-01
4.44000000000E+09 -2.47106514852E-01 +3.19327540926E-01 +2.27800178072E-03 +9.08048298998E-03 +2.38042780925E-03 +8.98626225418E-03 -3.66397237479E-01 +2.82222998012E-01
4.44500000000E+09 -2.42972027900E-01 +3.31908068248E-01 +2.50882097728E-03 +9.00300674554E-03 +2.59085906057E-03 +8.99899966443E-03 -3.58327075919E-01 +3.01858009201E-01
4.45000000000E+09 -2.39139999708E-01 +3.43030184271E-01 +3.01550013648E-03 +8.74859774017E-03 +3.23009389633E-03 +8.72809999984E-03 -3.49047360370E-01 +3.21854588941E-01
4.45500000000E+09 -2.33009158746E-01 +3.53234706476E-01 +3.94175182325E-03 +9.30295211652E-03 +4.15129511610E-03 +9.20442304552E-03 -3.38556194640E-01 +3.41169041031E-01
4.46000000000E+09 -2.25661375141E-01 +3.62337324677E-01 +5.59867875307E-03 +8.78095853326E-03 +5.79465410548E-03 +8.64282507639E-03 -3.25675386213E-01 +3.60215209963E-01
4.46500000000E+09 -2.15736872669E-01 +3.72451305714E-01 +6.55922859548E-03 +7.63748207586E-03 +6.74113367707E-03 +7.43444874823E-03 -3.13797280192E-01 +3.75941631343E-01
4.47000000000E+09 -2.04381866912E-01 +3.82921315796E-01 +7.32206225414E-03 +6.89283444606E-03 +7.44904012640E-03 +6.70802512696E-03 -3.02490202368E-01 +3.92577861657E-01
4.47500000000E+09 -1.90993924258E-01 +3.94337614950E-01 +7.71451779665E-03 +5.96616700864E-03 +7.77237534741E-03 +5.77600618488E-03 -2.91206428666E-01 +4.10108573129E-01
4.48000000000E+09 -1.78337516601E-01 +4.05550528607E-01 +8.49762101098E-03 +5.05485454403E-03 +8.56745917985E-03 +4.80885199743E-03 -2.78532138652E-01 +4.26748014271E-01
4.48500000000E+09 -1.67744187540E-01 +4.17876482541E-01 +9.12833396131E-03 +4.32298596176E-03 +9.04942398313E-03 +4.00808082387E-03 -2.65200533341E-01 +4.41946051762E-01
4.49000000000E+09 -1.58289769992E-01 +4.31159137289E-01 +9.30897859213E-03 +2.41164990896E-03 +9.15658340496E-03 +2.21591989961E-03 -2.52596556342E-01 +4.56476087045E-01
4.49500000000E+09 -1.50258445671E-01 +4.44061162855E-01 +8.69407819332E-03 +1.81294215267E-03 +8.53004378737E-03 +1.68471428036E-03 -2.39649742708E-01 +4.71124411150E-01
4.50000000000E+09 -1.42991694930E-01 +4.55264463647E-01 +8.88183779963E-03 +1.57687093133E-03 +8.71957914208E-03 +1.44082553877E-03 -2.25489512662E-01 +4.85172414013E-01
4.50500000000E+09 -1.36599664671E-01 +4.64764506761E-01 +9.35007897438E-03 +8.70634858294E-04 +9.22681552918E-03 +7.23189954839E-04 -2.11484817706E-01 +4.98975422063E-01
4.51000000000E+09 -1.29356555374E-01 +4.71515190122E-01 +1.00082467264E-02 -2.90262519101E-04 +9.84687616483E-03 -4.26002892686E-04 -1.95648791618E-01 +5.10989658369E-01
4.51500000000E+09 -1.22062225296E-01 +4.76655049327E-01 +9.72882741678E-03 -1.79829128516E-03 +9.60758898669E-03 -1.92855968205E-03 -1.81999580929E-01 +5.21613904350E-01
4.52000000000E+09 -1.13016483101E-01 +4.81178480423E-01 +9.49400362507E-03 -3.37517455800E-03 +9.26429230264E-03 -3.46162149731E-03 -1.68666890711E-01 +5.32815985951E-01
4.52500000000E+09 -1.01968329037E-01 +4.85255475275E-01 +8.23811713967E-03 -4.05581317099E-03 +7.99207640208E-03 -4.18776316569E-03 -1.54968549938E-01 +5.43767613660E-01
4.53000000000E+09 -8.92214457699E-02 +4.89870356760E-01 +7.88672559599E-03 -4.45530691906E-03 +7.58489205952E-03 -4.52582661357E-03 -1.39818596325E-01 +5.53909017828E-01
4.53500000000E+09 -7.52424695971E-02 +4.95843983887E-01 +7.43054881196E-03 -5.36684064129E-03 +7.14523431467E-03 -5.36354768021E-03 -1.25083838576E-01 +5.63207589940E-01
4.54000000000E+09 -6.02452984969E-02 +5.02801986425E-01 +6.80633343962E-03 -6.00011374591E-03 +6.51856077683E-03 -5.97998314338E-03 -1.09034428840E-01 +5.72091318277E-01
4.54500000000E+09 -4.62578450950E-02 +5.10269934878E-01 +5.98969379317E-03 -6.65696955062E-03 +5.66110651883E-03 -6.56969937345E-03 -9.44090475573E-02 +5.80908683264E-01
4.55000000000E+09 -3.32754277467E-02 +5.18205995149E-01 +5.37088920364E-03 -7.28119921926E-03 +5.11543906731E-03 -7.13918090350E-03 -7.86056785253E-02 +5.89726390619E-01
4.55500000000E+09 -2.22390314677E-02 +5.25878984104E-01 +4.26670797487E-03 -7.38789031080E-03 +4.08230654928E-03 -7.33071201698E-03 -6.32109818982E-02 +5.98014867283E-01
4.56000000000E+09 -1.37153342923E-02 +5.33322018300E-01 +3.69364125982E-03 -7.72402936114E-03 +3.54483220698E-03 -7.64941027111E-03 -4.79773555282E-02 +6.04271164552E-01
4.56500000000E+09 -5.19520691298E-03 +5.40046530328E-01 +3.10842042919E-03 -8.17076186554E-03 +2.89226053017E-03 -7.99605893937E-03 -3.41191187984E-02 +6.10667249556E-01
4.57000000000E+09 +3.23926214422E-03 +5.45192093957E-01 +2.07698556377E-03 -8.57150101938E-03 +1.90222871790E-03 -8.38038435387E-03 -1.92844521594E-02 +6.17010855935E-01
