# Hz S RI R 50
! CMT, C1220, 16058040, 17.2.0/1
! Date: 15/08/2018 12:14:08
! Data: Format (Calibration Info)
! Freq                      S11: Re/Im (F2)                       S21: Re/Im (F2)                       S12: Re/Im (F2)                       S22: Re/Im (F2)            
4.00000000000E+09 +6.48103154645E-01 -3.57590447608E-01 -5.42536060292E-05 -4.86263835005E-04 -4.53764309820E-05 -5.22760582629E-04 +7.66702826948E-01 -3.20894924012E-01
4.00500000000E+09 +6.40072914676E-01 -3.63402544549E-01 -1.51215776298E-04 -2.61738687144E-04 -1.19377807963E-04 -2.66269210600E-04 +7.57455169823E-01 -3.31372466608E-01
4.01000000000E+09 +6.31328819420E-01 -3.68821760088E-01 +8.07311864797E-05 -3.55957332422E-04 +6.96147726226E-05 -2.76444618758E-04 +7.47859244576E-01 -3.41595478559E-01
4.01500000000E+09 +6.21880459206E-01 -3.75301768296E-01 -3.45109387192E-05 -5.84968734300E-04 -1.54575961508E-05 -5.82085195775E-04 +7.38394586106E-01 -3.51336215132E-01
4.02000000000E+09 +6.11044482093E-01 -3.83236665127E-01 -3.79165232197E-04 -5.67801515942E-04 -3.40003652796E-04 -6.04772809066E-04 +7.28185708211E-01 -3.61326420247E-01
4.02500000000E+09 +5.99245252034E-01 -3.91981565825E-01 -5.26624432119E-04 -2.86359167528E-04 -5.31879347326E-04 -3.25172245074E-04 +7.17532369919E-01 -3.70722733465E-01
4.03000000000E+09 +5.87885297564E-01 -4.01669945380E-01 -3.07041605308E-04 -9.02773296330E-05 -3.53966237979E-04 -1.03300975331E-04 +7.07082018000E-01 -3.80160503423E-01
4.03500000000E+09 +5.76689644355E-01 -4.12658116811E-01 -1.46797651763E-04 -1.71874261852E-04 -1.84524443459E-04 -1.78367317203E-04 +6.96070025201E-01 -3.90103042598E-01
4.04000000000E+09 +5.65398756843E-01 -4.23849721193E-01 -1.63208946376E-04 -1.92926243473E-04 -2.21570544249E-04 -1.94100528992E-04 +6.85031006890E-01 -4.00128429109E-01
4.04500000000E+09 +5.54395988895E-01 -4.33881167228E-01 -1.16320619449E-04 -2.87348298435E-04 -1.30125314388E-04 -3.02073922649E-04 +6.73101339708E-01 -4.10013546097E-01
4.05000000000E+09 +5.43266714790E-01 -4.42269019215E-01 -2.42881775279E-04 -4.85581950994E-04 -2.04270504353E-04 -5.36673141593E-04 +6.61189334748E-01 -4.18689218974E-01
4.05500000000E+09 +5.32173198465E-01 -4.48474975024E-01 -6.27080381971E-04 -5.01023367194E-04 -6.54745507114E-04 -5.25481604467E-04 +6.49158388047E-01 -4.27445741676E-01
4.06000000000E+09 +5.21158555954E-01 -4.53354895680E-01 -6.57381341877E-04 -2.02225385410E-04 -6.23134967877E-04 -2.00888464521E-04 +6.36498953561E-01 -4.35691990460E-01
4.06500000000E+09 +5.08934034328E-01 -4.57117912189E-01 -6.72720746627E-04 -1.40403707378E-04 -6.87418757685E-04 -9.90625005821E-05 +6.23133569143E-01 -4.43911617880E-01
4.07000000000E+09 +4.95879383796E-01 -4.60719917676E-01 -5.94792333240E-04 +1.09909879263E-04 -6.42522809723E-04 +5.72638549049E-05 +6.09597175416E-01 -4.52102223951E-01
4.07500000000E+09 +4.81059783770E-01 -4.65120719588E-01 -5.30960770707E-04 +7.17322721006E-05 -5.63839842560E-04 +5.04868210071E-05 +5.95669858519E-01 -4.60274587363E-01
4.08000000000E+09 +4.64563564193E-01 -4.69700893146E-01 -5.96469984673E-04 +1.17339731171E-04 -6.38614636335E-04 +1.24879728092E-04 +5.82041253337E-01 -4.68172551339E-01
4.08500000000E+09 +4.47851567473E-01 -4.74338586401E-01 -5.94232247421E-04 +2.23994845928E-04 -6.23595714592E-04 +2.30478506780E-04 +5.68068463957E-01 -4.76113687962E-01
4.09000000000E+09 +4.31619143518E-01 -4.80580668073E-01 -4.06474830279E-04 +1.67192798978E-04 -4.19765053248E-04 +1.70069161535E-04 +5.53618944094E-01 -4.82692818522E-01
4.09500000000E+09 +4.15061721262E-01 -4.87593660161E-01 -6.23410491003E-04 +2.45042801183E-04 -6.35974455788E-04 +1.71644992937E-04 +5.39439735225E-01 -4.89404207401E-01
4.10000000000E+09 +3.97574153313E-01 -4.94265623820E-01 -5.46247256706E-04 +4.40864829742E-04 -6.19451585398E-04 +3.94549576607E-04 +5.23253196150E-01 -4.95810622996E-01
4.10500000000E+09 +3.80508842127E-01 -4.98613044824E-01 -6.06120540179E-04 +6.38360845000E-04 -6.49478546780E-04 +5.60059149326E-04 +5.07248885240E-01 -5.01334624056E-01
4.11000000000E+09 +3.64035901822E-01 -5.00793786393E-01 -3.04116059137E-04 +8.32338742850E-04 -2.80577596320E-04 +8.79082470347E-04 +4.90917230142E-01 -5.07237141948E-01
4.11500000000E+09 +3.48971158489E-01 -5.01093365259E-01 +3.61268960999E-04 +6.87211480724E-04 +3.67519868236E-04 +6.94938467867E-04 +4.74561244681E-01 -5.12592833514E-01
4.12000000000E+09 +3.33939866642E-01 -5.01261112789E-01 +1.77840361637E-04 -1.21105907446E-04 +1.83195154780E-04 -1.19594294357E-04 +4.58571695749E-01 -5.18387152781E-01
4.12500000000E+09 +3.17990553836E-01 -5.01661968170E-01 -4.49560352322E-04 -6.51310741527E-05 -3.91940566652E-04 -8.07966708730E-05 +4.40920360479E-01 -5.23416744061E-01
4.13000000000E+09 +3.00254968966E-01 -5.02718561707E-01 -6.36643089350E-04 +3.94513471315E-04 -6.65761764922E-04 +3.82738637821E-04 +4.23891594961E-01 -5.26764245305E-01
4.13500000000E+09 +2.80096712928E-01 -5.04133242100E-01 -4.24375335745E-04 +5.99188163754E-04 -4.97417285694E-04 +5.87949512331E-04 +4.06451723583E-01 -5.30462879146E-01
4.14000000000E+09 +2.59629743248E-01 -5.05409970936E-01 -1.45848818575E-04 +8.80083814567E-04 -1.75794843811E-04 +9.38226405902E-04 +3.87822324781E-01 -5.33736950503E-01
4.14500000000E+09 +2.39591165823E-01 -5.07850699706E-01 +3.88457854820E-04 +6.29447705222E-04 +4.18705980280E-04 +6.47099296706E-04 +3.69405137882E-01 -5.36657898511E-01
4.15000000000E+09 +2.19708306344E-01 -5.11634281253E-01 +2.70182464304E-04 +5.77402021777E-05 +2.96211368034E-04 +4.12348119446E-05 +3.50865605864E-01 -5.39108969254E-01
4.15500000000E+09 +1.99574246312E-01 -5.15550232454E-01 -3.85536719279E-04 +2.03763281321E-04 -4.01099013204E-04 +1.98988419748E-04 +3.32308541456E-01 -5.40821337862E-01
4.16000000000E+09 +1.80619244045E-01 -5.17483496376E-01 -3.03932417065E-04 +5.44834369218E-04 -3.07124434076E-04 +5.74276009535E-04 +3.14154353728E-01 -5.41751831753E-01
4.16500000000E+09 +1.63325805927E-01 -5.17782907418E-01 -1.65536405635E-04 +6.57730361982E-04 -1.39901794672E-04 +6.23707945473E-04 +2.95218950045E-01 -5.41642009340E-01
4.17000000000E+09 +1.47349940613E-01 -5.15854567116E-01 +2.30808476157E-05 +9.13382687805E-04 +5.19159500959E-05 +9.25074558567E-04 +2.76245258244E-01 -5.40655645670E-01
4.17500000000E+09 +1.32831983343E-01 -5.12739777707E-01 +2.34783899809E-04 +5.90926745473E-04 +1.96283747639E-04 +6.54235401803E-04 +2.57142993621E-01 -5.39048702204E-01
4.18000000000E+09 +1.17890119497E-01 -5.08521253228E-01 +1.48676542879E-04 +6.82171638672E-04 +1.26898756794E-04 +7.21221429377E-04 +2.37812460725E-01 -5.37292348139E-01
4.18500000000E+09 +1.01501897090E-01 -5.03479838134E-01 +2.88142096524E-04 +8.75473394553E-04 +2.38503825854E-04 +9.00893145958E-04 +2.18729690116E-01 -5.35215901602E-01
4.19000000000E+09 +8.41729318335E-02 -4.97579855898E-01 +6.19398781889E-04 +6.78920420431E-04 +6.47556071754E-04 +6.79780899197E-04 +1.99328714268E-01 -5.32829641084E-01
4.19500000000E+09 +6.57273563423E-02 -4.91685285819E-01 +4.53159413746E-04 +5.95028768765E-04 +4.50593361802E-04 +6.51430170593E-04 +1.80133476866E-01 -5.29295965450E-01
4.20000000000E+09 +4.67656581413E-02 -4.85966695934E-01 +6.52873845282E-04 +7.44488059212E-04 +6.51260093026E-04 +7.13154196657E-04 +1.60620496380E-01 -5.25839700611E-01
4.20500000000E+09 +2.78985190191E-02 -4.81217446431E-01 +9.79322567299E-04 +4.48717322416E-04 +1.04752400465E-03 +4.95047077139E-04 +1.40425154396E-01 -5.20421400010E-01
4.21000000000E+09 +9.35448897127E-03 -4.76800417615E-01 +6.73166002710E-04 +1.57784594284E-04 +7.20993235772E-04 +1.61707556043E-04 +1.21183289053E-01 -5.14827849686E-01
4.21500000000E+09 -9.07590949852E-03 -4.71666481981E-01 +7.08498193525E-04 +4.13502766169E-04 +7.62694090201E-04 +4.47421623176E-04 +1.01481312070E-01 -5.08801499278E-01
4.22000000000E+09 -2.60404250472E-02 -4.64526628030E-01 +1.10029471140E-03 +2.81545109908E-04 +1.14979563468E-03 +2.63549835709E-04 +8.26661438591E-02 -5.01547700117E-01
4.22500000000E+09 -4.07776758815E-02 -4.56135154127E-01 +9.64222014795E-04 -3.78850059071E-04 +9.86842107648E-04 -3.60338868998E-04 +6.44776238400E-02 -4.94862171343E-01
4.23000000000E+09 -5.51502402115E-02 -4.46361566749E-01 +6.38817393747E-04 -3.28264623750E-04 +6.06978528479E-04 -3.36160743567E-04 +4.56239482230E-02 -4.87282516108E-01
4.23500000000E+09 -6.89437377239E-02 -4.34892352680E-01 +2.61474240508E-04 +1.11960334879E-05 +2.51266681158E-04 -3.21254637391E-05 +2.70537470416E-02 -4.78359703200E-01
4.24000000000E+09 -8.35112092596E-02 -4.22944514664E-01 +7.11936030213E-04 +2.13981950564E-04 +7.41650208958E-04 +2.22897244090E-04 +8.57671002380E-03 -4.68793576320E-01
4.24500000000E+09 -1.00587380486E-01 -4.10508254935E-01 +1.18925798745E-03 +1.43900892072E-04 +1.17107393944E-03 +1.23247292223E-04 -9.76724364824E-03 -4.58079300503E-01
4.25000000000E+09 -1.19508949049E-01 -3.96704629153E-01 +1.21144656272E-03 -5.98543208468E-04 +1.24899167503E-03 -6.02622692876E-04 -2.69450128682E-02 -4.46571487531E-01
4.25500000000E+09 -1.38861899928E-01 -3.82828932876E-01 +7.11253955833E-04 -8.46596389034E-04 +7.43222461889E-04 -8.48837540647E-04 -4.40908224896E-02 -4.35304413901E-01
4.26000000000E+09 -1.58198285851E-01 -3.70389672391E-01 +3.10054995912E-04 -6.72739035367E-04 +3.05312871580E-04 -6.62807693008E-04 -6.10889148577E-02 -4.22518549056E-01
4.26500000000E+09 -1.77826213074E-01 -3.58174712758E-01 +4.48641030764E-04 -4.01497817578E-04 +4.78895664743E-04 -4.27071790975E-04 -7.64055884618E-02 -4.09244406536E-01
4.27000000000E+09 -1.95361057378E-01 -3.46222459297E-01 +5.33924652889E-04 -5.61912929312E-04 +5.41116576087E-04 -5.55378400221E-04 -9.25508069569E-02 -3.96364835506E-01
4.27500000000E+09 -2.10732714532E-01 -3.34839152294E-01 +4.02743754981E-04 -3.61792199784E-04 +4.74343611916E-04 -3.70423858548E-04 -1.08773707456E-01 -3.82050006468E-01
4.28000000000E+09 -2.24265028436E-01 -3.22918752018E-01 +5.81827695375E-04 -4.21381893056E-04 +6.22722470337E-04 -4.03891358109E-04 -1.23900948997E-01 -3.67739740795E-01
4.28500000000E+09 -2.36289713005E-01 -3.09359301216E-01 +6.60345809433E-04 -4.58668545931E-04 +6.65877507357E-04 -4.88689874859E-04 -1.39345791879E-01 -3.53299861501E-01
4.29000000000E+09 -2.46576026039E-01 -2.94157016813E-01 +7.92465497642E-04 -7.21512066074E-04 +8.08842299824E-04 -7.36713255793E-04 -1.54457407550E-01 -3.38079667141E-01
4.29500000000E+09 -2.56880114885E-01 -2.76953669141E-01 +6.76367197598E-04 -1.18366744429E-03 +6.82917084605E-04 -1.15300994756E-03 -1.68062128135E-01 -3.21818905870E-01
4.30000000000E+09 -2.66840171618E-01 -2.57658744972E-01 +3.50050491955E-04 -1.09678152145E-03 +3.75686865501E-04 -1.11578319302E-03 -1.80520085126E-01 -3.05458517766E-01
4.30500000000E+09 -2.77243158542E-01 -2.38234009646E-01 +2.26703642796E-04 -1.26598642997E-03 +2.51495616210E-04 -1.31597691080E-03 -1.92599176201E-01 -2.88767575840E-01
4.31000000000E+09 -2.89586762244E-01 -2.18669194227E-01 -4.50807116790E-05 -1.37316965054E-03 -3.57271320930E-05 -1.36314329860E-03 -2.03934762134E-01 -2.71404260789E-01
4.31500000000E+09 -3.03103943417E-01 -1.99312539026E-01 -2.60117542132E-04 -1.08967724394E-03 -2.63184788505E-04 -1.12602582803E-03 -2.14683395535E-01 -2.53952094483E-01
4.32000000000E+09 -3.16667321382E-01 -1.80055051283E-01 -2.36238651938E-04 -1.15725224808E-03 -2.43394163660E-04 -1.14832574393E-03 -2.25669044648E-01 -2.35900103107E-01
4.32500000000E+09 -3.28568716810E-01 -1.61920063236E-01 -1.84019463375E-04 -1.19523830221E-03 -2.36314222439E-04 -1.23695219393E-03 -2.34822612103E-01 -2.17256193816E-01
4.33000000000E+09 -3.38002479880E-01 -1.45156985848E-01 -5.81406074080E-04 -1.38368081598E-03 -6.20627329072E-04 -1.35934997909E-03 -2.44205989679E-01 -1.99149084746E-01
4.33500000000E+09 -3.45294786701E-01 -1.29391551981E-01 -7.34221817621E-04 -1.11621869000E-03 -8.06803178215E-04 -1.12666043460E-03 -2.53149846416E-01 -1.79358919862E-01
4.34000000000E+09 -3.50198474607E-01 -1.13835792113E-01 -1.03979135561E-03 -1.22724412082E-03 -1.02122739723E-03 -1.19006535992E-03 -2.60596664991E-01 -1.59075161748E-01
4.34500000000E+09 -3.53093550291E-01 -9.77564990705E-02 -1.25715172156E-03 -7.75050246565E-04 -1.32248979008E-03 -7.47029416543E-04 -2.67551358331E-01 -1.39062355398E-01
4.35000000000E+09 -3.55517435550E-01 -8.00966572541E-02 -1.19105956086E-03 -4.68354561738E-04 -1.22863135006E-03 -5.20076202144E-04 -2.73870535210E-01 -1.19282749843E-01
4.35500000000E+09 -3.57781464384E-01 -5.92924771057E-02 -1.02714809841E-03 -3.81708558895E-04 -1.06463290531E-03 -3.88828320730E-04 -2.79793058345E-01 -9.94587697776E-02
4.36000000000E+09 -3.59213012828E-01 -3.65217280841E-02 -1.28472347396E-03 -6.90963862115E-04 -1.26971905424E-03 -6.86834690769E-04 -2.84498067959E-01 -8.02865412806E-02
4.36500000000E+09 -3.60930764061E-01 -1.34861556377E-02 -1.61214763602E-03 -3.80974871001E-05 -1.64383103999E-03 -2.72693336337E-05 -2.88601505386E-01 -6.10187464487E-02
4.37000000000E+09 -3.64377462242E-01 +9.34667746378E-03 -1.34316647490E-03 +1.94606635304E-04 -1.30636432715E-03 +2.17455356102E-04 -2.91749627168E-01 -4.22153115110E-02
4.37500000000E+09 -3.68729389879E-01 +3.06769935493E-02 -1.10848107262E-03 +4.02711437972E-04 -1.10335396016E-03 +3.89337566737E-04 -2.95179956817E-01 -2.21686428941E-02
4.38000000000E+09 -3.74101415154E-01 +5.08149670309E-02 -1.01059691451E-03 +3.61840640344E-04 -1.00249747670E-03 +3.76495140183E-04 -2.96806689918E-01 -1.45009807136E-03
4.38500000000E+09 -3.78699664890E-01 +6.90985884592E-02 -8.63051579615E-04 +4.10460046086E-04 -8.62862144070E-04 +3.94210236022E-04 -2.97916739149E-01 +1.86029736820E-02
4.39000000000E+09 -3.82084420499E-01 +8.54691766908E-02 -7.77073560688E-04 +3.03904049098E-04 -7.36909357003E-04 +2.68699055622E-04 -2.98829604956E-01 +3.89668484148E-02
4.39500000000E+09 -3.82966888635E-01 +1.00414252280E-01 -7.84014932083E-04 +3.69789587329E-04 -7.80154330107E-04 +3.55332985014E-04 -2.99619037060E-01 +5.83379412968E-02
4.40000000000E+09 -3.81186212253E-01 +1.15036421088E-01 -1.03107472201E-03 +3.16153373178E-04 -9.45840979140E-04 +2.98035359392E-04 -2.99231852153E-01 +7.83106480838E-02
4.40500000000E+09 -3.77866957690E-01 +1.29308594268E-01 -1.12913208165E-03 +5.15412594817E-04 -1.21317382944E-03 +5.35083743932E-04 -2.97469013559E-01 +9.75893083555E-02
4.41000000000E+09 -3.73265243838E-01 +1.46514399331E-01 -1.02289164384E-03 +9.69471933111E-04 -9.51192798668E-04 +9.87319407360E-04 -2.95526041717E-01 +1.16751557055E-01
4.41500000000E+09 -3.66892112595E-01 +1.65679919559E-01 -6.07222377636E-04 +9.68186782512E-04 -5.82314456788E-04 +9.44060301238E-04 -2.92085824128E-01 +1.36195477630E-01
4.42000000000E+09 -3.60188296708E-01 +1.86521423638E-01 -5.28934615026E-04 +9.90604140720E-04 -5.07353169785E-04 +9.84832409741E-04 -2.88278215617E-01 +1.55472912478E-01
4.42500000000E+09 -3.53842095277E-01 +2.07937994339E-01 -3.13312012695E-04 +6.28676546661E-04 -2.64613152282E-04 +6.22592628083E-04 -2.83948630637E-01 +1.74518840226E-01
4.43000000000E+09 -3.49260100308E-01 +2.28880129861E-01 -8.61188053394E-04 +6.36962501833E-04 -8.51498433216E-04 +6.72459082588E-04 -2.79681066304E-01 +1.92586715537E-01
4.43500000000E+09 -3.46198864293E-01 +2.49388180923E-01 -8.52098250402E-04 +1.17943563416E-03 -8.30632028111E-04 +1.19290833898E-03 -2.75768076668E-01 +2.10779972574E-01
4.44000000000E+09 -3.43680702727E-01 +2.68673752257E-01 -5.23061324596E-04 +1.41675173533E-03 -4.51173456952E-04 +1.37541348791E-03 -2.70683899254E-01 +2.29674218787E-01
4.44500000000E+09 -3.40276675778E-01 +2.85364137736E-01 -1.66310098288E-04 +1.62681957294E-03 -1.54607333431E-04 +1.60614286553E-03 -2.63546667541E-01 +2.46983175747E-01
4.45000000000E+09 -3.36234621885E-01 +2.98915084233E-01 +2.65066017038E-04 +1.42927978767E-03 +3.19408931470E-04 +1.39719759598E-03 -2.56892719611E-01 +2.63121774019E-01
4.45500000000E+09 -3.31282991614E-01 +3.11013651070E-01 +3.18909007682E-04 +1.14376828090E-03 +3.38430952360E-04 +1.15943762551E-03 -2.49146727481E-01 +2.79869365794E-01
4.46000000000E+09 -3.24041716845E-01 +3.22686359604E-01 +2.83187143084E-04 +1.00299461662E-03 +3.34843660449E-04 +9.55160617169E-04 -2.40943744880E-01 +2.95525516780E-01
4.46500000000E+09 -3.15308550487E-01 +3.34578046576E-01 +3.02890975832E-04 +1.18542192869E-03 +3.14552682728E-04 +1.18207892079E-03 -2.32836257983E-01 +3.11018710420E-01
4.47000000000E+09 -3.04386944658E-01 +3.48976860890E-01 +5.19101348997E-04 +8.56062456273E-04 +5.04308677498E-04 +8.14119819289E-04 -2.24167252380E-01 +3.26453074064E-01
4.47500000000E+09 -2.91431261700E-01 +3.64654299021E-01 +2.30722687827E-04 +1.09816922040E-03 +1.89355999215E-04 +1.09789018184E-03 -2.15621195337E-01 +3.41230912544E-01
4.48000000000E+09 -2.78528671722E-01 +3.80965934488E-01 +5.56270184701E-04 +1.40484651610E-03 +5.94138392161E-04 +1.37245726309E-03 -2.06785758078E-01 +3.56102201825E-01
4.48500000000E+09 -2.66970737564E-01 +3.97997135400E-01 +8.94425155573E-04 +1.28632458722E-03 +9.46246786997E-04 +1.25234187368E-03 -1.97105846019E-01 +3.70259192729E-01
4.49000000000E+09 -2.57149740507E-01 +4.14879249265E-01 +1.36700829249E-03 +1.06497409751E-03 +1.34835062755E-03 +1.07340873391E-03 -1.87164523579E-01 +3.83820219357E-01
4.49500000000E+09 -2.49640437697E-01 +4.30784009243E-01 +1.51343152212E-03 +4.29243197706E-04 +1.51087016314E-03 +4.15713657655E-04 -1.76997500479E-01 +3.97034462564E-01
4.50000000000E+09 -2.43712358896E-01 +4.45601563180E-01 +1.13585753886E-03 +3.95229628239E-04 +1.08942625373E-03 +3.57474976116E-04 -1.66378662307E-01 +4.09862375067E-01
4.50500000000E+09 -2.38061325202E-01 +4.58016199168E-01 +1.26812183140E-03 +1.56502877251E-04 +1.19698308519E-03 +1.43953986269E-04 -1.55752429138E-01 +4.22350452678E-01
4.51000000000E+09 -2.32439227409E-01 +4.68067456952E-01 +9.71264184264E-04 +2.54593271001E-04 +9.54765717261E-04 +2.32858793548E-04 -1.44672687565E-01 +4.34146494353E-01
4.51500000000E+09 -2.25273749946E-01 +4.76290816707E-01 +1.11105082045E-03 +3.64793490580E-04 +1.03085267299E-03 +4.12603179809E-04 -1.34199677501E-01 +4.45571137426E-01
4.52000000000E+09 -2.16141194312E-01 +4.83964406159E-01 +1.41513133531E-03 +3.00615957937E-04 +1.43724508301E-03 +2.93113708254E-04 -1.23336689285E-01 +4.56893345519E-01
4.52500000000E+09 -2.04249749244E-01 +4.91181651287E-01 +1.59193984325E-03 -3.27398444706E-05 +1.55030086496E-03 -5.47684402166E-05 -1.11663163888E-01 +4.67577655071E-01
4.53000000000E+09 -1.90487635487E-01 +4.98778096743E-01 +1.67834197842E-03 -5.34232413062E-04 +1.62700900916E-03 -5.75523185675E-04 -9.97195889194E-02 +4.77001641090E-01
4.53500000000E+09 -1.75639622165E-01 +5.07772757948E-01 +1.20937044830E-03 -6.60802000449E-04 +1.15010019467E-03 -6.77047505664E-04 -8.76325277431E-02 +4.86761421379E-01
4.54000000000E+09 -1.60154607397E-01 +5.17829865591E-01 +1.22786910982E-03 -8.98075597954E-04 +1.15408883747E-03 -8.65172627551E-04 -7.47804563176E-02 +4.95826239765E-01
4.54500000000E+09 -1.45189932014E-01 +5.28569298108E-01 +7.21832352921E-04 -9.55462242470E-04 +7.10596188400E-04 -8.98161485799E-04 -6.27610072778E-02 +5.04174347314E-01
4.55000000000E+09 -1.32212288084E-01 +5.39129557449E-01 +6.45444395005E-04 -8.21975714596E-04 +6.00876492021E-04 -8.00574458867E-04 -5.03135299368E-02 +5.13075339483E-01
4.55500000000E+09 -1.21246139661E-01 +5.49553457098E-01 +6.76472797335E-04 -6.80927009464E-04 +6.34952245313E-04 -6.46668192333E-04 -3.84826419256E-02 +5.21455050737E-01
4.56000000000E+09 -1.11526099330E-01 +5.58288306235E-01 +6.75678800925E-04 -7.00597166266E-04 +5.82590654622E-04 -6.30046133051E-04 -2.59770690856E-02 +5.29324106374E-01
4.56500000000E+09 -1.03242704182E-01 +5.65328828407E-01 +1.02113736291E-03 -8.85097307370E-04 +1.02604007898E-03 -8.36518518998E-04 -1.39892200580E-02 +5.36277080638E-01
4.57000000000E+09 -9.51818462412E-02 +5.70980363594E-01 +6.61985358290E-04 -1.41994489869E-03 +6.31239014178E-04 -1.42252126689E-03 -1.77848181297E-03 +5.43365400559E-01
