# Hz S RI R 50
! CMT, C1220, 16058040, 17.2.0/1
! Date: 15/08/2018 11:42:08
! Data: Format (Calibration Info)
! Freq                      S11: Re/Im (F2)                       S21: Re/Im (F2)                       S12: Re/Im (F2)                       S22: Re/Im (F2)            
4.00000000000E+09 +6.36585258463E-01 -3.36635327120E-01 -1.33375103318E-03 -2.99307484658E-03 -1.26688129362E-03 -3.09141297168E-03 +7.71335229830E-01 -3.52277439171E-01
4.00500000000E+09 +6.27677810139E-01 -3.42794707480E-01 -1.51885433805E-03 -2.83866925501E-03 -1.47137339342E-03 -3.00664299324E-03 +7.62680783218E-01 -3.63766251292E-01
4.01000000000E+09 +6.17890234419E-01 -3.48136059841E-01 -1.80565385560E-03 -2.94673754348E-03 -1.69014019621E-03 -3.03696331445E-03 +7.52998852192E-01 -3.74997526380E-01
4.01500000000E+09 +6.07172452803E-01 -3.53570593044E-01 -2.12043814335E-03 -2.71911684569E-03 -1.99556553327E-03 -2.79006862322E-03 +7.43369779317E-01 -3.85134038183E-01
4.02000000000E+09 +5.95684328352E-01 -3.60211697246E-01 -2.32125680179E-03 -2.88541545678E-03 -2.23802511902E-03 -3.06295576287E-03 +7.33804540131E-01 -3.95759052162E-01
4.02500000000E+09 +5.83148533861E-01 -3.67241468208E-01 -3.15087177828E-03 -2.76700757367E-03 -3.13405580439E-03 -2.98394769144E-03 +7.23276101397E-01 -4.06501861885E-01
4.03000000000E+09 +5.70820914690E-01 -3.75381057073E-01 -3.63109358061E-03 -2.10958756802E-03 -3.59250929127E-03 -2.31814302142E-03 +7.12445072698E-01 -4.16840935731E-01
4.03500000000E+09 +5.58340726926E-01 -3.84802339666E-01 -3.59402530370E-03 -1.55712168127E-03 -3.70482781013E-03 -1.81150431363E-03 +7.01137734268E-01 -4.27750067968E-01
4.04000000000E+09 +5.45565227818E-01 -3.94284811997E-01 -3.78752710851E-03 -1.17072442728E-03 -3.86982058686E-03 -1.42384083474E-03 +6.89285363841E-01 -4.38573585496E-01
4.04500000000E+09 +5.33146138328E-01 -4.03938350771E-01 -3.67696484325E-03 -8.30630948793E-04 -3.83014975029E-03 -1.01960682422E-03 +6.77656542434E-01 -4.48662260914E-01
4.05000000000E+09 +5.20112537725E-01 -4.12315292398E-01 -3.82628635955E-03 -7.60133165089E-04 -4.00889547479E-03 -9.66921414904E-04 +6.66061961296E-01 -4.59211486708E-01
4.05500000000E+09 +5.06489358710E-01 -4.18902553032E-01 -4.27461288869E-03 -2.74745159552E-04 -4.47452002633E-03 -4.41188998580E-04 +6.53417701904E-01 -4.69051762284E-01
4.06000000000E+09 +4.93036165965E-01 -4.23486157061E-01 -4.30112805926E-03 +3.72715486713E-04 -4.51268369878E-03 +2.52719766855E-04 +6.40675852577E-01 -4.78359992106E-01
4.06500000000E+09 +4.79311114735E-01 -4.27000493214E-01 -3.99242776407E-03 +9.96166246337E-04 -4.17520301585E-03 +9.27379865881E-04 +6.26772845777E-01 -4.87723452610E-01
4.07000000000E+09 +4.64896267895E-01 -4.30182139213E-01 -3.81459917248E-03 +1.00606010222E-03 -3.95124445185E-03 +1.01491665650E-03 +6.12665389580E-01 -4.96925622889E-01
4.07500000000E+09 +4.49394548757E-01 -4.33538632075E-01 -3.85196921829E-03 +1.29587352196E-03 -3.97410744628E-03 +1.28060407686E-03 +5.98714982954E-01 -5.06571173913E-01
4.08000000000E+09 +4.32830659423E-01 -4.37029104223E-01 -3.86504864134E-03 +1.60607733567E-03 -3.99336452729E-03 +1.51788335953E-03 +5.83774366003E-01 -5.16141088555E-01
4.08500000000E+09 +4.15452905997E-01 -4.41250103876E-01 -3.84762783939E-03 +2.06753353042E-03 -4.00991369350E-03 +2.03708416317E-03 +5.69030084310E-01 -5.24371048859E-01
4.09000000000E+09 +3.97476880175E-01 -4.45303788153E-01 -3.47159231332E-03 +2.43330544064E-03 -3.65955241156E-03 +2.48904354359E-03 +5.54305256683E-01 -5.32249819556E-01
4.09500000000E+09 +3.79977776574E-01 -4.49106653839E-01 -3.49301244619E-03 +2.64029733724E-03 -3.66455750137E-03 +2.72527346530E-03 +5.39106450038E-01 -5.39570393444E-01
4.10000000000E+09 +3.62968313375E-01 -4.53322873968E-01 -3.33632650222E-03 +2.98259032456E-03 -3.38565344981E-03 +3.03159265224E-03 +5.23515198939E-01 -5.46740279422E-01
4.10500000000E+09 +3.46153150755E-01 -4.56649784284E-01 -3.32167026300E-03 +3.42977691494E-03 -3.43290586921E-03 +3.39823917406E-03 +5.06468037295E-01 -5.54451776154E-01
4.11000000000E+09 +3.29222317371E-01 -4.58431175746E-01 -3.10334435261E-03 +4.18274937225E-03 -3.27424330386E-03 +4.21742985303E-03 +4.88765931826E-01 -5.61181945500E-01
4.11500000000E+09 +3.13207838394E-01 -4.58702229068E-01 -2.18593561068E-03 +4.58809143071E-03 -2.35898733081E-03 +4.66390687946E-03 +4.71748923034E-01 -5.67596580624E-01
4.12000000000E+09 +2.96753571947E-01 -4.58387410854E-01 -1.78698065510E-03 +4.50738393205E-03 -1.96494642574E-03 +4.55897961946E-03 +4.54512460884E-01 -5.74600732312E-01
4.12500000000E+09 +2.79574754575E-01 -4.57169819448E-01 -1.68039024033E-03 +4.63971465907E-03 -1.80613439668E-03 +4.68310261205E-03 +4.36814847849E-01 -5.80412279661E-01
4.13000000000E+09 +2.62008640126E-01 -4.55391700769E-01 -1.30726168681E-03 +4.99761900543E-03 -1.49882471340E-03 +5.04529345721E-03 +4.18455954331E-01 -5.85877780971E-01
4.13500000000E+09 +2.43770609155E-01 -4.53944028814E-01 -1.11882916211E-03 +5.27152127252E-03 -1.30928625641E-03 +5.39055978912E-03 +3.99760913355E-01 -5.90466658161E-01
4.14000000000E+09 +2.25531838583E-01 -4.53611256416E-01 -4.85259073157E-04 +5.97322913646E-03 -7.15747778934E-04 +6.20205484099E-03 +3.80128035039E-01 -5.94623824117E-01
4.14500000000E+09 +2.06844523157E-01 -4.54093178975E-01 +6.66604516033E-04 +6.43346687826E-03 +4.98988535255E-04 +6.69074695703E-03 +3.60664100908E-01 -5.98422288614E-01
4.15000000000E+09 +1.87932958586E-01 -4.56254071254E-01 +1.66893312325E-03 +5.96504082175E-03 +1.58915870193E-03 +6.19193755447E-03 +3.41795236315E-01 -6.02774581775E-01
4.15500000000E+09 +1.67947420449E-01 -4.57338221225E-01 +2.25244978509E-03 +5.45532546046E-03 +2.18891890457E-03 +5.72542730782E-03 +3.21724890846E-01 -6.06888964792E-01
4.16000000000E+09 +1.49016830837E-01 -4.56691638332E-01 +2.55959582943E-03 +5.19019584557E-03 +2.58617463397E-03 +5.40659486336E-03 +3.00973738145E-01 -6.08644655389E-01
4.16500000000E+09 +1.31436967073E-01 -4.54112669491E-01 +2.82493923645E-03 +4.94775075118E-03 +2.84322636927E-03 +5.20515198926E-03 +2.81816280196E-01 -6.09365791615E-01
4.17000000000E+09 +1.15557596051E-01 -4.49665349007E-01 +3.36686960715E-03 +4.99727897932E-03 +3.35939321237E-03 +5.25123314541E-03 +2.61418658890E-01 -6.09976787841E-01
4.17500000000E+09 +1.00413613585E-01 -4.44081510900E-01 +3.93447769552E-03 +4.98887651227E-03 +4.00829461330E-03 +5.23949122953E-03 +2.40278220114E-01 -6.10132583234E-01
4.18000000000E+09 +8.52212912611E-02 -4.37594995504E-01 +4.76766829022E-03 +4.50730019943E-03 +4.86428950727E-03 +4.75505130016E-03 +2.18640585605E-01 -6.09780587862E-01
4.18500000000E+09 +6.85475023091E-02 -4.29889506986E-01 +5.21821347459E-03 +4.06156784364E-03 +5.38419691121E-03 +4.31250658016E-03 +1.96300979666E-01 -6.08819478356E-01
4.19000000000E+09 +5.19380904120E-02 -4.21096814885E-01 +6.00942015454E-03 +3.64051100323E-03 +6.17970355585E-03 +3.83074898470E-03 +1.75258380584E-01 -6.06700894745E-01
4.19500000000E+09 +3.41523585834E-02 -4.12141757600E-01 +6.62766618436E-03 +2.79655460494E-03 +6.84017834845E-03 +2.93630470527E-03 +1.54444813039E-01 -6.04235806650E-01
4.20000000000E+09 +1.64842762015E-02 -4.03394248040E-01 +6.66093776464E-03 +1.74225992022E-03 +6.82547385153E-03 +1.90174417584E-03 +1.32890764401E-01 -6.02184558639E-01
4.20500000000E+09 -5.26519819726E-04 -3.95469275011E-01 +6.72644497509E-03 +1.16734835209E-03 +6.87871171060E-03 +1.24862903929E-03 +1.10413555299E-01 -5.98678237137E-01
4.21000000000E+09 -1.70190107193E-02 -3.88268082591E-01 +6.77293385544E-03 +3.35218255567E-04 +6.89928725226E-03 +3.77297664405E-04 +8.73818531283E-02 -5.93850004323E-01
4.21500000000E+09 -3.35098024688E-02 -3.81346363425E-01 +6.53024541452E-03 +2.02278646269E-04 +6.73009843803E-03 +2.55972151370E-04 +6.55010434093E-02 -5.89159589455E-01
4.22000000000E+09 -4.88459845942E-02 -3.72520925150E-01 +7.07897557993E-03 +5.45817143277E-05 +7.16006421688E-03 +1.07488673764E-04 +4.28538772547E-02 -5.83323658532E-01
4.22500000000E+09 -6.21757085059E-02 -3.62479663191E-01 +7.87317290689E-03 -1.22290625417E-03 +8.09028707515E-03 -1.13906495974E-03 +2.05356571111E-02 -5.77115985803E-01
4.23000000000E+09 -7.46757706099E-02 -3.51327777075E-01 +7.55437402861E-03 -2.75861034695E-03 +7.81944974761E-03 -2.78961945908E-03 -1.73076127140E-03 -5.69277790650E-01
4.23500000000E+09 -8.67491208166E-02 -3.38211496291E-01 +6.77012407190E-03 -3.58410766486E-03 +6.93318243592E-03 -3.63578065623E-03 -2.32609880498E-02 -5.59671333754E-01
4.24000000000E+09 -9.91542392734E-02 -3.24257613091E-01 +6.30715750649E-03 -4.09948654161E-03 +6.45008104829E-03 -4.15122683769E-03 -4.40019418653E-02 -5.49929558835E-01
4.24500000000E+09 -1.12360173962E-01 -3.09384379281E-01 +5.82522400450E-03 -4.24596886274E-03 +5.99215489340E-03 -4.30221562911E-03 -6.45801914455E-02 -5.40434575349E-01
4.25000000000E+09 -1.26652325570E-01 -2.93924243076E-01 +5.97741656604E-03 -5.05919632228E-03 +6.12867038787E-03 -5.13614692281E-03 -8.66017184914E-02 -5.29560732124E-01
4.25500000000E+09 -1.41546629235E-01 -2.79637789011E-01 +5.24677458016E-03 -6.19629650551E-03 +5.38948616149E-03 -6.31947360905E-03 -1.08399369717E-01 -5.17635055927E-01
4.26000000000E+09 -1.57910505075E-01 -2.66133877793E-01 +4.19747532625E-03 -6.44380031562E-03 +4.32413649470E-03 -6.60728253562E-03 -1.29314601530E-01 -5.03845265819E-01
4.26500000000E+09 -1.74970564610E-01 -2.53268368713E-01 +3.91321270517E-03 -6.39677386482E-03 +4.00372313462E-03 -6.56473129098E-03 -1.49192353977E-01 -4.89288194513E-01
4.27000000000E+09 -1.90859277917E-01 -2.40306025922E-01 +3.57317026772E-03 -7.18042988472E-03 +3.66721159930E-03 -7.35053284980E-03 -1.68384610492E-01 -4.74470822782E-01
4.27500000000E+09 -2.05566138897E-01 -2.27187503803E-01 +2.78983644119E-03 -7.91568622807E-03 +2.78944990077E-03 -8.01962696683E-03 -1.88760725945E-01 -4.58444576571E-01
4.28000000000E+09 -2.16996822560E-01 -2.12991146391E-01 +1.94938857218E-03 -8.26944838795E-03 +1.98980047016E-03 -8.38531824202E-03 -2.07841663959E-01 -4.42013827852E-01
4.28500000000E+09 -2.25512183822E-01 -1.99207098353E-01 +1.12609973901E-03 -8.89659259243E-03 +1.14527600226E-03 -9.02116211916E-03 -2.27359195727E-01 -4.25338349482E-01
4.29000000000E+09 -2.32714584438E-01 -1.85320122697E-01 -6.35890640076E-04 -9.16430891267E-03 -6.34643341631E-04 -9.35702219216E-03 -2.44850473771E-01 -4.06882580647E-01
4.29500000000E+09 -2.40230041118E-01 -1.70047972960E-01 -1.72288921965E-03 -8.12583901809E-03 -1.76956699431E-03 -8.29524317510E-03 -2.60468825135E-01 -3.90639018742E-01
4.30000000000E+09 -2.47834410217E-01 -1.52810803826E-01 -2.36158808981E-03 -7.80346446643E-03 -2.50678687747E-03 -7.96494559252E-03 -2.77694247402E-01 -3.72904745506E-01
4.30500000000E+09 -2.55488634836E-01 -1.33879761109E-01 -2.68450437713E-03 -7.22861301484E-03 -2.79157107349E-03 -7.36106591857E-03 -2.94311406215E-01 -3.52297038854E-01
4.31000000000E+09 -2.63314986918E-01 -1.13749560469E-01 -2.78963213555E-03 -7.22537266288E-03 -2.87280150206E-03 -7.43263696882E-03 -3.09748474370E-01 -3.31330657179E-01
4.31500000000E+09 -2.70646412672E-01 -9.40550466278E-02 -3.47881104855E-03 -7.63937015099E-03 -3.51990616787E-03 -7.80678423423E-03 -3.23937914199E-01 -3.08931555329E-01
4.32000000000E+09 -2.77500117785E-01 -7.48830771367E-02 -4.54654552144E-03 -7.79239146973E-03 -4.64463245182E-03 -7.96229762098E-03 -3.36770165952E-01 -2.87589472215E-01
4.32500000000E+09 -2.83378843007E-01 -5.88743058738E-02 -6.29678557592E-03 -7.37255535859E-03 -6.49671976422E-03 -7.50117082331E-03 -3.49601850163E-01 -2.65966151643E-01
4.33000000000E+09 -2.90006354803E-01 -4.33041912305E-02 -6.97116143046E-03 -6.49673741670E-03 -7.17531149277E-03 -6.58959851531E-03 -3.62006146241E-01 -2.42403950697E-01
4.33500000000E+09 -2.94935361822E-01 -2.73704105529E-02 -8.05553602503E-03 -5.50931809767E-03 -8.21535910875E-03 -5.43668887724E-03 -3.72258500051E-01 -2.17099897225E-01
4.34000000000E+09 -2.97488418521E-01 -1.12279717972E-02 -8.42965240100E-03 -4.23890568410E-03 -8.58195543347E-03 -4.15752746859E-03 -3.80412901384E-01 -1.92493721440E-01
4.34500000000E+09 -2.97361416999E-01 +4.91710556189E-03 -8.17651041156E-03 -3.17089767643E-03 -8.29014720841E-03 -3.14458074615E-03 -3.89569354343E-01 -1.69620521520E-01
4.35000000000E+09 -2.96605288591E-01 +2.17918833111E-02 -8.45044805990E-03 -3.03986936668E-03 -8.51638430397E-03 -3.01612310563E-03 -3.99733607273E-01 -1.44909066167E-01
4.35500000000E+09 -2.94483425353E-01 +4.00021329511E-02 -9.27166006946E-03 -2.27443052105E-03 -9.37733151868E-03 -2.29113238892E-03 -4.07553912068E-01 -1.18416416522E-01
4.36000000000E+09 -2.92985964787E-01 +5.88259764824E-02 -9.22320659479E-03 -1.35567777375E-03 -9.38998043297E-03 -1.23855533773E-03 -4.12624669547E-01 -9.32910107359E-02
4.36500000000E+09 -2.91737959764E-01 +7.87083552615E-02 -1.01775678260E-02 -1.00894954913E-03 -1.03942123952E-02 -8.61400989635E-04 -4.16250919410E-01 -6.91963517729E-02
4.37000000000E+09 -2.91779269101E-01 +9.85466614144E-02 -1.09512431339E-02 +8.77987523628E-04 -1.11452415122E-02 +1.02694285103E-03 -4.19389116612E-01 -4.50326258544E-02
4.37500000000E+09 -2.92184221406E-01 +1.18189403399E-01 -1.05349064832E-02 +2.84045362912E-03 -1.06893538092E-02 +3.14711008521E-03 -4.21681628108E-01 -2.07119131260E-02
4.38000000000E+09 -2.93360330570E-01 +1.36335073399E-01 -9.90515336636E-03 +3.95900127424E-03 -9.94432921483E-03 +4.17590824931E-03 -4.23809998180E-01 +5.65997219926E-03
4.38500000000E+09 -2.93841585032E-01 +1.53258495504E-01 -9.09945229865E-03 +5.07925517014E-03 -9.14138731499E-03 +5.34060024421E-03 -4.23013896923E-01 +3.17359516267E-02
4.39000000000E+09 -2.93168865826E-01 +1.68327292704E-01 -8.13873103432E-03 +5.84488990529E-03 -8.16760214781E-03 +6.14905996215E-03 -4.22391944224E-01 +5.59295380885E-02
4.39500000000E+09 -2.91345492467E-01 +1.81691488398E-01 -7.99831554304E-03 +6.08792693010E-03 -7.90142978499E-03 +6.33728355181E-03 -4.21881479770E-01 +7.97972146260E-02
4.40000000000E+09 -2.87736538931E-01 +1.95148316170E-01 -7.28302250012E-03 +7.56931894270E-03 -7.18168766224E-03 +7.77505560500E-03 -4.20736416810E-01 +1.04202591249E-01
4.40500000000E+09 -2.82720826900E-01 +2.08073677009E-01 -6.50443349071E-03 +8.34617463263E-03 -6.35610052327E-03 +8.47271655149E-03 -4.17054452675E-01 +1.28721845209E-01
4.41000000000E+09 -2.76577351905E-01 +2.22363200604E-01 -5.36600219943E-03 +8.72596132944E-03 -5.19954595806E-03 +8.82397562326E-03 -4.11672571844E-01 +1.52982076672E-01
4.41500000000E+09 -2.69127911016E-01 +2.38521091126E-01 -4.82141272130E-03 +9.86877123535E-03 -4.65994107524E-03 +9.91128613173E-03 -4.05896146825E-01 +1.75947715315E-01
4.42000000000E+09 -2.61672420689E-01 +2.55143432746E-01 -3.56837459331E-03 +1.01338118337E-02 -3.37862666126E-03 +1.01397774749E-02 -3.98933994408E-01 +1.99131689590E-01
4.42500000000E+09 -2.54819308458E-01 +2.72754997212E-01 -2.59383211451E-03 +1.11253234091E-02 -2.38931951793E-03 +1.10896021044E-02 -3.93543027321E-01 +2.20745641270E-01
4.43000000000E+09 -2.48456629980E-01 +2.90048999436E-01 -2.98132932484E-04 +1.15806439555E-02 -7.71751967327E-05 +1.15084300350E-02 -3.86305885879E-01 +2.44342453099E-01
4.43500000000E+09 -2.42841827039E-01 +3.06261218120E-01 +1.20037951481E-03 +1.06601279305E-02 +1.29180654954E-03 +1.05180463331E-02 -3.77113512491E-01 +2.66296924132E-01
4.44000000000E+09 -2.38224046223E-01 +3.20233677634E-01 +2.12572652398E-03 +9.90759081359E-03 +2.22126486144E-03 +9.78467067886E-03 -3.67975284216E-01 +2.85695767616E-01
4.44500000000E+09 -2.34393543752E-01 +3.32212674012E-01 +2.69157395589E-03 +9.66782549865E-03 +2.77679945764E-03 +9.57686348178E-03 -3.59657876983E-01 +3.05443065588E-01
4.45000000000E+09 -2.30552205365E-01 +3.43233288098E-01 +3.33998949594E-03 +9.23683733417E-03 +3.45143194090E-03 +9.17278021070E-03 -3.49965306056E-01 +3.25642312193E-01
4.45500000000E+09 -2.24292393864E-01 +3.53299181200E-01 +4.29323943937E-03 +9.66152627848E-03 +4.45407476437E-03 +9.54379766378E-03 -3.39025400986E-01 +3.44928524057E-01
4.46000000000E+09 -2.16708230678E-01 +3.62314642011E-01 +5.95608522361E-03 +9.06256930347E-03 +6.08899912521E-03 +8.92664042684E-03 -3.26000162474E-01 +3.63607772504E-01
4.46500000000E+09 -2.06337299800E-01 +3.71951536817E-01 +6.82090887326E-03 +7.81007453224E-03 +6.96620654664E-03 +7.68345106732E-03 -3.13749975026E-01 +3.79413205109E-01
4.47000000000E+09 -1.94554937126E-01 +3.81990912162E-01 +7.55450409845E-03 +7.10823675660E-03 +7.69238094542E-03 +6.94452775240E-03 -3.02393523697E-01 +3.95832035366E-01
4.47500000000E+09 -1.81351798909E-01 +3.92431608123E-01 +8.02390840706E-03 +6.09003824098E-03 +8.05660353428E-03 +5.88469974256E-03 -2.91002095389E-01 +4.13354684121E-01
4.48000000000E+09 -1.69363898975E-01 +4.03295225656E-01 +8.66741139314E-03 +5.30568281085E-03 +8.64223331795E-03 +5.06125020923E-03 -2.78058117407E-01 +4.29994609450E-01
4.48500000000E+09 -1.59052751820E-01 +4.16036572057E-01 +9.43908053581E-03 +4.59343793225E-03 +9.36931137256E-03 +4.39943995082E-03 -2.64167844512E-01 +4.45108904946E-01
4.49000000000E+09 -1.49227446832E-01 +4.29290765080E-01 +9.92885622709E-03 +2.59799410127E-03 +9.79867184140E-03 +2.46773745358E-03 -2.51079134368E-01 +4.59318569455E-01
4.49500000000E+09 -1.41084656047E-01 +4.41728002150E-01 +9.17266296642E-03 +1.64191735136E-03 +9.13152293920E-03 +1.45300295234E-03 -2.38000010369E-01 +4.73517097485E-01
4.50000000000E+09 -1.33948049210E-01 +4.52453364367E-01 +9.20525494344E-03 +1.34287174454E-03 +9.11597418441E-03 +1.23744344008E-03 -2.23815870516E-01 +4.87226383200E-01
4.50500000000E+09 -1.27784834332E-01 +4.61668098128E-01 +9.42875233123E-03 +5.87078491762E-04 +9.33444438417E-03 +4.69378589359E-04 -2.10088065482E-01 +5.00711616742E-01
4.51000000000E+09 -1.20806629996E-01 +4.68181355648E-01 +9.96856815484E-03 -2.87546971028E-04 +9.91572930254E-03 -4.42188381458E-04 -1.94114687466E-01 +5.13021746045E-01
4.51500000000E+09 -1.13579040691E-01 +4.73137367394E-01 +9.95319068436E-03 -1.60026373017E-03 +9.82032371835E-03 -1.75764035992E-03 -1.80180663770E-01 +5.23178981558E-01
4.52000000000E+09 -1.04615110081E-01 +4.77578253709E-01 +9.91055581996E-03 -3.26068488511E-03 +9.75120526252E-03 -3.41305878634E-03 -1.67080426715E-01 +5.34091232896E-01
4.52500000000E+09 -9.34601997298E-02 +4.81185123027E-01 +8.66734409833E-03 -4.29550575352E-03 +8.46458717403E-03 -4.48506617556E-03 -1.53186381246E-01 +5.45007711024E-01
4.53000000000E+09 -8.10315754076E-02 +4.85776605723E-01 +8.09771830839E-03 -4.87049136367E-03 +7.88624198372E-03 -4.95664687154E-03 -1.38264753190E-01 +5.54787460268E-01
4.53500000000E+09 -6.70497090369E-02 +4.91641847723E-01 +7.55416970669E-03 -5.68855688524E-03 +7.29574560551E-03 -5.77467796996E-03 -1.23314139835E-01 +5.64071328489E-01
4.54000000000E+09 -5.19299295826E-02 +4.98401032907E-01 +6.84186353229E-03 -6.17022645542E-03 +6.57233577742E-03 -6.22204001234E-03 -1.07189149452E-01 +5.72421965655E-01
4.54500000000E+09 -3.79029821252E-02 +5.05639523280E-01 +6.01529133064E-03 -6.81011596595E-03 +5.67395035565E-03 -6.83680784832E-03 -9.33225062619E-02 +5.81069956150E-01
4.55000000000E+09 -2.49178415635E-02 +5.13314174558E-01 +5.54797924776E-03 -7.37908844557E-03 +5.29155774188E-03 -7.30101560930E-03 -7.74882315772E-02 +5.90214007630E-01
4.55500000000E+09 -1.42967941480E-02 +5.20290738296E-01 +4.28972635043E-03 -7.61267617799E-03 +4.10558978564E-03 -7.54586808797E-03 -6.19815255474E-02 +5.98476237520E-01
4.56000000000E+09 -6.18724339601E-03 +5.27913478627E-01 +3.83612571195E-03 -7.88565104322E-03 +3.59707968692E-03 -7.78960201050E-03 -4.67786317044E-02 +6.04467603519E-01
4.56500000000E+09 +2.17147055995E-03 +5.34727727943E-01 +3.17755141531E-03 -8.42854949743E-03 +2.89530131057E-03 -8.27171457591E-03 -3.28418655106E-02 +6.10720542803E-01
4.57000000000E+09 +1.05684619650E-02 +5.39680507846E-01 +2.20111122638E-03 -8.76445382596E-03 +1.92243257653E-03 -8.56317955071E-03 -1.81713285031E-02 +6.17002813484E-01
