# Hz S RI R 50
! CMT, C1220, 16058040, 17.2.0/1
! Date: 15/08/2018 12:10:05
! Data: Format (Calibration Info)
! Freq                      S11: Re/Im (F2)                       S21: Re/Im (F2)                       S12: Re/Im (F2)                       S22: Re/Im (F2)            
4.00000000000E+09 +6.52646675017E-01 -3.53634355464E-01 +6.08216117973E-05 -5.11882410888E-04 +3.08341615760E-05 -5.17778572584E-04 +7.66299754960E-01 -3.21300786122E-01
4.00500000000E+09 +6.44571767892E-01 -3.59642946393E-01 +6.28189000146E-05 -3.61276870318E-04 +6.21532905767E-05 -3.81155763719E-04 +7.56977776310E-01 -3.31893350998E-01
4.01000000000E+09 +6.35906519857E-01 -3.65330579549E-01 +2.32469825185E-04 -5.65988144920E-04 +2.88702744099E-04 -5.23169526199E-04 +7.47117420334E-01 -3.42265145559E-01
4.01500000000E+09 +6.26321111138E-01 -3.72122057126E-01 +5.80322581847E-05 -8.39107427748E-04 +6.61672647325E-05 -8.19517291536E-04 +7.37422177582E-01 -3.52040036540E-01
4.02000000000E+09 +6.15402226697E-01 -3.80181581960E-01 -2.90473061422E-04 -7.55727850103E-04 -2.46257691047E-04 -7.81879332024E-04 +7.27076877889E-01 -3.62201289380E-01
4.02500000000E+09 +6.03755262126E-01 -3.89021700912E-01 -5.02930122955E-04 -5.78938969114E-04 -5.27806670118E-04 -6.22665751897E-04 +7.16215320801E-01 -3.71454643312E-01
4.03000000000E+09 +5.92430216007E-01 -3.98930566354E-01 -5.29319178184E-04 -3.05198636010E-04 -5.27533466383E-04 -3.01922396938E-04 +7.05564267540E-01 -3.80708403677E-01
4.03500000000E+09 +5.81346048894E-01 -4.09806851026E-01 -3.24705616358E-04 -2.53765952230E-04 -3.04109021692E-04 -2.54510978940E-04 +6.94425633684E-01 -3.90424680303E-01
4.04000000000E+09 +5.70569059699E-01 -4.21011154905E-01 -3.83155845310E-04 -1.89602358510E-04 -3.75883985355E-04 -1.47360362559E-04 +6.83280559563E-01 -4.00304576845E-01
4.04500000000E+09 +5.60053318004E-01 -4.31518929289E-01 -1.84574348532E-04 -2.23700598700E-04 -2.03310644984E-04 -2.59551063963E-04 +6.71258910408E-01 -4.10160829580E-01
4.05000000000E+09 +5.49044183328E-01 -4.40415962976E-01 -2.39956060882E-04 -4.61983009944E-04 -2.12444292912E-04 -3.95490708742E-04 +6.59147390265E-01 -4.18754361967E-01
4.05500000000E+09 +5.37981480824E-01 -4.46974346953E-01 -5.35689693271E-04 -4.86588322593E-04 -6.11294628433E-04 -5.69063549722E-04 +6.47078876816E-01 -4.27296088453E-01
4.06000000000E+09 +5.26671743488E-01 -4.51856934006E-01 -6.52233137369E-04 -3.24242999031E-04 -6.35260928980E-04 -3.14600538712E-04 +6.34326634902E-01 -4.35387025724E-01
4.06500000000E+09 +5.14350594572E-01 -4.55387691808E-01 -7.57518390363E-04 -1.56084296804E-04 -7.95462957683E-04 -1.55021307221E-04 +6.21104171820E-01 -4.43465507026E-01
4.07000000000E+09 +5.01541645562E-01 -4.59026416569E-01 -6.51174546855E-04 +1.28754450053E-04 -6.84115981686E-04 +1.31314488115E-04 +6.07483445998E-01 -4.51210399206E-01
4.07500000000E+09 +4.87020842353E-01 -4.63536207108E-01 -5.23468320984E-04 +4.19127571873E-05 -4.93048017304E-04 +7.37656834275E-05 +5.93604312326E-01 -4.59125338306E-01
4.08000000000E+09 +4.70720321086E-01 -4.68485071091E-01 -6.18165169397E-04 +1.02331503735E-04 -6.10396985635E-04 +1.16781845826E-04 +5.80364184757E-01 -4.66895779183E-01
4.08500000000E+09 +4.53662356538E-01 -4.73932723054E-01 -4.68627343234E-04 +2.03846553318E-04 -4.69199517616E-04 +2.23702564966E-04 +5.66386993181E-01 -4.75077110991E-01
4.09000000000E+09 +4.36702133651E-01 -4.80537925551E-01 -2.97662812311E-04 -1.48767393663E-05 -3.41034134403E-04 -4.55516802902E-05 +5.51840171187E-01 -4.81667153219E-01
4.09500000000E+09 +4.19911897422E-01 -4.87643159319E-01 -7.34857646385E-04 -1.36485299061E-04 -7.43722526186E-04 -1.50709155389E-04 +5.37864120005E-01 -4.88125750437E-01
4.10000000000E+09 +4.02229135446E-01 -4.94498488458E-01 -8.33375967297E-04 +1.95547180234E-04 -9.07081180201E-04 +2.28310773947E-04 +5.21636775618E-01 -4.94619163795E-01
4.10500000000E+09 +3.85520308608E-01 -4.98927327159E-01 -8.48725423230E-04 +5.86264524128E-04 -8.54194833226E-04 +5.90326064121E-04 +5.05597651746E-01 -5.00129668829E-01
4.11000000000E+09 +3.69418194428E-01 -5.01747113670E-01 -5.97219683570E-04 +8.24077717350E-04 -6.56988623969E-04 +8.42255288865E-04 +4.89148609027E-01 -5.05894549103E-01
4.11500000000E+09 +3.54494690238E-01 -5.03076181382E-01 -4.13466545359E-05 +8.32598864352E-04 -1.52880846814E-06 +8.21271794158E-04 +4.72773556230E-01 -5.10928672225E-01
4.12000000000E+09 +3.39113430685E-01 -5.03659947759E-01 -7.19395619593E-05 +2.39143240870E-04 -8.68042965604E-05 +2.56127495352E-04 +4.56809675544E-01 -5.16439156428E-01
4.12500000000E+09 +3.23113396860E-01 -5.04289377836E-01 -3.63469322840E-04 +2.91654781087E-04 -3.58772867887E-04 +2.75763188893E-04 +4.39238981813E-01 -5.21246463774E-01
4.13000000000E+09 +3.05112049995E-01 -5.05635513469E-01 -5.85070211511E-04 +4.62871912837E-04 -5.78155461000E-04 +4.33787579225E-04 +4.22361387983E-01 -5.24505581664E-01
4.13500000000E+09 +2.84739210113E-01 -5.06996951370E-01 -5.61320657725E-04 +7.99294177425E-04 -6.02116729076E-04 +7.86869159439E-04 +4.05094951632E-01 -5.28225427204E-01
4.14000000000E+09 +2.64393789140E-01 -5.08099819307E-01 -2.69077191371E-04 +1.19649959222E-03 -2.20274183059E-04 +1.22209776677E-03 +3.86460357393E-01 -5.31228861330E-01
4.14500000000E+09 +2.44101574208E-01 -5.10958125095E-01 +3.29804021930E-04 +1.06647620416E-03 +3.22521556567E-04 +1.09114686456E-03 +3.68372076163E-01 -5.33895491009E-01
4.15000000000E+09 +2.23589836029E-01 -5.14881510805E-01 +3.45478750368E-04 +7.20093029545E-04 +3.50130377554E-04 +7.01877673953E-04 +3.50406798487E-01 -5.36238081429E-01
4.15500000000E+09 +2.03317579146E-01 -5.18771010435E-01 +1.94859224185E-04 +6.62405753529E-04 +2.29914447817E-04 +6.62483713942E-04 +3.32279200642E-01 -5.37842029289E-01
4.16000000000E+09 +1.84050801659E-01 -5.21139597530E-01 +3.19399716868E-04 +7.10508786492E-04 +2.67500243869E-04 +7.06060533272E-04 +3.14552754288E-01 -5.38961797402E-01
4.16500000000E+09 +1.66002824124E-01 -5.21934304645E-01 +3.56178030917E-04 +6.30500480946E-04 +3.54982027462E-04 +6.76437728557E-04 +2.96090131468E-01 -5.39278228033E-01
4.17000000000E+09 +1.49360470820E-01 -5.20596058656E-01 +4.78005786104E-04 +8.13090635854E-04 +4.98678930452E-04 +8.27774032498E-04 +2.77326856571E-01 -5.38592510071E-01
4.17500000000E+09 +1.34073926871E-01 -5.17177420704E-01 +5.93550871860E-04 +4.27307237586E-04 +5.88518145759E-04 +4.98586964235E-04 +2.58340568798E-01 -5.37666665930E-01
4.18000000000E+09 +1.18628155870E-01 -5.12918421160E-01 +5.55073526022E-04 +5.30774287975E-04 +5.36163656633E-04 +5.44586163406E-04 +2.38640586254E-01 -5.36316377306E-01
4.18500000000E+09 +1.02431862471E-01 -5.07759924952E-01 +5.23997022238E-04 +5.37769010362E-04 +5.24290581317E-04 +6.01221062177E-04 +2.19254395503E-01 -5.34232421945E-01
4.19000000000E+09 +8.52470962422E-02 -5.02151691170E-01 +8.48593056773E-04 +3.99265881879E-04 +9.02460857141E-04 +4.18393436623E-04 +1.99857070980E-01 -5.31896627345E-01
4.19500000000E+09 +6.67074114110E-02 -4.96684311258E-01 +7.12894596178E-04 +1.81231876636E-04 +6.98184192277E-04 +2.19648429556E-04 +1.80775441211E-01 -5.28552127862E-01
4.20000000000E+09 +4.72067572027E-02 -4.91438024890E-01 +7.38349200780E-04 +3.59405982212E-04 +7.59228271709E-04 +3.95999623613E-04 +1.61120331296E-01 -5.25117237327E-01
4.20500000000E+09 +2.74962403014E-02 -4.86739073879E-01 +1.02961703505E-03 +8.04488442317E-05 +1.09272612477E-03 +1.31513713479E-04 +1.40950404990E-01 -5.19706577352E-01
4.21000000000E+09 +8.11891149958E-03 -4.81312945107E-01 +5.93086564319E-04 -3.04171123009E-04 +5.58503592547E-04 -2.94860698940E-04 +1.21616730249E-01 -5.14237658752E-01
4.21500000000E+09 -1.04212481930E-02 -4.75564811343E-01 +4.84999702434E-04 +2.21396828887E-04 +5.29404507693E-04 +2.57435550123E-04 +1.01843767400E-01 -5.08598226601E-01
4.22000000000E+09 -2.71045164232E-02 -4.68560244023E-01 +8.90414844282E-04 +2.87561117760E-04 +9.49599207597E-04 +2.30294365819E-04 +8.26009226173E-02 -5.01358334755E-01
4.22500000000E+09 -4.25957837221E-02 -4.60421036547E-01 +9.77709925255E-04 -1.10987946650E-04 +9.97309123905E-04 -1.51682977180E-04 +6.44386779380E-02 -4.94473761571E-01
4.23000000000E+09 -5.75817341367E-02 -4.50911389686E-01 +9.33926858040E-04 -2.71733331337E-04 +9.74288414877E-04 -3.30784093472E-04 +4.57221873446E-02 -4.86916577401E-01
4.23500000000E+09 -7.24368440511E-02 -4.39436028756E-01 +5.86273012324E-04 -2.62096924758E-04 +5.85764645565E-04 -2.51820266837E-04 +2.74793100323E-02 -4.78151221364E-01
4.24000000000E+09 -8.75690409032E-02 -4.27122665785E-01 +8.45791891068E-04 -1.56711710086E-05 +8.84260047997E-04 +4.01858167029E-06 +9.01848947301E-03 -4.69154590754E-01
4.24500000000E+09 -1.04994263981E-01 -4.14344735191E-01 +1.33898419402E-03 -2.46803019250E-04 +1.34009057056E-03 -2.29433528948E-04 -9.78318231124E-03 -4.58531592277E-01
4.25000000000E+09 -1.24153408321E-01 -4.00478627246E-01 +1.31510458082E-03 -8.06486165031E-04 +1.39524595784E-03 -8.49949063942E-04 -2.70277171958E-02 -4.47133932829E-01
4.25500000000E+09 -1.43705912421E-01 -3.86323645409E-01 +8.77649047870E-04 -1.18444379330E-03 +8.89500762130E-04 -1.23452490940E-03 -4.45064080038E-02 -4.36327424434E-01
4.26000000000E+09 -1.63489632994E-01 -3.73419687587E-01 +6.06425611660E-04 -1.15570646046E-03 +6.03326374399E-04 -1.16965540484E-03 -6.21656660269E-02 -4.23483656690E-01
4.26500000000E+09 -1.82912635984E-01 -3.60674825464E-01 +4.92830406132E-04 -1.10195556417E-03 +4.83905559611E-04 -1.11137590809E-03 -7.77681609477E-02 -4.10148419109E-01
4.27000000000E+09 -2.00692839133E-01 -3.48290188098E-01 +3.99799119998E-04 -1.32157081601E-03 +3.65207793170E-04 -1.36267510250E-03 -9.41134504244E-02 -3.97242985282E-01
4.27500000000E+09 -2.16249924964E-01 -3.36371573410E-01 +1.57126630079E-04 -1.15347230738E-03 +4.26476225766E-05 -1.12400681365E-03 -1.10459094928E-01 -3.82793084544E-01
4.28000000000E+09 -2.30371071603E-01 -3.23882977382E-01 +1.67713831048E-04 -1.09889823915E-03 +1.31184393362E-04 -1.04780235471E-03 -1.26009627471E-01 -3.68516959511E-01
4.28500000000E+09 -2.42859551891E-01 -3.09421957338E-01 +6.73497292188E-05 -1.32621685524E-03 +2.32835700422E-05 -1.28856366045E-03 -1.41952485815E-01 -3.53818003110E-01
4.29000000000E+09 -2.53085148761E-01 -2.92819715465E-01 -1.03939702851E-04 -1.47312949178E-03 -1.22836535819E-04 -1.42092772302E-03 -1.57252167917E-01 -3.38161059608E-01
4.29500000000E+09 -2.62890279181E-01 -2.75205214231E-01 -5.88588621762E-04 -1.56420338224E-03 -5.20135052523E-04 -1.55182826148E-03 -1.71423528723E-01 -3.21500976471E-01
4.30000000000E+09 -2.73016083168E-01 -2.55942153889E-01 -7.94499567410E-04 -1.17201442757E-03 -7.64097349333E-04 -1.18168376280E-03 -1.84105838492E-01 -3.04631765094E-01
4.30500000000E+09 -2.84020751693E-01 -2.35786441159E-01 -9.20082602483E-04 -1.24958813208E-03 -9.24441756041E-04 -1.18027728866E-03 -1.95995055620E-01 -2.87345739975E-01
4.31000000000E+09 -2.96337842429E-01 -2.15695189934E-01 -1.00866105835E-03 -1.06153054328E-03 -1.00231299181E-03 -1.12410514972E-03 -2.07034048696E-01 -2.69687959901E-01
4.31500000000E+09 -3.09574579234E-01 -1.95816158927E-01 -1.41267764042E-03 -8.15938078816E-04 -1.45300474332E-03 -8.41531415022E-04 -2.17724882231E-01 -2.52239084461E-01
4.32000000000E+09 -3.23183724139E-01 -1.76074962063E-01 -1.36420832924E-03 -4.00226648182E-04 -1.36707540911E-03 -4.43703684227E-04 -2.28812061462E-01 -2.33865936390E-01
4.32500000000E+09 -3.34360960825E-01 -1.57337070063E-01 -1.05733735256E-03 -1.11002336908E-04 -1.08566789414E-03 -1.06410806495E-04 -2.37848983929E-01 -2.14597218957E-01
4.33000000000E+09 -3.43706253880E-01 -1.40583347656E-01 -9.91600052754E-04 -3.44461628951E-04 -1.05293433179E-03 -3.19718463823E-04 -2.46916818250E-01 -1.96087596823E-01
4.33500000000E+09 -3.50952851738E-01 -1.24285658745E-01 -1.12294668408E-03 -3.22157637450E-04 -1.15247412330E-03 -3.05107277018E-04 -2.55292949014E-01 -1.76168474771E-01
4.34000000000E+09 -3.55422487816E-01 -1.08202919244E-01 -1.37819260193E-03 -2.26481518390E-04 -1.38766352096E-03 -1.72114888018E-04 -2.62434131383E-01 -1.56275865364E-01
4.34500000000E+09 -3.57988747658E-01 -9.15338355368E-02 -1.38092474958E-03 +2.13109525920E-04 -1.37807063121E-03 +2.17839950009E-04 -2.69688797631E-01 -1.36334087454E-01
4.35000000000E+09 -3.59510519332E-01 -7.35791164488E-02 -1.31314123204E-03 +4.41283110563E-04 -1.37565206124E-03 +3.92898152289E-04 -2.75736205450E-01 -1.16395106135E-01
4.35500000000E+09 -3.61621449434E-01 -5.31568201444E-02 -1.03922266804E-03 +6.44858907754E-04 -1.08905894377E-03 +6.77177635592E-04 -2.82060281257E-01 -9.67368017166E-02
4.36000000000E+09 -3.63195028293E-01 -3.03758989738E-02 -9.07829561061E-04 +3.20622464333E-04 -9.44136155032E-04 +3.74800350529E-04 -2.87069073913E-01 -7.70287395814E-02
4.36500000000E+09 -3.65010645372E-01 -6.60187698416E-03 -1.24512157297E-03 +6.66991253996E-04 -1.23322198226E-03 +7.16346554591E-04 -2.90828590479E-01 -5.70131081807E-02
4.37000000000E+09 -3.67698721154E-01 +1.67278849982E-02 -9.31378641384E-04 +7.68464363053E-04 -8.96697232601E-04 +7.63238629643E-04 -2.93625091585E-01 -3.79434860259E-02
4.37500000000E+09 -3.71112739066E-01 +3.84003678333E-02 -8.64007614790E-04 +1.03630520839E-03 -9.07890140369E-04 +1.08036616635E-03 -2.96632993146E-01 -1.78206465705E-02
4.38000000000E+09 -3.75645890083E-01 +5.79899352141E-02 -6.21235296489E-04 +1.16239594332E-03 -5.82649316207E-04 +1.14193526861E-03 -2.98191836957E-01 +2.89122289660E-03
4.38500000000E+09 -3.80098231538E-01 +7.58195269485E-02 -3.85264206739E-04 +1.10680108374E-03 -3.58945077947E-04 +1.08796139846E-03 -2.99180463067E-01 +2.32452807625E-02
4.39000000000E+09 -3.83949712648E-01 +9.23125998113E-02 -3.30852398894E-04 +9.00128742192E-04 -2.86925379194E-04 +9.05767036276E-04 -2.99729532105E-01 +4.40194891793E-02
4.39500000000E+09 -3.84070637841E-01 +1.08216831683E-01 -3.17747412536E-04 +1.13986028967E-03 -2.35093392295E-04 +1.19647375898E-03 -2.99813216868E-01 +6.34184996389E-02
4.40000000000E+09 -3.81497759371E-01 +1.22925993245E-01 -1.29576116134E-04 +9.40234427484E-04 -4.93769784163E-05 +9.33117957111E-04 -2.99053422481E-01 +8.36078322459E-02
4.40500000000E+09 -3.76915491569E-01 +1.37447925306E-01 -3.34921249394E-04 +1.03110534438E-03 -2.73492442726E-04 +9.86243710800E-04 -2.96705317245E-01 +1.02986413944E-01
4.41000000000E+09 -3.71726607541E-01 +1.53541628800E-01 -1.18832714977E-04 +1.42226330636E-03 -1.08175498015E-04 +1.39278867900E-03 -2.94230889884E-01 +1.21702325958E-01
4.41500000000E+09 -3.65337253840E-01 +1.72053148973E-01 +3.77666820261E-04 +1.20593577730E-03 +3.27334244091E-04 +1.18299930827E-03 -2.90373652401E-01 +1.41005796540E-01
4.42000000000E+09 -3.58820685658E-01 +1.92899367365E-01 +4.06928005349E-04 +1.22051473925E-03 +4.27917560349E-04 +1.24086747327E-03 -2.86166671726E-01 +1.59917421557E-01
4.42500000000E+09 -3.52025586676E-01 +2.14335307024E-01 +8.19419923385E-04 +8.93698446939E-04 +8.08127041195E-04 +8.77457769129E-04 -2.81848471733E-01 +1.78115554552E-01
4.43000000000E+09 -3.46697654250E-01 +2.35212782114E-01 +4.92022556590E-04 +7.01650674308E-04 +4.67631874575E-04 +6.04216883690E-04 -2.77602917542E-01 +1.96301736291E-01
4.43500000000E+09 -3.42933114350E-01 +2.54897572015E-01 +4.80632701647E-04 +7.61090646537E-04 +4.09634111738E-04 +7.24916628753E-04 -2.73607795530E-01 +2.14324249353E-01
4.44000000000E+09 -3.40406667947E-01 +2.73681375796E-01 +5.24467103289E-04 +9.62617428251E-04 +4.93087278860E-04 +9.40658857682E-04 -2.68286475827E-01 +2.33140706690E-01
4.44500000000E+09 -3.36829389148E-01 +2.90196092369E-01 +9.55338640205E-04 +1.09932318022E-03 +9.22471676852E-04 +1.10445427677E-03 -2.60971690288E-01 +2.50146991793E-01
4.45000000000E+09 -3.32522516932E-01 +3.03725061125E-01 +1.29800241912E-03 +6.05392178028E-04 +1.25949166110E-03 +6.70107057268E-04 -2.53979146200E-01 +2.66211742580E-01
4.45500000000E+09 -3.26920759459E-01 +3.15934940498E-01 +1.24236405484E-03 +4.45028996039E-04 +1.20886785305E-03 +3.81026679536E-04 -2.46073372038E-01 +2.82269826397E-01
4.46000000000E+09 -3.19329282501E-01 +3.27035000509E-01 +1.31165023674E-03 +8.89585845314E-06 +1.29561443477E-03 +1.57375080037E-06 -2.38215266117E-01 +2.97584742818E-01
4.46500000000E+09 -3.10578777267E-01 +3.38811247817E-01 +1.05061585862E-03 -2.94391133414E-05 +1.01920607658E-03 -1.88788038496E-05 -2.30364977005E-01 +3.12980127272E-01
4.47000000000E+09 -2.99972201923E-01 +3.53036123571E-01 +1.10341806076E-03 -4.23152782818E-04 +1.10950753090E-03 -4.43475238571E-04 -2.21684724339E-01 +3.28515847128E-01
4.47500000000E+09 -2.87178923723E-01 +3.68948073107E-01 +5.77013665347E-04 -2.90959105289E-04 +5.80656234718E-04 -3.03525274968E-04 -2.13103367317E-01 +3.43205783323E-01
4.48000000000E+09 -2.73981599262E-01 +3.85169168528E-01 +6.49538120983E-04 -1.86071003935E-04 +7.10858914708E-04 -1.83931608556E-04 -2.03856163331E-01 +3.58049360034E-01
4.48500000000E+09 -2.62225393505E-01 +4.01700377239E-01 +6.55286036312E-04 -1.90626229115E-05 +6.23991901737E-04 -5.23989341250E-07 -1.93946060635E-01 +3.71808128578E-01
4.49000000000E+09 -2.52595606089E-01 +4.17792240081E-01 +1.08640575886E-03 -1.33443392259E-04 +1.06434772330E-03 -1.21898164157E-04 -1.84159219975E-01 +3.85013537834E-01
4.49500000000E+09 -2.45595172404E-01 +4.32997322957E-01 +1.17508355349E-03 -8.48525857650E-04 +1.12863919878E-03 -7.96445494198E-04 -1.74091384490E-01 +3.97997248641E-01
4.50000000000E+09 -2.40147102534E-01 +4.47666356841E-01 +4.30611176400E-04 -8.23990026444E-04 +4.75102800846E-04 -7.72509487355E-04 -1.63471764988E-01 +4.10577482287E-01
4.50500000000E+09 -2.34362742286E-01 +4.60098876717E-01 +5.32580403830E-04 -9.27508879889E-04 +5.63019355691E-04 -9.56219141491E-04 -1.53093179521E-01 +4.22698158132E-01
4.51000000000E+09 -2.28109550144E-01 +4.69602097064E-01 -1.14043286952E-04 -8.23926439483E-04 -1.05482522866E-04 -8.60544030644E-04 -1.42084448551E-01 +4.34411424241E-01
4.51500000000E+09 -2.20458189570E-01 +4.77527426814E-01 -1.32798054155E-04 -4.26233145336E-04 -1.93915238160E-04 -3.82398989624E-04 -1.31837624438E-01 +4.45610591578E-01
4.52000000000E+09 -2.11075727487E-01 +4.84155594155E-01 +5.71013288897E-05 -1.66548137503E-04 +1.58958122471E-05 -1.59456165880E-04 -1.21000373472E-01 +4.56631099335E-01
4.52500000000E+09 -1.99414902801E-01 +4.90985260221E-01 +2.40665144910E-04 -4.22399978879E-05 +2.97868785698E-04 -6.35935629948E-05 -1.09533201401E-01 +4.67187935078E-01
4.53000000000E+09 -1.85774874448E-01 +4.98453731159E-01 +7.18517344450E-04 -4.61378690875E-04 +6.73020399455E-04 -4.89536701183E-04 -9.79402135726E-02 +4.76408920834E-01
4.53500000000E+09 -1.70972020933E-01 +5.07403596334E-01 +2.82514502410E-04 -6.46947616003E-04 +2.87217944830E-04 -6.83066578247E-04 -8.61003509738E-02 +4.86142300598E-01
4.54000000000E+09 -1.55850649239E-01 +5.17152601731E-01 +3.36225871475E-04 -6.76182698799E-04 +3.10816686540E-04 -6.69169832331E-04 -7.35452740862E-02 +4.95218464604E-01
4.54500000000E+09 -1.41403933376E-01 +5.27946663976E-01 +2.32113540235E-05 -9.02960119985E-04 +2.99506921403E-06 -8.10171095439E-04 -6.18705490823E-02 +5.03843416257E-01
4.55000000000E+09 -1.28773033108E-01 +5.38449113444E-01 -2.06830524220E-04 -8.25471517901E-04 -2.46211139938E-04 -8.04220701415E-04 -4.94399674068E-02 +5.12801247426E-01
4.55500000000E+09 -1.18049007401E-01 +5.48641618048E-01 -4.05286970499E-04 -3.89790077453E-04 -4.36980371594E-04 -3.44017110897E-04 -3.78342369276E-02 +5.21090279715E-01
4.56000000000E+09 -1.08582603523E-01 +5.57186092750E-01 -1.21405520208E-04 -5.45934240940E-05 -1.87539829306E-04 -3.43889067528E-05 -2.53735493246E-02 +5.29118545991E-01
4.56500000000E+09 -1.00348182618E-01 +5.63809281437E-01 +3.93737505447E-04 -2.91279313531E-04 +4.28604897798E-04 -2.62085315607E-04 -1.33179523639E-02 +5.36127790702E-01
4.57000000000E+09 -9.22950311042E-02 +5.68854063919E-01 +2.63073120497E-04 -9.62501066118E-04 +1.65609029921E-04 -8.47840210400E-04 -1.33205749157E-03 +5.43226084408E-01
