# Hz S RI R 50
! CMT, C1220, 16058040, 17.2.0/1
! Date: 15/08/2018 12:20:00
! Data: Format (Calibration Info)
! Freq                      S11: Re/Im (F2)                       S21: Re/Im (F2)                       S12: Re/Im (F2)                       S22: Re/Im (F2)            
4.00000000000E+09 +6.54687180714E-01 -3.52943266961E-01 +1.04032665469E-03 +4.82115210871E-05 +1.06312859576E-03 +8.78233224636E-05 +7.42070387527E-01 -3.25737597966E-01
4.00500000000E+09 +6.46335542529E-01 -3.59530448602E-01 +1.11188248752E-03 -1.87292570952E-06 +1.16458221598E-03 +6.80013689071E-05 +7.31422537834E-01 -3.36389047358E-01
4.01000000000E+09 +6.37350690799E-01 -3.66302213766E-01 +1.23586656488E-03 -3.36178303124E-04 +1.28741632578E-03 -3.05641391349E-04 +7.20624103949E-01 -3.47185600132E-01
4.01500000000E+09 +6.27040870454E-01 -3.73792606427E-01 +1.13232526800E-03 -5.95722454885E-04 +1.17020851152E-03 -5.69237867840E-04 +7.09431799510E-01 -3.57459427123E-01
4.02000000000E+09 +6.16378821933E-01 -3.82285563377E-01 +7.72577340730E-04 -7.46377658159E-04 +8.26483891298E-04 -6.62055276627E-04 +6.97674094020E-01 -3.67481165808E-01
4.02500000000E+09 +6.05105836524E-01 -3.92005397482E-01 +6.41839542841E-04 -3.80750643642E-04 +6.79046597880E-04 -3.03973039693E-04 +6.85290290371E-01 -3.77499876674E-01
4.03000000000E+09 +5.93760317214E-01 -4.02363336811E-01 +1.13219273602E-03 -3.64521044262E-04 +1.21456947253E-03 -3.73306438181E-04 +6.72244217031E-01 -3.86757777722E-01
4.03500000000E+09 +5.82438903239E-01 -4.13026485454E-01 +1.32454778541E-03 -8.82540904612E-04 +1.35839898108E-03 -8.11568267505E-04 +6.59422578579E-01 -3.96220061026E-01
4.04000000000E+09 +5.71448215084E-01 -4.23420919922E-01 +1.13020021328E-03 -1.38841882949E-03 +1.22695537397E-03 -1.31368834354E-03 +6.45781788912E-01 -4.06456312069E-01
4.04500000000E+09 +5.60434593127E-01 -4.33160974638E-01 +6.26030374065E-04 -1.56535648809E-03 +6.94223006107E-04 -1.64455697168E-03 +6.31502081979E-01 -4.15643451127E-01
4.05000000000E+09 +5.49061277352E-01 -4.40989821308E-01 +1.14409617950E-04 -1.47688433219E-03 +2.02385200754E-04 -1.51922826707E-03 +6.17583399256E-01 -4.23947106792E-01
4.05500000000E+09 +5.37685420531E-01 -4.46602936593E-01 +1.44851745655E-04 -1.17605859614E-03 +2.15692389926E-04 -1.25273071509E-03 +6.03348162023E-01 -4.32186689306E-01
4.06000000000E+09 +5.26059192332E-01 -4.51424648552E-01 +1.21240520533E-04 -1.13069105924E-03 +1.47760487258E-04 -1.18342098825E-03 +5.88748079886E-01 -4.40066018320E-01
4.06500000000E+09 +5.13274079059E-01 -4.55498771968E-01 +2.30127132465E-04 -1.29777559471E-03 +2.87799141692E-04 -1.36059920170E-03 +5.72879945552E-01 -4.47456917092E-01
4.07000000000E+09 +4.99133602182E-01 -4.59874047217E-01 -1.38180846554E-05 -1.55611785475E-03 +4.98808479122E-06 -1.60824705490E-03 +5.56876891748E-01 -4.54474818480E-01
4.07500000000E+09 +4.83568149151E-01 -4.64354131261E-01 -1.87258564867E-04 -1.51627876767E-03 -1.49348961269E-04 -1.57688766690E-03 +5.40461567541E-01 -4.61481045399E-01
4.08000000000E+09 +4.66825231490E-01 -4.69588352658E-01 -5.07514941227E-04 -1.62271917381E-03 -5.14034617932E-04 -1.73348073914E-03 +5.24830253048E-01 -4.67673382060E-01
4.08500000000E+09 +4.49536531485E-01 -4.75136235072E-01 -9.60004561974E-04 -1.41305301340E-03 -9.06191208143E-04 -1.47742703762E-03 +5.08582440525E-01 -4.75291076793E-01
4.09000000000E+09 +4.32812580158E-01 -4.81511867032E-01 -9.68994056454E-04 -1.15233881868E-03 -9.85655000768E-04 -1.18735187855E-03 +4.90807198734E-01 -4.81077382943E-01
4.09500000000E+09 +4.15919533212E-01 -4.88269430369E-01 -9.73170350461E-04 -8.97711800169E-04 -9.93041583599E-04 -9.64081842512E-04 +4.73953089113E-01 -4.85745005465E-01
4.10000000000E+09 +3.99261306872E-01 -4.94735926841E-01 -9.08391260987E-04 -8.62900557135E-04 -9.54718650085E-04 -9.42675754132E-04 +4.55427042373E-01 -4.90887080741E-01
4.10500000000E+09 +3.82616085138E-01 -4.99626347612E-01 -7.80215295079E-04 -7.80264114355E-04 -8.14132485828E-04 -8.23618151057E-04 +4.36330320704E-01 -4.94598182730E-01
4.11000000000E+09 +3.65977122531E-01 -5.02581909186E-01 -9.17971925696E-04 -9.58964474058E-04 -9.36363633817E-04 -1.02098428907E-03 +4.17197787032E-01 -4.97822300004E-01
4.11500000000E+09 +3.50354021439E-01 -5.03890577679E-01 -9.00545975564E-04 -1.14200714076E-03 -9.22971505480E-04 -1.16455054712E-03 +3.98377651364E-01 -5.01127434074E-01
4.12000000000E+09 +3.34219379380E-01 -5.04834050853E-01 -1.43955979473E-03 -1.41925177980E-03 -1.46468215050E-03 -1.43666367816E-03 +3.79028596507E-01 -5.04272330410E-01
4.12500000000E+09 +3.16832520503E-01 -5.05321294445E-01 -2.14506089033E-03 -1.00062717251E-03 -2.17805707735E-03 -1.02027776722E-03 +3.58785374403E-01 -5.06393644090E-01
4.13000000000E+09 +2.98580709120E-01 -5.06047237294E-01 -2.30353467230E-03 -1.29876999786E-04 -2.36172764636E-03 -1.64074544657E-04 +3.38341172195E-01 -5.07669758034E-01
4.13500000000E+09 +2.79283769261E-01 -5.07644636072E-01 -1.81710536856E-03 +3.15763062672E-04 -1.86812805906E-03 +2.91469407915E-04 +3.17539052738E-01 -5.07325808518E-01
4.14000000000E+09 +2.58737855829E-01 -5.10167276626E-01 -1.42329925924E-03 +2.63228808094E-04 -1.44420369347E-03 +2.16107906371E-04 +2.96945033343E-01 -5.06923876251E-01
4.14500000000E+09 +2.38153713023E-01 -5.13565754627E-01 -1.46241555732E-03 +1.59039539933E-04 -1.44987308869E-03 +1.14750801002E-04 +2.76298600424E-01 -5.05587956278E-01
4.15000000000E+09 +2.17474067375E-01 -5.16999247641E-01 -1.41565320399E-03 +2.00133979569E-06 -1.49061068330E-03 +1.19911900625E-05 +2.56441315404E-01 -5.04088083413E-01
4.15500000000E+09 +1.97703993648E-01 -5.20369915608E-01 -1.90669118568E-03 -2.78899541171E-04 -1.98078348030E-03 -2.98839459398E-04 +2.36129031447E-01 -5.01743981031E-01
4.16000000000E+09 +1.79257237729E-01 -5.22714188498E-01 -2.63301417501E-03 +3.30805077562E-04 -2.69399542331E-03 +3.30418919476E-04 +2.15858624934E-01 -4.98137467516E-01
4.16500000000E+09 +1.61472036526E-01 -5.23276624910E-01 -2.54466229622E-03 +1.25071956612E-03 -2.59952256389E-03 +1.24770467723E-03 +1.95511324867E-01 -4.93977456910E-01
4.17000000000E+09 +1.45550263103E-01 -5.21750841375E-01 -2.28182268615E-03 +1.54660773469E-03 -2.33876057927E-03 +1.63168131017E-03 +1.74656167883E-01 -4.89013909618E-01
4.17500000000E+09 +1.30044979375E-01 -5.18902392728E-01 -1.88587408558E-03 +2.20804548367E-03 -1.94394194444E-03 +2.23721592626E-03 +1.53601396811E-01 -4.82838349271E-01
4.18000000000E+09 +1.14473593584E-01 -5.14926286292E-01 -1.32055105992E-03 +2.42147367707E-03 -1.36896001141E-03 +2.50006895300E-03 +1.33324338112E-01 -4.75504927516E-01
4.18500000000E+09 +9.77568823157E-02 -5.10287369067E-01 -6.40640815121E-04 +2.30689561842E-03 -7.16522726706E-04 +2.42813059166E-03 +1.13817138210E-01 -4.68860222627E-01
4.19000000000E+09 +7.98522623129E-02 -5.04579865826E-01 -7.59458265614E-04 +1.83959741359E-03 -7.75105192201E-04 +1.88460759736E-03 +9.29650846035E-02 -4.61420078932E-01
4.19500000000E+09 +6.15340890981E-02 -4.98148872596E-01 -9.96888811944E-04 +1.97351980105E-03 -1.00556751386E-03 +1.99968738453E-03 +7.23742790509E-02 -4.52038365845E-01
4.20000000000E+09 +4.30591881908E-02 -4.92414855923E-01 -9.27634943351E-04 +2.62904144452E-03 -9.86158357436E-04 +2.67802847088E-03 +5.30134223743E-02 -4.41592034863E-01
4.20500000000E+09 +2.46905689019E-02 -4.87029777024E-01 -6.52543060093E-04 +2.81262856863E-03 -6.85227007535E-04 +2.89758280631E-03 +3.29270939995E-02 -4.31411842616E-01
4.21000000000E+09 +6.44467940545E-03 -4.82082673365E-01 -2.02403986929E-04 +3.55190996608E-03 -2.32252285606E-04 +3.70546350908E-03 +1.31954690165E-02 -4.19480166419E-01
4.21500000000E+09 -1.15161179619E-02 -4.76330851655E-01 +9.42475053942E-04 +3.83283097733E-03 +9.67614470982E-04 +3.90600993758E-03 -5.68765061725E-03 -4.07330047613E-01
4.22000000000E+09 -2.87804329442E-02 -4.68826961431E-01 +1.95109315457E-03 +3.21809385558E-03 +2.03743914017E-03 +3.28367397733E-03 -2.38692745294E-02 -3.94713624010E-01
4.22500000000E+09 -4.43068361409E-02 -4.59692183142E-01 +2.37992109526E-03 +2.25205122237E-03 +2.37848654121E-03 +2.26594319002E-03 -4.13102874212E-02 -3.80691557466E-01
4.23000000000E+09 -5.91524326378E-02 -4.48958797331E-01 +1.86368643234E-03 +1.59051245424E-03 +1.92495581423E-03 +1.67388835566E-03 -5.76847735650E-02 -3.66642701531E-01
4.23500000000E+09 -7.42667198426E-02 -4.37493313589E-01 +1.61709194552E-03 +2.09042068131E-03 +1.65727104599E-03 +2.14621199676E-03 -7.47241116398E-02 -3.51283711381E-01
4.24000000000E+09 -9.05212921996E-02 -4.24707581508E-01 +1.99879921392E-03 +2.36067682094E-03 +2.09144113771E-03 +2.40528169301E-03 -9.03493391349E-02 -3.34586368870E-01
4.24500000000E+09 -1.07726994075E-01 -4.11315830998E-01 +2.93766692684E-03 +2.47687546057E-03 +3.04104531091E-03 +2.45167393025E-03 -1.05765803199E-01 -3.17718286229E-01
4.25000000000E+09 -1.26227213911E-01 -3.97765746957E-01 +3.94616203167E-03 +1.67663181938E-03 +4.08364271182E-03 +1.64566274626E-03 -1.20181375593E-01 -2.99687011464E-01
4.25500000000E+09 -1.44888027832E-01 -3.84328022293E-01 +4.10800908266E-03 +2.23958272576E-04 +4.16306285252E-03 +2.44739126641E-04 -1.33002150334E-01 -2.82221564357E-01
4.26000000000E+09 -1.63962929443E-01 -3.72136242430E-01 +3.21454251668E-03 -3.71011765288E-04 +3.23261031291E-03 -4.48012247715E-04 -1.45865469000E-01 -2.64946608276E-01
4.26500000000E+09 -1.82504087329E-01 -3.60163910060E-01 +3.14413585517E-03 -2.50655853249E-04 +3.21979218745E-03 -2.88427615465E-04 -1.58167669342E-01 -2.46216572964E-01
4.27000000000E+09 -1.99203169602E-01 -3.48765806125E-01 +3.35529684996E-03 -4.76870069086E-04 +3.38258299004E-03 -5.61944757833E-04 -1.70317866946E-01 -2.27086178423E-01
4.27500000000E+09 -2.15002112073E-01 -3.36962060950E-01 +3.38316217756E-03 -1.23280081766E-03 +3.34752254353E-03 -1.34795359824E-03 -1.81674454602E-01 -2.06492600536E-01
4.28000000000E+09 -2.28593166695E-01 -3.23108442111E-01 +3.00531375200E-03 -1.46303119328E-03 +2.89371719812E-03 -1.49129406427E-03 -1.91970965289E-01 -1.85879189787E-01
4.28500000000E+09 -2.39488127496E-01 -3.08118853658E-01 +3.18333078164E-03 -1.68467389015E-03 +3.22606308470E-03 -1.65652583697E-03 -2.01026686132E-01 -1.65085368415E-01
4.29000000000E+09 -2.49210225802E-01 -2.92786958470E-01 +3.19002980304E-03 -2.46239328910E-03 +3.14396979128E-03 -2.47783236252E-03 -2.09123219656E-01 -1.45028623225E-01
4.29500000000E+09 -2.59858593965E-01 -2.75954763060E-01 +2.68091922000E-03 -3.33612231380E-03 +2.64706300331E-03 -3.39033206917E-03 -2.16396432858E-01 -1.25038086842E-01
4.30000000000E+09 -2.71210814992E-01 -2.56720414243E-01 +1.59335537604E-03 -3.49616435662E-03 +1.54887558341E-03 -3.57081419658E-03 -2.22629218520E-01 -1.04692236752E-01
4.30500000000E+09 -2.82937148844E-01 -2.36931809786E-01 +1.26125665397E-03 -3.39286635777E-03 +1.23462212430E-03 -3.44669737854E-03 -2.28013942310E-01 -8.36063625627E-02
4.31000000000E+09 -2.95043785047E-01 -2.16683279232E-01 +7.58515749476E-04 -3.78472055095E-03 +7.78781756175E-04 -3.74195428384E-03 -2.31907009111E-01 -6.23569744691E-02
4.31500000000E+09 -3.07557452148E-01 -1.97699647861E-01 +7.55647901793E-05 -3.49796868679E-03 +7.12639167721E-05 -3.54186457137E-03 -2.34926366466E-01 -4.05890078837E-02
4.32000000000E+09 -3.19103333362E-01 -1.80310587331E-01 -1.95083377794E-04 -3.21128822992E-03 -2.30656295898E-04 -3.22995367627E-03 -2.37125483779E-01 -1.94227962048E-02
4.32500000000E+09 -3.30846425621E-01 -1.64607083838E-01 -5.99075146766E-05 -3.31398316089E-03 -1.29907257197E-04 -3.35168755277E-03 -2.38804351504E-01 +1.82336995689E-03
4.33000000000E+09 -3.40708932758E-01 -1.48463881498E-01 -8.27037129165E-04 -3.70825852867E-03 -9.09378882606E-04 -3.69090625718E-03 -2.39478397571E-01 +2.28959617190E-02
4.33500000000E+09 -3.47193092648E-01 -1.32789674139E-01 -1.20997686337E-03 -3.57877693747E-03 -1.26743754717E-03 -3.56596111300E-03 -2.39378403990E-01 +4.37558881138E-02
4.34000000000E+09 -3.51430453713E-01 -1.17237393705E-01 -2.30999296062E-03 -3.61241796864E-03 -2.29458212871E-03 -3.51581267961E-03 -2.38608170356E-01 +6.43833238575E-02
4.34500000000E+09 -3.53848946737E-01 -1.00598251592E-01 -2.86413448308E-03 -2.64604281802E-03 -2.89879518087E-03 -2.61731036319E-03 -2.36656447113E-01 +8.49389412805E-02
4.35000000000E+09 -3.55293436846E-01 -8.26925974351E-02 -2.65068060449E-03 -1.80168012030E-03 -2.61711266343E-03 -1.78407007172E-03 -2.34733116419E-01 +1.04114200839E-01
4.35500000000E+09 -3.57260534201E-01 -6.22234588485E-02 -2.56372337730E-03 -2.11973064637E-03 -2.63909120921E-03 -2.10801099440E-03 -2.32175205432E-01 +1.23765365674E-01
4.36000000000E+09 -3.59202464277E-01 -3.96949557808E-02 -3.13968693586E-03 -1.68380057871E-03 -3.17827622271E-03 -1.58482151260E-03 -2.28774420981E-01 +1.42222139554E-01
4.36500000000E+09 -3.61116529242E-01 -1.67851850007E-02 -3.47392472013E-03 -1.59383363262E-03 -3.46596616211E-03 -1.49061337755E-03 -2.24892553590E-01 +1.60744070652E-01
4.37000000000E+09 -3.64695416126E-01 +5.75703997089E-03 -3.98044595119E-03 -7.07874804645E-04 -3.95210500014E-03 -6.11788615079E-04 -2.19909213004E-01 +1.78799590133E-01
4.37500000000E+09 -3.68678096754E-01 +2.60904337030E-02 -3.72345899931E-03 +8.74852592625E-06 -3.71391720790E-03 +2.62276965191E-05 -2.14409321115E-01 +1.96474782806E-01
4.38000000000E+09 -3.74665921233E-01 +4.55466518699E-02 -3.65033990298E-03 +5.03837327424E-04 -3.63788527512E-03 +5.25027829884E-04 -2.08132096222E-01 +2.13874128453E-01
4.38500000000E+09 -3.79096020116E-01 +6.34812502907E-02 -3.39512797565E-03 +1.21299310559E-03 -3.34757688687E-03 +1.28934870941E-03 -2.01628733006E-01 +2.31411171978E-01
4.39000000000E+09 -3.81697679073E-01 +7.96710994109E-02 -3.07826405561E-03 +1.51135162198E-03 -3.03074559086E-03 +1.56759844866E-03 -1.94451875703E-01 +2.48498229437E-01
4.39500000000E+09 -3.82071841111E-01 +9.44468376558E-02 -2.66242957171E-03 +1.86725626167E-03 -2.57252185490E-03 +1.93066784692E-03 -1.87330774197E-01 +2.64236021770E-01
4.40000000000E+09 -3.79888812432E-01 +1.08546267086E-01 -2.29085328184E-03 +2.03807866634E-03 -2.18762971223E-03 +2.08578094759E-03 -1.79692431039E-01 +2.80624126855E-01
4.40500000000E+09 -3.75721582733E-01 +1.23121269906E-01 -2.21765156476E-03 +2.05195758312E-03 -2.11356495879E-03 +2.07257194609E-03 -1.70807825322E-01 +2.95757138937E-01
4.41000000000E+09 -3.70891257619E-01 +1.39193651879E-01 -2.03154377516E-03 +2.47564649386E-03 -1.92942047051E-03 +2.54630051528E-03 -1.61450725151E-01 +3.10121222092E-01
4.41500000000E+09 -3.64906452805E-01 +1.57925850143E-01 -1.73135322084E-03 +2.86652098690E-03 -1.63340846300E-03 +2.84600582987E-03 -1.52133526919E-01 +3.23662033823E-01
4.42000000000E+09 -3.58381105203E-01 +1.78266142768E-01 -1.16974604558E-03 +3.36826280199E-03 -1.05631512364E-03 +3.26197756836E-03 -1.42715421050E-01 +3.37949532119E-01
4.42500000000E+09 -3.52835858309E-01 +1.98593126639E-01 -2.29078608737E-04 +3.26178618396E-03 -1.84184981787E-04 +3.18434543622E-03 -1.32406277759E-01 +3.50775330091E-01
4.43000000000E+09 -3.49592472667E-01 +2.19235736444E-01 +2.01331722892E-04 +2.93588345667E-03 +2.53657728381E-04 +2.83967541386E-03 -1.23731570093E-01 +3.63452878294E-01
4.43500000000E+09 -3.47035773385E-01 +2.39402761679E-01 +4.67563731802E-04 +2.50091420862E-03 +5.12299774390E-04 +2.45105738677E-03 -1.13648744326E-01 +3.76607414249E-01
4.44000000000E+09 -3.44710725072E-01 +2.58070662598E-01 +4.78376607568E-04 +2.44087802792E-03 +4.99714157434E-04 +2.32247870377E-03 -1.03485056992E-01 +3.88305446783E-01
4.44500000000E+09 -3.42344504063E-01 +2.74019166070E-01 +6.91442959124E-04 +2.33771371127E-03 +7.17780014170E-04 +2.24734423092E-03 -9.28111163508E-02 +3.99674026587E-01
4.45000000000E+09 -3.39490536194E-01 +2.87976987101E-01 +7.01885440023E-04 +2.59585811617E-03 +7.19265436877E-04 +2.48764537635E-03 -8.18275930944E-02 +4.09871667902E-01
4.45500000000E+09 -3.34849715140E-01 +3.00767780318E-01 +1.53239526499E-03 +2.63528616491E-03 +1.54296338268E-03 +2.52996791407E-03 -7.11969948429E-02 +4.19803970150E-01
4.46000000000E+09 -3.28675871721E-01 +3.13022959423E-01 +1.98502756969E-03 +1.75170375462E-03 +1.94803933145E-03 +1.64333377302E-03 -6.03524795487E-02 +4.29496840587E-01
4.46500000000E+09 -3.19984077824E-01 +3.25763189358E-01 +1.75021688775E-03 +1.55881696761E-03 +1.71361541704E-03 +1.45615179097E-03 -4.88924561805E-02 +4.38658656824E-01
4.47000000000E+09 -3.10134231439E-01 +3.39796261381E-01 +1.79311125592E-03 +1.42165156823E-03 +1.75882099217E-03 +1.31095591445E-03 -3.82613325369E-02 +4.47898998592E-01
4.47500000000E+09 -2.98619265874E-01 +3.56015392394E-01 +2.07214819267E-03 +1.46811922776E-03 +2.06048018828E-03 +1.37329086962E-03 -2.63727499699E-02 +4.57343012537E-01
4.48000000000E+09 -2.86986791613E-01 +3.72833883196E-01 +2.52904266978E-03 +1.23960471085E-03 +2.45690522106E-03 +1.13645562753E-03 -1.44995792597E-02 +4.65069193650E-01
4.48500000000E+09 -2.75999580429E-01 +3.89700420769E-01 +2.65485459521E-03 +3.25465494021E-04 +2.54186426990E-03 +2.68561350087E-04 -3.20930215921E-03 +4.72917352469E-01
4.49000000000E+09 -2.67586215840E-01 +4.06697030252E-01 +2.54542286540E-03 -4.41855057801E-05 +2.42934609378E-03 +7.33913425531E-05 +8.84130345043E-03 +4.80156624701E-01
4.49500000000E+09 -2.59831435895E-01 +4.22946211730E-01 +2.10199442545E-03 -3.23009905510E-04 +2.01292603606E-03 -3.26142432219E-04 +1.97242225387E-02 +4.86418055564E-01
4.50000000000E+09 -2.53242976158E-01 +4.36675688430E-01 +2.17610724359E-03 -3.21390255803E-04 +2.15034443827E-03 -2.80700150078E-04 +3.09922604861E-02 +4.92894004000E-01
4.50500000000E+09 -2.48066632297E-01 +4.48256935234E-01 +2.27968603314E-03 -7.92474877473E-04 +2.23316715881E-03 -7.20371215837E-04 +4.22600943857E-02 +4.98813575661E-01
4.51000000000E+09 -2.42400112458E-01 +4.58489789654E-01 +2.03100188981E-03 -1.29512171594E-03 +1.98958212769E-03 -1.23665892029E-03 +5.34723028705E-02 +5.04612574888E-01
4.51500000000E+09 -2.34409779953E-01 +4.66675783490E-01 +1.52333720421E-03 -1.39658496698E-03 +1.54554478221E-03 -1.37095020320E-03 +6.47588532464E-02 +5.10377414377E-01
4.52000000000E+09 -2.25443044567E-01 +4.74113776730E-01 +1.31188685890E-03 -1.50973886573E-03 +1.30759152427E-03 -1.45195376542E-03 +7.66047574857E-02 +5.15179701336E-01
4.52500000000E+09 -2.13768857924E-01 +4.81741051341E-01 +1.19301829200E-03 -1.42734241965E-03 +1.14367021109E-03 -1.36897452266E-03 +8.77868457814E-02 +5.19239320597E-01
4.53000000000E+09 -2.00966732651E-01 +4.89929739964E-01 +1.18874320852E-03 -1.67645643278E-03 +1.13669533352E-03 -1.61721413365E-03 +9.92493436410E-02 +5.23164433102E-01
4.53500000000E+09 -1.86354343299E-01 +4.99419272602E-01 +7.47318701504E-04 -1.89686994110E-03 +7.18337443192E-04 -1.86552661781E-03 +1.10127372176E-01 +5.26693361725E-01
4.54000000000E+09 -1.71821572711E-01 +5.09377344156E-01 +3.41821383091E-04 -2.07955592185E-03 +3.84157861017E-04 -2.03650928339E-03 +1.21377816064E-01 +5.30089741681E-01
4.54500000000E+09 -1.58449925682E-01 +5.20266940489E-01 -2.66762663606E-04 -1.67534616838E-03 -2.68295707857E-04 -1.59075396239E-03 +1.31893705066E-01 +5.33906434335E-01
4.55000000000E+09 -1.46263606095E-01 +5.30862793267E-01 -3.08204165876E-04 -1.21124875277E-03 -3.26036971599E-04 -1.21374608036E-03 +1.43887749777E-01 +5.37598963856E-01
4.55500000000E+09 -1.35894878413E-01 +5.41175659834E-01 +2.14035364002E-05 -1.19754965390E-03 +5.35472740484E-06 -1.20542481134E-03 +1.54806308548E-01 +5.39992261532E-01
4.56000000000E+09 -1.26643655876E-01 +5.50397142833E-01 -1.32436861518E-04 -1.51194840145E-03 -1.44603505517E-04 -1.47890910419E-03 +1.65405697457E-01 +5.43048932917E-01
4.56500000000E+09 -1.17570168376E-01 +5.57887707104E-01 -4.44946135392E-04 -1.58907127148E-03 -4.92615748407E-04 -1.53308079637E-03 +1.75844804463E-01 +5.45227595722E-01
4.57000000000E+09 -1.08523060529E-01 +5.63491583961E-01 -8.67192484642E-04 -1.35571791800E-03 -8.47754755626E-04 -1.28777037527E-03 +1.86283551025E-01 +5.47640731162E-01
