# Hz S RI R 50
! CMT, C1220, 16058040, 17.2.0/1
! Date: 15/08/2018 11:31:41
! Data: Format (Calibration Info)
! Freq                      S11: Re/Im (F2)                       S21: Re/Im (F2)                       S12: Re/Im (F2)                       S22: Re/Im (F2)            
4.00000000000E+09 +6.64866178396E-01 -3.56535511866E-01 +1.18693385689E-03 -3.64834946627E-03 +1.35910709772E-03 -3.69695983486E-03 +7.74861525725E-01 -3.55547552243E-01
4.00500000000E+09 +6.56931171028E-01 -3.64538585850E-01 +7.31090715801E-04 -3.86572113894E-03 +8.80755932736E-04 -3.99539210393E-03 +7.66537255870E-01 -3.66888779061E-01
4.01000000000E+09 +6.48252178898E-01 -3.71721859104E-01 +1.59407373622E-04 -3.90040684133E-03 +2.72515720859E-04 -3.97155765369E-03 +7.57597248112E-01 -3.78296555567E-01
4.01500000000E+09 +6.38959005261E-01 -3.79107467372E-01 -3.70609772336E-04 -3.89347512004E-03 -2.36016506032E-04 -3.92384180139E-03 +7.47899147175E-01 -3.88961612458E-01
4.02000000000E+09 +6.29013469170E-01 -3.87569189816E-01 -6.38688257664E-04 -3.74817899673E-03 -4.73900573144E-04 -3.79098409246E-03 +7.37954053639E-01 -3.99538475887E-01
4.02500000000E+09 +6.17928306252E-01 -3.96620296923E-01 -8.10481553868E-04 -3.72587142406E-03 -6.67700974603E-04 -3.80690751033E-03 +7.27653163024E-01 -4.09746012714E-01
4.03000000000E+09 +6.06218413737E-01 -4.06056842534E-01 -1.17458147920E-03 -3.91675386240E-03 -1.03833081540E-03 -4.03368729057E-03 +7.17253800517E-01 -4.20431939410E-01
4.03500000000E+09 +5.94517281685E-01 -4.15366754649E-01 -1.92841732121E-03 -3.66671541879E-03 -1.87949128966E-03 -3.88684188494E-03 +7.06205441223E-01 -4.31553511826E-01
4.04000000000E+09 +5.83110492870E-01 -4.25223875687E-01 -2.06780287373E-03 -3.22200289486E-03 -1.96363467195E-03 -3.43567806357E-03 +6.94724128729E-01 -4.42718160528E-01
4.04500000000E+09 +5.71371097298E-01 -4.34731581236E-01 -2.23530481495E-03 -3.24610259633E-03 -2.19556657650E-03 -3.45514555930E-03 +6.82750882619E-01 -4.53634805472E-01
4.05000000000E+09 +5.59807651491E-01 -4.43428680239E-01 -2.61884677462E-03 -3.10143575989E-03 -2.61327322010E-03 -3.36469718832E-03 +6.70819180241E-01 -4.63406805692E-01
4.05500000000E+09 +5.47887278910E-01 -4.51480751857E-01 -2.66944882691E-03 -2.94401317970E-03 -2.70520090631E-03 -3.21426281537E-03 +6.58260781516E-01 -4.73111285759E-01
4.06000000000E+09 +5.34945539777E-01 -4.58973707473E-01 -3.33226726536E-03 -3.09915864743E-03 -3.44844347963E-03 -3.31109002691E-03 +6.45605227915E-01 -4.82533503550E-01
4.06500000000E+09 +5.21606757823E-01 -4.64982026311E-01 -4.04805473491E-03 -2.39778128921E-03 -4.11770813262E-03 -2.52942667040E-03 +6.32092911981E-01 -4.91283916896E-01
4.07000000000E+09 +5.07940001403E-01 -4.71830907522E-01 -3.95544338832E-03 -1.84045765581E-03 -4.00321830176E-03 -1.99047885666E-03 +6.18420826411E-01 -5.00534307207E-01
4.07500000000E+09 +4.92587571678E-01 -4.78855986596E-01 -4.10788623497E-03 -1.65442489458E-03 -4.15233310037E-03 -1.82383367451E-03 +6.04642498812E-01 -5.09656275950E-01
4.08000000000E+09 +4.76542365202E-01 -4.85458892927E-01 -4.37281935078E-03 -1.26098560008E-03 -4.44976986196E-03 -1.41669380622E-03 +5.91103792656E-01 -5.18940834804E-01
4.08500000000E+09 +4.60309223604E-01 -4.92516144182E-01 -4.39123988914E-03 -7.42078526439E-04 -4.53730690000E-03 -8.73427199702E-04 +5.77152380580E-01 -5.28364809888E-01
4.09000000000E+09 +4.43928623610E-01 -4.99997916107E-01 -4.58868847655E-03 -5.11231226005E-04 -4.70831293629E-03 -6.37554110608E-04 +5.62731935538E-01 -5.37016595975E-01
4.09500000000E+09 +4.27470504835E-01 -5.06731210866E-01 -4.80797216866E-03 +1.94917024554E-05 -4.99328276154E-03 -2.67001500319E-05 +5.47354675235E-01 -5.44693730764E-01
4.10000000000E+09 +4.12170674995E-01 -5.13497477361E-01 -4.42794265548E-03 +4.51762030922E-04 -4.56218352115E-03 +4.14872969810E-04 +5.31482599542E-01 -5.51765779707E-01
4.10500000000E+09 +3.95794136932E-01 -5.20001572308E-01 -4.76792725743E-03 +5.22588780391E-04 -4.83913127688E-03 +4.84275424708E-04 +5.15275022935E-01 -5.58609071199E-01
4.11000000000E+09 +3.79002623915E-01 -5.24082299761E-01 -5.18255250290E-03 +1.37253515961E-03 -5.30654358841E-03 +1.30103795078E-03 +4.98350980591E-01 -5.66271953844E-01
4.11500000000E+09 +3.63153487947E-01 -5.26609114847E-01 -4.77958009919E-03 +2.27435655760E-03 -4.91063628280E-03 +2.21168329440E-03 +4.80886342440E-01 -5.73963740315E-01
4.12000000000E+09 +3.46667197596E-01 -5.28924844591E-01 -4.36678067982E-03 +2.64286938302E-03 -4.51953235094E-03 +2.65489530392E-03 +4.63299589077E-01 -5.80471757454E-01
4.12500000000E+09 +3.29865271583E-01 -5.30583632712E-01 -4.04456864396E-03 +3.15729468430E-03 -4.26446851124E-03 +3.15786639647E-03 +4.46108565680E-01 -5.86255579027E-01
4.13000000000E+09 +3.12486975945E-01 -5.33139246791E-01 -3.38473685201E-03 +3.40931363909E-03 -3.51969116686E-03 +3.32689591005E-03 +4.28769375571E-01 -5.91927429556E-01
4.13500000000E+09 +2.93289699579E-01 -5.36440721256E-01 -3.10793829445E-03 +3.25151009825E-03 -3.26511302049E-03 +3.20676014004E-03 +4.10912115687E-01 -5.97344870446E-01
4.14000000000E+09 +2.73166381297E-01 -5.39414275941E-01 -3.26608939389E-03 +3.37345280204E-03 -3.43974905449E-03 +3.36490729790E-03 +3.90933751950E-01 -6.02689393406E-01
4.14500000000E+09 +2.53720818242E-01 -5.42135164719E-01 -3.45974770039E-03 +4.06151941634E-03 -3.67730327661E-03 +4.13551186837E-03 +3.70816184132E-01 -6.06761953170E-01
4.15000000000E+09 +2.34925151694E-01 -5.46491869606E-01 -2.54711387129E-03 +4.77509146848E-03 -2.79654672679E-03 +4.93887320987E-03 +3.51795159935E-01 -6.10380283654E-01
4.15500000000E+09 +2.15203977334E-01 -5.49478534640E-01 -2.19970020040E-03 +4.84094635306E-03 -2.36360189523E-03 +5.00267405632E-03 +3.32541271871E-01 -6.14107094951E-01
4.16000000000E+09 +1.97452717108E-01 -5.51351085217E-01 -1.64340306312E-03 +5.19938682253E-03 -1.73000266394E-03 +5.29591701187E-03 +3.13494323172E-01 -6.16829445728E-01
4.16500000000E+09 +1.80334588719E-01 -5.52318426114E-01 -1.08160808724E-03 +5.10275446521E-03 -1.13833730003E-03 +5.21075688145E-03 +2.93661506317E-01 -6.18965056909E-01
4.17000000000E+09 +1.63051253918E-01 -5.51630483348E-01 -9.76845090248E-04 +5.15959166573E-03 -1.10125584354E-03 +5.28473643441E-03 +2.73328515447E-01 -6.19929646060E-01
4.17500000000E+09 +1.45967105877E-01 -5.48774855108E-01 -4.35803769643E-04 +5.64857846197E-03 -5.39894483733E-04 +5.78838683154E-03 +2.52998140651E-01 -6.20360111301E-01
4.18000000000E+09 +1.29209682116E-01 -5.44674048913E-01 +4.33015508811E-04 +5.68059844427E-03 +3.33480703145E-04 +5.89100877247E-03 +2.31770095907E-01 -6.21273980777E-01
4.18500000000E+09 +1.10357225537E-01 -5.41026812396E-01 +7.63873196460E-04 +5.23759947957E-03 +7.50692427889E-04 +5.41138156736E-03 +2.09410329455E-01 -6.21556922245E-01
4.19000000000E+09 +9.04276661712E-02 -5.35415736908E-01 +8.10988556180E-04 +5.38513345619E-03 +7.56366661813E-04 +5.63060130318E-03 +1.86900229014E-01 -6.20536748519E-01
4.19500000000E+09 +7.05462563187E-02 -5.30102495331E-01 +1.29188488191E-03 +5.71521022834E-03 +1.34332659142E-03 +5.92905412348E-03 +1.64846268625E-01 -6.18290281545E-01
4.20000000000E+09 +4.94954843477E-02 -5.25552712378E-01 +1.99633075695E-03 +5.79644223207E-03 +1.97124831359E-03 +6.03124639048E-03 +1.43585284962E-01 -6.15572508016E-01
4.20500000000E+09 +2.84717932425E-02 -5.21123323467E-01 +2.95288106883E-03 +5.94560594719E-03 +3.01398151507E-03 +6.17784025812E-03 +1.21391140197E-01 -6.12509303187E-01
4.21000000000E+09 +7.95072369955E-03 -5.16263837179E-01 +3.97297535424E-03 +5.50159694942E-03 +4.07930134995E-03 +5.69692535597E-03 +9.84279334815E-02 -6.08640655011E-01
4.21500000000E+09 -1.09774497816E-02 -5.11790502616E-01 +4.21833304663E-03 +4.54861931227E-03 +4.32744955434E-03 +4.73878806175E-03 +7.52804929283E-02 -6.03429204612E-01
4.22000000000E+09 -2.95326423789E-02 -5.05897412154E-01 +4.44898179884E-03 +4.53590303076E-03 +4.53778380162E-03 +4.67180882130E-03 +5.32740706600E-02 -5.97484726142E-01
4.22500000000E+09 -4.61150215863E-02 -4.98865985270E-01 +5.12853121694E-03 +4.31336147158E-03 +5.21505627517E-03 +4.44871227166E-03 +3.16136941884E-02 -5.91429832866E-01
4.23000000000E+09 -6.24125181379E-02 -4.90969207178E-01 +5.84362727876E-03 +3.75715294972E-03 +5.96391808229E-03 +3.82516306807E-03 +1.09211113497E-02 -5.84210931129E-01
4.23500000000E+09 -7.95825837215E-02 -4.80697774059E-01 +5.99090129725E-03 +3.16170343056E-03 +6.08891158649E-03 +3.17774370032E-03 -1.10442990256E-02 -5.77185597064E-01
4.24000000000E+09 -9.64521108136E-02 -4.68522893392E-01 +6.38134381809E-03 +2.75350395406E-03 +6.53480674024E-03 +2.82600974054E-03 -3.34163612517E-02 -5.67925573754E-01
4.24500000000E+09 -1.13535474576E-01 -4.55856399131E-01 +6.72197948244E-03 +1.91826343184E-03 +6.91003324688E-03 +1.91991242632E-03 -5.53386056848E-02 -5.57133733008E-01
4.25000000000E+09 -1.32723627624E-01 -4.42700138202E-01 +6.78414576523E-03 +1.83027583357E-03 +6.92287417590E-03 +1.83406879774E-03 -7.61050888876E-02 -5.46628692939E-01
4.25500000000E+09 -1.52353942373E-01 -4.29735045760E-01 +7.59074662259E-03 +1.34999385623E-03 +7.77764860319E-03 +1.30138909543E-03 -9.67393999576E-02 -5.35238933401E-01
4.26000000000E+09 -1.72415311221E-01 -4.17326778066E-01 +8.53855713938E-03 +6.51044261346E-06 +8.70638611109E-03 -6.90451062409E-05 -1.17268766296E-01 -5.23190897049E-01
4.26500000000E+09 -1.92936836826E-01 -4.05982551726E-01 +8.05303330193E-03 -1.35826707041E-03 +8.19049058900E-03 -1.45759187769E-03 -1.37280760661E-01 -5.10004848456E-01
4.27000000000E+09 -2.12797826522E-01 -3.93700758089E-01 +7.83683354665E-03 -2.24756678379E-03 +7.95357826633E-03 -2.31632876766E-03 -1.58473510367E-01 -4.96024961239E-01
4.27500000000E+09 -2.30620984724E-01 -3.81772579524E-01 +7.38379611960E-03 -3.42862256918E-03 +7.49729114612E-03 -3.56048177032E-03 -1.78825976483E-01 -4.79722053964E-01
4.28000000000E+09 -2.46499362960E-01 -3.69181417551E-01 +6.47704613397E-03 -3.70390739351E-03 +6.47403302095E-03 -3.83201559440E-03 -1.97474135534E-01 -4.65332094484E-01
4.28500000000E+09 -2.60371788578E-01 -3.56049514652E-01 +6.44753006478E-03 -3.69877034687E-03 +6.53660217172E-03 -3.85335600738E-03 -2.18729468777E-01 -4.50007235774E-01
4.29000000000E+09 -2.73066729004E-01 -3.41895372823E-01 +6.77671854644E-03 -4.82885429171E-03 +6.86206289987E-03 -5.01177710034E-03 -2.38170365133E-01 -4.32659888511E-01
4.29500000000E+09 -2.84789676795E-01 -3.26937578770E-01 +5.63011564153E-03 -5.86590854295E-03 +5.75699397459E-03 -6.02629508418E-03 -2.55709547011E-01 -4.13617028794E-01
4.30000000000E+09 -2.97634709623E-01 -3.10301620277E-01 +5.74642462039E-03 -5.95653269506E-03 +5.77722673777E-03 -6.16172585825E-03 -2.71781768183E-01 -3.95212122473E-01
4.30500000000E+09 -3.10942307759E-01 -2.92178586134E-01 +4.87120648482E-03 -7.38111223856E-03 +4.90306597685E-03 -7.56472790428E-03 -2.87179242632E-01 -3.75785907179E-01
4.31000000000E+09 -3.24305639433E-01 -2.72309277429E-01 +3.75407059103E-03 -7.71723096159E-03 +3.71838288374E-03 -7.86736768207E-03 -3.02553277509E-01 -3.55803753048E-01
4.31500000000E+09 -3.37391662075E-01 -2.52520726873E-01 +3.12402005631E-03 -7.91411562236E-03 +3.09523079457E-03 -8.10966333877E-03 -3.18119784757E-01 -3.34929465767E-01
4.32000000000E+09 -3.49453325471E-01 -2.32834542597E-01 +2.01492607868E-03 -8.72063743697E-03 +2.01696825984E-03 -8.89927650538E-03 -3.32029016159E-01 -3.12626342281E-01
4.32500000000E+09 -3.60020196452E-01 -2.14939745148E-01 +1.31767380886E-04 -8.57968417311E-03 +2.84191207027E-05 -8.71337315222E-03 -3.44134772934E-01 -2.90709256801E-01
4.33000000000E+09 -3.70983037846E-01 -1.98616428302E-01 +1.57198364320E-04 -7.14200085009E-03 -3.70147503927E-05 -7.26470478445E-03 -3.55785002695E-01 -2.70178037704E-01
4.33500000000E+09 -3.81113077370E-01 -1.80942530506E-01 +4.38066053759E-04 -7.62998248982E-03 +3.55625784347E-04 -7.66939891409E-03 -3.68143019276E-01 -2.46892535642E-01
4.34000000000E+09 -3.88672440160E-01 -1.62265667691E-01 -1.90549250693E-04 -8.36137438558E-03 -3.33404489257E-04 -8.42480312220E-03 -3.79154145701E-01 -2.22268917981E-01
4.34500000000E+09 -3.94352211916E-01 -1.42857151756E-01 -9.71657315236E-04 -9.05335946051E-03 -1.03320359592E-03 -9.04830105785E-03 -3.88269236683E-01 -1.96714678459E-01
4.35000000000E+09 -3.98049388574E-01 -1.21969012208E-01 -2.63205138749E-03 -9.63275048196E-03 -2.72810009676E-03 -9.59731819617E-03 -3.96879058813E-01 -1.72685153724E-01
4.35500000000E+09 -4.00890647390E-01 -1.00353754088E-01 -4.55252013898E-03 -8.90934219174E-03 -4.65466377240E-03 -8.97799594979E-03 -4.05615141598E-01 -1.49210544368E-01
4.36000000000E+09 -4.03907557281E-01 -7.88651907862E-02 -5.11556153407E-03 -7.40227390986E-03 -5.26166543246E-03 -7.41250770758E-03 -4.13423146385E-01 -1.25846504653E-01
4.36500000000E+09 -4.08905835259E-01 -5.58560233203E-02 -5.53864039943E-03 -7.38304857120E-03 -5.68944197065E-03 -7.38169569353E-03 -4.19365245077E-01 -1.00595984600E-01
4.37000000000E+09 -4.13896366742E-01 -3.17821786717E-02 -6.20536103031E-03 -6.63585946804E-03 -6.37074420637E-03 -6.65180861721E-03 -4.23363369862E-01 -7.59617667387E-02
4.37500000000E+09 -4.18637690862E-01 -9.04013539698E-03 -6.73250674891E-03 -6.50868805577E-03 -6.89728779840E-03 -6.40619034125E-03 -4.25339001433E-01 -5.06640656576E-02
4.38000000000E+09 -4.23498164618E-01 +1.27320928891E-02 -7.54921900219E-03 -5.77164133982E-03 -7.81384499520E-03 -5.73202165614E-03 -4.28311649565E-01 -2.69773776842E-02
4.38500000000E+09 -4.27424977389E-01 +3.32507139398E-02 -8.59942591861E-03 -5.20253816372E-03 -8.84376819170E-03 -5.00592553506E-03 -4.31244333976E-01 -1.20894384261E-03
4.39000000000E+09 -4.30100336873E-01 +5.20894400302E-02 -8.93197104461E-03 -4.34527317288E-03 -9.12442595194E-03 -4.15587787654E-03 -4.32841522390E-01 +2.58986458013E-02
4.39500000000E+09 -4.30751591894E-01 +6.95604437100E-02 -1.00308279889E-02 -3.74137924774E-03 -1.01954615560E-02 -3.43990748962E-03 -4.31574725740E-01 +5.17625593334E-02
4.40000000000E+09 -4.30191851794E-01 +8.70453296819E-02 -1.10176166982E-02 -1.91799858902E-03 -1.10991060423E-02 -1.68462510228E-03 -4.28973619570E-01 +7.55428187318E-02
4.40500000000E+09 -4.27594849511E-01 +1.04553564256E-01 -1.11325608783E-02 -4.72313074519E-04 -1.11943533846E-02 -1.77334791919E-04 -4.26191874298E-01 +9.88411973988E-02
4.41000000000E+09 -4.24710053072E-01 +1.23237895063E-01 -1.07746888803E-02 +1.79332188003E-03 -1.07525256847E-02 +2.03348062543E-03 -4.23707580335E-01 +1.20862169622E-01
4.41500000000E+09 -4.21360588070E-01 +1.44518772669E-01 -9.89612954946E-03 +2.60549637913E-03 -9.83581978021E-03 +2.84417512677E-03 -4.20623771349E-01 +1.46157075560E-01
4.42000000000E+09 -4.16604471118E-01 +1.66785316625E-01 -9.44096525493E-03 +3.20097440182E-03 -9.25468096022E-03 +3.40333290755E-03 -4.14488877538E-01 +1.71121694032E-01
4.42500000000E+09 -4.12842365456E-01 +1.89451008372E-01 -9.08149261056E-03 +3.79020195831E-03 -8.87786399284E-03 +4.02056645476E-03 -4.07646214968E-01 +1.93615824236E-01
4.43000000000E+09 -4.09161876872E-01 +2.11918340157E-01 -9.38583729310E-03 +4.63479884886E-03 -9.13823000947E-03 +4.74868605125E-03 -4.02693556481E-01 +2.16021223119E-01
4.43500000000E+09 -4.06060139587E-01 +2.32831286338E-01 -9.10331336317E-03 +6.37177622468E-03 -8.85931928292E-03 +6.45488009062E-03 -3.96215983476E-01 +2.39202562891E-01
4.44000000000E+09 -4.03384441985E-01 +2.51253829854E-01 -7.91096385198E-03 +8.28308529960E-03 -7.70606075837E-03 +8.23468532505E-03 -3.87767573419E-01 +2.61984733505E-01
4.44500000000E+09 -4.01537463895E-01 +2.68063326650E-01 -5.82693769844E-03 +8.36889588248E-03 -5.73552789943E-03 +8.38770340553E-03 -3.77077768649E-01 +2.82979467408E-01
4.45000000000E+09 -3.98901574195E-01 +2.83849002231E-01 -4.95662007942E-03 +8.15905342880E-03 -4.80652769774E-03 +8.21308323550E-03 -3.66784479881E-01 +3.01185608979E-01
4.45500000000E+09 -3.93870215872E-01 +2.98719158014E-01 -5.04107799510E-03 +8.43978089491E-03 -4.79241293970E-03 +8.52603408517E-03 -3.57578320357E-01 +3.19445739579E-01
4.46000000000E+09 -3.86850594375E-01 +3.12907648368E-01 -3.98540506824E-03 +9.70136865600E-03 -3.79208913455E-03 +9.75943992425E-03 -3.48609656011E-01 +3.39537845058E-01
4.46500000000E+09 -3.77103205028E-01 +3.28539624283E-01 -2.66964094256E-03 +9.98080871942E-03 -2.39618226940E-03 +1.00020780546E-02 -3.36041026276E-01 +3.58507520421E-01
4.47000000000E+09 -3.64491415777E-01 +3.43481246671E-01 -1.19695512732E-03 +1.00191704941E-02 -9.11529857141E-04 +1.00529094127E-02 -3.24082070270E-01 +3.76449463631E-01
4.47500000000E+09 -3.52411990371E-01 +3.58877998594E-01 -2.60000830855E-04 +9.28398072157E-03 +9.84432777153E-07 +9.17791621699E-03 -3.11387594680E-01 +3.93650171582E-01
4.48000000000E+09 -3.40913493806E-01 +3.76450064366E-01 -1.93542253271E-04 +9.66145476180E-03 +8.26156786999E-05 +9.45593291538E-03 -3.00023025560E-01 +4.10871511440E-01
4.48500000000E+09 -3.29332478874E-01 +3.95225953606E-01 +1.05427726905E-03 +1.01602545745E-02 +1.20643422627E-03 +9.89672479180E-03 -2.86983380099E-01 +4.27935579124E-01
4.49000000000E+09 -3.19575444337E-01 +4.13103054707E-01 +2.63566102641E-03 +1.04474011785E-02 +2.72441693541E-03 +1.01595910814E-02 -2.73714393620E-01 +4.43734112704E-01
4.49500000000E+09 -3.10936695004E-01 +4.31044231434E-01 +4.25153183561E-03 +9.51660937165E-03 +4.28626756551E-03 +9.26840808530E-03 -2.59029608163E-01 +4.57840290470E-01
4.50000000000E+09 -3.02604235288E-01 +4.46571875931E-01 +5.14001935967E-03 +8.70981849443E-03 +5.11741112387E-03 +8.49445066656E-03 -2.45608631280E-01 +4.71207620259E-01
4.50500000000E+09 -2.95807082566E-01 +4.60163426938E-01 +6.11304750449E-03 +7.74926865340E-03 +6.12096585599E-03 +7.55277784509E-03 -2.31679931963E-01 +4.84281067468E-01
4.51000000000E+09 -2.88184869725E-01 +4.71712784828E-01 +6.31810932390E-03 +6.93028656164E-03 +6.29849695071E-03 +6.75857453256E-03 -2.18529461138E-01 +4.98121959585E-01
4.51500000000E+09 -2.79052346025E-01 +4.80960699824E-01 +6.80669193991E-03 +6.66777697521E-03 +6.85255124469E-03 +6.44357508426E-03 -2.04307795079E-01 +5.10944735843E-01
4.52000000000E+09 -2.68939152464E-01 +4.88776834181E-01 +7.97721317966E-03 +5.88491138625E-03 +7.89775167968E-03 +5.64541387478E-03 -1.90266144067E-01 +5.23324715453E-01
4.52500000000E+09 -2.57167323129E-01 +4.97022440305E-01 +8.37669399801E-03 +4.26309763856E-03 +8.23557919019E-03 +4.03677774674E-03 -1.75554103409E-01 +5.34048033211E-01
4.53000000000E+09 -2.43304090557E-01 +5.06479053766E-01 +8.33952746789E-03 +3.82049486241E-03 +8.23591494651E-03 +3.55349695990E-03 -1.61549200235E-01 +5.44423125908E-01
4.53500000000E+09 -2.26933000792E-01 +5.16645535357E-01 +8.72199321878E-03 +3.08292025326E-03 +8.51499451380E-03 +2.81413509665E-03 -1.46336934865E-01 +5.54116012123E-01
4.54000000000E+09 -2.09839500024E-01 +5.27229967993E-01 +9.01942050873E-03 +2.23631146249E-03 +8.89496548982E-03 +1.99256444081E-03 -1.31195081808E-01 +5.64882030457E-01
4.54500000000E+09 -1.93230235448E-01 +5.38275364405E-01 +9.59282956453E-03 +1.08120733056E-03 +9.36037083956E-03 +8.57528457925E-04 -1.14539025821E-01 +5.73765570910E-01
4.55000000000E+09 -1.77891022910E-01 +5.48808965245E-01 +9.64235149339E-03 -3.47317401993E-04 +9.36654111811E-03 -5.22312896376E-04 -9.88541853771E-02 +5.82596464376E-01
4.55500000000E+09 -1.65385450307E-01 +5.59169155786E-01 +9.12685013109E-03 -2.30180594336E-03 +8.85820144900E-03 -2.34983811192E-03 -8.38535959315E-02 +5.90264665991E-01
4.56000000000E+09 -1.54798367234E-01 +5.69918263402E-01 +7.43858240782E-03 -2.98170834958E-03 +7.17339444810E-03 -3.03757821892E-03 -7.03786621417E-02 +5.98774854032E-01
4.56500000000E+09 -1.44432790960E-01 +5.80033256126E-01 +6.86272958843E-03 -2.72815337531E-03 +6.66081957722E-03 -2.78986191760E-03 -5.50613214602E-02 +6.07076991303E-01
4.57000000000E+09 -1.34301326710E-01 +5.88622793571E-01 +6.72334341337E-03 -2.69689261721E-03 +6.49795516687E-03 -2.81591509870E-03 -3.93898768886E-02 +6.13786345512E-01
