# Hz S RI R 50
! CMT, C1220, 16058040, 17.2.0/1
! Date: 15/08/2018 11:44:41
! Data: Format (Calibration Info)
! Freq                      S11: Re/Im (F2)                       S21: Re/Im (F2)                       S12: Re/Im (F2)                       S22: Re/Im (F2)            
4.00000000000E+09 +6.40172920843E-01 -3.38088150624E-01 -1.17052013378E-03 -2.71944528550E-03 -1.11001392612E-03 -2.84915233829E-03 +7.71542834915E-01 -3.50502701649E-01
4.00500000000E+09 +6.31282858728E-01 -3.44416064845E-01 -1.40312580625E-03 -2.66266608739E-03 -1.38686343913E-03 -2.78702761102E-03 +7.63002515049E-01 -3.61857380362E-01
4.01000000000E+09 +6.21356526241E-01 -3.50124046417E-01 -1.67558566896E-03 -2.66610613813E-03 -1.66292219855E-03 -2.76978793186E-03 +7.53279841150E-01 -3.73044655450E-01
4.01500000000E+09 +6.10465709324E-01 -3.55651065863E-01 -1.95046870520E-03 -2.41463204530E-03 -1.89347021032E-03 -2.51285655006E-03 +7.43671165812E-01 -3.83089566737E-01
4.02000000000E+09 +5.98994429219E-01 -3.62354598644E-01 -2.08346262806E-03 -2.53494649920E-03 -2.04248156760E-03 -2.65928929117E-03 +7.34321363715E-01 -3.93490016827E-01
4.02500000000E+09 +5.86335599886E-01 -3.69544287713E-01 -2.67361795212E-03 -2.45419886043E-03 -2.69417465959E-03 -2.61544445021E-03 +7.23969992350E-01 -4.04255149740E-01
4.03000000000E+09 +5.73866039306E-01 -3.77714749594E-01 -3.16104860559E-03 -1.97161167489E-03 -3.13908014481E-03 -2.11454119639E-03 +7.13191664767E-01 -4.14599721267E-01
4.03500000000E+09 +5.61228140310E-01 -3.87076562774E-01 -3.24850886016E-03 -1.53623690548E-03 -3.29833021866E-03 -1.62772211649E-03 +7.02058587025E-01 -4.25493771773E-01
4.04000000000E+09 +5.48519529744E-01 -3.96548012235E-01 -3.41992442541E-03 -1.11775539147E-03 -3.53244582531E-03 -1.22668016767E-03 +6.90303416933E-01 -4.36320450233E-01
4.04500000000E+09 +5.36042843408E-01 -4.06105154119E-01 -3.25799648574E-03 -8.20700968669E-04 -3.29804599549E-03 -8.67057347816E-04 +6.78717923423E-01 -4.46440532282E-01
4.05000000000E+09 +5.22984190370E-01 -4.14548633163E-01 -3.41515353014E-03 -7.90745121330E-04 -3.47820588889E-03 -8.43260669562E-04 +6.67334719451E-01 -4.56762506098E-01
4.05500000000E+09 +5.09291832533E-01 -4.21148311272E-01 -3.76464188422E-03 -4.14937730688E-04 -3.91357246499E-03 -5.00939923884E-04 +6.55039964433E-01 -4.66766843583E-01
4.06000000000E+09 +4.95822023664E-01 -4.25956586486E-01 -3.88280088819E-03 +1.16677322945E-04 -4.03008536018E-03 +2.65349713430E-05 +6.42538051262E-01 -4.76291540405E-01
4.06500000000E+09 +4.81891647047E-01 -4.29704691610E-01 -3.72297959134E-03 +7.18834795801E-04 -3.78781738156E-03 +6.89520626436E-04 +6.28869725200E-01 -4.85788265192E-01
4.07000000000E+09 +4.67320159924E-01 -4.32856616166E-01 -3.57689307027E-03 +9.63475612584E-04 -3.66037517760E-03 +8.82331447638E-04 +6.14696423351E-01 -4.95358885402E-01
4.07500000000E+09 +4.51852024229E-01 -4.36413718586E-01 -3.42793748094E-03 +1.22326752427E-03 -3.47157841355E-03 +1.12190424335E-03 +6.00663273760E-01 -5.04979384598E-01
4.08000000000E+09 +4.35033573744E-01 -4.40027275713E-01 -3.39873259986E-03 +1.34811184926E-03 -3.44277706094E-03 +1.20993035686E-03 +5.85893730044E-01 -5.14796144673E-01
4.08500000000E+09 +4.17457940385E-01 -4.44241865386E-01 -3.50459882925E-03 +1.68513205407E-03 -3.61099948308E-03 +1.51572287422E-03 +5.71212552282E-01 -5.23149174694E-01
4.09000000000E+09 +3.99717189012E-01 -4.48275397182E-01 -3.24478810153E-03 +2.20272363112E-03 -3.39043769204E-03 +2.13774404682E-03 +5.56614678759E-01 -5.31262192102E-01
4.09500000000E+09 +3.82224757179E-01 -4.52339917914E-01 -3.16346217640E-03 +2.40324476211E-03 -3.36064399986E-03 +2.39871573110E-03 +5.41211650606E-01 -5.38657002443E-01
4.10000000000E+09 +3.65018716062E-01 -4.56663433943E-01 -2.94504020614E-03 +2.60108564431E-03 -3.05818516387E-03 +2.54824405399E-03 +5.25473350349E-01 -5.46146260169E-01
4.10500000000E+09 +3.48123764519E-01 -4.60016799500E-01 -3.07373678540E-03 +3.00795761399E-03 -3.24499697175E-03 +3.00156622289E-03 +5.08321363808E-01 -5.53821255017E-01
4.11000000000E+09 +3.30950522857E-01 -4.61964803915E-01 -2.74798910361E-03 +3.66692436571E-03 -2.94909113184E-03 +3.68921379875E-03 +4.90746314020E-01 -5.60631953022E-01
4.11500000000E+09 +3.14657705587E-01 -4.62146494743E-01 -1.96177512692E-03 +4.01261858328E-03 -2.12246741701E-03 +4.06603986075E-03 +4.73599066872E-01 -5.67140003650E-01
4.12000000000E+09 +2.98158363226E-01 -4.61821898438E-01 -1.66490160833E-03 +3.82951691799E-03 -1.87449049926E-03 +3.91229168608E-03 +4.56136762435E-01 -5.74097451501E-01
4.12500000000E+09 +2.80862539661E-01 -4.60607180735E-01 -1.57663131727E-03 +4.08595454177E-03 -1.83786123008E-03 +4.12331177313E-03 +4.38634388927E-01 -5.79962774088E-01
4.13000000000E+09 +2.63098971066E-01 -4.58818869941E-01 -1.18053474321E-03 +4.34231085575E-03 -1.46238912237E-03 +4.48348804614E-03 +4.20274076378E-01 -5.85613664563E-01
4.13500000000E+09 +2.45049767898E-01 -4.57255013284E-01 -1.07903759091E-03 +4.52472112236E-03 -1.30131211611E-03 +4.72815662553E-03 +4.01592136346E-01 -5.90204976275E-01
4.14000000000E+09 +2.26740801538E-01 -4.56899357773E-01 -5.93232430251E-04 +5.12308197988E-03 -8.19311946522E-04 +5.45958997271E-03 +3.81830108843E-01 -5.94648849343E-01
4.14500000000E+09 +2.08172648236E-01 -4.57348425658E-01 +4.01196718572E-04 +5.57541888229E-03 +1.98253070393E-04 +5.88086815557E-03 +3.62191192180E-01 -5.98486235047E-01
4.15000000000E+09 +1.89411824489E-01 -4.59425323636E-01 +1.18165432710E-03 +5.24673327718E-03 +1.15012907356E-03 +5.53374540914E-03 +3.43514243617E-01 -6.02904150907E-01
4.15500000000E+09 +1.69687079481E-01 -4.60661955175E-01 +1.73571700747E-03 +4.88279656047E-03 +1.78412160146E-03 +5.10345007114E-03 +3.23166052061E-01 -6.07394220319E-01
4.16000000000E+09 +1.50711596626E-01 -4.60110480184E-01 +2.12484518274E-03 +4.55902393296E-03 +2.17674413498E-03 +4.82201031873E-03 +3.02301115875E-01 -6.09095125518E-01
4.16500000000E+09 +1.33023070244E-01 -4.57548320182E-01 +2.14955052452E-03 +4.38601933752E-03 +2.21840035501E-03 +4.57129564617E-03 +2.82829569479E-01 -6.09876708386E-01
4.17000000000E+09 +1.17295241842E-01 -4.52913845749E-01 +2.61615188864E-03 +4.63014252800E-03 +2.65772684282E-03 +4.85884063803E-03 +2.62285396221E-01 -6.10390614052E-01
4.17500000000E+09 +1.02261610132E-01 -4.47329290006E-01 +3.36987652441E-03 +4.63172397085E-03 +3.41744700789E-03 +4.81965621149E-03 +2.40919315016E-01 -6.10699464037E-01
4.18000000000E+09 +8.72734562697E-02 -4.41276877608E-01 +4.04513085285E-03 +4.02140046699E-03 +4.20933400329E-03 +4.12506044940E-03 +2.19033410198E-01 -6.10090036043E-01
4.18500000000E+09 +7.03397669719E-02 -4.33960570926E-01 +4.32810840984E-03 +3.68080337356E-03 +4.45300442549E-03 +3.82280190664E-03 +1.96684327715E-01 -6.09222128973E-01
4.19000000000E+09 +5.32788504628E-02 -4.25017334798E-01 +5.01308179010E-03 +3.48660920044E-03 +5.19041693927E-03 +3.66153457767E-03 +1.75438251468E-01 -6.06945027818E-01
4.19500000000E+09 +3.55053573923E-02 -4.15979913006E-01 +5.56611221005E-03 +2.81105880202E-03 +5.71745622763E-03 +2.91484609973E-03 +1.54181715950E-01 -6.04489254931E-01
4.20000000000E+09 +1.80415430913E-02 -4.07256575836E-01 +5.74268328276E-03 +1.97723298926E-03 +5.91580809084E-03 +2.01064434947E-03 +1.32681896745E-01 -6.01895222817E-01
4.20500000000E+09 +1.02791169730E-03 -3.99737288874E-01 +5.94700808700E-03 +1.37754866280E-03 +6.08994251138E-03 +1.39568745756E-03 +1.10280846410E-01 -5.98273390907E-01
4.21000000000E+09 -1.57101208065E-02 -3.92843853365E-01 +5.91608631648E-03 +4.51997623400E-04 +6.01914752407E-03 +4.56726425180E-04 +8.70317961802E-02 -5.93199930129E-01
4.21500000000E+09 -3.22320228330E-02 -3.85940358062E-01 +5.58184436431E-03 +5.39777779593E-04 +5.65523579270E-03 +4.90068659765E-04 +6.52689819969E-02 -5.88188153964E-01
4.22000000000E+09 -4.78643748254E-02 -3.77446634176E-01 +6.11544462574E-03 +5.28096412981E-04 +6.14073186434E-03 +6.05697458664E-04 +4.27171458324E-02 -5.82237597124E-01
4.22500000000E+09 -6.14303902543E-02 -3.67093222750E-01 +7.03595373543E-03 -5.35941390550E-04 +7.11942111201E-03 -4.43838199010E-04 +2.03749311826E-02 -5.75666211126E-01
4.23000000000E+09 -7.37445945986E-02 -3.55970591809E-01 +6.89602790510E-03 -1.98442873374E-03 +7.04454375299E-03 -1.99506067790E-03 -1.50273484015E-03 -5.67728233285E-01
4.23500000000E+09 -8.59495897703E-02 -3.43249119959E-01 +6.19709427967E-03 -2.86886696917E-03 +6.28624793667E-03 -2.90262658764E-03 -2.28172276538E-02 -5.58050826182E-01
4.24000000000E+09 -9.86970211348E-02 -3.29315870993E-01 +5.71314822435E-03 -3.25697257142E-03 +5.78360342454E-03 -3.30332003289E-03 -4.35366400435E-02 -5.48298827655E-01
4.24500000000E+09 -1.12016177761E-01 -3.14297155670E-01 +5.45869528730E-03 -3.47893231842E-03 +5.45155253524E-03 -3.48421536394E-03 -6.40974483454E-02 -5.38549836839E-01
4.25000000000E+09 -1.26132248068E-01 -2.99003280153E-01 +5.43205210531E-03 -4.17691668488E-03 +5.56387942600E-03 -4.04961957224E-03 -8.58558677810E-02 -5.27588022489E-01
4.25500000000E+09 -1.41241795999E-01 -2.84933423372E-01 +4.86031364134E-03 -5.11713732829E-03 +4.98494599953E-03 -5.07554795160E-03 -1.07355406227E-01 -5.15508085346E-01
4.26000000000E+09 -1.57582239196E-01 -2.71581577430E-01 +4.04673043712E-03 -5.52889280723E-03 +4.24360686182E-03 -5.47327492161E-03 -1.27865319243E-01 -5.01727074518E-01
4.26500000000E+09 -1.74707528567E-01 -2.58693843526E-01 +3.64710387369E-03 -5.35146236601E-03 +3.87150702198E-03 -5.48479810224E-03 -1.47598031279E-01 -4.87245609128E-01
4.27000000000E+09 -1.90483035990E-01 -2.45848428613E-01 +3.59498317323E-03 -5.95732168984E-03 +3.77333463435E-03 -6.10742764070E-03 -1.66609828957E-01 -4.72374618910E-01
4.27500000000E+09 -2.05091184685E-01 -2.32903097924E-01 +3.03300811693E-03 -6.83726238269E-03 +3.14247862355E-03 -6.92672595679E-03 -1.86904758637E-01 -4.56559349733E-01
4.28000000000E+09 -2.16801373045E-01 -2.19137474520E-01 +2.20362974417E-03 -7.38916270675E-03 +2.29996771438E-03 -7.43761993772E-03 -2.05915994846E-01 -4.40245488940E-01
4.28500000000E+09 -2.25432047455E-01 -2.05415604200E-01 +1.14378216654E-03 -7.91723779809E-03 +1.23544555530E-03 -8.02515601185E-03 -2.25301327223E-01 -4.23480886010E-01
4.29000000000E+09 -2.32957038771E-01 -1.91527203452E-01 -4.13269955843E-04 -7.94564609200E-03 -3.51374769031E-04 -8.10618237335E-03 -2.42590438535E-01 -4.04808229812E-01
4.29500000000E+09 -2.40696294311E-01 -1.76428690219E-01 -1.19045999980E-03 -6.93197006218E-03 -1.03494655689E-03 -7.15701393083E-03 -2.57499773562E-01 -3.88543139782E-01
4.30000000000E+09 -2.48510974613E-01 -1.59030720740E-01 -1.52942972235E-03 -6.76830275225E-03 -1.52352037798E-03 -7.01056567440E-03 -2.74506588057E-01 -3.71212455585E-01
4.30500000000E+09 -2.56200117401E-01 -1.40330335636E-01 -1.92559487544E-03 -6.41839336142E-03 -1.96614033578E-03 -6.74605445655E-03 -2.90907510459E-01 -3.51031713865E-01
4.31000000000E+09 -2.64300310969E-01 -1.20217892509E-01 -1.95517245603E-03 -6.44917286302E-03 -2.06528691474E-03 -6.66176570133E-03 -3.06241811458E-01 -3.30092961694E-01
4.31500000000E+09 -2.71643727476E-01 -1.00783449960E-01 -2.57850114981E-03 -6.90962304916E-03 -2.71318178226E-03 -7.15317198544E-03 -3.20153243834E-01 -3.08143026913E-01
4.32000000000E+09 -2.78943526665E-01 -8.20535331702E-02 -3.58572539098E-03 -6.96347382167E-03 -3.73743557753E-03 -7.18137020539E-03 -3.32973684856E-01 -2.86875829408E-01
4.32500000000E+09 -2.85409198434E-01 -6.60647115020E-02 -5.02189552636E-03 -6.49372100566E-03 -5.34539854817E-03 -6.71169309134E-03 -3.45390323748E-01 -2.65446688706E-01
4.33000000000E+09 -2.92330918989E-01 -5.04863476323E-02 -5.42179230728E-03 -5.92669133525E-03 -5.70679916073E-03 -6.02142455191E-03 -3.57611818061E-01 -2.42276122340E-01
4.33500000000E+09 -2.97700195587E-01 -3.45916668357E-02 -6.38030394844E-03 -5.31264329359E-03 -6.69502323307E-03 -5.23887967412E-03 -3.67672371149E-01 -2.17773843863E-01
4.34000000000E+09 -3.00383103012E-01 -1.84303140408E-02 -7.05469405412E-03 -4.25565056820E-03 -7.25939498523E-03 -4.13410096188E-03 -3.76021058644E-01 -1.93804712007E-01
4.34500000000E+09 -3.00605214501E-01 -2.35626092408E-03 -6.80645982284E-03 -3.12963610245E-03 -6.91488036277E-03 -3.01777810498E-03 -3.85449314575E-01 -1.71581799127E-01
4.35000000000E+09 -3.00133730103E-01 +1.45243436004E-02 -6.80820768002E-03 -3.22614043304E-03 -6.91535504553E-03 -3.05148465733E-03 -3.95986495396E-01 -1.46992066014E-01
4.35500000000E+09 -2.98590463690E-01 +3.28082071742E-02 -8.01368143114E-03 -2.96280441655E-03 -8.00119875059E-03 -3.06738103512E-03 -4.03967035565E-01 -1.20378235699E-01
4.36000000000E+09 -2.97440653903E-01 +5.16694956323E-02 -8.11271613209E-03 -2.03725671818E-03 -8.13818257319E-03 -2.10022369188E-03 -4.09344616762E-01 -9.57267470433E-02
4.36500000000E+09 -2.96603316849E-01 +7.17331468730E-02 -9.12540611070E-03 -1.84909218129E-03 -9.19991080749E-03 -1.83362982950E-03 -4.13353087938E-01 -7.18143485466E-02
4.37000000000E+09 -2.97046668287E-01 +9.17852026257E-02 -9.95194252042E-03 -1.97188288817E-05 -1.00492904083E-02 +3.19087935005E-05 -4.16539719651E-01 -4.79960129608E-02
4.37500000000E+09 -2.97654339797E-01 +1.11724084749E-01 -9.53635242042E-03 +1.81009792886E-03 -9.67676032834E-03 +1.93479992507E-03 -4.19158872231E-01 -2.38057919993E-02
4.38000000000E+09 -2.98871123815E-01 +1.29940815274E-01 -9.05213774184E-03 +2.67965312829E-03 -9.23665249321E-03 +2.77287809087E-03 -4.21419089714E-01 +2.27476844588E-03
4.38500000000E+09 -2.99646238851E-01 +1.46839445280E-01 -8.62063603415E-03 +3.75848021489E-03 -8.67966487152E-03 +3.94835187538E-03 -4.21364657828E-01 +2.79362734842E-02
4.39000000000E+09 -2.99214593535E-01 +1.62155997259E-01 -7.79697159386E-03 +4.73529006452E-03 -7.80299359287E-03 +4.90491475237E-03 -4.21351228492E-01 +5.25080287328E-02
4.39500000000E+09 -2.97650269978E-01 +1.75539288257E-01 -7.59516564285E-03 +4.99924959654E-03 -7.64576379634E-03 +5.07994020764E-03 -4.21071366711E-01 +7.66092622469E-02
4.40000000000E+09 -2.94392135672E-01 +1.89274925170E-01 -7.05929197579E-03 +6.36819393394E-03 -7.02768623447E-03 +6.44916981648E-03 -4.19938525902E-01 +1.01082434732E-01
4.40500000000E+09 -2.89633034412E-01 +2.02388361556E-01 -6.32123155787E-03 +7.20696166169E-03 -6.35083420865E-03 +7.37213219438E-03 -4.16290141655E-01 +1.25386219206E-01
4.41000000000E+09 -2.83438539376E-01 +2.17224976439E-01 -5.04060478157E-03 +7.49311299351E-03 -5.09499773543E-03 +7.65705098513E-03 -4.11539887400E-01 +1.49509206290E-01
4.41500000000E+09 -2.76081031801E-01 +2.33029999919E-01 -4.63943717542E-03 +8.30818526487E-03 -4.63208287226E-03 +8.59000986475E-03 -4.06074108743E-01 +1.72633297200E-01
4.42000000000E+09 -2.68984444661E-01 +2.49884348710E-01 -3.73147093357E-03 +8.58987594505E-03 -3.56293532622E-03 +8.74630193819E-03 -3.99542445338E-01 +1.95922334580E-01
4.42500000000E+09 -2.62290293963E-01 +2.67338755309E-01 -2.85900987040E-03 +9.63820497123E-03 -2.73252273412E-03 +9.67189524061E-03 -3.94474383649E-01 +2.18041139881E-01
4.43000000000E+09 -2.56669346581E-01 +2.84919594814E-01 -8.96949261349E-04 +1.01032020404E-02 -7.32505813885E-04 +1.01148401998E-02 -3.87465504265E-01 +2.41879128688E-01
4.43500000000E+09 -2.51389519748E-01 +3.01627002295E-01 +4.21641557404E-04 +9.28365645043E-03 +5.08134716586E-04 +9.29449409960E-03 -3.78043254683E-01 +2.64091423251E-01
4.44000000000E+09 -2.47211628007E-01 +3.16167404071E-01 +1.40028527867E-03 +8.64138205385E-03 +1.53210108654E-03 +8.66077886494E-03 -3.69269540466E-01 +2.83782165626E-01
4.44500000000E+09 -2.43205898638E-01 +3.28907345771E-01 +1.68708645984E-03 +8.27783206582E-03 +1.91808450468E-03 +8.30616512890E-03 -3.60686815800E-01 +3.03784641718E-01
4.45000000000E+09 -2.39460412910E-01 +3.39883071350E-01 +2.02634503581E-03 +8.00871270976E-03 +2.28129880017E-03 +7.99653454522E-03 -3.51124386653E-01 +3.23825972503E-01
4.45500000000E+09 -2.33465190578E-01 +3.50117265391E-01 +2.83668973836E-03 +8.55280104485E-03 +3.11104660791E-03 +8.44962706211E-03 -3.40439628327E-01 +3.43569564505E-01
4.46000000000E+09 -2.26266658295E-01 +3.59343628455E-01 +4.21408651688E-03 +8.18141158500E-03 +4.47814037109E-03 +8.03602443853E-03 -3.27300298496E-01 +3.62481099311E-01
4.46500000000E+09 -2.16546707556E-01 +3.69290899235E-01 +5.05899883132E-03 +7.33322991551E-03 +5.24172307231E-03 +7.13376907097E-03 -3.15130705732E-01 +3.78488191408E-01
4.47000000000E+09 -2.05422290185E-01 +3.79772367132E-01 +5.78005211590E-03 +6.83207608377E-03 +5.98585390031E-03 +6.60859473011E-03 -3.03690628437E-01 +3.95388169204E-01
4.47500000000E+09 -1.92445759782E-01 +3.91284457878E-01 +6.17567014093E-03 +6.10017204910E-03 +6.37895106610E-03 +5.83907509741E-03 -2.91804092061E-01 +4.13046158109E-01
4.48000000000E+09 -1.80205846804E-01 +4.02901636686E-01 +7.03384019000E-03 +5.46413749787E-03 +7.08562927488E-03 +5.10540379217E-03 -2.78678680431E-01 +4.29569504573E-01
4.48500000000E+09 -1.69548143349E-01 +4.15757784252E-01 +7.67811108985E-03 +4.84241868347E-03 +7.60540736341E-03 +4.58342142556E-03 -2.64817182749E-01 +4.44541882656E-01
4.49000000000E+09 -1.59714086704E-01 +4.29119593753E-01 +8.09624114879E-03 +3.24428333175E-03 +7.93386255324E-03 +2.99364314968E-03 -2.51959562619E-01 +4.58925790421E-01
4.49500000000E+09 -1.51796021583E-01 +4.41782534764E-01 +7.65862919579E-03 +2.64774121450E-03 +7.50437136985E-03 +2.53801157331E-03 -2.38813274321E-01 +4.73451304016E-01
4.50000000000E+09 -1.44838195009E-01 +4.52862329274E-01 +7.98767264904E-03 +2.41180407221E-03 +7.79476865878E-03 +2.30991883560E-03 -2.24222659964E-01 +4.87352223783E-01
4.50500000000E+09 -1.38852730246E-01 +4.62386448258E-01 +8.38025074376E-03 +1.85129674131E-03 +8.23214033401E-03 +1.68284101925E-03 -2.10126550394E-01 +5.00499990488E-01
4.51000000000E+09 -1.32037553783E-01 +4.69536565868E-01 +9.17853659201E-03 +8.59668534666E-04 +9.02720487726E-03 +7.51029543772E-04 -1.94287602539E-01 +5.12542453814E-01
4.51500000000E+09 -1.24746915381E-01 +4.75112314730E-01 +9.13683301093E-03 -4.57288219348E-04 +9.01540959516E-03 -5.69150701568E-04 -1.80582216431E-01 +5.22825750912E-01
4.52000000000E+09 -1.15580837204E-01 +4.79933898850E-01 +9.17512854457E-03 -1.95444351808E-03 +8.97285442693E-03 -2.04381203289E-03 -1.67236661655E-01 +5.33994649739E-01
4.52500000000E+09 -1.04384109856E-01 +4.84070347261E-01 +8.31480048175E-03 -2.88031767615E-03 +8.07268000753E-03 -2.88904207302E-03 -1.53121936667E-01 +5.44871633684E-01
4.53000000000E+09 -9.16669709646E-02 +4.88673560515E-01 +7.82787663036E-03 -3.54107244248E-03 +7.68874376200E-03 -3.54957193967E-03 -1.38197494218E-01 +5.54335752022E-01
4.53500000000E+09 -7.78499621690E-02 +4.94798868729E-01 +7.41480527773E-03 -4.40168750314E-03 +7.22012236173E-03 -4.45901886276E-03 -1.23458326217E-01 +5.63519840490E-01
4.54000000000E+09 -6.29867849806E-02 +5.01713328818E-01 +6.81853795199E-03 -4.95407334824E-03 +6.64589673277E-03 -4.94631544274E-03 -1.07340778640E-01 +5.72097204283E-01
4.54500000000E+09 -4.91724743417E-02 +5.09460932142E-01 +6.15454324891E-03 -5.57553434637E-03 +5.99495546460E-03 -5.60097049306E-03 -9.31359685739E-02 +5.80745085388E-01
4.55000000000E+09 -3.61470211481E-02 +5.17771054718E-01 +5.78004522934E-03 -6.22948544773E-03 +5.57659799667E-03 -6.16889956334E-03 -7.70672223647E-02 +5.89755957074E-01
4.55500000000E+09 -2.49989496257E-02 +5.25590370519E-01 +4.63812335474E-03 -6.61484323587E-03 +4.50056706160E-03 -6.52402543689E-03 -6.16721427894E-02 +5.97798200414E-01
4.56000000000E+09 -1.64471830913E-02 +5.33311773932E-01 +4.12671343295E-03 -7.00966713029E-03 +3.93192328094E-03 -6.90013338512E-03 -4.66879586324E-02 +6.03617495390E-01
4.56500000000E+09 -7.76995031217E-03 +5.40255243550E-01 +3.45591109996E-03 -7.36329305395E-03 +3.33460912770E-03 -7.21628846074E-03 -3.27373283300E-02 +6.10082011214E-01
4.57000000000E+09 +7.94598004171E-04 +5.45407760659E-01 +2.63812789528E-03 -7.70514675692E-03 +2.41338759657E-03 -7.57119406412E-03 -1.78892634039E-02 +6.16290957948E-01
