# Hz S RI R 50
! CMT, C1220, 16058040, 17.2.0/1
! Date: 15/08/2018 12:01:45
! Data: Format (Calibration Info)
! Freq                      S11: Re/Im (F2)                       S21: Re/Im (F2)                       S12: Re/Im (F2)                       S22: Re/Im (F2)            
4.00000000000E+09 +6.66622361261E-01 -3.44025234822E-01 +6.46309034006E-04 -6.05884357850E-04 +6.96209687636E-04 -5.87260303895E-04 +7.76470757893E-01 -3.40843310871E-01
4.00500000000E+09 +6.58472582475E-01 -3.50418461417E-01 +5.33110005796E-04 -5.88615114478E-04 +5.34692343124E-04 -6.23614102714E-04 +7.67827189449E-01 -3.52573401051E-01
4.01000000000E+09 +6.49236560955E-01 -3.56521793651E-01 +4.34020599768E-04 -5.87486140632E-04 +4.68995224667E-04 -5.84229400276E-04 +7.58315135354E-01 -3.63753691979E-01
4.01500000000E+09 +6.38908775298E-01 -3.62966102133E-01 +4.99525577959E-04 -5.33498499829E-04 +4.92043016630E-04 -4.80676943624E-04 +7.48728603268E-01 -3.74131020023E-01
4.02000000000E+09 +6.28388976734E-01 -3.70145270119E-01 +5.42254348894E-04 -6.70251527299E-04 +5.73602701080E-04 -6.16925169336E-04 +7.39076157294E-01 -3.84386205083E-01
4.02500000000E+09 +6.17464848838E-01 -3.79206397157E-01 +5.05236599474E-04 -7.77583453849E-04 +4.87313711368E-04 -8.06482033842E-04 +7.29134716787E-01 -3.94678178777E-01
4.03000000000E+09 +6.05956354412E-01 -3.89882496994E-01 +2.50115426335E-04 -9.59722080519E-04 +3.26545835736E-04 -9.69095369414E-04 +7.18731488250E-01 -4.04917900808E-01
4.03500000000E+09 +5.93983643521E-01 -4.00843667574E-01 -1.69421858807E-05 -7.18588803855E-04 -3.73075816299E-06 -7.59093906011E-04 +7.07764458747E-01 -4.15281871335E-01
4.04000000000E+09 +5.82489762021E-01 -4.11673778639E-01 +1.36904083488E-04 -5.82196807999E-04 +1.54728654064E-04 -5.97967040357E-04 +6.97185569632E-01 -4.26059796171E-01
4.04500000000E+09 +5.71227480925E-01 -4.22213184150E-01 +1.19383725017E-04 -5.74351865599E-04 +1.43855386269E-04 -5.87674372376E-04 +6.85878407096E-01 -4.36974451830E-01
4.05000000000E+09 +5.59810602748E-01 -4.31059572844E-01 +3.07485959220E-04 -6.47982051049E-04 +3.06664065599E-04 -6.81610579866E-04 +6.74470412564E-01 -4.47008618359E-01
4.05500000000E+09 +5.48070247648E-01 -4.38105082637E-01 +2.82571405646E-04 -7.89246656219E-04 +2.85796481489E-04 -8.29282377264E-04 +6.62749923250E-01 -4.56879348532E-01
4.06000000000E+09 +5.35970205267E-01 -4.43715759628E-01 +1.93678003426E-04 -1.03209031133E-03 +1.83180205443E-04 -1.05023462325E-03 +6.50511548655E-01 -4.66540505099E-01
4.06500000000E+09 +5.23262535162E-01 -4.48171031262E-01 -1.25476555206E-04 -1.00670136004E-03 -1.76877392633E-04 -9.97744145929E-04 +6.37600692781E-01 -4.75853138103E-01
4.07000000000E+09 +5.09738153840E-01 -4.52443365802E-01 -8.03007416793E-05 -9.07250042731E-04 -1.17811167084E-04 -8.68167408502E-04 +6.23919366442E-01 -4.85716084928E-01
4.07500000000E+09 +4.95198106283E-01 -4.57627516578E-01 -1.66778802736E-04 -9.88223643039E-04 -1.82094823194E-04 -1.02764536285E-03 +6.10255715223E-01 -4.94730090540E-01
4.08000000000E+09 +4.79009690082E-01 -4.63021269564E-01 -2.49062774556E-04 -8.96072113775E-04 -2.62622336158E-04 -9.33153475923E-04 +5.97107754529E-01 -5.04038766283E-01
4.08500000000E+09 +4.62449632973E-01 -4.69218136710E-01 -3.42280515774E-04 -9.61866023152E-04 -2.99897145662E-04 -9.57490152411E-04 +5.83020018517E-01 -5.13844090477E-01
4.09000000000E+09 +4.45659992223E-01 -4.75954500442E-01 -4.75303118655E-04 -1.12338223076E-03 -3.92690398280E-04 -1.13279251201E-03 +5.68662292754E-01 -5.22130497809E-01
4.09500000000E+09 +4.29530491560E-01 -4.82753254320E-01 -6.74644541413E-04 -8.99160390491E-04 -7.01081320292E-04 -9.29892963522E-04 +5.54152954411E-01 -5.30478902293E-01
4.10000000000E+09 +4.13363056415E-01 -4.89475509814E-01 -5.97955365677E-04 -8.69262112318E-04 -5.46322154707E-04 -8.93114498042E-04 +5.38326969403E-01 -5.38582827108E-01
4.10500000000E+09 +3.97398274146E-01 -4.95108131804E-01 -6.32440802459E-04 -8.97624705438E-04 -6.17076874578E-04 -9.82674045537E-04 +5.22095494605E-01 -5.46322752783E-01
4.11000000000E+09 +3.81004661078E-01 -4.98528236325E-01 -8.11439866875E-04 -9.91933969439E-04 -7.91392040742E-04 -1.01938686913E-03 +5.04787258022E-01 -5.54261263388E-01
4.11500000000E+09 +3.65365406416E-01 -5.00151527487E-01 -1.12841101547E-03 -8.04320625659E-04 -1.17205738445E-03 -8.35328680479E-04 +4.87540829116E-01 -5.61153079992E-01
4.12000000000E+09 +3.49589858470E-01 -5.00433758730E-01 -1.13500748543E-03 -6.17242214243E-04 -1.17734961642E-03 -6.38673559612E-04 +4.70397718225E-01 -5.67661056052E-01
4.12500000000E+09 +3.33730303534E-01 -5.00798781720E-01 -1.12319471737E-03 -4.50892900037E-04 -1.14515751929E-03 -4.69757646612E-04 +4.53188327835E-01 -5.73829033651E-01
4.13000000000E+09 +3.15786704505E-01 -5.02201926769E-01 -1.20253128476E-03 -5.55937173375E-04 -1.20590264930E-03 -5.48006447477E-04 +4.36046311911E-01 -5.79629931787E-01
4.13500000000E+09 +2.96730134535E-01 -5.03091492519E-01 -1.31827145117E-03 -2.99319295622E-04 -1.39667216707E-03 -3.15311710204E-04 +4.17438982954E-01 -5.85417390334E-01
4.14000000000E+09 +2.77434262550E-01 -5.05270957772E-01 -1.24430472972E-03 -1.62271261647E-04 -1.25844354174E-03 -1.45793214763E-04 +3.98322411495E-01 -5.90249119339E-01
4.14500000000E+09 +2.57479132412E-01 -5.08761231955E-01 -1.21434242838E-03 -1.86048101879E-04 -1.19466206191E-03 -2.09838118299E-04 +3.79661621074E-01 -5.95342850197E-01
4.15000000000E+09 +2.37475367908E-01 -5.12702139331E-01 -1.24325029662E-03 -1.53263876767E-04 -1.33098286568E-03 -2.10050128654E-04 +3.59798415819E-01 -6.00670376996E-01
4.15500000000E+09 +2.17874226936E-01 -5.16310270887E-01 -1.32511245422E-03 -3.27537605005E-04 -1.37658793629E-03 -3.67166307819E-04 +3.40269517242E-01 -6.04138372481E-01
4.16000000000E+09 +1.99126854227E-01 -5.18617797993E-01 -1.81907319749E-03 -1.66193977647E-04 -1.90455574616E-03 -1.85264562299E-04 +3.20608266915E-01 -6.07175085779E-01
4.16500000000E+09 +1.81698583669E-01 -5.18607511921E-01 -1.99714062030E-03 +4.73062392854E-04 -2.09889440037E-03 +5.15684178224E-04 +2.99829876230E-01 -6.08921625419E-01
4.17000000000E+09 +1.65847311890E-01 -5.17042259205E-01 -1.68664841045E-03 +6.76027699559E-04 -1.74500202489E-03 +6.86798508571E-04 +2.79831369422E-01 -6.09658234507E-01
4.17500000000E+09 +1.50005738010E-01 -5.13567614746E-01 -1.72209422828E-03 +1.16129330639E-03 -1.71354291659E-03 +1.15919131408E-03 +2.58559777179E-01 -6.10442618588E-01
4.18000000000E+09 +1.34486309333E-01 -5.09332052104E-01 -9.08028600193E-04 +1.06638403300E-03 -9.41686029557E-04 +1.11052716753E-03 +2.37832142889E-01 -6.10782369189E-01
4.18500000000E+09 +1.17012388506E-01 -5.04312299291E-01 -1.10194326530E-03 +5.70185113815E-04 -1.15355525343E-03 +5.90065597587E-04 +2.16121148103E-01 -6.11429919885E-01
4.19000000000E+09 +9.85539645927E-02 -4.98321836183E-01 -1.53504066348E-03 +7.01831396381E-04 -1.55124871966E-03 +6.88781100875E-04 +1.93960929405E-01 -6.10348508917E-01
4.19500000000E+09 +7.91506821469E-02 -4.92173861353E-01 -1.83024870762E-03 +1.17600231776E-03 -1.89670713857E-03 +1.16005580933E-03 +1.72534813025E-01 -6.08243619347E-01
4.20000000000E+09 +5.98894264966E-02 -4.87098399495E-01 -1.65633779120E-03 +1.79205268332E-03 -1.70004430040E-03 +1.82969955725E-03 +1.50715256836E-01 -6.05912318769E-01
4.20500000000E+09 +4.03759349119E-02 -4.83464222534E-01 -1.25183356545E-03 +2.23578077101E-03 -1.29171178774E-03 +2.30146941030E-03 +1.28233928234E-01 -6.02410485270E-01
4.21000000000E+09 +2.08359340489E-02 -4.79872324450E-01 -6.78993538289E-04 +2.01382827351E-03 -6.89196112324E-04 +2.05587616444E-03 +1.05976857686E-01 -5.98388219254E-01
4.21500000000E+09 +2.05068125160E-03 -4.75749715803E-01 -6.62476002307E-04 +1.97912496854E-03 -6.36784190547E-04 +1.99351400513E-03 +8.33679786809E-02 -5.93863134615E-01
4.22000000000E+09 -1.54460088503E-02 -4.70596698124E-01 -6.27426338328E-04 +2.20540708445E-03 -7.06023337734E-04 +2.20684264931E-03 +6.18230563699E-02 -5.88495108511E-01
4.22500000000E+09 -3.19258408492E-02 -4.62729818111E-01 -3.37743342627E-04 +2.49335635936E-03 -4.09730948170E-04 +2.55090460085E-03 +4.03523372981E-02 -5.83318033690E-01
4.23000000000E+09 -4.59650966180E-02 -4.53376243966E-01 +7.44636686872E-05 +2.38481135520E-03 +3.09548219722E-05 +2.43901890657E-03 +1.85616260465E-02 -5.76967358558E-01
4.23500000000E+09 -6.06912321962E-02 -4.43343996203E-01 +3.97200086195E-04 +2.40783181209E-03 +3.74356787411E-04 +2.49241024588E-03 -3.15833073390E-03 -5.69343346350E-01
4.24000000000E+09 -7.67579487680E-02 -4.31463215091E-01 +2.42766914549E-04 +2.39297106320E-03 +2.09685311782E-04 +2.43395809240E-03 -2.57647865139E-02 -5.60762047661E-01
4.24500000000E+09 -9.37298538370E-02 -4.18561816505E-01 +8.12352783503E-04 +2.80347064460E-03 +8.56619022659E-04 +2.87379628799E-03 -4.76348713645E-02 -5.50409499422E-01
4.25000000000E+09 -1.12630086174E-01 -4.05857698493E-01 +1.19447036746E-03 +2.45485714320E-03 +1.23464501171E-03 +2.57280326094E-03 -6.91628638863E-02 -5.40462913346E-01
4.25500000000E+09 -1.32527141515E-01 -3.92626517253E-01 +1.58819561265E-03 +2.36079930988E-03 +1.68269552604E-03 +2.45638061299E-03 -9.16209148447E-02 -5.28832824081E-01
4.26000000000E+09 -1.52200674224E-01 -3.80833060379E-01 +1.65220524662E-03 +2.05050025755E-03 +1.73263807062E-03 +2.15159758110E-03 -1.12201053250E-01 -5.15726028598E-01
4.26500000000E+09 -1.72962852056E-01 -3.70111130880E-01 +1.95372903419E-03 +1.98449030236E-03 +2.04554399350E-03 +2.10939572819E-03 -1.32441862666E-01 -5.02833069383E-01
4.27000000000E+09 -1.91673037262E-01 -3.58303283258E-01 +2.22419518234E-03 +1.96607847462E-03 +2.29927825001E-03 +1.95187254625E-03 -1.52992715555E-01 -4.87853526773E-01
4.27500000000E+09 -2.07581500361E-01 -3.46970498330E-01 +2.67707080992E-03 +1.54943352575E-03 +2.76987533887E-03 +1.58894553447E-03 -1.72696208568E-01 -4.72750029476E-01
4.28000000000E+09 -2.20938989889E-01 -3.35447908088E-01 +2.88153000292E-03 +1.16786834922E-03 +2.93659771383E-03 +1.16643480616E-03 -1.92805241160E-01 -4.56628719611E-01
4.28500000000E+09 -2.33405988930E-01 -3.22690188754E-01 +2.82590355453E-03 +5.13319402399E-04 +2.90314306993E-03 +4.88646372818E-04 -2.12192812127E-01 -4.40467329760E-01
4.29000000000E+09 -2.43603329309E-01 -3.07363860780E-01 +2.60618824493E-03 +2.78702115391E-04 +2.73831724796E-03 +2.30812274148E-04 -2.30182505219E-01 -4.23783470845E-01
4.29500000000E+09 -2.54095524180E-01 -2.90900551670E-01 +2.19493669077E-03 +5.71905240149E-04 +2.28783304096E-03 +4.90815704954E-04 -2.49067653122E-01 -4.06736657726E-01
4.30000000000E+09 -2.64886013099E-01 -2.72254972771E-01 +2.91618175249E-03 +5.28682118093E-04 +3.01943987579E-03 +4.57016472690E-04 -2.65695313869E-01 -3.87263371175E-01
4.30500000000E+09 -2.76467060751E-01 -2.52139898423E-01 +2.97549946524E-03 +2.51323403671E-05 +3.04099264561E-03 -2.91078746802E-05 -2.81179859380E-01 -3.67567240469E-01
4.31000000000E+09 -2.89285559607E-01 -2.31913529435E-01 +3.49436877583E-03 -1.12926401903E-04 +3.55385055187E-03 -1.75926677787E-04 -2.96167207183E-01 -3.47197332144E-01
4.31500000000E+09 -3.02932086896E-01 -2.11728442054E-01 +3.47601585346E-03 -1.19682647632E-03 +3.47948697118E-03 -1.25970942598E-03 -3.10172706290E-01 -3.26465030133E-01
4.32000000000E+09 -3.15888887567E-01 -1.92982538041E-01 +2.85674662722E-03 -1.59991510049E-03 +2.93007785446E-03 -1.66796820074E-03 -3.22954114423E-01 -3.05415515792E-01
4.32500000000E+09 -3.28768525063E-01 -1.75998016557E-01 +2.41154354644E-03 -1.60781121707E-03 +2.39601379889E-03 -1.62066896973E-03 -3.35985894856E-01 -2.85083457161E-01
4.33000000000E+09 -3.39894032417E-01 -1.59607958248E-01 +2.74107433305E-03 -1.27885335405E-03 +2.66864331652E-03 -1.34332659381E-03 -3.49106178481E-01 -2.62938675074E-01
4.33500000000E+09 -3.48269206158E-01 -1.43686140015E-01 +3.07284309594E-03 -1.85045359013E-03 +2.94546147609E-03 -1.84886360954E-03 -3.60729562542E-01 -2.39520081938E-01
4.34000000000E+09 -3.53989838676E-01 -1.28127505161E-01 +3.03281021165E-03 -2.47388319966E-03 +3.01014084844E-03 -2.52573621155E-03 -3.71663019366E-01 -2.16375893329E-01
4.34500000000E+09 -3.58232170870E-01 -1.11683757054E-01 +2.63070198887E-03 -3.36237277640E-03 +2.63609183580E-03 -3.36389376812E-03 -3.82404881722E-01 -1.90510471419E-01
4.35000000000E+09 -3.59861412463E-01 -9.28214367148E-02 +1.81757595676E-03 -3.74342374675E-03 +1.78980943833E-03 -3.74821849999E-03 -3.89830096949E-01 -1.65704865327E-01
4.35500000000E+09 -3.61407654239E-01 -7.33711209601E-02 +1.38244815448E-03 -3.83268694478E-03 +1.39666353408E-03 -3.85537131888E-03 -3.97876023805E-01 -1.42354944901E-01
4.36000000000E+09 -3.64502944100E-01 -5.18064435983E-02 +9.51908272742E-04 -3.87874084795E-03 +9.39588540222E-04 -3.92879137582E-03 -4.04444265516E-01 -1.18066285766E-01
4.36500000000E+09 -3.67765768272E-01 -2.77175660078E-02 +3.71742373796E-04 -4.25001335651E-03 +3.75753692699E-04 -4.25336892221E-03 -4.09824534342E-01 -9.45907148020E-02
4.37000000000E+09 -3.72147844159E-01 -4.83039143264E-03 -4.67271322906E-04 -4.14628529652E-03 -4.84318579318E-04 -4.16756701099E-03 -4.14168126257E-01 -7.02957923638E-02
4.37500000000E+09 -3.77841679033E-01 +1.80729702155E-02 -1.11172144397E-03 -3.56507083814E-03 -1.10378091955E-03 -3.61435933028E-03 -4.17620171983E-01 -4.52547729368E-02
4.38000000000E+09 -3.83500856210E-01 +3.93329264624E-02 -9.70491256809E-04 -3.44390359823E-03 -1.05974227235E-03 -3.47908682260E-03 -4.19627765859E-01 -2.01535431976E-02
4.38500000000E+09 -3.88626675888E-01 +5.79343439784E-02 -9.76868900903E-04 -3.18005146010E-03 -1.03989855616E-03 -3.24697705303E-03 -4.21221834194E-01 +5.07365653109E-03
4.39000000000E+09 -3.92023236865E-01 +7.44502176254E-02 -1.25030691597E-03 -3.90444828662E-03 -1.37983431711E-03 -3.95875620385E-03 -4.21648050997E-01 +3.03593465469E-02
4.39500000000E+09 -3.93739948196E-01 +8.88345771974E-02 -2.61106749444E-03 -3.83145001433E-03 -2.72141657998E-03 -3.80615550366E-03 -4.21373676444E-01 +5.40639180871E-02
4.40000000000E+09 -3.93370443316E-01 +1.03081158803E-01 -3.03156422721E-03 -2.94861836012E-03 -3.14993276511E-03 -2.94171602491E-03 -4.20343137317E-01 +7.85937678664E-02
4.40500000000E+09 -3.90939912302E-01 +1.18324972206E-01 -3.43845013640E-03 -2.38011226090E-03 -3.51449529138E-03 -2.33831956258E-03 -4.17482212843E-01 +1.02285055432E-01
4.41000000000E+09 -3.86079697409E-01 +1.35178988173E-01 -3.34239170323E-03 -1.80896776400E-03 -3.41970151547E-03 -1.75430450264E-03 -4.13873762802E-01 +1.25488954337E-01
4.41500000000E+09 -3.80527440261E-01 +1.54014262978E-01 -3.50869744222E-03 -1.36951519265E-03 -3.58529332897E-03 -1.25646309409E-03 -4.09131973540E-01 +1.49562331529E-01
4.42000000000E+09 -3.74824149273E-01 +1.75353929974E-01 -3.30016102700E-03 -9.75291294908E-04 -3.37802391015E-03 -9.63439030699E-04 -4.03929926283E-01 +1.71606539445E-01
4.42500000000E+09 -3.68705799695E-01 +1.97259995897E-01 -3.40397538188E-03 -7.78996801860E-04 -3.47253151030E-03 -6.49002893709E-04 -3.98630894851E-01 +1.94921868984E-01
4.43000000000E+09 -3.64661522106E-01 +2.18346777557E-01 -3.17629946159E-03 -5.60152455638E-04 -3.14451525683E-03 -4.44736774274E-04 -3.92542116300E-01 +2.16837255706E-01
4.43500000000E+09 -3.62476697080E-01 +2.39126094293E-01 -3.70771412969E-03 -6.58959052777E-04 -3.73612134912E-03 -5.29963605092E-04 -3.86220268756E-01 +2.38494461556E-01
4.44000000000E+09 -3.60932991406E-01 +2.58178666333E-01 -3.94407302826E-03 +5.03333811496E-05 -3.89660733614E-03 +1.34479895278E-04 -3.78199217656E-01 +2.61339137721E-01
4.44500000000E+09 -3.59657906952E-01 +2.74987829889E-01 -3.88678590777E-03 +7.29395271151E-04 -3.90078300208E-03 +8.30632857145E-04 -3.69137092176E-01 +2.81151780041E-01
4.45000000000E+09 -3.57432623136E-01 +2.89694831295E-01 -3.74412437016E-03 +1.43324610063E-03 -3.63971133392E-03 +1.55340205923E-03 -3.59693019033E-01 +3.01494854443E-01
4.45500000000E+09 -3.53137464649E-01 +3.02757809329E-01 -3.23614900917E-03 +2.09051202682E-03 -3.18037274393E-03 +2.18596147672E-03 -3.48720291342E-01 +3.20354456561E-01
4.46000000000E+09 -3.46824127415E-01 +3.14424363617E-01 -2.43259673353E-03 +2.15699035615E-03 -2.32267587464E-03 +2.25548863436E-03 -3.39245296447E-01 +3.37815885994E-01
4.46500000000E+09 -3.38260753161E-01 +3.26967627828E-01 -2.02235765823E-03 +1.98886960892E-03 -1.92632534979E-03 +1.99368235445E-03 -3.28153430972E-01 +3.56564967972E-01
4.47000000000E+09 -3.27854509182E-01 +3.40756616361E-01 -1.95328019839E-03 +1.38793455292E-03 -1.86285806833E-03 +1.46293421710E-03 -3.16570840242E-01 +3.74131365879E-01
4.47500000000E+09 -3.15978862045E-01 +3.56969484765E-01 -2.98334904053E-03 +1.81404381257E-03 -2.83486168117E-03 +1.84372901614E-03 -3.04872998182E-01 +3.90765509695E-01
4.48000000000E+09 -3.02779026607E-01 +3.74555774191E-01 -2.30236995938E-03 +2.83840363968E-03 -2.19759969378E-03 +2.76527206436E-03 -2.93105115690E-01 +4.07903389618E-01
4.48500000000E+09 -2.90308585416E-01 +3.92155903669E-01 -1.86080606514E-03 +3.13735225537E-03 -1.78467229784E-03 +3.08163815142E-03 -2.80562276431E-01 +4.24160677817E-01
4.49000000000E+09 -2.80560450923E-01 +4.09027416511E-01 -1.29787233505E-03 +3.46843060679E-03 -1.26123560359E-03 +3.36734476567E-03 -2.67239571724E-01 +4.39990223326E-01
4.49500000000E+09 -2.72705148720E-01 +4.27073237235E-01 -3.58048037286E-04 +3.20039757064E-03 -3.56919095093E-04 +3.19091599073E-03 -2.53512566962E-01 +4.54054850444E-01
4.50000000000E+09 -2.65418142320E-01 +4.42241641374E-01 -2.88363425206E-04 +2.70121562742E-03 -2.83414134366E-04 +2.66567042063E-03 -2.40596381914E-01 +4.67641963972E-01
4.50500000000E+09 -2.59780302458E-01 +4.55519174275E-01 -2.49811176686E-04 +2.61001304872E-03 -2.32953947578E-04 +2.59903240480E-03 -2.26641968537E-01 +4.80594187964E-01
4.51000000000E+09 -2.53292079304E-01 +4.66528814867E-01 -3.68218886987E-04 +2.56115067411E-03 -3.22051025691E-04 +2.55900307701E-03 -2.13447517299E-01 +4.93128277041E-01
4.51500000000E+09 -2.45393795934E-01 +4.75124666672E-01 -1.91971312588E-04 +2.87163724193E-03 -1.37980113371E-04 +2.83638917430E-03 -1.99750001331E-01 +5.05207134744E-01
4.52000000000E+09 -2.36341662686E-01 +4.82342058581E-01 -1.09185122691E-05 +2.95128501764E-03 -3.28573076206E-05 +2.91637814875E-03 -1.86235508557E-01 +5.16795831728E-01
4.52500000000E+09 -2.25335569342E-01 +4.90314787446E-01 +3.46966031749E-04 +3.06945901525E-03 +3.89945066866E-04 +3.00830714616E-03 -1.72987259227E-01 +5.27651432178E-01
4.53000000000E+09 -2.11564437039E-01 +4.99010089217E-01 +7.48083509434E-04 +3.36159619592E-03 +7.75220242266E-04 +3.28476989691E-03 -1.58898218073E-01 +5.38528312471E-01
4.53500000000E+09 -1.95949078919E-01 +5.08577077193E-01 +1.60384902793E-03 +3.00453446880E-03 +1.60244549285E-03 +2.88838163427E-03 -1.44342884297E-01 +5.48502838977E-01
4.54000000000E+09 -1.80153595383E-01 +5.18903628147E-01 +1.78238818292E-03 +2.63068974955E-03 +1.76054524142E-03 +2.51107176437E-03 -1.29488480393E-01 +5.58596105063E-01
4.54500000000E+09 -1.65065509716E-01 +5.29692086944E-01 +1.71139946333E-03 +2.30821724351E-03 +1.70989629669E-03 +2.24424889097E-03 -1.14163471989E-01 +5.67498494301E-01
4.55000000000E+09 -1.52262580031E-01 +5.40366454115E-01 +2.13720412208E-03 +2.29342531609E-03 +2.14328170490E-03 +2.23633545965E-03 -9.96118383940E-02 +5.76415603243E-01
4.55500000000E+09 -1.41619050949E-01 +5.51299031031E-01 +2.17574901668E-03 +1.90973291169E-03 +2.13891404780E-03 +1.82119593266E-03 -8.53704996261E-02 +5.84965350947E-01
4.56000000000E+09 -1.32239387307E-01 +5.61454627710E-01 +2.27847578186E-03 +1.81613327193E-03 +2.24146989649E-03 +1.74178690272E-03 -7.05018410209E-02 +5.93552611128E-01
4.56500000000E+09 -1.23607273251E-01 +5.69856571139E-01 +2.67761715328E-03 +1.59394865846E-03 +2.63157233720E-03 +1.51829723481E-03 -5.59745763086E-02 +6.00708487429E-01
4.57000000000E+09 -1.14766290277E-01 +5.76577009162E-01 +2.69636853365E-03 +1.13539209257E-03 +2.64768734671E-03 +1.11335500867E-03 -4.10830362762E-02 +6.08078933703E-01
