# Hz S RI R 50
! CMT, C1220, 16058040, 17.2.0/1
! Date: 15/08/2018 11:40:03
! Data: Format (Calibration Info)
! Freq                      S11: Re/Im (F2)                       S21: Re/Im (F2)                       S12: Re/Im (F2)                       S22: Re/Im (F2)            
4.00000000000E+09 +6.36725317458E-01 -3.34993601998E-01 -1.12253105487E-03 -2.83869997235E-03 -1.05898463776E-03 -2.98862226328E-03 +7.70394490565E-01 -3.53769175978E-01
4.00500000000E+09 +6.27541251708E-01 -3.41504838143E-01 -1.31922543492E-03 -2.87857605126E-03 -1.18818881147E-03 -3.00536579757E-03 +7.61529315086E-01 -3.65209786340E-01
4.01000000000E+09 +6.17578037528E-01 -3.47052135276E-01 -1.72361445031E-03 -3.04805221353E-03 -1.59427839342E-03 -3.13058312775E-03 +7.51863554408E-01 -3.76200413161E-01
4.01500000000E+09 +6.06772395373E-01 -3.52381697353E-01 -2.08815484012E-03 -2.68917565688E-03 -2.04233041326E-03 -2.82090363515E-03 +7.42212238300E-01 -3.86335669580E-01
4.02000000000E+09 +5.95250601981E-01 -3.58926114582E-01 -2.24792369959E-03 -2.68442460043E-03 -2.19132916232E-03 -2.85099454682E-03 +7.32693970683E-01 -3.96777479622E-01
4.02500000000E+09 +5.82800277261E-01 -3.65976331438E-01 -2.94175918398E-03 -2.59651554072E-03 -2.86715350644E-03 -2.79992995353E-03 +7.22193465808E-01 -4.07444193469E-01
4.03000000000E+09 +5.70401101816E-01 -3.74085357324E-01 -3.37418483165E-03 -2.06494902031E-03 -3.37283537842E-03 -2.28568747482E-03 +7.11455895927E-01 -4.17784492241E-01
4.03500000000E+09 +5.57440754300E-01 -3.83421938385E-01 -3.42184198769E-03 -1.63862189224E-03 -3.36778876185E-03 -1.81080052982E-03 +7.00142743504E-01 -4.28573538539E-01
4.04000000000E+09 +5.44312433848E-01 -3.92564334448E-01 -3.66736821994E-03 -1.30932489583E-03 -3.72010940696E-03 -1.50781800151E-03 +6.88322484038E-01 -4.39223681170E-01
4.04500000000E+09 +5.31805019982E-01 -4.01851454574E-01 -3.65664362543E-03 -8.45108403037E-04 -3.72934209664E-03 -1.09101316261E-03 +6.76872833476E-01 -4.49295543305E-01
4.05000000000E+09 +5.18774617486E-01 -4.10208459855E-01 -3.77681889369E-03 -6.15400921036E-04 -3.88581978724E-03 -8.81895333024E-04 +6.65510904877E-01 -4.59651749805E-01
4.05500000000E+09 +5.04941502664E-01 -4.17204884207E-01 -4.02788303935E-03 -2.36070009879E-04 -4.19459318568E-03 -3.52422789566E-04 +6.52995760172E-01 -4.69779242235E-01
4.06000000000E+09 +4.91208540627E-01 -4.21842064235E-01 -4.09519317746E-03 +3.27813339251E-04 -4.30743900565E-03 +2.49916976299E-04 +6.40482704880E-01 -4.79209522711E-01
4.06500000000E+09 +4.77174864064E-01 -4.25607383576E-01 -3.76865206725E-03 +8.88449139493E-04 -3.93146733645E-03 +9.40119976129E-04 +6.26889706476E-01 -4.88628615492E-01
4.07000000000E+09 +4.62650696602E-01 -4.28698219111E-01 -3.60438102473E-03 +1.08440421901E-03 -3.71039610697E-03 +1.03662847021E-03 +6.12728274226E-01 -4.98091738376E-01
4.07500000000E+09 +4.47147612437E-01 -4.32059652400E-01 -3.42689580648E-03 +1.29310581752E-03 -3.52121088529E-03 +1.18513433592E-03 +5.98798676749E-01 -5.07807301052E-01
4.08000000000E+09 +4.30614473590E-01 -4.35448530366E-01 -3.45966750992E-03 +1.46198914121E-03 -3.60183989594E-03 +1.33748321196E-03 +5.83891429643E-01 -5.17626375862E-01
4.08500000000E+09 +4.13118680439E-01 -4.39530192284E-01 -3.44176976374E-03 +1.71732225741E-03 -3.64585316350E-03 +1.67632282823E-03 +5.68849848442E-01 -5.26148853695E-01
4.09000000000E+09 +3.95261491503E-01 -4.43223674915E-01 -3.30879545411E-03 +2.09423842567E-03 -3.52238534774E-03 +2.07671104436E-03 +5.53891249073E-01 -5.33991160041E-01
4.09500000000E+09 +3.77845978413E-01 -4.47156574168E-01 -3.34852535694E-03 +2.45666184338E-03 -3.48264203488E-03 +2.49859987511E-03 +5.38557785349E-01 -5.41272235483E-01
4.10000000000E+09 +3.60618410536E-01 -4.51032041678E-01 -3.03546537156E-03 +2.72450920834E-03 -3.15197564028E-03 +2.73981842709E-03 +5.22925190966E-01 -5.48434845892E-01
4.10500000000E+09 +3.43834880989E-01 -4.54140405483E-01 -2.94865834822E-03 +3.04959464067E-03 -3.10087263175E-03 +3.02103715720E-03 +5.05876185137E-01 -5.56158042843E-01
4.11000000000E+09 +3.26645092406E-01 -4.56014812700E-01 -2.77361656703E-03 +3.48480763960E-03 -2.94731850317E-03 +3.48199571462E-03 +4.88148876964E-01 -5.62934363900E-01
4.11500000000E+09 +3.10399291582E-01 -4.56175756918E-01 -2.18341259927E-03 +3.78189317698E-03 -2.39250353045E-03 +3.84977276901E-03 +4.70945490684E-01 -5.69609309627E-01
4.12000000000E+09 +2.93618418661E-01 -4.55657395896E-01 -2.09526878338E-03 +3.90235615766E-03 -2.27721382528E-03 +4.00344159958E-03 +4.53279919438E-01 -5.76316208910E-01
4.12500000000E+09 +2.76522426762E-01 -4.54064660675E-01 -1.99531751821E-03 +4.19525491345E-03 -2.14075757086E-03 +4.27711635198E-03 +4.35662342821E-01 -5.82021122602E-01
4.13000000000E+09 +2.59231825077E-01 -4.52227143841E-01 -1.55047194883E-03 +4.72414322802E-03 -1.73252669321E-03 +4.82502428173E-03 +4.17349056483E-01 -5.87336399345E-01
4.13500000000E+09 +2.41221351668E-01 -4.50723446454E-01 -1.22645201992E-03 +4.89097109534E-03 -1.39871097918E-03 +5.03607743176E-03 +3.98866820774E-01 -5.91910822184E-01
4.14000000000E+09 +2.22849900276E-01 -4.50480933438E-01 -8.21457732721E-04 +5.50220554094E-03 -9.52341478438E-04 +5.66685767701E-03 +3.79330708411E-01 -5.96304554116E-01
4.14500000000E+09 +2.04050431771E-01 -4.50520847947E-01 +1.55593444253E-04 +6.00277275655E-03 +4.65684785975E-05 +6.27502247038E-03 +3.59858072782E-01 -6.00224506401E-01
4.15000000000E+09 +1.85498376702E-01 -4.52028263336E-01 +1.15269861612E-03 +5.72291028156E-03 +1.12445342334E-03 +5.90072002488E-03 +3.41013096312E-01 -6.04757975118E-01
4.15500000000E+09 +1.66050943643E-01 -4.52955236256E-01 +1.82209980676E-03 +5.29174958265E-03 +1.80318948054E-03 +5.50827555614E-03 +3.20637139614E-01 -6.09102105345E-01
4.16000000000E+09 +1.47431359692E-01 -4.52330673889E-01 +2.09333213802E-03 +5.07406181959E-03 +2.10666787449E-03 +5.25789696235E-03 +2.99675560700E-01 -6.10892907954E-01
4.16500000000E+09 +1.29668748205E-01 -4.49980108632E-01 +2.25295959028E-03 +4.98609754252E-03 +2.29113064424E-03 +5.16448327122E-03 +2.79978164802E-01 -6.11651430756E-01
4.17000000000E+09 +1.13556830597E-01 -4.45048584981E-01 +2.93927460853E-03 +5.24289872631E-03 +2.95074884498E-03 +5.40489109895E-03 +2.59316932117E-01 -6.11982893780E-01
4.17500000000E+09 +9.86671707029E-02 -4.39276193073E-01 +3.76976133189E-03 +5.22965912608E-03 +3.76255742825E-03 +5.38232464480E-03 +2.37961889238E-01 -6.11769512109E-01
4.18000000000E+09 +8.35228482766E-02 -4.32668128432E-01 +4.82222144724E-03 +4.47786518147E-03 +4.86816958970E-03 +4.71187539721E-03 +2.16538918535E-01 -6.11345282886E-01
4.18500000000E+09 +6.72890743159E-02 -4.24722518799E-01 +5.14994277348E-03 +3.83731566347E-03 +5.16454254817E-03 +4.02075791183E-03 +1.94103435045E-01 -6.10508264692E-01
4.19000000000E+09 +5.08836878259E-02 -4.16055498070E-01 +5.59992945777E-03 +3.42874329314E-03 +5.67038903075E-03 +3.63108182984E-03 +1.72905197310E-01 -6.08369938609E-01
4.19500000000E+09 +3.32934806724E-02 -4.06994243483E-01 +6.08409989506E-03 +2.83185114637E-03 +6.22380811623E-03 +3.06411990990E-03 +1.51592282645E-01 -6.06022419752E-01
4.20000000000E+09 +1.59933570943E-02 -3.97882368327E-01 +6.41345006810E-03 +1.94584581862E-03 +6.56363560756E-03 +2.12743793736E-03 +1.29782155439E-01 -6.03507583570E-01
4.20500000000E+09 -5.06600014665E-04 -3.90027777734E-01 +6.46746531201E-03 +1.13359604742E-03 +6.70327464084E-03 +1.36877339053E-03 +1.07028603473E-01 -5.99569210658E-01
4.21000000000E+09 -1.67467759897E-02 -3.82821125043E-01 +6.57175020574E-03 +2.91763433361E-04 +6.78007533926E-03 +3.83922023320E-04 +8.40664217377E-02 -5.94060873138E-01
4.21500000000E+09 -3.29427749889E-02 -3.76036517982E-01 +6.13391436298E-03 +8.13444545134E-05 +6.29707155190E-03 +1.58264780065E-04 +6.25045848547E-02 -5.88915852157E-01
4.22000000000E+09 -4.84461582333E-02 -3.67539719955E-01 +6.52734985358E-03 +1.97093556655E-05 +6.76072269712E-03 +1.13768339423E-04 +4.02455351496E-02 -5.83170781667E-01
4.22500000000E+09 -6.20225456445E-02 -3.57537955041E-01 +7.25325484818E-03 -1.06362878174E-03 +7.43341397684E-03 -9.96051851353E-04 +1.77296586830E-02 -5.77110225823E-01
4.23000000000E+09 -7.41873447936E-02 -3.46130247719E-01 +7.10159352589E-03 -2.43961160818E-03 +7.24427067134E-03 -2.36844975074E-03 -4.40562521139E-03 -5.69068471393E-01
4.23500000000E+09 -8.57991665847E-02 -3.33760614653E-01 +6.39961850448E-03 -3.28997859156E-03 +6.59466773608E-03 -3.39221462289E-03 -2.58524763218E-02 -5.59457437847E-01
4.24000000000E+09 -9.79936673429E-02 -3.20447104204E-01 +5.78330497366E-03 -3.81246878022E-03 +5.97025029777E-03 -3.86962981207E-03 -4.66586160701E-02 -5.49535058899E-01
4.24500000000E+09 -1.10941824133E-01 -3.06178818814E-01 +5.40988587295E-03 -3.84499388181E-03 +5.50975288990E-03 -3.92157474121E-03 -6.71788541143E-02 -5.39533775852E-01
4.25000000000E+09 -1.25068270308E-01 -2.91140148418E-01 +5.55624942610E-03 -4.45370858636E-03 +5.68248517484E-03 -4.54417194190E-03 -8.92060825273E-02 -5.28844824324E-01
4.25500000000E+09 -1.39726496425E-01 -2.76998210357E-01 +4.99743293726E-03 -5.63632653384E-03 +5.15838354436E-03 -5.76199101158E-03 -1.11016142890E-01 -5.16552900188E-01
4.26000000000E+09 -1.55526380732E-01 -2.63610447728E-01 +4.06801110548E-03 -6.02897295272E-03 +4.14506300646E-03 -6.17666094123E-03 -1.31644297259E-01 -5.02419958657E-01
4.26500000000E+09 -1.71894975275E-01 -2.50778395938E-01 +3.62469829193E-03 -5.89286453955E-03 +3.67489633075E-03 -6.10160473525E-03 -1.51405231658E-01 -4.88024369758E-01
4.27000000000E+09 -1.87397883899E-01 -2.37875082386E-01 +3.35452169980E-03 -6.52219442015E-03 +3.45099877988E-03 -6.65199961019E-03 -1.70525333635E-01 -4.73016526356E-01
4.27500000000E+09 -2.01945676621E-01 -2.24990937437E-01 +2.66396883026E-03 -7.14267676438E-03 +2.67587231713E-03 -7.33264308538E-03 -1.90898511014E-01 -4.56787106453E-01
4.28000000000E+09 -2.13496218805E-01 -2.10900508917E-01 +2.06455248417E-03 -7.51154891996E-03 +2.00657503564E-03 -7.68375210265E-03 -2.09610241199E-01 -4.40035171520E-01
4.28500000000E+09 -2.22237544836E-01 -1.97159098281E-01 +1.24917841547E-03 -8.30827095426E-03 +1.18302252623E-03 -8.37161812682E-03 -2.29114194260E-01 -4.23511963478E-01
4.29000000000E+09 -2.29861223680E-01 -1.83328684878E-01 -3.39151626349E-04 -8.62502788549E-03 -3.43606108646E-04 -8.78197391704E-03 -2.46619102270E-01 -4.04680104093E-01
4.29500000000E+09 -2.37416880574E-01 -1.68391714793E-01 -1.57132455365E-03 -7.83179690590E-03 -1.61029076708E-03 -7.96204454622E-03 -2.61722646296E-01 -3.87939324848E-01
4.30000000000E+09 -2.45306982910E-01 -1.51409297754E-01 -2.46169051272E-03 -7.38546843530E-03 -2.47881861453E-03 -7.51273207674E-03 -2.78475313836E-01 -3.70103655965E-01
4.30500000000E+09 -2.52845056814E-01 -1.33179865528E-01 -2.81565284121E-03 -6.69338473359E-03 -2.90181929859E-03 -6.84186995392E-03 -2.94369032239E-01 -3.49627687389E-01
4.31000000000E+09 -2.60957877973E-01 -1.13283977740E-01 -2.79444241913E-03 -6.57591779831E-03 -2.96786316641E-03 -6.65701714854E-03 -3.09491177629E-01 -3.29206519511E-01
4.31500000000E+09 -2.67911069718E-01 -9.40316588071E-02 -3.40859162288E-03 -6.70215371440E-03 -3.50474585170E-03 -6.81028088782E-03 -3.23853207274E-01 -3.07289229458E-01
4.32000000000E+09 -2.74664814633E-01 -7.56080117360E-02 -4.11188969497E-03 -6.73534294744E-03 -4.21631908982E-03 -6.82858075789E-03 -3.36785306018E-01 -2.85822337918E-01
4.32500000000E+09 -2.80798806612E-01 -5.98290884477E-02 -5.56901066695E-03 -6.54802223578E-03 -5.70715026421E-03 -6.61977121891E-03 -3.49447452436E-01 -2.63889950232E-01
4.33000000000E+09 -2.87575497149E-01 -4.43468586286E-02 -6.20005003206E-03 -5.79698796827E-03 -6.31444186465E-03 -5.86848025558E-03 -3.61412899898E-01 -2.40290098561E-01
4.33500000000E+09 -2.92524364063E-01 -2.82038815303E-02 -7.27919420766E-03 -5.04994182999E-03 -7.42759200687E-03 -4.94329030404E-03 -3.71242667330E-01 -2.15369797411E-01
4.34000000000E+09 -2.94963292983E-01 -1.21023382853E-02 -7.94568661278E-03 -3.50210385450E-03 -7.97702032066E-03 -3.48719987817E-03 -3.79275146025E-01 -1.91254264256E-01
4.34500000000E+09 -2.94990004351E-01 +3.85262376882E-03 -7.38525977043E-03 -2.25284355061E-03 -7.39303866823E-03 -2.20522840576E-03 -3.88549750383E-01 -1.68756659137E-01
4.35000000000E+09 -2.94677861440E-01 +2.06896734374E-02 -7.08324081715E-03 -2.14531984215E-03 -7.13453842028E-03 -2.18119384295E-03 -3.98708339461E-01 -1.43797331293E-01
4.35500000000E+09 -2.93061187557E-01 +3.86837917420E-02 -7.58170433583E-03 -1.82612433423E-03 -7.66469758070E-03 -1.80095265648E-03 -4.05872011177E-01 -1.17712713932E-01
4.36000000000E+09 -2.91976554919E-01 +5.72278523430E-02 -7.55335948849E-03 -1.39210127824E-03 -7.57864660610E-03 -1.35445868551E-03 -4.11301504629E-01 -9.34006895087E-02
4.36500000000E+09 -2.91008105948E-01 +7.71730543917E-02 -8.64791611197E-03 -1.37058676936E-03 -8.75121849737E-03 -1.30748862472E-03 -4.15510042486E-01 -6.92041780391E-02
4.37000000000E+09 -2.91099638064E-01 +9.67008740630E-02 -9.56353209516E-03 +4.07499684205E-04 -9.74639525651E-03 +4.66607870884E-04 -4.18623965973E-01 -4.49403135073E-02
4.37500000000E+09 -2.91511422814E-01 +1.15794363009E-01 -9.11113956309E-03 +2.28000744589E-03 -9.24871109596E-03 +2.41815801066E-03 -4.20975298705E-01 -2.06565437392E-02
4.38000000000E+09 -2.93030108350E-01 +1.33549386962E-01 -8.62764409801E-03 +3.09417313559E-03 -8.71024532769E-03 +3.25940838901E-03 -4.22807162683E-01 +5.54512367261E-03
4.38500000000E+09 -2.93641371793E-01 +1.50268871978E-01 -7.84513885379E-03 +4.04557342228E-03 -7.96633730406E-03 +4.27265431706E-03 -4.22205675610E-01 +3.12232014711E-02
4.39000000000E+09 -2.93169057619E-01 +1.65411548030E-01 -7.13054424565E-03 +4.56600871127E-03 -7.19655035090E-03 +4.81796299630E-03 -4.22141247514E-01 +5.52075288991E-02
4.39500000000E+09 -2.91421717200E-01 +1.79028519748E-01 -7.24730002485E-03 +4.79776973136E-03 -7.24494708250E-03 +4.99505619414E-03 -4.21577248932E-01 +7.92580366072E-02
4.40000000000E+09 -2.87627803907E-01 +1.92541178284E-01 -6.68482034359E-03 +6.25905224398E-03 -6.64318295403E-03 +6.43937166866E-03 -4.20564326823E-01 +1.03549577391E-01
4.40500000000E+09 -2.82720073461E-01 +2.05234200781E-01 -6.05107830256E-03 +6.99356455587E-03 -6.00505948215E-03 +7.18419693161E-03 -4.17049990292E-01 +1.28157367978E-01
4.41000000000E+09 -2.76675441920E-01 +2.19369536682E-01 -4.98459749657E-03 +7.19692682593E-03 -4.95892672228E-03 +7.39369811560E-03 -4.12042106253E-01 +1.52182146367E-01
4.41500000000E+09 -2.69539665826E-01 +2.35473623275E-01 -4.73100880913E-03 +8.37295252927E-03 -4.64049309359E-03 +8.51856459427E-03 -4.06686571408E-01 +1.75405041178E-01
4.42000000000E+09 -2.62108537544E-01 +2.52213146273E-01 -3.61643075721E-03 +8.76449177690E-03 -3.40633572526E-03 +8.90135483869E-03 -3.99931862171E-01 +1.99113591053E-01
4.42500000000E+09 -2.55152245498E-01 +2.69405472648E-01 -2.71933757024E-03 +9.83484845925E-03 -2.46426676250E-03 +9.87862684854E-03 -3.93865230989E-01 +2.20944131843E-01
4.43000000000E+09 -2.49038107940E-01 +2.86522116092E-01 -5.14290575477E-04 +1.01729503894E-02 -3.16929089978E-04 +1.01056236149E-02 -3.86695723016E-01 +2.44185448190E-01
4.43500000000E+09 -2.43569720261E-01 +3.02858237070E-01 +6.72674292214E-04 +9.28869242317E-03 +7.87267455887E-04 +9.21250837824E-03 -3.77727497892E-01 +2.65645037428E-01
4.44000000000E+09 -2.39048645600E-01 +3.16865843970E-01 +1.64505285454E-03 +8.52896236709E-03 +1.77796436479E-03 +8.50454345158E-03 -3.69352599304E-01 +2.85605914302E-01
4.44500000000E+09 -2.35144704830E-01 +3.29230429821E-01 +1.91529831041E-03 +8.33133863788E-03 +2.06200863206E-03 +8.31416087021E-03 -3.60843314925E-01 +3.05929654324E-01
4.45000000000E+09 -2.31412829470E-01 +3.40279140538E-01 +2.52265868856E-03 +8.01563159930E-03 +2.64853259679E-03 +7.92780962715E-03 -3.50878008556E-01 +3.26096272812E-01
4.45500000000E+09 -2.25143256693E-01 +3.50270061206E-01 +3.19429407039E-03 +8.47671416629E-03 +3.33588963746E-03 +8.38554840043E-03 -3.40109035279E-01 +3.45560895338E-01
4.46000000000E+09 -2.18139285489E-01 +3.58983674734E-01 +4.86776580706E-03 +7.96674213064E-03 +4.98267819994E-03 +7.84978733081E-03 -3.27204433155E-01 +3.64511945953E-01
4.46500000000E+09 -2.08332732139E-01 +3.68844009645E-01 +5.53407647974E-03 +6.88545050097E-03 +5.59868788816E-03 +6.72672484560E-03 -3.14753152475E-01 +3.80389133231E-01
4.47000000000E+09 -1.97000460371E-01 +3.78619634140E-01 +6.17731758278E-03 +6.31075616444E-03 +6.25186973804E-03 +6.13985121106E-03 -3.03339770852E-01 +3.97129574573E-01
4.47500000000E+09 -1.84392689923E-01 +3.89127462675E-01 +6.46669476455E-03 +5.51970371250E-03 +6.47888675003E-03 +5.26734342315E-03 -2.91702629280E-01 +4.14908241303E-01
4.48000000000E+09 -1.72478105153E-01 +4.00203754625E-01 +7.08050968990E-03 +4.82109129221E-03 +7.10185632920E-03 +4.58735954234E-03 -2.78511297538E-01 +4.31562599666E-01
4.48500000000E+09 -1.61659977062E-01 +4.12726575729E-01 +7.71550077315E-03 +4.36526746119E-03 +7.65673153289E-03 +4.18542851769E-03 -2.64624017873E-01 +4.46768745066E-01
4.49000000000E+09 -1.51568577379E-01 +4.25387511196E-01 +8.11673613723E-03 +2.61142938730E-03 +7.98939377227E-03 +2.46549513645E-03 -2.51554787318E-01 +4.61311795874E-01
4.49500000000E+09 -1.43161137898E-01 +4.37763949062E-01 +7.48497004457E-03 +2.02599228693E-03 +7.36269986304E-03 +1.92608220015E-03 -2.38140505129E-01 +4.75803991042E-01
4.50000000000E+09 -1.35801264523E-01 +4.48507684578E-01 +7.72811873222E-03 +1.82749237618E-03 +7.62966356768E-03 +1.74309666880E-03 -2.23287988406E-01 +4.89615913524E-01
4.50500000000E+09 -1.29426349169E-01 +4.57988284957E-01 +7.95109812096E-03 +1.14111921390E-03 +7.85348401339E-03 +1.13759933433E-03 -2.09310970191E-01 +5.02584841419E-01
4.51000000000E+09 -1.22183193125E-01 +4.65320425349E-01 +8.51479577349E-03 +4.48845860041E-04 +8.41541556490E-03 +3.52758506009E-04 -1.93393425341E-01 +5.14897423383E-01
4.51500000000E+09 -1.14740609710E-01 +4.70871083679E-01 +8.55370317944E-03 -7.53189129839E-04 +8.41633978634E-03 -8.47313522479E-04 -1.79376345412E-01 +5.25153666221E-01
4.52000000000E+09 -1.05628284544E-01 +4.75473770049E-01 +8.53766363596E-03 -2.12002457806E-03 +8.37902351112E-03 -2.21509194014E-03 -1.65978899451E-01 +5.36019833251E-01
4.52500000000E+09 -9.51417509844E-02 +4.79390862913E-01 +7.59579529336E-03 -2.87648820961E-03 +7.47563180028E-03 -2.90375011694E-03 -1.51845347754E-01 +5.46743401653E-01
4.53000000000E+09 -8.31335555424E-02 +4.84191869509E-01 +7.37164386184E-03 -3.43363427445E-03 +7.19191635118E-03 -3.49713403348E-03 -1.36929959086E-01 +5.56154338648E-01
4.53500000000E+09 -6.95938476118E-02 +4.90156533175E-01 +6.91474980221E-03 -4.29663448669E-03 +6.75351199353E-03 -4.32689795526E-03 -1.22386566183E-01 +5.65368750966E-01
4.54000000000E+09 -5.50029314260E-02 +4.96674321298E-01 +6.40797098456E-03 -4.68621999942E-03 +6.16704663552E-03 -4.75251904361E-03 -1.06135962486E-01 +5.74335879211E-01
4.54500000000E+09 -4.11501453744E-02 +5.03458325659E-01 +5.71809930114E-03 -5.40546950559E-03 +5.50058221710E-03 -5.44488547623E-03 -9.15019498188E-02 +5.82876530922E-01
4.55000000000E+09 -2.83608829666E-02 +5.10562159520E-01 +5.29395988305E-03 -5.89489821544E-03 +5.02781517512E-03 -5.86740522672E-03 -7.56334254339E-02 +5.91595158423E-01
4.55500000000E+09 -1.76436834304E-02 +5.17375374179E-01 +4.34437630274E-03 -6.00895815395E-03 +4.15225214102E-03 -5.97512362469E-03 -6.00571645690E-02 +5.99458552398E-01
4.56000000000E+09 -9.00828615757E-03 +5.24656282332E-01 +4.10606020905E-03 -6.50111002059E-03 +3.87648172350E-03 -6.45407795181E-03 -4.50607378723E-02 +6.05454814607E-01
4.56500000000E+09 +2.73432680812E-05 +5.31082199369E-01 +3.56420493374E-03 -7.00311806815E-03 +3.33582865745E-03 -6.92242052311E-03 -3.10287164370E-02 +6.11919920453E-01
4.57000000000E+09 +8.73778766514E-03 +5.35862185248E-01 +2.60012322494E-03 -7.51631343317E-03 +2.37060379371E-03 -7.39746349861E-03 -1.59576782782E-02 +6.18137770952E-01
