# Hz S RI R 50
! CMT, C1220, 16058040, 17.2.0/1
! Date: 15/08/2018 12:22:52
! Data: Format (Calibration Info)
! Freq                      S11: Re/Im (F2)                       S21: Re/Im (F2)                       S12: Re/Im (F2)                       S22: Re/Im (F2)            
4.00000000000E+09 +6.48763445253E-01 -3.52923201802E-01 +9.88816708051E-04 -2.27586125266E-04 +1.02726736753E-03 -2.67418816476E-04 +7.41982364227E-01 -3.24769104215E-01
4.00500000000E+09 +6.40767239018E-01 -3.58888270575E-01 +1.03828431640E-03 -2.51959129721E-04 +1.02150694803E-03 -2.87692557333E-04 +7.31339639879E-01 -3.35489421110E-01
4.01000000000E+09 +6.32067656931E-01 -3.65040265554E-01 +1.25905261885E-03 -6.20489577506E-04 +1.24964028428E-03 -5.94377278765E-04 +7.20407805770E-01 -3.46218263579E-01
4.01500000000E+09 +6.21423568978E-01 -3.71923173362E-01 +1.10744284708E-03 -1.00255727237E-03 +1.13288431645E-03 -1.03833331120E-03 +7.09227712308E-01 -3.56262189694E-01
4.02000000000E+09 +6.10506958438E-01 -3.79290491564E-01 +5.73979966721E-04 -1.22331445639E-03 +5.85963790945E-04 -1.18611135991E-03 +6.97714569962E-01 -3.66197978691E-01
4.02500000000E+09 +5.99062378754E-01 -3.88160364391E-01 +3.37926042908E-04 -7.33939784357E-04 +3.05896750556E-04 -7.52687670641E-04 +6.85440650977E-01 -3.76062593059E-01
4.03000000000E+09 +5.87891866796E-01 -3.97796816491E-01 +8.19570451815E-04 -5.97808943793E-04 +7.87225016954E-04 -5.29397644096E-04 +6.72613017001E-01 -3.85503346929E-01
4.03500000000E+09 +5.76849834462E-01 -4.08301593049E-01 +1.12566982132E-03 -1.01466717055E-03 +1.16616103645E-03 -9.26299416757E-04 +6.59631767701E-01 -3.95092092726E-01
4.04000000000E+09 +5.66037720835E-01 -4.18861731711E-01 +9.10770064890E-04 -1.59089938747E-03 +9.92061259642E-04 -1.56113355872E-03 +6.46179467135E-01 -4.05154228823E-01
4.04500000000E+09 +5.54702159545E-01 -4.28648443193E-01 +3.55698751309E-04 -1.80670446614E-03 +4.02612326992E-04 -1.71349613861E-03 +6.32148066945E-01 -4.14421106549E-01
4.05000000000E+09 +5.43419573242E-01 -4.36128373295E-01 -4.23058353304E-05 -1.61795387451E-03 +3.34723768217E-05 -1.61492030268E-03 +6.18274137248E-01 -4.22704494166E-01
4.05500000000E+09 +5.32644795899E-01 -4.41192090384E-01 -4.15777659282E-05 -1.50576260154E-03 +2.65308636674E-06 -1.48093732295E-03 +6.04215384621E-01 -4.30818110433E-01
4.06000000000E+09 +5.21948457214E-01 -4.45820080681E-01 -2.45322600777E-04 -1.47550160123E-03 -1.70718530480E-04 -1.51664116946E-03 +5.89720369041E-01 -4.38697828817E-01
4.06500000000E+09 +5.09823161347E-01 -4.49860417044E-01 -1.99117409980E-04 -1.56581833316E-03 -1.11329007289E-04 -1.59978740997E-03 +5.74138116300E-01 -4.46331522208E-01
4.07000000000E+09 +4.96037345408E-01 -4.54095664994E-01 -5.35328426621E-04 -1.77859945103E-03 -4.53732089659E-04 -1.86894634146E-03 +5.58309291292E-01 -4.53486321245E-01
4.07500000000E+09 +4.80632197985E-01 -4.57971665631E-01 -8.43133299705E-04 -1.66221593082E-03 -7.24087999996E-04 -1.67616032440E-03 +5.41906848889E-01 -4.60937439271E-01
4.08000000000E+09 +4.64483462333E-01 -4.62670427997E-01 -1.11327351188E-03 -1.60204675217E-03 -9.62170610992E-04 -1.76439972531E-03 +5.25851252208E-01 -4.67202515517E-01
4.08500000000E+09 +4.47770424580E-01 -4.67586965108E-01 -1.49263413420E-03 -1.39226146915E-03 -1.44762464540E-03 -1.58751708556E-03 +5.09679385010E-01 -4.74758063570E-01
4.09000000000E+09 +4.31671449520E-01 -4.73916635549E-01 -1.60133702121E-03 -1.14796433173E-03 -1.59234349738E-03 -1.33051025162E-03 +4.91832569308E-01 -4.80203417556E-01
4.09500000000E+09 +4.15153574990E-01 -4.80655248459E-01 -1.77128407785E-03 -8.75856146503E-04 -1.80795010606E-03 -9.95861242936E-04 +4.75188407052E-01 -4.84967072033E-01
4.10000000000E+09 +3.98645872682E-01 -4.86909539252E-01 -1.85986992096E-03 -5.30069946471E-04 -1.96825990714E-03 -6.33389459482E-04 +4.56887308030E-01 -4.90240593608E-01
4.10500000000E+09 +3.82624079677E-01 -4.91317533501E-01 -1.49918555467E-03 -1.05178573617E-04 -1.60599824094E-03 -2.19197918659E-04 +4.37872203919E-01 -4.93851993630E-01
4.11000000000E+09 +3.67015282287E-01 -4.94060728320E-01 -1.50871385716E-03 -3.27544200666E-04 -1.59173074552E-03 -4.00247034398E-04 +4.19195575505E-01 -4.97589128585E-01
4.11500000000E+09 +3.52190939508E-01 -4.95673848186E-01 -1.40591973663E-03 -4.24979090465E-04 -1.56768951151E-03 -4.49546730978E-04 +3.99957442885E-01 -5.01214070631E-01
4.12000000000E+09 +3.36544535090E-01 -4.96954306422E-01 -1.82357300411E-03 -5.28957918464E-04 -1.96889579755E-03 -6.08312154346E-04 +3.80481817922E-01 -5.04212607726E-01
4.12500000000E+09 +3.19492792682E-01 -4.97139168671E-01 -2.49680516855E-03 -5.40188350429E-05 -2.58665799614E-03 -8.64390394365E-05 +3.60380497993E-01 -5.06406769956E-01
4.13000000000E+09 +3.01786730588E-01 -4.97909790903E-01 -2.32681143732E-03 +8.36929325106E-04 -2.51509799891E-03 +8.83738888555E-04 +3.40179452791E-01 -5.07447527148E-01
4.13500000000E+09 +2.83085535240E-01 -4.99122490008E-01 -1.67586584248E-03 +1.22263870021E-03 -1.87375842296E-03 +1.34163862155E-03 +3.19825752060E-01 -5.07453692519E-01
4.14000000000E+09 +2.63869116285E-01 -5.01743646124E-01 -1.27106984753E-03 +1.05347405027E-03 -1.34665302377E-03 +1.18730001182E-03 +2.99442238423E-01 -5.07475871014E-01
4.14500000000E+09 +2.44547684033E-01 -5.06247360893E-01 -1.22676085982E-03 +9.24159735523E-04 -1.22797712310E-03 +1.07526930230E-03 +2.78643651933E-01 -5.06658413593E-01
4.15000000000E+09 +2.23735478612E-01 -5.10885991691E-01 -1.24073732475E-03 +8.39560869536E-04 -1.16119354382E-03 +9.58025984490E-04 +2.58564694446E-01 -5.05612278251E-01
4.15500000000E+09 +2.04296157624E-01 -5.14613549890E-01 -1.44887859212E-03 +6.97094011026E-04 -1.40988896861E-03 +7.50728154565E-04 +2.37810001686E-01 -5.03522875778E-01
4.16000000000E+09 +1.86446774546E-01 -5.17182105813E-01 -1.81954754600E-03 +9.98147902251E-04 -1.77300345049E-03 +1.09162669688E-03 +2.17383653965E-01 -5.00115363471E-01
4.16500000000E+09 +1.70008749006E-01 -5.18208335588E-01 -1.89181700594E-03 +1.64354654176E-03 -1.82434887538E-03 +1.73723148843E-03 +1.96832574868E-01 -4.95994453620E-01
4.17000000000E+09 +1.54972755276E-01 -5.17687725156E-01 -1.56110535865E-03 +1.96313371097E-03 -1.46492662779E-03 +1.97252983150E-03 +1.75813128819E-01 -4.90928901514E-01
4.17500000000E+09 +1.39886286109E-01 -5.15573716909E-01 -1.45147882160E-03 +2.45180896030E-03 -1.34674556510E-03 +2.42324963695E-03 +1.54776073241E-01 -4.85120596704E-01
4.18000000000E+09 +1.24532117695E-01 -5.11958228641E-01 -7.79163646379E-04 +2.89100780455E-03 -7.41607488377E-04 +2.93170600648E-03 +1.34024854742E-01 -4.78125278869E-01
4.18500000000E+09 +1.08049470140E-01 -5.07446075982E-01 +7.08012176462E-05 +2.86779711250E-03 +1.29566060450E-04 +2.79556366900E-03 +1.14319764877E-01 -4.71240464781E-01
4.19000000000E+09 +9.04704762106E-02 -5.01893741703E-01 +9.67098234473E-05 +2.27576224606E-03 +9.76014351141E-05 +2.14977167919E-03 +9.29219097910E-02 -4.64384444516E-01
4.19500000000E+09 +7.26775717389E-02 -4.96175721139E-01 -3.09437322164E-05 +2.26787985080E-03 -9.23117917612E-05 +2.17947540528E-03 +7.18007764470E-02 -4.54563395997E-01
4.20000000000E+09 +5.40373342444E-02 -4.91826118632E-01 +9.05986287380E-05 +2.68015939523E-03 +1.90427357358E-05 +2.64620012308E-03 +5.21152974547E-02 -4.43873389735E-01
4.20500000000E+09 +3.47837117132E-02 -4.87514126400E-01 +2.91822781900E-04 +2.92402665691E-03 +2.10456418678E-04 +2.91200626098E-03 +3.21697840352E-02 -4.33161759728E-01
4.21000000000E+09 +1.63641787571E-02 -4.83002422435E-01 +9.24571247615E-04 +3.51432427128E-03 +8.48691566639E-04 +3.57714604669E-03 +1.25499444505E-02 -4.21020259266E-01
4.21500000000E+09 -1.31594651587E-03 -4.78089728129E-01 +2.24897345764E-03 +3.38564545780E-03 +2.07148976334E-03 +3.46246345156E-03 -5.89641989759E-03 -4.09040844111E-01
4.22000000000E+09 -1.79885346030E-02 -4.71706447802E-01 +2.84851295079E-03 +2.62217100984E-03 +2.72349773431E-03 +2.71124438500E-03 -2.44314500330E-02 -3.96758093066E-01
4.22500000000E+09 -3.27720785487E-02 -4.64101190197E-01 +3.30223194646E-03 +1.88157236739E-03 +3.30873366292E-03 +2.01679060572E-03 -4.21585084803E-02 -3.82923782968E-01
4.23000000000E+09 -4.78006025689E-02 -4.55211494204E-01 +3.20109928820E-03 +1.04042355380E-03 +3.20071143955E-03 +1.15392833155E-03 -5.89347256327E-02 -3.68652848339E-01
4.23500000000E+09 -6.31638237009E-02 -4.44139129661E-01 +2.74502448478E-03 +9.76318118338E-04 +2.77690200472E-03 +1.07300058721E-03 -7.60501547832E-02 -3.53274666689E-01
4.24000000000E+09 -7.92853614834E-02 -4.31558101637E-01 +2.93018002785E-03 +1.06640330269E-03 +2.95679574591E-03 +1.19275623859E-03 -9.18619770814E-02 -3.36601707326E-01
4.24500000000E+09 -9.58698422863E-02 -4.18246457321E-01 +3.63172697687E-03 +9.49765905435E-04 +3.73067773868E-03 +1.07516823424E-03 -1.07512634627E-01 -3.19496076248E-01
4.25000000000E+09 -1.14189586768E-01 -4.05519373238E-01 +4.27751922204E-03 +4.76562617525E-06 +4.38170911382E-03 +1.09604112060E-04 -1.21691868305E-01 -3.01611484623E-01
4.25500000000E+09 -1.33751243344E-01 -3.93607765899E-01 +4.01538253447E-03 -1.27087916834E-03 +4.18633613497E-03 -1.19881828374E-03 -1.35003192543E-01 -2.84326452039E-01
4.26000000000E+09 -1.54392538516E-01 -3.82017762077E-01 +3.25862931706E-03 -1.80479570660E-03 +3.43245786918E-03 -1.87151670593E-03 -1.48674634255E-01 -2.66779585777E-01
4.26500000000E+09 -1.74680821250E-01 -3.70338318957E-01 +2.92921015207E-03 -1.88327149121E-03 +3.07223310994E-03 -1.92671502269E-03 -1.61361157493E-01 -2.47417446571E-01
4.27000000000E+09 -1.92408962200E-01 -3.59084479207E-01 +2.82763578662E-03 -2.18832431412E-03 +2.94667219920E-03 -2.36794324179E-03 -1.73714796749E-01 -2.27615433657E-01
4.27500000000E+09 -2.09007154352E-01 -3.48375039377E-01 +2.41113348228E-03 -2.75743263967E-03 +2.51781329617E-03 -2.88992639703E-03 -1.84974050205E-01 -2.06441639129E-01
4.28000000000E+09 -2.23389182176E-01 -3.35983081221E-01 +1.76213778490E-03 -2.90670116485E-03 +1.80335500462E-03 -3.09347823771E-03 -1.94854790519E-01 -1.85463764319E-01
4.28500000000E+09 -2.35594082698E-01 -3.22448391595E-01 +1.50685919330E-03 -2.67595378808E-03 +1.56464364449E-03 -2.87533183371E-03 -2.03572664421E-01 -1.64303351976E-01
4.29000000000E+09 -2.46584581832E-01 -3.07564611214E-01 +1.50503619385E-03 -3.04591677436E-03 +1.45879281574E-03 -3.27705243125E-03 -2.11474794257E-01 -1.44163269574E-01
4.29500000000E+09 -2.57547270300E-01 -2.90754700148E-01 +1.01312177041E-03 -3.57508520302E-03 +8.89275893049E-04 -3.81952560436E-03 -2.18920894243E-01 -1.23933939488E-01
4.30000000000E+09 -2.68883100653E-01 -2.72147507946E-01 +1.14120313976E-04 -3.48289486185E-03 -6.84953740101E-05 -3.62472745542E-03 -2.24793745976E-01 -1.02866054954E-01
4.30500000000E+09 -2.80841161925E-01 -2.52701981973E-01 -1.97562332235E-04 -3.27356232000E-03 -3.96163139879E-04 -3.37833707396E-03 -2.29327177210E-01 -8.16567649852E-02
4.31000000000E+09 -2.93806602599E-01 -2.32963923507E-01 -5.61411710212E-04 -3.28317842184E-03 -7.81984699482E-04 -3.30260721045E-03 -2.32799142516E-01 -6.06830320019E-02
4.31500000000E+09 -3.07629185393E-01 -2.13726045605E-01 -9.98061901895E-04 -3.01772143548E-03 -1.20245140784E-03 -2.89535490545E-03 -2.35530508471E-01 -3.91568152918E-02
4.32000000000E+09 -3.20574770665E-01 -1.95571042961E-01 -1.21208008853E-03 -2.72062153149E-03 -1.42740524266E-03 -2.63505573913E-03 -2.37275007467E-01 -1.80387974082E-02
4.32500000000E+09 -3.33204188541E-01 -1.78671954370E-01 -1.25990920439E-03 -2.69335872240E-03 -1.41354244581E-03 -2.52783602496E-03 -2.38858814856E-01 +2.49164118450E-03
4.33000000000E+09 -3.43509997757E-01 -1.62403477548E-01 -1.78616795656E-03 -2.81344101511E-03 -1.93762257910E-03 -2.61863746034E-03 -2.39749949974E-01 +2.33307584789E-02
4.33500000000E+09 -3.51492147528E-01 -1.47155579696E-01 -1.91989964226E-03 -2.57838706754E-03 -1.92227633189E-03 -2.34403793850E-03 -2.39585616225E-01 +4.41380785778E-02
4.34000000000E+09 -3.57693573899E-01 -1.31365568425E-01 -2.70557427702E-03 -2.69038323912E-03 -2.68657718658E-03 -2.49866661286E-03 -2.39296603780E-01 +6.47023985267E-02
4.34500000000E+09 -3.61634724780E-01 -1.14045272188E-01 -3.20696001522E-03 -1.86083364354E-03 -3.09451506928E-03 -1.61109923569E-03 -2.37337033345E-01 +8.53354533357E-02
4.35000000000E+09 -3.64182286899E-01 -9.53872693115E-02 -3.12646354387E-03 -1.28773636093E-03 -3.00330377806E-03 -1.15047027027E-03 -2.35375891548E-01 +1.04870915986E-01
4.35500000000E+09 -3.66668723759E-01 -7.44733114496E-02 -3.34098461159E-03 -1.18308523358E-03 -3.17691306433E-03 -1.12144595097E-03 -2.32484715220E-01 +1.24341614306E-01
4.36000000000E+09 -3.69118423947E-01 -5.19428390789E-02 -3.57967373163E-03 -5.03638592650E-04 -3.40679269517E-03 -5.14893587526E-04 -2.29223525736E-01 +1.42583419512E-01
4.36500000000E+09 -3.72467833733E-01 -2.88054269262E-02 -3.76547704220E-03 -3.13108584779E-04 -3.55104155136E-03 -3.86049321574E-04 -2.25296776073E-01 +1.61043286138E-01
4.37000000000E+09 -3.77160926072E-01 -5.30025534070E-03 -4.05414632474E-03 +6.66480728783E-04 -3.86485815433E-03 +6.23890069684E-04 -2.20179164522E-01 +1.79236707736E-01
4.37500000000E+09 -3.81898817337E-01 +1.67316660906E-02 -3.53592704388E-03 +1.17423576696E-03 -3.35361942786E-03 +1.07941869439E-03 -2.14938488484E-01 +1.96939528772E-01
4.38000000000E+09 -3.87841404982E-01 +3.70361065394E-02 -3.39399818755E-03 +1.60365883412E-03 -3.25496857812E-03 +1.49521695658E-03 -2.08154430730E-01 +2.14695584845E-01
4.38500000000E+09 -3.92449697687E-01 +5.54404608920E-02 -3.20116848918E-03 +2.33334866058E-03 -3.11416937353E-03 +2.23262606375E-03 -2.01409661986E-01 +2.31939920791E-01
4.39000000000E+09 -3.95659386435E-01 +7.22000553239E-02 -2.52113536090E-03 +2.81949278395E-03 -2.48869963113E-03 +2.68208677577E-03 -1.93967692557E-01 +2.48834376790E-01
4.39500000000E+09 -3.96739068520E-01 +8.76127256570E-02 -1.86614367011E-03 +3.02499855562E-03 -1.82526974621E-03 +2.90147445907E-03 -1.86608912413E-01 +2.64185059063E-01
4.40000000000E+09 -3.95134875792E-01 +1.03093556530E-01 -1.40853944183E-03 +2.88961255332E-03 -1.44341189003E-03 +2.78938279584E-03 -1.78966501452E-01 +2.79820672826E-01
4.40500000000E+09 -3.91027943839E-01 +1.18916410772E-01 -1.18818050724E-03 +3.10422889316E-03 -1.24436335341E-03 +3.09126456278E-03 -1.70349063864E-01 +2.94440408181E-01
4.41000000000E+09 -3.85414148070E-01 +1.36098828951E-01 -4.06873887434E-04 +3.29300346269E-03 -4.91273938048E-04 +3.19569097449E-03 -1.61766756440E-01 +3.08222612267E-01
4.41500000000E+09 -3.79748464144E-01 +1.55242587875E-01 -2.90481258377E-04 +3.10886322274E-03 -3.77945163228E-04 +3.10585591663E-03 -1.52966293381E-01 +3.22445782729E-01
4.42000000000E+09 -3.73694673948E-01 +1.76698163505E-01 +1.70462159656E-04 +3.34781082073E-03 +1.36317474031E-04 +3.35313211103E-03 -1.43450901770E-01 +3.37000354257E-01
4.42500000000E+09 -3.68916503580E-01 +1.98754254109E-01 +1.02749031846E-03 +3.17435602038E-03 +1.00196724033E-03 +3.18986519597E-03 -1.33120717412E-01 +3.49599132202E-01
4.43000000000E+09 -3.65246873062E-01 +2.21196675921E-01 +1.31052258641E-03 +2.57572045302E-03 +1.29256204563E-03 +2.60249842406E-03 -1.24590171167E-01 +3.62315071217E-01
4.43500000000E+09 -3.62205736448E-01 +2.42688709679E-01 +1.53998348356E-03 +2.42546637751E-03 +1.55495830398E-03 +2.46928968436E-03 -1.14822421359E-01 +3.75056354829E-01
4.44000000000E+09 -3.59542084618E-01 +2.61857265915E-01 +1.93476744823E-03 +1.94038651068E-03 +1.95282428952E-03 +2.03256374281E-03 -1.05218170634E-01 +3.86662882071E-01
4.44500000000E+09 -3.57244646557E-01 +2.78452352627E-01 +1.98830951857E-03 +1.42965086866E-03 +2.01563835727E-03 +1.53284574474E-03 -9.53032967863E-02 +3.98518483145E-01
4.45000000000E+09 -3.54199110249E-01 +2.92941376072E-01 +1.66093596527E-03 +1.37601620006E-03 +1.78672729779E-03 +1.34479468237E-03 -8.41190951410E-02 +4.09387226806E-01
4.45500000000E+09 -3.49407255803E-01 +3.06539890998E-01 +2.05437324293E-03 +1.41186329719E-03 +2.21039455728E-03 +1.37854570658E-03 -7.31824061399E-02 +4.19525313984E-01
4.46000000000E+09 -3.42000092575E-01 +3.19467793142E-01 +2.36643406223E-03 +5.23030793362E-04 +2.48956418665E-03 +5.14326565249E-04 -6.21209220037E-02 +4.29303293733E-01
4.46500000000E+09 -3.32378818709E-01 +3.32736010507E-01 +1.94797809422E-03 +3.49821473668E-04 +2.03422759990E-03 +2.46024349838E-04 -5.07019018779E-02 +4.38338300671E-01
4.47000000000E+09 -3.20977121505E-01 +3.47182992303E-01 +1.72618560533E-03 +8.83453261047E-05 +1.80279036863E-03 +2.99657724248E-06 -4.01542181346E-02 +4.47465972075E-01
4.47500000000E+09 -3.08731040027E-01 +3.63779679809E-01 +1.69105818762E-03 +3.06673317126E-04 +1.77752009766E-03 +1.93011741302E-04 -2.86317988173E-02 +4.56773056170E-01
4.48000000000E+09 -2.95956726290E-01 +3.81456395536E-01 +2.03517367262E-03 +3.08685010739E-04 +1.96457539213E-03 +1.07447030595E-04 -1.68835483657E-02 +4.64720488475E-01
4.48500000000E+09 -2.84159316950E-01 +3.99357400434E-01 +2.12448338384E-03 -2.98601838173E-04 +1.99124771164E-03 -4.61056137182E-04 -5.69504276601E-03 +4.72825415124E-01
4.49000000000E+09 -2.74752732583E-01 +4.17167690223E-01 +2.12872517005E-03 -6.69587469167E-04 +2.01345342228E-03 -7.47839295293E-04 +6.26613626414E-03 +4.80300357647E-01
4.49500000000E+09 -2.66570916545E-01 +4.34241042284E-01 +1.50329915422E-03 -9.75452856430E-04 +1.38179091283E-03 -1.02010099811E-03 +1.74297773466E-02 +4.86830710382E-01
4.50000000000E+09 -2.59743688583E-01 +4.48482572186E-01 +1.35801740642E-03 -7.88762486854E-04 +1.19685546917E-03 -7.85885056084E-04 +2.88609477786E-02 +4.93096351164E-01
4.50500000000E+09 -2.54649899505E-01 +4.60723073967E-01 +1.45610793049E-03 -8.48149255858E-04 +1.30394223684E-03 -8.21472963072E-04 +3.99445607011E-02 +4.98997133260E-01
4.51000000000E+09 -2.48828168635E-01 +4.71289694952E-01 +1.44417331427E-03 -1.23312347859E-03 +1.23314661184E-03 -1.16774843766E-03 +5.08918789601E-02 +5.04876735290E-01
4.51500000000E+09 -2.40675368458E-01 +4.79941634326E-01 +1.18177645662E-03 -1.29930589419E-03 +1.05169267819E-03 -1.22713628695E-03 +6.19171682723E-02 +5.10708365466E-01
4.52000000000E+09 -2.30766321503E-01 +4.86921604110E-01 +1.00723138173E-03 -1.39874395656E-03 +7.94265362865E-04 -1.28321562773E-03 +7.35829214435E-02 +5.15798953477E-01
4.52500000000E+09 -2.18858771815E-01 +4.94013705990E-01 +9.33795043963E-04 -1.37306031345E-03 +8.21151761647E-04 -1.24340447106E-03 +8.48008870616E-02 +5.20179446024E-01
4.53000000000E+09 -2.05186835530E-01 +5.01814518504E-01 +9.26645495063E-04 -1.65219896853E-03 +8.69356327411E-04 -1.57409527604E-03 +9.63100524270E-02 +5.24369251391E-01
4.53500000000E+09 -1.89995032716E-01 +5.11423497755E-01 +5.27623358943E-04 -1.96819930902E-03 +5.04502175802E-04 -1.78609597122E-03 +1.07333299646E-01 +5.28259579922E-01
4.54000000000E+09 -1.73905529069E-01 +5.21774173944E-01 +3.10407234719E-04 -2.12309243695E-03 +3.09056282841E-04 -1.97670460428E-03 +1.18797069325E-01 +5.31786139564E-01
4.54500000000E+09 -1.58876072516E-01 +5.32589041310E-01 -5.20022813234E-04 -2.00586154739E-03 -4.52967122981E-04 -1.84300975461E-03 +1.29210637719E-01 +5.35523437222E-01
4.55000000000E+09 -1.45401904152E-01 +5.43250548784E-01 -7.14419356478E-04 -1.50857104975E-03 -5.85665100201E-04 -1.41510351480E-03 +1.41118905375E-01 +5.39592036770E-01
4.55500000000E+09 -1.34215854582E-01 +5.53533253738E-01 -5.84049165521E-04 -1.22198378319E-03 -4.46672730152E-04 -1.16149312570E-03 +1.52336270944E-01 +5.42221077246E-01
4.56000000000E+09 -1.24498547791E-01 +5.62790737421E-01 -6.15518935317E-04 -1.44875903067E-03 -4.73525243029E-04 -1.43114046984E-03 +1.62991388794E-01 +5.45488794634E-01
4.56500000000E+09 -1.15454791558E-01 +5.70568009858E-01 -9.11204519036E-04 -1.51775552249E-03 -7.80563832264E-04 -1.47882328652E-03 +1.73864601248E-01 +5.47980350828E-01
4.57000000000E+09 -1.05827796506E-01 +5.76450180662E-01 -1.29481872313E-03 -1.25625251905E-03 -1.24837183223E-03 -1.21544853502E-03 +1.84626298165E-01 +5.50233771867E-01
