# Hz S RI R 50
! CMT, C1220, 16058040, 17.2.0/1
! Date: 15/08/2018 12:14:50
! Data: Format (Calibration Info)
! Freq                      S11: Re/Im (F2)                       S21: Re/Im (F2)                       S12: Re/Im (F2)                       S22: Re/Im (F2)            
4.00000000000E+09 +6.53536168314E-01 -3.57243209335E-01 -3.69937501571E-04 -7.12710981198E-04 -3.30757888867E-04 -7.42300938812E-04 +7.68242992772E-01 -3.20391263725E-01
4.00500000000E+09 +6.45490966420E-01 -3.63462127424E-01 -4.30850571729E-04 -4.37297987044E-04 -4.57747233826E-04 -4.97411029089E-04 +7.58890496510E-01 -3.30989591832E-01
4.01000000000E+09 +6.36552741182E-01 -3.69218240328E-01 -3.39804045685E-04 -4.21146082533E-04 -3.02138022768E-04 -4.98400220119E-04 +7.49502524377E-01 -3.41465281964E-01
4.01500000000E+09 +6.26989228345E-01 -3.75853596932E-01 -3.26254425483E-04 -5.40934148356E-04 -3.13234270587E-04 -5.51021546338E-04 +7.39855198561E-01 -3.51510680383E-01
4.02000000000E+09 +6.16162413136E-01 -3.83938652388E-01 -5.33938646043E-04 -5.25487509439E-04 -5.32709902185E-04 -5.93089948818E-04 +7.29515827580E-01 -3.61741082953E-01
4.02500000000E+09 +6.04425186927E-01 -3.92972583804E-01 -6.84714156633E-04 -4.64448831148E-04 -7.06364852692E-04 -5.34630861227E-04 +7.18580646157E-01 -3.71335790605E-01
4.03000000000E+09 +5.92963907113E-01 -4.03077408821E-01 -7.58332717135E-04 -1.89996661275E-04 -7.67289492676E-04 -2.08052664351E-04 +7.07689517456E-01 -3.80908947909E-01
4.03500000000E+09 +5.81696789209E-01 -4.14327460148E-01 -6.15834358894E-04 -8.73261584515E-05 -6.10558912529E-04 -1.75780813142E-04 +6.96333787417E-01 -3.90795604794E-01
4.04000000000E+09 +5.70512546779E-01 -4.25642700642E-01 -5.95793542565E-04 +5.96591427900E-05 -6.55012501639E-04 +1.64800156908E-05 +6.85210080036E-01 -4.00758614923E-01
4.04500000000E+09 +5.59616040903E-01 -4.36111067663E-01 -4.40699966425E-04 +3.38462119345E-05 -4.88687325878E-04 +1.21484394469E-05 +6.73209027001E-01 -4.10685084075E-01
4.05000000000E+09 +5.48463776592E-01 -4.44925096711E-01 -3.69558139886E-04 -5.62175607469E-05 -4.41283892933E-04 -5.53998917495E-05 +6.61200699748E-01 -4.19394184470E-01
4.05500000000E+09 +5.37222926095E-01 -4.51616004215E-01 -5.33587401805E-04 -9.50996489321E-05 -5.53302723461E-04 -7.75297518671E-05 +6.48801558511E-01 -4.28194413573E-01
4.06000000000E+09 +5.25947128998E-01 -4.56758441258E-01 -5.21737503306E-04 -7.17426075587E-05 -5.72007961532E-04 -4.78174644744E-05 +6.35792039189E-01 -4.36237719601E-01
4.06500000000E+09 +5.13417723899E-01 -4.60766762179E-01 -7.17684609139E-04 +3.72895015994E-05 -7.67307201232E-04 +5.04522462527E-05 +6.22469527053E-01 -4.44302240622E-01
4.07000000000E+09 +5.00130721353E-01 -4.64575673775E-01 -5.83192332494E-04 +3.04426128104E-04 -6.18840776973E-04 +4.07875487679E-04 +6.08614288379E-01 -4.52304169236E-01
4.07500000000E+09 +4.85293134700E-01 -4.69206991232E-01 -3.18027798291E-04 +2.25777803629E-04 -3.64305794572E-04 +2.34961048142E-04 +5.94660988783E-01 -4.60346686836E-01
4.08000000000E+09 +4.68693729095E-01 -4.74363426376E-01 -5.08944688784E-04 +1.58823982477E-04 -5.21764411284E-04 +1.71980470568E-04 +5.81027363747E-01 -4.68169248171E-01
4.08500000000E+09 +4.51537573341E-01 -4.79619280703E-01 -4.94774164628E-04 +3.46295323382E-04 -5.22397907609E-04 +3.74228819106E-04 +5.66967626346E-01 -4.75961983481E-01
4.09000000000E+09 +4.34653523612E-01 -4.86082584188E-01 -2.38178535658E-04 +1.54624977245E-04 -1.82872425835E-04 +1.74348085642E-04 +5.52515490554E-01 -4.82591007642E-01
4.09500000000E+09 +4.17799829414E-01 -4.93130660455E-01 -5.80927615795E-04 +9.80629044005E-05 -5.52278376666E-04 +8.70161757092E-05 +5.38190183093E-01 -4.89122239231E-01
4.10000000000E+09 +4.00263360039E-01 -4.99954901234E-01 -5.34745849494E-04 +3.49941288912E-04 -5.36218861987E-04 +3.69869460025E-04 +5.21943586988E-01 -4.95406358119E-01
4.10500000000E+09 +3.83014208949E-01 -5.04463948096E-01 -6.34151272015E-04 +4.93155482633E-04 -5.09774480445E-04 +4.57839140469E-04 +5.05881182219E-01 -5.00918646682E-01
4.11000000000E+09 +3.66516461978E-01 -5.07017626062E-01 -5.11642440740E-04 +7.38422323651E-04 -5.29454558640E-04 +6.84882504877E-04 +4.89221009248E-01 -5.06795150845E-01
4.11500000000E+09 +3.51095176727E-01 -5.07987751263E-01 +4.03704923948E-05 +7.73057838760E-04 +1.01189342506E-04 +7.82193249867E-04 +4.72522702278E-01 -5.11849210300E-01
4.12000000000E+09 +3.35369209892E-01 -5.08255566946E-01 -5.82055372184E-05 +2.10311316193E-04 +9.18177290944E-06 +1.36079326031E-04 +4.56195768922E-01 -5.16962814325E-01
4.12500000000E+09 +3.18750549525E-01 -5.08467250045E-01 -3.55753301768E-04 +2.20744498895E-04 -3.85488900731E-04 +1.95097351784E-04 +4.38901098814E-01 -5.21344803349E-01
4.13000000000E+09 +3.00708511542E-01 -5.09317694010E-01 -6.17361441745E-04 +4.74381520022E-04 -6.54658486847E-04 +4.48688637022E-04 +4.22078371761E-01 -5.24654346237E-01
4.13500000000E+09 +2.80433174958E-01 -5.10575916323E-01 -4.61351358103E-04 +7.74174936600E-04 -5.01499510282E-04 +7.98808148379E-04 +4.04643043810E-01 -5.28087373432E-01
4.14000000000E+09 +2.59730775101E-01 -5.11997985016E-01 -2.11321288506E-04 +1.21650770287E-03 -2.50675641173E-04 +1.18617581297E-03 +3.86173350724E-01 -5.30930136477E-01
4.14500000000E+09 +2.39151257179E-01 -5.14829536067E-01 +4.81023076830E-04 +9.75355698297E-04 +4.39458508367E-04 +9.72796059379E-04 +3.68093144300E-01 -5.33529125523E-01
4.15000000000E+09 +2.18550312192E-01 -5.18443803278E-01 +4.43098067600E-04 +5.02371881142E-04 +3.93841971692E-04 +4.96649838294E-04 +3.49889231833E-01 -5.35688953187E-01
4.15500000000E+09 +1.98204390475E-01 -5.22188731679E-01 +9.78800478323E-05 +3.98917174897E-04 +7.91225347046E-05 +4.81727912417E-04 +3.31919270356E-01 -5.37198999602E-01
4.16000000000E+09 +1.78758076308E-01 -5.24182266272E-01 +1.61727568832E-04 +4.92725358389E-04 +1.05654751818E-04 +5.48640009307E-04 +3.14000039891E-01 -5.38024197784E-01
4.16500000000E+09 +1.61156264938E-01 -5.24457702769E-01 +1.64616960554E-04 +6.05661644510E-04 +1.50717531912E-04 +6.67083162638E-04 +2.95774539927E-01 -5.37826708712E-01
4.17000000000E+09 +1.44542801541E-01 -5.22835100217E-01 +3.84738949692E-04 +8.69326876463E-04 +3.57000477122E-04 +9.05301122251E-04 +2.77207728170E-01 -5.37315200199E-01
4.17500000000E+09 +1.29129724839E-01 -5.19419485074E-01 +6.99292080992E-04 +3.98845982623E-04 +6.61177803308E-04 +4.62457137264E-04 +2.58232554542E-01 -5.35948208950E-01
4.18000000000E+09 +1.13478675465E-01 -5.14620681264E-01 +4.36015092884E-04 +3.48718192167E-04 +4.46906977455E-04 +4.69101720237E-04 +2.39125487940E-01 -5.34353963213E-01
4.18500000000E+09 +9.69885117370E-02 -5.09257048307E-01 +4.33541417942E-04 +3.74362387249E-04 +4.36060003020E-04 +4.86930959457E-04 +2.19958820415E-01 -5.32194511550E-01
4.19000000000E+09 +7.94043189190E-02 -5.03297871187E-01 +6.44534754219E-04 +2.45823569881E-04 +7.40498449721E-04 +3.43190977513E-04 +2.00797315600E-01 -5.29825186711E-01
4.19500000000E+09 +6.04925436226E-02 -4.97471713260E-01 +3.59293590856E-04 +1.28575630970E-04 +4.01499466100E-04 +1.98771656953E-04 +1.81817356766E-01 -5.26658133716E-01
4.20000000000E+09 +4.08325884846E-02 -4.91629975184E-01 +3.71790317028E-04 +3.06786200417E-04 +4.49924135513E-04 +3.60853679714E-04 +1.62223914140E-01 -5.23178992599E-01
4.20500000000E+09 +2.13093324407E-02 -4.86303459046E-01 +6.28444341410E-04 +2.77528462833E-04 +7.15312341024E-04 +2.71865169501E-04 +1.42430887056E-01 -5.17517116745E-01
4.21000000000E+09 +2.48224747653E-03 -4.81118669652E-01 +3.13511064967E-04 +1.71587313818E-05 +3.78355772926E-04 +4.44563827939E-06 +1.23190958078E-01 -5.12085527289E-01
4.21500000000E+09 -1.58827240268E-02 -4.75776816384E-01 +3.19648803315E-04 +4.22661866638E-04 +3.59973532384E-04 +3.63440550380E-04 +1.03965609182E-01 -5.06110034224E-01
4.22000000000E+09 -3.31045677117E-02 -4.68573301603E-01 +7.17575527553E-04 +4.43937386684E-04 +7.61560938898E-04 +4.10166607159E-04 +8.54892624484E-02 -4.98905011911E-01
4.22500000000E+09 -4.83464655701E-02 -4.59752174921E-01 +6.19842200451E-04 +1.36081408609E-05 +6.77262094431E-04 -3.74712401936E-05 +6.76679253309E-02 -4.92611459752E-01
4.23000000000E+09 -6.30974792574E-02 -4.49620490587E-01 +5.89742573916E-04 +9.97010440470E-05 +6.30450448346E-04 +5.59814746330E-05 +4.90476340270E-02 -4.85294354740E-01
4.23500000000E+09 -7.74829953956E-02 -4.37222453188E-01 +3.25498510100E-04 +2.05896654540E-04 +2.83383767989E-04 +1.13928186485E-04 +3.05907908536E-02 -4.76737040503E-01
4.24000000000E+09 -9.19540597262E-02 -4.24250529803E-01 +6.52172887363E-04 +5.04617318615E-04 +6.39796103353E-04 +4.65073432527E-04 +1.25042048154E-02 -4.67485231422E-01
4.24500000000E+09 -1.08506696917E-01 -4.11585759043E-01 +1.19502166372E-03 +3.98170614002E-04 +1.11662840345E-03 +4.12820776270E-04 -5.73813553970E-03 -4.57488011474E-01
4.25000000000E+09 -1.27900789003E-01 -3.97599918938E-01 +1.39138129824E-03 -2.38538047840E-04 +1.33566697413E-03 -2.55968754549E-04 -2.29298684617E-02 -4.46223367962E-01
4.25500000000E+09 -1.47639762940E-01 -3.83148576032E-01 +1.05302810186E-03 -5.68248842168E-04 +1.00689638895E-03 -5.92074648670E-04 -3.99873676401E-02 -4.35547951138E-01
4.26000000000E+09 -1.67032629456E-01 -3.69844859411E-01 +8.34837218688E-04 -5.64586922476E-04 +8.06373621155E-04 -5.45477029589E-04 -5.72720235652E-02 -4.23337428949E-01
4.26500000000E+09 -1.86357032965E-01 -3.56866815210E-01 +7.62279579051E-04 -5.67553267920E-04 +7.29759919745E-04 -6.05159370587E-04 -7.27955349967E-02 -4.10445009090E-01
4.27000000000E+09 -2.03429096790E-01 -3.44574626460E-01 +8.19694871195E-04 -6.36749472788E-04 +7.79926822790E-04 -6.43222426825E-04 -8.92755691872E-02 -3.98118807341E-01
4.27500000000E+09 -2.18810273300E-01 -3.32790903728E-01 +6.63551754980E-04 -6.74536469795E-04 +6.41732774060E-04 -6.60399124553E-04 -1.05952561029E-01 -3.83854379743E-01
4.28000000000E+09 -2.32145600590E-01 -3.20246454248E-01 +6.39212000374E-04 -7.41290343652E-04 +6.15801567179E-04 -6.42587310488E-04 -1.21311800049E-01 -3.69844584399E-01
4.28500000000E+09 -2.44035929215E-01 -3.06147059110E-01 +4.71982152463E-04 -6.61632623663E-04 +4.88281029929E-04 -6.61554003937E-04 -1.37212324252E-01 -3.55653117372E-01
4.29000000000E+09 -2.53931440139E-01 -2.90060805083E-01 +7.24261956141E-04 -7.91959143948E-04 +8.06927368073E-04 -7.63565133372E-04 -1.52668181155E-01 -3.40324395825E-01
4.29500000000E+09 -2.63471325740E-01 -2.72280987612E-01 +5.59747082421E-04 -1.25150435746E-03 +5.81247543249E-04 -1.28156492081E-03 -1.66444838237E-01 -3.24003001401E-01
4.30000000000E+09 -2.73193145916E-01 -2.53120641812E-01 +2.91710195083E-04 -1.28010173292E-03 +3.34924574214E-04 -1.25707772648E-03 -1.79163603823E-01 -3.07834048028E-01
4.30500000000E+09 -2.83954458626E-01 -2.33145782883E-01 -1.51678534473E-04 -1.41267866056E-03 -6.68556450479E-05 -1.38594786449E-03 -1.91585641608E-01 -2.90917667275E-01
4.31000000000E+09 -2.96118384693E-01 -2.12665640048E-01 -2.00549490200E-04 -1.19454482882E-03 -1.66093774511E-04 -1.18855920103E-03 -2.02803983271E-01 -2.73802482429E-01
4.31500000000E+09 -3.08834547341E-01 -1.92648670531E-01 -5.40548110468E-04 -1.07125953222E-03 -4.93061279357E-04 -1.05629716763E-03 -2.14129287946E-01 -2.56617589661E-01
4.32000000000E+09 -3.21855558380E-01 -1.73175827931E-01 -5.21984217944E-04 -7.14216607487E-04 -4.65870517418E-04 -7.95924910695E-04 -2.25430116413E-01 -2.38369742278E-01
4.32500000000E+09 -3.33045690401E-01 -1.54962211349E-01 -5.32587463401E-05 -6.60091128258E-04 -4.33962981716E-05 -7.28007341672E-04 -2.34793922061E-01 -2.19664507020E-01
4.33000000000E+09 -3.42256351589E-01 -1.38588835498E-01 -2.75390674540E-04 -1.09640974578E-03 -2.51050270376E-04 -1.13343403242E-03 -2.44501492968E-01 -2.01485003935E-01
4.33500000000E+09 -3.49684226250E-01 -1.22494036570E-01 -4.83469120708E-04 -9.86171985502E-04 -4.37584387786E-04 -9.99230982651E-04 -2.53309852459E-01 -1.81538740249E-01
4.34000000000E+09 -3.53892383961E-01 -1.06523682803E-01 -7.14660107145E-04 -1.12129756094E-03 -7.54880033077E-04 -1.17382382858E-03 -2.60890020705E-01 -1.61596564863E-01
4.34500000000E+09 -3.56106449724E-01 -9.02551631962E-02 -1.07865495449E-03 -7.91134241991E-04 -1.09421002329E-03 -7.68755291322E-04 -2.68386462696E-01 -1.41732208493E-01
4.35000000000E+09 -3.57591138923E-01 -7.25622908960E-02 -9.37975882540E-04 -3.77061011342E-04 -9.76380812368E-04 -4.09171659632E-04 -2.75254362103E-01 -1.21986074930E-01
4.35500000000E+09 -3.59314882242E-01 -5.22524944787E-02 -6.42381839108E-04 -3.66251462412E-04 -6.72090193074E-04 -3.64537894214E-04 -2.81828304373E-01 -1.01790769940E-01
4.36000000000E+09 -3.60724900454E-01 -2.98102544725E-02 -7.59586242743E-04 -8.33433854001E-04 -8.39663935173E-04 -8.64266645523E-04 -2.86986372805E-01 -8.22553868390E-02
4.36500000000E+09 -3.62390812013E-01 -6.42414747934E-03 -1.17908836458E-03 -3.08730723871E-04 -1.14993077460E-03 -3.23542739616E-04 -2.91481850726E-01 -6.22681821739E-02
4.37000000000E+09 -3.65146098426E-01 +1.68138643558E-02 -9.12583532705E-04 -3.79163872616E-04 -1.00481862954E-03 -3.89950498514E-04 -2.94431201641E-01 -4.29415025549E-02
4.37500000000E+09 -3.68712208449E-01 +3.82791146083E-02 -1.17428827179E-03 -1.25150980492E-04 -1.27817511507E-03 -7.13395978075E-05 -2.97737200028E-01 -2.27130968752E-02
4.38000000000E+09 -3.73616816506E-01 +5.80905524533E-02 -1.04673015801E-03 -1.41777003247E-05 -1.11998777323E-03 +9.38192829939E-05 -2.99563502582E-01 -1.60876222306E-03
4.38500000000E+09 -3.77830946265E-01 +7.60988743733E-02 -9.82974238213E-04 +7.52226524792E-05 -9.99409605612E-04 +1.42253465249E-04 -3.00677509633E-01 +1.88356880032E-02
4.39000000000E+09 -3.81196231478E-01 +9.23606469321E-02 -8.59704942385E-04 +6.08294097533E-05 -8.80609124883E-04 +9.15036155376E-05 -3.01451925630E-01 +3.97097155234E-02
4.39500000000E+09 -3.81460899409E-01 +1.07417584059E-01 -9.70260266593E-04 +9.27793385771E-05 -9.15535245327E-04 +1.78601525309E-04 -3.01883414589E-01 +5.94151652631E-02
4.40000000000E+09 -3.79053817002E-01 +1.21621093618E-01 -1.09018512731E-03 +5.64539231491E-06 -1.07066219474E-03 +5.26334834246E-05 -3.01241405376E-01 +7.94995825219E-02
4.40500000000E+09 -3.75402622777E-01 +1.35583399415E-01 -1.39428479247E-03 +3.12940859314E-04 -1.33668218518E-03 +3.90646621799E-04 -2.99729063160E-01 +9.88960603543E-02
4.41000000000E+09 -3.70842910217E-01 +1.52173639391E-01 -1.26664834660E-03 +7.68625922236E-04 -1.20221969726E-03 +8.50653689519E-04 -2.97527814214E-01 +1.18573194451E-01
4.41500000000E+09 -3.64105104944E-01 +1.71468368836E-01 -9.20542828405E-04 +8.20160955033E-04 -8.66063018247E-04 +8.40883024009E-04 -2.93531126580E-01 +1.38147153020E-01
4.42000000000E+09 -3.56864772751E-01 +1.91975680479E-01 -7.71283007385E-04 +9.71738111728E-04 -7.09811052406E-04 +1.00815948958E-03 -2.89613029072E-01 +1.57671432794E-01
4.42500000000E+09 -3.50047927216E-01 +2.13142301793E-01 -6.52221998680E-04 +6.70345994641E-04 -5.45250046413E-04 +6.66757951599E-04 -2.84674102711E-01 +1.76732414948E-01
4.43000000000E+09 -3.44942082849E-01 +2.33656881077E-01 -9.02085084348E-04 +7.60543546637E-04 -8.83153903658E-04 +7.37991750865E-04 -2.80234146059E-01 +1.94578944996E-01
4.43500000000E+09 -3.41774115336E-01 +2.53403247983E-01 -9.18932064785E-04 +1.15372275161E-03 -8.42433179446E-04 +1.09061340534E-03 -2.76327669309E-01 +2.12664535099E-01
4.44000000000E+09 -3.39657390395E-01 +2.72362905521E-01 -6.57796941516E-04 +1.29651390656E-03 -6.17220799686E-04 +1.22549402445E-03 -2.71037008300E-01 +2.31823462605E-01
4.44500000000E+09 -3.36190452630E-01 +2.89272571542E-01 -2.04615009290E-04 +1.61639222392E-03 -2.22968469069E-04 +1.54559073034E-03 -2.63835690677E-01 +2.48964052206E-01
4.45000000000E+09 -3.31957548852E-01 +3.02599805164E-01 +1.78749033231E-04 +1.18678087350E-03 +9.45707532980E-05 +1.15105156843E-03 -2.56766648483E-01 +2.65532123032E-01
4.45500000000E+09 -3.26660969786E-01 +3.14570655751E-01 -1.54488558332E-05 +1.09915818901E-03 -1.80863455343E-05 +1.06150984850E-03 -2.48497558284E-01 +2.81993924150E-01
4.46000000000E+09 -3.19098336054E-01 +3.25622342270E-01 +1.34500439605E-04 +1.01359816285E-03 +1.81383076343E-04 +9.94277870415E-04 -2.40189824059E-01 +2.97564408923E-01
4.46500000000E+09 -3.10331485691E-01 +3.36629662249E-01 +4.28635424849E-05 +1.14712822340E-03 +7.72170351012E-05 +1.10212776931E-03 -2.31865817760E-01 +3.12709021966E-01
4.47000000000E+09 -3.00175399845E-01 +3.50535834996E-01 +4.25705579563E-04 +9.18928281842E-04 +4.22447665380E-04 +9.02202403616E-04 -2.23271458526E-01 +3.28009570824E-01
4.47500000000E+09 -2.87479584364E-01 +3.66585422354E-01 +1.03588060008E-04 +1.01114175342E-03 +7.13902351282E-05 +9.27764078937E-04 -2.14413781658E-01 +3.42718240931E-01
4.48000000000E+09 -2.74108616418E-01 +3.82899499107E-01 +2.94455223476E-04 +1.06776222174E-03 +2.45757325656E-04 +1.05715645937E-03 -2.05655933700E-01 +3.57370266171E-01
4.48500000000E+09 -2.62121160747E-01 +3.99453957792E-01 +4.31172068486E-04 +1.38797745850E-03 +4.28373561380E-04 +1.37750064136E-03 -1.95748551620E-01 +3.71693494450E-01
4.49000000000E+09 -2.52096353720E-01 +4.15662543454E-01 +1.04399908730E-03 +1.25969832950E-03 +1.02673820079E-03 +1.26287503667E-03 -1.85475147619E-01 +3.84788589511E-01
4.49500000000E+09 -2.44825276502E-01 +4.30961088101E-01 +1.27923327295E-03 +6.60496674933E-04 +1.23168607729E-03 +6.99662448766E-04 -1.75460123304E-01 +3.97783552020E-01
4.50000000000E+09 -2.39286035991E-01 +4.45503135436E-01 +8.94232118786E-04 +5.34236351033E-04 +9.52024161379E-04 +5.83634164271E-04 -1.64747746646E-01 +4.10547414970E-01
4.50500000000E+09 -2.33769357058E-01 +4.57953479308E-01 +9.10684027129E-04 +3.12311789137E-04 +9.39440973833E-04 +3.71845344911E-04 -1.54048372203E-01 +4.22781973385E-01
4.51000000000E+09 -2.28023863554E-01 +4.67645682725E-01 +6.82151341511E-04 +4.73871840898E-04 +6.98415200174E-04 +4.79432709661E-04 -1.42881081625E-01 +4.34411952660E-01
4.51500000000E+09 -2.20899838597E-01 +4.75878495496E-01 +8.17912069391E-04 +6.94638393285E-04 +8.19232215383E-04 +6.46947141912E-04 -1.32360647242E-01 +4.45533531522E-01
4.52000000000E+09 -2.11823380966E-01 +4.83013465342E-01 +1.13677841601E-03 +6.33255730661E-04 +1.13006913917E-03 +6.49988115026E-04 -1.21604587799E-01 +4.56222364781E-01
4.52500000000E+09 -1.99969815300E-01 +4.90067647674E-01 +1.33945077310E-03 +4.33176009565E-04 +1.33681943576E-03 +4.03527902917E-04 -1.10411705008E-01 +4.66993390709E-01
4.53000000000E+09 -1.86481874720E-01 +4.97307394306E-01 +1.59334735036E-03 -1.22233956989E-04 +1.59452376440E-03 -1.58498530299E-04 -9.83928290322E-02 +4.76370327027E-01
4.53500000000E+09 -1.71938269321E-01 +5.06023998126E-01 +1.11559803022E-03 -2.54712550164E-04 +1.08113293219E-03 -2.82106666249E-04 -8.62426408955E-02 +4.85856617097E-01
4.54000000000E+09 -1.56882927995E-01 +5.15803405634E-01 +1.11031566345E-03 -3.09974403282E-04 +1.13472242985E-03 -3.54555778691E-04 -7.36046331716E-02 +4.94821436631E-01
4.54500000000E+09 -1.42305745400E-01 +5.26477461412E-01 +9.71369858317E-04 -3.75318263744E-04 +9.61456062188E-04 -3.93132513105E-04 -6.17012698499E-02 +5.03067934959E-01
4.55000000000E+09 -1.29440036720E-01 +5.36906514387E-01 +9.35965713437E-04 -5.45032258151E-04 +9.24294985173E-04 -5.56078684418E-04 -4.94603677272E-02 +5.11626304210E-01
4.55500000000E+09 -1.18801765237E-01 +5.47303458918E-01 +6.31092969824E-04 -4.31657182480E-04 +5.98664100652E-04 -4.02597438464E-04 -3.79456710754E-02 +5.20030973811E-01
4.56000000000E+09 -1.09221908963E-01 +5.55967120473E-01 +7.85894321509E-04 -1.14866860037E-04 +7.45747198465E-04 -1.36434405716E-04 -2.54782016374E-02 +5.27820456034E-01
4.56500000000E+09 -1.00953544607E-01 +5.62853085823E-01 +1.25394054750E-03 -3.96887200525E-04 +1.25058222053E-03 -4.10057207845E-04 -1.37575922663E-02 +5.34756295060E-01
4.57000000000E+09 -9.30712741186E-02 +5.68181624679E-01 +1.04141103795E-03 -1.19846755751E-03 +9.73616279886E-04 -1.15280562545E-03 -1.87010283721E-03 +5.41970860633E-01
