# Hz S RI R 50
! CMT, C1220, 16058040, 17.2.0/1
! Date: 15/08/2018 12:10:41
! Data: Format (Calibration Info)
! Freq                      S11: Re/Im (F2)                       S21: Re/Im (F2)                       S12: Re/Im (F2)                       S22: Re/Im (F2)            
4.00000000000E+09 +6.52586287488E-01 -3.56568392787E-01 -4.20277264528E-05 -4.30671318347E-04 -2.15018154869E-05 -3.87424475294E-04 +7.67136302586E-01 -3.21305008154E-01
4.00500000000E+09 +6.44314583584E-01 -3.62480791417E-01 -2.01046994838E-04 -1.93927508077E-04 -2.02218144128E-04 -1.89676201339E-04 +7.57932901011E-01 -3.31863534381E-01
4.01000000000E+09 +6.35437780888E-01 -3.68099202247E-01 +5.85496750994E-05 -1.29373281968E-04 +9.00629160495E-05 -1.23255226648E-04 +7.48352763135E-01 -3.42294375020E-01
4.01500000000E+09 +6.25609251403E-01 -3.74721853608E-01 +6.44085666657E-05 -3.97720573987E-04 +5.99143392180E-05 -3.96842233498E-04 +7.38726170060E-01 -3.52282872696E-01
4.02000000000E+09 +6.14758078001E-01 -3.83007619607E-01 -1.96430638391E-04 -4.37004379194E-04 -1.52917260302E-04 -4.12831864818E-04 +7.28438108986E-01 -3.62486131743E-01
4.02500000000E+09 +6.02902411635E-01 -3.92086734181E-01 -3.87451708823E-04 -3.80787519256E-04 -3.91001287973E-04 -4.03188453478E-04 +7.17345498205E-01 -3.71961505805E-01
4.03000000000E+09 +5.91064599037E-01 -4.01915539121E-01 -4.39017600867E-04 -1.23294979662E-04 -4.30502544863E-04 -7.73702645294E-05 +7.06799796393E-01 -3.81406788439E-01
4.03500000000E+09 +5.79835594741E-01 -4.12945308673E-01 -2.17393872923E-04 -2.03914627783E-05 -2.18025993598E-04 -3.04356508292E-05 +6.95578803192E-01 -3.91400726257E-01
4.04000000000E+09 +5.68534523084E-01 -4.24050729342E-01 -2.21848467933E-04 +2.21746868402E-06 -1.94266852255E-04 +1.59561537757E-05 +6.84235704557E-01 -4.01363001490E-01
4.04500000000E+09 +5.57646138706E-01 -4.34162934591E-01 -1.48483534049E-04 -4.28811247114E-05 -3.95235020470E-05 -2.33374519476E-05 +6.72138733804E-01 -4.11298248768E-01
4.05000000000E+09 +5.46714588705E-01 -4.42868728910E-01 -6.30198799278E-05 -1.44269330330E-04 -8.31800619605E-05 -2.18929140000E-04 +6.59899814432E-01 -4.20054723279E-01
4.05500000000E+09 +5.35419429949E-01 -4.49334544921E-01 -3.01985386783E-04 -2.68412230371E-04 -3.06194946234E-04 -3.07593361811E-04 +6.47536084566E-01 -4.28897168787E-01
4.06000000000E+09 +5.24073549312E-01 -4.54109704061E-01 -3.33592189356E-04 -1.17419410468E-04 -3.54370101179E-04 -1.48030181865E-04 +6.34544987095E-01 -4.36903851228E-01
4.06500000000E+09 +5.11435257358E-01 -4.58010151383E-01 -4.96442412228E-04 -7.15222144677E-05 -4.90940443991E-04 -1.00633277069E-04 +6.20925444643E-01 -4.44710148032E-01
4.07000000000E+09 +4.98115183790E-01 -4.61428480691E-01 -4.15561283866E-04 +2.25212439433E-04 -4.09092350911E-04 +2.28781101882E-04 +6.07200239896E-01 -4.52572346731E-01
4.07500000000E+09 +4.83212611222E-01 -4.65594592650E-01 -1.27938966483E-04 +1.83698011674E-04 -1.63566335939E-04 +1.88520582876E-04 +5.93281475028E-01 -4.60484968019E-01
4.08000000000E+09 +4.66564081485E-01 -4.70412123159E-01 -9.99023820721E-05 +3.91230919484E-05 -9.61117331936E-05 +5.18960157669E-05 +5.79712427142E-01 -4.68202869525E-01
4.08500000000E+09 +4.49240108798E-01 -4.75157948954E-01 -2.32322580071E-04 -3.86385716247E-05 -2.71322798556E-04 +1.59256841775E-05 +5.65589859430E-01 -4.75941393315E-01
4.09000000000E+09 +4.32570464006E-01 -4.81344258400E-01 -9.44209537593E-05 -4.45431575446E-05 -1.35049938951E-04 -1.53284887476E-05 +5.51139409865E-01 -4.82332934834E-01
4.09500000000E+09 +4.15745357442E-01 -4.88350760320E-01 -3.92593829666E-04 -1.08446948914E-04 -3.97521574706E-04 -1.59580933577E-04 +5.37018474115E-01 -4.88786158586E-01
4.10000000000E+09 +3.98062945147E-01 -4.95053034114E-01 -4.70053793239E-04 +5.40681594972E-05 -5.12357156366E-04 +8.70160782016E-05 +5.20911140322E-01 -4.95304775477E-01
4.10500000000E+09 +3.80866703230E-01 -4.99433109898E-01 -4.99768954740E-04 +3.12277180399E-04 -5.10493163316E-04 +3.11630826496E-04 +5.04925029179E-01 -5.00711765934E-01
4.11000000000E+09 +3.64291346412E-01 -5.01801522622E-01 -3.63366718780E-04 +4.80408460263E-04 -4.22514645418E-04 +4.57518919153E-04 +4.88349019725E-01 -5.06510694361E-01
4.11500000000E+09 +3.49325312476E-01 -5.02227451625E-01 +1.81094818661E-04 +5.31365259678E-04 +2.11954787265E-04 +5.58400610399E-04 +4.71810137512E-01 -5.11461705420E-01
4.12000000000E+09 +3.34255896164E-01 -5.02603948339E-01 +8.85424212749E-05 -1.11279897804E-04 +1.08217654037E-04 -1.07971601443E-04 +4.55783538820E-01 -5.16954524225E-01
4.12500000000E+09 +3.18246237577E-01 -5.02702316107E-01 -3.65761876410E-04 -5.96258161544E-05 -3.73034744668E-04 -7.28099621761E-05 +4.38076817868E-01 -5.21656509975E-01
4.13000000000E+09 +3.00724456224E-01 -5.03802806605E-01 -5.30348022214E-04 +2.28221988357E-04 -5.20311170497E-04 +2.46950180819E-04 +4.21260495611E-01 -5.24715411000E-01
4.13500000000E+09 +2.80633102609E-01 -5.05288752722E-01 -5.11403666694E-04 +4.53715081022E-04 -4.60333415100E-04 +4.35828808772E-04 +4.03929200470E-01 -5.28237803375E-01
4.14000000000E+09 +2.59789342322E-01 -5.06340522529E-01 -1.26148291358E-04 +8.97482014295E-04 -1.52125659100E-04 +8.85104754199E-04 +3.85513815487E-01 -5.31238527101E-01
4.14500000000E+09 +2.39402554756E-01 -5.08601018950E-01 +4.26382053501E-04 +6.28638698055E-04 +4.43804582082E-04 +5.84450506111E-04 +3.67260414650E-01 -5.33999055138E-01
4.15000000000E+09 +2.19020965931E-01 -5.11917608501E-01 +3.55718382731E-04 +9.59100643461E-05 +4.12942357670E-04 +5.33974330943E-05 +3.48841785221E-01 -5.36097923431E-01
4.15500000000E+09 +1.99002777390E-01 -5.15303385894E-01 -1.54097400482E-04 +8.50234074772E-05 -1.64969448144E-04 +2.97886866640E-05 +3.30608057953E-01 -5.37515291121E-01
4.16000000000E+09 +1.79694568177E-01 -5.17370406464E-01 -1.54517366656E-04 +2.86195378915E-04 -1.92825027183E-04 +3.12766001357E-04 +3.12893630688E-01 -5.38367544920E-01
4.16500000000E+09 +1.62097185201E-01 -5.17606581046E-01 +7.66535165072E-06 +3.99877378546E-04 -1.66731031690E-05 +3.68799280520E-04 +2.94373233427E-01 -5.38185183537E-01
4.17000000000E+09 +1.45590199617E-01 -5.15905845001E-01 +1.71611768374E-04 +5.88467678565E-04 +1.46370917927E-04 +6.16211868973E-04 +2.75806411302E-01 -5.37440397376E-01
4.17500000000E+09 +1.30377304861E-01 -5.12337647932E-01 +3.11121799484E-04 +1.15961540708E-04 +2.78296247982E-04 +1.45442510212E-04 +2.56858980719E-01 -5.35985159566E-01
4.18000000000E+09 +1.15454184442E-01 -5.07390837350E-01 +5.05528149206E-05 +2.14933794674E-04 +9.04454023768E-06 +2.83705308991E-04 +2.37643570873E-01 -5.34274487281E-01
4.18500000000E+09 +9.93802341173E-02 -5.02325378584E-01 +6.10371735572E-06 +3.38575474506E-04 -2.43905034972E-05 +3.67546065125E-04 +2.18655411036E-01 -5.32157673785E-01
4.19000000000E+09 +8.21951115924E-02 -4.96145594093E-01 +1.85328183384E-04 +2.99943869001E-04 +1.94506200984E-04 +3.65488234371E-04 +1.99386418174E-01 -5.29637188714E-01
4.19500000000E+09 +6.41075366038E-02 -4.90063683628E-01 +1.53740407634E-04 +4.68488134141E-04 +1.40627445110E-04 +5.56625358172E-04 +1.80439013926E-01 -5.26151025867E-01
4.20000000000E+09 +4.52029937986E-02 -4.84250819491E-01 +3.90260395720E-04 +4.56167414477E-04 +3.89346665727E-04 +5.11991758018E-04 +1.61207842778E-01 -5.22800431803E-01
4.20500000000E+09 +2.65660334667E-02 -4.78924033248E-01 +5.28073188386E-04 +3.63149879233E-04 +5.50925669763E-04 +3.66550694739E-04 +1.41435566987E-01 -5.17229332760E-01
4.21000000000E+09 +8.41517101301E-03 -4.74172959150E-01 +4.31045951022E-04 +1.51386298420E-04 +4.50872893526E-04 +1.45927890642E-04 +1.22453324487E-01 -5.11974316009E-01
4.21500000000E+09 -9.93978359647E-03 -4.69099309198E-01 +3.86018362028E-04 +2.14555445374E-04 +3.92613110806E-04 +2.40743970702E-04 +1.03061256555E-01 -5.06224878804E-01
4.22000000000E+09 -2.68926253830E-02 -4.61779726400E-01 +5.96932314976E-04 +2.22022071498E-04 +6.84787578182E-04 +2.79989498127E-04 +8.42344473862E-02 -4.99385341521E-01
4.22500000000E+09 -4.16605144193E-02 -4.53166151855E-01 +4.27987409289E-04 -1.32194382886E-04 +5.07089270960E-04 -1.38450306275E-04 +6.62678450032E-02 -4.93087237775E-01
4.23000000000E+09 -5.60964149350E-02 -4.43499248313E-01 +3.56926006935E-04 -1.09303676359E-05 +4.37760086891E-04 -6.47145174708E-05 +4.72677238463E-02 -4.85747805744E-01
4.23500000000E+09 -6.99235987909E-02 -4.31804064810E-01 +4.65289224079E-05 +1.38415586249E-04 +3.82358267452E-05 +1.01087578446E-04 +2.88521353979E-02 -4.77075592987E-01
4.24000000000E+09 -8.42340713181E-02 -4.20173161307E-01 +3.02999669147E-04 +4.60236296454E-04 +3.34471211573E-04 +4.39557712833E-04 +1.04508095721E-02 -4.67893419352E-01
4.24500000000E+09 -1.01419111532E-01 -4.08040949179E-01 +9.55845701446E-04 +4.33551842553E-04 +9.92849560327E-04 +4.33250843751E-04 -8.16031056682E-03 -4.57246500790E-01
4.25000000000E+09 -1.20677256977E-01 -3.94085138021E-01 +1.09163620114E-03 -3.15178846073E-04 +1.06830915920E-03 -3.44036853173E-04 -2.53334465607E-02 -4.45828692611E-01
4.25500000000E+09 -1.39670895282E-01 -3.79708313713E-01 +5.88707859436E-04 -5.73493729953E-04 +5.57924954541E-04 -6.38453232022E-04 -4.25627876276E-02 -4.34878731632E-01
4.26000000000E+09 -1.58373701034E-01 -3.66896725848E-01 +2.73746147292E-04 -3.04407085672E-04 +1.62569498023E-04 -3.59156010719E-04 -5.96760217405E-02 -4.22182757821E-01
4.26500000000E+09 -1.77068428147E-01 -3.54692043420E-01 +3.29895782651E-04 -6.19787975606E-06 +2.53348100633E-04 +2.01289043595E-05 -7.50280413629E-02 -4.09255450152E-01
4.27000000000E+09 -1.94395042668E-01 -3.43226842121E-01 +6.89859176066E-04 -5.28920918737E-05 +6.03117746291E-04 +1.46301051300E-05 -9.12125206068E-02 -3.96793814899E-01
4.27500000000E+09 -2.09766449404E-01 -3.31485398145E-01 +8.89519859644E-04 -1.17266095458E-04 +8.14675138866E-04 -8.77582825481E-05 -1.07805215581E-01 -3.82649797766E-01
4.28000000000E+09 -2.23088696178E-01 -3.19297897533E-01 +8.29567369268E-04 -5.30604626989E-04 +7.99366195204E-04 -4.13472638941E-04 -1.23140653073E-01 -3.68290740671E-01
4.28500000000E+09 -2.35034282887E-01 -3.05374032665E-01 +7.09068254740E-04 -5.68098744469E-04 +6.98931895947E-04 -4.36453817977E-04 -1.38679898984E-01 -3.53901865254E-01
4.29000000000E+09 -2.44723865191E-01 -2.89654323057E-01 +8.70325990581E-04 -8.56993691092E-04 +8.72863529554E-04 -7.22343701117E-04 -1.53994209543E-01 -3.39006672716E-01
4.29500000000E+09 -2.54586319093E-01 -2.72598131960E-01 +4.71083604457E-04 -1.30482853185E-03 +4.83960819983E-04 -1.31194107136E-03 -1.68072384869E-01 -3.22895120384E-01
4.30000000000E+09 -2.64279923048E-01 -2.53680957214E-01 +2.06025413216E-04 -9.45620440028E-04 +2.56726645974E-04 -9.34479124581E-04 -1.80854459310E-01 -3.06533079474E-01
4.30500000000E+09 -2.74907601705E-01 -2.34343666860E-01 +5.76128830190E-05 -1.23882402865E-03 +1.42383890948E-04 -1.24483280030E-03 -1.93244535942E-01 -2.89699472824E-01
4.31000000000E+09 -2.87193738410E-01 -2.14585492686E-01 -2.56988657283E-04 -1.19853886340E-03 -1.83588775194E-04 -1.25103763962E-03 -2.04750779900E-01 -2.72572866343E-01
4.31500000000E+09 -3.00267514662E-01 -1.95544271768E-01 -4.19767846218E-04 -8.36455541223E-04 -3.95612111689E-04 -9.12957355734E-04 -2.15988036368E-01 -2.55038351088E-01
4.32000000000E+09 -3.13723154486E-01 -1.77074481398E-01 -4.11189253694E-04 -8.76340639844E-04 -3.72114754452E-04 -9.13576206962E-04 -2.27319388084E-01 -2.36655343029E-01
4.32500000000E+09 -3.25827881050E-01 -1.59267143137E-01 -3.63221318727E-04 -6.19619868060E-04 -3.57799647831E-04 -6.97215353370E-04 -2.36602080678E-01 -2.17697139430E-01
4.33000000000E+09 -3.35443230842E-01 -1.42579397940E-01 -4.21556786351E-04 -7.81672697900E-04 -4.12090953359E-04 -8.38522277146E-04 -2.46199793923E-01 -1.99360852587E-01
4.33500000000E+09 -3.42628197051E-01 -1.26811186932E-01 -3.96353762007E-04 -7.41869101101E-04 -4.00119145827E-04 -7.64790294432E-04 -2.55133330956E-01 -1.79322260181E-01
4.34000000000E+09 -3.47391540857E-01 -1.11229348279E-01 -7.04068013560E-04 -9.60595001470E-04 -7.04743752534E-04 -9.78590433033E-04 -2.62632390842E-01 -1.59195017399E-01
4.34500000000E+09 -3.49698023137E-01 -9.56331416119E-02 -9.71105266850E-04 -5.59786898313E-04 -1.01663760966E-03 -5.71371107295E-04 -2.70201838188E-01 -1.38966132665E-01
4.35000000000E+09 -3.52468650004E-01 -7.85767612723E-02 -8.00449754734E-04 -1.69988694288E-04 -8.25989997559E-04 -1.74313271057E-04 -2.76572803170E-01 -1.18740174217E-01
4.35500000000E+09 -3.54910190912E-01 -5.80739149137E-02 -3.34489089825E-04 -2.46217869943E-04 -3.82311904458E-04 -2.46238853803E-04 -2.82661249544E-01 -9.89233710001E-02
4.36000000000E+09 -3.56476597282E-01 -3.54448184295E-02 -7.03259199401E-04 -9.42750842393E-04 -7.36034263782E-04 -8.98639450533E-04 -2.87950330165E-01 -7.90895450939E-02
4.36500000000E+09 -3.58426102500E-01 -1.23917705713E-02 -1.18390740343E-03 -4.73426138940E-04 -1.15185591476E-03 -4.16486035320E-04 -2.91922326443E-01 -5.88464305501E-02
4.37000000000E+09 -3.61417355298E-01 +1.01080656650E-02 -1.10424076738E-03 -3.08642705531E-04 -1.14642898394E-03 -2.71913852638E-04 -2.94622031556E-01 -3.95949153559E-02
4.37500000000E+09 -3.65641676379E-01 +3.09255391313E-02 -1.24280490143E-03 -1.36758813191E-05 -1.27560133066E-03 +3.64472166626E-06 -2.97500543764E-01 -1.93758627534E-02
4.38000000000E+09 -3.71284298432E-01 +5.04071834953E-02 -1.04275732251E-03 +2.29262332767E-04 -1.06257987340E-03 +2.36408686000E-04 -2.99062890788E-01 +1.39569554889E-03
4.38500000000E+09 -3.76314477466E-01 +6.84514164078E-02 -9.77041822490E-04 +3.28956168983E-04 -1.00734777820E-03 +3.56756320676E-04 -3.00020416872E-01 +2.16294373484E-02
4.39000000000E+09 -3.80020985610E-01 +8.50528333822E-02 -8.38856151861E-04 +2.88174174514E-04 -8.18820121247E-04 +2.57399565024E-04 -3.00597416297E-01 +4.20951910415E-02
4.39500000000E+09 -3.80500368891E-01 +1.00122460740E-01 -8.75072128605E-04 +4.69330051547E-04 -8.87388738034E-04 +4.92143511957E-04 -3.01169026092E-01 +6.14779581595E-02
4.40000000000E+09 -3.78672481128E-01 +1.14234988085E-01 -1.01174478442E-03 +2.36950283820E-04 -9.99201560966E-04 +2.89062474242E-04 -3.00668364182E-01 +8.16357287047E-02
4.40500000000E+09 -3.75491490574E-01 +1.28346808445E-01 -1.17405124675E-03 +7.03891785350E-04 -1.11996409639E-03 +7.45266578836E-04 -2.98868823932E-01 +1.01057460634E-01
4.41000000000E+09 -3.71196417000E-01 +1.45256263839E-01 -8.25352515209E-04 +1.05627633209E-03 -8.00006086703E-04 +1.09147093981E-03 -2.96779423395E-01 +1.20414631239E-01
4.41500000000E+09 -3.64844311271E-01 +1.64209236722E-01 -4.62423142542E-04 +9.93569254443E-04 -4.54640341670E-04 +1.00235864925E-03 -2.93151206737E-01 +1.40050691872E-01
4.42000000000E+09 -3.58491483180E-01 +1.84683166093E-01 -1.71877577248E-04 +1.00506380974E-03 -1.99255423460E-04 +1.06701734980E-03 -2.89130080642E-01 +1.59512015768E-01
4.42500000000E+09 -3.52277005936E-01 +2.05811731974E-01 -7.06412457809E-05 +4.56317652256E-04 -1.98733550947E-05 +4.89650890990E-04 -2.84439020629E-01 +1.78473061635E-01
4.43000000000E+09 -3.48162260589E-01 +2.26744672442E-01 -6.01386711424E-04 +5.76495068899E-04 -5.64427157083E-04 +5.71584167503E-04 -2.79852769073E-01 +1.96842462830E-01
4.43500000000E+09 -3.45333655196E-01 +2.47189393212E-01 -5.81085880484E-04 +9.03435071220E-04 -4.97444132156E-04 +9.14268560950E-04 -2.75912687839E-01 +2.14953922930E-01
4.44000000000E+09 -3.42849041963E-01 +2.66626226781E-01 -5.52455994235E-04 +9.44421624132E-04 -4.51502861603E-04 +9.03120722054E-04 -2.70411900964E-01 +2.34291268642E-01
4.44500000000E+09 -3.39446023356E-01 +2.83156712283E-01 -2.36386245003E-04 +1.53752672997E-03 -1.97613478468E-04 +1.45488557533E-03 -2.62696372108E-01 +2.51496001652E-01
4.45000000000E+09 -3.35575247223E-01 +2.96960523231E-01 +3.72080010245E-04 +1.18261968324E-03 +4.00400587818E-04 +1.09756051256E-03 -2.55335291310E-01 +2.67766564484E-01
4.45500000000E+09 -3.30354249068E-01 +3.09239450709E-01 +1.34723949314E-04 +8.96293783103E-04 +1.95968695887E-04 +8.36776790228E-04 -2.47123519367E-01 +2.83908310188E-01
4.46000000000E+09 -3.23266898206E-01 +3.20776295913E-01 +2.24038784351E-04 +8.92892481939E-04 +2.50629766697E-04 +8.39207755627E-04 -2.38795164761E-01 +2.99137734218E-01
4.46500000000E+09 -3.14896753537E-01 +3.32741133786E-01 +1.97455828175E-04 +1.08703134061E-03 +1.99770301857E-04 +9.82492115889E-04 -2.30616640085E-01 +3.14268704987E-01
4.47000000000E+09 -3.04377463565E-01 +3.47298240162E-01 +4.01532669976E-04 +8.04628041329E-04 +3.18419535284E-04 +7.77350834970E-04 -2.21801887682E-01 +3.29321723885E-01
4.47500000000E+09 -2.91800196748E-01 +3.63264574276E-01 +2.94949668283E-04 +1.16798547429E-03 +1.77305416487E-04 +1.15216195211E-03 -2.13466271343E-01 +3.43866577317E-01
4.48000000000E+09 -2.79210435326E-01 +3.79805574022E-01 +5.95467271429E-04 +1.25874498835E-03 +5.80585595461E-04 +1.23107276035E-03 -2.04512363971E-01 +3.58754546467E-01
4.48500000000E+09 -2.67903894791E-01 +3.96713603829E-01 +1.01217792715E-03 +1.29193119803E-03 +9.91074882241E-04 +1.29574582651E-03 -1.94604691088E-01 +3.72923018816E-01
4.49000000000E+09 -2.58609651325E-01 +4.13598659774E-01 +1.52386496549E-03 +8.84452193098E-04 +1.41982659560E-03 +8.90998070382E-04 -1.84462657323E-01 +3.86042579364E-01
4.49500000000E+09 -2.51236670906E-01 +4.29555660022E-01 +1.56491324849E-03 +2.22541071596E-04 +1.51229614375E-03 +3.37824916323E-04 -1.74464682424E-01 +3.99006822134E-01
4.50000000000E+09 -2.45509017601E-01 +4.44257852329E-01 +1.13594681339E-03 +2.09959194407E-04 +1.10747001763E-03 +2.37580057913E-04 -1.63771394416E-01 +4.11735082958E-01
4.50500000000E+09 -2.39948704289E-01 +4.56557781753E-01 +1.21073395242E-03 -9.21501840755E-05 +1.22872554389E-03 -2.61545851303E-05 -1.53268685939E-01 +4.23931409122E-01
4.51000000000E+09 -2.34233783886E-01 +4.66318870313E-01 +9.57860162773E-04 -1.12679752527E-05 +1.00616069543E-03 -4.00545930586E-05 -1.42093823198E-01 +4.35779347064E-01
4.51500000000E+09 -2.27227331387E-01 +4.74574780692E-01 +8.85011304712E-04 +2.63441426695E-05 +9.85505649426E-04 +3.61168845521E-05 -1.31661452892E-01 +4.47002308837E-01
4.52000000000E+09 -2.18091525671E-01 +4.82510974509E-01 +9.77669571851E-04 -2.99843209866E-05 +1.04000484840E-03 -5.96737753904E-05 -1.20704434887E-01 +4.58063732083E-01
4.52500000000E+09 -2.05874930470E-01 +4.89782976152E-01 +1.15648764665E-03 -1.78786567009E-05 +1.21271089450E-03 +4.55998267442E-06 -1.09043455115E-01 +4.68591912948E-01
4.53000000000E+09 -1.92193778295E-01 +4.97370887845E-01 +1.43041782741E-03 -5.02149935755E-04 +1.42643775735E-03 -5.14868714841E-04 -9.71472063793E-02 +4.77770679335E-01
4.53500000000E+09 -1.77616349994E-01 +5.06410297750E-01 +9.86599569896E-04 -6.34500244884E-04 +1.00001287907E-03 -6.72572994281E-04 -8.49303543665E-02 +4.87355437858E-01
4.54000000000E+09 -1.62670026058E-01 +5.16920972855E-01 +1.01469087757E-03 -7.34888643867E-04 +1.07196239983E-03 -7.46951462597E-04 -7.22544763941E-02 +4.96276092581E-01
4.54500000000E+09 -1.47991467375E-01 +5.27981231823E-01 +6.31552070072E-04 -9.54647897962E-04 +6.31148094578E-04 -9.58414856205E-04 -6.04510864710E-02 +5.04652933527E-01
4.55000000000E+09 -1.35337197463E-01 +5.38705151136E-01 +4.98613782749E-04 -8.16490460853E-04 +4.24336241146E-04 -8.28388356267E-04 -4.77884459038E-02 +5.13305806055E-01
4.55500000000E+09 -1.24611948942E-01 +5.49367501270E-01 +4.70792551844E-04 -6.56369235385E-04 +4.37199838388E-04 -6.91437950042E-04 -3.61851250416E-02 +5.21296077101E-01
4.56000000000E+09 -1.14892599187E-01 +5.58204003270E-01 +4.87101982416E-04 -5.79945357582E-04 +4.79312227801E-04 -5.84463764843E-04 -2.37760366517E-02 +5.29032471099E-01
4.56500000000E+09 -1.06534901540E-01 +5.65184951940E-01 +9.12681775069E-04 -7.96783193335E-04 +8.49046804780E-04 -8.15642067375E-04 -1.18973330629E-02 +5.35796133378E-01
4.57000000000E+09 -9.82441514329E-02 +5.70625445607E-01 +6.28273651158E-04 -1.38972732719E-03 +5.10286793584E-04 -1.37224256797E-03 +1.56721585813E-04 +5.42804159639E-01
