# Hz S RI R 50
! CMT, C1220, 16058040, 17.2.0/1
! Date: 15/08/2018 12:37:25
! Data: Format (Calibration Info)
! Freq                      S11: Re/Im (F2)                       S21: Re/Im (F2)                       S12: Re/Im (F2)                       S22: Re/Im (F2)            
4.00000000000E+09 +6.53763544026E-01 -3.59065286803E-01 +1.51796099137E-03 -1.00847780285E-03 +1.58513947239E-03 -9.63665482048E-04 +7.85049768650E-01 -3.15949973822E-01
4.00500000000E+09 +6.45381466972E-01 -3.64749146789E-01 +1.30132421672E-03 -1.31400707104E-03 +1.40452960262E-03 -1.32665693749E-03 +7.76625667165E-01 -3.27215668214E-01
4.01000000000E+09 +6.36766592897E-01 -3.70583253327E-01 +1.05979286094E-03 -1.66646481320E-03 +1.08035136027E-03 -1.69602356805E-03 +7.67958575983E-01 -3.39103667481E-01
4.01500000000E+09 +6.27275002254E-01 -3.76659252320E-01 +5.68631746821E-04 -1.57335308884E-03 +6.28242971803E-04 -1.55396114012E-03 +7.59450935218E-01 -3.50145162763E-01
4.02000000000E+09 +6.17942128580E-01 -3.83840753568E-01 +5.79856332365E-04 -1.44339020697E-03 +6.81197620760E-04 -1.47565227655E-03 +7.50680386187E-01 -3.60898025778E-01
4.02500000000E+09 +6.07887775819E-01 -3.92727603520E-01 +4.24555383251E-04 -1.48116578117E-03 +5.34985639079E-04 -1.52661283050E-03 +7.41228813977E-01 -3.71517522691E-01
4.03000000000E+09 +5.96927474085E-01 -4.02748594853E-01 +4.00300615997E-04 -1.41572414823E-03 +4.71122118270E-04 -1.49779593905E-03 +7.30979519060E-01 -3.82196981605E-01
4.03500000000E+09 +5.85045507372E-01 -4.12724998788E-01 +3.24482608136E-04 -1.57723555350E-03 +4.28170635288E-04 -1.62111872430E-03 +7.19711596524E-01 -3.93512676909E-01
4.04000000000E+09 +5.73532343387E-01 -4.22053317233E-01 +3.08911251588E-04 -1.62975015114E-03 +3.63398828572E-04 -1.67510835273E-03 +7.08457696179E-01 -4.04848186766E-01
4.04500000000E+09 +5.61961655359E-01 -4.31208520835E-01 +1.43347662242E-04 -1.69660631671E-03 +2.46815747386E-04 -1.83733647391E-03 +6.97158468384E-01 -4.15821683762E-01
4.05000000000E+09 +5.49926639038E-01 -4.38730343934E-01 -5.85806338594E-05 -1.85924450130E-03 -2.06146616012E-05 -1.95529055882E-03 +6.86337403071E-01 -4.26287355526E-01
4.05500000000E+09 +5.37767169004E-01 -4.44685142137E-01 -2.04624305171E-04 -1.83623795162E-03 -1.51126488281E-04 -1.91850601851E-03 +6.74863706940E-01 -4.35838174680E-01
4.06000000000E+09 +5.25465673861E-01 -4.49562229655E-01 -5.85184029935E-04 -1.93491101801E-03 -6.02616646302E-04 -1.99169475176E-03 +6.63715690522E-01 -4.44855475717E-01
4.06500000000E+09 +5.12465576987E-01 -4.53572399113E-01 -7.96548407341E-04 -1.55397598733E-03 -7.36938388883E-04 -1.63913995302E-03 +6.51277382887E-01 -4.54707886364E-01
4.07000000000E+09 +4.99140218083E-01 -4.57802227497E-01 -7.19606322027E-04 -1.41076260931E-03 -7.17103044397E-04 -1.44421138970E-03 +6.37893513843E-01 -4.64412527603E-01
4.07500000000E+09 +4.84623069990E-01 -4.62470896843E-01 -6.55652466554E-04 -1.53021224254E-03 -6.25607691671E-04 -1.63011507573E-03 +6.24305463373E-01 -4.74875935599E-01
4.08000000000E+09 +4.69448563678E-01 -4.67475504777E-01 -9.64007779205E-04 -1.55017972977E-03 -8.88323515174E-04 -1.66531423407E-03 +6.10641070413E-01 -4.84650149142E-01
4.08500000000E+09 +4.53630073158E-01 -4.73671372852E-01 -9.21150258789E-04 -1.55132027568E-03 -9.16366234626E-04 -1.67596107762E-03 +5.97278424475E-01 -4.94544637484E-01
4.09000000000E+09 +4.37192600969E-01 -4.79650733193E-01 -1.37010998327E-03 -1.77159751712E-03 -1.44086279705E-03 -1.88462214342E-03 +5.83339554232E-01 -5.03037577845E-01
4.09500000000E+09 +4.21057411837E-01 -4.85677599529E-01 -1.86640762104E-03 -1.32337203284E-03 -1.89716481002E-03 -1.37986325074E-03 +5.69068956652E-01 -5.11304917251E-01
4.10000000000E+09 +4.04411602878E-01 -4.91077190171E-01 -1.78514225117E-03 -8.40536129936E-04 -1.83957185731E-03 -8.78302289233E-04 +5.53505460309E-01 -5.18773030964E-01
4.10500000000E+09 +3.87845043418E-01 -4.95224046828E-01 -1.63751728025E-03 -8.20416240096E-04 -1.77196320043E-03 -8.29480817851E-04 +5.38129999800E-01 -5.26584800506E-01
4.11000000000E+09 +3.71520139471E-01 -4.97032432823E-01 -1.86714265640E-03 -6.03636896833E-04 -1.90955715513E-03 -6.30309464203E-04 +5.21776216456E-01 -5.35225190560E-01
4.11500000000E+09 +3.56353617654E-01 -4.98203614392E-01 -1.53031490967E-03 -3.44718985660E-04 -1.58409119972E-03 -3.55674178910E-04 +5.05486153671E-01 -5.43236491431E-01
4.12000000000E+09 +3.40613726574E-01 -4.99174177336E-01 -1.67563321586E-03 -6.50430766984E-04 -1.67054102527E-03 -6.87732514195E-04 +4.89123235148E-01 -5.51295035077E-01
4.12500000000E+09 +3.23792224577E-01 -5.00354445261E-01 -1.83452219062E-03 -4.02102397142E-04 -1.87269975685E-03 -4.43859427091E-04 +4.71709060026E-01 -5.57907240685E-01
4.13000000000E+09 +3.06412696052E-01 -5.01226352372E-01 -1.93204598771E-03 -1.82318748468E-04 -1.97964136242E-03 -2.22359470557E-04 +4.54109661308E-01 -5.63822022718E-01
4.13500000000E+09 +2.88014944530E-01 -5.03777301134E-01 -1.61678540494E-03 -1.37987421434E-06 -1.60272587469E-03 -2.13011485843E-05 +4.35724148215E-01 -5.69011356475E-01
4.14000000000E+09 +2.68625548681E-01 -5.06647355237E-01 -1.85294498509E-03 -3.62824365827E-04 -1.88299760030E-03 -4.81787949344E-04 +4.17511992018E-01 -5.74810034946E-01
4.14500000000E+09 +2.48951203439E-01 -5.09650107428E-01 -2.39518912128E-03 +1.39008059045E-05 -2.42146011743E-03 -5.15373441944E-05 +3.98200992507E-01 -5.80702964892E-01
4.15000000000E+09 +2.29815691219E-01 -5.13028173436E-01 -2.20923866042E-03 +5.13405814627E-04 -2.28743806722E-03 +4.79864247843E-04 +3.80015392526E-01 -5.85468252082E-01
4.15500000000E+09 +2.10494770160E-01 -5.15689483629E-01 -2.09014546035E-03 +7.41811643683E-04 -2.12261776821E-03 +7.55731377930E-04 +3.61913189256E-01 -5.90154399590E-01
4.16000000000E+09 +1.92072295798E-01 -5.16141806048E-01 -1.91987791968E-03 +8.63052799358E-04 -1.95585730360E-03 +8.47596458413E-04 +3.43329717631E-01 -5.93611987159E-01
4.16500000000E+09 +1.75280059749E-01 -5.15541303620E-01 -1.78350284385E-03 +8.08615870057E-04 -1.75155816021E-03 +8.06857164810E-04 +3.23946662953E-01 -5.96418537584E-01
4.17000000000E+09 +1.58804405600E-01 -5.12943790298E-01 -1.90946772504E-03 +1.00970575525E-03 -1.95931795474E-03 +9.62765493559E-04 +3.03537293070E-01 -5.98701594510E-01
4.17500000000E+09 +1.42868539333E-01 -5.08945272257E-01 -1.98087324727E-03 +9.77545197244E-04 -2.04131403936E-03 +9.27690292406E-04 +2.82411026307E-01 -6.00500001891E-01
4.18000000000E+09 +1.26243576729E-01 -5.04097545501E-01 -2.12310608558E-03 +1.59132515821E-03 -2.20083738161E-03 +1.55976828663E-03 +2.61393933743E-01 -6.02004153547E-01
4.18500000000E+09 +1.09291031028E-01 -4.98428698047E-01 -1.68315722424E-03 +1.72673529674E-03 -1.76859295641E-03 +1.73831696282E-03 +2.40591831569E-01 -6.03616110841E-01
4.19000000000E+09 +9.12812262886E-02 -4.92779227400E-01 -1.78798610514E-03 +1.96920481169E-03 -1.91339947125E-03 +1.94251670240E-03 +2.19354018870E-01 -6.03907739474E-01
4.19500000000E+09 +7.28495198245E-02 -4.87259609450E-01 -1.58397064831E-03 +2.28904422817E-03 -1.72966573539E-03 +2.30283489392E-03 +1.98393784232E-01 -6.02670933457E-01
4.20000000000E+09 +5.43454939403E-02 -4.83182314249E-01 -1.13785972711E-03 +2.66312173739E-03 -1.26682356662E-03 +2.71123726493E-03 +1.76647927875E-01 -6.01043112599E-01
4.20500000000E+09 +3.50335276553E-02 -4.78792719951E-01 -5.68690518539E-04 +2.55523012584E-03 -6.90025590766E-04 +2.68752196123E-03 +1.54971834331E-01 -5.98227323543E-01
4.21000000000E+09 +1.68996083914E-02 -4.74358656690E-01 -6.49112287189E-04 +2.17751877632E-03 -7.49765057988E-04 +2.31253617937E-03 +1.32413997310E-01 -5.97008670684E-01
4.21500000000E+09 -7.29225687819E-04 -4.68356002690E-01 -5.03005909699E-04 +2.64242642873E-03 -5.69292088026E-04 +2.72138950281E-03 +1.08679891644E-01 -5.94613271924E-01
4.22000000000E+09 -1.60965648554E-02 -4.61155663327E-01 -6.88631723006E-05 +2.46422170668E-03 -1.29633025991E-04 +2.52189384456E-03 +8.60438411423E-02 -5.90516790593E-01
4.22500000000E+09 -3.09090065858E-02 -4.52696288866E-01 -3.33837864174E-04 +2.32594547693E-03 -3.59472325601E-04 +2.44097592869E-03 +6.42588050803E-02 -5.85505035916E-01
4.23000000000E+09 -4.53253041450E-02 -4.41937997085E-01 -1.28135915493E-04 +2.90855901319E-03 -1.27726654031E-04 +3.02410681250E-03 +4.27426071173E-02 -5.78779956248E-01
4.23500000000E+09 -5.89599575575E-02 -4.30658750189E-01 +2.77259195877E-04 +2.89399233772E-03 +2.84911477125E-04 +3.07835893670E-03 +2.12843182481E-02 -5.71524453623E-01
4.24000000000E+09 -7.49594899742E-02 -4.18859416466E-01 +7.29292766058E-04 +2.93277131172E-03 +7.12246201662E-04 +3.05106946536E-03 -6.05101962226E-04 -5.63132358919E-01
4.24500000000E+09 -9.24837110706E-02 -4.05651040972E-01 +1.10427961107E-03 +2.63746918406E-03 +1.12296090702E-03 +2.72034656907E-03 -2.24173712202E-02 -5.54912107986E-01
4.25000000000E+09 -1.11170931703E-01 -3.92573763643E-01 +9.10554569114E-04 +2.58652889177E-03 +1.00096197565E-03 +2.64222823920E-03 -4.44240646439E-02 -5.46250573468E-01
4.25500000000E+09 -1.30526229202E-01 -3.80138887730E-01 +1.28752277990E-03 +2.87808634283E-03 +1.38989075002E-03 +2.91905453916E-03 -6.52920341987E-02 -5.37306372383E-01
4.26000000000E+09 -1.51548404323E-01 -3.68392460583E-01 +1.73336930535E-03 +2.66883698250E-03 +1.76930681074E-03 +2.66199198719E-03 -8.65969475329E-02 -5.27277986114E-01
4.26500000000E+09 -1.70694599176E-01 -3.55654885643E-01 +1.69124786312E-03 +2.81922992768E-03 +1.74180367289E-03 +2.80142439929E-03 -1.07578571318E-01 -5.15734032736E-01
4.27000000000E+09 -1.87459636335E-01 -3.44520490849E-01 +2.55857531675E-03 +2.59118393468E-03 +2.57223135600E-03 +2.61680252441E-03 -1.29113688317E-01 -5.02478618590E-01
4.27500000000E+09 -2.03351400453E-01 -3.33372462631E-01 +2.67897888561E-03 +2.12078879110E-03 +2.72166128681E-03 +2.12838015638E-03 -1.50342093571E-01 -4.88356072844E-01
4.28000000000E+09 -2.16968768976E-01 -3.20477210628E-01 +2.77831924257E-03 +2.11716999868E-03 +2.80082455793E-03 +2.10346613872E-03 -1.71466865806E-01 -4.74276069198E-01
4.28500000000E+09 -2.28561803926E-01 -3.06672191229E-01 +3.27869342397E-03 +2.05230391860E-03 +3.27895490664E-03 +2.09873783057E-03 -1.92571630714E-01 -4.59279073209E-01
4.29000000000E+09 -2.39647734227E-01 -2.91265536713E-01 +3.73459252325E-03 +1.26016966514E-03 +3.72975122582E-03 +1.31284743388E-03 -2.11685574831E-01 -4.44290193068E-01
4.29500000000E+09 -2.50865429966E-01 -2.73797657411E-01 +3.47486526874E-03 +9.68105606670E-04 +3.44574720855E-03 +1.03110715496E-03 -2.31006131252E-01 -4.28252560367E-01
4.30000000000E+09 -2.61560294755E-01 -2.54197455002E-01 +3.77773431920E-03 +7.18211688907E-04 +3.82427358204E-03 +7.95793458137E-04 -2.48330274598E-01 -4.10662085815E-01
4.30500000000E+09 -2.72788556147E-01 -2.34685425617E-01 +3.84430854946E-03 +1.31614416279E-04 +3.90242083583E-03 +2.08951992750E-04 -2.66521697094E-01 -3.92642750506E-01
4.31000000000E+09 -2.85387693152E-01 -2.15546878207E-01 +3.62453906268E-03 +2.81312810317E-04 +3.66229513219E-03 +3.85399511209E-04 -2.83614936038E-01 -3.72332019733E-01
4.31500000000E+09 -2.98547004268E-01 -1.96602275037E-01 +4.45896399351E-03 +3.86759466803E-05 +4.56118042938E-03 +8.25241145712E-05 -2.99953159363E-01 -3.52360658316E-01
4.32000000000E+09 -3.11465731328E-01 -1.79205166225E-01 +4.59110514738E-03 -1.14973184066E-03 +4.68012372887E-03 -1.15928803556E-03 -3.15836304181E-01 -3.31884574954E-01
4.32500000000E+09 -3.22976909716E-01 -1.62198894666E-01 +3.96754922869E-03 -1.80825125549E-03 +4.07025661356E-03 -1.81767637647E-03 -3.30085466933E-01 -3.10229891216E-01
4.33000000000E+09 -3.32703373064E-01 -1.46656272749E-01 +3.78979878912E-03 -1.85023822104E-03 +3.85990841822E-03 -1.91589571981E-03 -3.42865399366E-01 -2.88368877218E-01
4.33500000000E+09 -3.39754442526E-01 -1.30279992722E-01 +3.76950434366E-03 -2.19347492769E-03 +3.85653715434E-03 -2.27367557385E-03 -3.55019267968E-01 -2.65640103451E-01
4.34000000000E+09 -3.43357089862E-01 -1.14650330643E-01 +3.48050943629E-03 -2.99846019199E-03 +3.57826055111E-03 -3.10477003647E-03 -3.67147452758E-01 -2.42859341840E-01
4.34500000000E+09 -3.45829569941E-01 -9.79223152472E-02 +3.00509652820E-03 -2.98344660716E-03 +3.04473275073E-03 -3.05678522129E-03 -3.79200090822E-01 -2.18262001504E-01
4.35000000000E+09 -3.46457952137E-01 -7.93367371504E-02 +2.96202310007E-03 -3.44795460086E-03 +3.05781215449E-03 -3.52046325308E-03 -3.89460362404E-01 -1.94822623073E-01
4.35500000000E+09 -3.47804383389E-01 -5.93630303612E-02 +2.41341156346E-03 -3.82003022206E-03 +2.45857731305E-03 -3.93997767790E-03 -3.99267884899E-01 -1.71998319310E-01
4.36000000000E+09 -3.49371355379E-01 -3.74468758313E-02 +1.87491102404E-03 -3.77701474716E-03 +1.86141274044E-03 -3.88561281913E-03 -4.08710663434E-01 -1.48600974714E-01
4.36500000000E+09 -3.52623581536E-01 -1.46427031609E-02 +2.11557390838E-03 -3.79470810026E-03 +2.07407614196E-03 -3.93622281867E-03 -4.16212209204E-01 -1.23717722040E-01
4.37000000000E+09 -3.56741459397E-01 +9.14554864698E-03 +1.87282050523E-03 -4.34401944815E-03 +1.87137358718E-03 -4.49839599936E-03 -4.21897001717E-01 -9.89135399955E-02
4.37500000000E+09 -3.60667673502E-01 +3.15604260475E-02 +1.38325941975E-03 -5.24418996955E-03 +1.29663982196E-03 -5.38764011795E-03 -4.27662582358E-01 -7.28769876427E-02
4.38000000000E+09 -3.65734666627E-01 +5.15400201853E-02 +4.59930587096E-04 -5.18812600346E-03 +2.77560590747E-04 -5.31907606504E-03 -4.31319332628E-01 -4.65727924439E-02
4.38500000000E+09 -3.69773394194E-01 +6.99103149576E-02 -8.93207383829E-05 -5.14833860378E-03 -2.95138885174E-04 -5.26314197145E-03 -4.33712600444E-01 -2.14236107668E-02
4.39000000000E+09 -3.72772332833E-01 +8.55891865801E-02 -7.55476783605E-04 -5.22555953718E-03 -9.20708991047E-04 -5.24505594967E-03 -4.36339245087E-01 +4.11579519371E-03
4.39500000000E+09 -3.74070700518E-01 +1.00316089160E-01 -1.43155447076E-03 -4.81451165925E-03 -1.58906529952E-03 -4.78313123349E-03 -4.36394461445E-01 +2.83989239391E-02
4.40000000000E+09 -3.73111652369E-01 +1.15483460865E-01 -1.63237947445E-03 -4.79238000694E-03 -1.79077489092E-03 -4.75138160428E-03 -4.36244523800E-01 +5.31684692685E-02
4.40500000000E+09 -3.69608803763E-01 +1.31527936637E-01 -2.27921271783E-03 -4.62801422105E-03 -2.41412129354E-03 -4.54999568378E-03 -4.34815141436E-01 +7.78259120591E-02
4.41000000000E+09 -3.63720301510E-01 +1.48085082666E-01 -2.49129825926E-03 -4.35735348291E-03 -2.57344011678E-03 -4.22183111442E-03 -4.32584411582E-01 +1.02866429052E-01
4.41500000000E+09 -3.58684541970E-01 +1.65933247125E-01 -3.08596418498E-03 -4.36545501104E-03 -3.12835448545E-03 -4.25268677221E-03 -4.29299193982E-01 +1.27165180011E-01
4.42000000000E+09 -3.53707788590E-01 +1.86831658223E-01 -3.43934015774E-03 -4.05122298191E-03 -3.45862355996E-03 -3.95799052692E-03 -4.26207596748E-01 +1.51042427488E-01
4.42500000000E+09 -3.49062251699E-01 +2.08641544695E-01 -4.05846621128E-03 -4.28278810197E-03 -4.09368757647E-03 -4.15019533224E-03 -4.20637586514E-01 +1.75497308830E-01
4.43000000000E+09 -3.45127893784E-01 +2.30118832711E-01 -5.34920599501E-03 -3.82435639086E-03 -5.33887275465E-03 -3.63337091340E-03 -4.14676246584E-01 +1.97228641306E-01
4.43500000000E+09 -3.42701074250E-01 +2.50660115915E-01 -5.74427211880E-03 -2.25242725087E-03 -5.65308116726E-03 -2.14342937296E-03 -4.08210562436E-01 +2.19905937639E-01
4.44000000000E+09 -3.40361522462E-01 +2.69414963864E-01 -5.60959571232E-03 -1.69089247789E-03 -5.57942829388E-03 -1.64585761631E-03 -4.00839717670E-01 +2.41772821125E-01
4.44500000000E+09 -3.37980749891E-01 +2.84893242220E-01 -5.50007570154E-03 -7.64490527175E-04 -5.46965990611E-03 -7.38241297655E-04 -3.93576455025E-01 +2.62745639400E-01
4.45000000000E+09 -3.35587868444E-01 +2.98119810114E-01 -5.27193937292E-03 -5.98053929966E-04 -5.25150931577E-03 -5.71548563256E-04 -3.86219045080E-01 +2.83940349339E-01
4.45500000000E+09 -3.31735876290E-01 +3.10847300341E-01 -5.48709807508E-03 -5.08185358485E-04 -5.48231847514E-03 -4.72170581057E-04 -3.78394142028E-01 +3.04543940670E-01
4.46000000000E+09 -3.25500116046E-01 +3.22910679411E-01 -5.85672898369E-03 +2.71756867932E-04 -5.88351058722E-03 +3.35131998039E-04 -3.68455785807E-01 +3.24515278745E-01
4.46500000000E+09 -3.16435600846E-01 +3.35591957861E-01 -5.84329047050E-03 +9.59538217990E-04 -5.89204955278E-03 +1.07074656574E-03 -3.58255930905E-01 +3.43471712007E-01
4.47000000000E+09 -3.05956476682E-01 +3.48669371697E-01 -5.78710810280E-03 +1.72655363790E-03 -5.81748630163E-03 +1.81087278117E-03 -3.45590977925E-01 +3.62820304763E-01
4.47500000000E+09 -2.94223150174E-01 +3.64226093511E-01 -5.78517627688E-03 +2.40724143429E-03 -5.69889422483E-03 +2.57139419756E-03 -3.33619754329E-01 +3.80296307002E-01
4.48000000000E+09 -2.82182110260E-01 +3.79923554603E-01 -5.33937925113E-03 +3.30151341803E-03 -5.22318227152E-03 +3.45157213480E-03 -3.21547734089E-01 +3.98478031406E-01
4.48500000000E+09 -2.71937094543E-01 +3.97129521968E-01 -4.70435982478E-03 +3.81522105169E-03 -4.57895568399E-03 +3.88367556922E-03 -3.09630950256E-01 +4.14863855359E-01
4.49000000000E+09 -2.62102617850E-01 +4.14249891298E-01 -4.21162194997E-03 +4.39896247690E-03 -4.06675487443E-03 +4.42263722704E-03 -2.97821571422E-01 +4.30857709874E-01
4.49500000000E+09 -2.53923405390E-01 +4.29927524519E-01 -3.60701193098E-03 +4.63182951208E-03 -3.46648312102E-03 +4.58645912622E-03 -2.86100142296E-01 +4.45921041842E-01
4.50000000000E+09 -2.47439413554E-01 +4.43708919447E-01 -3.10225292720E-03 +4.96123284662E-03 -3.01336404834E-03 +4.92799500819E-03 -2.73125882848E-01 +4.60511202844E-01
4.50500000000E+09 -2.41673899028E-01 +4.55755536428E-01 -2.62883641019E-03 +4.90489884112E-03 -2.55919722442E-03 +4.95587265400E-03 -2.59343253772E-01 +4.75157466257E-01
4.51000000000E+09 -2.34810261461E-01 +4.65840915268E-01 -2.52000316791E-03 +5.53712628618E-03 -2.44346674049E-03 +5.54957248842E-03 -2.45246392761E-01 +4.88704396985E-01
4.51500000000E+09 -2.26436427397E-01 +4.73505862804E-01 -1.57946296819E-03 +6.06456228539E-03 -1.45791516406E-03 +5.99356293474E-03 -2.31925310643E-01 +5.02370528983E-01
4.52000000000E+09 -2.16612414654E-01 +4.80226673802E-01 -7.40918998222E-04 +6.00377659205E-03 -5.36140779863E-04 +5.93475231627E-03 -2.18332587481E-01 +5.14986633829E-01
4.52500000000E+09 -2.04517881184E-01 +4.87072291991E-01 -2.22772287566E-04 +6.13838766546E-03 -6.17911932374E-05 +6.06332575613E-03 -2.04787822954E-01 +5.26809586967E-01
4.53000000000E+09 -1.91203971751E-01 +4.94540435604E-01 +7.58847896981E-04 +6.13373214309E-03 +8.76476414206E-04 +6.05477181290E-03 -1.90743648720E-01 +5.37703287332E-01
4.53500000000E+09 -1.76002333453E-01 +5.04466896631E-01 +1.38105098046E-03 +5.58640737615E-03 +1.51013968301E-03 +5.45030020851E-03 -1.76180614787E-01 +5.47728748997E-01
4.54000000000E+09 -1.59589958461E-01 +5.14244865810E-01 +1.85989225684E-03 +5.53643783490E-03 +1.97089020196E-03 +5.34581037784E-03 -1.61942286303E-01 +5.58350443670E-01
4.54500000000E+09 -1.44863508245E-01 +5.24817394468E-01 +2.58371695032E-03 +5.07778527221E-03 +2.67398765168E-03 +4.86779560742E-03 -1.46927497613E-01 +5.69121608590E-01
4.55000000000E+09 -1.31187587405E-01 +5.35028028735E-01 +2.66998490677E-03 +4.74407458510E-03 +2.63217323118E-03 +4.57235141127E-03 -1.31936090973E-01 +5.79475285816E-01
4.55500000000E+09 -1.20778594874E-01 +5.44626882629E-01 +3.29718811514E-03 +4.61972325360E-03 +3.25114242865E-03 +4.42852312644E-03 -1.17202042727E-01 +5.88910415123E-01
4.56000000000E+09 -1.11686039585E-01 +5.54737872618E-01 +3.68785535955E-03 +4.21523524879E-03 +3.69733388225E-03 +4.05332597866E-03 -1.03109477138E-01 +5.97434873386E-01
4.56500000000E+09 -1.02674834524E-01 +5.62943455565E-01 +4.22117508086E-03 +3.70216332092E-03 +4.17825570201E-03 +3.51584321224E-03 -8.81918240234E-02 +6.06163262722E-01
4.57000000000E+09 -9.30144834545E-02 +5.69442775068E-01 +4.52388648849E-03 +3.36178799603E-03 +4.46077924395E-03 +3.17916571457E-03 -7.28413763044E-02 +6.13241073259E-01
