# Hz S RI R 50
! CMT, C1220, 16058040, 17.2.0/1
! Date: 15/08/2018 12:08:26
! Data: Format (Calibration Info)
! Freq                      S11: Re/Im (F2)                       S21: Re/Im (F2)                       S12: Re/Im (F2)                       S22: Re/Im (F2)            
4.00000000000E+09 +6.55297441428E-01 -3.54044517234E-01 -1.62760435043E-04 -8.87590263964E-04 -1.21977158699E-04 -9.18023123245E-04 +7.66639344097E-01 -3.22407313094E-01
4.00500000000E+09 +6.47251659971E-01 -3.60408484682E-01 -2.98398885915E-04 -6.12995936480E-04 -2.41716085117E-04 -6.51065286713E-04 +7.57268976890E-01 -3.33053655819E-01
4.01000000000E+09 +6.38364152921E-01 -3.66207108016E-01 -1.07702715239E-04 -6.02404160435E-04 -4.48335972904E-05 -6.69348441283E-04 +7.47781568000E-01 -3.43685308820E-01
4.01500000000E+09 +6.28740425667E-01 -3.73096917761E-01 -1.49086041988E-04 -7.88309174082E-04 -1.20632965149E-04 -8.18942849257E-04 +7.38002878653E-01 -3.53784961307E-01
4.02000000000E+09 +6.17935736814E-01 -3.81603545984E-01 -3.74042990113E-04 -8.28035527359E-04 -3.94135833724E-04 -9.04805749816E-04 +7.27910887795E-01 -3.63931916136E-01
4.02500000000E+09 +6.06281566187E-01 -3.90677678077E-01 -6.64902710874E-04 -8.15537764275E-04 -7.16131007673E-04 -8.78391600350E-04 +7.17198458591E-01 -3.73425848184E-01
4.03000000000E+09 +5.94848247962E-01 -4.00656924436E-01 -8.03079021815E-04 -5.33439627693E-04 -7.63749509908E-04 -6.21568059447E-04 +7.06477658661E-01 -3.82895089929E-01
4.03500000000E+09 +5.83875799456E-01 -4.11630713519E-01 -6.35983099455E-04 -3.94914660581E-04 -6.64866594264E-04 -4.54056690182E-04 +6.95109884522E-01 -3.92708791037E-01
4.04000000000E+09 +5.72930948672E-01 -4.22525290341E-01 -6.61416779174E-04 -3.00303032336E-04 -6.87269722984E-04 -3.85473018180E-04 +6.83734987007E-01 -4.02740812183E-01
4.04500000000E+09 +5.62367787973E-01 -4.32675979295E-01 -6.54215847731E-04 -3.12535883310E-04 -6.83346882914E-04 -3.08065168941E-04 +6.71347906663E-01 -4.12898127676E-01
4.05000000000E+09 +5.51594869208E-01 -4.41192525915E-01 -6.65965833298E-04 -3.82232438699E-04 -6.80022774560E-04 -4.16060853205E-04 +6.59016811680E-01 -4.21778122731E-01
4.05500000000E+09 +5.40363685645E-01 -4.47689196414E-01 -8.27482071713E-04 -3.26399192791E-04 -9.10925311762E-04 -4.35797495583E-04 +6.46615338805E-01 -4.30596806293E-01
4.06000000000E+09 +5.28995112294E-01 -4.52661864644E-01 -8.70876382949E-04 -2.23954041120E-04 -8.80028423757E-04 -2.66082111940E-04 +6.33905585368E-01 -4.38727160656E-01
4.06500000000E+09 +5.16491974053E-01 -4.56638495418E-01 -9.74134786970E-04 -9.87993517710E-05 -1.01386256052E-03 -1.51451011718E-04 +6.20562387398E-01 -4.46461168329E-01
4.07000000000E+09 +5.02902221318E-01 -4.60507859594E-01 -9.05839532583E-04 +1.56269571161E-04 -9.80041424977E-04 +1.58500059640E-04 +6.06650233427E-01 -4.54533908347E-01
4.07500000000E+09 +4.88028378986E-01 -4.65088108874E-01 -7.57974195644E-04 +1.19116639227E-04 -8.19129299903E-04 +1.54528831996E-04 +5.92553453024E-01 -4.62452140129E-01
4.08000000000E+09 +4.71578064850E-01 -4.70275678721E-01 -9.44026486066E-04 +1.22272563975E-04 -9.65551878031E-04 +1.55470782866E-04 +5.78554994146E-01 -4.69938647678E-01
4.08500000000E+09 +4.54567204700E-01 -4.75828344950E-01 -9.42779033718E-04 +3.83222782118E-04 -9.79477096185E-04 +3.83734154304E-04 +5.64285673046E-01 -4.77655577922E-01
4.09000000000E+09 +4.37723020192E-01 -4.82289310738E-01 -6.52103056286E-04 +3.27379888527E-04 -6.33738720041E-04 +3.42622067681E-04 +5.49799492948E-01 -4.84326173659E-01
4.09500000000E+09 +4.21295396064E-01 -4.89309165093E-01 -9.42204562437E-04 +3.04273469289E-04 -9.74035613412E-04 +3.15684183336E-04 +5.35628152007E-01 -4.90984965517E-01
4.10000000000E+09 +4.04113834744E-01 -4.96084815495E-01 -9.44516727793E-04 +5.13555998299E-04 -9.37409591783E-04 +5.26119727929E-04 +5.19591994745E-01 -4.97260477067E-01
4.10500000000E+09 +3.87309523433E-01 -5.00616104652E-01 -9.18732256215E-04 +8.02375619193E-04 -9.26766184818E-04 +7.75132084219E-04 +5.03741483885E-01 -5.02886755564E-01
4.11000000000E+09 +3.71105823507E-01 -5.03151795882E-01 -8.23829174318E-04 +1.00861913863E-03 -7.86136250354E-04 +1.01042220904E-03 +4.86933791649E-01 -5.08708074745E-01
4.11500000000E+09 +3.56031290326E-01 -5.04274775795E-01 -1.81598024352E-04 +1.20505006429E-03 -2.50616151265E-04 +1.17848956740E-03 +4.69742538304E-01 -5.13378803144E-01
4.12000000000E+09 +3.40275116415E-01 -5.04897440806E-01 -2.19489641664E-04 +6.72130610544E-04 -2.51233262434E-04 +7.02844139764E-04 +4.53413563130E-01 -5.18399066844E-01
4.12500000000E+09 +3.23687449834E-01 -5.05303789899E-01 -3.39932939710E-04 +7.47186818196E-04 -3.81138607675E-04 +7.09182459770E-04 +4.35940547584E-01 -5.22916179974E-01
4.13000000000E+09 +3.05649921532E-01 -5.06516860510E-01 -5.01502310156E-04 +8.33886320297E-04 -5.82729374332E-04 +8.91937251081E-04 +4.18907119183E-01 -5.26340912917E-01
4.13500000000E+09 +2.85182514833E-01 -5.08115290613E-01 -4.54908920436E-04 +1.11111483992E-03 -5.55601912532E-04 +1.16601213287E-03 +4.01449769762E-01 -5.29900936366E-01
4.14000000000E+09 +2.64477036610E-01 -5.09824711307E-01 -1.67114461724E-04 +1.48940588229E-03 -2.01757350297E-04 +1.50217919456E-03 +3.83051229373E-01 -5.32794243900E-01
4.14500000000E+09 +2.43892127955E-01 -5.12648937603E-01 +4.43594680999E-04 +1.26775497971E-03 +4.76615044387E-04 +1.33644752442E-03 +3.64910552103E-01 -5.35422218750E-01
4.15000000000E+09 +2.23507391513E-01 -5.16457429863E-01 +5.06393411910E-04 +7.67334400798E-04 +5.12685922134E-04 +8.06683596211E-04 +3.46421025467E-01 -5.37529959595E-01
4.15500000000E+09 +2.03440367563E-01 -5.20367621095E-01 +1.22315679225E-04 +7.90452272795E-04 +1.25404544007E-04 +8.18461306191E-04 +3.28185915730E-01 -5.38477351194E-01
4.16000000000E+09 +1.84266862139E-01 -5.22581826303E-01 +2.36062420703E-04 +9.67408119362E-04 +2.40235381191E-04 +9.99676078666E-04 +3.10270751833E-01 -5.38997824494E-01
4.16500000000E+09 +1.66740625277E-01 -5.22976900017E-01 +2.70062266333E-04 +9.86438424157E-04 +3.87552786195E-04 +1.01792277280E-03 +2.91877732071E-01 -5.38743884633E-01
4.17000000000E+09 +1.50372695323E-01 -5.21312153790E-01 +5.82811212105E-04 +1.23191840952E-03 +6.05152824255E-04 +1.21301613291E-03 +2.73060589195E-01 -5.38142127593E-01
4.17500000000E+09 +1.35019814830E-01 -5.18017400886E-01 +8.85473910628E-04 +7.61648744482E-04 +8.92949038233E-04 +7.76150825763E-04 +2.54110473529E-01 -5.36689403572E-01
4.18000000000E+09 +1.19361920421E-01 -5.13252457510E-01 +6.86898450347E-04 +6.29742218613E-04 +6.98659151074E-04 +6.40119901352E-04 +2.34888867827E-01 -5.35141449374E-01
4.18500000000E+09 +1.02951875359E-01 -5.07798759082E-01 +6.13364368457E-04 +7.29672177639E-04 +6.20983457627E-04 +7.62892703457E-04 +2.15778815749E-01 -5.32906076351E-01
4.19000000000E+09 +8.52257003436E-02 -5.02032727981E-01 +9.08228450530E-04 +7.77657984821E-04 +9.00167605344E-04 +7.99987371740E-04 +1.96877495834E-01 -5.30030341029E-01
4.19500000000E+09 +6.64119923559E-02 -4.96237253997E-01 +9.41510413245E-04 +6.44141557171E-04 +9.25836558828E-04 +6.49797668391E-04 +1.77937301874E-01 -5.26740188507E-01
4.20000000000E+09 +4.69184322807E-02 -4.90804964121E-01 +1.10579205921E-03 +6.62664699017E-04 +1.11425181169E-03 +6.67044458254E-04 +1.58285323580E-01 -5.22990856748E-01
4.20500000000E+09 +2.72770089214E-02 -4.85849380159E-01 +1.47116452249E-03 +3.06524617699E-04 +1.51677324508E-03 +3.45982395339E-04 +1.38387905062E-01 -5.17275880174E-01
4.21000000000E+09 +8.37867914291E-03 -4.80914197828E-01 +9.84455946112E-04 -1.07737190409E-04 +1.02947883201E-03 -6.00080558764E-05 +1.19034033947E-01 -5.11981830054E-01
4.21500000000E+09 -1.00636840277E-02 -4.75724666996E-01 +9.35498529273E-04 +2.98857510839E-04 +8.99453629877E-04 +2.86979378470E-04 +9.94603916837E-02 -5.05933288214E-01
4.22000000000E+09 -2.70592690032E-02 -4.68613410516E-01 +1.43369665492E-03 +2.47850378134E-04 +1.45724709951E-03 +2.89320269907E-04 +8.11321817105E-02 -4.98835232454E-01
4.22500000000E+09 -4.22292240524E-02 -4.60205395314E-01 +1.23287766699E-03 -2.72665275136E-04 +1.28641817302E-03 -2.42643324844E-04 +6.32501568556E-02 -4.92555998419E-01
4.23000000000E+09 -5.70301679097E-02 -4.50369946185E-01 +1.25519023109E-03 -2.84823185832E-04 +1.24206485728E-03 -2.51962008977E-04 +4.45138378683E-02 -4.84772345713E-01
4.23500000000E+09 -7.16799198224E-02 -4.38607134781E-01 +9.26408963151E-04 -3.63655128837E-04 +1.00538482621E-03 -3.01789909698E-04 +2.64867974399E-02 -4.75919985409E-01
4.24000000000E+09 -8.67292395260E-02 -4.25799498113E-01 +1.24169471643E-03 -2.47399932355E-04 +1.28565590472E-03 -2.10519690540E-04 +8.29162705163E-03 -4.66561628635E-01
4.24500000000E+09 -1.03675515247E-01 -4.13097232523E-01 +1.55663766155E-03 -4.45874979655E-04 +1.61983825948E-03 -4.66952450321E-04 -1.03351840299E-02 -4.56055845476E-01
4.25000000000E+09 -1.23114010109E-01 -3.99453449875E-01 +1.48038373789E-03 -1.03409151762E-03 +1.45524467449E-03 -1.04856083501E-03 -2.77940403536E-02 -4.44730553084E-01
4.25500000000E+09 -1.43009086730E-01 -3.85206442167E-01 +1.12669422320E-03 -1.22920134142E-03 +1.18155122814E-03 -1.22310252183E-03 -4.50325933474E-02 -4.33918513827E-01
4.26000000000E+09 -1.62597587640E-01 -3.72008759049E-01 +8.59510353147E-04 -1.32177797796E-03 +8.76187460767E-04 -1.33685186472E-03 -6.19420840637E-02 -4.21264971851E-01
4.26500000000E+09 -1.82148138987E-01 -3.59126500639E-01 +7.05705539516E-04 -1.32589579047E-03 +6.87241393994E-04 -1.34826393219E-03 -7.73405498530E-02 -4.08416578516E-01
4.27000000000E+09 -1.99461402108E-01 -3.46476961064E-01 +5.41514979664E-04 -1.33158711555E-03 +5.63094921563E-04 -1.41720743562E-03 -9.33474842437E-02 -3.95798551522E-01
4.27500000000E+09 -2.14618132673E-01 -3.34132076179E-01 +3.75575961733E-04 -1.22361986365E-03 +3.79608526332E-04 -1.26469781383E-03 -1.09604219007E-01 -3.81290198203E-01
4.28000000000E+09 -2.27697566430E-01 -3.21603841282E-01 +3.91990839551E-04 -1.43489400166E-03 +4.07989599376E-04 -1.44919116257E-03 -1.24950876089E-01 -3.66998714326E-01
4.28500000000E+09 -2.39783257210E-01 -3.07334160677E-01 +1.07618722617E-04 -1.31783565070E-03 +3.26387164239E-05 -1.37038580140E-03 -1.40889346938E-01 -3.52538435118E-01
4.29000000000E+09 -2.50235552989E-01 -2.90709568741E-01 +2.93712869067E-04 -1.41040335945E-03 +2.52674089709E-04 -1.40399698591E-03 -1.56532556699E-01 -3.37248004033E-01
4.29500000000E+09 -2.60047631445E-01 -2.72454240181E-01 -9.12568873566E-05 -1.77254330651E-03 -1.14815960051E-04 -1.80193589963E-03 -1.70601001780E-01 -3.20902690375E-01
4.30000000000E+09 -2.69994681914E-01 -2.52910572629E-01 -4.21057306765E-04 -1.56777250739E-03 -4.31779877827E-04 -1.66799466968E-03 -1.83229046209E-01 -3.04377097213E-01
4.30500000000E+09 -2.81017153186E-01 -2.32687074898E-01 -7.49414054986E-04 -1.62362010349E-03 -7.84026589388E-04 -1.63131533188E-03 -1.94842671899E-01 -2.87478866551E-01
4.31000000000E+09 -2.93613070331E-01 -2.12281607145E-01 -8.49087041955E-04 -1.43718869453E-03 -8.83742466351E-04 -1.43645840100E-03 -2.05724553265E-01 -2.70399884038E-01
4.31500000000E+09 -3.06492746312E-01 -1.92529159548E-01 -1.19278676516E-03 -1.28440060219E-03 -1.25449528424E-03 -1.29115445885E-03 -2.16885138153E-01 -2.53234674062E-01
4.32000000000E+09 -3.20084530259E-01 -1.73532161136E-01 -1.35030583105E-03 -7.96195072824E-04 -1.36332518782E-03 -7.53574239421E-04 -2.28230604509E-01 -2.34596357496E-01
4.32500000000E+09 -3.31520764817E-01 -1.55295423829E-01 -8.68358837934E-04 -4.95187802929E-04 -8.87009587173E-04 -4.84711061424E-04 -2.37813472271E-01 -2.15614232489E-01
4.33000000000E+09 -3.40606423006E-01 -1.39044301419E-01 -9.86896652796E-04 -8.60158322197E-04 -1.00192856751E-03 -8.80926894657E-04 -2.47340150804E-01 -1.96935780430E-01
4.33500000000E+09 -3.47667956064E-01 -1.23140335602E-01 -1.16481782785E-03 -6.26514178795E-04 -1.18074904184E-03 -6.13070179208E-04 -2.55972870286E-01 -1.77038587652E-01
4.34000000000E+09 -3.51883112615E-01 -1.07344556283E-01 -1.27909173394E-03 -6.85264799906E-04 -1.27359112698E-03 -6.76406196545E-04 -2.63104321188E-01 -1.57420524306E-01
4.34500000000E+09 -3.53958183528E-01 -9.07493514806E-02 -1.61625689074E-03 -4.24967446841E-04 -1.63465937075E-03 -3.80634046674E-04 -2.70596509563E-01 -1.37613535762E-01
4.35000000000E+09 -3.55129297360E-01 -7.27683871974E-02 -1.62928126137E-03 +1.65492071527E-04 -1.60736322158E-03 +1.69723721920E-04 -2.76987581811E-01 -1.17824444386E-01
4.35500000000E+09 -3.56614469847E-01 -5.23633638548E-02 -1.14638457941E-03 +3.53031218985E-04 -1.15551106288E-03 +3.88646890476E-04 -2.83122514789E-01 -9.77568780353E-02
4.36000000000E+09 -3.58178918505E-01 -2.96860528992E-02 -1.01545669568E-03 -1.59017515301E-04 -1.04011858276E-03 -1.59103456960E-04 -2.88515862862E-01 -7.79117764158E-02
4.36500000000E+09 -3.60110272022E-01 -5.95591851027E-03 -1.33397678703E-03 +2.81665457528E-04 -1.35890009305E-03 +3.15225099042E-04 -2.92690650238E-01 -5.75695528530E-02
4.37000000000E+09 -3.62979787852E-01 +1.74421489558E-02 -1.12520227229E-03 +2.22987951208E-04 -1.16921059002E-03 +2.68232410931E-04 -2.95583243604E-01 -3.82666675718E-02
4.37500000000E+09 -3.66814418470E-01 +3.88210253940E-02 -1.30280048441E-03 +5.55639588962E-04 -1.30027875594E-03 +6.50791154545E-04 -2.98856209161E-01 -1.82033121079E-02
4.38000000000E+09 -3.71787747667E-01 +5.82752851408E-02 -9.52961759411E-04 +6.96603644171E-04 -9.24041755925E-04 +7.61784597351E-04 -3.00665970654E-01 +2.59039016444E-03
4.38500000000E+09 -3.76291730095E-01 +7.59132465027E-02 -8.28439994571E-04 +7.22151329918E-04 -8.62817397426E-04 +6.56695766201E-04 -3.01723730094E-01 +2.29529255292E-02
4.39000000000E+09 -3.79971560468E-01 +9.17848785254E-02 -9.34743027571E-04 +5.30838219587E-04 -8.92968952868E-04 +5.99200378145E-04 -3.02157945295E-01 +4.39077835964E-02
4.39500000000E+09 -3.80204753414E-01 +1.06792603596E-01 -9.02344896569E-04 +9.03596524450E-04 -9.14150407244E-04 +8.94383067218E-04 -3.02393106775E-01 +6.34333612987E-02
4.40000000000E+09 -3.77669809423E-01 +1.20835535959E-01 -7.54675662357E-04 +8.83242654825E-04 -7.37416958570E-04 +8.19418729355E-04 -3.01781454760E-01 +8.40177538674E-02
4.40500000000E+09 -3.73541184621E-01 +1.34769753371E-01 -7.99406046450E-04 +9.51419350509E-04 -8.02210953006E-04 +1.00009420715E-03 -2.99931719193E-01 +1.03762097367E-01
4.41000000000E+09 -3.68420555121E-01 +1.51288680551E-01 -6.30419252428E-04 +1.32198250393E-03 -6.35776314545E-04 +1.27154611145E-03 -2.97463431919E-01 +1.23414016602E-01
4.41500000000E+09 -3.61630946854E-01 +1.70540270723E-01 -2.53249785442E-04 +1.05352930191E-03 -1.82963669223E-04 +1.05023410909E-03 -2.93703406114E-01 +1.42892512449E-01
4.42000000000E+09 -3.54409657168E-01 +1.91514618042E-01 -3.08307114409E-04 +1.17906520641E-03 -3.02145402436E-04 +1.15508046825E-03 -2.89467006403E-01 +1.62125844769E-01
4.42500000000E+09 -3.47265945231E-01 +2.12970144933E-01 +4.11453269246E-05 +1.02169268372E-03 +1.62764374164E-05 +9.35515908044E-04 -2.84713570491E-01 +1.80688105453E-01
4.43000000000E+09 -3.42286684926E-01 +2.33828283950E-01 -2.58732724624E-04 +9.69498909749E-04 -2.85579182431E-04 +9.91497226286E-04 -2.80122871190E-01 +1.98706186724E-01
4.43500000000E+09 -3.39011224290E-01 +2.53748181704E-01 -1.62694850598E-04 +1.19695572715E-03 -1.63115179312E-04 +1.18207075958E-03 -2.75826673152E-01 +2.17013034076E-01
4.44000000000E+09 -3.37071135703E-01 +2.72910999400E-01 +7.81768609903E-05 +1.33597550667E-03 +6.81723686670E-05 +1.26426103786E-03 -2.70350267235E-01 +2.36317322184E-01
4.44500000000E+09 -3.33627034447E-01 +2.89918261031E-01 +5.14986141552E-04 +1.45214050800E-03 +5.37099879021E-04 +1.40481725362E-03 -2.62784174147E-01 +2.53742066337E-01
4.45000000000E+09 -3.29404357032E-01 +3.03429853771E-01 +7.82943121927E-04 +8.71354501660E-04 +7.85455482501E-04 +8.87159244312E-04 -2.55651278416E-01 +2.70128189587E-01
4.45500000000E+09 -3.24133065424E-01 +3.15604743998E-01 +5.36140540518E-04 +7.66193231245E-04 +5.53230218088E-04 +7.79711823349E-04 -2.47509179657E-01 +2.86388713187E-01
4.46000000000E+09 -3.16387852580E-01 +3.26714084667E-01 +5.61419827144E-04 +6.39012899012E-04 +6.17472756070E-04 +6.24330801448E-04 -2.39584341881E-01 +3.01751823187E-01
4.46500000000E+09 -3.07470107695E-01 +3.38088535673E-01 +3.83191432319E-04 +7.97038702261E-04 +3.96826714246E-04 +7.73474211889E-04 -2.30917710967E-01 +3.17022736087E-01
4.47000000000E+09 -2.96985748939E-01 +3.51761158465E-01 +8.00271482804E-04 +6.05274449092E-04 +8.03147072792E-04 +6.15605432743E-04 -2.22080807696E-01 +3.32036857571E-01
4.47500000000E+09 -2.84477683073E-01 +3.67724545702E-01 +5.16747767866E-04 +6.58421923070E-04 +5.94495710730E-04 +6.27001753944E-04 -2.13068594992E-01 +3.46750688302E-01
4.48000000000E+09 -2.71279066319E-01 +3.84179242938E-01 +7.22070240067E-04 +5.46161459137E-04 +7.48607687896E-04 +5.62800895120E-04 -2.03932689140E-01 +3.61665813326E-01
4.48500000000E+09 -2.59428099239E-01 +4.00952952594E-01 +6.70641680535E-04 +6.75180617238E-04 +7.66744710937E-04 +6.32956173000E-04 -1.93846796464E-01 +3.76256538247E-01
4.49000000000E+09 -2.49381865567E-01 +4.17278548509E-01 +1.01651220016E-03 +6.05216518921E-04 +9.97982530339E-04 +5.59843229312E-04 -1.83262499595E-01 +3.89531568279E-01
4.49500000000E+09 -2.42120274429E-01 +4.32381702826E-01 +1.19393573247E-03 +1.29439984690E-04 +1.14827230995E-03 +1.22515777695E-04 -1.73205288499E-01 +4.02177821274E-01
4.50000000000E+09 -2.36660491548E-01 +4.46576285840E-01 +7.07466409585E-04 +5.72959715689E-05 +7.54262150879E-04 +8.87455178018E-05 -1.62560364099E-01 +4.14658820480E-01
4.50500000000E+09 -2.31114714291E-01 +4.58806200067E-01 +7.96323638036E-04 +1.83160446455E-05 +7.99021498278E-04 -6.12142297202E-05 -1.51787392759E-01 +4.26559259737E-01
4.51000000000E+09 -2.25240234246E-01 +4.68422094730E-01 +6.26459139007E-04 +1.67472121441E-04 +6.50824039890E-04 +9.25412714404E-05 -1.40555226050E-01 +4.38097721989E-01
4.51500000000E+09 -2.17849325098E-01 +4.76414651040E-01 +7.30986836647E-04 +2.07140653555E-04 +7.26821412156E-04 +1.38649270481E-04 -1.29734330135E-01 +4.49184796729E-01
4.52000000000E+09 -2.08460820019E-01 +4.83300156753E-01 +9.19548272836E-04 +1.34433635420E-04 +8.66932507165E-04 +1.26953998193E-04 -1.18577941945E-01 +4.59950328508E-01
4.52500000000E+09 -1.96512437955E-01 +4.90161181593E-01 +9.28979411430E-04 +7.94987785626E-05 +8.73680128294E-04 +2.64502456316E-05 -1.07110772041E-01 +4.70588568752E-01
4.53000000000E+09 -1.82778653098E-01 +4.97304688766E-01 +1.24759467486E-03 -3.86164872589E-04 +1.21697120441E-03 -3.73340307342E-04 -9.51180517205E-02 +4.79894265620E-01
4.53500000000E+09 -1.68162172879E-01 +5.05906849045E-01 +7.14274125027E-04 -4.06224984168E-04 +6.67706838453E-04 -4.10583146223E-04 -8.30759845584E-02 +4.89332419936E-01
4.54000000000E+09 -1.53161171338E-01 +5.15700859587E-01 +7.83693034900E-04 -3.57215478499E-04 +7.26098669307E-04 -3.46454140307E-04 -7.05080304395E-02 +4.98166620588E-01
4.54500000000E+09 -1.38763424880E-01 +5.26216413596E-01 +8.62577266143E-04 -3.62733024106E-04 +8.20714503174E-04 -3.49498361198E-04 -5.88814937354E-02 +5.06109364023E-01
4.55000000000E+09 -1.26229135736E-01 +5.36551255208E-01 +9.08282155416E-04 -7.19814035677E-04 +8.27852673372E-04 -6.76334236595E-04 -4.65044110156E-02 +5.14838916157E-01
4.55500000000E+09 -1.15738702760E-01 +5.46827480105E-01 +4.76979351852E-04 -7.31386804840E-04 +4.80448053887E-04 -6.38604381075E-04 -3.46301366762E-02 +5.23139090983E-01
4.56000000000E+09 -1.06131560380E-01 +5.55492640743E-01 +4.52738059392E-04 -4.46087377932E-04 +4.42075198473E-04 -4.76913636464E-04 -2.15109194654E-02 +5.30783214839E-01
4.56500000000E+09 -9.76773484615E-02 +5.61981233247E-01 +8.05445840467E-04 -5.68108788534E-04 +7.99679222456E-04 -5.62219290588E-04 -9.59436088404E-03 +5.37511507431E-01
4.57000000000E+09 -8.94915972063E-02 +5.66977421756E-01 +7.10047179882E-04 -9.99490104810E-04 +6.35244216525E-04 -9.74315134750E-04 +2.32815318338E-03 +5.44665088550E-01
