# Hz S RI R 50
! CMT, C1220, 16058040, 17.2.0/1
! Date: 15/08/2018 12:30:14
! Data: Format (Calibration Info)
! Freq                      S11: Re/Im (F2)                       S21: Re/Im (F2)                       S12: Re/Im (F2)                       S22: Re/Im (F2)            
4.00000000000E+09 +6.61483110767E-01 -3.62985146344E-01 -5.35989371123E-04 -7.71515605794E-04 -5.62048378756E-04 -7.81820475497E-04 +7.83093679154E-01 -3.17350129711E-01
4.00500000000E+09 +6.53422051424E-01 -3.69594549184E-01 -5.35528139894E-04 -6.40270524950E-04 -5.72525278076E-04 -6.88780740756E-04 +7.74765495727E-01 -3.29076084378E-01
4.01000000000E+09 +6.44424729864E-01 -3.75894171226E-01 -6.72046450781E-04 -6.65794196198E-04 -6.68185063324E-04 -6.82598860185E-04 +7.66030407126E-01 -3.40935873271E-01
4.01500000000E+09 +6.34958791538E-01 -3.82504413641E-01 -7.54876007502E-04 -4.63092952346E-04 -7.18482980220E-04 -4.76042329301E-04 +7.57367035710E-01 -3.51949434693E-01
4.02000000000E+09 +6.24702574211E-01 -3.90766101851E-01 -6.36627907888E-04 -4.61176139081E-04 -6.46058068357E-04 -4.67820057925E-04 +7.48494194022E-01 -3.62687534646E-01
4.02500000000E+09 +6.13689846470E-01 -4.00422086764E-01 -6.16735446264E-04 -4.61517002086E-04 -6.41119082389E-04 -4.49889743542E-04 +7.38783812860E-01 -3.72769178289E-01
4.03000000000E+09 +6.01687909881E-01 -4.10701601664E-01 -8.61712579526E-04 -5.82629624868E-04 -8.39755349710E-04 -6.54670365239E-04 +7.29006272661E-01 -3.83128802976E-01
4.03500000000E+09 +5.90100953660E-01 -4.21025689622E-01 -9.61817623870E-04 -3.37893149266E-04 -9.97695572099E-04 -3.62697967176E-04 +7.18067249138E-01 -3.94159478506E-01
4.04000000000E+09 +5.78820440408E-01 -4.31540382860E-01 -1.05800942871E-03 -1.67095825776E-04 -1.12937351988E-03 -1.88316498818E-04 +7.07321391175E-01 -4.05426016035E-01
4.04500000000E+09 +5.66889974434E-01 -4.41644754269E-01 -1.02727807991E-03 +1.01970151737E-04 -1.05854883757E-03 +7.81738894818E-05 +6.96638816265E-01 -4.16596897959E-01
4.05000000000E+09 +5.55285606451E-01 -4.49252384686E-01 -8.05802064349E-04 +1.77360951541E-04 -8.64275793053E-04 +1.04431026916E-04 +6.85663416046E-01 -4.27441821838E-01
4.05500000000E+09 +5.43776498856E-01 -4.56167093848E-01 -7.45024959373E-04 +1.20476902868E-04 -8.02527267610E-04 +1.66389413333E-04 +6.74425935590E-01 -4.36870397506E-01
4.06000000000E+09 +5.31001941521E-01 -4.61548251631E-01 -7.64900655931E-04 +3.52524493227E-05 -7.75797557414E-04 +7.61169220363E-06 +6.63249196747E-01 -4.46153175133E-01
4.06500000000E+09 +5.17981180740E-01 -4.65575999829E-01 -9.12139206242E-04 -2.39331431336E-05 -9.59988581881E-04 +9.20506681476E-06 +6.50639778857E-01 -4.55586111084E-01
4.07000000000E+09 +5.04022183437E-01 -4.70396345878E-01 -1.07771235127E-03 +2.17274688756E-04 -1.12526649809E-03 +2.17852121614E-04 +6.37617736502E-01 -4.65558142014E-01
4.07500000000E+09 +4.88812534683E-01 -4.75428767729E-01 -9.63042400524E-04 +4.09808609850E-04 -9.11077295341E-04 +3.97297776309E-04 +6.23878911019E-01 -4.75854871945E-01
4.08000000000E+09 +4.72268302317E-01 -4.81517303902E-01 -9.95997800631E-04 +5.27649796870E-04 -9.96415963952E-04 +4.99842209062E-04 +6.10341212473E-01 -4.85538884467E-01
4.08500000000E+09 +4.54838332177E-01 -4.87390269963E-01 -9.62470358034E-04 +8.46071944626E-04 -1.07087416915E-03 +7.59099595995E-04 +5.97200763159E-01 -4.95253892477E-01
4.09000000000E+09 +4.37796546905E-01 -4.93834470519E-01 -6.75004329683E-04 +8.71639701418E-04 -6.98949871299E-04 +8.68409525120E-04 +5.83416354928E-01 -5.03981047921E-01
4.09500000000E+09 +4.21124619430E-01 -5.00697370076E-01 -5.76570665779E-04 +7.57656350876E-04 -6.16949272832E-04 +7.27946732439E-04 +5.69285511862E-01 -5.11773748262E-01
4.10000000000E+09 +4.03649926485E-01 -5.06802723979E-01 -5.81898565948E-04 +9.29291411379E-04 -6.72949281854E-04 +9.55813971838E-04 +5.54378044918E-01 -5.20076529226E-01
4.10500000000E+09 +3.87211759856E-01 -5.10925194754E-01 -5.99993486257E-04 +9.56297437438E-04 -6.46413192312E-04 +9.43131632576E-04 +5.38371097479E-01 -5.28268957857E-01
4.11000000000E+09 +3.71380488046E-01 -5.14260404108E-01 -4.53599009226E-04 +1.15652500852E-03 -4.81419831008E-04 +1.14972869994E-03 +5.21889735553E-01 -5.36242868670E-01
4.11500000000E+09 +3.54688050322E-01 -5.16321806951E-01 -2.11868713056E-04 +1.29126800080E-03 -2.83281815409E-04 +1.29225998446E-03 +5.05481410459E-01 -5.43920974041E-01
4.12000000000E+09 +3.37434195021E-01 -5.16603787020E-01 -1.22318424910E-05 +1.22898905841E-03 -6.89426651401E-05 +1.28579240995E-03 +4.89302313186E-01 -5.51399344803E-01
4.12500000000E+09 +3.20345743256E-01 -5.16331049875E-01 +1.30364308136E-04 +1.18478503596E-03 +7.23414102068E-05 +1.23877264608E-03 +4.72753679673E-01 -5.57989788151E-01
4.13000000000E+09 +3.02238512744E-01 -5.17613655054E-01 +4.44593309304E-04 +9.19132169134E-04 +4.03723013852E-04 +9.64030498001E-04 +4.55613601865E-01 -5.64454730833E-01
4.13500000000E+09 +2.82252103007E-01 -5.18742335270E-01 +1.86801696158E-04 +8.42016225527E-04 +1.56812434631E-04 +8.85508651226E-04 +4.37194878383E-01 -5.70273891127E-01
4.14000000000E+09 +2.62911867277E-01 -5.20668548270E-01 +1.93137687234E-04 +9.11210505331E-04 +1.85048579737E-04 +9.54638466260E-04 +4.18255642471E-01 -5.76068780092E-01
4.14500000000E+09 +2.42534315227E-01 -5.24705789172E-01 +1.79240092863E-04 +1.01187208790E-03 +1.52608700134E-04 +1.06288016141E-03 +3.99102823206E-01 -5.81392198425E-01
4.15000000000E+09 +2.21375756828E-01 -5.27408146198E-01 +3.45188346721E-04 +1.35807567315E-03 +3.22353131744E-04 +1.34835070639E-03 +3.80921382519E-01 -5.86615422442E-01
4.15500000000E+09 +2.02474232656E-01 -5.29604160575E-01 +7.82075656929E-04 +1.31040701177E-03 +7.67208591563E-04 +1.34342548286E-03 +3.62120129967E-01 -5.91249224529E-01
4.16000000000E+09 +1.84505012868E-01 -5.31469457817E-01 +1.11288628837E-03 +9.91042867140E-04 +1.19750365741E-03 +1.05074770248E-03 +3.43712010400E-01 -5.93670674719E-01
4.16500000000E+09 +1.66571361315E-01 -5.31281483456E-01 +1.11066361654E-03 +6.69978847366E-04 +1.14376946001E-03 +6.69620459759E-04 +3.24741105203E-01 -5.96486672707E-01
4.17000000000E+09 +1.49792170523E-01 -5.28547686757E-01 +8.63081218870E-04 +6.25762480144E-04 +8.58524022314E-04 +6.54976109586E-04 +3.04746590950E-01 -5.98721435193E-01
4.17500000000E+09 +1.34332180434E-01 -5.23632460916E-01 +1.22622119757E-03 +6.63510889004E-04 +1.25164826797E-03 +7.18824341285E-04 +2.83552678817E-01 -6.00528958376E-01
4.18000000000E+09 +1.18630532525E-01 -5.18977963160E-01 +1.25584117413E-03 +8.20046621226E-05 +1.32345526611E-03 +1.84734797189E-05 +2.62897389593E-01 -6.02186396759E-01
4.18500000000E+09 +1.00801119339E-01 -5.13244401302E-01 +6.67833588333E-04 +3.78735464043E-04 +6.57143511218E-04 +4.11229146579E-04 +2.41923975587E-01 -6.03342529331E-01
4.19000000000E+09 +8.24884678240E-02 -5.07067415373E-01 +1.19366279710E-03 +6.95559462649E-04 +1.23059060865E-03 +6.77962856917E-04 +2.21434784405E-01 -6.03231073091E-01
4.19500000000E+09 +6.26553453264E-02 -5.01597244642E-01 +1.45451301410E-03 +1.54353041157E-04 +1.47339966181E-03 +1.98065865180E-04 +2.00526407115E-01 -6.02051866069E-01
4.20000000000E+09 +4.20128610915E-02 -4.95187516479E-01 +1.32431091019E-03 +1.39441532258E-04 +1.35689714788E-03 +1.64478199841E-04 +1.79816229255E-01 -6.00216417653E-01
4.20500000000E+09 +2.25118681384E-02 -4.89275015567E-01 +1.79211451259E-03 -1.81393439786E-04 +1.88767286109E-03 -2.23505682709E-04 +1.57409707374E-01 -5.98112997921E-01
4.21000000000E+09 +4.15951701863E-03 -4.83504978615E-01 +1.44814759397E-03 -8.49887175761E-04 +1.53116471622E-03 -8.67624651453E-04 +1.34935130377E-01 -5.95497919104E-01
4.21500000000E+09 -1.26810925198E-02 -4.78121033158E-01 +1.00285392082E-03 -7.34558582121E-04 +1.03657400143E-03 -7.69054049049E-04 +1.12758422580E-01 -5.92849648749E-01
4.22000000000E+09 -2.94865765172E-02 -4.71656241474E-01 +9.04218230292E-04 -6.70289264645E-04 +9.31243285306E-04 -7.13416512007E-04 +9.08270071226E-02 -5.89787532829E-01
4.22500000000E+09 -4.47464181556E-02 -4.62411033004E-01 +1.20159809038E-03 -6.03902983538E-04 +1.25490182397E-03 -6.10655615706E-04 +6.89854836938E-02 -5.84945119867E-01
4.23000000000E+09 -5.88053466155E-02 -4.52519732298E-01 +1.15123555830E-03 -1.31861175709E-03 +1.16268493751E-03 -1.29900064769E-03 +4.78589048297E-02 -5.79132260383E-01
4.23500000000E+09 -7.42671829330E-02 -4.40050856004E-01 +4.45843426781E-04 -1.25631724075E-03 +5.09490591420E-04 -1.18058559314E-03 +2.57493765610E-02 -5.72041753347E-01
4.24000000000E+09 -8.95387123861E-02 -4.25607469996E-01 +5.39515195379E-04 -7.38489886402E-04 +5.87767539747E-04 -6.85659970273E-04 +3.77650298210E-03 -5.63544079874E-01
4.24500000000E+09 -1.05215414620E-01 -4.11979315782E-01 +9.12846077157E-04 -1.09595864234E-03 +9.78130517407E-04 -1.11096275973E-03 -1.86273256012E-02 -5.55246751115E-01
4.25000000000E+09 -1.23904175542E-01 -3.98133767851E-01 +4.50725309005E-04 -1.79146838709E-03 +4.40005816702E-04 -1.76657234959E-03 -4.08746450030E-02 -5.45790011479E-01
4.25500000000E+09 -1.43068557621E-01 -3.84637695422E-01 -1.31157984632E-04 -1.14884895265E-03 -6.75562658029E-05 -1.20027471431E-03 -6.13896704204E-02 -5.35761925425E-01
4.26000000000E+09 -1.62699000374E-01 -3.71685697734E-01 +2.82447096523E-04 -1.18740816200E-03 +3.50423938865E-04 -1.23530978178E-03 -8.17786227312E-02 -5.24866968303E-01
4.26500000000E+09 -1.82438150466E-01 -3.59567883802E-01 +8.64532381941E-05 -1.78381279775E-03 +9.51163013038E-05 -1.82258649084E-03 -1.00994206516E-01 -5.13202343743E-01
4.27000000000E+09 -1.99563321005E-01 -3.46967328729E-01 -8.09600318161E-04 -1.52687229064E-03 -8.21466905895E-04 -1.54378300349E-03 -1.21877939919E-01 -5.01167002618E-01
4.27500000000E+09 -2.14534957180E-01 -3.35014078574E-01 -5.38594803835E-04 -1.23999363593E-03 -5.92062528751E-04 -1.24069662047E-03 -1.42991962045E-01 -4.86520302863E-01
4.28000000000E+09 -2.27029099473E-01 -3.22052032164E-01 -1.12826121925E-03 -1.13358411185E-03 -1.09759757982E-03 -1.16619990903E-03 -1.62812137828E-01 -4.71990856688E-01
4.28500000000E+09 -2.37797440050E-01 -3.08140592731E-01 -9.47070977088E-04 -6.35903214275E-04 -9.85591878621E-04 -6.03430310607E-04 -1.82730549617E-01 -4.58230602738E-01
4.29000000000E+09 -2.47403840915E-01 -2.91872362816E-01 -9.54683316157E-04 -4.44222417127E-04 -1.01702281967E-03 -5.21661862936E-04 -2.01923351993E-01 -4.43261505580E-01
4.29500000000E+09 -2.55741748105E-01 -2.74832654571E-01 -6.26055092831E-04 -2.78860200448E-04 -6.16018167390E-04 -3.36160823340E-04 -2.19738229279E-01 -4.27820107399E-01
4.30000000000E+09 -2.66053937866E-01 -2.56350877665E-01 -6.58979565132E-04 -6.24790968046E-04 -7.36996080104E-04 -5.97812872918E-04 -2.37288815949E-01 -4.11278908672E-01
4.30500000000E+09 -2.77667442014E-01 -2.35972129436E-01 -1.08137082767E-03 -5.73645019457E-04 -1.10852144644E-03 -6.34688005650E-04 -2.54322054294E-01 -3.92925417276E-01
4.31000000000E+09 -2.89482103822E-01 -2.14781540206E-01 -1.14592342801E-03 +9.72816133043E-05 -1.18440744821E-03 +4.78337143053E-05 -2.70608238245E-01 -3.74386990474E-01
4.31500000000E+09 -3.01998501298E-01 -1.94699151240E-01 -9.75034291793E-04 +1.81051357979E-05 -1.07243690412E-03 -3.07091314448E-05 -2.86715538744E-01 -3.54956620098E-01
4.32000000000E+09 -3.13959771105E-01 -1.75962989256E-01 -8.22272605824E-04 +5.63984364870E-04 -8.77395477007E-04 +5.85835335665E-04 -3.01605370361E-01 -3.35302041046E-01
4.32500000000E+09 -3.25325178926E-01 -1.58608246932E-01 +3.52352392112E-05 +2.18531981073E-04 +4.48301365577E-06 +2.54281615683E-04 -3.16744466036E-01 -3.15302769691E-01
4.33000000000E+09 -3.34339249974E-01 -1.42583670458E-01 -6.49753410240E-04 -9.82569054588E-05 -7.17671277457E-04 -8.02582872904E-05 -3.29496543589E-01 -2.93349087418E-01
4.33500000000E+09 -3.42071294656E-01 -1.28675989679E-01 -3.68381290324E-04 +3.19626484965E-04 -4.25445160059E-04 +3.44504335081E-04 -3.42034334279E-01 -2.72007698839E-01
4.34000000000E+09 -3.48532519133E-01 -1.12398559993E-01 -2.07141066708E-04 +1.86022095459E-04 -2.02701832524E-04 +2.16293541342E-04 -3.54146199168E-01 -2.48111349107E-01
4.34500000000E+09 -3.50415587501E-01 -9.48105639750E-02 -3.57498948889E-04 -1.69297833508E-04 -3.58597176152E-04 -1.57133295124E-04 -3.64320813115E-01 -2.24931737623E-01
4.35000000000E+09 -3.52066626383E-01 -7.68939377047E-02 -4.20932255323E-04 +2.72245261282E-04 -4.00442583343E-04 +2.89976853056E-04 -3.75141629598E-01 -2.02349688570E-01
4.35500000000E+09 -3.52595778435E-01 -5.63951715901E-02 -1.63551354894E-04 +1.02453568404E-04 -1.46425602514E-04 +9.77170608277E-05 -3.84557304054E-01 -1.79346032761E-01
4.36000000000E+09 -3.53481084839E-01 -3.46405098144E-02 -3.82325498552E-04 +9.82834089009E-05 -3.64895187316E-04 +6.82205498451E-05 -3.92264377357E-01 -1.57147495203E-01
4.36500000000E+09 -3.56169760697E-01 -1.23752759694E-02 -1.95386968499E-04 +3.37226758751E-04 -1.76174975201E-04 +3.69380197156E-04 -4.00279905188E-01 -1.34701798091E-01
4.37000000000E+09 -3.59703245422E-01 +1.07034958207E-02 +5.90723562967E-05 +2.49544637670E-04 +1.05662065232E-04 +2.51025647984E-04 -4.06371935703E-01 -1.10622960396E-01
4.37500000000E+09 -3.64671527040E-01 +3.28588931907E-02 +4.10798303709E-04 -3.43559783885E-04 +4.22340297697E-04 -3.65206699472E-04 -4.11726777135E-01 -8.61727676495E-02
4.38000000000E+09 -3.69299377079E-01 +5.37503193722E-02 -4.34604329070E-04 -7.91487841080E-04 -3.97933520748E-04 -8.27349742234E-04 -4.16201921121E-01 -6.22937838764E-02
4.38500000000E+09 -3.72804744315E-01 +7.14819919472E-02 -9.70886207949E-04 -1.68446085926E-04 -9.82384488299E-04 -1.92346801905E-04 -4.20348762501E-01 -3.77091416416E-02
4.39000000000E+09 -3.76238138415E-01 +8.78822915257E-02 -5.07094032039E-04 +2.55920450380E-04 -5.16245751880E-04 +2.41450290404E-04 -4.23244894747E-01 -1.36313856970E-02
4.39500000000E+09 -3.76124764436E-01 +1.03200728888E-01 -4.16679479913E-04 -1.61651788723E-05 -4.80013746054E-04 -4.14047782244E-05 -4.25455552987E-01 +1.06794635159E-02
4.40000000000E+09 -3.73701233245E-01 +1.17288284388E-01 -3.05049215371E-04 +2.79884994289E-04 -2.90209106775E-04 +2.31380758958E-04 -4.25480372700E-01 +3.46943355936E-02
4.40500000000E+09 -3.69613557774E-01 +1.31441395110E-01 -2.33447173354E-04 -1.81867983298E-04 -2.48571334420E-04 -2.35748179720E-04 -4.25648787582E-01 +5.85438040095E-02
4.41000000000E+09 -3.64601970773E-01 +1.47060102456E-01 -4.08215960041E-04 -1.68881420413E-04 -4.21525646175E-04 -2.07412076865E-04 -4.24360464020E-01 +8.36743966540E-02
4.41500000000E+09 -3.58976999350E-01 +1.66054322788E-01 -6.20943656762E-04 -3.45644557610E-04 -6.80064070074E-04 -3.43086299675E-04 -4.22122287438E-01 +1.07575115355E-01
4.42000000000E+09 -3.53026022306E-01 +1.86956064737E-01 -9.54014359250E-04 -2.60137136769E-04 -9.66401638208E-04 -1.90663573692E-04 -4.19442011926E-01 +1.32375088476E-01
4.42500000000E+09 -3.47849233236E-01 +2.08971300660E-01 -1.16421547417E-03 +1.78352859342E-04 -1.15183907146E-03 +1.93421347288E-04 -4.13747892963E-01 +1.55099544534E-01
4.43000000000E+09 -3.42901546041E-01 +2.31519185919E-01 -1.22166027996E-03 +5.86847056009E-04 -1.26007450133E-03 +6.02375430243E-04 -4.10042220781E-01 +1.76747474915E-01
4.43500000000E+09 -3.38713074026E-01 +2.51893384549E-01 -9.63173921873E-04 +8.76764975438E-04 -9.86686684060E-04 +9.22386500115E-04 -4.03995831726E-01 +2.00131986752E-01
4.44000000000E+09 -3.36234875468E-01 +2.69427358235E-01 -5.77987257595E-04 +9.51249692767E-04 -5.60539455084E-04 +1.08277889307E-03 -3.97658296850E-01 +2.21433722570E-01
4.44500000000E+09 -3.34975195118E-01 +2.85581431541E-01 -4.74229883657E-04 +5.79678022527E-04 -4.63674624663E-04 +7.06187806803E-04 -3.91098214114E-01 +2.43267929032E-01
4.45000000000E+09 -3.32833393078E-01 +3.00005337494E-01 -5.94913499839E-04 +5.89112336702E-04 -5.49201511512E-04 +6.92173463979E-04 -3.84201984581E-01 +2.63911235324E-01
4.45500000000E+09 -3.28672464869E-01 +3.13218391061E-01 -9.43210184417E-04 +8.94038100067E-04 -8.96935224329E-04 +9.33384684138E-04 -3.76227740933E-01 +2.84146214721E-01
4.46000000000E+09 -3.21574601030E-01 +3.25613759997E-01 -5.91354070215E-04 +1.16565362292E-03 -5.18360618067E-04 +1.16530933422E-03 -3.68153903203E-01 +3.03294520597E-01
4.46500000000E+09 -3.12708484030E-01 +3.37692119055E-01 -4.77173875431E-04 +1.27614173730E-03 -4.11779293868E-04 +1.28591419415E-03 -3.58542263134E-01 +3.23038993363E-01
4.47000000000E+09 -3.01899424786E-01 +3.51459078676E-01 -1.87768773565E-04 +1.52678553614E-03 -1.33366200161E-04 +1.52164865167E-03 -3.47836560597E-01 +3.41832304470E-01
4.47500000000E+09 -2.89750586731E-01 +3.66051888974E-01 -1.15803107480E-04 +1.47708792046E-03 +1.19415832303E-05 +1.45021728285E-03 -3.37472355022E-01 +3.61009175736E-01
4.48000000000E+09 -2.78376255118E-01 +3.83028460099E-01 +4.68617186271E-04 +1.68287162382E-03 +4.95038633356E-04 +1.68116692793E-03 -3.25653056252E-01 +3.79820506356E-01
4.48500000000E+09 -2.66111797416E-01 +4.00439711453E-01 +4.81555111444E-04 +1.10511034690E-03 +4.94976792745E-04 +1.03317763094E-03 -3.14184103205E-01 +3.97118878297E-01
4.49000000000E+09 -2.56565079688E-01 +4.16581720614E-01 +3.96567185452E-04 +1.43176381767E-03 +4.08991419602E-04 +1.38627129973E-03 -3.02723442537E-01 +4.13684919294E-01
4.49500000000E+09 -2.48644996830E-01 +4.33150801674E-01 +6.90498253059E-04 +1.33236419582E-03 +7.10564952843E-04 +1.26496664633E-03 -2.91330933760E-01 +4.29257687813E-01
4.50000000000E+09 -2.42525746629E-01 +4.46516204905E-01 +6.62459135237E-04 +1.44784969369E-03 +6.53756176317E-04 +1.40753566563E-03 -2.78917639394E-01 +4.45298648924E-01
4.50500000000E+09 -2.37725104429E-01 +4.59509464488E-01 +1.40123508763E-03 +1.48658787051E-03 +1.32573903709E-03 +1.44340225698E-03 -2.65331518058E-01 +4.60129369894E-01
4.51000000000E+09 -2.31155842701E-01 +4.69430196237E-01 +1.51526368657E-03 +8.33749670024E-04 +1.42754580652E-03 +8.15998430539E-04 -2.51815518206E-01 +4.74818742159E-01
4.51500000000E+09 -2.24778351773E-01 +4.77293006011E-01 +1.38881366516E-03 +8.39466791797E-04 +1.36939954473E-03 +8.29010789732E-04 -2.37956106017E-01 +4.89039119469E-01
4.52000000000E+09 -2.15527584006E-01 +4.85186502518E-01 +1.76039666809E-03 +6.08448440027E-04 +1.71715313090E-03 +5.27696506448E-04 -2.24532600969E-01 +5.02128957425E-01
4.52500000000E+09 -2.04246493909E-01 +4.91771408281E-01 +1.50062902244E-03 +2.00628194187E-04 +1.51247363016E-03 +2.20176268494E-04 -2.10916347761E-01 +5.14527146232E-01
4.53000000000E+09 -1.91199975087E-01 +5.00040704416E-01 +1.58701488365E-03 +3.29024297184E-04 +1.51655129919E-03 +2.61334594021E-04 -1.96919370127E-01 +5.25793098479E-01
4.53500000000E+09 -1.75776980990E-01 +5.08970305509E-01 +1.38506858645E-03 -2.47546903516E-05 +1.37399585674E-03 -5.70652518304E-05 -1.82576576358E-01 +5.37534604960E-01
4.54000000000E+09 -1.60490190037E-01 +5.18828272418E-01 +1.66674585355E-03 +2.28604279147E-04 +1.62759414105E-03 +2.27870864919E-04 -1.66578707715E-01 +5.48374191906E-01
4.54500000000E+09 -1.45368517189E-01 +5.29845962890E-01 +1.93185946155E-03 -3.12517309526E-04 +1.85371505387E-03 -3.10087172697E-04 -1.51723590910E-01 +5.58062506359E-01
4.55000000000E+09 -1.32134300996E-01 +5.40489629230E-01 +1.82261182142E-03 -5.04980169382E-04 +1.73867335529E-03 -5.45359109864E-04 -1.36934608722E-01 +5.68670696406E-01
4.55500000000E+09 -1.20729603364E-01 +5.51390051374E-01 +1.75757393237E-03 -9.23542585531E-04 +1.72413886266E-03 -9.13534808463E-04 -1.22403591877E-01 +5.78291905468E-01
4.56000000000E+09 -1.10480337703E-01 +5.60939741039E-01 +1.42510208108E-03 -1.07328977810E-03 +1.35578351376E-03 -1.09083012990E-03 -1.07748590951E-01 +5.86965318960E-01
4.56500000000E+09 -1.01770722141E-01 +5.69000282530E-01 +1.12070265556E-03 -1.26296585316E-03 +1.14499824743E-03 -1.25992315446E-03 -9.36839758324E-02 +5.95619705134E-01
4.57000000000E+09 -9.26583799616E-02 +5.75739571235E-01 +1.06026192087E-03 -1.25250529297E-03 +1.00771173109E-03 -1.21249503352E-03 -7.78505365254E-02 +6.04112726820E-01
