# Hz S RI R 50
! CMT, C1220, 16058040, 17.2.0/1
! Date: 15/08/2018 12:30:37
! Data: Format (Calibration Info)
! Freq                      S11: Re/Im (F2)                       S21: Re/Im (F2)                       S12: Re/Im (F2)                       S22: Re/Im (F2)            
4.00000000000E+09 +6.58858076169E-01 -3.60599849775E-01 -5.04674386456E-04 -3.70058403183E-04 -5.10833821366E-04 -3.99139250139E-04 +7.83221195511E-01 -3.17560873032E-01
4.00500000000E+09 +6.51081147682E-01 -3.66979014246E-01 -3.65532727310E-04 -2.19193040050E-04 -3.63734783190E-04 -2.30218621378E-04 +7.74777132468E-01 -3.29389523544E-01
4.01000000000E+09 +6.42202461959E-01 -3.73279592859E-01 -4.36834477586E-04 -3.55666575387E-04 -4.29673918839E-04 -3.31745258519E-04 +7.66081546645E-01 -3.41285224843E-01
4.01500000000E+09 +6.32886014456E-01 -3.79694222050E-01 -3.79809274353E-04 -1.26595825879E-04 -3.56179331276E-04 -1.36844220485E-04 +7.57361441280E-01 -3.52168051806E-01
4.02000000000E+09 +6.22789195279E-01 -3.87905635081E-01 -2.71546055682E-04 -3.91193839342E-04 -2.49232414986E-04 -3.75786729641E-04 +7.48220672196E-01 -3.62846105793E-01
4.02500000000E+09 +6.11633876587E-01 -3.97477307199E-01 -4.38836646766E-04 -4.73770709237E-04 -3.80253711116E-04 -4.30107505903E-04 +7.38733501615E-01 -3.72917087158E-01
4.03000000000E+09 +5.99577188013E-01 -4.07369445181E-01 -5.71411798711E-04 -4.80732847194E-04 -5.71952567395E-04 -4.74266867814E-04 +7.28827801835E-01 -3.83249846990E-01
4.03500000000E+09 +5.88222846287E-01 -4.17444601107E-01 -7.42023690378E-04 -3.25338842952E-04 -7.30675921371E-04 -3.41080495978E-04 +7.17989943273E-01 -3.94114010773E-01
4.04000000000E+09 +5.77254434508E-01 -4.27778221636E-01 -8.41328515304E-04 -7.88892229899E-05 -8.29175365947E-04 -1.23922405399E-04 +7.07283989062E-01 -4.05332825333E-01
4.04500000000E+09 +5.65639987685E-01 -4.37626517862E-01 -7.05219455460E-04 +1.49193094868E-04 -7.45985504274E-04 +1.33280162849E-04 +6.96561513344E-01 -4.16639673192E-01
4.05000000000E+09 +5.54468228497E-01 -4.45189710579E-01 -5.13237842170E-04 +1.50791816347E-04 -4.81410334570E-04 +1.24868219014E-04 +6.85615728655E-01 -4.27488282959E-01
4.05500000000E+09 +5.43192168531E-01 -4.52328724843E-01 -4.43128361099E-04 +6.62609531648E-05 -4.71853686328E-04 +7.64154609535E-05 +6.74247268154E-01 -4.36933615314E-01
4.06000000000E+09 +5.30484600546E-01 -4.57715192634E-01 -5.10580976032E-04 -1.03463420312E-04 -5.55319760377E-04 -1.27473848028E-04 +6.63187319474E-01 -4.46162130133E-01
4.06500000000E+09 +5.17568579782E-01 -4.61455810186E-01 -7.78213533674E-04 -4.46761061323E-05 -8.23537205841E-04 -1.43451981482E-04 +6.50708154990E-01 -4.55752994936E-01
4.07000000000E+09 +5.03953819626E-01 -4.66270164141E-01 -8.99491609656E-04 +2.51571322530E-04 -9.63462730928E-04 +1.82954114438E-04 +6.37566401526E-01 -4.65640923014E-01
4.07500000000E+09 +4.89002735270E-01 -4.71317685782E-01 -7.91835697405E-04 +3.77180872716E-04 -8.57880483998E-04 +3.13966719033E-04 +6.23775438329E-01 -4.75979949209E-01
4.08000000000E+09 +4.72515512375E-01 -4.77035756227E-01 -7.83866832097E-04 +5.76037501388E-04 -8.83639471095E-04 +5.46118664770E-04 +6.10125284873E-01 -4.85748036002E-01
4.08500000000E+09 +4.55677015518E-01 -4.82762231652E-01 -6.07927520573E-04 +8.72049881146E-04 -6.98018880793E-04 +8.64011165942E-04 +5.97021756020E-01 -4.95391071036E-01
4.09000000000E+09 +4.39253911143E-01 -4.89328697430E-01 -2.32626227062E-04 +6.24776171968E-04 -2.93999732882E-04 +6.93644147936E-04 +5.83070608117E-01 -5.04271684615E-01
4.09500000000E+09 +4.22797335011E-01 -4.96529988990E-01 -2.40964045138E-04 +5.28601204237E-04 -3.28173101705E-04 +5.56310465437E-04 +5.68767628854E-01 -5.11934127003E-01
4.10000000000E+09 +4.05420853365E-01 -5.02436919569E-01 -3.28708988900E-04 +5.34987975264E-04 -3.63527811596E-04 +5.41960165876E-04 +5.54034469817E-01 -5.19906299875E-01
4.10500000000E+09 +3.89340716557E-01 -5.06894634843E-01 -5.14893097190E-04 +5.18244157782E-04 -5.43254413484E-04 +5.66973621267E-04 +5.37913176108E-01 -5.27987750641E-01
4.11000000000E+09 +3.73421337651E-01 -5.10241266496E-01 -4.16808984164E-04 +8.87558164149E-04 -4.41786437462E-04 +8.78714819199E-04 +5.21300941287E-01 -5.36034166289E-01
4.11500000000E+09 +3.57264696300E-01 -5.11868841923E-01 -1.68763097341E-04 +9.32424383500E-04 -2.36688619739E-04 +1.06954422783E-03 +5.05090389571E-01 -5.43655877753E-01
4.12000000000E+09 +3.40655480639E-01 -5.12382820005E-01 -2.36968164222E-06 +9.73539420986E-04 -5.40866907045E-06 +1.03140154342E-03 +4.88868402193E-01 -5.51056188619E-01
4.12500000000E+09 +3.24097108500E-01 -5.12347998004E-01 +2.30021281644E-04 +8.94031562959E-04 +2.64447626418E-04 +9.08306438556E-04 +4.72294478415E-01 -5.57379690901E-01
4.13000000000E+09 +3.06154319355E-01 -5.14157003898E-01 +4.18396465783E-04 +4.26793956641E-04 +4.14689495873E-04 +4.48448437531E-04 +4.55285412875E-01 -5.63821907799E-01
4.13500000000E+09 +2.86469718333E-01 -5.15372303831E-01 -1.80156925015E-05 +4.54108593712E-04 -4.01285246646E-05 +4.04256737323E-04 +4.36985893639E-01 -5.69501750666E-01
4.14000000000E+09 +2.67150008630E-01 -5.17858940131E-01 -8.31511233960E-05 +5.96694579604E-04 -7.87318988101E-06 +6.00083932523E-04 +4.18214929974E-01 -5.75279912998E-01
4.14500000000E+09 +2.46808713779E-01 -5.22002542318E-01 -1.53764566156E-04 +7.79795034585E-04 -1.53026334353E-04 +7.91775786378E-04 +3.99243546883E-01 -5.80780880034E-01
4.15000000000E+09 +2.26253508851E-01 -5.24516136157E-01 +3.08168454202E-05 +1.11966214834E-03 +3.90972712052E-05 +1.18763075903E-03 +3.81071740379E-01 -5.86006124789E-01
4.15500000000E+09 +2.07714332913E-01 -5.27202076342E-01 +4.59556053034E-04 +1.15718099808E-03 +4.26681015464E-04 +1.22083686634E-03 +3.62393818080E-01 -5.90527923114E-01
4.16000000000E+09 +1.89981210257E-01 -5.29444994346E-01 +7.36484184391E-04 +1.06027578921E-03 +7.53991158459E-04 +1.06752749908E-03 +3.44048796995E-01 -5.93252292782E-01
4.16500000000E+09 +1.72542769343E-01 -5.29420199448E-01 +9.51155101620E-04 +7.05393251253E-04 +1.00908859917E-03 +6.60994342947E-04 +3.25007057843E-01 -5.96065986024E-01
4.17000000000E+09 +1.56108727247E-01 -5.27308945873E-01 +6.21285981941E-04 +6.33327682781E-04 +6.50077614114E-04 +6.17496639521E-04 +3.05133771875E-01 -5.98326139597E-01
4.17500000000E+09 +1.40676265522E-01 -5.23119581952E-01 +9.76526170151E-04 +7.00021185711E-04 +8.92140235300E-04 +7.25910358286E-04 +2.83871524189E-01 -6.00306188117E-01
4.18000000000E+09 +1.24891106218E-01 -5.18987237331E-01 +9.68698924815E-04 +2.39063686818E-04 +9.34160876183E-04 +2.79653403227E-04 +2.63137692019E-01 -6.01981630813E-01
4.18500000000E+09 +1.07103075459E-01 -5.13426453874E-01 +5.06658387412E-04 +5.94343863094E-04 +4.22150760986E-04 +6.26174300270E-04 +2.42121820973E-01 -6.03192017567E-01
4.19000000000E+09 +8.89022829036E-02 -5.07650940458E-01 +1.23629843093E-03 +9.30514161587E-04 +1.18366412305E-03 +1.02482285428E-03 +2.21456940210E-01 -6.03120617299E-01
4.19500000000E+09 +6.91778778154E-02 -5.02395128664E-01 +1.57684657555E-03 +2.61089296932E-04 +1.51740499208E-03 +3.19777179443E-04 +2.00434039452E-01 -6.01739049326E-01
4.20000000000E+09 +4.91264347368E-02 -4.96501842140E-01 +1.46346397016E-03 +1.84901639527E-04 +1.40691431086E-03 +2.60520990134E-04 +1.79681466059E-01 -5.99771161338E-01
4.20500000000E+09 +2.98492787869E-02 -4.91466717812E-01 +1.94318474401E-03 -2.22927598188E-04 +1.94151453422E-03 -1.61795982404E-04 +1.57421177541E-01 -5.97451282858E-01
4.21000000000E+09 +1.13332644814E-02 -4.87103290611E-01 +1.48410272020E-03 -1.01492913559E-03 +1.55986303498E-03 -9.71212819063E-04 +1.35146591457E-01 -5.94925915445E-01
4.21500000000E+09 -6.55178488694E-03 -4.82184457670E-01 +9.58272506159E-04 -7.59807593739E-04 +1.09925070993E-03 -7.15342560287E-04 +1.13108217980E-01 -5.92175623320E-01
4.22000000000E+09 -2.36129998978E-02 -4.75429216019E-01 +9.92763861063E-04 -9.26586141203E-04 +1.08412615736E-03 -8.53820523423E-04 +9.13883458263E-02 -5.89229742598E-01
4.22500000000E+09 -3.86560133211E-02 -4.66790885249E-01 +1.03166100049E-03 -9.01317275821E-04 +1.15850951802E-03 -8.94087876086E-04 +6.95183176083E-02 -5.84410543148E-01
4.23000000000E+09 -5.29802273474E-02 -4.57329627695E-01 +8.37083582627E-04 -1.36507967216E-03 +9.07669620880E-04 -1.37880920540E-03 +4.87537422151E-02 -5.78571920313E-01
4.23500000000E+09 -6.83504849183E-02 -4.45489293975E-01 +2.27370054145E-04 -1.31531108866E-03 +3.29833720021E-04 -1.31988050803E-03 +2.67867537909E-02 -5.71661750256E-01
4.24000000000E+09 -8.39560066210E-02 -4.31847435586E-01 +2.44633228323E-04 -8.31861607712E-04 +3.07337025495E-04 -8.38940020037E-04 +4.95651416852E-03 -5.63406736653E-01
4.24500000000E+09 -1.00423013905E-01 -4.18775654343E-01 +6.19827107901E-04 -1.17052224002E-03 +7.00936061262E-04 -1.22014520824E-03 -1.73565046760E-02 -5.55322568288E-01
4.25000000000E+09 -1.19649395964E-01 -4.05123595404E-01 +5.79609857764E-05 -1.68473041869E-03 +8.42852795839E-05 -1.74329595303E-03 -3.96122747360E-02 -5.46239594289E-01
4.25500000000E+09 -1.39495218330E-01 -3.91431690621E-01 -4.40869944157E-04 -1.05067849675E-03 -4.02776724649E-04 -1.10987319802E-03 -6.03460099974E-02 -5.36478957340E-01
4.26000000000E+09 -1.59044934311E-01 -3.78795245659E-01 -1.38865063450E-04 -9.59975511349E-04 -1.45181312670E-04 -1.06707264974E-03 -8.08727422674E-02 -5.25827989449E-01
4.26500000000E+09 -1.79025697922E-01 -3.66589403335E-01 -3.68110177233E-04 -1.30222835628E-03 -4.07883102595E-04 -1.37979225164E-03 -1.00646755542E-01 -5.14320735945E-01
4.27000000000E+09 -1.96204966105E-01 -3.54588996340E-01 -8.08863800036E-04 -8.28215990116E-04 -9.33549561536E-04 -8.97466573533E-04 -1.21804416363E-01 -5.02122196121E-01
4.27500000000E+09 -2.11566018616E-01 -3.42975401314E-01 -5.13124087549E-04 -7.08618831668E-04 -5.90966621234E-04 -7.67323788246E-04 -1.43206108734E-01 -4.87395053439E-01
4.28000000000E+09 -2.24379458948E-01 -3.30646264887E-01 -9.50789599610E-04 -6.92958564173E-04 -1.04977591323E-03 -7.12010170511E-04 -1.63167567397E-01 -4.72675619716E-01
4.28500000000E+09 -2.35855332246E-01 -3.17308123188E-01 -6.68657551392E-04 -1.98890830758E-04 -7.22336698244E-04 -1.70032110885E-04 -1.83080987107E-01 -4.58560254638E-01
4.29000000000E+09 -2.46278635153E-01 -3.01276161894E-01 -6.89437042715E-04 -3.00000913906E-04 -7.35382322174E-04 -2.53524890774E-04 -2.02240556444E-01 -4.43435019799E-01
4.29500000000E+09 -2.55625692290E-01 -2.83998948290E-01 -4.16962684726E-04 -3.30516348670E-05 -4.63500734143E-04 -4.33495298614E-05 -2.20037729948E-01 -4.27862087001E-01
4.30000000000E+09 -2.66289368226E-01 -2.65010929697E-01 -3.45456711466E-04 -3.53715747902E-04 -3.55254285714E-04 -3.00386530589E-04 -2.37451475361E-01 -4.11143534335E-01
4.30500000000E+09 -2.77799268714E-01 -2.44800171608E-01 -6.73226988763E-04 -4.48895632953E-04 -6.46882362059E-04 -3.75443605700E-04 -2.54375970746E-01 -3.92592219674E-01
4.31000000000E+09 -2.90177970117E-01 -2.24176271009E-01 -7.79853676018E-04 +8.18671046311E-05 -7.56892270822E-04 +1.40044741850E-04 -2.70268366286E-01 -3.74124050696E-01
4.31500000000E+09 -3.03411873032E-01 -2.04316670909E-01 -6.21612531462E-04 -4.57109360662E-05 -5.15726408851E-04 +8.84964048820E-06 -2.86207440299E-01 -3.54846001157E-01
4.32000000000E+09 -3.16208231102E-01 -1.85901757266E-01 -4.60776878177E-04 +4.01970784839E-04 -3.64786314821E-04 +5.21647558045E-04 -3.00859187754E-01 -3.35486225663E-01
4.32500000000E+09 -3.28887955231E-01 -1.68353851624E-01 +1.83323748375E-04 -9.06644740490E-05 +2.73151870225E-04 -6.00043949682E-05 -3.15919047420E-01 -3.15840321406E-01
4.33000000000E+09 -3.38690416353E-01 -1.51725903840E-01 -5.63260863845E-04 -4.37251570891E-04 -5.61861801426E-04 -4.38606246895E-04 -3.28903233406E-01 -2.94031848844E-01
4.33500000000E+09 -3.46901263658E-01 -1.36796965470E-01 -4.43733537853E-04 +1.51173263499E-04 -3.88324170088E-04 +1.87789897881E-04 -3.41348172124E-01 -2.72953798623E-01
4.34000000000E+09 -3.53006467533E-01 -1.20381203227E-01 -3.03747867718E-04 -6.61829849305E-05 -2.47290054535E-04 -1.26821744013E-04 -3.53969088043E-01 -2.49442727026E-01
4.34500000000E+09 -3.55501409076E-01 -1.02981989371E-01 -6.54113460992E-04 -1.37248202739E-04 -6.10432787124E-04 -1.58281238195E-04 -3.64544470603E-01 -2.26383508295E-01
4.35000000000E+09 -3.57994513333E-01 -8.47225939882E-02 -5.23184054102E-04 +5.12999029551E-04 -4.57650080487E-04 +4.99992826936E-04 -3.75918510792E-01 -2.03881612215E-01
4.35500000000E+09 -3.58966470306E-01 -6.37443034888E-02 -2.61485912619E-05 +1.88742888729E-04 -6.01862121323E-05 +1.35533468703E-04 -3.85845726357E-01 -1.80422305873E-01
4.36000000000E+09 -3.60493699835E-01 -4.18032898459E-02 -2.84120526529E-04 +2.72848512775E-05 -3.56434019984E-04 -1.43676112214E-05 -3.93830705970E-01 -1.57730109192E-01
4.36500000000E+09 -3.63938315725E-01 -1.86723226302E-02 -2.17931267547E-04 +3.72120701255E-04 -2.25089553733E-04 +3.13450574762E-04 -4.01681159896E-01 -1.34636129554E-01
4.37000000000E+09 -3.67555220467E-01 +5.21375430167E-03 +4.01703827311E-05 +2.87583672213E-04 +1.24245217790E-05 +2.53554461906E-04 -4.07617184045E-01 -1.10382466514E-01
4.37500000000E+09 -3.72384020594E-01 +2.76492675688E-02 +4.32314331964E-04 -2.55673381582E-04 +4.06639557163E-04 -2.79357061161E-04 -4.12866564744E-01 -8.56274176937E-02
4.38000000000E+09 -3.77391121065E-01 +4.89755289410E-02 -3.03086622897E-04 -5.60483852066E-04 -3.10590532594E-04 -5.76967709138E-04 -4.17158389232E-01 -6.13643919167E-02
4.38500000000E+09 -3.81133699600E-01 +6.70306692136E-02 -4.90452671365E-04 +3.92844793519E-05 -5.45401602009E-04 +2.33319659094E-05 -4.21014303871E-01 -3.65272835681E-02
4.39000000000E+09 -3.84745192176E-01 +8.38921142578E-02 -1.14447877340E-04 +1.00424354813E-04 -1.32119893408E-04 +1.52678080946E-04 -4.23203950103E-01 -1.23008314614E-02
4.39500000000E+09 -3.84988812100E-01 +9.97249193410E-02 -6.79701079551E-05 -1.78342100462E-04 -1.15022281929E-04 -1.27716855227E-04 -4.25137127077E-01 +1.15062396370E-02
4.40000000000E+09 -3.82986576789E-01 +1.14292888556E-01 +1.30696451395E-04 -9.42874539732E-05 +1.29714860726E-04 -2.30109490847E-05 -4.24943521304E-01 +3.54358836592E-02
4.40500000000E+09 -3.79192213268E-01 +1.29649172824E-01 -7.59518186450E-05 -6.86173368884E-04 -8.62266815658E-05 -6.11601408924E-04 -4.24911518605E-01 +5.88220091320E-02
4.41000000000E+09 -3.73755113735E-01 +1.46013770666E-01 -3.52165537125E-04 -6.08017998227E-04 -3.51401751531E-04 -5.14609661583E-04 -4.23597624917E-01 +8.34061937996E-02
4.41500000000E+09 -3.67977092895E-01 +1.65384803449E-01 -5.34153000679E-04 -7.27348879709E-04 -5.00956195468E-04 -7.04412624727E-04 -4.21873016215E-01 +1.06967428158E-01
4.42000000000E+09 -3.61692775332E-01 +1.86850936070E-01 -1.05049290023E-03 -6.63877896261E-04 -1.00071612848E-03 -6.62314172022E-04 -4.19616530927E-01 +1.31877781874E-01
4.42500000000E+09 -3.56198006615E-01 +2.09118771559E-01 -1.37563124894E-03 -2.66633130538E-04 -1.34582804274E-03 -2.10954532608E-04 -4.14123806834E-01 +1.54583814578E-01
4.43000000000E+09 -3.51643774407E-01 +2.31681170190E-01 -1.39939021111E-03 +2.28768561763E-04 -1.32944356923E-03 +2.75368623010E-04 -4.10689350151E-01 +1.76455994141E-01
4.43500000000E+09 -3.47793130103E-01 +2.52937723088E-01 -1.22072669027E-03 +4.23875015461E-04 -1.17315379040E-03 +3.87125289168E-04 -4.04710840158E-01 +1.99907987681E-01
4.44000000000E+09 -3.44975584572E-01 +2.71384951993E-01 -1.06454977351E-03 +6.40609675620E-04 -1.03232276503E-03 +6.50412471377E-04 -3.98581339001E-01 +2.21379484839E-01
4.44500000000E+09 -3.43234890786E-01 +2.88240041208E-01 -1.11094735129E-03 +5.31124159842E-04 -1.10436167560E-03 +5.32192672562E-04 -3.92191475495E-01 +2.43560921723E-01
4.45000000000E+09 -3.40748495105E-01 +3.02941774787E-01 -1.21669698849E-03 +8.15994344316E-04 -1.25489314403E-03 +7.79725280119E-04 -3.85439785966E-01 +2.64744436167E-01
4.45500000000E+09 -3.35967557316E-01 +3.16622436930E-01 -1.30147371321E-03 +1.26974051256E-03 -1.27629296722E-03 +1.23992589848E-03 -3.77040470915E-01 +2.85461714264E-01
4.46000000000E+09 -3.28702650289E-01 +3.28869821211E-01 -8.63124186885E-04 +1.42732463068E-03 -8.94378040425E-04 +1.39594142781E-03 -3.68446359335E-01 +3.04908589699E-01
4.46500000000E+09 -3.19813155221E-01 +3.41368266475E-01 -6.53804210668E-04 +1.58673570600E-03 -6.35846261542E-04 +1.58049264697E-03 -3.58362217421E-01 +3.24467047405E-01
4.47000000000E+09 -3.08796337275E-01 +3.55546395671E-01 -3.44723771993E-04 +1.81004256831E-03 -3.82758400524E-04 +1.78570525226E-03 -3.47318772435E-01 +3.43136440609E-01
4.47500000000E+09 -2.96420195790E-01 +3.70591539031E-01 -1.53264886351E-04 +1.81705463717E-03 -1.44867613516E-04 +1.83298305691E-03 -3.36660943345E-01 +3.62038346178E-01
4.48000000000E+09 -2.84433958797E-01 +3.88040957232E-01 +3.71184431026E-04 +1.96912695603E-03 +3.93016640630E-04 +1.93712739174E-03 -3.24652305004E-01 +3.80716347934E-01
4.48500000000E+09 -2.71871987667E-01 +4.05403522300E-01 +4.72264618328E-04 +1.49243505263E-03 +4.70034060767E-04 +1.52397128740E-03 -3.13086643129E-01 +3.97672016084E-01
4.49000000000E+09 -2.61870932728E-01 +4.22354602504E-01 +5.86271377443E-04 +1.66576676914E-03 +6.09492146368E-04 +1.73219720733E-03 -3.01526923417E-01 +4.14057062943E-01
4.49500000000E+09 -2.53274089584E-01 +4.38727592615E-01 +9.17574504461E-04 +1.45401564140E-03 +9.64414618337E-04 +1.52378662380E-03 -2.90200018639E-01 +4.29157264157E-01
4.50000000000E+09 -2.46711868823E-01 +4.52506787461E-01 +9.06454746241E-04 +1.56574913983E-03 +9.80754404142E-04 +1.54244724562E-03 -2.77874841866E-01 +4.45060125449E-01
4.50500000000E+09 -2.41454451292E-01 +4.65203080622E-01 +1.52021492940E-03 +1.51292754489E-03 +1.55441585186E-03 +1.50641296471E-03 -2.64515086209E-01 +4.59711236787E-01
4.51000000000E+09 -2.34776765627E-01 +4.75362566057E-01 +1.68757258025E-03 +8.60923952002E-04 +1.73495732204E-03 +8.28717521762E-04 -2.51199113763E-01 +4.74149622398E-01
4.51500000000E+09 -2.27924950666E-01 +4.83410656528E-01 +1.48106283412E-03 +7.76008223351E-04 +1.56153477026E-03 +7.40264049249E-04 -2.37663905470E-01 +4.88445234388E-01
4.52000000000E+09 -2.18339171260E-01 +4.91428742350E-01 +1.72283809918E-03 +4.94243435217E-04 +1.72211697848E-03 +4.71699662586E-04 -2.24594979131E-01 +5.01400214371E-01
4.52500000000E+09 -2.06517631322E-01 +4.98097401766E-01 +1.47095333441E-03 +2.73136317453E-04 +1.46028416524E-03 +2.15312448486E-04 -2.11163146600E-01 +5.14207400291E-01
4.53000000000E+09 -1.93030193253E-01 +5.06378119457E-01 +1.50080541861E-03 +3.70212378807E-04 +1.52403369601E-03 +2.96721081245E-04 -1.97189695756E-01 +5.25835854856E-01
4.53500000000E+09 -1.77165946438E-01 +5.15188573248E-01 +1.46382985212E-03 +1.49611243856E-04 +1.46373102253E-03 +9.66800973516E-05 -1.82588015081E-01 +5.37828750867E-01
4.54000000000E+09 -1.61573381712E-01 +5.24890836235E-01 +1.78674049592E-03 +3.67112820370E-04 +1.74834692459E-03 +2.81670847593E-04 -1.66416715138E-01 +5.48588995702E-01
4.54500000000E+09 -1.46378014633E-01 +5.35792121076E-01 +2.06468655269E-03 -1.39755068480E-04 +2.02734003115E-03 -2.74522707856E-04 -1.51496166951E-01 +5.58369906860E-01
4.55000000000E+09 -1.32897625618E-01 +5.46441241395E-01 +2.04176190311E-03 -4.12443821442E-04 +1.99581577424E-03 -4.53730286544E-04 -1.36372818380E-01 +5.69019532599E-01
4.55500000000E+09 -1.21214934617E-01 +5.57524911082E-01 +1.91562430380E-03 -9.67922125823E-04 +1.85726988045E-03 -9.83527469443E-04 -1.21822999739E-01 +5.78307154932E-01
4.56000000000E+09 -1.10392573473E-01 +5.66912679294E-01 +1.53628169704E-03 -1.09155313564E-03 +1.49474481627E-03 -1.10779576654E-03 -1.06992387811E-01 +5.86993572963E-01
4.56500000000E+09 -1.01421979524E-01 +5.74674358564E-01 +1.31300992082E-03 -1.20657763129E-03 +1.24748100741E-03 -1.23431748487E-03 -9.30081179889E-02 +5.95533959957E-01
4.57000000000E+09 -9.23101062058E-02 +5.81308523958E-01 +1.32476319951E-03 -1.19562405036E-03 +1.23753222635E-03 -1.19467080019E-03 -7.69068022515E-02 +6.03799866727E-01
