# Hz S RI R 50
! CMT, C1220, 16058040, 17.2.0/1
! Date: 15/08/2018 12:27:47
! Data: Format (Calibration Info)
! Freq                      S11: Re/Im (F2)                       S21: Re/Im (F2)                       S12: Re/Im (F2)                       S22: Re/Im (F2)            
4.00000000000E+09 +6.63012456431E-01 -3.58292963838E-01 -1.57956128210E-04 -5.71502246669E-04 -1.46304376958E-04 -5.44274095150E-04 +7.82213141577E-01 -3.17144516276E-01
4.00500000000E+09 +6.55218343231E-01 -3.65172889187E-01 -2.52042086206E-05 -5.30157076374E-04 -1.98315668217E-05 -5.14985763761E-04 +7.73747604322E-01 -3.28711509029E-01
4.01000000000E+09 +6.46370157450E-01 -3.71532173307E-01 -2.70380456511E-04 -6.86022118208E-04 -2.45321840281E-04 -6.53428926952E-04 +7.64921576244E-01 -3.40463724856E-01
4.01500000000E+09 +6.37060973268E-01 -3.78291804210E-01 -2.37403519509E-04 -5.47427391463E-04 -2.47500277590E-04 -5.63263278742E-04 +7.56206907554E-01 -3.51200800820E-01
4.02000000000E+09 +6.26853625206E-01 -3.86466021025E-01 -2.67609670422E-04 -7.03906361221E-04 -2.06429362611E-04 -6.77038481719E-04 +7.47291472798E-01 -3.61763291601E-01
4.02500000000E+09 +6.16023058310E-01 -3.95523488281E-01 -4.40478129919E-04 -6.78262185514E-04 -4.74534277221E-04 -6.64751305420E-04 +7.37813504864E-01 -3.71729646079E-01
4.03000000000E+09 +6.04706937461E-01 -4.05451972847E-01 -6.03665454431E-04 -5.89179516143E-04 -5.82165347191E-04 -6.26429159140E-04 +7.28043523994E-01 -3.82222812751E-01
4.03500000000E+09 +5.93709069944E-01 -4.15722547625E-01 -6.60147667483E-04 -5.20737615211E-04 -6.41786993941E-04 -5.18623671434E-04 +7.17150049591E-01 -3.93048134875E-01
4.04000000000E+09 +5.82924813621E-01 -4.26479750562E-01 -7.36174865938E-04 -4.33046442334E-04 -7.90623811763E-04 -4.65560743596E-04 +7.06292586676E-01 -4.04145068565E-01
4.04500000000E+09 +5.70901869849E-01 -4.36299346925E-01 -7.11767261516E-04 -1.37394914533E-04 -6.51464210282E-04 -1.61835794336E-04 +6.95551516579E-01 -4.15223369906E-01
4.05000000000E+09 +5.59744473751E-01 -4.43753310749E-01 -5.65984833502E-04 -2.99210790415E-04 -5.22349427796E-04 -3.33462497655E-04 +6.84544191937E-01 -4.25854957533E-01
4.05500000000E+09 +5.48237949836E-01 -4.50709808009E-01 -7.61493726997E-04 -3.07753194906E-04 -7.61420867082E-04 -3.62289397786E-04 +6.73181349973E-01 -4.35109633209E-01
4.06000000000E+09 +5.35542376411E-01 -4.55779847604E-01 -8.77351909448E-04 -2.37894339025E-04 -9.85004429028E-04 -3.10994686214E-04 +6.62321311444E-01 -4.44108239425E-01
4.06500000000E+09 +5.22944749286E-01 -4.59766289799E-01 -1.02248210481E-03 -5.15580970832E-05 -1.04760730719E-03 -1.02723274358E-04 +6.50012670873E-01 -4.53271485070E-01
4.07000000000E+09 +5.09246972882E-01 -4.64872205906E-01 -9.75526186287E-04 +1.22404338592E-04 -1.00764320782E-03 +9.99856410791E-05 +6.37079247508E-01 -4.63136912078E-01
4.07500000000E+09 +4.94082610519E-01 -4.69820180892E-01 -9.77624801230E-04 +2.45836860815E-04 -1.01299303147E-03 +2.47053515286E-04 +6.23549118565E-01 -4.73208201682E-01
4.08000000000E+09 +4.78262745557E-01 -4.75316135839E-01 -9.47182268756E-04 +4.07034952512E-04 -1.03963238118E-03 +3.56720980608E-04 +6.10156330171E-01 -4.82875409931E-01
4.08500000000E+09 +4.61722743499E-01 -4.81690934600E-01 -8.04562159242E-04 +6.62060591129E-04 -8.57031657553E-04 +6.63958568118E-04 +5.97301011152E-01 -4.92445854028E-01
4.09000000000E+09 +4.45092789819E-01 -4.88874740562E-01 -7.21793897917E-04 +5.14447736240E-04 -7.71853314139E-04 +5.07661661458E-04 +5.83738329807E-01 -5.01154518246E-01
4.09500000000E+09 +4.28117410479E-01 -4.95982170156E-01 -5.80213280869E-04 +5.16873736689E-04 -6.60780900141E-04 +5.31253145530E-04 +5.69869378850E-01 -5.08965816653E-01
4.10000000000E+09 +4.10940884552E-01 -5.01824461563E-01 -7.87000316997E-04 +5.44434210803E-04 -8.31816039705E-04 +5.97717955717E-04 +5.55222139188E-01 -5.17051403996E-01
4.10500000000E+09 +3.94888498011E-01 -5.06149636016E-01 -8.89253683551E-04 +8.97110923384E-04 -9.34479955533E-04 +9.33092040865E-04 +5.39553904774E-01 -5.25117727488E-01
4.11000000000E+09 +3.79206084110E-01 -5.09614224026E-01 -5.03914947959E-04 +1.19192447131E-03 -5.14946924249E-04 +1.23186507471E-03 +5.23400414736E-01 -5.33297019138E-01
4.11500000000E+09 +3.63145228210E-01 -5.11937100358E-01 -1.58503839884E-04 +1.24112032296E-03 -2.35924416632E-04 +1.20932892605E-03 +5.06930634546E-01 -5.41206940561E-01
4.12000000000E+09 +3.46244138873E-01 -5.13135202891E-01 +1.89711358533E-05 +1.00693413373E-03 +1.55045496094E-06 +1.02627988060E-03 +4.90873571005E-01 -5.48728063879E-01
4.12500000000E+09 +3.29330844189E-01 -5.13447183704E-01 +1.44738239769E-04 +9.01754726935E-04 +1.61560363976E-04 +9.74276672182E-04 +4.74398623004E-01 -5.55256257725E-01
4.13000000000E+09 +3.11308682234E-01 -5.15082165052E-01 +1.98501351125E-04 +6.25539581912E-04 +1.66094278082E-04 +6.23831784672E-04 +4.57617176550E-01 -5.61795750603E-01
4.13500000000E+09 +2.91918642541E-01 -5.16707024611E-01 -1.17090771035E-04 +6.68466088041E-04 -1.19204571229E-04 +6.63685657897E-04 +4.39363774172E-01 -5.67553936871E-01
4.14000000000E+09 +2.72501746319E-01 -5.19547517620E-01 -1.33020897168E-04 +9.66614210238E-04 -1.83739999932E-04 +9.67474184512E-04 +4.20917995644E-01 -5.73147557730E-01
4.14500000000E+09 +2.51954464781E-01 -5.23856386786E-01 -1.97228940845E-05 +1.07223756337E-03 -7.21340274139E-05 +1.02420627199E-03 +4.02261338950E-01 -5.78756253689E-01
4.15000000000E+09 +2.31555673163E-01 -5.27024136705E-01 +2.21343109293E-04 +1.38005056365E-03 +2.04767857819E-04 +1.39891230237E-03 +3.84529768314E-01 -5.83981292476E-01
4.15500000000E+09 +2.12357022605E-01 -5.30144505898E-01 +6.09632312097E-04 +1.36700905845E-03 +6.58006634437E-04 +1.43576934401E-03 +3.66291646357E-01 -5.88911979693E-01
4.16000000000E+09 +1.94044919823E-01 -5.32205872513E-01 +1.22722193046E-03 +1.11953045260E-03 +1.24049361809E-03 +1.15208039244E-03 +3.48220187898E-01 -5.92012376989E-01
4.16500000000E+09 +1.76668134750E-01 -5.32400393194E-01 +1.22771164830E-03 +3.32777092331E-04 +1.20563557872E-03 +3.75479779896E-04 +3.29457501997E-01 -5.95586618591E-01
4.17000000000E+09 +1.59565871864E-01 -5.30762808591E-01 +7.39171882077E-04 +3.92168032241E-04 +6.68414734379E-04 +4.82159189887E-04 +3.09422466659E-01 -5.98268443372E-01
4.17500000000E+09 +1.43318656654E-01 -5.26565832136E-01 +9.44882572864E-04 +4.54288610772E-04 +9.36669700170E-04 +4.93877005474E-04 +2.88171454067E-01 -6.00698820756E-01
4.18000000000E+09 +1.27045725082E-01 -5.21950782517E-01 +7.68187369182E-04 +1.23759023540E-04 +8.02743222121E-04 +1.61718277830E-04 +2.67399322909E-01 -6.02665543671E-01
4.18500000000E+09 +1.09428641212E-01 -5.16283937304E-01 +5.08058598403E-04 +5.95955299956E-04 +5.27573898291E-04 +5.98240445914E-04 +2.46179843340E-01 -6.04167370894E-01
4.19000000000E+09 +9.14605728867E-02 -5.10567471021E-01 +1.25111137939E-03 +8.30668759955E-04 +1.30219637952E-03 +8.65233135435E-04 +2.25748353967E-01 -6.04459092308E-01
4.19500000000E+09 +7.16941809874E-02 -5.05729026132E-01 +1.43611657507E-03 +4.61020493730E-05 +1.47393516148E-03 +1.55272955111E-04 +2.04590821359E-01 -6.03742124164E-01
4.20000000000E+09 +5.10940169530E-02 -5.00378703123E-01 +1.29859037263E-03 -4.83494753612E-05 +1.36436726999E-03 +2.09625870049E-05 +1.83419274077E-01 -6.02244847278E-01
4.20500000000E+09 +3.10919073159E-02 -4.95434042084E-01 +1.60181491318E-03 -4.46449796832E-04 +1.71452233916E-03 -4.03190161734E-04 +1.60667849539E-01 -6.00149636855E-01
4.21000000000E+09 +1.15105283876E-02 -4.90146359576E-01 +1.07093140150E-03 -1.01217728485E-03 +1.15037232663E-03 -9.92248689694E-04 +1.38044020410E-01 -5.97755860168E-01
4.21500000000E+09 -6.18799929680E-03 -4.84095173228E-01 +5.89300991448E-04 -7.70389831109E-04 +6.80516210478E-04 -7.47748971101E-04 +1.15570271516E-01 -5.95075898649E-01
4.22000000000E+09 -2.29508001506E-02 -4.77366125675E-01 +5.42824482663E-04 -6.14228960334E-04 +5.19479826687E-04 -6.30778531248E-04 +9.37188721248E-02 -5.91945026360E-01
4.22500000000E+09 -3.84909408975E-02 -4.68552216976E-01 +7.88880614879E-04 -4.69495492817E-04 +8.33368166687E-04 -5.13406679589E-04 +7.17561526963E-02 -5.87354132230E-01
4.23000000000E+09 -5.34635277387E-02 -4.58931042867E-01 +7.74362192510E-04 -1.01284433676E-03 +8.42588307652E-04 -1.03239285349E-03 +5.08345560601E-02 -5.81629649964E-01
4.23500000000E+09 -6.95113021075E-02 -4.46777188755E-01 +3.01795147140E-04 -9.48361763262E-04 +3.14647051647E-04 -9.99163268114E-04 +2.86326224242E-02 -5.74948863031E-01
4.24000000000E+09 -8.57937027325E-02 -4.33005046624E-01 +3.46890655453E-04 -6.57514417221E-04 +3.86180959998E-04 -7.04007069486E-04 +6.41464303592E-03 -5.66868252378E-01
4.24500000000E+09 -1.03017054336E-01 -4.19434930019E-01 +3.98277490514E-04 -1.04113183321E-03 +3.74501887388E-04 -1.08228420028E-03 -1.60545383094E-02 -5.58931478512E-01
4.25000000000E+09 -1.22730772192E-01 -4.05414858977E-01 +1.52355634548E-05 -1.21302032076E-03 +4.03536402801E-05 -1.29149108534E-03 -3.88731379004E-02 -5.49900310094E-01
4.25500000000E+09 -1.42614310433E-01 -3.91751802746E-01 -4.01644982555E-04 -6.82721736591E-04 -4.60309241618E-04 -6.85905769205E-04 -5.96522216454E-02 -5.39929823922E-01
4.26000000000E+09 -1.62968019832E-01 -3.78849017483E-01 +8.44490103366E-05 -6.04670737467E-04 +1.53762691281E-06 -6.26077848428E-04 -8.04741878965E-02 -5.29700489472E-01
4.26500000000E+09 -1.82972024696E-01 -3.66351518579E-01 -4.96168521612E-05 -9.23465315910E-04 -5.63810076754E-05 -9.27928161380E-04 -1.00806643811E-01 -5.18137382943E-01
4.27000000000E+09 -2.00620337565E-01 -3.54044820009E-01 -4.47910499767E-04 -8.49940123530E-04 -4.90711837018E-04 -8.49633470446E-04 -1.22314495829E-01 -5.05563382331E-01
4.27500000000E+09 -2.16345188437E-01 -3.41752881525E-01 -4.66813228911E-04 -5.92295998400E-04 -5.82289978350E-04 -6.22012595473E-04 -1.43704958799E-01 -4.90574431710E-01
4.28000000000E+09 -2.29411980054E-01 -3.28694610296E-01 -7.65377226128E-04 -4.43819941329E-04 -8.13222065593E-04 -4.34619814663E-04 -1.64088990720E-01 -4.75855395707E-01
4.28500000000E+09 -2.41339881692E-01 -3.14554461285E-01 -4.42788660809E-04 -4.61473180776E-06 -4.10100189399E-04 +2.52543476599E-05 -1.84211981802E-01 -4.61600470891E-01
4.29000000000E+09 -2.51427892631E-01 -2.97369512374E-01 -4.86785357286E-04 -1.72317663458E-04 -4.40654088026E-04 -1.60112701685E-04 -2.03682740304E-01 -4.46388559793E-01
4.29500000000E+09 -2.60741781093E-01 -2.79555797418E-01 -2.27326338169E-04 +1.08324518124E-04 -2.01036702722E-04 +1.34809145644E-04 -2.21958127792E-01 -4.30484232641E-01
4.30000000000E+09 -2.71156620198E-01 -2.60196448507E-01 -1.36677706800E-04 -1.99057802496E-04 -1.12981528049E-04 -1.90188388222E-04 -2.39530462027E-01 -4.13336914196E-01
4.30500000000E+09 -2.82883539430E-01 -2.39648939069E-01 -3.17640721093E-04 -3.33880704185E-04 -3.33253269579E-04 -3.70494787223E-04 -2.56565990065E-01 -3.94245664010E-01
4.31000000000E+09 -2.95584856017E-01 -2.18554557358E-01 -3.62824582885E-04 +6.25583581767E-05 -3.50714504206E-04 +1.00051780373E-04 -2.72169021199E-01 -3.75381019175E-01
4.31500000000E+09 -3.08649045321E-01 -1.97700393501E-01 -2.60293796689E-04 -1.21483156873E-04 -2.12301627430E-04 -8.58222876845E-05 -2.88013593635E-01 -3.55909203494E-01
4.32000000000E+09 -3.21315433243E-01 -1.78697869079E-01 -2.59171292828E-04 +2.90758186430E-04 -1.80864572276E-04 +2.35524807297E-04 -3.02661849709E-01 -3.36292042165E-01
4.32500000000E+09 -3.33210505427E-01 -1.60457630681E-01 +2.87092914481E-04 +3.18885886355E-05 +3.66449341384E-04 -2.81015170776E-05 -3.17832993626E-01 -3.16443284715E-01
4.33000000000E+09 -3.42521949784E-01 -1.43320148966E-01 -2.00851333081E-04 -9.34849671086E-05 -2.03645755249E-04 -1.01089430801E-04 -3.30727494589E-01 -2.94343881498E-01
4.33500000000E+09 -3.49780342170E-01 -1.28043848148E-01 +3.32394606274E-04 +1.81791386773E-04 +3.17293348159E-04 +1.99003666696E-04 -3.43098149839E-01 -2.72763492879E-01
4.34000000000E+09 -3.55479821619E-01 -1.11658827592E-01 +3.99242604851E-04 -2.57695551284E-04 +3.70176499608E-04 -3.37488673453E-04 -3.55226202700E-01 -2.49125147180E-01
4.34500000000E+09 -3.57558724485E-01 -9.36605753791E-02 +6.69480489296E-05 -5.30800395927E-04 +5.12025461994E-05 -5.77295954103E-04 -3.65632375288E-01 -2.26106632533E-01
4.35000000000E+09 -3.59268432320E-01 -7.50320707609E-02 +3.09135398917E-05 -1.66664367346E-04 +4.83673589288E-05 -1.64875293584E-04 -3.76593090681E-01 -2.03305650277E-01
4.35500000000E+09 -3.59789227403E-01 -5.38075453019E-02 +1.73867135431E-04 -5.37122149317E-04 +1.66716137934E-04 -5.47773043048E-04 -3.86223537722E-01 -1.79823610583E-01
4.36000000000E+09 -3.60894763552E-01 -3.15757163080E-02 -1.17780255534E-04 -5.50217802231E-04 -9.39217225866E-05 -5.15717024922E-04 -3.93827363546E-01 -1.56948451526E-01
4.36500000000E+09 -3.63399797607E-01 -7.92168356903E-03 +4.02821508209E-05 -4.14454588948E-04 +3.88952300324E-05 -3.88405294066E-04 -4.01353013112E-01 -1.34384961320E-01
4.37000000000E+09 -3.66211416365E-01 +1.53859695453E-02 +1.45347363019E-04 -6.56664427249E-04 +1.09633033465E-04 -6.24625192040E-04 -4.07339938960E-01 -1.10220363960E-01
4.37500000000E+09 -3.70992701873E-01 +3.75376411333E-02 +1.72105311108E-04 -1.10774036058E-03 +1.50616073307E-04 -1.11286089058E-03 -4.12494576024E-01 -8.55675608457E-02
4.38000000000E+09 -3.75608063322E-01 +5.91806713858E-02 -6.21634001932E-04 -1.34717702856E-03 -6.23399499877E-04 -1.34788908176E-03 -4.16777753449E-01 -6.13885322301E-02
4.38500000000E+09 -3.79030800510E-01 +7.73548436303E-02 -1.09949553531E-03 -7.75919062024E-04 -1.10382077370E-03 -7.42765335052E-04 -4.20405559570E-01 -3.63618379033E-02
4.39000000000E+09 -3.81918577720E-01 +9.41152709904E-02 -7.00055516613E-04 -4.73482560355E-04 -7.34427779611E-04 -4.46126350104E-04 -4.22091670563E-01 -1.21865963447E-02
4.39500000000E+09 -3.81851032379E-01 +1.09724426999E-01 -7.94115056659E-04 -7.39204282929E-04 -8.35241687343E-04 -7.78000476793E-04 -4.23770773011E-01 +1.11103805507E-02
4.40000000000E+09 -3.79661891440E-01 +1.24426239220E-01 -9.00584751313E-04 -4.88688098955E-04 -8.80964496062E-04 -5.15313051535E-04 -4.23801712853E-01 +3.49910504426E-02
4.40500000000E+09 -3.75052120871E-01 +1.39687009257E-01 -1.14918694447E-03 -6.67565463305E-04 -1.15621119637E-03 -6.64327639684E-04 -4.23402274453E-01 +5.82994464410E-02
4.41000000000E+09 -3.69645853383E-01 +1.55859676190E-01 -1.31607331857E-03 -2.72518788561E-04 -1.28848745506E-03 -2.69611080229E-04 -4.22247579267E-01 +8.25986548046E-02
4.41500000000E+09 -3.63447595292E-01 +1.75512825688E-01 -1.24857183564E-03 -3.55617822167E-04 -1.28137486203E-03 -3.67750655915E-04 -4.20460635348E-01 +1.06164380832E-01
4.42000000000E+09 -3.56480241179E-01 +1.96240169492E-01 -1.83591295773E-03 -1.94289432011E-04 -1.80669098221E-03 -2.07350988067E-04 -4.17593994576E-01 +1.30787524478E-01
4.42500000000E+09 -3.51178670881E-01 +2.18466628487E-01 -1.68997828912E-03 +3.31169238287E-04 -1.71341278845E-03 +3.26636891457E-04 -4.12113067774E-01 +1.53008196384E-01
4.43000000000E+09 -3.46042323876E-01 +2.41238026955E-01 -1.74138509788E-03 +5.21442512108E-04 -1.75555860207E-03 +5.71004121728E-04 -4.08690022991E-01 +1.74524987043E-01
4.43500000000E+09 -3.41549397493E-01 +2.62066465091E-01 -1.76423926250E-03 +1.00800482801E-03 -1.78116213256E-03 +1.04474833335E-03 -4.02797413069E-01 +1.97651199451E-01
4.44000000000E+09 -3.38173968811E-01 +2.80222242929E-01 -1.21285104523E-03 +1.26374238047E-03 -1.20440195039E-03 +1.31335048746E-03 -3.96575539890E-01 +2.18842394043E-01
4.44500000000E+09 -3.35781006041E-01 +2.96325629006E-01 -1.26971036560E-03 +1.08581984601E-03 -1.28086417560E-03 +1.10376619925E-03 -3.90364962463E-01 +2.40469660256E-01
4.45000000000E+09 -3.33163750219E-01 +3.10591648069E-01 -1.13209633779E-03 +1.46360679727E-03 -1.09591004993E-03 +1.52207582504E-03 -3.83851472796E-01 +2.61149702334E-01
4.45500000000E+09 -3.28154830706E-01 +3.23976967593E-01 -9.95152706504E-04 +1.65344926741E-03 -9.83441358374E-04 +1.69764109434E-03 -3.75933540806E-01 +2.81364635395E-01
4.46000000000E+09 -3.20781775940E-01 +3.36047868832E-01 -8.47426157167E-04 +1.65761857418E-03 -8.06764260856E-04 +1.67504409515E-03 -3.67968547610E-01 +3.00575317254E-01
4.46500000000E+09 -3.11579349447E-01 +3.48624837674E-01 -5.70841187518E-04 +1.88082214177E-03 -5.22243715234E-04 +1.89180096401E-03 -3.58313938200E-01 +3.20314258603E-01
4.47000000000E+09 -2.99947476024E-01 +3.62563295318E-01 -2.92568000825E-04 +2.08269779147E-03 -2.33446742724E-04 +2.07816434225E-03 -3.47517723067E-01 +3.38873474679E-01
4.47500000000E+09 -2.87132419231E-01 +3.76812177280E-01 -1.06383782719E-04 +1.97088288355E-03 -3.58791444940E-05 +1.98183025992E-03 -3.37187673292E-01 +3.57823610765E-01
4.48000000000E+09 -2.75182515757E-01 +3.93354715892E-01 +2.08649628655E-04 +2.20454759871E-03 +3.17029659042E-04 +2.23416259677E-03 -3.25639595336E-01 +3.76361501814E-01
4.48500000000E+09 -2.63105724731E-01 +4.10242642737E-01 +5.03015747749E-04 +2.05441382272E-03 +5.70475867546E-04 +1.96918914386E-03 -3.14562648498E-01 +3.93513387737E-01
4.49000000000E+09 -2.53214551052E-01 +4.26724164014E-01 +8.72484701899E-04 +2.15539328517E-03 +9.15160298974E-04 +2.08724189035E-03 -3.03281885069E-01 +4.09846217933E-01
4.49500000000E+09 -2.44857805720E-01 +4.42787476934E-01 +1.25371884202E-03 +1.75300387423E-03 +1.25500762940E-03 +1.66231170265E-03 -2.92189501198E-01 +4.25491271671E-01
4.50000000000E+09 -2.38089555658E-01 +4.56272135022E-01 +1.09242523213E-03 +1.89097562200E-03 +1.10395936630E-03 +1.73435927017E-03 -2.79899340860E-01 +4.41279722650E-01
4.50500000000E+09 -2.32647761091E-01 +4.68329527470E-01 +1.83443756221E-03 +1.78175620309E-03 +1.79874128559E-03 +1.75886811837E-03 -2.66873726845E-01 +4.55951277014E-01
4.51000000000E+09 -2.26058030171E-01 +4.77789223421E-01 +1.93727479790E-03 +1.16165059895E-03 +1.94773533459E-03 +1.02539141128E-03 -2.53747641954E-01 +4.70382724647E-01
4.51500000000E+09 -2.19311679124E-01 +4.85474445087E-01 +1.88699547397E-03 +1.16309037450E-03 +1.85072584359E-03 +1.13330573577E-03 -2.40544429652E-01 +4.84896451927E-01
4.52000000000E+09 -2.09774968278E-01 +4.93214132649E-01 +2.25118262791E-03 +8.00765428972E-04 +2.24910381064E-03 +7.45848734470E-04 -2.27622742012E-01 +4.98336124411E-01
4.52500000000E+09 -1.98066951268E-01 +4.99387607579E-01 +2.17047770928E-03 +5.36125010247E-04 +2.15880269817E-03 +4.72633847136E-04 -2.14068920735E-01 +5.10988428290E-01
4.53000000000E+09 -1.84671742340E-01 +5.07434675040E-01 +2.31851848631E-03 +1.78899380268E-04 +2.26763515981E-03 +1.75569714456E-04 -2.00459826902E-01 +5.22557045316E-01
4.53500000000E+09 -1.69292275232E-01 +5.15859909134E-01 +1.95858895814E-03 -1.46095188202E-04 +1.84516349185E-03 -9.31425307385E-05 -1.86226640153E-01 +5.34574317937E-01
4.54000000000E+09 -1.53967311506E-01 +5.25460340497E-01 +2.26881847733E-03 +2.27300952352E-04 +2.27870342095E-03 +2.23030535809E-04 -1.70308022839E-01 +5.45615152956E-01
4.54500000000E+09 -1.38994263591E-01 +5.36230577394E-01 +2.65620437116E-03 -6.50337795812E-04 +2.61039418992E-03 -7.60680767354E-04 -1.55810165299E-01 +5.55719140432E-01
4.55000000000E+09 -1.25631010606E-01 +5.46495747957E-01 +2.35836840741E-03 -9.21338053451E-04 +2.23591437050E-03 -8.95169196505E-04 -1.41094467551E-01 +5.66721119475E-01
4.55500000000E+09 -1.13795773993E-01 +5.57043798097E-01 +2.14876175769E-03 -1.43521372404E-03 +2.01424695821E-03 -1.48049947839E-03 -1.26596712333E-01 +5.76633879718E-01
4.56000000000E+09 -1.03411102043E-01 +5.65799848170E-01 +1.66372842510E-03 -1.51516204304E-03 +1.61397292610E-03 -1.49973682470E-03 -1.11751042830E-01 +5.85611781947E-01
4.56500000000E+09 -9.48631698224E-02 +5.73265346319E-01 +1.55700543254E-03 -1.59902264309E-03 +1.55072666465E-03 -1.55428218956E-03 -9.75682836346E-02 +5.94391822063E-01
4.57000000000E+09 -8.56995554261E-02 +5.79858017992E-01 +1.44125048267E-03 -1.88449109635E-03 +1.37147345861E-03 -1.81667077254E-03 -8.18083593750E-02 +6.03091518830E-01
