# Hz S RI R 50
! CMT, C1220, 16058040, 17.2.0/1
! Date: 15/08/2018 11:35:13
! Data: Format (Calibration Info)
! Freq                      S11: Re/Im (F2)                       S21: Re/Im (F2)                       S12: Re/Im (F2)                       S22: Re/Im (F2)            
4.00000000000E+09 +6.67264621396E-01 -3.55616614040E-01 +4.44326704626E-04 -2.99829556814E-03 +5.33515945290E-04 -3.03500369396E-03 +7.75334563949E-01 -3.54109707684E-01
4.00500000000E+09 +6.59444238117E-01 -3.63786385335E-01 +1.28294672897E-07 -3.14943787644E-03 +8.80220766085E-05 -3.19182117967E-03 +7.67006731139E-01 -3.65509316917E-01
4.01000000000E+09 +6.50692901978E-01 -3.71193844135E-01 -5.21098945147E-04 -3.16171159161E-03 -4.26039214126E-04 -3.20214306858E-03 +7.58059272114E-01 -3.76804907582E-01
4.01500000000E+09 +6.41518105519E-01 -3.78729425459E-01 -9.96472838252E-04 -2.91575875089E-03 -9.25127311662E-04 -3.03795615942E-03 +7.48257737308E-01 -3.87406416060E-01
4.02000000000E+09 +6.31331981296E-01 -3.87302876339E-01 -1.07674959901E-03 -2.72222404657E-03 -1.01687222347E-03 -2.85485084090E-03 +7.38351442731E-01 -3.97898601842E-01
4.02500000000E+09 +6.20221121042E-01 -3.96321927881E-01 -1.23459105172E-03 -2.68612439876E-03 -1.10212564606E-03 -2.86437903684E-03 +7.28170749053E-01 -4.08156941808E-01
4.03000000000E+09 +6.08414059191E-01 -4.05743696747E-01 -1.58230166004E-03 -2.84476142401E-03 -1.59912941425E-03 -2.92300922179E-03 +7.17923133945E-01 -4.18721241595E-01
4.03500000000E+09 +5.96781321502E-01 -4.15235547715E-01 -2.12013569330E-03 -2.42922849559E-03 -2.07277686850E-03 -2.59083481193E-03 +7.06840128231E-01 -4.30027664934E-01
4.04000000000E+09 +5.85324654671E-01 -4.25060382395E-01 -2.02335435887E-03 -2.12757416674E-03 -2.07573221620E-03 -2.21657681141E-03 +6.95238928217E-01 -4.40995590913E-01
4.04500000000E+09 +5.73673066821E-01 -4.34442425203E-01 -2.29149174002E-03 -2.09691226882E-03 -2.25097707802E-03 -2.23043531534E-03 +6.83482664305E-01 -4.51722349894E-01
4.05000000000E+09 +5.62205854143E-01 -4.43157337303E-01 -2.39606149782E-03 -1.88437068771E-03 -2.44456710493E-03 -2.00584780308E-03 +6.71785671322E-01 -4.61573588464E-01
4.05500000000E+09 +5.50480450741E-01 -4.51272691524E-01 -2.39846320866E-03 -1.94362125446E-03 -2.46558633636E-03 -2.03932305345E-03 +6.59415374174E-01 -4.71340921589E-01
4.06000000000E+09 +5.37422424527E-01 -4.58809771722E-01 -2.99693931484E-03 -1.95478121877E-03 -3.09099088010E-03 -2.06145156792E-03 +6.46797147110E-01 -4.80775915003E-01
4.06500000000E+09 +5.23866334907E-01 -4.64984422487E-01 -3.49231235807E-03 -1.19479879030E-03 -3.55933909231E-03 -1.29461332383E-03 +6.33352311192E-01 -4.89716198732E-01
4.07000000000E+09 +5.10194174137E-01 -4.71499180270E-01 -3.24306408926E-03 -8.72543702275E-04 -3.27759179895E-03 -9.11190218075E-04 +6.19545256666E-01 -4.99263435886E-01
4.07500000000E+09 +4.94839154717E-01 -4.78547800938E-01 -3.42976463877E-03 -6.63160315880E-04 -3.43640964033E-03 -7.77624268112E-04 +6.05740522873E-01 -5.08144883206E-01
4.08000000000E+09 +4.78937258340E-01 -4.85114144078E-01 -3.46497452179E-03 -2.98996279403E-04 -3.50903177464E-03 -3.71481957564E-04 +5.92299975905E-01 -5.17517385745E-01
4.08500000000E+09 +4.62986246104E-01 -4.92195257549E-01 -3.45542241798E-03 +2.78194272834E-05 -3.48401495142E-03 -6.22083868388E-05 +5.78526103939E-01 -5.27007201095E-01
4.09000000000E+09 +4.46541538940E-01 -4.99790768269E-01 -3.54883883511E-03 +2.92338764073E-04 -3.68475471563E-03 +2.22149701383E-04 +5.63885372846E-01 -5.35850048330E-01
4.09500000000E+09 +4.30186398717E-01 -5.06785920086E-01 -3.64191328200E-03 +7.85849036596E-04 -3.74317116003E-03 +7.29898279954E-04 +5.48392937036E-01 -5.43457439865E-01
4.10000000000E+09 +4.14738200755E-01 -5.13557920522E-01 -3.15643714106E-03 +1.05212134305E-03 -3.25843158145E-03 +9.99015700377E-04 +5.32613371287E-01 -5.50486682188E-01
4.10500000000E+09 +3.98251935513E-01 -5.20008850490E-01 -3.37823769411E-03 +1.06904220142E-03 -3.49715939154E-03 +1.04600713855E-03 +5.16429984639E-01 -5.57334133987E-01
4.11000000000E+09 +3.81695656355E-01 -5.23964213278E-01 -3.57343171854E-03 +1.68985900386E-03 -3.72987641459E-03 +1.66449173956E-03 +4.99631166740E-01 -5.64983340214E-01
4.11500000000E+09 +3.66025847690E-01 -5.26853157505E-01 -3.23937641683E-03 +2.29425546946E-03 -3.39119327654E-03 +2.21884380216E-03 +4.82320439588E-01 -5.72542768062E-01
4.12000000000E+09 +3.49487493407E-01 -5.29112237286E-01 -2.90107642776E-03 +2.65251627289E-03 -3.06099083417E-03 +2.63585700425E-03 +4.64957142986E-01 -5.79237735041E-01
4.12500000000E+09 +3.32831101259E-01 -5.30923675599E-01 -2.52244205555E-03 +3.04797216778E-03 -2.70924563651E-03 +3.07803101410E-03 +4.47851223278E-01 -5.85144616843E-01
4.13000000000E+09 +3.15373052399E-01 -5.33642793823E-01 -1.81355988395E-03 +2.96508989532E-03 -1.98369993180E-03 +3.01632313744E-03 +4.30667111322E-01 -5.91038548434E-01
4.13500000000E+09 +2.96208445631E-01 -5.36993846589E-01 -1.56594366804E-03 +2.68483258093E-03 -1.72875272618E-03 +2.74550275147E-03 +4.12393065046E-01 -5.96568420960E-01
4.14000000000E+09 +2.76109863582E-01 -5.39931647302E-01 -1.74451622939E-03 +2.49019633575E-03 -1.97901053202E-03 +2.55090290210E-03 +3.92556413948E-01 -6.01810267201E-01
4.14500000000E+09 +2.56424795843E-01 -5.42832262328E-01 -2.15410736768E-03 +3.06276687079E-03 -2.30933254699E-03 +3.19126615854E-03 +3.72732529401E-01 -6.06088854377E-01
4.15000000000E+09 +2.37510869353E-01 -5.47059604847E-01 -1.51785803377E-03 +3.58331499460E-03 -1.60970209301E-03 +3.70789374896E-03 +3.53687704428E-01 -6.10090010086E-01
4.15500000000E+09 +2.17924084460E-01 -5.49848903783E-01 -1.26180410745E-03 +3.68109515145E-03 -1.42597852988E-03 +3.86829983785E-03 +3.34390124538E-01 -6.13975171658E-01
4.16000000000E+09 +2.00505242228E-01 -5.51712745961E-01 -6.87026651827E-04 +4.01804373468E-03 -7.63233952897E-04 +4.13986688804E-03 +3.14962322068E-01 -6.17212632822E-01
4.16500000000E+09 +1.83569887847E-01 -5.53144029999E-01 -2.42472939808E-04 +3.79649736151E-03 -2.52945530735E-04 +3.91152578113E-03 +2.94428230551E-01 -6.19072615836E-01
4.17000000000E+09 +1.66333871370E-01 -5.52842025160E-01 -2.88654691921E-04 +3.74802430817E-03 -3.71088562109E-04 +3.86830827767E-03 +2.74200872067E-01 -6.19633810835E-01
4.17500000000E+09 +1.49150281392E-01 -5.50264427220E-01 +1.29155217586E-04 +4.21987131668E-03 +5.51666588558E-05 +4.39517639817E-03 +2.54094932417E-01 -6.20186340309E-01
4.18000000000E+09 +1.32090922792E-01 -5.46402126970E-01 +8.55432468562E-04 +4.11949399788E-03 +8.87173492373E-04 +4.29870402675E-03 +2.32883075093E-01 -6.21204156175E-01
4.18500000000E+09 +1.13302429674E-01 -5.42547231717E-01 +1.00324293875E-03 +3.63421829099E-03 +1.01494248021E-03 +3.70945769186E-03 +2.10409556758E-01 -6.21577239691E-01
4.19000000000E+09 +9.34038695609E-02 -5.37156078704E-01 +9.94974291706E-04 +3.69680984641E-03 +9.51368824609E-04 +3.83896697132E-03 +1.87807998935E-01 -6.20533897537E-01
4.19500000000E+09 +7.34761454933E-02 -5.31956705910E-01 +1.17781855813E-03 +3.91423743193E-03 +1.22021650711E-03 +4.06801928847E-03 +1.65608080551E-01 -6.18155461916E-01
4.20000000000E+09 +5.26562520845E-02 -5.27619691178E-01 +1.64056423156E-03 +4.24426920265E-03 +1.66742495787E-03 +4.32538290884E-03 +1.44357645740E-01 -6.15531452650E-01
4.20500000000E+09 +3.16637281814E-02 -5.23616911662E-01 +2.53193583101E-03 +4.47520236133E-03 +2.57673051473E-03 +4.59560058913E-03 +1.22053986427E-01 -6.12309649698E-01
4.21000000000E+09 +1.08661871896E-02 -5.19151876658E-01 +3.54560045792E-03 +4.08339122304E-03 +3.57696299998E-03 +4.15649272468E-03 +9.92283515469E-02 -6.08299288455E-01
4.21500000000E+09 -8.35459871237E-03 -5.14995180071E-01 +3.70842424996E-03 +2.96983673712E-03 +3.84403684959E-03 +3.04376207252E-03 +7.62601995927E-02 -6.03358882205E-01
4.22000000000E+09 -2.72154742502E-02 -5.09336552112E-01 +3.62732661949E-03 +2.67474968418E-03 +3.71380904351E-03 +2.72309704578E-03 +5.42287966484E-02 -5.97476680739E-01
4.22500000000E+09 -4.41361382551E-02 -5.02402796116E-01 +3.81682554315E-03 +2.65198834182E-03 +3.86087712742E-03 +2.70505953390E-03 +3.25166513401E-02 -5.91569004933E-01
4.23000000000E+09 -6.07347405899E-02 -4.94593377017E-01 +4.28831897267E-03 +2.42507891963E-03 +4.35067265026E-03 +2.46502522970E-03 +1.15817265226E-02 -5.84566052592E-01
4.23500000000E+09 -7.79885792086E-02 -4.84225364160E-01 +4.58802328489E-03 +2.04767866351E-03 +4.60606852667E-03 +2.13132724095E-03 -1.04691067636E-02 -5.77351170167E-01
4.24000000000E+09 -9.47181133234E-02 -4.72433361161E-01 +4.82764824309E-03 +1.78940861080E-03 +4.98546224806E-03 +1.89986685930E-03 -3.28196301370E-02 -5.68181175634E-01
4.24500000000E+09 -1.12207379742E-01 -4.60080787452E-01 +5.08043812183E-03 +9.89867027361E-04 +5.22444031132E-03 +1.02337574185E-03 -5.50843233021E-02 -5.57355192611E-01
4.25000000000E+09 -1.31812948007E-01 -4.47017606618E-01 +5.09227725235E-03 +1.06793174068E-03 +5.16400249167E-03 +1.09041596571E-03 -7.59293102016E-02 -5.46747999155E-01
4.25500000000E+09 -1.51516746248E-01 -4.33917903049E-01 +5.74358312947E-03 +6.12463408705E-04 +5.82064342774E-03 +7.18472459680E-04 -9.65025677645E-02 -5.35253855929E-01
4.26000000000E+09 -1.71907667019E-01 -4.21464814608E-01 +6.47756385469E-03 -3.84788642066E-04 +6.57928890542E-03 -4.19243713084E-04 -1.17274582792E-01 -5.23383520668E-01
4.26500000000E+09 -1.92607214723E-01 -4.09825457332E-01 +5.93816389932E-03 -1.40858308884E-03 +6.04229875851E-03 -1.39687511892E-03 -1.37361371272E-01 -5.09818016356E-01
4.27000000000E+09 -2.12079774476E-01 -3.97370845185E-01 +5.78059423574E-03 -2.15434073850E-03 +5.87432669817E-03 -2.25603337333E-03 -1.58454825659E-01 -4.95627152556E-01
4.27500000000E+09 -2.29865932990E-01 -3.85543757063E-01 +5.10642248311E-03 -3.13297355285E-03 +5.22572003207E-03 -3.17929122027E-03 -1.78455601383E-01 -4.79532483249E-01
4.28000000000E+09 -2.46044714774E-01 -3.73397498671E-01 +4.23577635978E-03 -2.75594923872E-03 +4.24266687115E-03 -2.79318090752E-03 -1.97559095760E-01 -4.65389216871E-01
4.28500000000E+09 -2.60266435342E-01 -3.60191456535E-01 +4.79861940335E-03 -2.48296767494E-03 +4.83832239395E-03 -2.55509755685E-03 -2.19063522789E-01 -4.49680185446E-01
4.29000000000E+09 -2.73194666429E-01 -3.45909982661E-01 +5.33314506298E-03 -3.73729830628E-03 +5.42570990895E-03 -3.75364530309E-03 -2.38383682159E-01 -4.31737367164E-01
4.29500000000E+09 -2.85260418057E-01 -3.30622606833E-01 +4.30301071012E-03 -4.81739240735E-03 +4.39297558227E-03 -4.90038121658E-03 -2.55379457045E-01 -4.12613191799E-01
4.30000000000E+09 -2.98028805525E-01 -3.13801954286E-01 +4.17913358597E-03 -4.94996638519E-03 +4.28172968200E-03 -4.98577829310E-03 -2.71317926669E-01 -3.94533017864E-01
4.30500000000E+09 -3.11395333477E-01 -2.95406398458E-01 +3.27071653449E-03 -5.93807296606E-03 +3.38890852618E-03 -6.04204938879E-03 -2.86751396148E-01 -3.75299036042E-01
4.31000000000E+09 -3.24318140207E-01 -2.75730096992E-01 +2.33838777315E-03 -5.88669943439E-03 +2.42628443828E-03 -6.00251523258E-03 -3.02442266706E-01 -3.55335813099E-01
4.31500000000E+09 -3.37580153417E-01 -2.56252792962E-01 +2.04267677046E-03 -5.91192854933E-03 +2.07485339458E-03 -6.14691056809E-03 -3.17866121455E-01 -3.34075146041E-01
4.32000000000E+09 -3.50072940884E-01 -2.36696715655E-01 +1.41399472672E-03 -6.62849533493E-03 +1.38658903059E-03 -6.89651923176E-03 -3.31463728243E-01 -3.11978710145E-01
4.32500000000E+09 -3.60916085511E-01 -2.18851610852E-01 -4.56884206210E-04 -6.53483133234E-03 -4.97739889334E-04 -6.69746255180E-03 -3.43596984120E-01 -2.90127418811E-01
4.33000000000E+09 -3.72345629477E-01 -2.02484128478E-01 -1.82110809946E-04 -5.00331136824E-03 -3.06996652858E-04 -5.15255534621E-03 -3.55423285938E-01 -2.69665299026E-01
4.33500000000E+09 -3.82752933955E-01 -1.84606521000E-01 +5.26665163145E-04 -5.38700270757E-03 +3.45773095207E-04 -5.46709224382E-03 -3.67564281438E-01 -2.46344038495E-01
4.34000000000E+09 -3.90577966885E-01 -1.65765501330E-01 +2.92130564304E-04 -6.29252080865E-03 +1.43362948035E-04 -6.32097888209E-03 -3.78787688774E-01 -2.21879833516E-01
4.34500000000E+09 -3.96396836339E-01 -1.46107754279E-01 -4.18354311097E-04 -7.40076378894E-03 -5.01998659611E-04 -7.43244473823E-03 -3.87715337101E-01 -1.96269115165E-01
4.35000000000E+09 -4.00155007092E-01 -1.25162853378E-01 -2.32076719978E-03 -7.89039700356E-03 -2.41155328473E-03 -7.93791143752E-03 -3.96248561063E-01 -1.72197764160E-01
4.35500000000E+09 -4.03215493322E-01 -1.03751593071E-01 -3.98858035930E-03 -6.92946394757E-03 -4.05555260099E-03 -7.00879986380E-03 -4.04913503876E-01 -1.48887969107E-01
4.36000000000E+09 -4.06642997786E-01 -8.20817569255E-02 -3.96052501092E-03 -5.42136111782E-03 -4.17639180614E-03 -5.48368556350E-03 -4.13001892738E-01 -1.25500846992E-01
4.36500000000E+09 -4.11955347113E-01 -5.88732040448E-02 -4.25024399518E-03 -5.74134054393E-03 -4.44295878893E-03 -5.63111750273E-03 -4.19063236988E-01 -1.00331287876E-01
4.37000000000E+09 -4.17417849147E-01 -3.46253941656E-02 -4.72132369068E-03 -5.14971048162E-03 -4.83919393807E-03 -5.09138807728E-03 -4.22783650289E-01 -7.52696641329E-02
4.37500000000E+09 -4.22279081270E-01 -1.09566507591E-02 -5.00244815093E-03 -5.46558952789E-03 -5.14508112324E-03 -5.35032273389E-03 -4.24524231498E-01 -5.05339799377E-02
4.38000000000E+09 -4.26702211997E-01 +1.08963328527E-02 -6.28174372115E-03 -4.97096226750E-03 -6.40575101687E-03 -4.88009408627E-03 -4.28065440129E-01 -2.67337586051E-02
4.38500000000E+09 -4.30481517019E-01 +3.16237419153E-02 -7.30226091140E-03 -4.13019844663E-03 -7.37357384786E-03 -3.96830928261E-03 -4.30708915959E-01 -5.13475711846E-04
4.39000000000E+09 -4.32998576794E-01 +5.03864742175E-02 -7.25025830778E-03 -3.34024417030E-03 -7.37607014372E-03 -3.16689180558E-03 -4.31930027230E-01 +2.62414714810E-02
4.39500000000E+09 -4.34032898832E-01 +6.75899047964E-02 -8.32912799954E-03 -2.97024805917E-03 -8.40036431025E-03 -2.79004479893E-03 -4.30625024143E-01 +5.17865976148E-02
4.40000000000E+09 -4.33926407154E-01 +8.53380766863E-02 -9.28500220788E-03 -1.27980376140E-03 -9.44257983768E-03 -1.10768666740E-03 -4.28237484185E-01 +7.53455557891E-02
4.40500000000E+09 -4.31591831117E-01 +1.03388370683E-01 -9.26971017750E-03 +2.00038380868E-04 -9.27126612722E-03 +3.59892923424E-04 -4.25789753847E-01 +9.84685798952E-02
4.41000000000E+09 -4.28398143283E-01 +1.22663943009E-01 -8.53145623998E-03 +2.17804573374E-03 -8.47538221743E-03 +2.40194835693E-03 -4.23553509262E-01 +1.20971368296E-01
4.41500000000E+09 -4.24765064406E-01 +1.44069673604E-01 -7.56769040467E-03 +2.50165978277E-03 -7.49740794541E-03 +2.63079024521E-03 -4.20026581394E-01 +1.46358716713E-01
4.42000000000E+09 -4.19740931560E-01 +1.66345041903E-01 -7.34648840612E-03 +2.71999905908E-03 -7.19344628150E-03 +2.87957609902E-03 -4.13737382532E-01 +1.71106970137E-01
4.42500000000E+09 -4.15925119438E-01 +1.88822361653E-01 -7.18590968755E-03 +3.12584776798E-03 -7.03311821011E-03 +3.30550707050E-03 -4.06855804051E-01 +1.93126635414E-01
4.43000000000E+09 -4.12394486212E-01 +2.11284835819E-01 -7.53982730091E-03 +3.81770312681E-03 -7.30997597521E-03 +3.89967233167E-03 -4.02362984236E-01 +2.15606224084E-01
4.43500000000E+09 -4.09279010282E-01 +2.32460681518E-01 -7.36019891827E-03 +5.54493874613E-03 -7.12740063719E-03 +5.54704706279E-03 -3.95887538291E-01 +2.38858562536E-01
4.44000000000E+09 -4.06857432300E-01 +2.51098505556E-01 -6.07772894680E-03 +7.36324310761E-03 -5.92715590274E-03 +7.29567900688E-03 -3.87558270249E-01 +2.61576497143E-01
4.44500000000E+09 -4.05155545629E-01 +2.68243975118E-01 -4.02745471565E-03 +7.01212221054E-03 -3.95553733212E-03 +6.94929233117E-03 -3.77177659030E-01 +2.82560038411E-01
4.45000000000E+09 -4.02205559467E-01 +2.84475872786E-01 -3.54732405563E-03 +6.53384090052E-03 -3.49419263884E-03 +6.49193517863E-03 -3.67012851589E-01 +3.01336392773E-01
4.45500000000E+09 -3.96937409734E-01 +2.99816781941E-01 -3.82331643994E-03 +6.72093092793E-03 -3.70090476455E-03 +6.83018918114E-03 -3.57412539457E-01 +3.19514214088E-01
4.46000000000E+09 -3.89373504729E-01 +3.13831317779E-01 -3.01257779584E-03 +7.96165606309E-03 -2.88497931631E-03 +8.01792247799E-03 -3.48423011438E-01 +3.39700827652E-01
4.46500000000E+09 -3.79558169246E-01 +3.29073699569E-01 -1.74974601657E-03 +8.32092243208E-03 -1.58757299194E-03 +8.35909256599E-03 -3.35594853352E-01 +3.58535377972E-01
4.47000000000E+09 -3.67316345585E-01 +3.43907525623E-01 -2.58603453749E-04 +8.15595195922E-03 -1.08039914826E-04 +8.14705360195E-03 -3.23651267283E-01 +3.76088442505E-01
4.47500000000E+09 -3.55652965860E-01 +3.59351689029E-01 +2.45042896622E-04 +7.17882028868E-03 +4.01498518333E-04 +7.19035635636E-03 -3.11491172058E-01 +3.92984063081E-01
4.48000000000E+09 -3.44317248903E-01 +3.77325316490E-01 -3.42238984960E-05 +7.57675116677E-03 +1.52211877495E-04 +7.47383493955E-03 -3.00211159808E-01 +4.10524457064E-01
4.48500000000E+09 -3.32381621998E-01 +3.96556926929E-01 +9.84220981593E-04 +8.25082488821E-03 +1.08762150356E-03 +8.06024897674E-03 -2.87339697808E-01 +4.27643946890E-01
4.49000000000E+09 -3.21983681683E-01 +4.14389001100E-01 +2.52309382236E-03 +8.67190122400E-03 +2.58134194992E-03 +8.46560538678E-03 -2.73922016256E-01 +4.43999089491E-01
4.49500000000E+09 -3.13110728992E-01 +4.31948111371E-01 +4.03405515348E-03 +7.62545300833E-03 +3.99805741035E-03 +7.47012923843E-03 -2.58894326266E-01 +4.57908908471E-01
4.50000000000E+09 -3.04915715534E-01 +4.47239004060E-01 +4.71797315515E-03 +6.71962714829E-03 +4.70641359794E-03 +6.56940411892E-03 -2.45374015635E-01 +4.70926220374E-01
4.50500000000E+09 -2.98239924690E-01 +4.60808084839E-01 +5.34235831947E-03 +5.65128232935E-03 +5.36416747129E-03 +5.56778432033E-03 -2.31839515444E-01 +4.83502849244E-01
4.51000000000E+09 -2.90703961027E-01 +4.72767550054E-01 +5.14714109876E-03 +5.05249148813E-03 +5.16823851804E-03 +4.93418481618E-03 -2.19198561350E-01 +4.97547543479E-01
4.51500000000E+09 -2.81372079507E-01 +4.82028907806E-01 +5.56709681629E-03 +5.09267015448E-03 +5.63313586301E-03 +4.93587542246E-03 -2.04973884651E-01 +5.10929602768E-01
4.52000000000E+09 -2.71209860462E-01 +4.89991969103E-01 +6.56860714772E-03 +4.43488911148E-03 +6.57297952805E-03 +4.21514732854E-03 -1.90580434394E-01 +5.23562127270E-01
4.52500000000E+09 -2.59357794716E-01 +4.98153935787E-01 +6.76394663651E-03 +2.99207030806E-03 +6.68674176245E-03 +2.79611310226E-03 -1.75713281026E-01 +5.33744744212E-01
4.53000000000E+09 -2.45400723454E-01 +5.07590259692E-01 +6.72334792058E-03 +2.87733887988E-03 +6.62737082755E-03 +2.68021050865E-03 -1.62033757966E-01 +5.44173879652E-01
4.53500000000E+09 -2.28904994123E-01 +5.17728921276E-01 +7.10384231814E-03 +2.23425226628E-03 +7.00795662701E-03 +2.04420780458E-03 -1.47064225849E-01 +5.54229285180E-01
4.54000000000E+09 -2.11824192560E-01 +5.28065579651E-01 +7.46729799982E-03 +1.55523760860E-03 +7.34456766644E-03 +1.34012308741E-03 -1.31565598729E-01 +5.65231756243E-01
4.54500000000E+09 -1.95126118387E-01 +5.38686334915E-01 +7.87393401121E-03 +3.97301356379E-04 +7.73950940007E-03 +1.78185118642E-04 -1.14814114244E-01 +5.73886870485E-01
4.55000000000E+09 -1.80255079988E-01 +5.49152386479E-01 +7.80998739316E-03 -8.97136085775E-04 +7.52858345730E-03 -1.03859780415E-03 -9.90628203742E-02 +5.82431025950E-01
4.55500000000E+09 -1.68152339264E-01 +5.59767049608E-01 +7.07929699817E-03 -2.61343696724E-03 +6.82524019744E-03 -2.64727384456E-03 -8.45355809772E-02 +5.89995877751E-01
4.56000000000E+09 -1.57330662991E-01 +5.70823816133E-01 +5.39797959369E-03 -2.69500953909E-03 +5.21330669427E-03 -2.65341581326E-03 -7.09024434913E-02 +5.98946097988E-01
4.56500000000E+09 -1.46747436706E-01 +5.81002343565E-01 +5.15017804830E-03 -2.28220515131E-03 +4.95814279703E-03 -2.29414820106E-03 -5.55089544087E-02 +6.07080027304E-01
4.57000000000E+09 -1.36303713915E-01 +5.89474049868E-01 +5.29316934955E-03 -2.04684039245E-03 +5.07189641038E-03 -2.12253469382E-03 -3.98627496974E-02 +6.13740317398E-01
