# Hz S RI R 50
! CMT, C1220, 16058040, 17.2.0/1
! Date: 15/08/2018 11:43:06
! Data: Format (Calibration Info)
! Freq                      S11: Re/Im (F2)                       S21: Re/Im (F2)                       S12: Re/Im (F2)                       S22: Re/Im (F2)            
4.00000000000E+09 +6.35994166178E-01 -3.36986724073E-01 -2.78677482911E-03 -3.19227197639E-03 -2.73764217748E-03 -3.37733753478E-03 +7.70358086692E-01 -3.52333014260E-01
4.00500000000E+09 +6.26981808147E-01 -3.43307452129E-01 -2.99694314872E-03 -3.05759779809E-03 -2.92790008848E-03 -3.22283593658E-03 +7.61722057804E-01 -3.63703335059E-01
4.01000000000E+09 +6.16736468840E-01 -3.48567514076E-01 -3.46502234760E-03 -2.98093721751E-03 -3.44960288783E-03 -3.20619037556E-03 +7.51975935363E-01 -3.74763166610E-01
4.01500000000E+09 +6.06092868697E-01 -3.53713065526E-01 -3.96531633370E-03 -2.44712018694E-03 -3.88320134804E-03 -2.69375792628E-03 +7.42228140957E-01 -3.84896462517E-01
4.02000000000E+09 +5.94642738277E-01 -3.60137421364E-01 -4.00546625294E-03 -2.27151691421E-03 -3.93696273029E-03 -2.44313201141E-03 +7.32636122368E-01 -3.95196405002E-01
4.02500000000E+09 +5.82049760359E-01 -3.67375275001E-01 -4.71344306243E-03 -2.02132157664E-03 -4.65854303665E-03 -2.23932284740E-03 +7.22298991591E-01 -4.05776177545E-01
4.03000000000E+09 +5.69658350733E-01 -3.75256091166E-01 -5.03274221355E-03 -1.21510816276E-03 -5.14354996535E-03 -1.44199174485E-03 +7.11577461755E-01 -4.16070703070E-01
4.03500000000E+09 +5.56941732546E-01 -3.84558914626E-01 -5.01680929412E-03 -6.08265940515E-04 -5.16316968971E-03 -8.46920111824E-04 +7.00264562370E-01 -4.26869803117E-01
4.04000000000E+09 +5.44101923824E-01 -3.93742314954E-01 -5.29231088417E-03 -7.07370906117E-06 -5.44080458067E-03 -2.48978540915E-04 +6.88449333623E-01 -4.37422399880E-01
4.04500000000E+09 +5.31664603028E-01 -4.03059088243E-01 -4.97138609880E-03 +6.41955821659E-04 -5.18423755524E-03 +4.25662438973E-04 +6.76990564913E-01 -4.47383614022E-01
4.05000000000E+09 +5.18707031734E-01 -4.11450026394E-01 -4.92127128522E-03 +8.24569987855E-04 -5.18102358956E-03 +7.13258300839E-04 +6.65556121986E-01 -4.57762209337E-01
4.05500000000E+09 +5.05047902965E-01 -4.17907351666E-01 -5.08084725617E-03 +1.48574071016E-03 -5.36492821269E-03 +1.43994625031E-03 +6.53038652967E-01 -4.67768069476E-01
4.06000000000E+09 +4.91559337664E-01 -4.22530664949E-01 -4.94071026616E-03 +2.17430685285E-03 -5.15090700804E-03 +2.15346063985E-03 +6.40224775073E-01 -4.76831037008E-01
4.06500000000E+09 +4.77522186164E-01 -4.25950927729E-01 -4.43274940574E-03 +2.83803250851E-03 -4.61836833177E-03 +2.83565506694E-03 +6.26877583357E-01 -4.85938787341E-01
4.07000000000E+09 +4.63195101036E-01 -4.28617802046E-01 -4.04511091483E-03 +3.00828165107E-03 -4.20276740607E-03 +3.00901367132E-03 +6.13048638405E-01 -4.95302593353E-01
4.07500000000E+09 +4.48079214424E-01 -4.31877249157E-01 -3.73197393658E-03 +3.27625608036E-03 -3.85351031189E-03 +3.22180943964E-03 +5.99224423441E-01 -5.04992840495E-01
4.08000000000E+09 +4.31636841592E-01 -4.35499708696E-01 -3.54922915266E-03 +3.38818026280E-03 -3.74938345326E-03 +3.31661815636E-03 +5.84502101440E-01 -5.14837452900E-01
4.08500000000E+09 +4.13953026745E-01 -4.39767739777E-01 -3.52905968234E-03 +3.74865514046E-03 -3.73847225586E-03 +3.73620032794E-03 +5.69804009840E-01 -5.23184649426E-01
4.09000000000E+09 +3.95925032278E-01 -4.43346029373E-01 -3.12253378307E-03 +4.22813229918E-03 -3.38535253281E-03 +4.29409018919E-03 +5.55080478395E-01 -5.30972391200E-01
4.09500000000E+09 +3.78753878117E-01 -4.46872654083E-01 -2.96114235988E-03 +4.56091347283E-03 -3.11258318712E-03 +4.72435555542E-03 +5.40108312295E-01 -5.38339561837E-01
4.10000000000E+09 +3.62077007675E-01 -4.50969850660E-01 -2.40858483364E-03 +4.95834372338E-03 -2.50991348365E-03 +5.04689457504E-03 +5.24685111652E-01 -5.45795016094E-01
4.10500000000E+09 +3.45601913256E-01 -4.54331415368E-01 -1.99640901400E-03 +5.17484496392E-03 -2.06111539434E-03 +5.24839935376E-03 +5.07557760562E-01 -5.53515282289E-01
4.11000000000E+09 +3.28856142849E-01 -4.56434282107E-01 -1.57853153699E-03 +5.51904902911E-03 -1.75501322800E-03 +5.63800857371E-03 +4.89921778158E-01 -5.60284526870E-01
4.11500000000E+09 +3.12413068625E-01 -4.56885565893E-01 -7.75159373338E-04 +5.73818387464E-03 -9.30350332812E-04 +5.83196153866E-03 +4.73116121916E-01 -5.66750847426E-01
4.12000000000E+09 +2.95629505995E-01 -4.56250419484E-01 -4.52858794406E-04 +5.62079387998E-03 -6.08097796203E-04 +5.74591720882E-03 +4.55969655512E-01 -5.73943695661E-01
4.12500000000E+09 +2.78728469914E-01 -4.54456252157E-01 -2.65221967519E-04 +5.84917441498E-03 -3.95766352267E-04 +5.94409007989E-03 +4.38279934681E-01 -5.79996156565E-01
4.13000000000E+09 +2.61706097840E-01 -4.52474076254E-01 +5.09576437244E-04 +6.24876074845E-03 +3.39707729960E-04 +6.40988485569E-03 +4.20019324703E-01 -5.85576114338E-01
4.13500000000E+09 +2.44130429595E-01 -4.51383698132E-01 +1.00289680691E-03 +6.18234801538E-03 +8.13378902859E-04 +6.36001506918E-03 +4.01251831492E-01 -5.90233347013E-01
4.14000000000E+09 +2.25782004683E-01 -4.51300175252E-01 +1.63244833851E-03 +6.64376893208E-03 +1.41304804326E-03 +6.94264473695E-03 +3.81740987338E-01 -5.94448264208E-01
4.14500000000E+09 +2.07077263369E-01 -4.51930714737E-01 +3.00557117606E-03 +6.84572347228E-03 +2.91376109393E-03 +7.16024576821E-03 +3.62398538391E-01 -5.98306056593E-01
4.15000000000E+09 +1.88247895385E-01 -4.53940622003E-01 +3.93798754011E-03 +5.91590423840E-03 +3.93308830739E-03 +6.23233048422E-03 +3.43663766395E-01 -6.03083065279E-01
4.15500000000E+09 +1.68606634212E-01 -4.55002010104E-01 +4.39898627020E-03 +5.35927711978E-03 +4.47314166316E-03 +5.52307758116E-03 +3.23638627927E-01 -6.07542709547E-01
4.16000000000E+09 +1.49871725737E-01 -4.54208992849E-01 +4.80955587007E-03 +4.86473748320E-03 +4.87118607352E-03 +5.07214172424E-03 +3.02835564455E-01 -6.09637246702E-01
4.16500000000E+09 +1.32427518886E-01 -4.51905111695E-01 +4.92669742615E-03 +4.28985968194E-03 +4.96097404159E-03 +4.45633298795E-03 +2.83442179413E-01 -6.10691005051E-01
4.17000000000E+09 +1.16759822668E-01 -4.47396236618E-01 +5.29352592950E-03 +4.44816386018E-03 +5.29659035110E-03 +4.64994011305E-03 +2.62560905947E-01 -6.11443544207E-01
4.17500000000E+09 +1.01826853424E-01 -4.41848868326E-01 +6.25813049510E-03 +4.35352158972E-03 +6.32046779860E-03 +4.58649843978E-03 +2.41223975310E-01 -6.11445377799E-01
4.18000000000E+09 +8.68243574365E-02 -4.35287635265E-01 +7.24042480821E-03 +3.22078825805E-03 +7.42179417492E-03 +3.43278064478E-03 +2.19561790753E-01 -6.11459602482E-01
4.18500000000E+09 +7.05672074976E-02 -4.27653058637E-01 +7.37599281139E-03 +2.23779767112E-03 +7.63327180644E-03 +2.47429246190E-03 +1.96992831995E-01 -6.10584449758E-01
4.19000000000E+09 +5.41606876504E-02 -4.19325048773E-01 +7.66481969008E-03 +1.65428644253E-03 +7.88492357615E-03 +1.84735388406E-03 +1.76105387000E-01 -6.08518120559E-01
4.19500000000E+09 +3.63293155214E-02 -4.10685681029E-01 +7.95542175869E-03 +7.27063876154E-04 +8.18947435923E-03 +9.23651673494E-04 +1.54881751114E-01 -6.06503151718E-01
4.20000000000E+09 +1.85055674941E-02 -4.01690395976E-01 +8.03796493090E-03 -2.23092369578E-04 +8.24938967914E-03 -6.02641854947E-05 +1.32726964281E-01 -6.04538055266E-01
4.20500000000E+09 +1.90871751113E-03 -3.93933193887E-01 +7.91647133601E-03 -1.27262918956E-03 +8.24867301383E-03 -1.13078284695E-03 +1.09418544927E-01 -6.00904877730E-01
4.21000000000E+09 -1.45747324360E-02 -3.86769687230E-01 +7.60270699782E-03 -2.34205597438E-03 +7.96204515091E-03 -2.29344617286E-03 +8.60800532530E-02 -5.95588063267E-01
4.21500000000E+09 -3.02861513190E-02 -3.80163728292E-01 +6.87672171451E-03 -2.43911988208E-03 +7.11619224186E-03 -2.46492665927E-03 +6.42757426028E-02 -5.90252509526E-01
4.22000000000E+09 -4.55887389701E-02 -3.72100732786E-01 +7.20244638419E-03 -2.47545614240E-03 +7.44650440720E-03 -2.47478094649E-03 +4.19701485676E-02 -5.84593238330E-01
4.22500000000E+09 -5.93631063771E-02 -3.62477142709E-01 +7.82905042448E-03 -3.64591999505E-03 +8.09184021873E-03 -3.67529464965E-03 +1.91193371186E-02 -5.78488939967E-01
4.23000000000E+09 -7.20860936897E-02 -3.51235968906E-01 +7.52117064577E-03 -5.30660149382E-03 +7.77026154467E-03 -5.42256885351E-03 -3.63175150361E-03 -5.70300309121E-01
4.23500000000E+09 -8.40097197980E-02 -3.38316689275E-01 +6.36921681337E-03 -6.42349344190E-03 +6.59200407616E-03 -6.54189584052E-03 -2.51206393595E-02 -5.60322533120E-01
4.24000000000E+09 -9.65573427273E-02 -3.24348610181E-01 +5.42230951666E-03 -6.88664749752E-03 +5.58025661598E-03 -7.10731831591E-03 -4.58089467503E-02 -5.50322556005E-01
4.24500000000E+09 -1.09324700909E-01 -3.09723005950E-01 +4.46234147336E-03 -6.83939562153E-03 +4.56697432085E-03 -7.05760275366E-03 -6.63333976570E-02 -5.40652728053E-01
4.25000000000E+09 -1.23557098416E-01 -2.94867171793E-01 +4.36160751689E-03 -7.40486562170E-03 +4.47078685946E-03 -7.59167419323E-03 -8.86021109396E-02 -5.29986508791E-01
4.25500000000E+09 -1.38816993204E-01 -2.81246088171E-01 +3.40903441774E-03 -8.23204310757E-03 +3.49866613663E-03 -8.44103034190E-03 -1.10920575352E-01 -5.17548956093E-01
4.26000000000E+09 -1.55659090838E-01 -2.67784243093E-01 +2.47858856718E-03 -8.41085355406E-03 +2.48779405643E-03 -8.67532535663E-03 -1.31665815445E-01 -5.02940689625E-01
4.26500000000E+09 -1.72844786178E-01 -2.55082570879E-01 +1.71321448518E-03 -8.28834605866E-03 +1.70568491894E-03 -8.47048146332E-03 -1.51003411015E-01 -4.88169905485E-01
4.27000000000E+09 -1.88845570943E-01 -2.42173720998E-01 +1.17528758853E-03 -8.81979747477E-03 +1.17348204052E-03 -8.98854869250E-03 -1.70227486864E-01 -4.73273313967E-01
4.27500000000E+09 -2.03451899418E-01 -2.29267552542E-01 +1.48367573455E-04 -9.06956766005E-03 +9.78805074355E-05 -9.26869043038E-03 -1.90480923968E-01 -4.57266105000E-01
4.28000000000E+09 -2.15331282397E-01 -2.15419158032E-01 -6.47026142641E-04 -9.24382469134E-03 -6.64220557959E-04 -9.34196703531E-03 -2.09805637071E-01 -4.40466932461E-01
4.28500000000E+09 -2.24003908261E-01 -2.01415950800E-01 -1.69339045619E-03 -9.82951235475E-03 -1.74215894870E-03 -9.95511513206E-03 -2.29108151321E-01 -4.23364920477E-01
4.29000000000E+09 -2.31144691044E-01 -1.87668553958E-01 -3.74715118217E-03 -9.80778027854E-03 -3.77413724538E-03 -9.94853111717E-03 -2.46623731764E-01 -4.04660538442E-01
4.29500000000E+09 -2.38517322875E-01 -1.73176516456E-01 -5.20613940564E-03 -8.10188072116E-03 -5.25689581512E-03 -8.21496077937E-03 -2.61490811213E-01 -3.87706324162E-01
4.30000000000E+09 -2.47096694569E-01 -1.56210368469E-01 -5.52168687611E-03 -7.02648258362E-03 -5.61255172485E-03 -7.13401013603E-03 -2.78472203561E-01 -3.70277306237E-01
4.30500000000E+09 -2.55158304382E-01 -1.37276792042E-01 -5.39614397245E-03 -6.20609801152E-03 -5.51077682667E-03 -6.35974338400E-03 -2.95061071037E-01 -3.49328682160E-01
4.31000000000E+09 -2.63508391107E-01 -1.16766559599E-01 -5.19664017685E-03 -6.30574608642E-03 -5.39278572282E-03 -6.42536266666E-03 -3.09883035366E-01 -3.27774751574E-01
4.31500000000E+09 -2.70509353980E-01 -9.68893768828E-02 -5.97882992367E-03 -6.57878749611E-03 -6.11260560764E-03 -6.69792012649E-03 -3.23222166403E-01 -3.05817729138E-01
4.32000000000E+09 -2.77217183566E-01 -7.80596566316E-02 -7.13699205227E-03 -6.37486636735E-03 -7.31943712738E-03 -6.46562473669E-03 -3.35991831291E-01 -2.84622205155E-01
4.32500000000E+09 -2.83071550843E-01 -6.25823046424E-02 -8.81362264690E-03 -5.47739522231E-03 -9.05535485185E-03 -5.49524289942E-03 -3.48600962113E-01 -2.63048260809E-01
4.33000000000E+09 -2.90528718585E-01 -4.78990951966E-02 -8.87290950246E-03 -4.32888604890E-03 -9.08199248022E-03 -4.26386540431E-03 -3.60819602287E-01 -2.39119443132E-01
4.33500000000E+09 -2.96486931287E-01 -3.17872664242E-02 -9.74230850490E-03 -3.37065082131E-03 -9.89791669752E-03 -3.28398014723E-03 -3.70113594156E-01 -2.13815152422E-01
4.34000000000E+09 -2.99421481863E-01 -1.51913123949E-02 -1.02095501670E-02 -1.91054951808E-03 -1.03219218951E-02 -1.87048998042E-03 -3.77519368434E-01 -1.89773890070E-01
4.34500000000E+09 -2.99514738515E-01 +1.44900438724E-03 -9.75093854383E-03 -4.60916826523E-04 -9.76642596883E-03 -3.83039068525E-04 -3.86693220052E-01 -1.67935259090E-01
4.35000000000E+09 -2.98438574791E-01 +1.84459248345E-02 -9.48460797507E-03 +1.19243029816E-05 -9.55074975719E-03 +3.05581814313E-05 -3.96869410113E-01 -1.43174679974E-01
4.35500000000E+09 -2.96558234632E-01 +3.63162834252E-02 -9.82639496729E-03 +6.37744040999E-04 -9.85885720604E-03 +7.37965658915E-04 -4.04510672324E-01 -1.16943042566E-01
4.36000000000E+09 -2.95530680985E-01 +5.51147985478E-02 -9.36424189233E-03 +1.22356537427E-03 -9.42146336432E-03 +1.34592486553E-03 -4.09147420831E-01 -9.20057424531E-02
4.36500000000E+09 -2.94790563955E-01 +7.51122867228E-02 -1.05239195269E-02 +1.51583783146E-03 -1.06308019778E-02 +1.66061463116E-03 -4.12573581512E-01 -6.87845127399E-02
4.37000000000E+09 -2.95220113554E-01 +9.54605769250E-02 -1.13024084975E-02 +3.66393569548E-03 -1.13671557799E-02 +3.87388244284E-03 -4.16166304585E-01 -4.53964179858E-02
4.37500000000E+09 -2.95626549147E-01 +1.15344573105E-01 -1.04426471334E-02 +6.33207932563E-03 -1.04286618294E-02 +6.62806434010E-03 -4.18862044088E-01 -2.10101109524E-02
4.38000000000E+09 -2.97099105314E-01 +1.33578457462E-01 -8.97319047134E-03 +7.21473807630E-03 -9.02224096284E-03 +7.43629208937E-03 -4.20817630646E-01 +5.41530994605E-03
4.38500000000E+09 -2.97808750847E-01 +1.50866104524E-01 -7.60496668774E-03 +8.12734384274E-03 -7.53557875617E-03 +8.36352806238E-03 -4.20140332337E-01 +3.10677859031E-02
4.39000000000E+09 -2.97402591449E-01 +1.66440324449E-01 -6.22442504505E-03 +8.39800661337E-03 -6.13229621290E-03 +8.67324263224E-03 -4.19532022670E-01 +5.49896642165E-02
4.39500000000E+09 -2.95390124479E-01 +1.80300023018E-01 -6.10283845916E-03 +8.27791930565E-03 -5.99674376214E-03 +8.44934840294E-03 -4.19463365192E-01 +7.84767310079E-02
4.40000000000E+09 -2.91555107364E-01 +1.93901819462E-01 -5.35505788962E-03 +9.60449731543E-03 -5.27897427035E-03 +9.77160221319E-03 -4.18493906649E-01 +1.02987136409E-01
4.40500000000E+09 -2.86518069641E-01 +2.06795286130E-01 -4.28031539557E-03 +1.04707931692E-02 -4.16301942797E-03 +1.06244802755E-02 -4.14795686410E-01 +1.27325642410E-01
4.41000000000E+09 -2.80653388907E-01 +2.21163275406E-01 -2.53045515188E-03 +1.03840668059E-02 -2.39142191765E-03 +1.04738558789E-02 -4.09602851428E-01 +1.51438824101E-01
4.41500000000E+09 -2.73507421085E-01 +2.37507113403E-01 -1.94825661541E-03 +1.09535588402E-02 -1.72757275774E-03 +1.10451679878E-02 -4.04071682557E-01 +1.74197621036E-01
4.42000000000E+09 -2.66578545575E-01 +2.54756706631E-01 -7.18847999231E-04 +1.08649164165E-02 -4.87990744855E-04 +1.08664571460E-02 -3.97351355302E-01 +1.97414786166E-01
4.42500000000E+09 -2.59303618986E-01 +2.73052328328E-01 +1.39401236786E-04 +1.15735207943E-02 +3.88557354739E-04 +1.15222183630E-02 -3.91887392910E-01 +2.19060835907E-01
4.43000000000E+09 -2.52805030668E-01 +2.90660378499E-01 +2.52536083859E-03 +1.17516382154E-02 +2.68232959845E-03 +1.16181276769E-02 -3.84663628685E-01 +2.42419884608E-01
4.43500000000E+09 -2.46785478118E-01 +3.07007133804E-01 +3.94313431615E-03 +1.05273076042E-02 +4.01486084928E-03 +1.03909258691E-02 -3.75561017363E-01 +2.63840484554E-01
4.44000000000E+09 -2.42254984575E-01 +3.20703702674E-01 +4.89217457696E-03 +9.17208776296E-03 +4.91056790717E-03 +9.11197775845E-03 -3.66764538902E-01 +2.83132895419E-01
4.44500000000E+09 -2.38746203157E-01 +3.33270587085E-01 +4.95029336958E-03 +8.83014734162E-03 +5.05327957495E-03 +8.73419553740E-03 -3.59085447732E-01 +3.02667050980E-01
4.45000000000E+09 -2.34721180249E-01 +3.44488428462E-01 +5.45273793418E-03 +8.37910439994E-03 +5.66363545209E-03 +8.30840633801E-03 -3.49690121739E-01 +3.22885561396E-01
4.45500000000E+09 -2.28477708743E-01 +3.54816493746E-01 +6.32425250715E-03 +8.78658826260E-03 +6.52591142426E-03 +8.61685551519E-03 -3.39292036311E-01 +3.42324746886E-01
4.46000000000E+09 -2.20802084185E-01 +3.64047217423E-01 +8.01133791793E-03 +7.88715759702E-03 +8.14691690728E-03 +7.65190088624E-03 -3.26294758042E-01 +3.61141036137E-01
4.46500000000E+09 -2.10341031884E-01 +3.74076727350E-01 +8.87383195128E-03 +6.56116198062E-03 +9.00770492738E-03 +6.32666466857E-03 -3.14508610508E-01 +3.77103002170E-01
4.47000000000E+09 -1.98215497271E-01 +3.84056456503E-01 +9.33475823665E-03 +5.40198331822E-03 +9.43843036874E-03 +5.12163197286E-03 -3.03541924220E-01 +3.93757969019E-01
4.47500000000E+09 -1.85163433692E-01 +3.94537260456E-01 +9.41749911749E-03 +4.42127783878E-03 +9.48693812694E-03 +4.13151149736E-03 -2.92420459635E-01 +4.11892261857E-01
4.48000000000E+09 -1.72972844691E-01 +4.05748830799E-01 +1.00156210835E-02 +3.59358200330E-03 +1.00308078388E-02 +3.28873772303E-03 -2.79234322328E-01 +4.28951912010E-01
4.48500000000E+09 -1.62224563378E-01 +4.18523619679E-01 +1.07072728421E-02 +2.77003232375E-03 +1.05948556109E-02 +2.53605274937E-03 -2.65214432199E-01 +4.44217161903E-01
4.49000000000E+09 -1.52594638017E-01 +4.31527839150E-01 +1.10474241774E-02 +4.65781888173E-04 +1.08889197792E-02 +2.65408386189E-04 -2.52205574978E-01 +4.58465435091E-01
4.49500000000E+09 -1.44415399967E-01 +4.44324187874E-01 +9.82550688796E-03 -5.47386651004E-04 +9.67954059401E-03 -6.12001067610E-04 -2.39388225058E-01 +4.73146924316E-01
4.50000000000E+09 -1.37178049168E-01 +4.55362947850E-01 +9.62717921715E-03 -7.16631684093E-04 +9.50699077394E-03 -7.89446313298E-04 -2.24625868297E-01 +4.87146064620E-01
4.50500000000E+09 -1.30544317314E-01 +4.64709106528E-01 +9.74323395409E-03 -1.41856604704E-03 +9.60095213964E-03 -1.46470370401E-03 -2.10521145493E-01 +5.00404744176E-01
4.51000000000E+09 -1.23201311450E-01 +4.71231192199E-01 +1.03223266075E-02 -2.24062970769E-03 +1.01841661037E-02 -2.38026631217E-03 -1.94847084042E-01 +5.12333224504E-01
4.51500000000E+09 -1.15899781463E-01 +4.75974917611E-01 +1.02154188015E-02 -3.74751799318E-03 +1.00252738011E-02 -3.90809232991E-03 -1.81044458306E-01 +5.22839777155E-01
4.52000000000E+09 -1.06926991868E-01 +4.80272592141E-01 +9.88710623296E-03 -5.59898971822E-03 +9.62880334561E-03 -5.73416292680E-03 -1.67796761329E-01 +5.33739650701E-01
4.52500000000E+09 -9.60397910141E-02 +4.84241669678E-01 +8.11828095233E-03 -6.57971903319E-03 +7.86079132075E-03 -6.63149586758E-03 -1.54058302146E-01 +5.44829645250E-01
4.53000000000E+09 -8.32217408976E-02 +4.88945488889E-01 +7.48945970803E-03 -6.88728868344E-03 +7.18487358684E-03 -6.89006954668E-03 -1.38906547101E-01 +5.54407166686E-01
4.53500000000E+09 -6.89463747689E-02 +4.95017259825E-01 +6.66187415802E-03 -7.70658746926E-03 +6.35043506405E-03 -7.70825125561E-03 -1.24471687158E-01 +5.63707190669E-01
4.54000000000E+09 -5.35206464882E-02 +5.01710470142E-01 +5.75060966461E-03 -8.15071139364E-03 +5.45499663985E-03 -8.09234772989E-03 -1.08524859317E-01 +5.72581792585E-01
4.54500000000E+09 -3.90553282851E-02 +5.08829922396E-01 +4.63314178711E-03 -8.42456202261E-03 +4.37624078400E-03 -8.30814244817E-03 -9.42522956679E-02 +5.81531149631E-01
4.55000000000E+09 -2.60362494977E-02 +5.15829073985E-01 +4.27657450757E-03 -8.87551547760E-03 +3.99170413916E-03 -8.69267572605E-03 -7.83721766471E-02 +5.90684314312E-01
4.55500000000E+09 -1.58609565530E-02 +5.23084099590E-01 +2.95038165639E-03 -8.98948920587E-03 +2.75876001936E-03 -8.90502861187E-03 -6.29041357033E-02 +5.99150884525E-01
4.56000000000E+09 -7.30800997714E-03 +5.30984978360E-01 +2.39514108951E-03 -9.19507588525E-03 +2.18348419206E-03 -9.04860427791E-03 -4.75557253933E-02 +6.05387507655E-01
4.56500000000E+09 +1.33013055741E-03 +5.37637635312E-01 +1.59150559921E-03 -9.62233178265E-03 +1.41548281333E-03 -9.49008179742E-03 -3.33209246495E-02 +6.12109177967E-01
4.57000000000E+09 +9.81519895109E-03 +5.42568215373E-01 +3.06773479648E-04 -1.00362059209E-02 +1.88259184132E-04 -9.80983889041E-03 -1.80230726366E-02 +6.18012221010E-01
