# Hz S RI R 50
! CMT, C1220, 16058040, 17.2.0/1
! Date: 15/08/2018 12:11:43
! Data: Format (Calibration Info)
! Freq                      S11: Re/Im (F2)                       S21: Re/Im (F2)                       S12: Re/Im (F2)                       S22: Re/Im (F2)            
4.00000000000E+09 +6.54212991654E-01 -3.56502989034E-01 +1.37854349300E-04 -9.19241315658E-04 +2.43221971806E-04 -9.46129950274E-04 +7.67214673325E-01 -3.21336536880E-01
4.00500000000E+09 +6.45944985837E-01 -3.62807061890E-01 +4.50917364184E-05 -6.70828719033E-04 +1.23803114535E-04 -6.70731364206E-04 +7.58037805300E-01 -3.31864978909E-01
4.01000000000E+09 +6.36904012675E-01 -3.68617478144E-01 +2.52535137270E-04 -6.82251488122E-04 +3.22559506066E-04 -6.92503613738E-04 +7.48486902426E-01 -3.42390463718E-01
4.01500000000E+09 +6.27151393429E-01 -3.75208004964E-01 +1.84826990290E-04 -9.87590983250E-04 +2.38550634455E-04 -9.52813135583E-04 +7.38896193828E-01 -3.52264986101E-01
4.02000000000E+09 +6.16187054817E-01 -3.83375918500E-01 -1.16273196606E-04 -1.09995893883E-03 -3.73313543992E-05 -1.11775197826E-03 +7.28601919242E-01 -3.62552859713E-01
4.02500000000E+09 +6.04382965638E-01 -3.92466221807E-01 -4.80281740387E-04 -9.97740717456E-04 -4.34552620689E-04 -1.10249245648E-03 +7.17737599839E-01 -3.71933426124E-01
4.03000000000E+09 +5.92904732514E-01 -4.02510659759E-01 -5.24912051508E-04 -6.63590136915E-04 -5.40938010709E-04 -7.80493345357E-04 +7.07203848649E-01 -3.81484117799E-01
4.03500000000E+09 +5.81684686279E-01 -4.13718901980E-01 -4.81790244120E-04 -6.69675494897E-04 -4.97286215557E-04 -7.65489116487E-04 +6.95921136306E-01 -3.91448105722E-01
4.04000000000E+09 +5.70457714650E-01 -4.25102417638E-01 -5.63716609810E-04 -4.82025342446E-04 -5.54254462040E-04 -5.87838344709E-04 +6.84709046916E-01 -4.01638159561E-01
4.04500000000E+09 +5.59390765642E-01 -4.35499246564E-01 -4.43949076998E-04 -4.51430138999E-04 -4.27371219783E-04 -4.86176884953E-04 +6.72542021039E-01 -4.11531462429E-01
4.05000000000E+09 +5.48283975861E-01 -4.44260995428E-01 -3.16219561771E-04 -5.92699483870E-04 -3.76709282443E-04 -6.82136263404E-04 +6.60279296090E-01 -4.20244317299E-01
4.05500000000E+09 +5.37181975651E-01 -4.50847993754E-01 -5.82974950732E-04 -7.08060825471E-04 -6.05686634023E-04 -7.51706881179E-04 +6.48038588634E-01 -4.28891661039E-01
4.06000000000E+09 +5.25736951457E-01 -4.55925446689E-01 -6.61324433912E-04 -6.10215174679E-04 -6.84445866054E-04 -6.56387197280E-04 +6.35205321058E-01 -4.37097891107E-01
4.06500000000E+09 +5.13153058115E-01 -4.59847308669E-01 -8.76358120838E-04 -5.09189814821E-04 -9.38712854602E-04 -4.94634736844E-04 +6.21859805436E-01 -4.45079722273E-01
4.07000000000E+09 +4.99846449103E-01 -4.63571313302E-01 -7.89472934493E-04 -2.12873270319E-04 -8.05973860531E-04 -2.02863503874E-04 +6.08053055376E-01 -4.53017898663E-01
4.07500000000E+09 +4.84859985734E-01 -4.68058032179E-01 -6.31430375721E-04 -3.12779819389E-04 -6.46197538471E-04 -3.21998448906E-04 +5.94094418748E-01 -4.61261648503E-01
4.08000000000E+09 +4.67976669488E-01 -4.72851044146E-01 -9.23942264481E-04 -4.09523734347E-04 -9.54320268936E-04 -3.99209034578E-04 +5.80320377781E-01 -4.68878497176E-01
4.08500000000E+09 +4.50673174980E-01 -4.77771545464E-01 -9.77564819506E-04 -5.64314209905E-05 -9.79421130384E-04 -5.96169084594E-05 +5.66277503621E-01 -4.76752842982E-01
4.09000000000E+09 +4.33811234954E-01 -4.84158065383E-01 -7.32600898430E-04 -2.09877057630E-04 -7.15688725623E-04 -2.11549883375E-04 +5.51582686091E-01 -4.83291079290E-01
4.09500000000E+09 +4.16728488542E-01 -4.91214155892E-01 -1.05597287916E-03 -1.69328151868E-04 -1.08348353379E-03 -2.38113908612E-04 +5.37371801113E-01 -4.89589168121E-01
4.10000000000E+09 +3.98941332057E-01 -4.97937163436E-01 -1.05574752432E-03 +3.85919886083E-05 -1.06590672150E-03 +1.77154839603E-05 +5.21444929020E-01 -4.95957467542E-01
4.10500000000E+09 +3.81591613941E-01 -5.02369690981E-01 -1.18331334336E-03 +2.02915317063E-04 -1.19539283346E-03 +1.52330998313E-04 +5.05381434406E-01 -5.01632034787E-01
4.11000000000E+09 +3.65230764014E-01 -5.05011715253E-01 -1.17155138610E-03 +5.52288805296E-04 -1.19304992154E-03 +5.25367186592E-04 +4.88860016462E-01 -5.07587406390E-01
4.11500000000E+09 +3.49787439799E-01 -5.05973823549E-01 -5.94323711749E-04 +6.76122555531E-04 -6.07670957002E-04 +6.61456243291E-04 +4.71841050311E-01 -5.12730968470E-01
4.12000000000E+09 +3.34182614287E-01 -5.06086683487E-01 -8.01715112069E-04 +1.62264333378E-04 -7.98879690677E-04 +1.64170228453E-04 +4.55642685583E-01 -5.17856080755E-01
4.12500000000E+09 +3.17957459471E-01 -5.06321187009E-01 -1.06811533603E-03 +4.19357744149E-04 -1.11455341720E-03 +3.77934535695E-04 +4.38131001976E-01 -5.22480430381E-01
4.13000000000E+09 +3.00001183911E-01 -5.07239266619E-01 -1.09206368050E-03 +7.20532190186E-04 -1.15894861536E-03 +7.07933646767E-04 +4.21254898722E-01 -5.25608752863E-01
4.13500000000E+09 +2.79797880535E-01 -5.08318869190E-01 -9.58128715144E-04 +8.74881933270E-04 -9.91817284502E-04 +8.65780891959E-04 +4.03946835440E-01 -5.29189220091E-01
4.14000000000E+09 +2.59390399855E-01 -5.09494488858E-01 -6.88983000601E-04 +1.33046143492E-03 -8.01581265353E-04 +1.36899705255E-03 +3.85396912979E-01 -5.32102130239E-01
4.14500000000E+09 +2.38607403372E-01 -5.12149881800E-01 -1.32575492032E-04 +1.13660597644E-03 -1.33229544971E-04 +1.18302543972E-03 +3.67152205213E-01 -5.34806051202E-01
4.15000000000E+09 +2.17978139327E-01 -5.15581954552E-01 -7.39643529466E-05 +6.79965841978E-04 -7.46151473879E-05 +7.19235591072E-04 +3.48738922914E-01 -5.37236493815E-01
4.15500000000E+09 +1.97330181324E-01 -5.19019721891E-01 -5.67614510516E-04 +7.38637678323E-04 -5.72314083165E-04 +7.46352152436E-04 +3.30379045008E-01 -5.38517657613E-01
4.16000000000E+09 +1.77826453206E-01 -5.20681639440E-01 -4.14198464168E-04 +9.96425913222E-04 -4.13639080096E-04 +1.03785364342E-03 +3.12476462594E-01 -5.39210106863E-01
4.16500000000E+09 +1.60195617497E-01 -5.21019696587E-01 -2.73494788779E-04 +1.14001412635E-03 -3.01831218140E-04 +1.17569726630E-03 +2.93932416761E-01 -5.39036718994E-01
4.17000000000E+09 +1.43544416429E-01 -5.19277013950E-01 -5.78988373428E-05 +1.40486492269E-03 -1.01718215957E-04 +1.43067931045E-03 +2.75264934572E-01 -5.38000025315E-01
4.17500000000E+09 +1.28150866929E-01 -5.15868699305E-01 +1.99277466166E-04 +9.73333746929E-04 +1.62606784764E-04 +9.92013723729E-04 +2.56570003484E-01 -5.36605419045E-01
4.18000000000E+09 +1.12728289930E-01 -5.11202392620E-01 +2.12238658362E-05 +1.11124987450E-03 +6.93619810074E-05 +1.19290485453E-03 +2.37210231068E-01 -5.35050247275E-01
4.18500000000E+09 +9.64035026732E-02 -5.05934147085E-01 +1.46556698444E-04 +1.24019816284E-03 +1.80249180610E-04 +1.28462823997E-03 +2.18093919931E-01 -5.32881183002E-01
4.19000000000E+09 +7.88678969598E-02 -4.99889146890E-01 +4.53713341156E-04 +1.05872898613E-03 +4.50137833980E-04 +1.14477134898E-03 +1.98841358722E-01 -5.30325862603E-01
4.19500000000E+09 +6.02656349134E-02 -4.93676078445E-01 +1.83304527274E-04 +1.12710761237E-03 +2.40178047917E-04 +1.11558248746E-03 +1.79934830564E-01 -5.26881292283E-01
4.20000000000E+09 +4.12325355264E-02 -4.87539803670E-01 +4.74979516052E-04 +1.38011156903E-03 +4.91749595576E-04 +1.46925766970E-03 +1.60577190967E-01 -5.23394152895E-01
4.20500000000E+09 +2.21930365585E-02 -4.82328127416E-01 +1.00602773628E-03 +1.16393345266E-03 +1.01834650057E-03 +1.26052579164E-03 +1.40730985838E-01 -5.17965912086E-01
4.21000000000E+09 +3.56399204701E-03 -4.77156641623E-01 +7.11129985832E-04 +8.83770000641E-04 +6.74035925003E-04 +8.81008515621E-04 +1.21392773727E-01 -5.12483045414E-01
4.21500000000E+09 -1.50404648521E-02 -4.71932221879E-01 +8.80677208016E-04 +1.14935224873E-03 +8.69508348968E-04 +1.23048930708E-03 +1.02098027125E-01 -5.06542580640E-01
4.22000000000E+09 -3.24057113800E-02 -4.64381334326E-01 +1.34364490133E-03 +1.08480179341E-03 +1.39770276999E-03 +1.10950259229E-03 +8.35179695664E-02 -4.99563867431E-01
4.22500000000E+09 -4.77444191606E-02 -4.55471673005E-01 +1.24763238993E-03 +4.69063128890E-04 +1.27431841575E-03 +5.31059035436E-04 +6.51582668805E-02 -4.93064579539E-01
4.23000000000E+09 -6.26230681261E-02 -4.45078917377E-01 +1.29479528838E-03 +5.39207926614E-04 +1.28122595210E-03 +5.60614968307E-04 +4.62952904393E-02 -4.85663699155E-01
4.23500000000E+09 -7.64958696758E-02 -4.32596783695E-01 +1.00194525977E-03 +5.64135214487E-04 +1.03897423820E-03 +5.00907904771E-04 +2.79603075521E-02 -4.76527641043E-01
4.24000000000E+09 -9.03873929385E-02 -4.20094458640E-01 +1.35687554819E-03 +8.91288114908E-04 +1.39910713891E-03 +8.60854455934E-04 +9.97227187523E-03 -4.67333878392E-01
4.24500000000E+09 -1.07300186728E-01 -4.08181432362E-01 +2.11568391867E-03 +6.55037525989E-04 +2.19013797457E-03 +6.68774154054E-04 -8.31224560970E-03 -4.56888380853E-01
4.25000000000E+09 -1.26651361432E-01 -3.94281954194E-01 +2.19761238380E-03 -2.61477233065E-04 +2.20336836102E-03 -2.73524445269E-04 -2.54458607361E-02 -4.45909304370E-01
4.25500000000E+09 -1.46194386227E-01 -3.79491835620E-01 +1.79953716548E-03 -5.71365816442E-04 +1.76919491450E-03 -5.99184938098E-04 -4.29666665362E-02 -4.35032708417E-01
4.26000000000E+09 -1.65019163561E-01 -3.66144816532E-01 +1.50466548942E-03 -7.12966315497E-04 +1.53811884278E-03 -7.32722897385E-04 -6.03684262017E-02 -4.22038945226E-01
4.26500000000E+09 -1.83859305074E-01 -3.52813256194E-01 +1.33188180225E-03 -7.04634303253E-04 +1.36143891247E-03 -7.26009569431E-04 -7.56624020522E-02 -4.09071498177E-01
4.27000000000E+09 -2.00262657000E-01 -3.40924029984E-01 +1.38303714459E-03 -7.06237786789E-04 +1.40284756552E-03 -8.02765410770E-04 -9.20113824217E-02 -3.96091120086E-01
4.27500000000E+09 -2.15418519342E-01 -3.29384601540E-01 +1.35597438155E-03 -7.45330541124E-04 +1.35601224312E-03 -7.69685682536E-04 -1.08124494839E-01 -3.81728955884E-01
4.28000000000E+09 -2.29126465555E-01 -3.16853786532E-01 +1.47173205229E-03 -1.04610575425E-03 +1.47909591708E-03 -1.06805740041E-03 -1.23217848831E-01 -3.67720502959E-01
4.28500000000E+09 -2.41120198461E-01 -3.02470222130E-01 +1.23742945805E-03 -1.30886474747E-03 +1.28509529456E-03 -1.27496212649E-03 -1.39052897362E-01 -3.53339250939E-01
4.29000000000E+09 -2.50701434589E-01 -2.86003737837E-01 +1.29875524912E-03 -1.54685752669E-03 +1.28969974045E-03 -1.57613761290E-03 -1.54190211946E-01 -3.38215691472E-01
4.29500000000E+09 -2.60101089011E-01 -2.68432812626E-01 +7.88879425385E-04 -2.06634613235E-03 +8.46196406615E-04 -2.10437332705E-03 -1.68421133454E-01 -3.21938337987E-01
4.30000000000E+09 -2.69464922229E-01 -2.49369576737E-01 +2.65123360387E-04 -1.71124939364E-03 +2.83501801910E-04 -1.75051384046E-03 -1.80823908276E-01 -3.05170975372E-01
4.30500000000E+09 -2.80000159528E-01 -2.29733107895E-01 +9.90235630934E-05 -1.67407630879E-03 +6.46240372895E-05 -1.67205813230E-03 -1.92752965421E-01 -2.88272387874E-01
4.31000000000E+09 -2.92326161046E-01 -2.09757323924E-01 +1.28704697316E-04 -1.66247219222E-03 +1.75718963004E-04 -1.69488294123E-03 -2.03810494560E-01 -2.71111254365E-01
4.31500000000E+09 -3.05149345329E-01 -1.89905976684E-01 -2.17925942198E-04 -1.52513941449E-03 -2.38692164567E-04 -1.55147410173E-03 -2.14649434148E-01 -2.53941147385E-01
4.32000000000E+09 -3.17952288303E-01 -1.70426103967E-01 -1.54190696055E-04 -1.41608563064E-03 -1.96477675361E-04 -1.47645046094E-03 -2.25841475722E-01 -2.36009316240E-01
4.32500000000E+09 -3.28831575039E-01 -1.52555543464E-01 -1.07628680707E-04 -1.47317558505E-03 -1.34957948859E-04 -1.44991112665E-03 -2.35210375146E-01 -2.17417609578E-01
4.33000000000E+09 -3.38119390671E-01 -1.36335911609E-01 -5.14465767841E-04 -1.62291884788E-03 -5.35204706934E-04 -1.64587816968E-03 -2.44883461298E-01 -1.99255666033E-01
4.33500000000E+09 -3.45539092464E-01 -1.20128094462E-01 -5.25996338371E-04 -1.32393569944E-03 -5.26709468278E-04 -1.31900437076E-03 -2.53975395342E-01 -1.79212838450E-01
4.34000000000E+09 -3.49614875325E-01 -1.04423351147E-01 -7.17607782306E-04 -1.52838854399E-03 -7.09382812348E-04 -1.53221478390E-03 -2.61194174135E-01 -1.58984098221E-01
4.34500000000E+09 -3.51803707318E-01 -8.81086166663E-02 -1.02077249457E-03 -1.26430623396E-03 -9.89102942390E-04 -1.25963052710E-03 -2.68557900815E-01 -1.39216529258E-01
4.35000000000E+09 -3.53202767760E-01 -7.07398766946E-02 -8.47822135391E-04 -1.00129595568E-03 -9.73617078824E-04 -1.01917702213E-03 -2.75378072123E-01 -1.19191306370E-01
4.35500000000E+09 -3.54717231684E-01 -5.07607258845E-02 -8.33132699405E-04 -1.12902995852E-03 -8.82059364166E-04 -1.09558746194E-03 -2.81208856136E-01 -9.92846470338E-02
4.36000000000E+09 -3.56175382216E-01 -2.88072994159E-02 -1.17752606550E-03 -1.47568084142E-03 -1.14017910625E-03 -1.50811201408E-03 -2.86637705975E-01 -7.98432650367E-02
4.36500000000E+09 -3.58247465347E-01 -5.98455403495E-03 -1.57199642317E-03 -9.37393603283E-04 -1.55935739803E-03 -9.87724138134E-04 -2.90706473539E-01 -5.97573364489E-02
4.37000000000E+09 -3.61157512722E-01 +1.70837825270E-02 -1.61940910106E-03 -8.79024798091E-04 -1.63044482883E-03 -8.55217777151E-04 -2.93531508678E-01 -4.07445462796E-02
4.37500000000E+09 -3.64657010508E-01 +3.82253981140E-02 -1.73279780889E-03 -4.09252230562E-04 -1.73480243591E-03 -3.99275549743E-04 -2.96923229907E-01 -2.04073756867E-02
4.38000000000E+09 -3.69542323490E-01 +5.77337435457E-02 -1.64137901103E-03 -2.43415109356E-04 -1.66913351435E-03 -1.94048551824E-04 -2.98415969140E-01 +6.49935989049E-04
4.38500000000E+09 -3.73586432764E-01 +7.54429454205E-02 -1.56375512902E-03 -9.87979806448E-07 -1.52649899605E-03 +1.46271409115E-05 -2.99226213678E-01 +2.07597625389E-02
4.39000000000E+09 -3.77138001445E-01 +9.12265274952E-02 -1.33430398680E-03 -8.49343920482E-05 -1.35495999339E-03 -3.36356176195E-05 -2.99872647914E-01 +4.14343193780E-02
4.39500000000E+09 -3.77712031572E-01 +1.06127296351E-01 -1.49301161287E-03 -4.66558600769E-05 -1.49304989708E-03 -5.72911459309E-05 -3.00260418018E-01 +6.04212201392E-02
4.40000000000E+09 -3.75643836203E-01 +1.20357786118E-01 -1.81407839305E-03 -1.00189490442E-04 -1.82114603017E-03 -5.78610100516E-05 -3.00182604003E-01 +8.04571040451E-02
4.40500000000E+09 -3.71812285753E-01 +1.34355340885E-01 -2.03446223171E-03 +5.71861234884E-04 -1.99576415476E-03 +6.16781951997E-04 -2.98496595899E-01 +1.00000636669E-01
4.41000000000E+09 -3.67296598296E-01 +1.50749799618E-01 -1.63347487834E-03 +1.18813454567E-03 -1.65742809266E-03 +1.20302263920E-03 -2.96427719637E-01 +1.19295039982E-01
4.41500000000E+09 -3.60580964625E-01 +1.69632121324E-01 -1.06843503773E-03 +1.18223602448E-03 -1.04797258895E-03 +1.15346796437E-03 -2.92930365586E-01 +1.39045020000E-01
4.42000000000E+09 -3.53872624372E-01 +1.89710526859E-01 -8.53924089773E-04 +1.13324327866E-03 -7.86783603828E-04 +1.16809000710E-03 -2.88496861361E-01 +1.58679113453E-01
4.42500000000E+09 -3.47289830102E-01 +2.10801925633E-01 -6.69874951788E-04 +4.97740729338E-04 -6.61901648702E-04 +5.76393576398E-04 -2.84030347085E-01 +1.77143297749E-01
4.43000000000E+09 -3.42531372118E-01 +2.31118513254E-01 -1.36360729658E-03 +6.09716288148E-04 -1.25516882382E-03 +6.65300677405E-04 -2.79631791962E-01 +1.95462650068E-01
4.43500000000E+09 -3.39313603621E-01 +2.50707478593E-01 -1.36624317282E-03 +1.27661930500E-03 -1.31845158321E-03 +1.27573015819E-03 -2.75785140554E-01 +2.13481416923E-01
4.44000000000E+09 -3.37350841251E-01 +2.69581739196E-01 -1.00527875123E-03 +1.50583883898E-03 -9.75959815102E-04 +1.47848917403E-03 -2.70763522526E-01 +2.32716061388E-01
4.44500000000E+09 -3.33882453296E-01 +2.86261386323E-01 -4.96065293144E-04 +1.91459306679E-03 -4.87134599869E-04 +1.84902407198E-03 -2.63247423553E-01 +2.50434441441E-01
4.45000000000E+09 -3.29698908477E-01 +2.99738146034E-01 -1.98632534084E-05 +1.45115957560E-03 +5.12194474384E-05 +1.49047738825E-03 -2.55957226553E-01 +2.66755350693E-01
4.45500000000E+09 -3.24293931607E-01 +3.11908369954E-01 -1.63975279506E-04 +1.18832714944E-03 -1.22212471126E-04 +1.23958188495E-03 -2.47794211776E-01 +2.83130686585E-01
4.46000000000E+09 -3.16630998466E-01 +3.22644715538E-01 -5.42620637883E-05 +1.15346163560E-03 -2.50682234689E-05 +1.15598046112E-03 -2.39596201234E-01 +2.98506630771E-01
4.46500000000E+09 -3.08486243760E-01 +3.33871910238E-01 -5.36811020257E-05 +1.37923942209E-03 -3.16011638250E-05 +1.38327969490E-03 -2.31168402524E-01 +3.13948275335E-01
4.47000000000E+09 -2.98287053384E-01 +3.48195272029E-01 +2.66747806152E-04 +9.30682825989E-04 +2.92212468870E-04 +8.91213511016E-04 -2.22313725971E-01 +3.29206709192E-01
4.47500000000E+09 -2.85745498807E-01 +3.64160150287E-01 -2.28722478733E-04 +1.16871656233E-03 -2.59856062839E-04 +1.20954365472E-03 -2.13740322557E-01 +3.43777443145E-01
4.48000000000E+09 -2.72808240250E-01 +3.80360923431E-01 +5.83102577847E-05 +1.48265476676E-03 +6.20762986264E-05 +1.44943419057E-03 -2.04603349733E-01 +3.58765430598E-01
4.48500000000E+09 -2.61141607563E-01 +3.97036962402E-01 +3.32975140000E-04 +1.68642835553E-03 +3.81811119405E-04 +1.69122384511E-03 -1.94582537941E-01 +3.72660891059E-01
4.49000000000E+09 -2.51618542953E-01 +4.12756238218E-01 +9.70859586721E-04 +1.61064845658E-03 +9.32589888165E-04 +1.55068907254E-03 -1.84426881995E-01 +3.85900161046E-01
4.49500000000E+09 -2.44843431592E-01 +4.28133936555E-01 +1.25975604267E-03 +8.26818857291E-04 +1.25414917857E-03 +7.52324398205E-04 -1.74318428700E-01 +3.98708933746E-01
4.50000000000E+09 -2.39403723286E-01 +4.43065924026E-01 +7.19168394311E-04 +7.10614192309E-04 +7.02115662005E-04 +6.65663286394E-04 -1.63684723863E-01 +4.11241668686E-01
4.50500000000E+09 -2.33545122470E-01 +4.55182099747E-01 +6.45259758212E-04 +4.62401979138E-04 +5.90366430855E-04 +4.66972518082E-04 -1.53194700876E-01 +4.23402911860E-01
4.51000000000E+09 -2.28020362558E-01 +4.64580156057E-01 +1.85465535380E-04 +9.22163954761E-04 +2.27804922502E-04 +8.88383242883E-04 -1.42175701815E-01 +4.35035274404E-01
4.51500000000E+09 -2.20717552056E-01 +4.72810260473E-01 +5.45870760305E-04 +1.56747762842E-03 +5.79565996387E-04 +1.49307959328E-03 -1.31823700209E-01 +4.46232310095E-01
4.52000000000E+09 -2.11531246054E-01 +4.79721820171E-01 +1.44120586883E-03 +1.40278869756E-03 +1.41817622781E-03 +1.30716956352E-03 -1.21146801178E-01 +4.57363668806E-01
4.52500000000E+09 -2.00087479712E-01 +4.86465750864E-01 +1.61775314870E-03 +8.25187831545E-04 +1.57393203418E-03 +8.30429249536E-04 -1.09531077736E-01 +4.68205516399E-01
4.53000000000E+09 -1.87118715067E-01 +4.94048095558E-01 +1.83930261605E-03 +1.74041624810E-04 +1.76618021877E-03 +1.08772168465E-04 -9.76044836372E-02 +4.77475442993E-01
4.53500000000E+09 -1.72649172932E-01 +5.03305192446E-01 +1.16068826820E-03 +1.12925165970E-04 +1.15316507806E-03 +4.42787480491E-05 -8.53806596126E-02 +4.87104508642E-01
4.54000000000E+09 -1.57644026974E-01 +5.13352441296E-01 +1.34174771048E-03 +3.07285645359E-04 +1.29968683815E-03 +2.40051336816E-04 -7.26222108902E-02 +4.96087080963E-01
4.54500000000E+09 -1.43261140028E-01 +5.23984476238E-01 +1.42690157453E-03 +3.20933619835E-05 +1.36753859489E-03 +3.39276682441E-05 -6.07884505071E-02 +5.04443578302E-01
4.55000000000E+09 -1.31123784301E-01 +5.34433165253E-01 +1.35309068048E-03 -2.37527377395E-04 +1.33031802471E-03 -2.20079863331E-04 -4.83340078498E-02 +5.13322181677E-01
4.55500000000E+09 -1.20700627172E-01 +5.45009671324E-01 +1.17423616061E-03 -1.29651171656E-04 +1.10191995384E-03 -1.38375474575E-04 -3.66515340559E-02 +5.21525757652E-01
4.56000000000E+09 -1.11431805151E-01 +5.53723064515E-01 +1.32193778421E-03 -8.14220913745E-05 +1.33441096250E-03 -1.36452120434E-04 -2.38815756730E-02 +5.29376406305E-01
4.56500000000E+09 -1.03295712295E-01 +5.60723045756E-01 +1.74400368724E-03 -4.45804587770E-04 +1.72475639228E-03 -4.35150772606E-04 -1.18770100670E-02 +5.35947684539E-01
4.57000000000E+09 -9.53733425228E-02 +5.66077440745E-01 +1.45177216022E-03 -1.21415041471E-03 +1.38898210547E-03 -1.19974159690E-03 +2.92459363982E-05 +5.42837645563E-01
