# Hz S RI R 50
! CMT, C1220, 16058040, 17.2.0/1
! Date: 15/08/2018 12:40:59
! Data: Format (Calibration Info)
! Freq                      S11: Re/Im (F2)                       S21: Re/Im (F2)                       S12: Re/Im (F2)                       S22: Re/Im (F2)            
4.00000000000E+09 +6.56033107718E-01 -3.59157632070E-01 +7.11376953840E-04 -8.79777266838E-04 +6.63223175834E-04 -8.99305442820E-04 +7.86246674748E-01 -3.13344963526E-01
4.00500000000E+09 +6.47567313457E-01 -3.64714397720E-01 +5.02393621235E-04 -1.03879286888E-03 +5.33895167443E-04 -1.05283264391E-03 +7.77938080156E-01 -3.24545510900E-01
4.01000000000E+09 +6.38688216990E-01 -3.70149146491E-01 +2.95820560357E-04 -1.24154150690E-03 +2.82566721817E-04 -1.23816688710E-03 +7.69420652612E-01 -3.36485233465E-01
4.01500000000E+09 +6.28708205628E-01 -3.76501141806E-01 -6.90066180059E-05 -1.00135708768E-03 -7.24449773646E-05 -1.06477382908E-03 +7.60898794311E-01 -3.47551131693E-01
4.02000000000E+09 +6.18845581825E-01 -3.83815390316E-01 +7.05066970764E-05 -9.72808361757E-04 +4.07964637363E-05 -1.00044098510E-03 +7.52287275072E-01 -3.58423858767E-01
4.02500000000E+09 +6.08250403901E-01 -3.92845226508E-01 -3.82212913537E-05 -9.77965087065E-04 -8.56330525370E-06 -1.01624703637E-03 +7.42850550930E-01 -3.69296907105E-01
4.03000000000E+09 +5.97364160754E-01 -4.03091699141E-01 -1.04846223983E-04 -9.97357943321E-04 -1.37966946630E-04 -1.04849698298E-03 +7.32346184186E-01 -3.80060504216E-01
4.03500000000E+09 +5.85620217639E-01 -4.13479011149E-01 -2.11892728173E-04 -1.00501905414E-03 -1.69838342315E-04 -1.02138226266E-03 +7.21288482038E-01 -3.90915039732E-01
4.04000000000E+09 +5.74163527285E-01 -4.23227283940E-01 -3.22275242707E-04 -9.53014613064E-04 -2.94689954034E-04 -9.88607894027E-04 +7.10066113421E-01 -4.02173713379E-01
4.04500000000E+09 +5.63563650209E-01 -4.32546073595E-01 -4.03256034223E-04 -8.70653963802E-04 -3.14350662540E-04 -9.15838819365E-04 +6.98917351650E-01 -4.12899780887E-01
4.05000000000E+09 +5.51979504806E-01 -4.40742074886E-01 -3.93240773169E-04 -9.26480672577E-04 -3.46069497693E-04 -9.39495542770E-04 +6.88442914603E-01 -4.23377839513E-01
4.05500000000E+09 +5.40051955379E-01 -4.46753160748E-01 -4.19920628004E-04 -9.22429382270E-04 -3.64880041614E-04 -9.75574084927E-04 +6.77053562812E-01 -4.33085014293E-01
4.06000000000E+09 +5.28294942293E-01 -4.51547741608E-01 -6.19424789766E-04 -1.07639861879E-03 -5.75840327895E-04 -1.18236320587E-03 +6.65936404976E-01 -4.42189148380E-01
4.06500000000E+09 +5.15070323173E-01 -4.55502612434E-01 -8.62403867444E-04 -8.20656978994E-04 -8.61712761140E-04 -9.38954370906E-04 +6.53742009160E-01 -4.51762912426E-01
4.07000000000E+09 +5.01716990701E-01 -4.59180813885E-01 -7.92988993306E-04 -6.21280502161E-04 -7.55865436678E-04 -6.71139226361E-04 +6.40720462533E-01 -4.61569244962E-01
4.07500000000E+09 +4.87512393397E-01 -4.63915974778E-01 -7.67275707769E-04 -7.74393844506E-04 -7.49997098426E-04 -8.09956504671E-04 +6.27299586073E-01 -4.72204770953E-01
4.08000000000E+09 +4.72021722025E-01 -4.69025148595E-01 -1.10438790008E-03 -6.44248529551E-04 -1.09112016633E-03 -7.07800483390E-04 +6.13930431178E-01 -4.82072847801E-01
4.08500000000E+09 +4.55846811264E-01 -4.75353587481E-01 -9.46028784313E-04 -4.18038478614E-04 -8.95197697537E-04 -5.07699963821E-04 +6.00802867149E-01 -4.92117170464E-01
4.09000000000E+09 +4.39040913950E-01 -4.81888825247E-01 -1.06954817027E-03 -6.18558331669E-04 -1.13507393848E-03 -6.76393094868E-04 +5.86815900804E-01 -5.00888243833E-01
4.09500000000E+09 +4.22439336374E-01 -4.88170515337E-01 -1.41325540281E-03 -2.59465480499E-04 -1.46179607886E-03 -3.19442482235E-04 +5.72534429295E-01 -5.09107670219E-01
4.10000000000E+09 +4.05882046389E-01 -4.93846722676E-01 -1.09116860480E-03 +1.38920241144E-04 -1.16674084769E-03 +1.28760217870E-04 +5.57233193987E-01 -5.16776400172E-01
4.10500000000E+09 +3.89417382230E-01 -4.98393276152E-01 -9.73877672029E-04 -5.37994673595E-05 -1.04535097685E-03 -5.93942699838E-05 +5.41856790190E-01 -5.24913010900E-01
4.11000000000E+09 +3.73068107301E-01 -5.00310013617E-01 -1.18812755440E-03 +8.94251397593E-05 -1.23763272817E-03 +1.05435318074E-04 +5.25479841659E-01 -5.33573273569E-01
4.11500000000E+09 +3.58132462432E-01 -5.01630783161E-01 -8.73885220420E-04 +2.67565174477E-04 -9.60493235798E-04 +3.15028101865E-04 +5.09407875119E-01 -5.41675366914E-01
4.12000000000E+09 +3.42316274742E-01 -5.02453754670E-01 -9.77176900218E-04 +1.79076195685E-04 -1.02037273928E-03 +1.65985246862E-04 +4.92903620359E-01 -5.49862403120E-01
4.12500000000E+09 +3.25644558201E-01 -5.03194358837E-01 -8.82426239885E-04 +2.99118541483E-04 -9.12351626659E-04 +3.74405048054E-04 +4.75827277949E-01 -5.56409669693E-01
4.13000000000E+09 +3.08406412859E-01 -5.04049696916E-01 -7.42657782235E-04 +3.83093019323E-04 -8.39556828712E-04 +4.16694644066E-04 +4.58403666337E-01 -5.62417256312E-01
4.13500000000E+09 +2.89890560890E-01 -5.06605224801E-01 -4.53533633256E-04 +3.32355003138E-04 -4.76041797638E-04 +3.56503453996E-04 +4.40190810309E-01 -5.67744762074E-01
4.14000000000E+09 +2.69761993084E-01 -5.09217921259E-01 -7.36104639224E-04 -1.73314053519E-04 -7.15999905099E-04 -1.46700538660E-04 +4.22151372107E-01 -5.73558942143E-01
4.14500000000E+09 +2.49887304106E-01 -5.11567061909E-01 -1.24556922832E-03 +3.76763501660E-05 -1.19613791771E-03 +8.35193017928E-05 +4.03126292283E-01 -5.79681920753E-01
4.15000000000E+09 +2.31012300338E-01 -5.15054821965E-01 -1.21759078258E-03 +5.83706168340E-04 -1.22366046278E-03 +5.39129759350E-04 +3.85118845000E-01 -5.84755703950E-01
4.15500000000E+09 +2.11498441666E-01 -5.18139757835E-01 -1.00740258580E-03 +7.58635198272E-04 -9.98192147568E-04 +7.40544368261E-04 +3.67098509579E-01 -5.89998074537E-01
4.16000000000E+09 +1.93084322129E-01 -5.18578630228E-01 -9.09182032704E-04 +7.27809666753E-04 -8.89623024204E-04 +7.81306843897E-04 +3.48171062290E-01 -5.93646818626E-01
4.16500000000E+09 +1.76452599773E-01 -5.18728985394E-01 -7.29938353369E-04 +7.37871919821E-04 -7.64731423785E-04 +7.22275592925E-04 +3.29074266819E-01 -5.96576226562E-01
4.17000000000E+09 +1.59579673561E-01 -5.16767015894E-01 -7.47094471593E-04 +7.66273964197E-04 -7.65830771873E-04 +7.09184579022E-04 +3.08641127389E-01 -5.99214533779E-01
4.17500000000E+09 +1.43340909452E-01 -5.12707959555E-01 -7.43676004362E-04 +5.13437801821E-04 -7.70576891829E-04 +4.57599362152E-04 +2.87413072811E-01 -6.01125788498E-01
4.18000000000E+09 +1.26972064456E-01 -5.07732163645E-01 -1.10717960466E-03 +1.03322924255E-03 -1.11546616959E-03 +1.02670584346E-03 +2.66484087245E-01 -6.02826800348E-01
4.18500000000E+09 +1.10571476154E-01 -5.02314465920E-01 -6.63110868384E-04 +1.18667501592E-03 -7.51073241318E-04 +1.17196619050E-03 +2.45396491069E-01 -6.04727475190E-01
4.19000000000E+09 +9.24148469717E-02 -4.97666726748E-01 -6.86956933511E-04 +1.24684450839E-03 -7.12037074288E-04 +1.29571546931E-03 +2.24036039783E-01 -6.04986225952E-01
4.19500000000E+09 +7.35817229770E-02 -4.92071204499E-01 -6.50779583934E-04 +1.36653127196E-03 -6.70046494409E-04 +1.41205816537E-03 +2.03111318046E-01 -6.04064972069E-01
4.20000000000E+09 +5.51695526424E-02 -4.87855149669E-01 -1.60570997394E-04 +1.75157318918E-03 -2.71742822076E-04 +1.77888849812E-03 +1.81034176420E-01 -6.02356557915E-01
4.20500000000E+09 +3.59361624824E-02 -4.83952715043E-01 +2.54632224154E-04 +1.41947343530E-03 +1.57262661778E-04 +1.51362499200E-03 +1.59316731741E-01 -5.99440729500E-01
4.21000000000E+09 +1.76890986524E-02 -4.79428183048E-01 -3.30061785968E-06 +8.65885171842E-04 -4.54689531637E-05 +1.00719681785E-03 +1.37055602597E-01 -5.98041036404E-01
4.21500000000E+09 +1.51824505154E-04 -4.74162918931E-01 -7.39752803419E-05 +1.29477131546E-03 -1.18191514767E-04 +1.44338856782E-03 +1.13716886401E-01 -5.95549938704E-01
4.22000000000E+09 -1.58652435275E-02 -4.67031525406E-01 +1.87561477278E-04 +1.32610141909E-03 +2.30532450383E-04 +1.41696750037E-03 +9.13841195296E-02 -5.91994307946E-01
4.22500000000E+09 -3.08792639438E-02 -4.58460534747E-01 +2.10291627013E-05 +1.11016638917E-03 +3.87624365261E-05 +1.22108200539E-03 +6.94446310392E-02 -5.87313382883E-01
4.23000000000E+09 -4.50870312663E-02 -4.47285098010E-01 +1.72060736764E-04 +1.49733444919E-03 +2.43967802797E-04 +1.54055234345E-03 +4.78485621564E-02 -5.80660237504E-01
4.23500000000E+09 -5.86476086806E-02 -4.36090185211E-01 +4.59916388684E-04 +1.34784741997E-03 +4.79612113926E-04 +1.44682674372E-03 +2.64473888784E-02 -5.73841219137E-01
4.24000000000E+09 -7.44369856836E-02 -4.24397156420E-01 +4.01599241222E-04 +1.41288404725E-03 +4.95239410454E-04 +1.45499890560E-03 +4.47489676241E-03 -5.65727336115E-01
4.24500000000E+09 -9.20408032127E-02 -4.11514159154E-01 +7.77353366833E-04 +1.25807081940E-03 +9.17626232049E-04 +1.29468898786E-03 -1.71121074029E-02 -5.57690424225E-01
4.25000000000E+09 -1.11197176630E-01 -3.98453016057E-01 +4.27110987596E-04 +1.27142134093E-03 +5.34463641128E-04 +1.22759386222E-03 -3.90761952423E-02 -5.49593203823E-01
4.25500000000E+09 -1.31132455091E-01 -3.85658472298E-01 +7.51502334578E-04 +1.57126819627E-03 +7.85379125817E-04 +1.50090071160E-03 -6.04326386728E-02 -5.40699241084E-01
4.26000000000E+09 -1.51658331105E-01 -3.73471458392E-01 +1.09692821624E-03 +1.37871684717E-03 +1.12787979923E-03 +1.33532628412E-03 -8.18198517728E-02 -5.30849085565E-01
4.26500000000E+09 -1.70683141445E-01 -3.61115057074E-01 +8.21350071876E-04 +1.53349199101E-03 +8.36023018238E-04 +1.48321015600E-03 -1.03203069625E-01 -5.19457469177E-01
4.27000000000E+09 -1.87821287113E-01 -3.49970937504E-01 +1.53307788867E-03 +1.63973478812E-03 +1.52740399284E-03 +1.61536420106E-03 -1.24903028200E-01 -5.06095840694E-01
4.27500000000E+09 -2.03924244727E-01 -3.38602553144E-01 +1.76089021375E-03 +1.28880118380E-03 +1.72068981792E-03 +1.19188326706E-03 -1.46203845466E-01 -4.92183686591E-01
4.28000000000E+09 -2.17142539261E-01 -3.25532826180E-01 +1.80591424346E-03 +1.22192058098E-03 +1.77002932330E-03 +1.19274439863E-03 -1.67432995328E-01 -4.78039649051E-01
4.28500000000E+09 -2.29056459216E-01 -3.11418826064E-01 +2.21271010093E-03 +1.17430268815E-03 +2.13156549053E-03 +1.15824923350E-03 -1.88167784142E-01 -4.63114400252E-01
4.29000000000E+09 -2.39637722088E-01 -2.95641330069E-01 +2.57891899306E-03 +4.17055458731E-04 +2.52921370395E-03 +4.38453348099E-04 -2.07402037742E-01 -4.48192078647E-01
4.29500000000E+09 -2.51038526953E-01 -2.78164140007E-01 +2.00043678477E-03 +1.57667907968E-04 +1.97510106152E-03 +2.06491091865E-04 -2.26804536959E-01 -4.32210068613E-01
4.30000000000E+09 -2.62384715040E-01 -2.58203488014E-01 +2.31432764106E-03 +3.85314154007E-04 +2.31460065634E-03 +4.43421988705E-04 -2.43978788363E-01 -4.14480673966E-01
4.30500000000E+09 -2.73679574652E-01 -2.38232176486E-01 +2.55107090127E-03 -2.24132441973E-04 +2.62618098580E-03 -1.89967147951E-04 -2.61922084716E-01 -3.96784662629E-01
4.31000000000E+09 -2.86721055287E-01 -2.18721001624E-01 +2.03573440023E-03 -1.96817602718E-04 +2.10724104120E-03 -1.08630419854E-04 -2.78903782160E-01 -3.76999682719E-01
4.31500000000E+09 -2.99958670745E-01 -1.99684799994E-01 +2.61951687228E-03 -1.19434158710E-04 +2.74664260540E-03 -3.36794766482E-05 -2.95361336380E-01 -3.57667322386E-01
4.32000000000E+09 -3.13320793463E-01 -1.82193971213E-01 +3.11597080639E-03 -1.07835183550E-03 +3.17046936716E-03 -9.79511945276E-04 -3.11220634443E-01 -3.37486435474E-01
4.32500000000E+09 -3.25378821114E-01 -1.65701366912E-01 +2.22079252762E-03 -1.69030176890E-03 +2.26856656224E-03 -1.66197825484E-03 -3.25687476645E-01 -3.16131314171E-01
4.33000000000E+09 -3.35904488701E-01 -1.50368100887E-01 +2.29831050593E-03 -1.32036969995E-03 +2.32086572518E-03 -1.35222668968E-03 -3.38753154870E-01 -2.94535249333E-01
4.33500000000E+09 -3.43522830877E-01 -1.33603502216E-01 +2.35608306691E-03 -1.92341158409E-03 +2.44206108480E-03 -1.96365631828E-03 -3.51316535401E-01 -2.71985329433E-01
4.34000000000E+09 -3.47019052271E-01 -1.17600635239E-01 +1.75615098799E-03 -2.53128172611E-03 +1.90340734334E-03 -2.54012305510E-03 -3.63683108441E-01 -2.49229770777E-01
4.34500000000E+09 -3.49423448079E-01 -1.01317994334E-01 +1.28027733298E-03 -2.17207922876E-03 +1.33700038176E-03 -2.26999919839E-03 -3.75802296031E-01 -2.24719211165E-01
4.35000000000E+09 -3.50260422897E-01 -8.28243027930E-02 +1.45993345801E-03 -2.16410526379E-03 +1.47458597147E-03 -2.26623259766E-03 -3.86161017910E-01 -2.01721182849E-01
4.35500000000E+09 -3.51555502191E-01 -6.33389728977E-02 +1.22691544121E-03 -2.52802680076E-03 +1.24893003250E-03 -2.60486192087E-03 -3.96442353850E-01 -1.79266934750E-01
4.36000000000E+09 -3.54070084919E-01 -4.14345922943E-02 +9.20995607439E-04 -2.43722441401E-03 +9.66518441204E-04 -2.52894484821E-03 -4.06101117599E-01 -1.55745686809E-01
4.36500000000E+09 -3.57424376293E-01 -1.81573121611E-02 +1.20469411574E-03 -2.71766973086E-03 +1.17207011711E-03 -2.82286877935E-03 -4.13780075410E-01 -1.30816242354E-01
4.37000000000E+09 -3.61948742255E-01 +5.90605782555E-03 +8.36896418886E-04 -3.20287686228E-03 +7.91984689103E-04 -3.29432946835E-03 -4.19661875276E-01 -1.06089601759E-01
4.37500000000E+09 -3.65968066243E-01 +2.87443761113E-02 +3.11987619914E-04 -3.65874724839E-03 +1.92774072784E-04 -3.77754172588E-03 -4.25075853623E-01 -7.98830544916E-02
4.38000000000E+09 -3.70654450599E-01 +4.85134363189E-02 -3.84908103989E-04 -3.39247581193E-03 -5.31227498514E-04 -3.50129079935E-03 -4.28572368122E-01 -5.44120950409E-02
4.38500000000E+09 -3.75285446842E-01 +6.68482553925E-02 -7.07541359323E-04 -3.29629392905E-03 -8.00453765543E-04 -3.32531614802E-03 -4.31587499125E-01 -2.95931822136E-02
4.39000000000E+09 -3.78398616519E-01 +8.30996332499E-02 -1.02713594970E-03 -3.34128353069E-03 -1.16356678951E-03 -3.35585337417E-03 -4.34357084182E-01 -4.44458523749E-03
4.39500000000E+09 -3.79460911958E-01 +9.76703768402E-02 -1.55841920509E-03 -2.91421156735E-03 -1.70395386842E-03 -2.89642769303E-03 -4.34862204695E-01 +1.95813334964E-02
4.40000000000E+09 -3.78682404401E-01 +1.13079773801E-01 -1.41653297245E-03 -2.90550184875E-03 -1.50145470594E-03 -2.84999706552E-03 -4.35243923116E-01 +4.40631519562E-02
4.40500000000E+09 -3.74783605075E-01 +1.29392992835E-01 -2.12900401451E-03 -3.01580376743E-03 -2.22445267133E-03 -2.93978209418E-03 -4.34296054717E-01 +6.83969491184E-02
4.41000000000E+09 -3.69453208039E-01 +1.45981905809E-01 -2.12037576015E-03 -2.57572486539E-03 -2.15638249567E-03 -2.48915607829E-03 -4.32695121208E-01 +9.33586016631E-02
4.41500000000E+09 -3.64067600190E-01 +1.64882909141E-01 -2.74204282516E-03 -2.65978269920E-03 -2.78264648502E-03 -2.56748224110E-03 -4.29778428516E-01 +1.17512609977E-01
4.42000000000E+09 -3.58494563261E-01 +1.85580874724E-01 -2.94954693192E-03 -2.19474736918E-03 -2.91675735808E-03 -2.06179856828E-03 -4.27279865549E-01 +1.41364413879E-01
4.42500000000E+09 -3.53905762485E-01 +2.07688308066E-01 -3.39588052934E-03 -2.19015593486E-03 -3.32833273480E-03 -2.12129674159E-03 -4.22241907210E-01 +1.65963573651E-01
4.43000000000E+09 -3.49787857591E-01 +2.28765617901E-01 -4.06627195703E-03 -1.76469717039E-03 -4.01643533006E-03 -1.76735077178E-03 -4.16870913852E-01 +1.87799272535E-01
4.43500000000E+09 -3.48292024894E-01 +2.49223096024E-01 -4.27457933740E-03 -4.63183091075E-04 -4.21358290309E-03 -4.30536349158E-04 -4.10798582202E-01 +2.10830866748E-01
4.44000000000E+09 -3.46312718687E-01 +2.68934717633E-01 -3.84853000519E-03 -3.40887273290E-04 -3.78020214750E-03 -4.01395060397E-04 -4.03955358338E-01 +2.32759056061E-01
4.44500000000E+09 -3.43507668388E-01 +2.85121911033E-01 -3.85751481611E-03 +3.41729854794E-04 -3.79508010787E-03 +2.54051476504E-04 -3.97043430432E-01 +2.54070982621E-01
4.45000000000E+09 -3.40843773410E-01 +2.99136381347E-01 -3.62219833982E-03 +3.90751317334E-04 -3.59333467034E-03 +3.50401222039E-04 -3.89922343290E-01 +2.75372349881E-01
4.45500000000E+09 -3.35814045454E-01 +3.12067733416E-01 -3.83821658290E-03 +6.30488890393E-04 -3.80718905184E-03 +6.20779133137E-04 -3.82304289599E-01 +2.96215930754E-01
4.46000000000E+09 -3.29814884312E-01 +3.23517112960E-01 -3.76973916423E-03 +1.32504696632E-03 -3.77402144393E-03 +1.34545455350E-03 -3.72313938088E-01 +3.16397568077E-01
4.46500000000E+09 -3.21174639284E-01 +3.37063728651E-01 -3.54924719411E-03 +1.72345981663E-03 -3.55864577209E-03 +1.75311410576E-03 -3.62422648947E-01 +3.35427531985E-01
4.47000000000E+09 -3.10462632527E-01 +3.50907476312E-01 -3.48439238020E-03 +1.97430387094E-03 -3.47360309106E-03 +2.08439224713E-03 -3.50202086983E-01 +3.55029289035E-01
4.47500000000E+09 -2.98983721288E-01 +3.67284872632E-01 -3.32043223415E-03 +2.53932057473E-03 -3.29636709657E-03 +2.60179994099E-03 -3.38659158462E-01 +3.72582993556E-01
4.48000000000E+09 -2.86406128431E-01 +3.83529385654E-01 -2.88173684431E-03 +3.12317948711E-03 -2.85747615529E-03 +3.19124294460E-03 -3.27005405110E-01 +3.91155363649E-01
4.48500000000E+09 -2.76172500134E-01 +4.00680917323E-01 -2.36853446502E-03 +3.27096252308E-03 -2.27734691898E-03 +3.34727574443E-03 -3.15241758611E-01 +4.07456451750E-01
4.49000000000E+09 -2.66718249325E-01 +4.18096976422E-01 -1.96208650020E-03 +3.64791196252E-03 -1.89763116568E-03 +3.65583901490E-03 -3.04072070522E-01 +4.23751547177E-01
4.49500000000E+09 -2.58700866101E-01 +4.33682230938E-01 -1.44431895832E-03 +3.58325257160E-03 -1.39455049392E-03 +3.61481331424E-03 -2.92191896874E-01 +4.39269499689E-01
4.50000000000E+09 -2.52382387921E-01 +4.48186391129E-01 -1.11203088465E-03 +3.83111496067E-03 -1.06857658661E-03 +3.81008780970E-03 -2.79723433132E-01 +4.54180439202E-01
4.50500000000E+09 -2.46005615725E-01 +4.60162161288E-01 -7.72702216786E-04 +3.66086176768E-03 -6.89953949881E-04 +3.67704343269E-03 -2.66229362795E-01 +4.69476380184E-01
4.51000000000E+09 -2.39003650403E-01 +4.70087026490E-01 -6.95570175024E-04 +3.96824856195E-03 -6.74642701753E-04 +3.99326215921E-03 -2.52189614394E-01 +4.83589564773E-01
4.51500000000E+09 -2.30223613490E-01 +4.78130922988E-01 +1.58217858192E-04 +4.40205659806E-03 +2.53710795917E-04 +4.36304150593E-03 -2.39095020298E-01 +4.97419655414E-01
4.52000000000E+09 -2.19801647055E-01 +4.85041945001E-01 +9.35077553114E-04 +3.90765061753E-03 +1.03805680859E-03 +3.83928651298E-03 -2.25469384271E-01 +5.10661604495E-01
4.52500000000E+09 -2.07302463671E-01 +4.92287624810E-01 +9.76222406953E-04 +3.82931654963E-03 +1.02178352370E-03 +3.76136665492E-03 -2.11730600355E-01 +5.22701460607E-01
4.53000000000E+09 -1.93254847006E-01 +5.00595766871E-01 +1.59853770865E-03 +3.71194593952E-03 +1.71271786984E-03 +3.64518872143E-03 -1.97633092736E-01 +5.33861892767E-01
4.53500000000E+09 -1.77321641294E-01 +5.10627582506E-01 +1.93608549780E-03 +3.19029841383E-03 +2.00332014143E-03 +3.02405506144E-03 -1.82958803505E-01 +5.44394973588E-01
4.54000000000E+09 -1.61133685126E-01 +5.21123870182E-01 +2.12492625211E-03 +3.13510932619E-03 +2.18497810287E-03 +2.92120213989E-03 -1.68375514727E-01 +5.54986525872E-01
4.54500000000E+09 -1.46083140430E-01 +5.32332452250E-01 +2.64482456323E-03 +2.75683532112E-03 +2.68896763302E-03 +2.54146728628E-03 -1.53428400888E-01 +5.65987933182E-01
4.55000000000E+09 -1.32764918601E-01 +5.42831539997E-01 +2.47577354574E-03 +2.43923107089E-03 +2.45916688753E-03 +2.25945167242E-03 -1.38368998894E-01 +5.76516901596E-01
4.55500000000E+09 -1.22485455436E-01 +5.53029463281E-01 +2.89685689327E-03 +2.32226225616E-03 +2.85650430037E-03 +2.15032504509E-03 -1.23733129601E-01 +5.86150065657E-01
4.56000000000E+09 -1.13561051783E-01 +5.62994986090E-01 +3.19100826782E-03 +1.92799001585E-03 +3.11478602730E-03 +1.81908604020E-03 -1.09547945716E-01 +5.94734070243E-01
4.56500000000E+09 -1.05030084434E-01 +5.71212360678E-01 +3.37219209551E-03 +1.45409882752E-03 +3.25365841957E-03 +1.37890288311E-03 -9.48007890289E-02 +6.03462561610E-01
4.57000000000E+09 -9.54627238872E-02 +5.77483340139E-01 +3.38573039428E-03 +1.22131857492E-03 +3.27079810975E-03 +1.08958649915E-03 -7.92034316407E-02 +6.10777564760E-01
