# Hz S RI R 50
! CMT, C1220, 16058040, 17.2.0/1
! Date: 15/08/2018 12:28:42
! Data: Format (Calibration Info)
! Freq                      S11: Re/Im (F2)                       S21: Re/Im (F2)                       S12: Re/Im (F2)                       S22: Re/Im (F2)            
4.00000000000E+09 +6.61671263194E-01 -3.60335524072E-01 -6.43079862738E-05 -3.98395536587E-04 -2.35556261884E-05 -4.80389725399E-04 +7.82308200522E-01 -3.17161430158E-01
4.00500000000E+09 +6.53672742664E-01 -3.66700509303E-01 +1.14725045349E-05 -4.33873213839E-04 +1.29812871678E-05 -4.17602639966E-04 +7.73923982232E-01 -3.28698733107E-01
4.01000000000E+09 +6.44961970466E-01 -3.72886783620E-01 -2.39607166881E-04 -5.71107368310E-04 -2.45717037932E-04 -5.81099947791E-04 +7.65072382390E-01 -3.40445717441E-01
4.01500000000E+09 +6.35871591581E-01 -3.79298224945E-01 -2.59935203688E-04 -3.22626008938E-04 -3.29447348656E-04 -3.34294822824E-04 +7.56454771973E-01 -3.51215361377E-01
4.02000000000E+09 +6.25891773552E-01 -3.87596776868E-01 -1.88265848431E-04 -3.39968565817E-04 -2.01134251645E-04 -3.85104842472E-04 +7.47547858901E-01 -3.61757257685E-01
4.02500000000E+09 +6.15016728328E-01 -3.96991052724E-01 -2.69770146840E-04 -3.38608820049E-04 -2.49571336036E-04 -3.58797307600E-04 +7.38024758575E-01 -3.71785144855E-01
4.03000000000E+09 +6.03281604256E-01 -4.07217718517E-01 -3.43618186030E-04 -4.08029785899E-04 -3.48127018923E-04 -4.30293622436E-04 +7.28278106714E-01 -3.81880515899E-01
4.03500000000E+09 +5.91786748904E-01 -4.16889215533E-01 -4.72818346078E-04 -3.81291561258E-04 -4.46261628007E-04 -3.61560339641E-04 +7.17366984978E-01 -3.92757474556E-01
4.04000000000E+09 +5.80932359017E-01 -4.27260581387E-01 -5.94707120636E-04 -1.81403810268E-04 -6.20859384764E-04 -2.48707215102E-04 +7.06785642791E-01 -4.03985547541E-01
4.04500000000E+09 +5.69081323242E-01 -4.37317139684E-01 -5.00526683107E-04 -2.76896108746E-05 -4.75317908123E-04 -3.23739514496E-05 +6.96252854658E-01 -4.15041610517E-01
4.05000000000E+09 +5.57449792654E-01 -4.44872484539E-01 -4.54862415696E-04 +2.75311308976E-06 -4.96710984494E-04 -1.88520208663E-06 +6.85399699074E-01 -4.25830113642E-01
4.05500000000E+09 +5.45690442660E-01 -4.51624846984E-01 -3.32319859606E-04 +1.48266775058E-04 -3.89031464801E-04 +1.17157326215E-04 +6.74085249573E-01 -4.35543098930E-01
4.06000000000E+09 +5.32713381367E-01 -4.56782665623E-01 -3.04716551870E-04 +5.18202508065E-06 -3.48924951060E-04 +1.74954623949E-05 +6.62741059380E-01 -4.44687924372E-01
4.06500000000E+09 +5.20025356262E-01 -4.60382641565E-01 -3.70598440973E-04 +7.52218591872E-08 -3.63515722756E-04 -1.82626182076E-05 +6.50434140363E-01 -4.53634116938E-01
4.07000000000E+09 +5.06614330387E-01 -4.65245133748E-01 -3.79865724665E-04 +4.87787475480E-05 -3.78419874523E-04 -1.05176643835E-05 +6.37526800969E-01 -4.63618129922E-01
4.07500000000E+09 +4.91429775099E-01 -4.70402870301E-01 -4.43421184744E-04 +4.42329662713E-05 -4.35639671690E-04 +7.36701466865E-07 +6.23934312861E-01 -4.73890847645E-01
4.08000000000E+09 +4.75247327243E-01 -4.76201661803E-01 -3.66940734717E-04 +2.09063378873E-04 -4.11347717523E-04 +1.27446241796E-04 +6.10426936355E-01 -4.83544183213E-01
4.08500000000E+09 +4.57996070376E-01 -4.82153478369E-01 -4.36325130874E-04 +1.48025392898E-04 -4.32444786000E-04 +9.88828468683E-05 +5.97426312747E-01 -4.93157483128E-01
4.09000000000E+09 +4.41232911895E-01 -4.88307066654E-01 -3.51987749390E-04 +1.80766928766E-04 -4.05185141592E-04 +1.33285424344E-04 +5.83838938872E-01 -5.02004006929E-01
4.09500000000E+09 +4.24986847152E-01 -4.95160992724E-01 -2.75872938719E-04 +7.68271037497E-05 -3.24928889253E-04 +4.39233009610E-05 +5.69606373598E-01 -5.09740228332E-01
4.10000000000E+09 +4.07617764853E-01 -5.01222196144E-01 -4.60541339520E-04 +8.21632857099E-05 -4.87756364597E-04 +1.07788538289E-04 +5.54824759613E-01 -5.17628129008E-01
4.10500000000E+09 +3.91168374738E-01 -5.05275144012E-01 -4.84090502225E-04 +2.08719290433E-04 -5.23039094710E-04 +1.97934651820E-04 +5.39075378822E-01 -5.25289409531E-01
4.11000000000E+09 +3.75485116622E-01 -5.08528700118E-01 -3.80084479627E-04 +3.36329317953E-04 -4.32823484865E-04 +3.47166545549E-04 +5.23152037793E-01 -5.33319512158E-01
4.11500000000E+09 +3.58945883301E-01 -5.10166621918E-01 -3.96599028904E-04 +3.33817812400E-04 -4.70185263534E-04 +3.40747409291E-04 +5.07075803893E-01 -5.41233199780E-01
4.12000000000E+09 +3.42405198216E-01 -5.10446265594E-01 -3.91843205195E-04 +4.51584639747E-04 -4.20595433124E-04 +4.67051974299E-04 +4.91348334187E-01 -5.48647214856E-01
4.12500000000E+09 +3.25936564158E-01 -5.10649450005E-01 -4.43683177477E-04 +5.46626162752E-04 -3.91316945983E-04 +5.30904251634E-04 +4.75021995756E-01 -5.55546674573E-01
4.13000000000E+09 +3.07830689803E-01 -5.12462437932E-01 -2.84142532138E-04 +4.62670744661E-04 -2.97878072025E-04 +4.86824467518E-04 +4.58235565483E-01 -5.62350751844E-01
4.13500000000E+09 +2.88040604796E-01 -5.13906759282E-01 -4.25637498572E-04 +5.91264626959E-04 -4.29100281423E-04 +6.63594873917E-04 +4.39932606455E-01 -5.68487917937E-01
4.14000000000E+09 +2.68601255403E-01 -5.15952214664E-01 -3.02712549502E-04 +7.39362096384E-04 -3.34404204197E-04 +7.77869371771E-04 +4.21069197788E-01 -5.74347418184E-01
4.14500000000E+09 +2.48686577552E-01 -5.19639129909E-01 -2.63964299859E-04 +9.40562606821E-04 -2.86638049309E-04 +9.67853380635E-04 +4.02110154580E-01 -5.79767408587E-01
4.15000000000E+09 +2.28606660582E-01 -5.22882692586E-01 +1.90192917874E-05 +1.08288418886E-03 -3.10273440672E-06 +1.19501706021E-03 +3.84299659143E-01 -5.85173715244E-01
4.15500000000E+09 +2.09411897369E-01 -5.25905518893E-01 +2.55952478275E-04 +1.07325182847E-03 +2.38063660531E-04 +1.05846661803E-03 +3.65895344851E-01 -5.90091541367E-01
4.16000000000E+09 +1.91173652706E-01 -5.27968875693E-01 +5.72279391894E-04 +9.91340477182E-04 +5.67302261653E-04 +1.07606548387E-03 +3.47491174573E-01 -5.93343708894E-01
4.16500000000E+09 +1.72928439959E-01 -5.27674221248E-01 +7.31811724326E-04 +5.24482274787E-04 +7.09256076438E-04 +5.96556289877E-04 +3.28098277101E-01 -5.96733818611E-01
4.17000000000E+09 +1.56144839568E-01 -5.24663878240E-01 +4.33286696781E-04 +7.61352511822E-04 +4.72502006666E-04 +7.58177644322E-04 +3.07838461345E-01 -5.98964810978E-01
4.17500000000E+09 +1.41103390875E-01 -5.19810480532E-01 +9.39448195533E-04 +7.92227653076E-04 +9.27751900877E-04 +7.25169883201E-04 +2.86515162712E-01 -6.00694664992E-01
4.18000000000E+09 +1.25671485606E-01 -5.15739882553E-01 +9.11786249627E-04 +1.70281373008E-04 +9.21841613129E-04 +1.24808964180E-04 +2.65956832891E-01 -6.02320863738E-01
4.18500000000E+09 +1.07841712643E-01 -5.10500066082E-01 +4.93657205667E-04 +4.23116696281E-04 +5.19534255847E-04 +5.08655255479E-04 +2.45041262772E-01 -6.03505992143E-01
4.19000000000E+09 +8.93525303133E-02 -5.04431313977E-01 +1.06555358553E-03 +5.56903316772E-04 +1.08519717553E-03 +5.96100944469E-04 +2.24822688190E-01 -6.03592030783E-01
4.19500000000E+09 +6.96908605231E-02 -4.98908434802E-01 +1.07481809543E-03 -1.19609632406E-04 +1.08323531985E-03 -1.54789934789E-04 +2.03932423179E-01 -6.02733552794E-01
4.20000000000E+09 +4.95579876437E-02 -4.92618597810E-01 +7.02057075343E-04 -1.18387659806E-04 +6.90924603385E-04 -7.96802176949E-05 +1.83090811988E-01 -6.01259235254E-01
4.20500000000E+09 +3.05264623192E-02 -4.87169695790E-01 +1.02064164406E-03 -3.06043371408E-05 +1.04950886162E-03 -3.51353747727E-05 +1.60617864240E-01 -5.99470996352E-01
4.21000000000E+09 +1.21157573300E-02 -4.82063881750E-01 +8.16527431936E-04 -5.02961368631E-04 +8.72873690998E-04 -5.15303994694E-04 +1.37962264483E-01 -5.96778994009E-01
4.21500000000E+09 -5.55211933009E-03 -4.76499201871E-01 +5.43293667817E-04 -2.71005732548E-04 +5.75807142967E-04 -2.56739150880E-04 +1.16175402650E-01 -5.94470416233E-01
4.22000000000E+09 -2.20614797401E-02 -4.69519429917E-01 +6.60878479693E-04 -2.90633239545E-04 +6.67397883487E-04 -3.22993462245E-04 +9.42109556638E-02 -5.91940813335E-01
4.22500000000E+09 -3.71449869065E-02 -4.60398432913E-01 +8.30745391798E-04 -3.34681194547E-04 +8.36892127487E-04 -3.71792762090E-04 +7.19861834316E-02 -5.87558304651E-01
4.23000000000E+09 -5.12755495373E-02 -4.50923354904E-01 +5.58892321658E-04 -9.84324232885E-04 +5.86879779133E-04 -9.82486318600E-04 +5.08130872899E-02 -5.81978012012E-01
4.23500000000E+09 -6.69905130776E-02 -4.39184248968E-01 -1.72425494207E-05 -6.02912623298E-04 -9.56809094325E-05 -5.64397797947E-04 +2.83555886334E-02 -5.75195582718E-01
4.24000000000E+09 -8.28611916378E-02 -4.25039247714E-01 +2.21681690085E-04 -8.01444769565E-06 +2.50866259972E-04 +2.89598246271E-06 +5.83939691138E-03 -5.67111636834E-01
4.24500000000E+09 -9.91004788225E-02 -4.11625852828E-01 +7.44139803280E-04 -3.70462157032E-04 +7.59442006746E-04 -3.67239648045E-04 -1.72243436392E-02 -5.58657964263E-01
4.25000000000E+09 -1.17797560365E-01 -3.97813888533E-01 +3.90637758361E-04 -8.58735940432E-04 +4.29406232759E-04 -8.96924289644E-04 -3.97677378895E-02 -5.49093512884E-01
4.25500000000E+09 -1.36940387424E-01 -3.84717504891E-01 +2.02783928421E-04 -3.27149124937E-04 +2.76907431730E-04 -3.09606166503E-04 -6.05323808607E-02 -5.39083520566E-01
4.26000000000E+09 -1.56723025151E-01 -3.72582123668E-01 +6.76511493406E-04 -7.26523685605E-04 +6.74615070476E-04 -7.18129920659E-04 -8.12988974470E-02 -5.28017604870E-01
4.26500000000E+09 -1.76874294758E-01 -3.60652110248E-01 +2.80013174327E-04 -1.10892673854E-03 +2.81663856876E-04 -1.15381992493E-03 -1.00722574838E-01 -5.16135517099E-01
4.27000000000E+09 -1.94416968818E-01 -3.47992512777E-01 -1.44374130653E-04 -8.71581037566E-04 -2.19940902048E-04 -8.97657948195E-04 -1.21824725902E-01 -5.03816625063E-01
4.27500000000E+09 -2.09540167859E-01 -3.35887957627E-01 -1.33773644716E-06 -8.93070486635E-04 -1.83228184965E-06 -9.25083198432E-04 -1.42929842832E-01 -4.89033218563E-01
4.28000000000E+09 -2.22334534462E-01 -3.22848106270E-01 -5.28756175630E-04 -8.58177661170E-04 -5.47410364744E-04 -8.68902014024E-04 -1.62874033928E-01 -4.74503681480E-01
4.28500000000E+09 -2.33051855254E-01 -3.08999254037E-01 -3.47859534645E-04 -3.45987421812E-04 -3.27059453486E-04 -3.49002301894E-04 -1.82903875004E-01 -4.60457111470E-01
4.29000000000E+09 -2.43142749609E-01 -2.93232079801E-01 -2.82360698792E-04 -3.72511573900E-04 -3.24146803432E-04 -3.53389719144E-04 -2.01899103475E-01 -4.45365055208E-01
4.29500000000E+09 -2.52690279101E-01 -2.75830548033E-01 +7.26576262751E-05 -3.32907143726E-04 +2.34092618202E-05 -3.58464383790E-04 -2.19832080238E-01 -4.29868816581E-01
4.30000000000E+09 -2.63163234194E-01 -2.56742960341E-01 +4.31259028242E-05 -8.43887802246E-04 -2.45453632438E-06 -8.74093652549E-04 -2.37093008323E-01 -4.13277280335E-01
4.30500000000E+09 -2.74790930609E-01 -2.36729348556E-01 -7.37596676502E-04 -1.05065715106E-03 -8.12938796094E-04 -1.07202525084E-03 -2.54072464216E-01 -3.95198675513E-01
4.31000000000E+09 -2.86896009437E-01 -2.15743817993E-01 -1.05921448515E-03 -2.74137860602E-04 -1.13798617371E-03 -2.61885984514E-04 -2.70614530584E-01 -3.77137424316E-01
4.31500000000E+09 -2.99799732668E-01 -1.96134257678E-01 -8.11643102077E-04 -5.04064030668E-05 -8.72954101019E-04 +5.92700843756E-05 -2.87484781777E-01 -3.57449948965E-01
4.32000000000E+09 -3.12373952233E-01 -1.77313974634E-01 -4.75382248754E-04 +3.66499994413E-04 -5.59128082838E-04 +4.20281621563E-04 -3.02253456745E-01 -3.37355234708E-01
4.32500000000E+09 -3.24170310407E-01 -1.59829284398E-01 -3.84335675918E-05 -4.15539651638E-05 -3.00271940420E-05 -1.88927747176E-05 -3.17475255508E-01 -3.17374866001E-01
4.33000000000E+09 -3.33395190354E-01 -1.43605240543E-01 -4.46650995709E-04 -1.56588953386E-04 -4.85517162600E-04 -1.03024858725E-04 -3.30496723844E-01 -2.95091856654E-01
4.33500000000E+09 -3.40988894564E-01 -1.28803387465E-01 -4.72729860560E-05 +8.65450505144E-05 -9.13100150963E-05 +1.00437747267E-04 -3.42857625773E-01 -2.73427347686E-01
4.34000000000E+09 -3.46608202608E-01 -1.12520742335E-01 -1.75881003083E-04 -4.23428017511E-04 -1.31132629297E-04 -4.05477586336E-04 -3.54865788940E-01 -2.49851032051E-01
4.34500000000E+09 -3.48997335458E-01 -9.52109596691E-02 -7.08694633847E-04 -3.40930544503E-04 -6.74309625965E-04 -2.99039888835E-04 -3.65617780974E-01 -2.26753274524E-01
4.35000000000E+09 -3.50857023886E-01 -7.68415764527E-02 -5.11775146331E-04 +2.17354123972E-04 -5.13580848122E-04 +1.70908642981E-04 -3.76733952702E-01 -2.03596541743E-01
4.35500000000E+09 -3.51683620748E-01 -5.60038293803E-02 -3.48346890789E-04 +2.44956607379E-04 -3.25416373142E-04 +2.47716510753E-04 -3.85969058473E-01 -1.79737730287E-01
4.36000000000E+09 -3.52537043359E-01 -3.41015077325E-02 -9.70862534302E-05 +2.23923330553E-04 -7.93060836400E-05 +2.07764061965E-04 -3.93049975838E-01 -1.57071012777E-01
4.36500000000E+09 -3.55232865280E-01 -1.18466557780E-02 +4.77612397114E-05 +1.95522482967E-04 +8.89214377200E-05 +1.33218209192E-04 -4.00407211566E-01 -1.34494920245E-01
4.37000000000E+09 -3.59189766188E-01 +1.10253141236E-02 +3.10418583073E-04 -6.77419503722E-05 +3.02707363210E-04 -1.17966789156E-04 -4.06132215286E-01 -1.10850367818E-01
4.37500000000E+09 -3.64269265003E-01 +3.30287237568E-02 +3.21789498132E-04 -8.22453815722E-04 +2.75465966639E-04 -8.09202374690E-04 -4.11184062849E-01 -8.66087445395E-02
4.38000000000E+09 -3.69391804147E-01 +5.40099519209E-02 -6.81586012229E-04 -9.38654156032E-04 -7.46505274152E-04 -9.23522888040E-04 -4.15638397087E-01 -6.31176447628E-02
4.38500000000E+09 -3.72845900062E-01 +7.21603664695E-02 -1.03556747295E-03 -7.09799656654E-05 -1.10299994237E-03 -9.98175112629E-05 -4.19962865781E-01 -3.85564774052E-02
4.39000000000E+09 -3.75920091433E-01 +8.83947788192E-02 -5.95913729079E-04 +1.62082057243E-04 -6.13054383670E-04 +1.30324445160E-04 -4.22393584170E-01 -1.45260951161E-02
4.39500000000E+09 -3.76140107697E-01 +1.03503079304E-01 -4.78689842754E-04 +5.40956871793E-05 -4.77131288317E-04 +1.01068438071E-04 -4.24784046377E-01 +9.29885017343E-03
4.40000000000E+09 -3.74066645181E-01 +1.17646145109E-01 -9.98103866347E-05 +1.15881579056E-04 -9.94346550960E-05 +1.41982148311E-04 -4.24764211341E-01 +3.34276840932E-02
4.40500000000E+09 -3.70495636165E-01 +1.32496065165E-01 -3.30611441306E-04 -5.06690825065E-04 -3.55991618568E-04 -5.67344841488E-04 -4.25022131521E-01 +5.70931087158E-02
4.41000000000E+09 -3.65163217846E-01 +1.48943413367E-01 -8.04610967027E-04 -3.72728792129E-04 -8.28446720100E-04 -3.59782455685E-04 -4.23593763327E-01 +8.20134113085E-02
4.41500000000E+09 -3.59512613424E-01 +1.67959769453E-01 -9.22166948735E-04 -2.53632457688E-04 -8.99910989049E-04 -2.64093182097E-04 -4.21915330998E-01 +1.05522971204E-01
4.42000000000E+09 -3.53406745348E-01 +1.88980903755E-01 -1.38401716277E-03 -1.50326442195E-04 -1.36013602571E-03 -8.36715707884E-05 -4.19365624251E-01 +1.30573073866E-01
4.42500000000E+09 -3.48196833640E-01 +2.10787394543E-01 -1.33882505221E-03 +5.97811172743E-04 -1.29805849540E-03 +6.10644665963E-04 -4.13804852589E-01 +1.53471011994E-01
4.43000000000E+09 -3.44076631574E-01 +2.33092984822E-01 -1.05792175951E-03 +8.49361227419E-04 -1.03202189503E-03 +8.33181867373E-04 -4.09988147796E-01 +1.75509792284E-01
4.43500000000E+09 -3.40454117937E-01 +2.54252192117E-01 -8.12527470958E-04 +1.04485309923E-03 -8.00112318072E-04 +1.00417910128E-03 -4.03446796041E-01 +1.98734730763E-01
4.44000000000E+09 -3.37705602602E-01 +2.72329222285E-01 -3.91415351023E-04 +8.85978881567E-04 -3.21173905276E-04 +9.30715051200E-04 -3.97091603739E-01 +2.19806540847E-01
4.44500000000E+09 -3.36007037963E-01 +2.88794759252E-01 -6.43980120899E-04 +5.31360481928E-04 -5.48776331196E-04 +5.64462577329E-04 -3.90457496792E-01 +2.41534777230E-01
4.45000000000E+09 -3.33345598183E-01 +3.03150329776E-01 -7.90551763851E-04 +8.66803250230E-04 -7.05991955328E-04 +7.98056091422E-04 -3.83315389219E-01 +2.61776826644E-01
4.45500000000E+09 -3.28996000552E-01 +3.16208563522E-01 -8.25069554302E-04 +1.20602243000E-03 -7.95641757505E-04 +1.20419370705E-03 -3.75598270549E-01 +2.81522570658E-01
4.46000000000E+09 -3.22190852258E-01 +3.28667208966E-01 -5.33554752571E-04 +1.49011508870E-03 -5.21725795862E-04 +1.50809573829E-03 -3.67867528601E-01 +3.00738588487E-01
4.46500000000E+09 -3.13443567454E-01 +3.41221093104E-01 -1.09653877822E-04 +1.58652918706E-03 -6.82808893121E-05 +1.60508471639E-03 -3.58271087409E-01 +3.20353479602E-01
4.47000000000E+09 -3.02569547805E-01 +3.55481670848E-01 +1.51777359948E-04 +1.54389291708E-03 +2.41898008692E-04 +1.53988235355E-03 -3.47569561996E-01 +3.38987315849E-01
4.47500000000E+09 -2.90026851842E-01 +3.70611945105E-01 +2.38118865649E-04 +1.41604802798E-03 +2.66038457796E-04 +1.38855096114E-03 -3.37187993620E-01 +3.57987666812E-01
4.48000000000E+09 -2.78494537643E-01 +3.87384829428E-01 +6.91025454385E-04 +1.55373030622E-03 +7.44600498955E-04 +1.53822784407E-03 -3.25648017062E-01 +3.76328756976E-01
4.48500000000E+09 -2.66621719375E-01 +4.04942258652E-01 +7.26835230315E-04 +1.03464270204E-03 +7.25171360877E-04 +1.01104558858E-03 -3.14497052984E-01 +3.93536979168E-01
4.49000000000E+09 -2.56895769052E-01 +4.21580957005E-01 +6.47258911393E-04 +1.08666151385E-03 +6.90185783095E-04 +1.10027690600E-03 -3.03753046810E-01 +4.10034738397E-01
4.49500000000E+09 -2.49004593859E-01 +4.38005007301E-01 +7.91850496646E-04 +1.09395557669E-03 +7.48198800496E-04 +1.10313818313E-03 -2.92572691396E-01 +4.25908066884E-01
4.50000000000E+09 -2.42186043826E-01 +4.51640843765E-01 +7.74391663861E-04 +1.32572198752E-03 +7.65875460194E-04 +1.32033457936E-03 -2.80352891007E-01 +4.41907609432E-01
4.50500000000E+09 -2.37515855621E-01 +4.63905884189E-01 +1.58449706963E-03 +1.38724852525E-03 +1.56650321184E-03 +1.34378604526E-03 -2.66935185700E-01 +4.56981307738E-01
4.51000000000E+09 -2.31040920357E-01 +4.74077499241E-01 +1.76112339360E-03 +5.49273950917E-04 +1.80072090944E-03 +5.57496184876E-04 -2.53459859485E-01 +4.71693242120E-01
4.51500000000E+09 -2.24197531854E-01 +4.82047027045E-01 +1.56105510794E-03 +4.19152905183E-04 +1.59123386385E-03 +3.84406184529E-04 -2.39859646645E-01 +4.85975003928E-01
4.52000000000E+09 -2.14945083142E-01 +4.90156403840E-01 +1.74925140241E-03 +7.31269622400E-05 +1.72609447860E-03 +4.78224485448E-05 -2.26435919347E-01 +4.99240361877E-01
4.52500000000E+09 -2.02742757745E-01 +4.96965584983E-01 +1.30148240899E-03 -1.70631750790E-04 +1.28262672334E-03 -1.80889362437E-04 -2.13041011707E-01 +5.11597259692E-01
4.53000000000E+09 -1.89423419196E-01 +5.04851144463E-01 +1.20394738911E-03 +1.22551238014E-04 +1.24833599461E-03 +9.16417432029E-05 -1.99215116066E-01 +5.23018219320E-01
4.53500000000E+09 -1.74017864995E-01 +5.13703752005E-01 +1.33826777513E-03 +8.97603964738E-05 +1.35554724325E-03 +1.16445987400E-05 -1.85052712431E-01 +5.34648891696E-01
4.54000000000E+09 -1.58883825917E-01 +5.23493247973E-01 +1.75194550612E-03 +8.59079371017E-05 +1.70261004363E-03 +2.37923954264E-05 -1.69219129578E-01 +5.45769439074E-01
4.54500000000E+09 -1.43893839162E-01 +5.34668220238E-01 +1.97127758795E-03 -5.38082114099E-04 +1.88351961526E-03 -6.23332861518E-04 -1.54511880812E-01 +5.55592771518E-01
4.55000000000E+09 -1.30234655385E-01 +5.45415319943E-01 +1.77193908235E-03 -9.08517195199E-04 +1.72819721266E-03 -8.94841387348E-04 -1.39777485666E-01 +5.66265540444E-01
4.55500000000E+09 -1.18717252496E-01 +5.55946321906E-01 +1.54266230555E-03 -1.19351838832E-03 +1.40948243225E-03 -1.21336041514E-03 -1.25405609814E-01 +5.76003391593E-01
4.56000000000E+09 -1.08264204936E-01 +5.65160231122E-01 +1.14433401473E-03 -1.15238968054E-03 +1.11318121714E-03 -1.15679422549E-03 -1.10834694115E-01 +5.84854111598E-01
4.56500000000E+09 -9.94775177087E-02 +5.72858714652E-01 +1.12558119721E-03 -1.52204140761E-03 +1.09167960086E-03 -1.47055280201E-03 -9.69231361241E-02 +5.93577739940E-01
4.57000000000E+09 -9.04959286707E-02 +5.79495017836E-01 +8.70880755599E-04 -1.39011405411E-03 +8.40220826689E-04 -1.38487704940E-03 -8.12484610848E-02 +6.02245297489E-01
