# Hz S RI R 50
! CMT, C1220, 16058040, 17.2.0/1
! Date: 15/08/2018 12:01:20
! Data: Format (Calibration Info)
! Freq                      S11: Re/Im (F2)                       S21: Re/Im (F2)                       S12: Re/Im (F2)                       S22: Re/Im (F2)            
4.00000000000E+09 +6.68112900620E-01 -3.40517910577E-01 +6.81267183455E-04 -5.35296795326E-04 +6.72785348276E-04 -5.95702427120E-04 +7.76859123427E-01 -3.41824175118E-01
4.00500000000E+09 +6.60162848728E-01 -3.47087111106E-01 +6.08458521882E-04 -5.18729702732E-04 +5.79574677289E-04 -5.28531159333E-04 +7.68200897050E-01 -3.53537393496E-01
4.01000000000E+09 +6.51095763774E-01 -3.53642809778E-01 +5.25227195004E-04 -5.84309391087E-04 +5.14779592940E-04 -5.80576114694E-04 +7.58642256526E-01 -3.64823232783E-01
4.01500000000E+09 +6.40572088923E-01 -3.60323731579E-01 +5.76353052419E-04 -4.99528859821E-04 +5.69838000276E-04 -5.21511224324E-04 +7.49093461035E-01 -3.75186861333E-01
4.02000000000E+09 +6.30149504344E-01 -3.67348568702E-01 +6.74399592966E-04 -6.58999981204E-04 +6.22218266792E-04 -6.13792304686E-04 +7.39481365732E-01 -3.85445870610E-01
4.02500000000E+09 +6.19544523837E-01 -3.76447320737E-01 +5.95129692609E-04 -8.47798167913E-04 +6.45151112125E-04 -7.82208753678E-04 +7.29540027391E-01 -3.95945082390E-01
4.03000000000E+09 +6.08342670288E-01 -3.87093104978E-01 +3.73682473072E-04 -1.10231405944E-03 +4.22307390635E-04 -1.03023866071E-03 +7.18986470384E-01 -4.06304808960E-01
4.03500000000E+09 +5.96826404423E-01 -3.98054034618E-01 +4.68672952362E-05 -8.64559431535E-04 +7.74713637823E-05 -9.10312076172E-04 +7.07937581972E-01 -4.16871899268E-01
4.04000000000E+09 +5.85519527758E-01 -4.09048440000E-01 +2.04096928528E-04 -6.95933601485E-04 +2.37873575904E-04 -7.10655194199E-04 +6.97258622569E-01 -4.27550910204E-01
4.04500000000E+09 +5.74298385081E-01 -4.19310880147E-01 +1.96583489364E-04 -8.42498182826E-04 +2.07100983308E-04 -8.05603422815E-04 +6.85866414239E-01 -4.38434315362E-01
4.05000000000E+09 +5.63159640947E-01 -4.28187453526E-01 +2.16198654907E-04 -9.22640184991E-04 +3.26099046933E-04 -8.83571667736E-04 +6.74336764683E-01 -4.48480553959E-01
4.05500000000E+09 +5.51467284288E-01 -4.35426520788E-01 +9.77057736413E-05 -9.97524503464E-04 +2.12391706999E-04 -1.01853424454E-03 +6.62744459009E-01 -4.58425083139E-01
4.06000000000E+09 +5.39360394414E-01 -4.41167808104E-01 -3.90940210369E-05 -1.11142598446E-03 +6.12212011500E-05 -1.13196945409E-03 +6.50335372794E-01 -4.68251740319E-01
4.06500000000E+09 +5.26755187929E-01 -4.45922208494E-01 -2.88016947374E-04 -9.93318943015E-04 -1.99601793772E-04 -1.10005592600E-03 +6.37174923714E-01 -4.77590486406E-01
4.07000000000E+09 +5.12987369598E-01 -4.50442487698E-01 -3.11018523489E-04 -1.08970988697E-03 -2.29430936256E-04 -1.14138799326E-03 +6.23349605191E-01 -4.87407614879E-01
4.07500000000E+09 +4.98401307805E-01 -4.55619593681E-01 -4.52666631767E-04 -1.01506214698E-03 -4.41674611582E-04 -1.10907091963E-03 +6.09476449731E-01 -4.96604608026E-01
4.08000000000E+09 +4.82460357037E-01 -4.61230247248E-01 -4.35472698639E-04 -8.79408469762E-04 -4.31701196046E-04 -9.65712519776E-04 +5.95948616749E-01 -5.05975030599E-01
4.08500000000E+09 +4.66067306438E-01 -4.67728691128E-01 -5.72768195289E-04 -8.21558808049E-04 -5.87341688981E-04 -9.74122500686E-04 +5.81759285561E-01 -5.15343449157E-01
4.09000000000E+09 +4.49464756253E-01 -4.74636718820E-01 -5.44519979074E-04 -8.93091270042E-04 -5.53114364104E-04 -9.97789493166E-04 +5.67405021785E-01 -5.23318571648E-01
4.09500000000E+09 +4.33575568299E-01 -4.81639928590E-01 -7.43336793960E-04 -7.82328516942E-04 -7.90881312356E-04 -8.84660903800E-04 +5.52933636633E-01 -5.31704926156E-01
4.10000000000E+09 +4.17439819507E-01 -4.88353903123E-01 -7.14486819182E-04 -7.85564153816E-04 -7.10671436026E-04 -7.97271889543E-04 +5.37301453153E-01 -5.39669557201E-01
4.10500000000E+09 +4.01907889625E-01 -4.93901746209E-01 -7.56098745496E-04 -7.56132810894E-04 -8.12651157636E-04 -8.13718747830E-04 +5.20807936212E-01 -5.47572069689E-01
4.11000000000E+09 +3.85847859689E-01 -4.97846723816E-01 -8.39519191288E-04 -7.96394701798E-04 -9.17925379836E-04 -8.03464066963E-04 +5.03550577653E-01 -5.55296284598E-01
4.11500000000E+09 +3.70234414133E-01 -4.99760029388E-01 -1.03767948926E-03 -6.47598229167E-04 -1.15656833735E-03 -6.79826293294E-04 +4.86074130038E-01 -5.62232471677E-01
4.12000000000E+09 +3.54461096343E-01 -5.00249223825E-01 -1.06769831149E-03 -5.12800292389E-04 -1.16181054604E-03 -5.80817023838E-04 +4.68806289116E-01 -5.68652700493E-01
4.12500000000E+09 +3.38433659121E-01 -5.01009480894E-01 -1.20499232273E-03 -4.75168002494E-04 -1.22693763847E-03 -3.98734510241E-04 +4.51596537532E-01 -5.74637475063E-01
4.13000000000E+09 +3.20307293601E-01 -5.02283036017E-01 -1.24736046954E-03 -4.41506122669E-04 -1.26043879026E-03 -4.31433636417E-04 +4.34405543276E-01 -5.80299949557E-01
4.13500000000E+09 +3.01311992991E-01 -5.03430133325E-01 -1.40408520853E-03 -2.29684461821E-04 -1.40881515528E-03 -1.92459510572E-04 +4.15783898547E-01 -5.86034358308E-01
4.14000000000E+09 +2.82114185110E-01 -5.06030019321E-01 -1.30945938441E-03 -6.53245029270E-05 -1.29746734973E-03 -4.18935867047E-05 +3.96722169099E-01 -5.90774945011E-01
4.14500000000E+09 +2.62174176643E-01 -5.09962141817E-01 -1.18734303086E-03 -1.97043534206E-05 -1.23939354610E-03 -5.20578864960E-06 +3.77841370301E-01 -5.95797642776E-01
4.15000000000E+09 +2.42079583495E-01 -5.14206709688E-01 -1.34713857470E-03 -5.18437331071E-05 -1.42517792068E-03 -4.82335584683E-05 +3.57954515219E-01 -6.00936294541E-01
4.15500000000E+09 +2.22436961370E-01 -5.17909372973E-01 -1.35333221574E-03 -1.55770697233E-05 -1.43946862945E-03 -1.79059858965E-05 +3.38315542297E-01 -6.04061365499E-01
4.16000000000E+09 +2.03681106771E-01 -5.20511630671E-01 -1.59571629280E-03 +1.57015203957E-04 -1.58854357945E-03 +1.80405046927E-04 +3.18746843068E-01 -6.06921012444E-01
4.16500000000E+09 +1.86224880321E-01 -5.20844659296E-01 -1.75208319879E-03 +4.71191904880E-04 -1.76298961109E-03 +4.72106178491E-04 +2.98152821187E-01 -6.08538949309E-01
4.17000000000E+09 +1.70021972910E-01 -5.19569884351E-01 -1.64667021289E-03 +7.71117733236E-04 -1.57843652834E-03 +7.24797853319E-04 +2.78189106183E-01 -6.09083358730E-01
4.17500000000E+09 +1.53769654499E-01 -5.16459232765E-01 -1.58226177498E-03 +1.22517120564E-03 -1.62857242194E-03 +1.19909912167E-03 +2.57210110960E-01 -6.09509574837E-01
4.18000000000E+09 +1.37765087544E-01 -5.12140695962E-01 -9.13660775762E-04 +1.28126732445E-03 -9.49168107766E-04 +1.26622856150E-03 +2.36526293209E-01 -6.09930568543E-01
4.18500000000E+09 +1.20252254175E-01 -5.07174765476E-01 -8.97871367371E-04 +8.00767456694E-04 -9.28137326897E-04 +7.68003086916E-04 +2.14758418956E-01 -6.10612752980E-01
4.19000000000E+09 +1.01569686716E-01 -5.01303818731E-01 -1.20320959865E-03 +7.72825818838E-04 -1.22945012553E-03 +7.19086468457E-04 +1.92722008389E-01 -6.09128695000E-01
4.19500000000E+09 +8.22123181932E-02 -4.95622898617E-01 -1.51611981369E-03 +1.16030631065E-03 -1.58401501964E-03 +1.14991992001E-03 +1.71575727540E-01 -6.07038849374E-01
4.20000000000E+09 +6.23038978789E-02 -4.90961579426E-01 -1.53968073200E-03 +1.57044681184E-03 -1.57930604655E-03 +1.63146640298E-03 +1.49907123730E-01 -6.04587436620E-01
4.20500000000E+09 +4.24950864685E-02 -4.87011398102E-01 -1.31372540376E-03 +2.29126636241E-03 -1.37490319041E-03 +2.27732505804E-03 +1.27564563624E-01 -6.01241792226E-01
4.21000000000E+09 +2.32215120669E-02 -4.83598657889E-01 -4.81914693143E-04 +2.14500097606E-03 -5.21148136714E-04 +2.18326284537E-03 +1.05271568040E-01 -5.97022363647E-01
4.21500000000E+09 +4.24936578868E-03 -4.79878500306E-01 -3.95861364620E-04 +1.94109857195E-03 -4.60157456416E-04 +1.95254169521E-03 +8.28718049184E-02 -5.92290148531E-01
4.22000000000E+09 -1.33668849821E-02 -4.74676309246E-01 -4.47461201984E-04 +2.23376702151E-03 -5.81113382390E-04 +2.29979782736E-03 +6.17163640687E-02 -5.86734773263E-01
4.22500000000E+09 -3.00426096417E-02 -4.67230772875E-01 +7.89584344839E-05 +2.44043512056E-03 -9.47551835987E-06 +2.50595200210E-03 +4.06038213274E-02 -5.81813657082E-01
4.23000000000E+09 -4.49317287505E-02 -4.58037857172E-01 +2.89393143947E-04 +2.01716152460E-03 +2.42162819948E-04 +2.18719683356E-03 +1.89401850018E-02 -5.75796295108E-01
4.23500000000E+09 -5.97816904199E-02 -4.47507540365E-01 +4.38333584913E-04 +2.24983020844E-03 +4.64912048705E-04 +2.30199125471E-03 -2.73320333308E-03 -5.68061897878E-01
4.24000000000E+09 -7.61240649050E-02 -4.35988951538E-01 +4.63710860667E-04 +2.23306384536E-03 +3.84312146063E-04 +2.33246770838E-03 -2.49546321687E-02 -5.59623226993E-01
4.24500000000E+09 -9.34704957479E-02 -4.23038943562E-01 +9.16595123996E-04 +2.45513080071E-03 +9.10081197269E-04 +2.68479070517E-03 -4.69566597013E-02 -5.49520706277E-01
4.25000000000E+09 -1.12366697643E-01 -4.10429056891E-01 +1.27975151043E-03 +2.23403084382E-03 +1.33089584091E-03 +2.32166456160E-03 -6.85000758689E-02 -5.39427540804E-01
4.25500000000E+09 -1.32580923049E-01 -3.97909937130E-01 +1.64743904632E-03 +2.08570488765E-03 +1.70437303694E-03 +2.19358173315E-03 -9.07813033397E-02 -5.27780091002E-01
4.26000000000E+09 -1.53006944349E-01 -3.86275614129E-01 +1.75092043792E-03 +1.83571947706E-03 +1.80432170118E-03 +1.87426014766E-03 -1.10916335711E-01 -5.14725624035E-01
4.26500000000E+09 -1.73684531626E-01 -3.75393186563E-01 +2.01401619434E-03 +1.66307641025E-03 +2.13756258082E-03 +1.69858168766E-03 -1.30900823899E-01 -5.02065250256E-01
4.27000000000E+09 -1.92673815597E-01 -3.63871774524E-01 +2.10282483661E-03 +1.53633313620E-03 +2.22142718727E-03 +1.59935485006E-03 -1.51308139166E-01 -4.87499240590E-01
4.27500000000E+09 -2.09021911559E-01 -3.52562725020E-01 +2.50922672762E-03 +1.19114092202E-03 +2.66684415739E-03 +1.20122261304E-03 -1.71057134097E-01 -4.72788626147E-01
4.28000000000E+09 -2.22759023001E-01 -3.40514966424E-01 +2.57566868174E-03 +8.88092402898E-04 +2.71156908464E-03 +7.97484725155E-04 -1.91172313728E-01 -4.56945375304E-01
4.28500000000E+09 -2.35375825104E-01 -3.27470649864E-01 +2.50782507320E-03 +3.89620388777E-04 +2.58378410838E-03 +3.63020958532E-04 -2.10797527233E-01 -4.40970989002E-01
4.29000000000E+09 -2.45893420331E-01 -3.11780796027E-01 +2.48304641555E-03 +2.17550107622E-04 +2.56474450071E-03 +1.70537234591E-04 -2.28886744740E-01 -4.24274823801E-01
4.29500000000E+09 -2.56787572519E-01 -2.94822951361E-01 +2.00728322404E-03 +2.91196722841E-04 +2.09859460515E-03 +1.67577578163E-04 -2.47780917426E-01 -4.07195888207E-01
4.30000000000E+09 -2.67932814658E-01 -2.75400443977E-01 +2.71889860081E-03 +3.41174581162E-04 +2.79705766931E-03 +2.27995091842E-04 -2.64216284829E-01 -3.87896243985E-01
4.30500000000E+09 -2.79622213133E-01 -2.54873333875E-01 +2.81234167855E-03 -3.00369878055E-04 +2.81827650251E-03 -4.31972369745E-04 -2.79498634209E-01 -3.68775099200E-01
4.31000000000E+09 -2.92883781537E-01 -2.34310352587E-01 +2.87849527119E-03 -3.13252662265E-04 +2.82368669786E-03 -4.53329890023E-04 -2.94853771300E-01 -3.48733579662E-01
4.31500000000E+09 -3.06663069533E-01 -2.13880660214E-01 +3.03815042980E-03 -1.03344324815E-03 +2.94809302083E-03 -1.13815058435E-03 -3.09139141117E-01 -3.28304704405E-01
4.32000000000E+09 -3.20123443190E-01 -1.94926355808E-01 +2.60289560047E-03 -1.48515292280E-03 +2.49722657225E-03 -1.55419463131E-03 -3.22542237089E-01 -3.07337503445E-01
4.32500000000E+09 -3.33412637737E-01 -1.77437219243E-01 +2.08523471243E-03 -1.47486048747E-03 +2.04324230963E-03 -1.46143268995E-03 -3.35624163852E-01 -2.86726016863E-01
4.33000000000E+09 -3.44285362741E-01 -1.60758365886E-01 +2.40097089511E-03 -1.19628735132E-03 +2.39968863373E-03 -1.24506648083E-03 -3.48781751473E-01 -2.64864819070E-01
4.33500000000E+09 -3.52478336330E-01 -1.44978866421E-01 +2.54691283948E-03 -1.65990036251E-03 +2.54812953624E-03 -1.64979516422E-03 -3.60759872943E-01 -2.41497494791E-01
4.34000000000E+09 -3.58685040279E-01 -1.29453683491E-01 +2.80369345151E-03 -2.01941919586E-03 +2.85370944721E-03 -2.04176504354E-03 -3.71935789007E-01 -2.18120563024E-01
4.34500000000E+09 -3.62689745318E-01 -1.12627098080E-01 +2.48579591863E-03 -3.10144589386E-03 +2.50496048575E-03 -3.07885396441E-03 -3.82507280526E-01 -1.92671682866E-01
4.35000000000E+09 -3.64579702150E-01 -9.34836977296E-02 +1.63071273160E-03 -3.27559742026E-03 +1.65138285229E-03 -3.26984454211E-03 -3.90541678778E-01 -1.67989801147E-01
4.35500000000E+09 -3.65771714682E-01 -7.34942683093E-02 +1.50211356210E-03 -3.43516111253E-03 +1.60491909765E-03 -3.45961274141E-03 -3.99163770514E-01 -1.44338709496E-01
4.36000000000E+09 -3.68290730599E-01 -5.19962808217E-02 +9.76687982888E-04 -3.79541036697E-03 +9.71667190462E-04 -3.82615026071E-03 -4.05845741429E-01 -1.19889335064E-01
4.36500000000E+09 -3.71996368789E-01 -2.78402464647E-02 +2.87513575494E-04 -3.97079060264E-03 +3.34742229203E-04 -3.99437053870E-03 -4.11574704305E-01 -9.60573617030E-02
4.37000000000E+09 -3.76565092008E-01 -4.58329662754E-03 -4.19683092281E-04 -3.91577861918E-03 -3.61720840043E-04 -3.92533408462E-03 -4.16119949216E-01 -7.14228895826E-02
4.37500000000E+09 -3.82116082971E-01 +1.89503080373E-02 -1.04556461751E-03 -3.33966099828E-03 -1.05941757803E-03 -3.40037915980E-03 -4.19393334689E-01 -4.62826160650E-02
4.38000000000E+09 -3.87757906285E-01 +4.05374148325E-02 -9.19415027715E-04 -3.15133057842E-03 -9.57476836058E-04 -3.29726311405E-03 -4.21552224896E-01 -2.10424425309E-02
4.38500000000E+09 -3.92604450522E-01 +5.93496486880E-02 -9.42232898526E-04 -3.03854953528E-03 -1.03539371039E-03 -3.15495018828E-03 -4.23510862076E-01 +4.34264059171E-03
4.39000000000E+09 -3.96010785251E-01 +7.59578974863E-02 -1.29649137930E-03 -3.62451932487E-03 -1.37811419936E-03 -3.66116985180E-03 -4.24007762887E-01 +2.99959776243E-02
4.39500000000E+09 -3.97776828456E-01 +9.06886566002E-02 -2.49894286968E-03 -3.50794840237E-03 -2.59910642276E-03 -3.53676669115E-03 -4.23797257148E-01 +5.40428743346E-02
4.40000000000E+09 -3.97599810723E-01 +1.05306595121E-01 -2.82828562080E-03 -2.68411540060E-03 -2.91659197694E-03 -2.68322447236E-03 -4.22807019669E-01 +7.90719038118E-02
4.40500000000E+09 -3.94839683517E-01 +1.21131769873E-01 -3.10835163949E-03 -2.18159432446E-03 -3.24043064262E-03 -2.20744190436E-03 -4.19373920090E-01 +1.03259411116E-01
4.41000000000E+09 -3.89355355515E-01 +1.38151779840E-01 -3.03214461932E-03 -1.75341506049E-03 -3.05793915097E-03 -1.71600976071E-03 -4.15663795270E-01 +1.26441755824E-01
4.41500000000E+09 -3.83345736318E-01 +1.56670093311E-01 -3.37583411346E-03 -1.34537385915E-03 -3.39386647156E-03 -1.32168131921E-03 -4.11061435883E-01 +1.50577028304E-01
4.42000000000E+09 -3.77730802581E-01 +1.78001843862E-01 -3.11041667055E-03 -1.02267635399E-03 -3.14849653593E-03 -9.46680988671E-04 -4.05580898284E-01 +1.72915920423E-01
4.42500000000E+09 -3.71492677239E-01 +2.00275132205E-01 -3.46163113096E-03 -8.09849617047E-04 -3.51612932830E-03 -7.18604580891E-04 -4.00332761337E-01 +1.96277958632E-01
4.43000000000E+09 -3.66916285329E-01 +2.21421102718E-01 -3.14930062483E-03 -2.94896376134E-04 -3.09149336382E-03 -1.82243537951E-04 -3.93974601282E-01 +2.18520566471E-01
4.43500000000E+09 -3.64421561206E-01 +2.42320486615E-01 -3.37676548961E-03 -4.33062905115E-04 -3.36722845739E-03 -3.66746443798E-04 -3.87336278534E-01 +2.40355110321E-01
4.44000000000E+09 -3.62312121459E-01 +2.61247853086E-01 -3.54455266360E-03 +1.42661945416E-04 -3.52800888375E-03 +2.26599459190E-04 -3.79191851462E-01 +2.62998084995E-01
4.44500000000E+09 -3.60967977687E-01 +2.78026051281E-01 -3.48771452209E-03 +6.20139943819E-04 -3.43619315408E-03 +6.81175102177E-04 -3.70012516334E-01 +2.82971876549E-01
4.45000000000E+09 -3.58616405871E-01 +2.93032539428E-01 -3.50043499116E-03 +1.17432750280E-03 -3.45077098745E-03 +1.23956457387E-03 -3.60483358896E-01 +3.03331746105E-01
4.45500000000E+09 -3.53997723334E-01 +3.06260964081E-01 -3.24596801468E-03 +1.85443486155E-03 -3.18713082393E-03 +1.91456927137E-03 -3.49611842799E-01 +3.22462905056E-01
4.46000000000E+09 -3.47229591840E-01 +3.18155135114E-01 -2.34657645661E-03 +2.13162539232E-03 -2.29228790858E-03 +2.22759807137E-03 -3.39894370021E-01 +3.40400249213E-01
4.46500000000E+09 -3.38237117105E-01 +3.30509782766E-01 -1.97009924263E-03 +1.97111924884E-03 -1.92549396419E-03 +2.04043343233E-03 -3.28194183352E-01 +3.59386533332E-01
4.47000000000E+09 -3.27770709490E-01 +3.44031862669E-01 -1.73785670812E-03 +1.57182905440E-03 -1.69947334285E-03 +1.65380794345E-03 -3.16018498434E-01 +3.77077794208E-01
4.47500000000E+09 -3.16055387836E-01 +3.60115847013E-01 -2.56565130743E-03 +1.74472925743E-03 -2.48974932256E-03 +1.82282162668E-03 -3.03753208539E-01 +3.93541302661E-01
4.48000000000E+09 -3.03106775912E-01 +3.77897065710E-01 -2.06611878860E-03 +2.55949381389E-03 -1.94846898641E-03 +2.56589485781E-03 -2.91644481308E-01 +4.10063892557E-01
4.48500000000E+09 -2.90181308222E-01 +3.95666935677E-01 -1.53187743372E-03 +2.84867274688E-03 -1.43870833195E-03 +2.84363082474E-03 -2.79084945868E-01 +4.25927170616E-01
4.49000000000E+09 -2.79878110647E-01 +4.12341016306E-01 -1.22216626084E-03 +3.01569575793E-03 -1.16624290262E-03 +2.90890143749E-03 -2.65717013726E-01 +4.41763035628E-01
4.49500000000E+09 -2.71741969612E-01 +4.29761539710E-01 -5.31770593044E-04 +2.92820748368E-03 -4.33148785309E-04 +2.88136752144E-03 -2.51811797280E-01 +4.55642563722E-01
4.50000000000E+09 -2.64214229922E-01 +4.44503588107E-01 -4.14112078263E-04 +2.57467139874E-03 -3.47931532075E-04 +2.55325039255E-03 -2.38745369220E-01 +4.69048761650E-01
4.50500000000E+09 -2.58747459359E-01 +4.57147592087E-01 -2.38071749372E-04 +2.51973353771E-03 -1.71727941305E-04 +2.40764841089E-03 -2.24763922365E-01 +4.82008763581E-01
4.51000000000E+09 -2.52297265177E-01 +4.68293554966E-01 -2.81504237657E-04 +2.47352549858E-03 -2.28544773215E-04 +2.42204162671E-03 -2.11166813078E-01 +4.94149984224E-01
4.51500000000E+09 -2.43902095040E-01 +4.76937938671E-01 -5.66609122858E-05 +2.61449474335E-03 -3.98928419775E-05 +2.50370085983E-03 -1.97517413691E-01 +5.05809694317E-01
4.52000000000E+09 -2.34591018646E-01 +4.84053094673E-01 -4.77415892656E-05 +2.61682899280E-03 +9.73741066293E-06 +2.54986165857E-03 -1.84287531666E-01 +5.17030494610E-01
4.52500000000E+09 -2.23327651039E-01 +4.91799390928E-01 +2.00599494950E-04 +2.69239291768E-03 +2.06684120128E-04 +2.65857472191E-03 -1.70982242436E-01 +5.27849312294E-01
4.53000000000E+09 -2.09612440590E-01 +5.00248508535E-01 +5.38516236575E-04 +3.22832040884E-03 +5.94302394583E-04 +3.07993808840E-03 -1.57165695321E-01 +5.38487635784E-01
4.53500000000E+09 -1.94367129721E-01 +5.09704833253E-01 +1.37328399813E-03 +2.77891271674E-03 +1.31860008071E-03 +2.75169264513E-03 -1.42635398427E-01 +5.48586304856E-01
4.54000000000E+09 -1.78667370506E-01 +5.20110352091E-01 +1.54293577442E-03 +2.61506348778E-03 +1.53137273175E-03 +2.48045046596E-03 -1.27701554211E-01 +5.58596424171E-01
4.54500000000E+09 -1.63684918428E-01 +5.30913584283E-01 +1.58587640624E-03 +2.35015128015E-03 +1.58212759942E-03 +2.25927406307E-03 -1.12364805259E-01 +5.67438878401E-01
4.55000000000E+09 -1.50845730707E-01 +5.41408582192E-01 +2.12177100628E-03 +2.21507245228E-03 +2.09089388592E-03 +2.18204355751E-03 -9.77480785119E-02 +5.76148889873E-01
4.55500000000E+09 -1.40463729821E-01 +5.52040921664E-01 +2.08094946238E-03 +1.64783292880E-03 +2.07279347264E-03 +1.59904628087E-03 -8.36301277217E-02 +5.84439300215E-01
4.56000000000E+09 -1.31184180928E-01 +5.62184862345E-01 +1.99436016339E-03 +1.74241549839E-03 +2.01913438630E-03 +1.70391149118E-03 -6.89487582535E-02 +5.92967035595E-01
4.56500000000E+09 -1.22789694928E-01 +5.70549175561E-01 +2.41003110400E-03 +1.49764570856E-03 +2.39513582030E-03 +1.40960353565E-03 -5.45016706026E-02 +6.00257653299E-01
4.57000000000E+09 -1.13580974452E-01 +5.77329239140E-01 +2.39622723363E-03 +1.17863736211E-03 +2.35023350016E-03 +1.09923251202E-03 -3.96533265769E-02 +6.07490198115E-01
