# Hz S RI R 50
! CMT, C1220, 16058040, 17.2.0/1
! Date: 15/08/2018 11:40:42
! Data: Format (Calibration Info)
! Freq                      S11: Re/Im (F2)                       S21: Re/Im (F2)                       S12: Re/Im (F2)                       S22: Re/Im (F2)            
4.00000000000E+09 +6.37538106773E-01 -3.32248631987E-01 -5.53438431846E-04 -2.23398040490E-03 -4.54337746832E-04 -2.28704280842E-03 +7.69899781148E-01 -3.53681391947E-01
4.00500000000E+09 +6.28669621084E-01 -3.38841695890E-01 -7.37468372608E-04 -2.23919575999E-03 -6.20860515544E-04 -2.32851518633E-03 +7.61328644831E-01 -3.65131914796E-01
4.01000000000E+09 +6.18839832860E-01 -3.44315172755E-01 -1.06049024408E-03 -2.38945908547E-03 -9.21295988287E-04 -2.48421982597E-03 +7.51686152103E-01 -3.76250663389E-01
4.01500000000E+09 +6.08380675663E-01 -3.49897301538E-01 -1.35908861112E-03 -2.06549108049E-03 -1.25195493580E-03 -2.16058451353E-03 +7.42005138444E-01 -3.86543728238E-01
4.02000000000E+09 +5.97041035800E-01 -3.56625579882E-01 -1.36374862335E-03 -2.17828321103E-03 -1.27478318356E-03 -2.32212393632E-03 +7.32431969145E-01 -3.96845973046E-01
4.02500000000E+09 +5.84428280777E-01 -3.63725174727E-01 -1.91005196573E-03 -2.28465036264E-03 -1.86072319804E-03 -2.43258368436E-03 +7.22152992104E-01 -4.07409247329E-01
4.03000000000E+09 +5.72147897118E-01 -3.71626797183E-01 -2.35602452289E-03 -1.89419446598E-03 -2.33896899911E-03 -1.98854652834E-03 +7.11384523332E-01 -4.17908683170E-01
4.03500000000E+09 +5.59400361169E-01 -3.80788449654E-01 -2.44307385138E-03 -1.56440856215E-03 -2.45246958688E-03 -1.63636987081E-03 +6.99971318100E-01 -4.28719613049E-01
4.04000000000E+09 +5.46805578451E-01 -3.89987446449E-01 -2.68113356934E-03 -1.18030466567E-03 -2.66305358267E-03 -1.37260372074E-03 +6.88320491151E-01 -4.39516630153E-01
4.04500000000E+09 +5.34548675147E-01 -3.99625602011E-01 -2.49096848878E-03 -8.76413458800E-04 -2.49560028287E-03 -1.07258642695E-03 +6.76557351921E-01 -4.49528125741E-01
4.05000000000E+09 +5.21474152671E-01 -4.08350049689E-01 -2.65532531463E-03 -9.85716718792E-04 -2.67487446761E-03 -1.15473795008E-03 +6.65110720791E-01 -4.59727616003E-01
4.05500000000E+09 +5.07768114757E-01 -4.15141558672E-01 -2.98632118662E-03 -6.11711280963E-04 -3.14053421255E-03 -8.14500510877E-04 +6.52807299514E-01 -4.69705249112E-01
4.06000000000E+09 +4.94191203574E-01 -4.20090141059E-01 -3.06481689114E-03 -1.75355749980E-04 -3.21028881359E-03 -3.11997781494E-04 +6.40292734906E-01 -4.79234924673E-01
4.06500000000E+09 +4.80205300657E-01 -4.23991769097E-01 -2.85561097982E-03 +2.05612338186E-04 -2.97570947009E-03 +2.00335924299E-04 +6.26590817505E-01 -4.88742403607E-01
4.07000000000E+09 +4.65611613493E-01 -4.27138956758E-01 -2.80423888184E-03 +2.82793057262E-04 -2.88801580103E-03 +2.20994332598E-04 +6.12424360314E-01 -4.98233282511E-01
4.07500000000E+09 +4.50333677133E-01 -4.30727777125E-01 -2.77520506798E-03 +4.67848389530E-04 -2.89121131082E-03 +3.78221744853E-04 +5.98381254343E-01 -5.07662840269E-01
4.08000000000E+09 +4.33754463490E-01 -4.34254948042E-01 -2.86558100436E-03 +5.92771496015E-04 -2.96885243416E-03 +5.22812339367E-04 +5.83595157116E-01 -5.17315813389E-01
4.08500000000E+09 +4.16389348948E-01 -4.38525455853E-01 -2.95396565262E-03 +9.05098056921E-04 -3.06806002067E-03 +8.36908817996E-04 +5.68897454524E-01 -5.25810111067E-01
4.09000000000E+09 +3.98706098302E-01 -4.42149525741E-01 -2.72786658015E-03 +1.28970830291E-03 -2.89688361003E-03 +1.27527261659E-03 +5.54263213608E-01 -5.33726548743E-01
4.09500000000E+09 +3.81531152393E-01 -4.46391298499E-01 -2.77627574558E-03 +1.45391525139E-03 -2.97994555773E-03 +1.50458728421E-03 +5.38875452709E-01 -5.41259670057E-01
4.10000000000E+09 +3.64397531157E-01 -4.50802644935E-01 -2.57615038263E-03 +1.57878481452E-03 -2.73615786084E-03 +1.63735731332E-03 +5.23105207190E-01 -5.48598676920E-01
4.10500000000E+09 +3.47418919282E-01 -4.54108151611E-01 -2.76620144981E-03 +1.85606962790E-03 -2.85467807941E-03 +1.88079398620E-03 +5.05863569681E-01 -5.56348991900E-01
4.11000000000E+09 +3.30151599938E-01 -4.55933877848E-01 -2.69864729982E-03 +2.36896759727E-03 -2.84438825752E-03 +2.41727721821E-03 +4.88159005526E-01 -5.63114020215E-01
4.11500000000E+09 +3.14000895472E-01 -4.56067001958E-01 -2.15794632974E-03 +2.78475253198E-03 -2.21579660585E-03 +2.84967545381E-03 +4.70996348660E-01 -5.69750106451E-01
4.12000000000E+09 +2.97483658609E-01 -4.55883531533E-01 -2.09246820160E-03 +2.76269956162E-03 -2.17881246085E-03 +2.82478311882E-03 +4.53507943697E-01 -5.76359437805E-01
4.12500000000E+09 +2.80480186713E-01 -4.54778117956E-01 -2.00290260289E-03 +3.04355293311E-03 -2.05715630642E-03 +3.11240266195E-03 +4.35780857890E-01 -5.82095527277E-01
4.13000000000E+09 +2.63015577200E-01 -4.53476064883E-01 -1.60238268661E-03 +3.23495867759E-03 -1.68850287668E-03 +3.27691989563E-03 +4.17609898770E-01 -5.87629236495E-01
4.13500000000E+09 +2.44648123602E-01 -4.52307858008E-01 -1.73017511852E-03 +3.31649300867E-03 -1.90062024313E-03 +3.30768439914E-03 +3.98997440313E-01 -5.92236893000E-01
4.14000000000E+09 +2.26211026656E-01 -4.52022791247E-01 -1.52286604160E-03 +4.11018138088E-03 -1.65546948825E-03 +4.18250176828E-03 +3.79274644026E-01 -5.96644194675E-01
4.14500000000E+09 +2.07386084395E-01 -4.51948340681E-01 -8.22612049902E-04 +4.63309392409E-03 -9.42239367629E-04 +4.76085505647E-03 +3.59698722689E-01 -6.00367637430E-01
4.15000000000E+09 +1.88984251058E-01 -4.53722008260E-01 -7.13359672018E-05 +4.56468665230E-03 -1.55490986828E-04 +4.66209046279E-03 +3.41051694528E-01 -6.04905579264E-01
4.15500000000E+09 +1.69653876470E-01 -4.54967453960E-01 +4.67081108287E-04 +4.27057771517E-03 +4.69046963442E-04 +4.34094041455E-03 +3.20785969846E-01 -6.09506587612E-01
4.16000000000E+09 +1.51008960550E-01 -4.54851719019E-01 +5.49804217282E-04 +4.21095509213E-03 +5.63258030831E-04 +4.28007780295E-03 +2.99735359263E-01 -6.11404615910E-01
4.16500000000E+09 +1.32873159328E-01 -4.52813756985E-01 +7.66619694254E-04 +4.43181801623E-03 +7.09014435621E-04 +4.46461371604E-03 +2.79998122173E-01 -6.12160733689E-01
4.17000000000E+09 +1.16648738236E-01 -4.48200516032E-01 +1.37575685262E-03 +4.69832182565E-03 +1.30448926469E-03 +4.83778502695E-03 +2.59282682327E-01 -6.12454985901E-01
4.17500000000E+09 +1.01177919769E-01 -4.42627772302E-01 +2.00161857566E-03 +4.68920888236E-03 +1.89472021456E-03 +4.84538429319E-03 +2.37906986132E-01 -6.12488954308E-01
4.18000000000E+09 +8.59856173477E-02 -4.35990489907E-01 +2.80822009992E-03 +4.42353423326E-03 +2.76210484878E-03 +4.60510341831E-03 +2.16125859307E-01 -6.12177363619E-01
4.18500000000E+09 +6.96220403462E-02 -4.28186601804E-01 +3.21047776812E-03 +4.15456398265E-03 +3.15210560863E-03 +4.29302905594E-03 +1.93597028331E-01 -6.10992875821E-01
4.19000000000E+09 +5.28956646216E-02 -4.19769220368E-01 +3.80346740730E-03 +4.14262058589E-03 +3.76323473579E-03 +4.32893521473E-03 +1.72262019102E-01 -6.08821553619E-01
4.19500000000E+09 +3.49331993937E-02 -4.10879831544E-01 +4.60726298640E-03 +3.68390804264E-03 +4.65479999603E-03 +3.88030401868E-03 +1.50963118059E-01 -6.06377507099E-01
4.20000000000E+09 +1.73306130918E-02 -4.01695440238E-01 +4.98108163178E-03 +2.82145008873E-03 +5.09348773709E-03 +3.03884850094E-03 +1.29093368970E-01 -6.03705875729E-01
4.20500000000E+09 +7.73693477731E-04 -3.93974141289E-01 +5.18717212470E-03 +2.16213813562E-03 +5.31693873247E-03 +2.43800269502E-03 +1.06497744454E-01 -5.99717045888E-01
4.21000000000E+09 -1.59116165635E-02 -3.87169662263E-01 +5.31031309451E-03 +1.29112471067E-03 +5.52584165862E-03 +1.49347141751E-03 +8.35378535271E-02 -5.94302000711E-01
4.21500000000E+09 -3.27245730196E-02 -3.80196574524E-01 +5.05039505431E-03 +1.34180488125E-03 +5.22117419416E-03 +1.43613379447E-03 +6.20454055925E-02 -5.89144805139E-01
4.22000000000E+09 -4.83267555081E-02 -3.71567004068E-01 +5.54322628610E-03 +1.34689053159E-03 +5.78485041127E-03 +1.45323755433E-03 +3.96325332512E-02 -5.83671742780E-01
4.22500000000E+09 -6.23200047697E-02 -3.61513465503E-01 +6.49615447517E-03 +4.20550454669E-04 +6.72669377726E-03 +5.02691348312E-04 +1.69340173366E-02 -5.77272937819E-01
4.23000000000E+09 -7.45492180578E-02 -3.49951927337E-01 +6.40757220941E-03 -1.11469039172E-03 +6.65310320709E-03 -1.05228874954E-03 -5.14465233927E-03 -5.69012362733E-01
4.23500000000E+09 -8.63193318126E-02 -3.37691242243E-01 +5.69651405130E-03 -1.75568435892E-03 +5.92928448364E-03 -1.75597590015E-03 -2.64892856902E-02 -5.59450798266E-01
4.24000000000E+09 -9.88332404558E-02 -3.24602328927E-01 +5.33686827966E-03 -2.08118718232E-03 +5.53960078252E-03 -2.18669525958E-03 -4.73660669208E-02 -5.49593755128E-01
4.24500000000E+09 -1.12505826607E-01 -3.10244050772E-01 +5.26408078357E-03 -2.10265951704E-03 +5.40633564585E-03 -2.29036744247E-03 -6.80738011106E-02 -5.39660405324E-01
4.25000000000E+09 -1.26842114434E-01 -2.94848427130E-01 +5.43284202009E-03 -2.78731800109E-03 +5.56335508135E-03 -2.87620799723E-03 -9.01597810901E-02 -5.28483704104E-01
4.25500000000E+09 -1.41584515933E-01 -2.80141768577E-01 +5.10461632778E-03 -3.74913102200E-03 +5.19103248581E-03 -3.83066657929E-03 -1.11628108902E-01 -5.16216571089E-01
4.26000000000E+09 -1.57057108301E-01 -2.66742582485E-01 +4.37641807830E-03 -4.17702092346E-03 +4.46583510240E-03 -4.29581659327E-03 -1.32378535544E-01 -5.02226467243E-01
4.26500000000E+09 -1.73614329865E-01 -2.54425343642E-01 +4.16343612367E-03 -3.99859127744E-03 +4.16507277394E-03 -4.17462148640E-03 -1.52291296216E-01 -4.87510775135E-01
4.27000000000E+09 -1.89725660236E-01 -2.41615425541E-01 +4.22174656012E-03 -4.72104727310E-03 +4.18963472420E-03 -4.81148290617E-03 -1.71413646227E-01 -4.72206199147E-01
4.27500000000E+09 -2.04725097921E-01 -2.28475559615E-01 +3.83923885433E-03 -5.35743062221E-03 +3.82476734722E-03 -5.46676258038E-03 -1.91586200246E-01 -4.55946624283E-01
4.28000000000E+09 -2.16616692741E-01 -2.13889260222E-01 +3.36420643135E-03 -6.02712171490E-03 +3.31452914047E-03 -6.10200323987E-03 -2.10235974651E-01 -4.39156286005E-01
4.28500000000E+09 -2.25353789901E-01 -1.99917007635E-01 +2.83954091901E-03 -6.87876527598E-03 +2.80978147837E-03 -6.89737605472E-03 -2.29354098219E-01 -4.22290368246E-01
4.29000000000E+09 -2.33150550571E-01 -1.85719259564E-01 +1.27403147954E-03 -7.41442371578E-03 +1.23706695747E-03 -7.42365928069E-03 -2.46541375234E-01 -4.03525007032E-01
4.29500000000E+09 -2.40906607661E-01 -1.70725517671E-01 +3.21480123585E-04 -6.65753830341E-03 +4.19252280761E-04 -6.72022200644E-03 -2.61380151132E-01 -3.87120591387E-01
4.30000000000E+09 -2.48916023073E-01 -1.53334553125E-01 -1.28450724798E-04 -6.57964986424E-03 -1.07602934388E-04 -6.59529525315E-03 -2.78272056408E-01 -3.69606993759E-01
4.30500000000E+09 -2.56674637065E-01 -1.34640699368E-01 -3.48277115161E-04 -6.36106227667E-03 -3.42346317910E-04 -6.45210782536E-03 -2.94527722288E-01 -3.49056898340E-01
4.31000000000E+09 -2.64430718149E-01 -1.14575983738E-01 -4.77581152038E-04 -6.75926632884E-03 -4.23957939839E-04 -6.89528887997E-03 -3.09371593871E-01 -3.28292532168E-01
4.31500000000E+09 -2.71712386038E-01 -9.53768207269E-02 -1.42136947704E-03 -7.18794738472E-03 -1.39964487697E-03 -7.36333910602E-03 -3.23300383113E-01 -3.06507376974E-01
4.32000000000E+09 -2.78860276658E-01 -7.65571500904E-02 -2.15866387931E-03 -7.21534481935E-03 -2.20430218654E-03 -7.41929301501E-03 -3.36404377956E-01 -2.85226052962E-01
4.32500000000E+09 -2.85004370259E-01 -6.02828394566E-02 -3.49170776642E-03 -6.34077769716E-03 -3.72433086668E-03 -7.56484354481E-03 -3.49085769290E-01 -2.63357264998E-01
4.33000000000E+09 -2.91716711941E-01 -4.42399648251E-02 -4.49166849922E-03 -6.84915519705E-03 -4.61144640120E-03 -6.91960836880E-03 -3.60965249339E-01 -2.39618230656E-01
4.33500000000E+09 -2.96296400758E-01 -2.76904172074E-02 -5.56537325127E-03 -6.24888780639E-03 -5.70764029549E-03 -6.26208308106E-03 -3.70615278180E-01 -2.15010935566E-01
4.34000000000E+09 -2.98522845095E-01 -1.16112533433E-02 -6.43638757192E-03 -5.17869940940E-03 -6.52220023474E-03 -5.25107328610E-03 -3.78767863628E-01 -1.91259735662E-01
4.34500000000E+09 -2.98642334859E-01 +4.37930828916E-03 -6.26216038481E-03 -3.96463826815E-03 -6.36180476996E-03 -3.98862907614E-03 -3.88530567146E-01 -1.68506420216E-01
4.35000000000E+09 -2.98360519044E-01 +2.15139700139E-02 -6.17987721725E-03 -4.03161140863E-03 -6.28172454616E-03 -4.04779326929E-03 -3.98540840905E-01 -1.43345572360E-01
4.35500000000E+09 -2.96821239828E-01 +3.97925630068E-02 -7.17944780233E-03 -3.79785112741E-03 -7.27002830668E-03 -3.74047040862E-03 -4.05654407133E-01 -1.17079581705E-01
4.36000000000E+09 -2.95597467466E-01 +5.89856511770E-02 -7.40205151128E-03 -3.06054105672E-03 -7.49687663402E-03 -3.01365283143E-03 -4.10791176644E-01 -9.28007472346E-02
4.36500000000E+09 -2.94153753363E-01 +7.92444977695E-02 -8.53977808568E-03 -3.04757458259E-03 -8.73083844431E-03 -2.97629208130E-03 -4.15115175404E-01 -6.88522751767E-02
4.37000000000E+09 -2.93693348125E-01 +9.86609073335E-02 -9.65360016350E-03 -1.11991983691E-03 -9.87336036281E-03 -9.67557434942E-04 -4.18365479416E-01 -4.46158669269E-02
4.37500000000E+09 -2.94396166211E-01 +1.17592171926E-01 -9.20846818790E-03 +7.66304379793E-04 -9.31031342942E-03 +9.62101411480E-04 -4.20464623331E-01 -1.99095128347E-02
4.38000000000E+09 -2.95505168838E-01 +1.35558866474E-01 -8.85190816860E-03 +1.46072844053E-03 -8.94281995004E-03 +1.74097065106E-03 -4.22115024945E-01 +6.11203012662E-03
4.38500000000E+09 -2.96203209356E-01 +1.52323506058E-01 -8.40879600078E-03 +2.41297309454E-03 -8.42790676712E-03 +2.67354993943E-03 -4.21520886658E-01 +3.14634131223E-02
4.39000000000E+09 -2.95605359053E-01 +1.67792291647E-01 -8.03026551948E-03 +3.19916059360E-03 -8.07196398475E-03 +3.42394142867E-03 -4.21508489548E-01 +5.54380902065E-02
4.39500000000E+09 -2.93455851417E-01 +1.81511331569E-01 -8.08028945513E-03 +3.75447937434E-03 -8.02401901316E-03 +3.98473472665E-03 -4.21175917510E-01 +7.96920846463E-02
4.40000000000E+09 -2.89377004972E-01 +1.94948143537E-01 -7.58068282688E-03 +5.16001372088E-03 -7.45406581108E-03 +5.37777127772E-03 -4.19728649363E-01 +1.03924722731E-01
4.40500000000E+09 -2.84236457229E-01 +2.07675780058E-01 -7.03910398321E-03 +6.10912862056E-03 -6.96516625517E-03 +6.22066178307E-03 -4.16019251813E-01 +1.28231686137E-01
4.41000000000E+09 -2.78049824194E-01 +2.21867542907E-01 -6.03373863841E-03 +6.43871328280E-03 -5.92145506017E-03 +6.55617935092E-03 -4.11236047500E-01 +1.52155575414E-01
4.41500000000E+09 -2.70668721609E-01 +2.37824699324E-01 -5.74123019407E-03 +7.59768280068E-03 -5.60196175914E-03 +7.69741450453E-03 -4.05756553209E-01 +1.75471325567E-01
4.42000000000E+09 -2.63236367468E-01 +2.54604012244E-01 -4.79417950135E-03 +8.07874008750E-03 -4.60812782372E-03 +8.08139141538E-03 -3.98820869531E-01 +1.98850565331E-01
4.42500000000E+09 -2.56036591954E-01 +2.71747798848E-01 -3.90171987878E-03 +9.23012146032E-03 -3.75341204531E-03 +9.18742388667E-03 -3.93008713414E-01 +2.20478072850E-01
4.43000000000E+09 -2.49983672890E-01 +2.88870544646E-01 -1.98912645530E-03 +9.65982042212E-03 -1.83072900717E-03 +9.57348489297E-03 -3.86171544658E-01 +2.43459418028E-01
4.43500000000E+09 -2.44390686409E-01 +3.05301601569E-01 -7.71025862754E-04 +9.22760834065E-03 -6.86470858969E-04 +9.09100379097E-03 -3.77403277690E-01 +2.65298177966E-01
4.44000000000E+09 -2.39845973532E-01 +3.19506818609E-01 +2.90854529528E-04 +8.73883344876E-03 +3.14908042645E-04 +8.66026601595E-03 -3.69202798231E-01 +2.85280272355E-01
4.44500000000E+09 -2.35530226067E-01 +3.31845400344E-01 +7.22837026390E-04 +8.62014383060E-03 +7.40373498420E-04 +8.60658468548E-03 -3.60505672564E-01 +3.05738902220E-01
4.45000000000E+09 -2.31507167118E-01 +3.42798175483E-01 +1.36029975199E-03 +8.42905167420E-03 +1.42930464909E-03 +8.40770408558E-03 -3.50516003547E-01 +3.26036514997E-01
4.45500000000E+09 -2.25325166322E-01 +3.52672128745E-01 +2.24223293442E-03 +8.82959654877E-03 +2.37170107578E-03 +8.87403052275E-03 -3.39408654478E-01 +3.45126820991E-01
4.46000000000E+09 -2.18170795548E-01 +3.61662601397E-01 +3.65639951499E-03 +8.40841241770E-03 +3.82008682482E-03 +8.33935432891E-03 -3.26895666673E-01 +3.63720879900E-01
4.46500000000E+09 -2.08262912978E-01 +3.71369526299E-01 +4.45655983120E-03 +7.53244146975E-03 +4.57344663046E-03 +7.45212815585E-03 -3.14965136232E-01 +3.80015530467E-01
4.47000000000E+09 -1.96713430159E-01 +3.81188432840E-01 +5.20738798397E-03 +7.20531137632E-03 +5.32093090715E-03 +7.08327652342E-03 -3.03419999775E-01 +3.97255623605E-01
4.47500000000E+09 -1.83656661907E-01 +3.91750775072E-01 +5.74469881376E-03 +6.53500578099E-03 +5.86684529903E-03 +6.38160639728E-03 -2.91216123625E-01 +4.14848494567E-01
4.48000000000E+09 -1.71507546462E-01 +4.02472858421E-01 +6.64425703314E-03 +5.81705965903E-03 +6.71901718925E-03 +5.70479553890E-03 -2.78007505244E-01 +4.31380034364E-01
4.48500000000E+09 -1.60518930862E-01 +4.14751381627E-01 +7.32106000929E-03 +5.24238805100E-03 +7.40328052020E-03 +5.00795293876E-03 -2.64217214086E-01 +4.46234591841E-01
4.49000000000E+09 -1.50494003041E-01 +4.27345098631E-01 +7.85246388314E-03 +3.50457382315E-03 +7.78589457104E-03 +3.35919011252E-03 -2.51450966748E-01 +4.60861178137E-01
4.49500000000E+09 -1.41978736326E-01 +4.39333678288E-01 +7.27408700841E-03 +2.94619355217E-03 +7.16219015560E-03 +2.80103378866E-03 -2.37907410147E-01 +4.75585022488E-01
4.50000000000E+09 -1.34550081566E-01 +4.50181544562E-01 +7.54795930558E-03 +2.80200718124E-03 +7.52227390954E-03 +2.70181008919E-03 -2.23055348530E-01 +4.88979216397E-01
4.50500000000E+09 -1.27796685841E-01 +4.59414943281E-01 +8.10729909752E-03 +2.12510036767E-03 +8.09292374613E-03 +1.99228541380E-03 -2.09293370886E-01 +5.01800575182E-01
4.51000000000E+09 -1.20550297916E-01 +4.66105380312E-01 +8.66872935100E-03 +1.15735489959E-03 +8.61171294205E-03 +1.01014916702E-03 -1.94043188751E-01 +5.14170745042E-01
4.51500000000E+09 -1.13470991821E-01 +4.71176535206E-01 +8.67760360375E-03 -2.71378661426E-05 +8.59000290905E-03 -1.78400295853E-04 -1.80029879933E-01 +5.25043957654E-01
4.52000000000E+09 -1.04742379032E-01 +4.75938825009E-01 +8.70427380196E-03 -1.27820310275E-03 +8.53774427268E-03 -1.50011733666E-03 -1.66286877064E-01 +5.36224620961E-01
4.52500000000E+09 -9.39721523347E-02 +4.79957650572E-01 +8.00773684411E-03 -2.01802857088E-03 +7.81452875463E-03 -2.17941631159E-03 -1.52058219886E-01 +5.46870261298E-01
4.53000000000E+09 -8.18318905147E-02 +4.84602352916E-01 +7.93080273825E-03 -2.75948912748E-03 +7.65321238949E-03 -2.94240695143E-03 -1.37142853132E-01 +5.56297740384E-01
4.53500000000E+09 -6.82888238655E-02 +4.90143399072E-01 +7.35413537879E-03 -3.77243545135E-03 +7.06727700436E-03 -3.87295730835E-03 -1.22624770162E-01 +5.65588261618E-01
4.54000000000E+09 -5.38982073758E-02 +4.96260894861E-01 +6.90933376205E-03 -4.22512309153E-03 +6.60234380343E-03 -4.26902129185E-03 -1.06379767864E-01 +5.74639113017E-01
4.54500000000E+09 -4.05001217086E-02 +5.02878362186E-01 +6.29554212124E-03 -4.91451661439E-03 +6.00270107811E-03 -4.93343816852E-03 -9.15803655303E-02 +5.83440684031E-01
4.55000000000E+09 -2.80964892155E-02 +5.10275736120E-01 +5.91168191324E-03 -5.62297162080E-03 +5.60440841873E-03 -5.56030269197E-03 -7.54193919436E-02 +5.92273847603E-01
4.55500000000E+09 -1.69485270755E-02 +5.17313281665E-01 +5.02586388574E-03 -5.85822994328E-03 +4.76180626464E-03 -5.78029386482E-03 -5.96897082950E-02 +6.00111731520E-01
4.56000000000E+09 -8.11407863114E-03 +5.24235277189E-01 +4.59492617975E-03 -6.49504467977E-03 +4.35121188861E-03 -6.42094504943E-03 -4.45229029758E-02 +6.05899529342E-01
4.56500000000E+09 +6.50774056738E-04 +5.30441370759E-01 +3.92555086497E-03 -6.88383256100E-03 +3.70926876935E-03 -6.73569329914E-03 -3.04045969670E-02 +6.12393451838E-01
4.57000000000E+09 +9.16513323326E-03 +5.35178811387E-01 +3.08514831329E-03 -7.31808390148E-03 +2.90143834120E-03 -7.17565629353E-03 -1.53183666041E-02 +6.18429297641E-01
