# Hz S RI R 50
! CMT, C1220, 16058040, 17.2.0/1
! Date: 15/08/2018 12:11:00
! Data: Format (Calibration Info)
! Freq                      S11: Re/Im (F2)                       S21: Re/Im (F2)                       S12: Re/Im (F2)                       S22: Re/Im (F2)            
4.00000000000E+09 +6.54148702927E-01 -3.52422011553E-01 -2.88589479545E-04 -4.83437221554E-04 -3.06769407933E-04 -4.61519749659E-04 +7.67242946532E-01 -3.21269405263E-01
4.00500000000E+09 +6.46250127962E-01 -3.58600959813E-01 -4.08827538196E-04 -1.28236400711E-04 -3.70213669807E-04 -2.23719606710E-04 +7.58027579107E-01 -3.31785932418E-01
4.01000000000E+09 +6.37493967376E-01 -3.64326668884E-01 -1.25241649847E-04 -9.85426706582E-05 -1.31346531067E-04 -1.40305906865E-04 +7.48405035037E-01 -3.42219680614E-01
4.01500000000E+09 +6.27972282700E-01 -3.71192938718E-01 -1.25911920039E-04 -2.63769300921E-04 -1.57927204269E-04 -3.50155034438E-04 +7.38852713070E-01 -3.52066689176E-01
4.02000000000E+09 +6.17091826069E-01 -3.79317676914E-01 -4.06974157571E-04 -2.80387956993E-04 -4.34958667578E-04 -3.61791142418E-04 +7.28485018723E-01 -3.62296715593E-01
4.02500000000E+09 +6.05433193566E-01 -3.88308368892E-01 -4.86285256569E-04 -4.84033058490E-05 -4.98867724896E-04 -2.63327062274E-05 +7.17690802554E-01 -3.71665254925E-01
4.03000000000E+09 +5.94265212702E-01 -3.98151030654E-01 -3.62266656581E-04 +1.11474920105E-04 -3.40422659788E-04 +1.02765331733E-04 +7.07124621029E-01 -3.81183055377E-01
4.03500000000E+09 +5.83309046805E-01 -4.09670732303E-01 -2.12254075838E-04 +1.75900062740E-05 -2.02016010310E-04 +1.00499581703E-04 +6.95980044721E-01 -3.91139396367E-01
4.04000000000E+09 +5.72016568829E-01 -4.20850969652E-01 -1.41698194146E-04 +6.68842152450E-05 -1.76093464897E-04 +1.15020831313E-04 +6.84743488481E-01 -4.01100675548E-01
4.04500000000E+09 +5.61489304351E-01 -4.31004887487E-01 -8.70389184542E-05 +2.83435652941E-05 -9.37215827997E-05 +6.71400625251E-05 +6.72735827987E-01 -4.10985210110E-01
4.05000000000E+09 +5.50824145688E-01 -4.39816272093E-01 -5.86524408999E-05 -1.93484891523E-04 -6.91288301917E-05 -1.47274132329E-04 +6.60794721142E-01 -4.19718737515E-01
4.05500000000E+09 +5.39995173489E-01 -4.46465878686E-01 -2.61026691211E-04 -1.75711877319E-04 -2.48472643238E-04 -1.96868724304E-04 +6.48720151572E-01 -4.28517740359E-01
4.06000000000E+09 +5.28898344202E-01 -4.51746391424E-01 -2.31508721477E-04 -1.48122393560E-04 -2.54347135612E-04 -1.43515516464E-04 +6.35893977088E-01 -4.37061545897E-01
4.06500000000E+09 +5.16591169391E-01 -4.55911421425E-01 -3.46444695107E-04 -1.20692454944E-04 -4.03593404349E-04 -1.31249094155E-04 +6.22348022885E-01 -4.45217270549E-01
4.07000000000E+09 +5.03218390601E-01 -4.59805049003E-01 -3.83239090276E-04 +1.03626492406E-04 -3.64285929905E-04 +9.88644997322E-05 +6.08449078677E-01 -4.53393242485E-01
4.07500000000E+09 +4.88404113466E-01 -4.64295581408E-01 -2.32013965825E-04 +8.30871618084E-05 -2.15029279286E-04 +7.05554154836E-05 +5.94290745187E-01 -4.61547234983E-01
4.08000000000E+09 +4.71875258082E-01 -4.69155126527E-01 -2.29662044003E-04 -1.21714370221E-05 -2.41145890954E-04 -1.76662768087E-05 +5.80583832726E-01 -4.69199416501E-01
4.08500000000E+09 +4.55289139340E-01 -4.74360680372E-01 -3.96314414316E-04 +6.71185600254E-05 -3.97021560503E-04 +8.62688206696E-05 +5.66368764478E-01 -4.77156588269E-01
4.09000000000E+09 +4.38518406340E-01 -4.81383180161E-01 -1.81617529435E-04 +6.60195360092E-05 -1.78318899717E-04 +8.78144348489E-05 +5.51729297137E-01 -4.83685835817E-01
4.09500000000E+09 +4.21440801316E-01 -4.88872797272E-01 -3.90712558742E-04 -2.53577520668E-05 -3.96921971575E-04 -2.54756833532E-05 +5.37486960695E-01 -4.90192176836E-01
4.10000000000E+09 +4.03694856351E-01 -4.95912767906E-01 -5.64372816622E-04 +1.68857523510E-04 -5.67484486210E-04 +1.70453253070E-04 +5.21137232303E-01 -4.96523933137E-01
4.10500000000E+09 +3.86399750417E-01 -5.00485743323E-01 -5.01411991926E-04 +5.06220050247E-04 -5.61257196163E-04 +4.81405081690E-04 +5.04973508644E-01 -5.01794470608E-01
4.11000000000E+09 +3.70057986858E-01 -5.02956879151E-01 -2.38432365980E-04 +6.16680196449E-04 -3.00405517971E-04 +6.75459199402E-04 +4.88410515391E-01 -5.07514778569E-01
4.11500000000E+09 +3.55406563507E-01 -5.04003854628E-01 +2.38473849100E-04 +4.87641214249E-04 +1.73295823552E-04 +5.17321311739E-04 +4.71859310522E-01 -5.12592179188E-01
4.12000000000E+09 +3.40299996634E-01 -5.05142667041E-01 -4.67719291343E-06 -5.63112806443E-05 +4.29529350960E-05 -4.25424133471E-05 +4.55741940930E-01 -5.17871129766E-01
4.12500000000E+09 +3.23663559741E-01 -5.05859571256E-01 -2.77513226640E-04 +1.75829332339E-04 -3.28346528101E-04 +1.35807273654E-04 +4.38231957577E-01 -5.22655047810E-01
4.13000000000E+09 +3.05751774667E-01 -5.07045147601E-01 -3.25198356822E-04 +3.72988610265E-04 -3.29455281916E-04 +4.04273559730E-04 +4.21342402917E-01 -5.25810806396E-01
4.13500000000E+09 +2.85584119966E-01 -5.08420534163E-01 -2.51006435283E-04 +4.88612399304E-04 -2.62906229959E-04 +4.75995504317E-04 +4.04113938091E-01 -5.29417455508E-01
4.14000000000E+09 +2.65013836410E-01 -5.09857010881E-01 +1.33103572308E-05 +7.17684349557E-04 -3.03144680265E-05 +7.02448909039E-04 +3.85453421907E-01 -5.32452941106E-01
4.14500000000E+09 +2.44696969553E-01 -5.12744535496E-01 +4.87443822745E-04 +3.98274245484E-04 +5.36083334095E-04 +4.55285966264E-04 +3.67125586755E-01 -5.35412105508E-01
4.15000000000E+09 +2.24020672507E-01 -5.16893953046E-01 +3.29500748651E-04 -1.29623005500E-04 +3.58357531095E-04 -1.38343858554E-04 +3.48685786337E-01 -5.37578221667E-01
4.15500000000E+09 +2.03258452192E-01 -5.20748504097E-01 -2.28121635718E-04 +5.72027528603E-05 -2.57416904174E-04 +6.90504870310E-05 +3.30325175525E-01 -5.39180186540E-01
4.16000000000E+09 +1.83643938465E-01 -5.22957976439E-01 -1.44573878594E-04 +2.69263118379E-04 -1.43145710896E-04 +3.49834003181E-04 +3.12135928462E-01 -5.39997592603E-01
4.16500000000E+09 +1.65613273614E-01 -5.23392294173E-01 -6.02543392351E-05 +3.46701397726E-04 -7.09956505838E-05 +2.80701536895E-04 +2.93303578572E-01 -5.39706484835E-01
4.17000000000E+09 +1.49143771430E-01 -5.21966192051E-01 +6.26327849754E-05 +5.43609838417E-04 +6.65296986749E-05 +5.53777695957E-04 +2.74667085614E-01 -5.38634907288E-01
4.17500000000E+09 +1.33584302947E-01 -5.19238045172E-01 +3.29631080707E-04 +1.35283492137E-04 +3.43705476575E-04 +1.37058217051E-04 +2.55643859411E-01 -5.37143958430E-01
4.18000000000E+09 +1.17540878141E-01 -5.14804436892E-01 -4.61267862865E-05 +9.89687714270E-05 -7.40568238391E-05 +1.06225342416E-04 +2.36286733319E-01 -5.35413034048E-01
4.18500000000E+09 +1.00988764780E-01 -5.09578514697E-01 -7.64543916356E-05 +3.51183311961E-04 -6.09979231141E-05 +2.76190281991E-04 +2.16921795526E-01 -5.33074806578E-01
4.19000000000E+09 +8.31591765744E-02 -5.03643510544E-01 +1.15329581134E-04 +2.95188511475E-04 +9.39849030693E-05 +2.34472310675E-04 +1.97683154716E-01 -5.30224119685E-01
4.19500000000E+09 +6.44592856146E-02 -4.97563603537E-01 -1.25074166872E-04 +3.78591290986E-04 -1.57086069938E-04 +4.19951583736E-04 +1.78811702134E-01 -5.26731113159E-01
4.20000000000E+09 +4.52768140901E-02 -4.91988357667E-01 +1.26290645946E-04 +6.05196700254E-04 +1.00583235306E-04 +6.28679607777E-04 +1.59409607764E-01 -5.23068806735E-01
4.20500000000E+09 +2.57285364325E-02 -4.87080103084E-01 +4.51455098281E-04 +4.47313768065E-04 +4.49402417015E-04 +4.72919336081E-04 +1.39710998374E-01 -5.17271229901E-01
4.21000000000E+09 +6.57503893455E-03 -4.82074441013E-01 +2.33040345016E-04 +2.41512710133E-04 +2.28308333899E-04 +2.23173396679E-04 +1.20684900990E-01 -5.11766924654E-01
4.21500000000E+09 -1.22587814076E-02 -4.76476102467E-01 +1.95954722740E-04 +4.82374760968E-04 +1.78940859722E-04 +4.93290126061E-04 +1.01411307430E-01 -5.05792309203E-01
4.22000000000E+09 -2.97233493728E-02 -4.68948337964E-01 +4.79345313023E-04 +5.01448525876E-04 +5.25950673936E-04 +5.24196470088E-04 +8.26893219037E-02 -4.98819447746E-01
4.22500000000E+09 -4.48275017254E-02 -4.60223853683E-01 +3.63088266196E-04 +2.39965450868E-04 +4.81386446013E-04 +2.58993591174E-04 +6.48228746175E-02 -4.92225438113E-01
4.23000000000E+09 -5.96592602765E-02 -4.50481253809E-01 +4.16249479714E-04 +2.80305477001E-04 +4.24058701566E-04 +2.62109655193E-04 +4.61092127350E-02 -4.84811853900E-01
4.23500000000E+09 -7.44911453322E-02 -4.38820505464E-01 +2.75915154916E-04 +4.70299505816E-04 +2.39138088583E-04 +4.92051230266E-04 +2.80543715139E-02 -4.76067293951E-01
4.24000000000E+09 -8.94749661953E-02 -4.26087261633E-01 +7.30235620686E-04 +6.52574047334E-04 +7.88861926024E-04 +6.44654607067E-04 +9.61074984644E-03 -4.66982352106E-01
4.24500000000E+09 -1.06485895713E-01 -4.13433074364E-01 +1.23176465566E-03 +3.88652322747E-04 +1.27720058046E-03 +3.87218588659E-04 -8.81733989340E-03 -4.56518715580E-01
4.25000000000E+09 -1.25554963528E-01 -3.99693050792E-01 +1.24344124316E-03 -2.68717144456E-04 +1.28024826092E-03 -2.92574122471E-04 -2.62433243431E-02 -4.45069057660E-01
4.25500000000E+09 -1.45130145722E-01 -3.85612269214E-01 +8.09371706074E-04 -5.79918990304E-04 +8.37527116808E-04 -5.73173992896E-04 -4.34607765275E-02 -4.33902551999E-01
4.26000000000E+09 -1.64976007530E-01 -3.72769660140E-01 +4.13911191341E-04 -3.48276872910E-04 +4.42514755054E-04 -3.37134040851E-04 -6.05660287580E-02 -4.21127394716E-01
4.26500000000E+09 -1.84500700116E-01 -3.59579561934E-01 +6.17439874813E-04 -1.37084053633E-04 +6.73185605151E-04 -8.93023206732E-05 -7.57825075263E-02 -4.07978674685E-01
4.27000000000E+09 -2.01744880244E-01 -3.47039694132E-01 +7.52179846219E-04 -2.50403531142E-04 +8.46380200276E-04 -3.49350801226E-04 -9.17228806950E-02 -3.95325609643E-01
4.27500000000E+09 -2.17212088501E-01 -3.35197434385E-01 +8.28329535935E-04 -3.84754691138E-04 +8.26218887340E-04 -3.07275752197E-04 -1.08080250645E-01 -3.81080500703E-01
4.28000000000E+09 -2.30773437491E-01 -3.22416083313E-01 +8.18424094038E-04 -6.39122412055E-04 +8.08489146557E-04 -6.74240429361E-04 -1.23233957934E-01 -3.66718144956E-01
4.28500000000E+09 -2.43105160228E-01 -3.08253557376E-01 +4.91394987308E-04 -6.98807361091E-04 +5.08490665659E-04 -6.94119708008E-04 -1.38675444971E-01 -3.52482222870E-01
4.29000000000E+09 -2.53484129305E-01 -2.91777462344E-01 +6.79213520900E-04 -5.97432795674E-04 +6.64771148559E-04 -6.09387867143E-04 -1.53808036715E-01 -3.37203190470E-01
4.29500000000E+09 -2.63369369144E-01 -2.73642359733E-01 +5.36726503032E-04 -1.06941988614E-03 +5.92310360715E-04 -1.04972661100E-03 -1.67635680825E-01 -3.21091186849E-01
4.30000000000E+09 -2.72831529332E-01 -2.54029753171E-01 +2.22349308997E-04 -8.95062663112E-04 +2.20254128203E-04 -8.66477472399E-04 -1.79937963833E-01 -3.04710924867E-01
4.30500000000E+09 -2.83531059791E-01 -2.34411044226E-01 +2.69311683666E-04 -1.03061508923E-03 +2.64120287350E-04 -1.03795914317E-03 -1.92097730199E-01 -2.88062609583E-01
4.31000000000E+09 -2.95985735559E-01 -2.14308548727E-01 +1.03875468561E-04 -1.11486372104E-03 +9.43476725126E-05 -1.13882401330E-03 -2.03187509491E-01 -2.70998865975E-01
4.31500000000E+09 -3.09316390144E-01 -1.94129648384E-01 -2.32453483586E-04 -9.65391605180E-04 -2.70122572193E-04 -9.55230821639E-04 -2.14145117765E-01 -2.53888082747E-01
4.32000000000E+09 -3.22432718815E-01 -1.74473035748E-01 -2.44605670243E-04 -9.04921515498E-04 -2.40316015892E-04 -8.90752599053E-04 -2.25360153104E-01 -2.35966272442E-01
4.32500000000E+09 -3.33674962639E-01 -1.56090529132E-01 -1.68281072088E-04 -7.13890604851E-04 -1.94334780787E-04 -7.03555709729E-04 -2.34838537120E-01 -2.17435272608E-01
4.33000000000E+09 -3.42860884613E-01 -1.39349765826E-01 -1.94549915895E-04 -9.08180131158E-04 -1.64045293640E-04 -8.80567712420E-04 -2.44538114568E-01 -1.99085247368E-01
4.33500000000E+09 -3.50017237710E-01 -1.23446275779E-01 -1.92555984828E-04 -8.75157468870E-04 -1.62447819073E-04 -8.18243569289E-04 -2.53450570319E-01 -1.79205955308E-01
4.34000000000E+09 -3.54907536603E-01 -1.07509908402E-01 -5.17778429331E-04 -1.10360221259E-03 -5.46354546040E-04 -1.07850148565E-03 -2.60877912560E-01 -1.59200894047E-01
4.34500000000E+09 -3.57633818721E-01 -9.06744816184E-02 -5.64127887826E-04 -7.98219170831E-04 -6.74552719046E-04 -7.99178010053E-04 -2.68264761867E-01 -1.39419570716E-01
4.35000000000E+09 -3.58924191509E-01 -7.24511780356E-02 -6.72010305513E-04 -7.28927842915E-04 -6.68463509180E-04 -7.46210450985E-04 -2.74970431920E-01 -1.19579024564E-01
4.35500000000E+09 -3.60447255346E-01 -5.20761965229E-02 -7.28648287381E-04 -6.27009017493E-04 -7.20784969563E-04 -6.21507438097E-04 -2.81252815767E-01 -9.97235550107E-02
4.36000000000E+09 -3.61485648147E-01 -2.96607724090E-02 -8.45589166786E-04 -9.01971574759E-04 -8.66188120197E-04 -9.16770107099E-04 -2.86504302716E-01 -8.00658127294E-02
4.36500000000E+09 -3.63236658244E-01 -6.85787110902E-03 -1.11398243802E-03 -3.94168866902E-04 -1.08311586684E-03 -4.32332327075E-04 -2.90727923048E-01 -6.00778065367E-02
4.37000000000E+09 -3.66474725015E-01 +1.63643654398E-02 -9.81777929253E-04 -4.00439182766E-04 -9.97660453244E-04 -3.60440300353E-04 -2.93644666425E-01 -4.08483330201E-02
4.37500000000E+09 -3.70345923467E-01 +3.80267792289E-02 -1.03717248037E-03 -2.28172225968E-04 -1.05333570734E-03 -2.11791220262E-04 -2.96776615217E-01 -2.05288573296E-02
4.38000000000E+09 -3.74928832931E-01 +5.79226854163E-02 -1.03748220150E-03 -1.21406965007E-04 -1.02614300238E-03 -1.46788679317E-04 -2.98339858839E-01 +3.34776995699E-04
4.38500000000E+09 -3.79057131131E-01 +7.59996992553E-02 -1.03541199482E-03 -4.74671268012E-05 -9.92203092264E-04 -1.09379518517E-04 -2.99444536223E-01 +2.03891426960E-02
4.39000000000E+09 -3.81984727226E-01 +9.21513031612E-02 -1.14723180967E-03 -9.19866215329E-05 -1.09758674776E-03 -5.97490062207E-05 -3.00055023625E-01 +4.10372784156E-02
4.39500000000E+09 -3.82420994161E-01 +1.06961518158E-01 -1.09823537052E-03 +1.71459083056E-04 -1.06427685946E-03 +1.61576735626E-04 -3.00689516008E-01 +6.03016410815E-02
4.40000000000E+09 -3.80236413777E-01 +1.21247217770E-01 -1.20449775688E-03 +1.32796038695E-04 -1.22811500479E-03 +1.53601640460E-04 -3.00308956121E-01 +8.04541201135E-02
4.40500000000E+09 -3.76636051937E-01 +1.35445661580E-01 -1.32734723272E-03 +4.49766233923E-04 -1.32691250818E-03 +5.05745966060E-04 -2.98653332815E-01 +9.98585283498E-02
4.41000000000E+09 -3.71784353547E-01 +1.52282943941E-01 -1.14684054362E-03 +8.19048390879E-04 -1.19590847004E-03 +8.23254244945E-04 -2.96535530485E-01 +1.19178449247E-01
4.41500000000E+09 -3.65099409586E-01 +1.71230010739E-01 -7.50913803192E-04 +8.06788709879E-04 -8.16676055565E-04 +7.49999676677E-04 -2.92774092119E-01 +1.38807256293E-01
4.42000000000E+09 -3.58093705311E-01 +1.91553199398E-01 -7.68455948379E-04 +8.24055709345E-04 -7.94202758949E-04 +8.71104556857E-04 -2.88825155000E-01 +1.58118735207E-01
4.42500000000E+09 -3.51629446839E-01 +2.12625357277E-01 -5.86016131768E-04 +6.10333561709E-04 -5.87326634212E-04 +6.01683735559E-04 -2.84508599971E-01 +1.76958059906E-01
4.43000000000E+09 -3.46777074901E-01 +2.33447973433E-01 -9.59760758125E-04 +8.80731398927E-04 -1.02634658641E-03 +9.03046169162E-04 -2.80121889225E-01 +1.95160170226E-01
4.43500000000E+09 -3.43530729420E-01 +2.53221134688E-01 -9.08975018734E-04 +1.14174202357E-03 -8.78184447804E-04 +1.17031005344E-03 -2.76386754377E-01 +2.13119216191E-01
4.44000000000E+09 -3.41284197171E-01 +2.72308215634E-01 -5.65635139306E-04 +1.33576966077E-03 -5.58233236872E-04 +1.36087363001E-03 -2.71429394427E-01 +2.32475743463E-01
4.44500000000E+09 -3.37787852065E-01 +2.89304917595E-01 -1.58708800567E-04 +1.62297211406E-03 -1.33575431152E-04 +1.62564148909E-03 -2.64173738920E-01 +2.50210209845E-01
4.45000000000E+09 -3.33136175674E-01 +3.02978237223E-01 +3.30464038120E-04 +1.15789655159E-03 +2.77540001368E-04 +1.11664005004E-03 -2.56919178948E-01 +2.66797020392E-01
4.45500000000E+09 -3.27893803891E-01 +3.15119132374E-01 +5.51716860238E-06 +8.61661659128E-04 -6.75320439690E-06 +8.04474276318E-04 -2.48718939380E-01 +2.83359978322E-01
4.46000000000E+09 -3.20107370548E-01 +3.26423158377E-01 -1.30957917500E-04 +9.72509731990E-04 -7.10490872777E-05 +9.52737990077E-04 -2.40282703545E-01 +2.99001724089E-01
4.46500000000E+09 -3.11229482174E-01 +3.37944024479E-01 -1.36971328165E-05 +1.27124905504E-03 -1.85182949872E-06 +1.29947642888E-03 -2.31822333447E-01 +3.14267983003E-01
4.47000000000E+09 -3.00626045041E-01 +3.51901458457E-01 +3.26491440005E-04 +1.03150765654E-03 +3.83419287612E-04 +1.04508020073E-03 -2.23187189509E-01 +3.29589647441E-01
4.47500000000E+09 -2.88155365919E-01 +3.67791072352E-01 +2.20782699672E-04 +1.21639761339E-03 +2.05410227438E-04 +1.14606845184E-03 -2.14386214528E-01 +3.44394285434E-01
4.48000000000E+09 -2.75194030996E-01 +3.84103430296E-01 +4.05213503131E-04 +1.17144224134E-03 +4.07693241383E-04 +1.16778874416E-03 -2.05129441639E-01 +3.59382167773E-01
4.48500000000E+09 -2.63634689686E-01 +4.00974846965E-01 +5.56888431745E-04 +1.42163650077E-03 +5.29616771035E-04 +1.38205980431E-03 -1.95128786215E-01 +3.73298605934E-01
4.49000000000E+09 -2.53766076814E-01 +4.17372948820E-01 +1.14030214291E-03 +1.33203410241E-03 +1.07862551185E-03 +1.27063846512E-03 -1.84850767697E-01 +3.86401975040E-01
4.49500000000E+09 -2.46390613125E-01 +4.32814632946E-01 +1.32130717617E-03 +7.39431549873E-04 +1.26822067880E-03 +7.18189472236E-04 -1.74784073961E-01 +3.99172401706E-01
4.50000000000E+09 -2.40417638568E-01 +4.47127789291E-01 +1.01115019212E-03 +7.70011774482E-04 +9.80898487660E-04 +7.59672582862E-04 -1.64213191609E-01 +4.11770918510E-01
4.50500000000E+09 -2.34720693745E-01 +4.59040718454E-01 +1.23378813568E-03 +4.75401204717E-04 +1.23182770552E-03 +4.47344171158E-04 -1.53764212041E-01 +4.23918028947E-01
4.51000000000E+09 -2.29034544499E-01 +4.68501319648E-01 +9.41041743998E-04 +5.07766211873E-04 +9.95267051445E-04 +4.93137058848E-04 -1.42850017003E-01 +4.35812779993E-01
4.51500000000E+09 -2.22014430836E-01 +4.76673408960E-01 +1.14912628057E-03 +6.09367935978E-04 +1.12930244559E-03 +5.81153897898E-04 -1.32451707042E-01 +4.47301297377E-01
4.52000000000E+09 -2.12663693215E-01 +4.84148842775E-01 +1.51689886200E-03 +4.88482538749E-04 +1.46538952428E-03 +4.67284934345E-04 -1.21274545226E-01 +4.58501635813E-01
4.52500000000E+09 -2.00354923818E-01 +4.91189310845E-01 +1.60534698022E-03 +1.90674234271E-04 +1.53651029430E-03 +1.85480191918E-04 -1.09595278180E-01 +4.69067843156E-01
4.53000000000E+09 -1.86571913430E-01 +4.98455391981E-01 +1.82188638427E-03 -3.34394728179E-04 +1.79147827327E-03 -3.62645161961E-04 -9.76763725265E-02 +4.78268898279E-01
4.53500000000E+09 -1.72009452204E-01 +5.07169781339E-01 +1.28734060431E-03 -5.37473848286E-04 +1.28481347058E-03 -5.33460489452E-04 -8.55644478790E-02 +4.88015261171E-01
4.54000000000E+09 -1.56956603951E-01 +5.17069804326E-01 +1.27839866494E-03 -6.02870491208E-04 +1.24771608999E-03 -6.03506132963E-04 -7.28125684276E-02 +4.96907441064E-01
4.54500000000E+09 -1.42479015698E-01 +5.27725062185E-01 +1.15507001807E-03 -6.72199746161E-04 +1.09564561972E-03 -6.71745562087E-04 -6.10487749529E-02 +5.05513463807E-01
4.55000000000E+09 -1.29862689304E-01 +5.38165850210E-01 +1.08751826601E-03 -8.53924962439E-04 +1.07514743138E-03 -8.62639658090E-04 -4.82253588257E-02 +5.14488068536E-01
4.55500000000E+09 -1.19371293207E-01 +5.48357548394E-01 +8.20208852970E-04 -9.07473523767E-04 +7.73205553927E-04 -8.94819664961E-04 -3.63435464452E-02 +5.22624786745E-01
4.56000000000E+09 -1.09796905851E-01 +5.57161416147E-01 +6.70254745718E-04 -6.78223559542E-04 +5.94827407367E-04 -7.62148665203E-04 -2.34847108634E-02 +5.30280075323E-01
4.56500000000E+09 -1.01510038418E-01 +5.63760592923E-01 +1.03330337150E-03 -8.05216932840E-04 +9.94748994271E-04 -8.63796515520E-04 -1.14789450681E-02 +5.36834725318E-01
4.57000000000E+09 -9.33792605462E-02 +5.69136759693E-01 +8.22361518571E-04 -1.48230499228E-03 +7.70762771315E-04 -1.44288663282E-03 +4.93057583542E-04 +5.43670156756E-01
