# Hz S RI R 50
! CMT, C1220, 16058040, 17.2.0/1
! Date: 15/08/2018 12:14:18
! Data: Format (Calibration Info)
! Freq                      S11: Re/Im (F2)                       S21: Re/Im (F2)                       S12: Re/Im (F2)                       S22: Re/Im (F2)            
4.00000000000E+09 +6.49899527269E-01 -3.57651393045E-01 -1.60262255614E-04 -4.84169575109E-04 -1.65543919893E-04 -5.11591633166E-04 +7.66089704756E-01 -3.21501821078E-01
4.00500000000E+09 +6.41702141419E-01 -3.63653704224E-01 -2.02822235229E-04 -2.96210836090E-04 -2.48457291327E-04 -3.22446993787E-04 +7.56875921912E-01 -3.31981185356E-01
4.01000000000E+09 +6.32983430980E-01 -3.69169811641E-01 -7.74209254615E-06 -2.78988989584E-04 -4.41593894781E-05 -2.51729927906E-04 +7.47260138250E-01 -3.42307419223E-01
4.01500000000E+09 +6.23369462931E-01 -3.75689702292E-01 -1.27919634033E-05 -4.90039926586E-04 -7.99106854781E-05 -5.29349114357E-04 +7.37508349003E-01 -3.52034456124E-01
4.02000000000E+09 +6.12523073242E-01 -3.83772542578E-01 -3.28577817372E-04 -6.02751310735E-04 -2.97574737366E-04 -6.04636605346E-04 +7.27131631420E-01 -3.62073780364E-01
4.02500000000E+09 +6.00767391382E-01 -3.92569735942E-01 -5.92722806664E-04 -3.97048587623E-04 -5.67536922744E-04 -3.48522612841E-04 +7.16203906464E-01 -3.71251589830E-01
4.03000000000E+09 +5.89215064920E-01 -4.02460249370E-01 -4.25212137422E-04 -5.26819285525E-05 -4.05833588347E-04 -5.91704025635E-05 +7.05682431723E-01 -3.80395540058E-01
4.03500000000E+09 +5.78069521177E-01 -4.13598263748E-01 -2.33533602506E-04 -1.74004882979E-04 -2.07826816276E-04 -1.28521506990E-04 +6.94688478610E-01 -3.90161732951E-01
4.04000000000E+09 +5.66690700726E-01 -4.24844741616E-01 -2.70710653290E-04 -1.15247717628E-04 -2.61397380341E-04 -9.98883695003E-05 +6.83588219365E-01 -4.00272382814E-01
4.04500000000E+09 +5.55579953121E-01 -4.35016953624E-01 -1.90251607768E-04 -1.79231140720E-04 -1.41062928582E-04 -1.94238105707E-04 +6.71661775777E-01 -4.10052399430E-01
4.05000000000E+09 +5.44473045553E-01 -4.43501611159E-01 -2.06029128757E-04 -3.41859151360E-04 -1.47937886739E-04 -3.72177966552E-04 +6.59697425368E-01 -4.18533390391E-01
4.05500000000E+09 +5.33293661174E-01 -4.50008152340E-01 -5.05784887970E-04 -4.26744772838E-04 -4.85666709742E-04 -4.55361026803E-04 +6.47428475389E-01 -4.27058204526E-01
4.06000000000E+09 +5.21968724173E-01 -4.54993559936E-01 -5.28361932978E-04 -2.86993403964E-04 -5.02175400285E-04 -3.12119008820E-04 +6.34702255105E-01 -4.35020703257E-01
4.06500000000E+09 +5.09497087860E-01 -4.58822686394E-01 -6.66734991198E-04 -1.77477993823E-04 -7.04481646837E-04 -2.53322457743E-04 +6.21317502573E-01 -4.42737217699E-01
4.07000000000E+09 +4.96336262914E-01 -4.62388169068E-01 -6.06427872827E-04 +8.15242306355E-05 -6.07430388838E-04 +6.39984217145E-05 +6.08022565170E-01 -4.50611148073E-01
4.07500000000E+09 +4.81527616568E-01 -4.66775790944E-01 -4.52954955657E-04 +2.08239133931E-05 -4.81355941460E-04 +1.59953660900E-06 +5.94470811746E-01 -4.58637286030E-01
4.08000000000E+09 +4.64769804047E-01 -4.71579943532E-01 -6.40780059040E-04 +3.73691315333E-05 -6.69402179164E-04 -4.54964582283E-05 +5.81189830668E-01 -4.66460792821E-01
4.08500000000E+09 +4.47774774596E-01 -4.76394745089E-01 -6.61403714955E-04 +2.07048547639E-04 -6.69361673311E-04 +1.68392796447E-04 +5.67244040617E-01 -4.74379274309E-01
4.09000000000E+09 +4.31166426314E-01 -4.82559850418E-01 -3.95189031781E-04 +1.50827977704E-04 -4.57283024899E-04 +1.58507862558E-04 +5.53054401842E-01 -4.80959428794E-01
4.09500000000E+09 +4.14517765307E-01 -4.89400973385E-01 -7.41719090089E-04 +1.53402874517E-04 -7.70806102156E-04 +1.35231496764E-04 +5.39042924138E-01 -4.87545585782E-01
4.10000000000E+09 +3.97069836843E-01 -4.95999904402E-01 -6.30857207221E-04 +4.45467656501E-04 -6.92884876142E-04 +4.19009446328E-04 +5.22962309903E-01 -4.93882116479E-01
4.10500000000E+09 +3.79971301709E-01 -5.00235246141E-01 -5.99295327464E-04 +6.16871017023E-04 -6.56917469802E-04 +5.82677602526E-04 +5.07305888483E-01 -4.99441479662E-01
4.11000000000E+09 +3.63543310436E-01 -5.02545443116E-01 -4.25640464033E-04 +8.47272108762E-04 -5.02870362787E-04 +8.41077552183E-04 +4.91115896016E-01 -5.05408226743E-01
4.11500000000E+09 +3.48384275218E-01 -5.02952672487E-01 +1.96412002749E-04 +7.29751641503E-04 +1.21989507135E-04 +8.16571376485E-04 +4.74829252269E-01 -5.10833874010E-01
4.12000000000E+09 +3.33081062063E-01 -5.02968615828E-01 +7.80649793488E-05 +1.11380277037E-04 +2.12998155199E-05 +1.62792729035E-04 +4.58969174421E-01 -5.16460785646E-01
4.12500000000E+09 +3.17115258371E-01 -5.03104616328E-01 -3.10364277396E-04 +1.68228212408E-04 -3.22340678678E-04 +2.12999279990E-04 +4.41566474924E-01 -5.21485260865E-01
4.13000000000E+09 +2.99292897320E-01 -5.04075964220E-01 -3.96391017798E-04 +4.43933447506E-04 -4.15278253096E-04 +5.09145658916E-04 +4.24603265757E-01 -5.25050940544E-01
4.13500000000E+09 +2.79213439013E-01 -5.05450415666E-01 -2.97821635621E-04 +5.51378711494E-04 -2.54550015369E-04 +6.06368304522E-04 +4.07191658316E-01 -5.28825775152E-01
4.14000000000E+09 +2.58584430449E-01 -5.06640905013E-01 -5.40748908813E-05 +7.82160178500E-04 -1.89421981589E-05 +9.11552737271E-04 +3.88724665508E-01 -5.31951404210E-01
4.14500000000E+09 +2.38219338715E-01 -5.09196171396E-01 +4.58424633445E-04 +5.08072457940E-04 +5.09116444253E-04 +5.70399094841E-04 +3.70529761817E-01 -5.34849956353E-01
4.15000000000E+09 +2.18203821785E-01 -5.12615019960E-01 +2.80706859508E-04 +1.13695514544E-07 +3.44342411258E-04 +4.28245881415E-06 +3.52441819434E-01 -5.37308732914E-01
4.15500000000E+09 +1.98093503319E-01 -5.16460519893E-01 -3.48262692367E-04 +1.27679228348E-04 -3.49126261721E-04 +1.04861578924E-04 +3.34098131617E-01 -5.39152198444E-01
4.16000000000E+09 +1.78971691085E-01 -5.18377025071E-01 -2.67742152514E-04 +4.92470982609E-04 -2.35198842784E-04 +4.57413253050E-04 +3.16150959381E-01 -5.40241628973E-01
4.16500000000E+09 +1.61536962711E-01 -5.18692072801E-01 -1.57984395597E-04 +5.21645068566E-04 -9.16850592195E-05 +4.82053919002E-04 +2.97657005636E-01 -5.40331477459E-01
4.17000000000E+09 +1.45252206272E-01 -5.16778483873E-01 -2.10892035581E-05 +7.59156385466E-04 +6.36157723599E-06 +7.05004506164E-04 +2.78944810734E-01 -5.39693428752E-01
4.17500000000E+09 +1.30437467731E-01 -5.13263301390E-01 +9.01791926881E-05 +4.47386500244E-04 +1.05829350201E-04 +4.09245196072E-04 +2.59981803800E-01 -5.38589941590E-01
4.18000000000E+09 +1.15525996775E-01 -5.08880982298E-01 -4.22254350349E-05 +5.71045507044E-04 -4.86221099137E-05 +5.97344724428E-04 +2.40513425056E-01 -5.37165968879E-01
4.18500000000E+09 +9.91881638976E-02 -5.03761099065E-01 -2.70968920922E-05 +7.28334185220E-04 -7.70675590251E-05 +6.87226747434E-04 +2.21474838532E-01 -5.35292165078E-01
4.19000000000E+09 +8.17687481418E-02 -4.97882277351E-01 +2.79097575123E-04 +7.15839617352E-04 +1.93751455756E-04 +7.13097391807E-04 +2.02006733380E-01 -5.33222913770E-01
4.19500000000E+09 +6.31200914315E-02 -4.91796437604E-01 +1.86171438880E-04 +7.94992360181E-04 +1.03129328444E-04 +8.23660681953E-04 +1.82709489382E-01 -5.30074111508E-01
4.20000000000E+09 +4.40787019858E-02 -4.85882235532E-01 +4.55345763609E-04 +9.46719361347E-04 +3.63172940661E-04 +9.69106304802E-04 +1.63135059335E-01 -5.26898183684E-01
4.20500000000E+09 +2.51445536001E-02 -4.80933096043E-01 +8.72185066871E-04 +7.84016511660E-04 +8.90072277926E-04 +8.22676969067E-04 +1.42974186275E-01 -5.21714024094E-01
4.21000000000E+09 +6.78058234003E-03 -4.76143922465E-01 +6.46870083734E-04 +3.86789360439E-04 +6.19915628449E-04 +4.36050128559E-04 +1.23312596820E-01 -5.16459164487E-01
4.21500000000E+09 -1.16160381167E-02 -4.71143461127E-01 +6.78035711603E-04 +6.67849953537E-04 +6.63639162409E-04 +8.03582113123E-04 +1.03409938555E-01 -5.10732250701E-01
4.22000000000E+09 -2.85515771936E-02 -4.63846761840E-01 +1.10647549056E-03 +6.15231472317E-04 +1.09187390978E-03 +7.19243603126E-04 +8.44279656627E-02 -5.03673050613E-01
4.22500000000E+09 -4.34371819508E-02 -4.55261818769E-01 +1.03918839331E-03 +8.31384802860E-05 +1.06610199818E-03 +1.83022626311E-04 +6.58186171379E-02 -4.97212514019E-01
4.23000000000E+09 -5.79079289256E-02 -4.45254281092E-01 +9.42097186857E-04 +2.97441442038E-05 +9.83816043080E-04 +1.05229178805E-04 +4.64877444356E-02 -4.89657242432E-01
4.23500000000E+09 -7.15940605438E-02 -4.33371389431E-01 +6.05207204847E-04 +2.03283945716E-04 +6.72267601597E-04 +2.56276259637E-04 +2.77108306857E-02 -4.80465109747E-01
4.24000000000E+09 -8.59342359663E-02 -4.21236772764E-01 +1.12456348095E-03 +4.53095451911E-04 +1.21958439034E-03 +4.59752328241E-04 +9.28864146767E-03 -4.70997886267E-01
4.24500000000E+09 -1.02865581890E-01 -4.08850674525E-01 +1.65173966806E-03 +1.89034814641E-06 +1.73238156275E-03 +8.02315669759E-05 -9.03384145597E-03 -4.60454954069E-01
4.25000000000E+09 -1.21908310232E-01 -3.94794881084E-01 +1.59184564721E-03 -7.89284776646E-04 +1.67758802388E-03 -7.86702091842E-04 -2.64697073184E-02 -4.49111946444E-01
4.25500000000E+09 -1.41087188850E-01 -3.80718104017E-01 +8.90043071671E-04 -1.10567315888E-03 +1.03637991510E-03 -1.13983101315E-03 -4.40272060615E-02 -4.38005785627E-01
4.26000000000E+09 -1.60329720274E-01 -3.68036377101E-01 +4.99474161202E-04 -9.34361657787E-04 +5.42031015875E-04 -9.14096594365E-04 -6.12806668302E-02 -4.25125691607E-01
4.26500000000E+09 -1.79510486384E-01 -3.55656774804E-01 +5.00278264166E-04 -6.34606554371E-04 +5.74409789211E-04 -7.24295504710E-04 -7.68856056621E-02 -4.12116518664E-01
4.27000000000E+09 -1.96857491686E-01 -3.43764488949E-01 +5.31147568921E-04 -7.39401628862E-04 +5.89591547879E-04 -7.91706206789E-04 -9.34900268781E-02 -3.99100228870E-01
4.27500000000E+09 -2.12174421140E-01 -3.32389670749E-01 +4.99429212388E-04 -5.95426042875E-04 +4.95458306981E-04 -6.69502261921E-04 -1.10013387443E-01 -3.84465917167E-01
4.28000000000E+09 -2.25424108052E-01 -3.20227164122E-01 +4.31928563138E-04 -7.02561936287E-04 +4.18396650475E-04 -7.80311930891E-04 -1.25374834192E-01 -3.69855575937E-01
4.28500000000E+09 -2.37237414177E-01 -3.06743937942E-01 +3.57637401184E-04 -7.00477265077E-04 +2.88212296621E-04 -7.93325752342E-04 -1.40817035256E-01 -3.55370554521E-01
4.29000000000E+09 -2.47280914636E-01 -2.91331120044E-01 +4.43920511893E-04 -7.00381825141E-04 +3.39514929540E-04 -7.54439442317E-04 -1.55983325041E-01 -3.40269512172E-01
4.29500000000E+09 -2.57243496187E-01 -2.74039846871E-01 +2.93029525508E-04 -9.79880227262E-04 +1.94012300607E-04 -1.00272773267E-03 -1.70211289676E-01 -3.24055267699E-01
4.30000000000E+09 -2.67077083925E-01 -2.54947341464E-01 +1.59542196152E-04 -7.54165566800E-04 +6.59750732951E-05 -7.35341083000E-04 -1.83123128358E-01 -3.07316128097E-01
4.30500000000E+09 -2.77606460278E-01 -2.35369144214E-01 +2.60295549681E-04 -9.04597180544E-04 +1.39861561229E-04 -8.73359935009E-04 -1.95552084620E-01 -2.90234628280E-01
4.31000000000E+09 -2.89846632963E-01 -2.15562575406E-01 +2.38181548882E-04 -1.02025843190E-03 +1.87230156927E-04 -1.00556048789E-03 -2.07167963824E-01 -2.72397389516E-01
4.31500000000E+09 -3.03061353234E-01 -1.96203397009E-01 -4.16043239741E-05 -9.31478128205E-04 -1.09119319730E-04 -8.28751607196E-04 -2.18011556368E-01 -2.54359697615E-01
4.32000000000E+09 -3.16481980306E-01 -1.77091102273E-01 +6.05455907268E-05 -9.73505892181E-04 +2.35293827385E-05 -9.21780130316E-04 -2.28799504856E-01 -2.35816578265E-01
4.32500000000E+09 -3.28056725954E-01 -1.59107508783E-01 +1.61554949466E-04 -1.11223778236E-03 +1.98219295390E-04 -1.02793139012E-03 -2.37892530999E-01 -2.16902641772E-01
4.33000000000E+09 -3.37554961771E-01 -1.42666649474E-01 -2.05209764724E-04 -1.37392851747E-03 -1.23449646334E-04 -1.29323698135E-03 -2.47186249109E-01 -1.98332968575E-01
4.33500000000E+09 -3.44910809573E-01 -1.26726702409E-01 -3.44129660189E-04 -1.19983939791E-03 -2.78304858642E-04 -1.12224711250E-03 -2.55778234692E-01 -1.78305449770E-01
4.34000000000E+09 -3.49431519207E-01 -1.11092348090E-01 -5.81462337939E-04 -1.49609667768E-03 -4.65617018641E-04 -1.46999041321E-03 -2.63251044622E-01 -1.57806770926E-01
4.34500000000E+09 -3.52022758796E-01 -9.52507226660E-02 -1.06498732417E-03 -1.21637879176E-03 -9.42460619133E-04 -1.28734576649E-03 -2.70169822855E-01 -1.37285682115E-01
4.35000000000E+09 -3.54221087794E-01 -7.77772109472E-02 -1.18420603295E-03 -9.69049732574E-04 -1.11807497810E-03 -9.83839949414E-04 -2.76003261239E-01 -1.17199128323E-01
4.35500000000E+09 -3.56268027162E-01 -5.72253623119E-02 -1.09591355528E-03 -7.84044115739E-04 -1.00066441565E-03 -8.61216861547E-04 -2.81625482864E-01 -9.72507493837E-02
4.36000000000E+09 -3.57740857590E-01 -3.46717059875E-02 -1.36374365311E-03 -1.10169982217E-03 -1.32752954548E-03 -1.21768127745E-03 -2.86112626819E-01 -7.78539991560E-02
4.36500000000E+09 -3.59375813301E-01 -1.15725077285E-02 -1.86602701482E-03 -4.64509323933E-04 -1.92002417824E-03 -5.27785955854E-04 -2.89799633894E-01 -5.84592614424E-02
4.37000000000E+09 -3.62571985144E-01 +1.10858695624E-02 -1.66173648324E-03 -5.83563138662E-05 -1.71912239800E-03 -1.35823723416E-04 -2.92545448166E-01 -3.95419176068E-02
4.37500000000E+09 -3.66695350580E-01 +3.23541357239E-02 -1.56955708013E-03 +2.79115565542E-04 -1.57129381776E-03 +1.95970529498E-04 -2.95580963116E-01 -1.97961783114E-02
4.38000000000E+09 -3.72209635359E-01 +5.21238371595E-02 -1.31110425251E-03 +4.29364949049E-04 -1.37225627417E-03 +3.90146233006E-04 -2.97240589151E-01 +9.50527065207E-04
4.38500000000E+09 -3.76746638735E-01 +7.03379764617E-02 -1.21867300920E-03 +4.51185192500E-04 -1.22811659226E-03 +4.31431947286E-04 -2.98129239703E-01 +2.10526382105E-02
4.39000000000E+09 -3.80221943386E-01 +8.67419218050E-02 -1.04739450529E-03 +4.18143751129E-04 -1.04198699153E-03 +4.72637329525E-04 -2.98740691268E-01 +4.16705566786E-02
4.39500000000E+09 -3.80830473396E-01 +1.01530251742E-01 -1.02185485661E-03 +5.53045242425E-04 -1.08197160365E-03 +5.55650266834E-04 -2.99122378949E-01 +6.08894575681E-02
4.40000000000E+09 -3.78890390597E-01 +1.15676773343E-01 -1.16535355683E-03 +5.34508621928E-04 -1.20916272119E-03 +5.86938609085E-04 -2.98508767996E-01 +8.08454808393E-02
4.40500000000E+09 -3.75687849587E-01 +1.29578794447E-01 -1.11115119397E-03 +8.11649600668E-04 -1.17126510281E-03 +8.74817352096E-04 -2.96632601633E-01 +9.99766205841E-02
4.41000000000E+09 -3.71306404275E-01 +1.46648580612E-01 -8.41046234826E-04 +1.18100833665E-03 -8.22048356621E-04 +1.24652253612E-03 -2.94525326895E-01 +1.19057330890E-01
4.41500000000E+09 -3.64800949254E-01 +1.65621343289E-01 -4.17860917510E-04 +1.04217996011E-03 -4.41400944258E-04 +1.10541635915E-03 -2.90755031917E-01 +1.38465614821E-01
4.42000000000E+09 -3.58221912326E-01 +1.86127626602E-01 -2.90471383182E-04 +9.57802159828E-04 -2.48129556259E-04 +1.05439833727E-03 -2.86467041547E-01 +1.57836910114E-01
4.42500000000E+09 -3.51799396816E-01 +2.07372289538E-01 -1.96941028404E-04 +5.94022864985E-04 -1.49333456518E-04 +6.41689846140E-04 -2.81804245939E-01 +1.76405728518E-01
4.43000000000E+09 -3.47399772173E-01 +2.28098740284E-01 -6.97229826657E-04 +5.13595150342E-04 -5.88827863850E-04 +5.49170738184E-04 -2.77239874584E-01 +1.94314746191E-01
4.43500000000E+09 -3.44485374746E-01 +2.48295413332E-01 -7.93528883746E-04 +1.00885271917E-03 -7.26029250349E-04 +1.00589848909E-03 -2.73182118915E-01 +2.11992209061E-01
4.44000000000E+09 -3.42437212066E-01 +2.67629247365E-01 -4.58736818716E-04 +1.14105258861E-03 -3.56630812827E-04 +1.16070472770E-03 -2.67979569048E-01 +2.30583579287E-01
4.44500000000E+09 -3.39055710463E-01 +2.84358913759E-01 -8.39616267183E-05 +1.31896313568E-03 -4.55509849024E-05 +1.29365515148E-03 -2.60846766315E-01 +2.47459875650E-01
4.45000000000E+09 -3.35120738202E-01 +2.97906590467E-01 +1.48280408649E-04 +1.02870286682E-03 +1.99781232952E-04 +1.00439423685E-03 -2.53951866793E-01 +2.63585196339E-01
4.45500000000E+09 -3.30174831213E-01 +3.09918215851E-01 -4.16540982510E-05 +9.45693045998E-04 +4.18932783899E-05 +8.37803132492E-04 -2.46015245105E-01 +2.79675786121E-01
4.46000000000E+09 -3.23112602930E-01 +3.21190552757E-01 +8.80194572966E-05 +9.22139079635E-04 +8.76650308128E-05 +8.60076033476E-04 -2.38041757689E-01 +2.94795640099E-01
4.46500000000E+09 -3.14654308911E-01 +3.32989197006E-01 -1.84130686001E-05 +1.08304182923E-03 -8.37320445998E-07 +1.02941154264E-03 -2.30108642583E-01 +3.09867065560E-01
4.47000000000E+09 -3.04099147954E-01 +3.47630788537E-01 +2.33529875032E-04 +8.50558807439E-04 +2.29166560114E-04 +7.77914443622E-04 -2.21917108532E-01 +3.24981278482E-01
4.47500000000E+09 -2.91257364836E-01 +3.63429023730E-01 -7.27678485957E-05 +1.14077087621E-03 -6.86232694754E-05 +1.05803352569E-03 -2.13793669524E-01 +3.39527850879E-01
4.48000000000E+09 -2.78289180923E-01 +3.79746719610E-01 +2.18799983580E-04 +1.38834797214E-03 +2.35871938456E-04 +1.33855097625E-03 -2.05262760576E-01 +3.54528440685E-01
4.48500000000E+09 -2.66700466448E-01 +3.96595165489E-01 +6.28467605402E-04 +1.54553414091E-03 +6.24515138454E-04 +1.44778147121E-03 -1.95537322723E-01 +3.68768093997E-01
4.49000000000E+09 -2.57100189088E-01 +4.13425056308E-01 +1.15909734674E-03 +1.33796151686E-03 +1.11159448071E-03 +1.30138448763E-03 -1.85589879161E-01 +3.82214137433E-01
4.49500000000E+09 -2.49755483162E-01 +4.29223921105E-01 +1.44568768881E-03 +7.02979202951E-04 +1.35438767490E-03 +6.54388769252E-04 -1.75568383772E-01 +3.95085470196E-01
4.50000000000E+09 -2.44039020141E-01 +4.44236356620E-01 +1.01081591320E-03 +5.01915859919E-04 +9.34554648982E-04 +5.42358951239E-04 -1.65180093907E-01 +4.07674208649E-01
4.50500000000E+09 -2.38335014028E-01 +4.56750059193E-01 +1.04359911272E-03 +3.55280860131E-04 +1.02374159390E-03 +3.99610090185E-04 -1.54988578336E-01 +4.20027262008E-01
4.51000000000E+09 -2.32616889586E-01 +4.66726501134E-01 +8.25517138579E-04 +5.31656504662E-04 +7.99520429799E-04 +5.69869771873E-04 -1.44260808052E-01 +4.32002870111E-01
4.51500000000E+09 -2.25488879079E-01 +4.74905652017E-01 +1.02860570331E-03 +7.59532283137E-04 +1.03172097501E-03 +7.70934785211E-04 -1.33945158326E-01 +4.43559116785E-01
4.52000000000E+09 -2.16652902027E-01 +4.82422718925E-01 +1.48579808163E-03 +6.04490996326E-04 +1.49647338015E-03 +6.34391842978E-04 -1.22953579147E-01 +4.54721073611E-01
4.52500000000E+09 -2.04886639459E-01 +4.89746303462E-01 +1.63370999083E-03 +2.38756112640E-04 +1.65444065760E-03 +2.36458706208E-04 -1.11548681274E-01 +4.65428691512E-01
4.53000000000E+09 -1.91309187447E-01 +4.97404541829E-01 +1.76846134379E-03 -3.16860810570E-04 +1.75256366431E-03 -3.52668915497E-04 -9.97832357487E-02 +4.74763660826E-01
4.53500000000E+09 -1.76664855239E-01 +5.06514275826E-01 +1.26998197880E-03 -4.64276246335E-04 +1.28883870613E-03 -5.02607700982E-04 -8.78460891065E-02 +4.84451028081E-01
4.54000000000E+09 -1.61320384242E-01 +5.16789830097E-01 +1.38082344570E-03 -6.67745238743E-04 +1.33092093806E-03 -6.59908274410E-04 -7.52302334744E-02 +4.93542447946E-01
4.54500000000E+09 -1.46448710395E-01 +5.27482730333E-01 +9.70795380927E-04 -7.99483291391E-04 +9.52022180830E-04 -7.50575025123E-04 -6.33796624585E-02 +5.01806383830E-01
4.55000000000E+09 -1.33639192867E-01 +5.38114648458E-01 +8.01921192610E-04 -7.71686216324E-04 +8.38433980542E-04 -7.68545373739E-04 -5.13715547781E-02 +5.10836666960E-01
4.55500000000E+09 -1.22793921620E-01 +5.48618604780E-01 +7.79735484447E-04 -5.80883314700E-04 +7.79035379604E-04 -6.13293690424E-04 -3.99968393049E-02 +5.19397734185E-01
4.56000000000E+09 -1.13056798708E-01 +5.57595273028E-01 +8.54559743258E-04 -5.85141358457E-04 +8.25610809258E-04 -6.25883552443E-04 -2.74257882324E-02 +5.27544777869E-01
4.56500000000E+09 -1.04778206473E-01 +5.64693791495E-01 +1.13560979564E-03 -7.93910028326E-04 +1.11184315320E-03 -8.29915611361E-04 -1.55849173434E-02 +5.34568544586E-01
4.57000000000E+09 -9.66239975903E-02 +5.70380237654E-01 +8.84592382994E-04 -1.37164465542E-03 +7.97146214992E-04 -1.38925197248E-03 -3.49188560387E-03 +5.41941189125E-01
