# Hz S RI R 50
! CMT, C1220, 16058040, 17.2.0/1
! Date: 15/08/2018 12:03:02
! Data: Format (Calibration Info)
! Freq                      S11: Re/Im (F2)                       S21: Re/Im (F2)                       S12: Re/Im (F2)                       S22: Re/Im (F2)            
4.00000000000E+09 +6.67317716413E-01 -3.42742616705E-01 +1.38076533717E-03 -7.05670259027E-04 +1.44901866097E-03 -6.32517142303E-04 +7.77057332281E-01 -3.41003337852E-01
4.00500000000E+09 +6.59312661157E-01 -3.49169696428E-01 +1.20822253070E-03 -5.79384224773E-04 +1.26012933101E-03 -5.15904083720E-04 +7.68482260179E-01 -3.52677907101E-01
4.01000000000E+09 +6.50335713354E-01 -3.55444439376E-01 +1.22246610732E-03 -6.32928181978E-04 +1.30242741657E-03 -6.20679785191E-04 +7.58786750056E-01 -3.63972319539E-01
4.01500000000E+09 +6.39974799116E-01 -3.62335226242E-01 +1.19466504684E-03 -5.88052793217E-04 +1.28505968217E-03 -5.55142620965E-04 +7.49221382558E-01 -3.74326787217E-01
4.02000000000E+09 +6.29073438000E-01 -3.69738354285E-01 +1.48015641862E-03 -8.17022023123E-04 +1.51513304016E-03 -7.52967773309E-04 +7.39397490756E-01 -3.84714633095E-01
4.02500000000E+09 +6.17972015415E-01 -3.78652214219E-01 +1.37506428844E-03 -1.12836041055E-03 +1.41813230834E-03 -1.00440940386E-03 +7.29304888676E-01 -3.95077763874E-01
4.03000000000E+09 +6.06316299595E-01 -3.89068253127E-01 +1.08433031711E-03 -1.40928140059E-03 +1.17524620305E-03 -1.45355283874E-03 +7.18670299316E-01 -4.05255308508E-01
4.03500000000E+09 +5.94596662789E-01 -4.00057893328E-01 +7.37912056500E-04 -1.30290460534E-03 +8.51030898004E-04 -1.26186453847E-03 +7.07731613884E-01 -4.15727804548E-01
4.04000000000E+09 +5.83180764048E-01 -4.10833778541E-01 +8.37763660635E-04 -1.18656594796E-03 +8.48179035581E-04 -1.14313014714E-03 +6.96832966376E-01 -4.26342884697E-01
4.04500000000E+09 +5.72018341577E-01 -4.21415451160E-01 +7.19147485771E-04 -1.21758921747E-03 +8.28422137846E-04 -1.21295617303E-03 +6.85545768384E-01 -4.37047969446E-01
4.05000000000E+09 +5.60634212158E-01 -4.30427551083E-01 +7.91293433357E-04 -1.24898588218E-03 +8.91145155028E-04 -1.23217433718E-03 +6.74080322712E-01 -4.46949152889E-01
4.05500000000E+09 +5.48763216769E-01 -4.37749505395E-01 +8.10834377553E-04 -1.40950800972E-03 +9.50760258698E-04 -1.48250828202E-03 +6.62442795489E-01 -4.56853146362E-01
4.06000000000E+09 +5.36528900734E-01 -4.43307233168E-01 +7.76888921705E-04 -1.64940073810E-03 +8.55927440921E-04 -1.72995331783E-03 +6.49954620088E-01 -4.66733177251E-01
4.06500000000E+09 +5.23873421915E-01 -4.47776145651E-01 +4.61023203034E-04 -1.75890218080E-03 +5.26634929182E-04 -1.85132920414E-03 +6.36821274919E-01 -4.75912775660E-01
4.07000000000E+09 +5.10178983615E-01 -4.52038707803E-01 +4.34610962185E-04 -1.91970723345E-03 +4.70084526523E-04 -1.89488835868E-03 +6.22990280265E-01 -4.85586739140E-01
4.07500000000E+09 +4.95646114520E-01 -4.56918857787E-01 +1.63697331235E-04 -2.10823104146E-03 +2.22022693349E-04 -2.19076237022E-03 +6.08991732404E-01 -4.94536948601E-01
4.08000000000E+09 +4.79826719974E-01 -4.62352828943E-01 -1.53539959511E-04 -2.07910908026E-03 -8.41123868338E-05 -2.11579412971E-03 +5.95512006116E-01 -5.03576611668E-01
4.08500000000E+09 +4.63422964955E-01 -4.68765796340E-01 -4.42638237114E-04 -1.89606555258E-03 -4.29010991993E-04 -1.97747145752E-03 +5.81557294746E-01 -5.12928987264E-01
4.09000000000E+09 +4.46420200754E-01 -4.75670971659E-01 -3.72847201524E-04 -1.82152266857E-03 -2.98356421542E-04 -1.89022530203E-03 +5.67419405251E-01 -5.20672265886E-01
4.09500000000E+09 +4.30108929152E-01 -4.82357722648E-01 -3.91775914819E-04 -1.89614593493E-03 -3.63746031053E-04 -1.95285314648E-03 +5.53300000140E-01 -5.28998001895E-01
4.10000000000E+09 +4.13510742044E-01 -4.89009398577E-01 -4.64681874039E-04 -2.20462777069E-03 -5.17071938258E-04 -2.27094023456E-03 +5.37785223644E-01 -5.37247107675E-01
4.10500000000E+09 +3.97603798258E-01 -4.94171544553E-01 -9.12757033246E-04 -2.34721538833E-03 -9.29081292274E-04 -2.43932468737E-03 +5.21315816418E-01 -5.45025786408E-01
4.11000000000E+09 +3.81778185530E-01 -4.97812211668E-01 -1.41758770451E-03 -2.31471990278E-03 -1.37855916795E-03 -2.40366961505E-03 +5.04047673263E-01 -5.52784181691E-01
4.11500000000E+09 +3.66290511407E-01 -4.99650009695E-01 -1.91324729494E-03 -1.93025318641E-03 -1.85038122843E-03 -2.05761593972E-03 +4.86845395193E-01 -5.59637981506E-01
4.12000000000E+09 +3.50515849806E-01 -5.00267751393E-01 -1.92322915719E-03 -1.58856485108E-03 -1.97470778091E-03 -1.68868711729E-03 +4.69678910688E-01 -5.65926078764E-01
4.12500000000E+09 +3.34740820061E-01 -5.00852627537E-01 -1.94667586059E-03 -1.32622181610E-03 -2.06110939144E-03 -1.45467234704E-03 +4.52798517153E-01 -5.71923805562E-01
4.13000000000E+09 +3.16749030333E-01 -5.02088732566E-01 -2.01077437360E-03 -1.44107833337E-03 -2.04670542631E-03 -1.54888919472E-03 +4.35863959820E-01 -5.77556629243E-01
4.13500000000E+09 +2.97609367517E-01 -5.03080450287E-01 -2.22800852222E-03 -1.27093544699E-03 -2.29053408591E-03 -1.36434941754E-03 +4.17390172472E-01 -5.83470969136E-01
4.14000000000E+09 +2.78342227974E-01 -5.04927593435E-01 -2.47027889195E-03 -1.07089831442E-03 -2.53247914863E-03 -1.19448526949E-03 +3.98475438662E-01 -5.88356368632E-01
4.14500000000E+09 +2.58791356130E-01 -5.08274413720E-01 -2.66351785443E-03 -8.03080276605E-04 -2.73378708735E-03 -8.68161187566E-04 +3.79714242987E-01 -5.93590049039E-01
4.15000000000E+09 +2.38839576601E-01 -5.12391406716E-01 -2.70265272653E-03 -6.06690220199E-04 -2.83237177417E-03 -6.73394974782E-04 +3.59557761508E-01 -5.98635730520E-01
4.15500000000E+09 +2.19241441882E-01 -5.15857925695E-01 -2.83391502137E-03 -5.23344624184E-04 -2.93012590378E-03 -4.90572077670E-04 +3.40357809796E-01 -6.01684427704E-01
4.16000000000E+09 +2.00359337268E-01 -5.18167591635E-01 -3.19007585628E-03 -5.08788120879E-05 -3.23669323050E-03 -1.09571126961E-05 +3.20951015800E-01 -6.04700082048E-01
4.16500000000E+09 +1.82921820235E-01 -5.18469753624E-01 -3.12700922040E-03 +4.68584363976E-04 -3.20292923166E-03 +4.82370627436E-04 +3.00522519176E-01 -6.06376533643E-01
4.17000000000E+09 +1.66354458963E-01 -5.17010140461E-01 -2.99819181921E-03 +6.01854508054E-04 -3.03741940755E-03 +5.72613124254E-04 +2.80936628159E-01 -6.06958620752E-01
4.17500000000E+09 +1.50217798968E-01 -5.13393497447E-01 -3.07843462894E-03 +1.33495933010E-03 -3.15969174004E-03 +1.35123622563E-03 +2.60092434664E-01 -6.07854497186E-01
4.18000000000E+09 +1.34335873220E-01 -5.08903294322E-01 -2.27351121322E-03 +1.43569945910E-03 -2.31865187832E-03 +1.45596741140E-03 +2.39629209103E-01 -6.08541156607E-01
4.18500000000E+09 +1.17286762864E-01 -5.03423121443E-01 -2.44627227342E-03 +9.93656061949E-04 -2.48406728426E-03 +9.52077628219E-04 +2.17767763779E-01 -6.09545656761E-01
4.19000000000E+09 +9.91637521459E-02 -4.97790796881E-01 -2.74451838208E-03 +1.23846780512E-03 -2.84206036381E-03 +1.25969681437E-03 +1.95404482957E-01 -6.08111663810E-01
4.19500000000E+09 +8.02074269357E-02 -4.91984093615E-01 -3.00146046792E-03 +1.82600048585E-03 -3.05818798000E-03 +1.83021770783E-03 +1.74479503187E-01 -6.05844265969E-01
4.20000000000E+09 +6.05639379313E-02 -4.87419632698E-01 -2.99341478563E-03 +2.37280277291E-03 -3.06055051942E-03 +2.32813333901E-03 +1.53223689181E-01 -6.03639656992E-01
4.20500000000E+09 +4.06067983120E-02 -4.83494011751E-01 -2.68885780564E-03 +3.26466949076E-03 -2.78544412871E-03 +3.21705893103E-03 +1.31172509324E-01 -6.00610954140E-01
4.21000000000E+09 +2.13588469819E-02 -4.79242837588E-01 -1.82879349753E-03 +3.15687197916E-03 -1.95219017037E-03 +3.22100070827E-03 +1.09022552510E-01 -5.97031904898E-01
4.21500000000E+09 +2.96271416938E-03 -4.75152151692E-01 -1.81495728346E-03 +3.23833920282E-03 -1.93916177065E-03 +3.27251432683E-03 +8.63946837265E-02 -5.92735034097E-01
4.22000000000E+09 -1.44243892190E-02 -4.69843607170E-01 -1.79396315823E-03 +3.75141020037E-03 -1.91037787813E-03 +3.77076906355E-03 +6.50528512290E-02 -5.87448014746E-01
4.22500000000E+09 -3.04708844989E-02 -4.62062077483E-01 -1.05053016357E-03 +4.40713641324E-03 -1.19872064330E-03 +4.46680818929E-03 +4.38604195084E-02 -5.82815901354E-01
4.23000000000E+09 -4.47159397931E-02 -4.53268515643E-01 -2.16106957588E-04 +3.97817482567E-03 -3.49396193639E-04 +4.08433643519E-03 +2.18530146852E-02 -5.77123055381E-01
4.23500000000E+09 -5.97353844975E-02 -4.43258612562E-01 -9.71791022123E-05 +3.94060480909E-03 -1.10477822806E-04 +4.12139518172E-03 +8.20492706628E-05 -5.69659346529E-01
4.24000000000E+09 -7.61119283272E-02 -4.31527984287E-01 -1.01700889068E-04 +4.15295337549E-03 -1.56542297207E-04 +4.30551107875E-03 -2.25230161541E-02 -5.61466315516E-01
4.24500000000E+09 -9.31181186665E-02 -4.18103650916E-01 +6.12965256650E-04 +4.47595681309E-03 +5.38744183765E-04 +4.65285633819E-03 -4.47774121662E-02 -5.51371227457E-01
4.25000000000E+09 -1.11425164984E-01 -4.05387916462E-01 +1.21942747614E-03 +4.45138726419E-03 +1.22806153694E-03 +4.65766637786E-03 -6.64352779423E-02 -5.41616104476E-01
4.25500000000E+09 -1.30956356208E-01 -3.92629334782E-01 +1.92222539429E-03 +4.28944951799E-03 +1.93284924359E-03 +4.53786689394E-03 -8.91238625769E-02 -5.30178582157E-01
4.26000000000E+09 -1.50598158012E-01 -3.81327160376E-01 +2.11001563443E-03 +4.00096678145E-03 +2.20589966329E-03 +4.20521297653E-03 -1.09713810688E-01 -5.17180462751E-01
4.26500000000E+09 -1.71147993879E-01 -3.70641692623E-01 +2.75432496577E-03 +4.16457828447E-03 +2.87529341962E-03 +4.31640583650E-03 -1.30113431496E-01 -5.04414187599E-01
4.27000000000E+09 -1.89979846123E-01 -3.59225122122E-01 +3.44636277871E-03 +3.70676067937E-03 +3.61636017837E-03 +3.83973792514E-03 -1.50849441370E-01 -4.89594473635E-01
4.27500000000E+09 -2.06079952294E-01 -3.47782048470E-01 +4.02654066948E-03 +3.02780828151E-03 +4.25760686087E-03 +3.11302824424E-03 -1.70684976265E-01 -4.74410194768E-01
4.28000000000E+09 -2.19315029082E-01 -3.36154277699E-01 +4.13666532231E-03 +2.41246963323E-03 +4.31201672714E-03 +2.44972498911E-03 -1.90286553750E-01 -4.58853385156E-01
4.28500000000E+09 -2.32114384723E-01 -3.23493808377E-01 +4.15726642912E-03 +1.83473145787E-03 +4.35332907452E-03 +1.75793007867E-03 -2.10188321115E-01 -4.43314273811E-01
4.29000000000E+09 -2.42330806825E-01 -3.07918525974E-01 +4.04485066881E-03 +1.49836841572E-03 +4.26350976538E-03 +1.46030227859E-03 -2.28805496963E-01 -4.26707413871E-01
4.29500000000E+09 -2.52559763386E-01 -2.91542651156E-01 +3.87449436042E-03 +1.72220933955E-03 +4.04092888773E-03 +1.64807490961E-03 -2.47921697880E-01 -4.09338228747E-01
4.30000000000E+09 -2.63560927637E-01 -2.73297276299E-01 +4.78120000419E-03 +1.52204824530E-03 +4.89043846879E-03 +1.43277602186E-03 -2.64598489051E-01 -3.90029591128E-01
4.30500000000E+09 -2.75540972582E-01 -2.53106792833E-01 +5.20317852462E-03 +8.99906765654E-04 +5.30863191877E-03 +8.62258345285E-04 -2.80006246961E-01 -3.70854574727E-01
4.31000000000E+09 -2.88146863058E-01 -2.32988134705E-01 +5.74744874881E-03 +2.13805891650E-04 +5.80475646473E-03 +7.30111901306E-05 -2.95637319337E-01 -3.51217877018E-01
4.31500000000E+09 -3.01969864451E-01 -2.13143273304E-01 +5.73187676520E-03 -1.12858797527E-03 +5.78782125426E-03 -1.32072362083E-03 -3.10789677230E-01 -3.30690212892E-01
4.32000000000E+09 -3.15230872652E-01 -1.94315787822E-01 +4.84557832662E-03 -2.03353005199E-03 +4.80210852543E-03 -2.12740678126E-03 -3.24692361607E-01 -3.09044322620E-01
4.32500000000E+09 -3.28210254090E-01 -1.77209366050E-01 +3.99851356269E-03 -1.86359471056E-03 +3.93724987428E-03 -1.96355493114E-03 -3.38040724702E-01 -2.87860851393E-01
4.33000000000E+09 -3.39511399312E-01 -1.60767440962E-01 +4.44602970493E-03 -1.48050385357E-03 +4.39692463957E-03 -1.55219240174E-03 -3.51042832571E-01 -2.65614892471E-01
4.33500000000E+09 -3.47457731771E-01 -1.44492793932E-01 +4.91391839533E-03 -1.96472559779E-03 +4.80495172516E-03 -2.02334749786E-03 -3.63185860112E-01 -2.41743230438E-01
4.34000000000E+09 -3.53327585063E-01 -1.29211655237E-01 +5.29881485610E-03 -2.88172309336E-03 +5.23939740761E-03 -2.92315061090E-03 -3.74184512140E-01 -2.17998160722E-01
4.34500000000E+09 -3.57406649360E-01 -1.12886125988E-01 +4.92763783614E-03 -4.18623271574E-03 +4.85540344478E-03 -4.12740166564E-03 -3.84693125406E-01 -1.92065307567E-01
4.35000000000E+09 -3.59747593976E-01 -9.43067370968E-02 +4.07487848949E-03 -5.08542396885E-03 +4.07008237263E-03 -4.97586591781E-03 -3.92570654865E-01 -1.66877892490E-01
4.35500000000E+09 -3.61409924862E-01 -7.47662120404E-02 +3.43523176800E-03 -5.57113024293E-03 +3.40951245090E-03 -5.56920816262E-03 -4.00520870699E-01 -1.43153441854E-01
4.36000000000E+09 -3.64332036057E-01 -5.30652385963E-02 +2.44339481201E-03 -5.98852451549E-03 +2.44267005465E-03 -5.91949099768E-03 -4.07136170869E-01 -1.18637364742E-01
4.36500000000E+09 -3.67796130518E-01 -2.95254044345E-02 +1.50929355839E-03 -6.23458093490E-03 +1.52792125240E-03 -6.17517065306E-03 -4.12680340036E-01 -9.45611953435E-02
4.37000000000E+09 -3.72673664784E-01 -6.85253262357E-03 +5.24632502162E-04 -5.91367812726E-03 +5.33758189049E-04 -5.96960668244E-03 -4.16620946094E-01 -6.96748162095E-02
4.37500000000E+09 -3.78017684146E-01 +1.63793375794E-02 +7.22449410773E-05 -5.40846253655E-03 +8.36240703625E-05 -5.45990148565E-03 -4.19245204950E-01 -4.44026293644E-02
4.38000000000E+09 -3.83558807348E-01 +3.71933982770E-02 +1.65655047620E-04 -5.81170728499E-03 +1.59383126473E-04 -5.87630811773E-03 -4.21062947208E-01 -1.98459658189E-02
4.38500000000E+09 -3.88938046706E-01 +5.51719270331E-02 -3.77079671844E-04 -6.08108473483E-03 -3.98794493407E-04 -6.17618004085E-03 -4.22809781017E-01 +5.29376332231E-03
4.39000000000E+09 -3.92779934179E-01 +7.16816199503E-02 -1.50954054070E-03 -6.48592484106E-03 -1.54039850137E-03 -6.56528895931E-03 -4.23681284643E-01 +3.04347504401E-02
4.39500000000E+09 -3.94929302899E-01 +8.65579234669E-02 -2.89610831145E-03 -6.04444151815E-03 -2.96414380032E-03 -6.15823570385E-03 -4.23770564675E-01 +5.47858453748E-02
4.40000000000E+09 -3.94839718268E-01 +1.01107935302E-01 -3.41225025768E-03 -5.28663603952E-03 -3.51654986313E-03 -5.32592259794E-03 -4.22331396824E-01 +7.97622932673E-02
4.40500000000E+09 -3.92115524836E-01 +1.17392575382E-01 -4.21356470325E-03 -4.58774305205E-03 -4.29588231564E-03 -4.70341379917E-03 -4.18958218679E-01 +1.03559427632E-01
4.41000000000E+09 -3.86017400053E-01 +1.33882240726E-01 -4.04707664095E-03 -3.75357400807E-03 -4.18751331447E-03 -3.86409217280E-03 -4.15511165399E-01 +1.26775806586E-01
4.41500000000E+09 -3.80626573179E-01 +1.51721311796E-01 -4.44597968691E-03 -3.53684628250E-03 -4.62541075385E-03 -3.51357446755E-03 -4.10724460216E-01 +1.51122809465E-01
4.42000000000E+09 -3.75816752527E-01 +1.72605825264E-01 -4.67499246903E-03 -3.06178368072E-03 -4.82560186723E-03 -2.97617655765E-03 -4.05371888637E-01 +1.73520382757E-01
4.42500000000E+09 -3.70998843033E-01 +1.95047196716E-01 -5.02381937080E-03 -2.64573798157E-03 -5.10501910619E-03 -2.55292932606E-03 -3.99513830835E-01 +1.96792615295E-01
4.43000000000E+09 -3.66867884639E-01 +2.17192157945E-01 -4.86960456441E-03 -2.03526369172E-03 -5.01604586384E-03 -1.92108113618E-03 -3.93460712041E-01 +2.18617964867E-01
4.43500000000E+09 -3.64229357084E-01 +2.38431697471E-01 -5.56612852351E-03 -2.01415409885E-03 -5.65961794789E-03 -1.76830558282E-03 -3.87077368905E-01 +2.40666499781E-01
4.44000000000E+09 -3.61969299487E-01 +2.57264247536E-01 -5.70872715854E-03 -9.20546099731E-04 -5.78015469060E-03 -7.82035287704E-04 -3.78711170357E-01 +2.63918599418E-01
4.44500000000E+09 -3.60765364875E-01 +2.73730540340E-01 -5.56843060844E-03 -2.99745475131E-04 -5.55856514536E-03 -6.61404336738E-05 -3.68688529523E-01 +2.83597891502E-01
4.45000000000E+09 -3.58595843823E-01 +2.88332794084E-01 -5.62478131185E-03 +3.16067829746E-04 -5.67790993356E-03 +5.87190742552E-04 -3.58895271727E-01 +3.03473016311E-01
4.45500000000E+09 -3.54424123129E-01 +3.01018107170E-01 -5.35809782746E-03 +1.02442321647E-03 -5.30797838567E-03 +1.28070112380E-03 -3.47747168354E-01 +3.21863755409E-01
4.46000000000E+09 -3.48914790205E-01 +3.13229671157E-01 -5.02582942013E-03 +1.53926105693E-03 -4.88865682464E-03 +1.81201188695E-03 -3.38788261482E-01 +3.39333521477E-01
4.46500000000E+09 -3.39927051597E-01 +3.26593104473E-01 -4.59991837100E-03 +1.84930212349E-03 -4.38313999384E-03 +2.11241633404E-03 -3.27043510638E-01 +3.58485845013E-01
4.47000000000E+09 -3.28797225428E-01 +3.40262502439E-01 -4.29607364760E-03 +1.72802351572E-03 -4.07851162178E-03 +1.86457405109E-03 -3.14850619211E-01 +3.75772216881E-01
4.47500000000E+09 -3.16926917654E-01 +3.55911408409E-01 -5.22848754763E-03 +2.25296093061E-03 -4.93300907739E-03 +2.35888087179E-03 -3.02957753244E-01 +3.91798842783E-01
4.48000000000E+09 -3.04512371479E-01 +3.73340199891E-01 -4.43874698954E-03 +3.31921979956E-03 -4.18339226224E-03 +3.32077594644E-03 -2.91089913809E-01 +4.08176604101E-01
4.48500000000E+09 -2.92132449688E-01 +3.91528153966E-01 -3.97732357840E-03 +3.79916498520E-03 -3.71623402566E-03 +3.74906038926E-03 -2.79151209327E-01 +4.23859194264E-01
4.49000000000E+09 -2.81836404911E-01 +4.08611061817E-01 -3.55213762957E-03 +4.34666510204E-03 -3.33439451332E-03 +4.21911555423E-03 -2.66092817367E-01 +4.39841104696E-01
4.49500000000E+09 -2.73690065048E-01 +4.25987659513E-01 -2.71320302824E-03 +4.53414755928E-03 -2.54426129620E-03 +4.32903176786E-03 -2.52471156585E-01 +4.53697640911E-01
4.50000000000E+09 -2.66838980985E-01 +4.40808331243E-01 -2.20008067880E-03 +4.66065407130E-03 -2.11127826983E-03 +4.46339334987E-03 -2.39560688818E-01 +4.67228303755E-01
4.50500000000E+09 -2.61757854348E-01 +4.54098767996E-01 -1.59413719106E-03 +4.58360347919E-03 -1.57778356129E-03 +4.38284203135E-03 -2.25861854564E-01 +4.80256020233E-01
4.51000000000E+09 -2.55459532610E-01 +4.65679419736E-01 -1.40808409952E-03 +4.57898952836E-03 -1.36918542623E-03 +4.42414522699E-03 -2.12616851266E-01 +4.92757188824E-01
4.51500000000E+09 -2.47135805218E-01 +4.74822244256E-01 -1.03367708093E-03 +4.78292516142E-03 -1.08551660842E-03 +4.69597290803E-03 -1.98926532056E-01 +5.04792005190E-01
4.52000000000E+09 -2.37522523573E-01 +4.81977096340E-01 -6.29443361150E-04 +4.95178977476E-03 -5.96748837603E-04 +4.83487356838E-03 -1.85302778566E-01 +5.16257362196E-01
4.52500000000E+09 -2.26427597960E-01 +4.89616652381E-01 -1.33052905269E-04 +4.68614094799E-03 -7.03210539193E-05 +4.59533994776E-03 -1.72172548532E-01 +5.26670968708E-01
4.53000000000E+09 -2.12915746159E-01 +4.97876914603E-01 +1.05780267534E-04 +5.14378781046E-03 +5.37775844403E-05 +5.04345286353E-03 -1.58548915160E-01 +5.37574369563E-01
4.53500000000E+09 -1.98160026459E-01 +5.07506103468E-01 +9.74948887064E-04 +4.88648154647E-03 +1.01308221907E-03 +4.81670490021E-03 -1.43886270295E-01 +5.47692511645E-01
4.54000000000E+09 -1.82467196672E-01 +5.18599747512E-01 +1.50650657264E-03 +4.89454141955E-03 +1.55594128556E-03 +4.79581790610E-03 -1.29082745863E-01 +5.57749608504E-01
4.54500000000E+09 -1.67202315133E-01 +5.29670074422E-01 +1.92991003460E-03 +4.68960008996E-03 +1.92797875579E-03 +4.59415993670E-03 -1.13605918226E-01 +5.66718229676E-01
4.55000000000E+09 -1.54292804200E-01 +5.40113548267E-01 +2.92075001796E-03 +4.31320378062E-03 +2.90613176485E-03 +4.23331082740E-03 -9.87665022050E-02 +5.75056040109E-01
4.55500000000E+09 -1.43825571939E-01 +5.51163362591E-01 +2.93875178204E-03 +3.37142424364E-03 +2.94184251768E-03 +3.33872251789E-03 -8.50949383814E-02 +5.83024155101E-01
4.56000000000E+09 -1.34454805889E-01 +5.61408528615E-01 +2.77799414758E-03 +3.28353453074E-03 +2.78510876213E-03 +3.24035278776E-03 -7.08148932868E-02 +5.91674405693E-01
4.56500000000E+09 -1.25986033157E-01 +5.69524332514E-01 +3.28471076462E-03 +3.11631843297E-03 +3.33697474436E-03 +2.98461902827E-03 -5.64735172048E-02 +5.99315145256E-01
4.57000000000E+09 -1.17369733775E-01 +5.76439355913E-01 +3.40665200648E-03 +2.85194892009E-03 +3.37285212321E-03 +2.70724487299E-03 -4.17028498691E-02 +6.06468736961E-01
