# Hz S RI R 50
! CMT, C1220, 16058040, 17.2.0/1
! Date: 15/08/2018 12:27:24
! Data: Format (Calibration Info)
! Freq                      S11: Re/Im (F2)                       S21: Re/Im (F2)                       S12: Re/Im (F2)                       S22: Re/Im (F2)            
4.00000000000E+09 +6.61089214975E-01 -3.57992711230E-01 -1.20269289397E-04 -5.26218898396E-04 -8.37701285267E-05 -5.24869079623E-04 +7.83784337860E-01 -3.17894082962E-01
4.00500000000E+09 +6.53228459622E-01 -3.64526479685E-01 -1.39317340895E-05 -5.36116206580E-04 +1.28296678378E-05 -5.08694244819E-04 +7.75269718797E-01 -3.29819384181E-01
4.01000000000E+09 +6.44279544083E-01 -3.70530809574E-01 -1.18986664208E-04 -6.48526814566E-04 -1.27014852331E-04 -5.99640494650E-04 +7.66221508009E-01 -3.41787198377E-01
4.01500000000E+09 +6.35381713675E-01 -3.77134735734E-01 -4.40139495621E-05 -4.63401279966E-04 -4.82971682885E-05 -4.51078391952E-04 +7.57217367434E-01 -3.52771398986E-01
4.02000000000E+09 +6.25184514739E-01 -3.85286305260E-01 -6.41274152129E-05 -6.76278247141E-04 +1.47906682170E-05 -6.45260008375E-04 +7.48018424444E-01 -3.63413849718E-01
4.02500000000E+09 +6.14280317484E-01 -3.94642513061E-01 -2.48131281631E-04 -7.50318244328E-04 -1.54235655468E-04 -7.56515233803E-04 +7.38218488633E-01 -3.73287279198E-01
4.03000000000E+09 +6.02674785864E-01 -4.04283113736E-01 -4.36274921900E-04 -7.84709332745E-04 -4.12032980026E-04 -8.40287814288E-04 +7.28238955128E-01 -3.83568536035E-01
4.03500000000E+09 +5.91556924742E-01 -4.14228587473E-01 -5.27028723277E-04 -6.98605022255E-04 -5.29679922817E-04 -7.20452029440E-04 +7.17187251357E-01 -3.94495697364E-01
4.04000000000E+09 +5.80708013580E-01 -4.24697777734E-01 -7.55511359862E-04 -5.57037786619E-04 -7.71827095103E-04 -6.22111771363E-04 +7.06251510287E-01 -4.05370607715E-01
4.04500000000E+09 +5.68692665713E-01 -4.34206381754E-01 -6.29843351376E-04 -1.84957017146E-04 -6.41353860620E-04 -2.77098991998E-04 +6.95648825253E-01 -4.16419595567E-01
4.05000000000E+09 +5.57561612458E-01 -4.41504176778E-01 -4.24482338644E-04 -3.11198160164E-04 -3.89621626491E-04 -3.47197305870E-04 +6.84461673796E-01 -4.27037452511E-01
4.05500000000E+09 +5.46079999932E-01 -4.48396315933E-01 -4.80118688750E-04 -4.61320212633E-04 -5.28059587289E-04 -5.06742343538E-04 +6.73056379859E-01 -4.36149565462E-01
4.06000000000E+09 +5.33269325222E-01 -4.53425379456E-01 -6.89197784255E-04 -5.97158258373E-04 -6.91008928835E-04 -6.69783882220E-04 +6.62167183939E-01 -4.45340795647E-01
4.06500000000E+09 +5.20503663556E-01 -4.57149498634E-01 -9.53411385862E-04 -4.65777475877E-04 -1.02279069922E-03 -5.24654915702E-04 +6.49839922847E-01 -4.54529287267E-01
4.07000000000E+09 +5.06917632270E-01 -4.61728848001E-01 -1.02939930444E-03 -1.82254035078E-04 -1.03624050545E-03 -2.41353820446E-04 +6.37058581582E-01 -4.64407530130E-01
4.07500000000E+09 +4.91949143341E-01 -4.66675024532E-01 -9.97150949183E-04 -4.44268706055E-05 -1.05773212627E-03 -8.54313011835E-05 +6.23433273090E-01 -4.74697316362E-01
4.08000000000E+09 +4.75713120432E-01 -4.71993841454E-01 -9.95063460752E-04 +8.36317166527E-05 -1.05479176251E-03 +7.20445631106E-05 +6.09910278280E-01 -4.84485359889E-01
4.08500000000E+09 +4.59256556315E-01 -4.77705363281E-01 -8.63665266918E-04 +4.38198126047E-04 -9.48915745813E-04 +4.21433926048E-04 +5.96890335543E-01 -4.94364674402E-01
4.09000000000E+09 +4.42932735037E-01 -4.84615983985E-01 -7.30211624271E-04 +1.95747644771E-04 -7.36201742165E-04 +1.94278326642E-04 +5.82915564209E-01 -5.03190373157E-01
4.09500000000E+09 +4.26257546390E-01 -4.91566845297E-01 -7.31363698674E-04 +1.64274195139E-04 -7.28217246776E-04 +2.05845589310E-04 +5.68653866205E-01 -5.11085366676E-01
4.10000000000E+09 +4.09179498079E-01 -4.97232409553E-01 -8.72860480951E-04 +1.43456477035E-04 -9.36944731134E-04 +1.82168300868E-04 +5.53621541955E-01 -5.19099554935E-01
4.10500000000E+09 +3.93145553857E-01 -5.01531322905E-01 -1.15000473102E-03 +3.54177425867E-04 -1.20791634638E-03 +4.14836087070E-04 +5.37428595595E-01 -5.26889538366E-01
4.11000000000E+09 +3.77203654336E-01 -5.04825381997E-01 -9.42740789106E-04 +7.99642624531E-04 -1.01155959534E-03 +7.61862239521E-04 +5.20913594423E-01 -5.34636980314E-01
4.11500000000E+09 +3.61259817378E-01 -5.06201169500E-01 -7.64948031800E-04 +9.52178211528E-04 -7.89316235924E-04 +9.76446706040E-04 +5.04554072948E-01 -5.41961255438E-01
4.12000000000E+09 +3.44941664857E-01 -5.06810736924E-01 -4.78720085377E-04 +1.01258324580E-03 -4.93867648891E-04 +1.01090580882E-03 +4.88495181369E-01 -5.49050406899E-01
4.12500000000E+09 +3.28535213883E-01 -5.06891481683E-01 -2.20720987729E-04 +9.64033713981E-04 -2.40171456794E-04 +9.89606464462E-04 +4.71995083170E-01 -5.55322537350E-01
4.13000000000E+09 +3.10732871481E-01 -5.08593867963E-01 -1.13686892732E-04 +5.08676467078E-04 -1.56765704251E-04 +5.13900766026E-04 +4.55383050581E-01 -5.61394576619E-01
4.13500000000E+09 +2.91543967274E-01 -5.10036740098E-01 -5.13361361382E-04 +5.40810137632E-04 -4.75390608401E-04 +5.49717054932E-04 +4.37289663850E-01 -5.67297577910E-01
4.14000000000E+09 +2.72671921323E-01 -5.12867649650E-01 -5.69225172595E-04 +7.44777529556E-04 -6.12979841977E-04 +7.51327248133E-04 +4.18828490127E-01 -5.72745049304E-01
4.14500000000E+09 +2.52178310247E-01 -5.17116931646E-01 -6.18092856537E-04 +1.04984547044E-03 -6.42295936953E-04 +1.07122356599E-03 +4.00184031980E-01 -5.78084816820E-01
4.15000000000E+09 +2.31952994970E-01 -5.19967629921E-01 -3.35792865749E-04 +1.46691280152E-03 -3.59260421571E-04 +1.50394399783E-03 +3.82469354268E-01 -5.83109479733E-01
4.15500000000E+09 +2.13162403767E-01 -5.23042441267E-01 +1.17238292934E-04 +1.47365599737E-03 +9.35534301620E-05 +1.53931855365E-03 +3.64158804565E-01 -5.87704173945E-01
4.16000000000E+09 +1.95074335811E-01 -5.25020463467E-01 +5.97334035750E-04 +1.36421712261E-03 +6.07940494399E-04 +1.37307927167E-03 +3.46374005531E-01 -5.90469442226E-01
4.16500000000E+09 +1.77829313929E-01 -5.24871782538E-01 +7.01099208525E-04 +7.83169862946E-04 +7.10459214253E-04 +7.92722874760E-04 +3.27813662620E-01 -5.93939412382E-01
4.17000000000E+09 +1.61261204821E-01 -5.22971837501E-01 +2.18700211159E-04 +8.40172926608E-04 +2.08816618350E-04 +8.85131690530E-04 +3.08046898668E-01 -5.96743406998E-01
4.17500000000E+09 +1.45852002270E-01 -5.18659844330E-01 +5.87355231123E-04 +1.02258050489E-03 +5.91252426926E-04 +9.91666009207E-04 +2.86839412209E-01 -5.99139920319E-01
4.18000000000E+09 +1.29903863878E-01 -5.14520580077E-01 +5.62092410112E-04 +5.31800100251E-04 +5.65652851140E-04 +5.42549422671E-04 +2.65939461454E-01 -6.01045690847E-01
4.18500000000E+09 +1.12462000870E-01 -5.08750169648E-01 +1.27868083002E-04 +1.08749472701E-03 +1.17779753736E-04 +1.07519550797E-03 +2.44727751416E-01 -6.02001217513E-01
4.19000000000E+09 +9.47465122937E-02 -5.03173217525E-01 +9.16196087720E-04 +1.44153927936E-03 +8.60699854205E-04 +1.51423962081E-03 +2.24370078055E-01 -6.01912123087E-01
4.19500000000E+09 +7.52098600021E-02 -4.98207682401E-01 +1.23217919243E-03 +7.72266053158E-04 +1.24632115049E-03 +8.21568828606E-04 +2.03523943197E-01 -6.00813990006E-01
4.20000000000E+09 +5.51702428422E-02 -4.92626237703E-01 +1.20349418503E-03 +8.27811027523E-04 +1.18265569834E-03 +8.65935871705E-04 +1.83148110174E-01 -5.99110477813E-01
4.20500000000E+09 +3.59721746676E-02 -4.87682606727E-01 +1.66234048432E-03 +4.77554111044E-04 +1.77563134041E-03 +5.08608115537E-04 +1.60865799644E-01 -5.97220638524E-01
4.21000000000E+09 +1.71367563797E-02 -4.83079765190E-01 +1.42848708140E-03 -2.98340939460E-04 +1.44808912488E-03 -2.99945480600E-04 +1.38493855472E-01 -5.94731050573E-01
4.21500000000E+09 -5.63558326835E-04 -4.77544553666E-01 +9.81721607010E-04 -5.73162802367E-05 +1.02215982394E-03 -3.27751609039E-05 +1.16470892658E-01 -5.92332727683E-01
4.22000000000E+09 -1.73282049955E-02 -4.70819139024E-01 +9.03744895539E-04 -1.52051207510E-04 +9.50857109496E-04 -1.36950450166E-04 +9.47205130266E-02 -5.89201203817E-01
4.22500000000E+09 -3.24133020902E-02 -4.62068446177E-01 +1.15856166930E-03 +3.48250895113E-05 +1.26066620276E-03 +8.30130788437E-05 +7.32647145726E-02 -5.84536485070E-01
4.23000000000E+09 -4.69585148127E-02 -4.52671391154E-01 +1.17714253273E-03 -4.99879009413E-04 +1.24052027341E-03 -4.87771686415E-04 +5.26245806989E-02 -5.79068534474E-01
4.23500000000E+09 -6.26348943086E-02 -4.40907509406E-01 +7.34338206442E-04 -4.62799118765E-04 +7.55042034590E-04 -4.38553013118E-04 +3.07582027292E-02 -5.72646844382E-01
4.24000000000E+09 -7.82991013529E-02 -4.27506861955E-01 +9.65700893942E-04 -1.22184759323E-04 +9.91542583070E-04 -1.00051088840E-04 +8.87851842378E-03 -5.64805806689E-01
4.24500000000E+09 -9.55523168159E-02 -4.14758321852E-01 +1.31100195649E-03 -6.49924920867E-04 +1.36882741666E-03 -6.06166916403E-04 -1.34675377849E-02 -5.57299521501E-01
4.25000000000E+09 -1.15133865572E-01 -4.01125695199E-01 +7.20336794279E-04 -1.21599939694E-03 +7.73922187099E-04 -1.20028379151E-03 -3.60073757466E-02 -5.48528132311E-01
4.25500000000E+09 -1.35092500682E-01 -3.87841085639E-01 +3.02705693960E-04 -6.64451174409E-04 +3.72805533608E-04 -7.01885506086E-04 -5.68702445010E-02 -5.38872723562E-01
4.26000000000E+09 -1.55250447467E-01 -3.75490650290E-01 +7.27581248045E-04 -7.16971796985E-04 +7.32854969911E-04 -7.08154636501E-04 -7.76154373279E-02 -5.28658207304E-01
4.26500000000E+09 -1.75426240809E-01 -3.63161418245E-01 +4.30586579955E-04 -1.12599001820E-03 +4.29264953413E-04 -1.17650620172E-03 -9.74571842683E-02 -5.17428385985E-01
4.27000000000E+09 -1.92935739948E-01 -3.51245657846E-01 +4.94910269119E-05 -8.85353939011E-04 +4.51834725472E-05 -9.55276747543E-04 -1.18918165032E-01 -5.05531728771E-01
4.27500000000E+09 -2.08510268796E-01 -3.39302622189E-01 +5.86671600200E-05 -9.20286309983E-04 +6.16940779066E-05 -9.40474256302E-04 -1.40532993991E-01 -4.90926820162E-01
4.28000000000E+09 -2.21491968176E-01 -3.26757104085E-01 -4.11839676628E-04 -6.04822941688E-04 -4.57058412150E-04 -6.26585695623E-04 -1.60899871374E-01 -4.76717273107E-01
4.28500000000E+09 -2.33256954723E-01 -3.13104046303E-01 -4.41538378576E-06 -2.49396366530E-04 +2.23414895207E-05 -2.71040796687E-04 -1.81241632508E-01 -4.62507086499E-01
4.29000000000E+09 -2.43603613196E-01 -2.96653898494E-01 -4.57349192142E-05 -4.18037028452E-04 -1.04702965403E-05 -4.27690290589E-04 -2.00543221664E-01 -4.47395370886E-01
4.29500000000E+09 -2.53425998963E-01 -2.79276160122E-01 +1.53629781183E-04 -1.96860303703E-04 +1.65769466935E-04 -2.66637069213E-04 -2.18597147264E-01 -4.32082436999E-01
4.30000000000E+09 -2.63963300879E-01 -2.59913530098E-01 +2.04516351507E-04 -5.53247121398E-04 +1.72182236893E-04 -5.29400549564E-04 -2.36340902011E-01 -4.15522307416E-01
4.30500000000E+09 -2.75648635620E-01 -2.39753927412E-01 -2.07363457664E-05 -5.89738844897E-04 -7.30076072330E-05 -6.12456326811E-04 -2.53566376514E-01 -3.97181839896E-01
4.31000000000E+09 -2.88388153294E-01 -2.19144055970E-01 +1.44639361856E-05 -2.10763126554E-04 -2.06956388148E-05 -1.84755319367E-04 -2.69899793120E-01 -3.78700315855E-01
4.31500000000E+09 -3.01696322951E-01 -1.98749017710E-01 +3.57509524094E-05 -3.47888759070E-04 +3.98476556243E-05 -3.46703085011E-04 -2.86380776477E-01 -3.59405092070E-01
4.32000000000E+09 -3.14525208725E-01 -1.80170575627E-01 +1.26497641717E-04 +3.06066678344E-06 +1.42441998145E-04 +4.68632651731E-06 -3.01340251730E-01 -3.39653321300E-01
4.32500000000E+09 -3.26751317064E-01 -1.62472428162E-01 +8.28548164967E-04 -4.54805837988E-04 +8.04914685190E-04 -4.31456143810E-04 -3.16627731074E-01 -3.19954213355E-01
4.33000000000E+09 -3.36424951167E-01 -1.45746944081E-01 +1.52415403948E-04 -8.11156827505E-04 +9.12254746985E-05 -7.84344187714E-04 -3.29886914247E-01 -2.98063284615E-01
4.33500000000E+09 -3.44471103438E-01 -1.30499543722E-01 +4.56432997835E-04 -4.43529979831E-04 +4.28898889799E-04 -3.46003745283E-04 -3.42699523216E-01 -2.76899028214E-01
4.34000000000E+09 -3.49997384162E-01 -1.13838648757E-01 +4.66799823572E-04 -9.74403631015E-04 +4.85564153877E-04 -9.72823980479E-04 -3.55480853098E-01 -2.53327183022E-01
4.34500000000E+09 -3.52221982234E-01 -9.65666782346E-02 -1.12348891529E-04 -1.26562101595E-03 -6.65804725764E-05 -1.23052916069E-03 -3.66669091247E-01 -2.30283792450E-01
4.35000000000E+09 -3.54516979340E-01 -7.81514299247E-02 -9.22422043356E-05 -6.79559446510E-04 -1.17609463718E-04 -6.52470736754E-04 -3.78274766644E-01 -2.07058032942E-01
4.35500000000E+09 -3.55197687481E-01 -5.70104991611E-02 +9.30413819394E-05 -1.02366259793E-03 +7.96968728136E-05 -1.02223950985E-03 -3.88287226886E-01 -1.83293803016E-01
4.36000000000E+09 -3.56654611800E-01 -3.53033816031E-02 -1.70426835382E-04 -1.12766469907E-03 -1.18132532434E-04 -1.16212453607E-03 -3.96375934909E-01 -1.59995991607E-01
4.36500000000E+09 -3.59786275329E-01 -1.17486126501E-02 -2.63288096251E-04 -1.03225597732E-03 -2.09125211740E-04 -1.02950192961E-03 -4.04006739564E-01 -1.36818652182E-01
4.37000000000E+09 -3.63000696540E-01 +1.16226523660E-02 -3.05371567905E-04 -1.06941173281E-03 -3.11270683947E-04 -1.07345936104E-03 -4.09883049506E-01 -1.12386207263E-01
4.37500000000E+09 -3.68167780903E-01 +3.36332671710E-02 -1.33299378979E-04 -1.51374575486E-03 -1.30117513570E-04 -1.58266794259E-03 -4.15329833416E-01 -8.78177821503E-02
4.38000000000E+09 -3.73047010807E-01 +5.50981278368E-02 -1.08227460994E-03 -1.64524613620E-03 -1.15081285035E-03 -1.65273058462E-03 -4.19775832024E-01 -6.32340079408E-02
4.38500000000E+09 -3.77001875126E-01 +7.31694077552E-02 -1.50854688954E-03 -9.56950994526E-04 -1.47652302906E-03 -1.02403915711E-03 -4.23889826059E-01 -3.81004766281E-02
4.39000000000E+09 -3.80308528464E-01 +9.00714973385E-02 -1.14937012558E-03 -6.87260986991E-04 -1.13112022542E-03 -6.89394661090E-04 -4.26041003717E-01 -1.32925196943E-02
4.39500000000E+09 -3.80421217757E-01 +1.05684294005E-01 -1.24181488860E-03 -8.75974636747E-04 -1.27710505330E-03 -8.52023184856E-04 -4.27532493680E-01 +1.08399897145E-02
4.40000000000E+09 -3.78510065819E-01 +1.20287123533E-01 -1.22117596850E-03 -5.47590796017E-04 -1.26184388998E-03 -5.49989052311E-04 -4.27326582498E-01 +3.48854126398E-02
4.40500000000E+09 -3.74409189962E-01 +1.35423998309E-01 -1.43615305510E-03 -8.31641514844E-04 -1.46576738477E-03 -7.91317237108E-04 -4.27060251148E-01 +5.86283649696E-02
4.41000000000E+09 -3.69614284318E-01 +1.51546814130E-01 -1.60645926298E-03 -4.00905227579E-04 -1.65088796183E-03 -3.88821376090E-04 -4.25679725018E-01 +8.32409987360E-02
4.41500000000E+09 -3.63972834921E-01 +1.71424742293E-01 -1.51681793524E-03 -3.96149469403E-04 -1.59917862752E-03 -4.05367166447E-04 -4.23947472506E-01 +1.07255508701E-01
4.42000000000E+09 -3.57284750222E-01 +1.92547395981E-01 -1.99177271321E-03 -4.39904866192E-04 -2.13608146531E-03 -3.57757384082E-04 -4.21090251858E-01 +1.32185634011E-01
4.42500000000E+09 -3.52276789125E-01 +2.15053901773E-01 -2.11762886623E-03 +1.96816148725E-04 -2.12740645570E-03 +2.56270856894E-04 -4.15437001248E-01 +1.54877332360E-01
4.43000000000E+09 -3.47193905311E-01 +2.37658136694E-01 -2.02180261248E-03 +3.63675865745E-04 -1.99382638298E-03 +4.88402259317E-04 -4.11775661776E-01 +1.76904698996E-01
4.43500000000E+09 -3.43260898633E-01 +2.58605162927E-01 -2.17013917776E-03 +7.69058006941E-04 -2.13130336472E-03 +7.89589281200E-04 -4.05467907124E-01 +2.00507035707E-01
4.44000000000E+09 -3.40317394522E-01 +2.77166047198E-01 -1.70921635855E-03 +1.22242293220E-03 -1.64308387951E-03 +1.24458950425E-03 -3.98982207900E-01 +2.22024444775E-01
4.44500000000E+09 -3.38270839140E-01 +2.93415300640E-01 -1.65145916170E-03 +9.32915567093E-04 -1.59350584202E-03 +9.45120681871E-04 -3.92095031772E-01 +2.43935234632E-01
4.45000000000E+09 -3.35869125297E-01 +3.08044308403E-01 -1.82351042141E-03 +1.26966853085E-03 -1.77122747812E-03 +1.31315132338E-03 -3.85043914001E-01 +2.64803487391E-01
4.45500000000E+09 -3.31044122864E-01 +3.21770373436E-01 -1.76045514328E-03 +1.74790057556E-03 -1.71010959256E-03 +1.82558780810E-03 -3.76405646097E-01 +2.85010643997E-01
4.46000000000E+09 -3.23811097647E-01 +3.34009067356E-01 -1.38335997500E-03 +1.83581964353E-03 -1.33528878305E-03 +1.88808488068E-03 -3.68055295779E-01 +3.03873255350E-01
4.46500000000E+09 -3.14795505348E-01 +3.46931320212E-01 -1.16394527207E-03 +2.10421829070E-03 -1.07094518703E-03 +2.15636320881E-03 -3.58091894074E-01 +3.23366318748E-01
4.47000000000E+09 -3.03411299035E-01 +3.61169482071E-01 -8.68691014833E-04 +2.33950436180E-03 -7.53363439524E-04 +2.38504416481E-03 -3.47122599500E-01 +3.41707470657E-01
4.47500000000E+09 -2.90665392538E-01 +3.75985376088E-01 -6.60506998012E-04 +2.40778734775E-03 -5.73355227243E-04 +2.32271156482E-03 -3.36638466541E-01 +3.60705970634E-01
4.48000000000E+09 -2.78607756250E-01 +3.92965100543E-01 -1.60135177707E-04 +2.62315123969E-03 -9.02230412721E-05 +2.59842952967E-03 -3.24750211862E-01 +3.79182712116E-01
4.48500000000E+09 -2.66534441185E-01 +4.09895415251E-01 -2.66516702135E-05 +2.43837763426E-03 +3.25305647362E-05 +2.34434484184E-03 -3.13374358486E-01 +3.96258356636E-01
4.49000000000E+09 -2.56791494211E-01 +4.26800951179E-01 +4.10982334438E-04 +2.73924558408E-03 +4.47123167266E-04 +2.65377758488E-03 -3.01673357455E-01 +4.12318760418E-01
4.49500000000E+09 -2.48260338644E-01 +4.43090306724E-01 +9.62433734940E-04 +2.41328689073E-03 +8.85789816035E-04 +2.30251258110E-03 -2.90426810328E-01 +4.27511606965E-01
4.50000000000E+09 -2.41643027753E-01 +4.56911723359E-01 +8.88080283962E-04 +2.47116954767E-03 +8.68367694751E-04 +2.38649752970E-03 -2.78114529229E-01 +4.43062651956E-01
4.50500000000E+09 -2.35885258321E-01 +4.69317042275E-01 +1.58524559242E-03 +2.39805891590E-03 +1.55540042809E-03 +2.36118837184E-03 -2.65034001048E-01 +4.57449595524E-01
4.51000000000E+09 -2.29144715310E-01 +4.78572519867E-01 +1.84647088426E-03 +1.77919676048E-03 +1.81984686006E-03 +1.73953172262E-03 -2.52007695023E-01 +4.72117670074E-01
4.51500000000E+09 -2.22611618337E-01 +4.86484284919E-01 +1.77284375873E-03 +1.73989675563E-03 +1.74869768221E-03 +1.66696245101E-03 -2.38445577218E-01 +4.86311199031E-01
4.52000000000E+09 -2.12987291981E-01 +4.94236756910E-01 +2.16616094560E-03 +1.51250326863E-03 +2.11228338277E-03 +1.45336572309E-03 -2.25451642809E-01 +4.99623746673E-01
4.52500000000E+09 -2.01322125680E-01 +5.00904291347E-01 +2.14640669581E-03 +1.19659881985E-03 +2.06582242659E-03 +1.18870656165E-03 -2.11739540103E-01 +5.12120269934E-01
4.53000000000E+09 -1.87682528727E-01 +5.09180582861E-01 +2.39652886945E-03 +1.14723925052E-03 +2.33822631521E-03 +1.08919468412E-03 -1.97811188147E-01 +5.23405967738E-01
4.53500000000E+09 -1.72077780940E-01 +5.17641505958E-01 +2.33174517809E-03 +6.91849941912E-04 +2.32663113974E-03 +6.15459602024E-04 -1.83595273074E-01 +5.34987682375E-01
4.54000000000E+09 -1.56658304976E-01 +5.27443810573E-01 +2.61582287278E-03 +7.57969795959E-04 +2.61049009901E-03 +7.54046625733E-04 -1.67801900656E-01 +5.45727243903E-01
4.54500000000E+09 -1.41254391104E-01 +5.38194301571E-01 +2.90997122709E-03 +4.21913940196E-05 +2.88239792493E-03 -7.67936015790E-06 -1.53191673544E-01 +5.55457734980E-01
4.55000000000E+09 -1.28109372680E-01 +5.48517766655E-01 +2.83524229090E-03 -2.83850328541E-04 +2.73656456217E-03 -2.96417811189E-04 -1.38550505753E-01 +5.66207406723E-01
4.55500000000E+09 -1.16397364132E-01 +5.59340502738E-01 +2.71610759536E-03 -8.70463153061E-04 +2.64200222835E-03 -8.48751442031E-04 -1.24212017102E-01 +5.75840503393E-01
4.56000000000E+09 -1.05779416755E-01 +5.68178502157E-01 +2.29338551715E-03 -1.09168604491E-03 +2.23130610593E-03 -1.14594366117E-03 -1.09463135116E-01 +5.84561999423E-01
4.56500000000E+09 -9.70447534367E-02 +5.75784141579E-01 +2.09003799585E-03 -1.23132441504E-03 +2.08483925591E-03 -1.26851223147E-03 -9.55555188965E-02 +5.93211682964E-01
4.57000000000E+09 -8.78040515668E-02 +5.82262130965E-01 +2.04255434359E-03 -1.40541176193E-03 +1.99679775450E-03 -1.38656590738E-03 -7.98659348669E-02 +6.01664970537E-01
