# Hz S RI R 50
! CMT, C1220, 16058040, 17.2.0/1
! Date: 15/08/2018 11:43:37
! Data: Format (Calibration Info)
! Freq                      S11: Re/Im (F2)                       S21: Re/Im (F2)                       S12: Re/Im (F2)                       S22: Re/Im (F2)            
4.00000000000E+09 +6.36653830588E-01 -3.36736546235E-01 -1.38725417604E-03 -3.03667854750E-03 -1.31333627220E-03 -3.17708660384E-03 +7.71408783310E-01 -3.51196572872E-01
4.00500000000E+09 +6.27548983765E-01 -3.42890875055E-01 -1.62467844186E-03 -3.08509700943E-03 -1.56690907006E-03 -3.16427795338E-03 +7.62831395270E-01 -3.62624967705E-01
4.01000000000E+09 +6.17458334386E-01 -3.47983148013E-01 -2.02186274699E-03 -3.12922738247E-03 -1.87800905833E-03 -3.23883836609E-03 +7.53259563454E-01 -3.73707382955E-01
4.01500000000E+09 +6.06940883957E-01 -3.53258981291E-01 -2.42407522160E-03 -2.69481826636E-03 -2.36927476050E-03 -2.83662904156E-03 +7.43732996637E-01 -3.83900343617E-01
4.02000000000E+09 +5.95554679825E-01 -3.59849334888E-01 -2.49467411066E-03 -2.69164366996E-03 -2.39672761367E-03 -2.89798635352E-03 +7.34204996311E-01 -3.94534780132E-01
4.02500000000E+09 +5.82869735188E-01 -3.67015729347E-01 -3.12962219308E-03 -2.68639035593E-03 -3.11803692519E-03 -2.91350109402E-03 +7.23734265517E-01 -4.05307397709E-01
4.03000000000E+09 +5.70586473819E-01 -3.75114538810E-01 -3.67699367753E-03 -2.20818278971E-03 -3.67154765522E-03 -2.37302722538E-03 +7.12914456968E-01 -4.15732346324E-01
4.03500000000E+09 +5.57682769360E-01 -3.84359594808E-01 -3.75889921146E-03 -1.66500013312E-03 -3.80971586939E-03 -1.87914426719E-03 +7.01543884336E-01 -4.26625259510E-01
4.04000000000E+09 +5.44989189596E-01 -3.93414483583E-01 -4.09163685485E-03 -1.30798412667E-03 -4.17333025107E-03 -1.48033035476E-03 +6.89736432118E-01 -4.37314944881E-01
4.04500000000E+09 +5.32602168661E-01 -4.02772372119E-01 -3.96785878311E-03 -7.25280040729E-04 -4.08407483040E-03 -9.31731257288E-04 +6.78116828534E-01 -4.47479897293E-01
4.05000000000E+09 +5.19864475900E-01 -4.11393708594E-01 -4.02977849616E-03 -6.78450799865E-04 -4.24714866695E-03 -8.63350073602E-04 +6.66622998787E-01 -4.57804272198E-01
4.05500000000E+09 +5.05984973676E-01 -4.17740172590E-01 -4.40406597365E-03 -2.08763493433E-04 -4.63271155794E-03 -3.19708349320E-04 +6.54099750571E-01 -4.67731367939E-01
4.06000000000E+09 +4.92788713354E-01 -4.22386976986E-01 -4.44530975721E-03 +4.35394762597E-04 -4.63063604943E-03 +3.84919427927E-04 +6.41523460343E-01 -4.77075761608E-01
4.06500000000E+09 +4.78733439071E-01 -4.25980265267E-01 -4.12622419699E-03 +1.05130174490E-03 -4.29027983331E-03 +1.03660390565E-03 +6.27836075099E-01 -4.86413309525E-01
4.07000000000E+09 +4.64268304407E-01 -4.28987254829E-01 -3.99869797959E-03 +1.18225789000E-03 -4.11412496004E-03 +1.10437573082E-03 +6.13966609709E-01 -4.95990618674E-01
4.07500000000E+09 +4.48906288397E-01 -4.32274083917E-01 -3.91227926222E-03 +1.41925716647E-03 -4.05514599296E-03 +1.33794699879E-03 +5.99785759967E-01 -5.05729860459E-01
4.08000000000E+09 +4.32261698256E-01 -4.35709834640E-01 -4.01767483286E-03 +1.67435497059E-03 -4.14628552359E-03 +1.60376027337E-03 +5.84920050671E-01 -5.15374946551E-01
4.08500000000E+09 +4.14826634817E-01 -4.39786063458E-01 -4.09739109135E-03 +2.11637329945E-03 -4.30575073368E-03 +2.07658282091E-03 +5.70099960795E-01 -5.23697762822E-01
4.09000000000E+09 +3.97264957621E-01 -4.43459985943E-01 -3.87433346327E-03 +2.75998414056E-03 -4.08279664509E-03 +2.72991955550E-03 +5.55405867882E-01 -5.31500531169E-01
4.09500000000E+09 +3.79943208007E-01 -4.47596838143E-01 -3.66824624768E-03 +3.17826176450E-03 -3.88865577953E-03 +3.23416875076E-03 +5.40502213670E-01 -5.38783183954E-01
4.10000000000E+09 +3.63145252608E-01 -4.51693399911E-01 -3.22893946548E-03 +3.51691001729E-03 -3.32427684076E-03 +3.58892324285E-03 +5.24777869228E-01 -5.46386397474E-01
4.10500000000E+09 +3.46394347093E-01 -4.55266987780E-01 -3.08950601960E-03 +3.70809749022E-03 -3.13575428008E-03 +3.74849355499E-03 +5.07571689744E-01 -5.54195290938E-01
4.11000000000E+09 +3.29135722522E-01 -4.56977468877E-01 -2.97354737253E-03 +4.23928333737E-03 -3.07672397457E-03 +4.26922624864E-03 +4.89854770217E-01 -5.60958093465E-01
4.11500000000E+09 +3.13149523432E-01 -4.56983989442E-01 -2.23313359274E-03 +4.71364986617E-03 -2.38326923388E-03 +4.78035367871E-03 +4.72564921514E-01 -5.67392308451E-01
4.12000000000E+09 +2.96768519744E-01 -4.56586400833E-01 -1.89095370577E-03 +4.75537119839E-03 -2.06320765139E-03 +4.80767041810E-03 +4.55223442065E-01 -5.74189090663E-01
4.12500000000E+09 +2.79875172415E-01 -4.55123998157E-01 -1.68310921567E-03 +5.01557768699E-03 -1.80517751911E-03 +5.09605424089E-03 +4.37649119962E-01 -5.80045078223E-01
4.13000000000E+09 +2.62537416480E-01 -4.53434669441E-01 -1.13008919604E-03 +5.35195207250E-03 -1.32874265786E-03 +5.44898444160E-03 +4.19451022136E-01 -5.85455591719E-01
4.13500000000E+09 +2.44548732347E-01 -4.52137070115E-01 -9.17658068692E-04 +5.56162625557E-03 -1.09125744299E-03 +5.56484263466E-03 +4.00799302910E-01 -5.89981607680E-01
4.14000000000E+09 +2.26246815517E-01 -4.51853971072E-01 -2.84756614312E-04 +6.27542992342E-03 -5.35907476123E-04 +6.39845516897E-03 +3.81221102113E-01 -5.94362992103E-01
4.14500000000E+09 +2.07653810468E-01 -4.52043523821E-01 +9.04173004446E-04 +6.60206592081E-03 +6.80565132219E-04 +6.79640283566E-03 +3.61699509220E-01 -5.98392909679E-01
4.15000000000E+09 +1.89268466251E-01 -4.54025142719E-01 +1.86124280201E-03 +6.15214901620E-03 +1.73936173250E-03 +6.38253443371E-03 +3.42726830312E-01 -6.02772661779E-01
4.15500000000E+09 +1.69946283062E-01 -4.55298653296E-01 +2.58857109682E-03 +5.58365457999E-03 +2.47760899704E-03 +5.82011596189E-03 +3.22761325813E-01 -6.06787471915E-01
4.16000000000E+09 +1.51260943270E-01 -4.55018351133E-01 +2.73663708665E-03 +5.25483955069E-03 +2.72825006126E-03 +5.47453920678E-03 +3.02132612716E-01 -6.08916545586E-01
4.16500000000E+09 +1.33431591526E-01 -4.52912189041E-01 +2.89707299137E-03 +5.19265881343E-03 +2.92713863549E-03 +5.44524916817E-03 +2.82617308086E-01 -6.09828653859E-01
4.17000000000E+09 +1.17705059349E-01 -4.48122544725E-01 +3.53756665293E-03 +5.40440539809E-03 +3.57826870218E-03 +5.65140977392E-03 +2.61826693199E-01 -6.10362837657E-01
4.17500000000E+09 +1.02765315248E-01 -4.42704928971E-01 +4.39244157509E-03 +5.41882616027E-03 +4.45125118580E-03 +5.66438792601E-03 +2.40574198397E-01 -6.10141504604E-01
4.18000000000E+09 +8.79506281786E-02 -4.36237053422E-01 +5.51980972561E-03 +4.59044149288E-03 +5.61655886239E-03 +4.87879164977E-03 +2.19163534983E-01 -6.09703768048E-01
4.18500000000E+09 +7.16965738103E-02 -4.28789049631E-01 +5.82304427499E-03 +3.83490589316E-03 +5.93403651987E-03 +4.10915417872E-03 +1.96962245625E-01 -6.08998789479E-01
4.19000000000E+09 +5.49210112284E-02 -4.20671402059E-01 +6.37847771299E-03 +3.58567319346E-03 +6.57182473699E-03 +3.74671495642E-03 +1.75851625189E-01 -6.07051420817E-01
4.19500000000E+09 +3.69931956829E-02 -4.11825417428E-01 +6.99755952941E-03 +2.76899824667E-03 +7.19964771995E-03 +2.96060117683E-03 +1.54564889965E-01 -6.04777115635E-01
4.20000000000E+09 +1.96251397031E-02 -4.02941749512E-01 +7.25559406940E-03 +1.69650004023E-03 +7.50491968530E-03 +1.84759109105E-03 +1.32830596372E-01 -6.02535950914E-01
4.20500000000E+09 +2.96289837263E-03 -3.95520547399E-01 +7.26448037444E-03 +8.63850196018E-04 +7.55394176610E-03 +1.01342367237E-03 +1.10153549256E-01 -5.98777973149E-01
4.21000000000E+09 -1.34733481993E-02 -3.88712399245E-01 +7.31421120531E-03 -1.49340020840E-04 +7.60360872918E-03 -1.74913061222E-04 +8.70846756306E-02 -5.93539635159E-01
4.21500000000E+09 -2.98638386311E-02 -3.82267983109E-01 +6.93398449712E-03 -2.26763056196E-04 +7.16015081090E-03 -2.34297818425E-04 +6.53312294907E-02 -5.88642955059E-01
4.22000000000E+09 -4.53799214191E-02 -3.73969089283E-01 +7.42676130348E-03 -4.98610644107E-04 +7.58000972331E-03 -4.85404999665E-04 +4.30510214624E-02 -5.82897990073E-01
4.22500000000E+09 -5.92908299544E-02 -3.64022699550E-01 +8.10791170557E-03 -1.68886115161E-03 +8.22744841022E-03 -1.71401053654E-03 +2.05330031671E-02 -5.76786090260E-01
4.23000000000E+09 -7.14426792576E-02 -3.52504735234E-01 +7.92800564349E-03 -3.34751411804E-03 +8.02938157045E-03 -3.40450208365E-03 -1.75598890802E-03 -5.68837154072E-01
4.23500000000E+09 -8.32109356692E-02 -3.40156433435E-01 +6.96651866450E-03 -4.37025896066E-03 +7.18134836695E-03 -4.46947391156E-03 -2.33854421095E-02 -5.59251291046E-01
4.24000000000E+09 -9.59091070461E-02 -3.26669012979E-01 +6.25718324004E-03 -4.87421795006E-03 +6.31819060651E-03 -4.95279040702E-03 -4.41068142103E-02 -5.49290192519E-01
4.24500000000E+09 -1.09425716811E-01 -3.12224074436E-01 +5.68532169472E-03 -4.85733998990E-03 +5.82537643470E-03 -4.96285291018E-03 -6.47163838505E-02 -5.39529396152E-01
4.25000000000E+09 -1.24008385167E-01 -2.97011871735E-01 +5.81041225748E-03 -5.68312202355E-03 +5.88907464202E-03 -5.75234785563E-03 -8.68086317807E-02 -5.28602532078E-01
4.25500000000E+09 -1.39222927349E-01 -2.82533929355E-01 +4.88245975442E-03 -6.87777989006E-03 +5.04208057608E-03 -6.98876718560E-03 -1.08349880156E-01 -5.16308345852E-01
4.26000000000E+09 -1.55296473440E-01 -2.69167557703E-01 +3.82035137595E-03 -7.14416759980E-03 +3.94768308672E-03 -7.21305252629E-03 -1.28768333600E-01 -5.02639146246E-01
4.26500000000E+09 -1.72303592190E-01 -2.57138892252E-01 +3.31832021866E-03 -6.93173823736E-03 +3.39005922338E-03 -7.05946802700E-03 -1.48856261238E-01 -4.88315046729E-01
4.27000000000E+09 -1.88587734716E-01 -2.44487788107E-01 +2.97247803736E-03 -7.51433570252E-03 +3.00666261587E-03 -7.62844453030E-03 -1.68026051706E-01 -4.73208931910E-01
4.27500000000E+09 -2.03619660667E-01 -2.31760312278E-01 +2.23239553934E-03 -8.07479660134E-03 +2.30827420564E-03 -8.17963225801E-03 -1.88380387228E-01 -4.56989879465E-01
4.28000000000E+09 -2.15565904364E-01 -2.17699911147E-01 +1.45686131107E-03 -8.49870532470E-03 +1.53255139741E-03 -8.60737087708E-03 -2.07132051448E-01 -4.40460377096E-01
4.28500000000E+09 -2.24067829912E-01 -2.03900887704E-01 +5.77280585635E-04 -9.12640434991E-03 +6.22944411517E-04 -9.28262525314E-03 -2.26510543639E-01 -4.23944482469E-01
4.29000000000E+09 -2.31617693504E-01 -1.90160948905E-01 -1.27730053152E-03 -9.50970376592E-03 -1.25657987245E-03 -9.71095850518E-03 -2.44001309485E-01 -4.05498806414E-01
4.29500000000E+09 -2.39274689095E-01 -1.75576125092E-01 -2.62835129545E-03 -8.17528586033E-03 -2.66049250810E-03 -8.34415752861E-03 -2.59226565980E-01 -3.88695043162E-01
4.30000000000E+09 -2.47576203315E-01 -1.58460918768E-01 -3.10572025950E-03 -7.59648233944E-03 -3.15267977228E-03 -7.68073107161E-03 -2.75826499091E-01 -3.71159363796E-01
4.30500000000E+09 -2.55883431783E-01 -1.39713745285E-01 -3.30240700092E-03 -6.99705914690E-03 -3.33910330273E-03 -7.20011344695E-03 -2.92121973812E-01 -3.51108090369E-01
4.31000000000E+09 -2.64069477230E-01 -1.19300902350E-01 -3.34261394536E-03 -7.07116824125E-03 -3.47872835845E-03 -7.29711091437E-03 -3.07559341198E-01 -3.30386820313E-01
4.31500000000E+09 -2.71448060974E-01 -9.97835550368E-02 -4.10538517668E-03 -7.25528773733E-03 -4.21738624367E-03 -7.49066448001E-03 -3.21878099318E-01 -3.08477466056E-01
4.32000000000E+09 -2.78909177112E-01 -8.11495071059E-02 -4.99277117192E-03 -7.20999631601E-03 -5.15349747698E-03 -7.46800107859E-03 -3.34973484650E-01 -2.87000143896E-01
4.32500000000E+09 -2.85491150596E-01 -6.51445526013E-02 -6.58123694898E-03 -6.89057518292E-03 -6.85352586113E-03 -7.04314893126E-03 -3.47432403582E-01 -2.65247170098E-01
4.33000000000E+09 -2.92836158505E-01 -4.94527288056E-02 -7.19610046355E-03 -6.14296297332E-03 -7.47481395958E-03 -6.16376428475E-03 -3.59904349074E-01 -2.42027138261E-01
4.33500000000E+09 -2.98150169533E-01 -3.32817923838E-02 -8.31475182239E-03 -5.17157068188E-03 -8.52011929871E-03 -5.10619394315E-03 -3.69978837462E-01 -2.16716072769E-01
4.34000000000E+09 -3.00794632624E-01 -1.71018263360E-02 -8.97363477336E-03 -3.76740197167E-03 -9.11304569705E-03 -3.67561782809E-03 -3.77931170937E-01 -1.92397192767E-01
4.34500000000E+09 -3.01317692335E-01 -1.18411612117E-03 -8.63680333533E-03 -2.27191590227E-03 -8.75950408345E-03 -2.21474564814E-03 -3.87153892043E-01 -1.69949293940E-01
4.35000000000E+09 -3.01099300329E-01 +1.62359098573E-02 -8.30901089763E-03 -2.04813063363E-03 -8.50362506231E-03 -1.99804744014E-03 -3.97451261433E-01 -1.45178922736E-01
4.35500000000E+09 -2.99433174851E-01 +3.45131345438E-02 -8.86876339006E-03 -1.75380268107E-03 -9.00337142253E-03 -1.51642708173E-03 -4.04965622403E-01 -1.18818179690E-01
4.36000000000E+09 -2.98609979198E-01 +5.38783317358E-02 -8.93014790791E-03 -1.17086948625E-03 -8.96574708806E-03 -9.80535636327E-04 -4.10190949724E-01 -9.40461492392E-02
4.36500000000E+09 -2.97372335574E-01 +7.46554759234E-02 -1.02566136185E-02 -9.51677769427E-04 -1.02592215001E-02 -7.98504961698E-04 -4.13975412349E-01 -6.99939362408E-02
4.37000000000E+09 -2.97160500362E-01 +9.45842207291E-02 -1.12736858294E-02 +1.26594494040E-03 -1.12757640271E-02 +1.51939256731E-03 -4.16903912580E-01 -4.61880867938E-02
4.37500000000E+09 -2.97926011611E-01 +1.13914037252E-01 -1.05214181993E-02 +3.57520106522E-03 -1.06013409319E-02 +3.82136170407E-03 -4.19335039905E-01 -2.21974277421E-02
4.38000000000E+09 -2.99687770700E-01 +1.32613269469E-01 -9.67634271521E-03 +4.57594111315E-03 -9.60244894199E-03 +4.85746491503E-03 -4.21599828744E-01 +3.73807471803E-03
4.38500000000E+09 -3.00558531577E-01 +1.50032947834E-01 -8.73302427899E-03 +5.53214803375E-03 -8.63968379427E-03 +5.72622115436E-03 -4.21212435031E-01 +2.94819039799E-02
4.39000000000E+09 -3.00097478946E-01 +1.65840600472E-01 -7.89926340848E-03 +6.26896402211E-03 -7.80548763359E-03 +6.36500979261E-03 -4.20980687255E-01 +5.37794277894E-02
4.39500000000E+09 -2.97900897610E-01 +1.79998436839E-01 -7.65870462156E-03 +6.61989929182E-03 -7.58227492076E-03 +6.67868883675E-03 -4.20740939409E-01 +7.76357715124E-02
4.40000000000E+09 -2.94051223477E-01 +1.93554847591E-01 -6.85488299287E-03 +8.07189465964E-03 -6.75519956280E-03 +8.13547912513E-03 -4.19607247503E-01 +1.01977090987E-01
4.40500000000E+09 -2.89031409630E-01 +2.06594060756E-01 -5.95764037318E-03 +8.88038982084E-03 -5.89527731313E-03 +8.85745580713E-03 -4.16307243402E-01 +1.26177613686E-01
4.41000000000E+09 -2.83009822154E-01 +2.21016471100E-01 -4.56664380683E-03 +8.99977380889E-03 -4.64257425686E-03 +8.99225395955E-03 -4.11622176390E-01 +1.50402342624E-01
4.41500000000E+09 -2.75799330292E-01 +2.37456004210E-01 -4.07931472957E-03 +1.00002100871E-02 -4.06139541654E-03 +1.02351447352E-02 -4.06233528802E-01 +1.73880487837E-01
4.42000000000E+09 -2.68423750170E-01 +2.54637492111E-01 -2.78578269701E-03 +1.01824605737E-02 -2.67917775439E-03 +1.03613254610E-02 -3.99249894039E-01 +1.97629147722E-01
4.42500000000E+09 -2.61468256724E-01 +2.72503817196E-01 -1.68990628955E-03 +1.10429886545E-02 -1.43686683334E-03 +1.11198546811E-02 -3.93565656866E-01 +2.19361260453E-01
4.43000000000E+09 -2.55207546392E-01 +2.90203466343E-01 +4.82484157615E-04 +1.11386425597E-02 +6.65589148318E-04 +1.11157068260E-02 -3.86584701421E-01 +2.42773287482E-01
4.43500000000E+09 -2.49479542547E-01 +3.06913000483E-01 +1.76849215968E-03 +1.03026607848E-02 +1.87292578962E-03 +1.02444764853E-02 -3.77417892544E-01 +2.64651883201E-01
4.44000000000E+09 -2.44864291090E-01 +3.21152617880E-01 +2.83625321594E-03 +9.22485969194E-03 +2.87361378127E-03 +9.24908008529E-03 -3.68454905060E-01 +2.84387467333E-01
4.44500000000E+09 -2.41011428424E-01 +3.33651347907E-01 +2.91770893308E-03 +8.97221009341E-03 +3.09891556453E-03 +9.05790800641E-03 -3.60070099538E-01 +3.04328356978E-01
4.45000000000E+09 -2.37008748622E-01 +3.45010362676E-01 +3.38070394893E-03 +8.61738494494E-03 +3.65178061510E-03 +8.66464008480E-03 -3.50342181852E-01 +3.24320002686E-01
4.45500000000E+09 -2.30675861686E-01 +3.55038590411E-01 +4.35706376353E-03 +9.22051991319E-03 +4.70088200867E-03 +9.15457325224E-03 -3.39745676307E-01 +3.43818888368E-01
4.46000000000E+09 -2.23302113855E-01 +3.64508563758E-01 +5.89275369049E-03 +8.56573412826E-03 +6.16937662983E-03 +8.32858846942E-03 -3.26543350400E-01 +3.62757582064E-01
4.46500000000E+09 -2.12886558094E-01 +3.74493894006E-01 +6.85820061335E-03 +7.42132946905E-03 +7.02145241723E-03 +7.21366216978E-03 -3.14289950528E-01 +3.78427468814E-01
4.47000000000E+09 -2.01083160140E-01 +3.84690665048E-01 +7.40732036059E-03 +6.65343311174E-03 +7.55957611445E-03 +6.42258129399E-03 -3.02986913944E-01 +3.94970350300E-01
4.47500000000E+09 -1.87694938407E-01 +3.95774762754E-01 +7.74762969592E-03 +5.94018074034E-03 +7.91559842995E-03 +5.67073922937E-03 -2.91508235638E-01 +4.12489590017E-01
4.48000000000E+09 -1.75365728855E-01 +4.06984750966E-01 +8.70632855757E-03 +5.05476992407E-03 +8.71878217650E-03 +4.69927863296E-03 -2.78729889545E-01 +4.29322648031E-01
4.48500000000E+09 -1.64367415466E-01 +4.19735311286E-01 +9.42710302842E-03 +4.31823142358E-03 +9.31952180571E-03 +3.93992411015E-03 -2.64905851806E-01 +4.44605461030E-01
4.49000000000E+09 -1.54570445811E-01 +4.32828186036E-01 +9.76017262017E-03 +2.28608765404E-03 +9.60251928672E-03 +2.02518463671E-03 -2.51845088755E-01 +4.58823639247E-01
4.49500000000E+09 -1.46255792599E-01 +4.45423352736E-01 +9.11426959788E-03 +1.47102988638E-03 +8.83598146231E-03 +1.28623955747E-03 -2.38967348895E-01 +4.73270056478E-01
4.50000000000E+09 -1.39132545847E-01 +4.56404969343E-01 +9.10967421844E-03 +1.13298581700E-03 +8.88172311171E-03 +1.07547069835E-03 -2.24569894757E-01 +4.87286235847E-01
4.50500000000E+09 -1.32532751916E-01 +4.66096884967E-01 +9.42309728613E-03 +5.42151007483E-04 +9.25396634905E-03 +5.02626894916E-04 -2.10407355702E-01 +5.00831026607E-01
4.51000000000E+09 -1.25006937958E-01 +4.72708067432E-01 +1.01139471178E-02 -5.64498379419E-04 +9.98987828524E-03 -5.88627571822E-04 -1.94477283540E-01 +5.12841382887E-01
4.51500000000E+09 -1.17426515658E-01 +4.77516055919E-01 +9.99327827977E-03 -2.12685656305E-03 +9.81713715994E-03 -2.23016118522E-03 -1.80664088536E-01 +5.23253900735E-01
4.52000000000E+09 -1.08398217885E-01 +4.81607177676E-01 +9.63114859729E-03 -3.74223141167E-03 +9.46549197599E-03 -3.79265143710E-03 -1.67345899761E-01 +5.34244348619E-01
4.52500000000E+09 -9.73995608730E-02 +4.85673309913E-01 +8.36562459738E-03 -4.56095278183E-03 +8.10451251488E-03 -4.57850273662E-03 -1.53347885509E-01 +5.45262447461E-01
4.53000000000E+09 -8.44592774318E-02 +4.90237770942E-01 +7.82973328940E-03 -5.06691148301E-03 +7.59944165418E-03 -4.99386144842E-03 -1.38132784667E-01 +5.54978249666E-01
4.53500000000E+09 -7.02437393206E-02 +4.96180991268E-01 +7.27905718088E-03 -5.83565634692E-03 +7.11396852244E-03 -5.87899806151E-03 -1.23211683070E-01 +5.64023269882E-01
4.54000000000E+09 -5.49836839670E-02 +5.02828005045E-01 +6.55983713962E-03 -6.47373028803E-03 +6.37143107526E-03 -6.50660206793E-03 -1.07057865286E-01 +5.72489798478E-01
4.54500000000E+09 -4.07346108589E-02 +5.09945404717E-01 +5.47035296408E-03 -6.95363528367E-03 +5.29115347434E-03 -6.95314290867E-03 -9.28900231033E-02 +5.80924519945E-01
4.55000000000E+09 -2.78068159435E-02 +5.17488492563E-01 +5.02708388414E-03 -7.26096963830E-03 +4.81482964574E-03 -7.29808457734E-03 -7.72647403748E-02 +5.89799095952E-01
4.55500000000E+09 -1.68774123826E-02 +5.24877651435E-01 +4.14196587032E-03 -7.44116554332E-03 +3.91884378680E-03 -7.43124638863E-03 -6.18029536312E-02 +5.98067035767E-01
4.56000000000E+09 -8.30256476642E-03 +5.32241976744E-01 +3.59686407834E-03 -7.91327870232E-03 +3.37074523133E-03 -7.89484044587E-03 -4.66231823914E-02 +6.04065780342E-01
4.56500000000E+09 +2.59029414079E-04 +5.38777641184E-01 +2.96993066973E-03 -8.30022488170E-03 +2.68871305084E-03 -8.22342143412E-03 -3.27326891253E-02 +6.10353818167E-01
4.57000000000E+09 +8.51875252388E-03 +5.43823808163E-01 +1.87843009613E-03 -8.85864821352E-03 +1.56376783487E-03 -8.67051667192E-03 -1.80037038963E-02 +6.16518290528E-01
