# Hz S RI R 50
! CMT, C1220, 16058040, 17.2.0/1
! Date: 15/08/2018 11:32:23
! Data: Format (Calibration Info)
! Freq                      S11: Re/Im (F2)                       S21: Re/Im (F2)                       S12: Re/Im (F2)                       S22: Re/Im (F2)            
4.00000000000E+09 +6.67024594084E-01 -3.56006211422E-01 +1.68687576458E-03 -3.34377221034E-03 +1.88741365336E-03 -3.34270302384E-03 +7.74409482739E-01 -3.55005966311E-01
4.00500000000E+09 +6.58883584366E-01 -3.64167472569E-01 +1.42636077284E-03 -3.79191032120E-03 +1.62526171234E-03 -3.81835830256E-03 +7.65928431750E-01 -3.66231351745E-01
4.01000000000E+09 +6.50284453317E-01 -3.71456525217E-01 +8.60483682099E-04 -4.06055546184E-03 +1.03107943128E-03 -4.06280740514E-03 +7.57107751649E-01 -3.77459024646E-01
4.01500000000E+09 +6.41034060528E-01 -3.78933287856E-01 +2.36187135166E-04 -4.09822108576E-03 +4.37429711885E-04 -4.11966618758E-03 +7.47562725937E-01 -3.88012377766E-01
4.02000000000E+09 +6.31034017594E-01 -3.87451176275E-01 -7.94792793483E-05 -3.97118458019E-03 +1.00731790616E-04 -3.99568089338E-03 +7.37808876076E-01 -3.98438355912E-01
4.02500000000E+09 +6.20225813404E-01 -3.96636728859E-01 -2.99471767216E-04 -3.92586169511E-03 -1.03396389635E-04 -4.03644650848E-03 +7.27523923308E-01 -4.08595686892E-01
4.03000000000E+09 +6.08537713765E-01 -4.06633276231E-01 -6.05686753228E-04 -4.09264834678E-03 -3.93553421409E-04 -4.26785664752E-03 +7.17199476893E-01 -4.19124219221E-01
4.03500000000E+09 +5.96649838612E-01 -4.16094447367E-01 -1.19123294569E-03 -4.13474306757E-03 -1.05249949127E-03 -4.33461056076E-03 +7.06262251104E-01 -4.30452067399E-01
4.04000000000E+09 +5.85119718624E-01 -4.26039402043E-01 -1.52092621710E-03 -3.95194002244E-03 -1.37741589262E-03 -4.13803280983E-03 +6.94895230568E-01 -4.41589382895E-01
4.04500000000E+09 +5.73218918011E-01 -4.35614356476E-01 -1.94299482157E-03 -3.89665667115E-03 -1.88514531650E-03 -4.15592422931E-03 +6.83023654330E-01 -4.52281858808E-01
4.05000000000E+09 +5.61804769030E-01 -4.44148964868E-01 -2.34176155056E-03 -3.69659126158E-03 -2.24149538930E-03 -3.97964373343E-03 +6.71228113132E-01 -4.62089897673E-01
4.05500000000E+09 +5.49967269394E-01 -4.52588843935E-01 -2.41027600612E-03 -3.62344548344E-03 -2.46129956741E-03 -3.94742210389E-03 +6.58994384635E-01 -4.71681727306E-01
4.06000000000E+09 +5.36739868700E-01 -4.60360149512E-01 -3.11628156441E-03 -3.83312260318E-03 -3.14784061306E-03 -4.08274687840E-03 +6.46543408899E-01 -4.81217624823E-01
4.06500000000E+09 +5.22921924719E-01 -4.66367044723E-01 -3.89651009136E-03 -3.17883014084E-03 -4.03517330761E-03 -3.34613226344E-03 +6.33406132141E-01 -4.90380758306E-01
4.07000000000E+09 +5.09446455657E-01 -4.72960326253E-01 -3.98300678246E-03 -2.81751434970E-03 -4.00487805602E-03 -2.92874984593E-03 +6.19624698277E-01 -5.00118753214E-01
4.07500000000E+09 +4.94057753078E-01 -4.80251022401E-01 -4.26427293363E-03 -2.42917927850E-03 -4.30864886395E-03 -2.57911992246E-03 +6.05616666177E-01 -5.09091467369E-01
4.08000000000E+09 +4.77985205059E-01 -4.87018924927E-01 -4.43499689700E-03 -2.09960899272E-03 -4.56988107653E-03 -2.29984713470E-03 +5.92229955874E-01 -5.18482384582E-01
4.08500000000E+09 +4.61524502923E-01 -4.94280545740E-01 -4.72255700017E-03 -1.69174587086E-03 -4.88430035651E-03 -1.91763467917E-03 +5.78431589030E-01 -5.28000007090E-01
4.09000000000E+09 +4.44832554902E-01 -5.01659112800E-01 -5.11192494046E-03 -1.28711834123E-03 -5.33073317872E-03 -1.44842968688E-03 +5.63963986270E-01 -5.36895250212E-01
4.09500000000E+09 +4.28219744259E-01 -5.08454499171E-01 -5.45942739422E-03 -6.86316674316E-04 -5.69943757180E-03 -7.32324381183E-04 +5.48584508792E-01 -5.44677390809E-01
4.10000000000E+09 +4.13011374224E-01 -5.14918678746E-01 -5.14047716741E-03 +5.10568410634E-06 -5.29541633855E-03 +1.61251023459E-05 +5.32710659926E-01 -5.51751446908E-01
4.10500000000E+09 +3.96719901340E-01 -5.21557749444E-01 -5.31710780059E-03 +1.66850201806E-04 -5.43455029077E-03 +1.24900607544E-04 +5.16488628897E-01 -5.58806726578E-01
4.11000000000E+09 +3.79984797284E-01 -5.26029499760E-01 -5.62039379048E-03 +8.05676193294E-04 -5.79819381008E-03 +7.28371067407E-04 +4.99452207895E-01 -5.66621386714E-01
4.11500000000E+09 +3.63520464933E-01 -5.28847619942E-01 -5.55042547646E-03 +1.55163097422E-03 -5.74457999351E-03 +1.52038357453E-03 +4.81838879263E-01 -5.73983319339E-01
4.12000000000E+09 +3.46860913699E-01 -5.30891770554E-01 -5.38784866782E-03 +2.19579348015E-03 -5.57055546024E-03 +2.14214422263E-03 +4.64467663012E-01 -5.80635795961E-01
4.12500000000E+09 +3.29910366683E-01 -5.32362957551E-01 -5.13452741715E-03 +2.91396568211E-03 -5.34839904021E-03 +2.92140266844E-03 +4.47309646957E-01 -5.86467278156E-01
4.13000000000E+09 +3.12624037544E-01 -5.34621466988E-01 -4.43120510453E-03 +3.40441646893E-03 -4.64817276983E-03 +3.33369068803E-03 +4.30238576771E-01 -5.92258402091E-01
4.13500000000E+09 +2.93708243702E-01 -5.38211990789E-01 -3.97987145047E-03 +3.32246468582E-03 -4.14584479878E-03 +3.28301727591E-03 +4.12125982453E-01 -5.97947973320E-01
4.14000000000E+09 +2.73437340358E-01 -5.41550361364E-01 -4.20105779687E-03 +3.31808371627E-03 -4.39727628786E-03 +3.36003583224E-03 +3.92344868901E-01 -6.03301033018E-01
4.14500000000E+09 +2.53279611182E-01 -5.44295525613E-01 -4.51993160481E-03 +4.25968971099E-03 -4.80896491921E-03 +4.25705136438E-03 +3.72169744921E-01 -6.07941966309E-01
4.15000000000E+09 +2.34438499873E-01 -5.48291700098E-01 -3.56724060070E-03 +5.06728522589E-03 -3.77754318089E-03 +5.17126416186E-03 +3.52703380513E-01 -6.11802367290E-01
4.15500000000E+09 +2.14715401604E-01 -5.51177659803E-01 -3.21605534636E-03 +5.18552710514E-03 -3.33926049869E-03 +5.34748819472E-03 +3.33315753374E-01 -6.15587427388E-01
4.16000000000E+09 +1.96965314884E-01 -5.52993448169E-01 -2.73427736191E-03 +5.69735614871E-03 -2.82489712416E-03 +5.75565007852E-03 +3.13947545619E-01 -6.18583766155E-01
4.16500000000E+09 +1.79703040592E-01 -5.54044459058E-01 -2.19130490322E-03 +5.77509534942E-03 -2.31075489680E-03 +5.87868254151E-03 +2.93824367345E-01 -6.20513659682E-01
4.17000000000E+09 +1.62097281690E-01 -5.53435530563E-01 -2.01570689975E-03 +6.14598765912E-03 -2.18895050091E-03 +6.25081331416E-03 +2.73540030811E-01 -6.21520208831E-01
4.17500000000E+09 +1.44651058987E-01 -5.50317227541E-01 -1.34621556685E-03 +6.89749419508E-03 -1.50790363655E-03 +7.07653857669E-03 +2.52768610894E-01 -6.22146196827E-01
4.18000000000E+09 +1.28060910153E-01 -5.45869438352E-01 +9.09729844732E-05 +7.18017647497E-03 -5.93873472608E-05 +7.41742316877E-03 +2.31223056597E-01 -6.22887224574E-01
4.18500000000E+09 +1.09344677520E-01 -5.42263506248E-01 +6.50434846319E-04 +6.45016623233E-03 +5.79682494011E-04 +6.66903668994E-03 +2.08665485500E-01 -6.23089228283E-01
4.19000000000E+09 +8.92676024090E-02 -5.36807785143E-01 +6.86830636381E-04 +6.41879803022E-03 +6.51086039872E-04 +6.54139266282E-03 +1.86042288278E-01 -6.21841131379E-01
4.19500000000E+09 +6.89598418345E-02 -5.31239110937E-01 +1.04625619609E-03 +6.66391348121E-03 +9.02519353588E-04 +6.96380206608E-03 +1.63628734330E-01 -6.19488171475E-01
4.20000000000E+09 +4.78676436415E-02 -5.26415441145E-01 +1.66346302914E-03 +7.28287534960E-03 +1.58224211829E-03 +7.57706217350E-03 +1.42036187849E-01 -6.16517070507E-01
4.20500000000E+09 +2.71228566145E-02 -5.21545103725E-01 +3.20048314302E-03 +7.66202674719E-03 +3.18824463698E-03 +8.00659050365E-03 +1.19846740964E-01 -6.12893965738E-01
4.21000000000E+09 +6.78600671682E-03 -5.16617823016E-01 +4.66570277789E-03 +7.15313290663E-03 +4.75197715191E-03 +7.43874143657E-03 +9.71414462509E-02 -6.08846052006E-01
4.21500000000E+09 -1.18695375425E-02 -5.12426079916E-01 +5.19714655276E-03 +5.93379327380E-03 +5.30297959296E-03 +6.13942659602E-03 +7.39651705894E-02 -6.03758617798E-01
4.22000000000E+09 -3.07386842536E-02 -5.06927201869E-01 +5.55663250391E-03 +5.45606722956E-03 +5.69400215301E-03 +5.66870707959E-03 +5.19578247430E-02 -5.97483914858E-01
4.22500000000E+09 -4.77664103473E-02 -4.99664194387E-01 +5.97513150637E-03 +5.16742615627E-03 +6.16903362590E-03 +5.28174250005E-03 +3.04850896067E-02 -5.91341606749E-01
4.23000000000E+09 -6.40749051613E-02 -4.91388569477E-01 +6.98556146092E-03 +4.64389308528E-03 +7.17164038568E-03 +4.85086776302E-03 +9.80116026653E-03 -5.84029172068E-01
4.23500000000E+09 -8.11898672825E-02 -4.80793787352E-01 +7.28172535455E-03 +3.70061110707E-03 +7.47612716811E-03 +3.86291754558E-03 -1.19062688841E-02 -5.76932198179E-01
4.24000000000E+09 -9.77027789968E-02 -4.68727406678E-01 +7.64398134018E-03 +3.16480403334E-03 +7.84887309847E-03 +3.28907699298E-03 -3.42881467046E-02 -5.68037195791E-01
4.24500000000E+09 -1.15086748020E-01 -4.56317140370E-01 +7.93566141451E-03 +2.31194399417E-03 +8.13891581457E-03 +2.30864369015E-03 -5.66464306577E-02 -5.57178881713E-01
4.25000000000E+09 -1.34439651876E-01 -4.42920534926E-01 +8.21990812762E-03 +2.07572593870E-03 +8.44301858018E-03 +2.02406199071E-03 -7.73689499777E-02 -5.46276514419E-01
4.25500000000E+09 -1.54112038098E-01 -4.29771616895E-01 +9.14352355048E-03 +1.38961431422E-03 +9.26663392147E-03 +1.37705670420E-03 -9.78727243594E-02 -5.34804712736E-01
4.26000000000E+09 -1.74198279571E-01 -4.16917483588E-01 +1.00687221899E-02 -3.19258668202E-04 +1.02933735410E-02 -3.88913754212E-04 -1.18664040207E-01 -5.22522319172E-01
4.26500000000E+09 -1.94604432627E-01 -4.05745922514E-01 +9.27167323428E-03 -1.89510925242E-03 +9.48491383554E-03 -2.02298219295E-03 -1.38301673568E-01 -5.08929822530E-01
4.27000000000E+09 -2.14370333205E-01 -3.93194021676E-01 +8.79819222380E-03 -2.82797130839E-03 +8.88129096298E-03 -3.03053721419E-03 -1.59420707343E-01 -4.95224442847E-01
4.27500000000E+09 -2.32070180184E-01 -3.81063808613E-01 +8.21010126087E-03 -3.83802207947E-03 +8.34320946608E-03 -3.93825083010E-03 -1.79982197088E-01 -4.78880057850E-01
4.28000000000E+09 -2.48305839315E-01 -3.68382102963E-01 +7.46559415023E-03 -3.97517385525E-03 +7.57142298040E-03 -4.09011115311E-03 -1.99060967423E-01 -4.64103617434E-01
4.28500000000E+09 -2.61963393999E-01 -3.54817358070E-01 +7.99234140119E-03 -4.20666765854E-03 +8.07744984565E-03 -4.30125114822E-03 -2.20029339309E-01 -4.48071335697E-01
4.29000000000E+09 -2.74250979706E-01 -3.40432046816E-01 +8.33762471894E-03 -5.91060086585E-03 +8.40973303271E-03 -6.05473690943E-03 -2.39042195652E-01 -4.30295283872E-01
4.29500000000E+09 -2.85623311201E-01 -3.25461203598E-01 +6.65298141258E-03 -7.40740134664E-03 +6.70835630705E-03 -7.66521313463E-03 -2.55864004445E-01 -4.10989098677E-01
4.30000000000E+09 -2.98610779538E-01 -3.08828549854E-01 +6.26108467050E-03 -7.56325395326E-03 +6.21264130800E-03 -7.69414262625E-03 -2.71592974764E-01 -3.92637728514E-01
4.30500000000E+09 -3.11783110281E-01 -2.90477537448E-01 +5.16956311440E-03 -8.61699081737E-03 +5.22274618090E-03 -8.74692140612E-03 -2.86217673339E-01 -3.73282851459E-01
4.31000000000E+09 -3.25013344301E-01 -2.70567819179E-01 +4.28577616167E-03 -8.92269234849E-03 +4.29200570080E-03 -9.07317194108E-03 -3.01403773169E-01 -3.53963507593E-01
4.31500000000E+09 -3.37722297111E-01 -2.50504893843E-01 +3.60477346551E-03 -9.39758364490E-03 +3.64010532943E-03 -9.60835621086E-03 -3.16916745692E-01 -3.33223768366E-01
4.32000000000E+09 -3.49401965211E-01 -2.30884871418E-01 +2.30469025657E-03 -1.04366062151E-02 +2.28816553733E-03 -1.06636926216E-02 -3.30595529050E-01 -3.11099388979E-01
4.32500000000E+09 -3.59795423225E-01 -2.13325876977E-01 -8.46778603542E-05 -1.04240074896E-02 -1.33630857147E-04 -1.05859991910E-02 -3.42637689522E-01 -2.89208950220E-01
4.33000000000E+09 -3.70838855113E-01 -1.96966509944E-01 -3.23258827324E-04 -8.80221608496E-03 -4.33075312984E-04 -8.93389317554E-03 -3.53940141005E-01 -2.68703038480E-01
4.33500000000E+09 -3.80866422926E-01 -1.79354640298E-01 -1.03494974517E-04 -9.22013422917E-03 -2.05150105824E-04 -9.30934055721E-03 -3.65778867547E-01 -2.45939352112E-01
4.34000000000E+09 -3.88357463057E-01 -1.60688950071E-01 -1.01001752638E-03 -1.01065257836E-02 -1.08674055399E-03 -1.01063937189E-02 -3.76907021425E-01 -2.22185536812E-01
4.34500000000E+09 -3.93579940065E-01 -1.41066813999E-01 -2.22308487136E-03 -1.06584037612E-02 -2.27591301343E-03 -1.06198180061E-02 -3.86387786221E-01 -1.96935473745E-01
4.35000000000E+09 -3.96884498202E-01 -1.20587076202E-01 -4.31306436000E-03 -1.09250753340E-02 -4.41750689797E-03 -1.09973845504E-02 -3.95332516613E-01 -1.72789878352E-01
4.35500000000E+09 -3.99815607459E-01 -9.95546982153E-02 -6.15361813913E-03 -9.52265206678E-03 -6.24209332662E-03 -9.54151684052E-03 -4.03942877974E-01 -1.49599212332E-01
4.36000000000E+09 -4.03331494220E-01 -7.79963849185E-02 -6.35351996313E-03 -8.04326685952E-03 -6.54880632084E-03 -8.07448357183E-03 -4.12081533456E-01 -1.26270563556E-01
4.36500000000E+09 -4.08133261678E-01 -5.46057904994E-02 -7.04607689821E-03 -8.23156593849E-03 -7.21384237135E-03 -8.19110124383E-03 -4.18394587737E-01 -1.01231274920E-01
4.37000000000E+09 -4.12956963126E-01 -3.06009109605E-02 -8.20419565311E-03 -7.22894239854E-03 -8.41355289131E-03 -7.22504898796E-03 -4.22302826717E-01 -7.61367387708E-02
4.37500000000E+09 -4.16914949866E-01 -7.84748856324E-03 -9.00661170232E-03 -6.49823075191E-03 -9.27200372217E-03 -6.41828246239E-03 -4.23898834998E-01 -5.09752859805E-02
4.38000000000E+09 -4.22103704727E-01 +1.31408005749E-02 -9.59986877634E-03 -5.14919882317E-03 -9.79122188391E-03 -5.04532692684E-03 -4.26980589832E-01 -2.74181735615E-02
4.38500000000E+09 -4.26122459064E-01 +3.35438276290E-02 -1.02212937286E-02 -4.08045954852E-03 -1.04608888401E-02 -3.93167752910E-03 -4.29833141538E-01 -1.85479863912E-03
4.39000000000E+09 -4.29007137321E-01 +5.24728641364E-02 -1.00099126012E-02 -3.20352906947E-03 -1.02920521906E-02 -3.04365736703E-03 -4.31571924771E-01 +2.47622123080E-02
4.39500000000E+09 -4.29739928318E-01 +7.00996403314E-02 -1.10141850801E-02 -2.77346627112E-03 -1.11509931027E-02 -2.49805895030E-03 -4.30570001758E-01 +5.05652111407E-02
4.40000000000E+09 -4.28784463485E-01 +8.76092615018E-02 -1.20217179420E-02 -8.61988945900E-04 -1.21847112499E-02 -5.79529479234E-04 -4.27965756335E-01 +7.42797634397E-02
4.40500000000E+09 -4.25815832943E-01 +1.04814449557E-01 -1.18331744864E-02 +7.72270725325E-04 -1.18327238776E-02 +9.37562393260E-04 -4.25350614920E-01 +9.74371548212E-02
4.41000000000E+09 -4.23078233163E-01 +1.23126861544E-01 -1.12904071089E-02 +2.93234913343E-03 -1.13273724487E-02 +3.08577402922E-03 -4.22814392707E-01 +1.19513786264E-01
4.41500000000E+09 -4.19827337392E-01 +1.44338946823E-01 -1.04786534829E-02 +3.64021773941E-03 -1.05119591384E-02 +3.85639455168E-03 -4.19905864354E-01 +1.44310898804E-01
4.42000000000E+09 -4.15008862538E-01 +1.66627459300E-01 -1.00401786354E-02 +4.51242862436E-03 -9.94619080743E-03 +4.84359442946E-03 -4.14364700705E-01 +1.69067389524E-01
4.42500000000E+09 -4.11017833413E-01 +1.89177140753E-01 -9.35550001563E-03 +5.37083056725E-03 -9.17937855687E-03 +5.59535597911E-03 -4.07650502145E-01 +1.91721324142E-01
4.43000000000E+09 -4.07404931207E-01 +2.11297316853E-01 -9.15883938645E-03 +6.09218976252E-03 -8.87533221949E-03 +6.23966485777E-03 -4.02850124247E-01 +2.13917777316E-01
4.43500000000E+09 -4.04391460307E-01 +2.31968752872E-01 -8.63965329968E-03 +7.51369887675E-03 -8.38636194073E-03 +7.54343898625E-03 -3.96943442343E-01 +2.37038613206E-01
4.44000000000E+09 -4.02021981551E-01 +2.50398967487E-01 -7.48660976518E-03 +9.13452098895E-03 -7.30680077195E-03 +9.15488016644E-03 -3.88964826214E-01 +2.59875016422E-01
4.44500000000E+09 -4.00161406276E-01 +2.67295487359E-01 -5.62036513366E-03 +9.16729720623E-03 -5.45746641846E-03 +9.20613503335E-03 -3.78955486846E-01 +2.81256451487E-01
4.45000000000E+09 -3.97504640664E-01 +2.82838554544E-01 -4.90004551668E-03 +9.03758276085E-03 -4.60163706153E-03 +9.15864492736E-03 -3.68835166673E-01 +3.00342441635E-01
4.45500000000E+09 -3.92159390092E-01 +2.97605384914E-01 -4.93477945376E-03 +9.69467339801E-03 -4.64519236016E-03 +9.76174739129E-03 -3.59166520672E-01 +3.18795885553E-01
4.46000000000E+09 -3.85481187609E-01 +3.11280040208E-01 -3.41149230928E-03 +1.10732917412E-02 -2.98574475063E-03 +1.10491386341E-02 -3.50495426259E-01 +3.38922909635E-01
4.46500000000E+09 -3.76078732266E-01 +3.26616645489E-01 -1.53287760477E-03 +1.11966999580E-02 -1.18341401166E-03 +1.10747682942E-02 -3.38012854500E-01 +3.58460676805E-01
4.47000000000E+09 -3.63992078059E-01 +3.41747466809E-01 +1.03208859442E-04 +1.07587319856E-02 +3.64665929554E-04 +1.05715641151E-02 -3.25647001825E-01 +3.76662549973E-01
4.47500000000E+09 -3.51944117045E-01 +3.57406072304E-01 +8.93825756477E-04 +9.72423073680E-03 +1.03358438534E-03 +9.54831274552E-03 -3.13033657057E-01 +3.93813706085E-01
4.48000000000E+09 -3.40317027045E-01 +3.74893374183E-01 +9.15821717851E-04 +9.94019136678E-03 +1.14826813436E-03 +9.75689239444E-03 -3.01393839583E-01 +4.11268256918E-01
4.48500000000E+09 -3.28579659837E-01 +3.93133116891E-01 +2.00729333940E-03 +1.03269282606E-02 +2.21633059626E-03 +1.00056200255E-02 -2.88608347150E-01 +4.28326528597E-01
4.49000000000E+09 -3.19385190225E-01 +4.10560919676E-01 +3.68479201414E-03 +1.05447579757E-02 +3.72064123482E-03 +1.02571034908E-02 -2.75300898637E-01 +4.44872393793E-01
4.49500000000E+09 -3.11231272163E-01 +4.28685171845E-01 +5.32772905467E-03 +9.61239411086E-03 +5.21844507253E-03 +9.26484424909E-03 -2.59986041886E-01 +4.59182073256E-01
4.50000000000E+09 -3.03452531910E-01 +4.44525137675E-01 +6.13189864751E-03 +8.60453685637E-03 +6.00825122281E-03 +8.34858495408E-03 -2.46040322527E-01 +4.72265596839E-01
4.50500000000E+09 -2.96424870351E-01 +4.58644948763E-01 +7.16273353299E-03 +7.68141354644E-03 +7.07589149038E-03 +7.57012126778E-03 -2.32035642974E-01 +4.84839943649E-01
4.51000000000E+09 -2.88504152025E-01 +4.70180825599E-01 +7.55544319379E-03 +6.63718132284E-03 +7.51073581895E-03 +6.42192000845E-03 -2.19256485137E-01 +4.98596637553E-01
4.51500000000E+09 -2.79682775235E-01 +4.79008418797E-01 +8.05006272635E-03 +5.97287136353E-03 +7.98577877596E-03 +5.77214198619E-03 -2.05164595228E-01 +5.11683426050E-01
4.52000000000E+09 -2.69762026890E-01 +4.87115894767E-01 +8.87644744472E-03 +4.92185440834E-03 +8.81064420976E-03 +4.68162170649E-03 -1.91073484195E-01 +5.24329972412E-01
4.52500000000E+09 -2.58248373125E-01 +4.95406845157E-01 +8.82192967409E-03 +3.35237859227E-03 +8.70459407187E-03 +3.13636245676E-03 -1.76251609272E-01 +5.34811755398E-01
4.53000000000E+09 -2.44448746180E-01 +5.05056256563E-01 +8.68675546813E-03 +2.99410558187E-03 +8.56073775274E-03 +2.74845447279E-03 -1.62369992152E-01 +5.45576398175E-01
4.53500000000E+09 -2.28110770560E-01 +5.15225088575E-01 +9.11112975594E-03 +2.34199474198E-03 +8.92375231740E-03 +2.13947521779E-03 -1.46973178415E-01 +5.55567172970E-01
4.54000000000E+09 -2.11260693443E-01 +5.25942827842E-01 +9.54521188111E-03 +1.28808710947E-03 +9.36962092745E-03 +1.10127984506E-03 -1.31413581508E-01 +5.66495927331E-01
4.54500000000E+09 -1.94606106253E-01 +5.37018769286E-01 +9.82013633006E-03 -6.47412591759E-05 +9.59844805613E-03 -3.10357475020E-04 -1.14504024174E-01 +5.75315994251E-01
4.55000000000E+09 -1.79500003178E-01 +5.47832354742E-01 +9.52213351754E-03 -1.43307208580E-03 +9.21840376603E-03 -1.58857658049E-03 -9.85654030322E-02 +5.83941667073E-01
4.55500000000E+09 -1.66831874306E-01 +5.58434352810E-01 +8.81156310730E-03 -3.23288772371E-03 +8.54859375715E-03 -3.28351662170E-03 -8.37260032695E-02 +5.91432961887E-01
4.56000000000E+09 -1.55924747064E-01 +5.68922594826E-01 +7.12492151722E-03 -3.64424379716E-03 +6.92334334042E-03 -3.67409176647E-03 -7.00024883887E-02 +6.00067218229E-01
4.56500000000E+09 -1.45870780718E-01 +5.78712538318E-01 +6.51937518235E-03 -3.44125256096E-03 +6.31860412031E-03 -3.44240875163E-03 -5.46866865792E-02 +6.08369329639E-01
4.57000000000E+09 -1.36027817393E-01 +5.87282609540E-01 +6.37092269816E-03 -3.51674056343E-03 +6.14644349648E-03 -3.60423036002E-03 -3.87401847998E-02 +6.15219350092E-01
