# Hz S RI R 50
! CMT, C1220, 16058040, 17.2.0/1
! Date: 15/08/2018 12:23:13
! Data: Format (Calibration Info)
! Freq                      S11: Re/Im (F2)                       S21: Re/Im (F2)                       S12: Re/Im (F2)                       S22: Re/Im (F2)            
4.00000000000E+09 +6.49543773234E-01 -3.54802920262E-01 +1.27115808892E-03 -2.17165662131E-04 +1.28671801818E-03 -1.64314166540E-04 +7.43060686447E-01 -3.23689099911E-01
4.00500000000E+09 +6.41357700133E-01 -3.60738408587E-01 +1.41958043043E-03 -4.30993713663E-04 +1.38325986066E-03 -3.80707322766E-04 +7.32514010843E-01 -3.34221122414E-01
4.01000000000E+09 +6.32526328528E-01 -3.66874925290E-01 +1.52364236470E-03 -9.37054169046E-04 +1.50648481360E-03 -8.25681513318E-04 +7.21524273387E-01 -3.44998037914E-01
4.01500000000E+09 +6.21800444077E-01 -3.73835419320E-01 +1.24218935867E-03 -1.35906539179E-03 +1.33650745621E-03 -1.26063731894E-03 +7.10537359238E-01 -3.55165683583E-01
4.02000000000E+09 +6.10759823610E-01 -3.81241642558E-01 +6.95828211594E-04 -1.55089470342E-03 +7.78641433654E-04 -1.44648874036E-03 +6.99019534427E-01 -3.65188040092E-01
4.02500000000E+09 +5.99336052341E-01 -3.90084417414E-01 +3.88450471430E-04 -1.08237228660E-03 +4.11194610917E-04 -1.01213176646E-03 +6.86886356957E-01 -3.75075598559E-01
4.03000000000E+09 +5.87831592897E-01 -3.99887164888E-01 +7.23257048256E-04 -1.03913706406E-03 +8.65264249524E-04 -9.37684004454E-04 +6.74058922415E-01 -3.84462322140E-01
4.03500000000E+09 +5.76738084207E-01 -4.10423833374E-01 +8.45966732627E-04 -1.40329996153E-03 +1.02606310537E-03 -1.38441584635E-03 +6.61423444714E-01 -3.94190037957E-01
4.04000000000E+09 +5.65822260313E-01 -4.21105880086E-01 +6.15626061769E-04 -1.84410841082E-03 +8.35404435616E-04 -1.84607599579E-03 +6.48101780007E-01 -4.04373224860E-01
4.04500000000E+09 +5.54433765351E-01 -4.31040910557E-01 +8.35378926020E-07 -2.15933826561E-03 +1.40130863808E-04 -2.24997564404E-03 +6.34175437154E-01 -4.13853377511E-01
4.05000000000E+09 +5.43044549199E-01 -4.38579208482E-01 -5.58410834912E-04 -1.91136473333E-03 -4.33074702321E-04 -2.00812579816E-03 +6.20461824715E-01 -4.22363852536E-01
4.05500000000E+09 +5.31748624060E-01 -4.43852159217E-01 -6.39711252648E-04 -1.58915633924E-03 -5.84489006458E-04 -1.82294849946E-03 +6.06391029785E-01 -4.30829208542E-01
4.06000000000E+09 +5.20651033536E-01 -4.48113215917E-01 -8.92688316843E-04 -1.39821882529E-03 -8.90127868118E-04 -1.57415404182E-03 +5.92052760544E-01 -4.39117680889E-01
4.06500000000E+09 +5.08581450854E-01 -4.51966502784E-01 -7.61371419701E-04 -1.26607186616E-03 -7.84077182058E-04 -1.42577271023E-03 +5.76138503937E-01 -4.47173453133E-01
4.07000000000E+09 +4.94827177106E-01 -4.56376226265E-01 -8.88851794544E-04 -1.32239020397E-03 -9.72755646702E-04 -1.41064647495E-03 +5.60100113121E-01 -4.54528612022E-01
4.07500000000E+09 +4.79276159170E-01 -4.60399183609E-01 -9.97694979657E-04 -1.18783653692E-03 -1.10359124837E-03 -1.29797730007E-03 +5.43487423880E-01 -4.62154669774E-01
4.08000000000E+09 +4.62905971470E-01 -4.65149185682E-01 -1.16865992036E-03 -1.15545229417E-03 -1.23469659437E-03 -1.29580659809E-03 +5.27369399221E-01 -4.68592339336E-01
4.08500000000E+09 +4.45665401569E-01 -4.69930650394E-01 -1.40780830982E-03 -9.37137043819E-04 -1.54325477554E-03 -1.06972071160E-03 +5.10927986664E-01 -4.76373136143E-01
4.09000000000E+09 +4.29419603022E-01 -4.75844631624E-01 -1.47171120191E-03 -8.24571498266E-04 -1.65320693120E-03 -8.19674803816E-04 +4.92961173084E-01 -4.81991132853E-01
4.09500000000E+09 +4.12845308970E-01 -4.82550523278E-01 -1.60860674115E-03 -5.28547860929E-04 -1.74583425376E-03 -5.06370076695E-04 +4.75853492089E-01 -4.87024571187E-01
4.10000000000E+09 +3.96114665598E-01 -4.88600076052E-01 -1.61179235852E-03 -3.02341008179E-04 -1.68697204047E-03 -2.53497077124E-04 +4.57054624826E-01 -4.92147696170E-01
4.10500000000E+09 +3.80041184779E-01 -4.92995024954E-01 -1.31339206323E-03 +5.41227315448E-05 -1.36527212792E-03 +1.60229636261E-04 +4.37781728921E-01 -4.95818604822E-01
4.11000000000E+09 +3.64174202878E-01 -4.95606924901E-01 -1.12775820705E-03 -1.04785860914E-04 -1.16856760040E-03 -3.97044345749E-05 +4.18643060949E-01 -4.99381311414E-01
4.11500000000E+09 +3.49316801194E-01 -4.96870680920E-01 -1.04100528447E-03 -4.36561751015E-04 -1.03081282480E-03 -3.27276106929E-04 +3.99291630947E-01 -5.02536488583E-01
4.12000000000E+09 +3.33697197465E-01 -4.97958763138E-01 -1.44223128463E-03 -7.77101390759E-04 -1.44821577402E-03 -7.07505419257E-04 +3.79957827460E-01 -5.05539960079E-01
4.12500000000E+09 +3.16577800777E-01 -4.98394975951E-01 -2.34477795095E-03 -4.75547553304E-04 -2.34860804852E-03 -4.20562424589E-04 +3.59725897332E-01 -5.07652578482E-01
4.13000000000E+09 +2.98254531573E-01 -4.98948076316E-01 -2.49995729145E-03 +5.04447430463E-04 -2.45471403275E-03 +5.10009114792E-04 +3.39512746932E-01 -5.08754867145E-01
4.13500000000E+09 +2.79314603073E-01 -4.99681435237E-01 -1.97672114901E-03 +1.08009444075E-03 -1.94228875619E-03 +1.07304074896E-03 +3.18973248281E-01 -5.08788480242E-01
4.14000000000E+09 +2.59896998118E-01 -5.01844544239E-01 -1.61629832707E-03 +1.11989822102E-03 -1.59141532818E-03 +1.10572682493E-03 +2.98292954552E-01 -5.08771332472E-01
4.14500000000E+09 +2.40671506623E-01 -5.05704005261E-01 -1.38302703502E-03 +1.18754430791E-03 -1.31875630130E-03 +1.15308652884E-03 +2.77453850707E-01 -5.07954108722E-01
4.15000000000E+09 +2.20321167876E-01 -5.10254870140E-01 -1.16218985039E-03 +1.02585276612E-03 -1.13811193346E-03 +9.34546983738E-04 +2.56809323164E-01 -5.06890695674E-01
4.15500000000E+09 +2.00750815995E-01 -5.13812887840E-01 -1.48513053495E-03 +7.66407376021E-04 -1.50729584178E-03 +6.51778256364E-04 +2.35727863336E-01 -5.04062265823E-01
4.16000000000E+09 +1.82890325762E-01 -5.16353930668E-01 -1.85988580598E-03 +1.34281088476E-03 -1.89297419805E-03 +1.26958539914E-03 +2.15616208101E-01 -5.00530143876E-01
4.16500000000E+09 +1.66092556664E-01 -5.16942636188E-01 -1.80641140665E-03 +1.93311424539E-03 -1.86275781497E-03 +1.82510451908E-03 +1.94932201034E-01 -4.96623091531E-01
4.17000000000E+09 +1.51224779615E-01 -5.15696804447E-01 -1.58941172870E-03 +2.32192209411E-03 -1.66279527256E-03 +2.22498072936E-03 +1.73504379498E-01 -4.91417353811E-01
4.17500000000E+09 +1.36542910111E-01 -5.13307372301E-01 -1.18564600740E-03 +2.95772048565E-03 -1.35581378420E-03 +2.95828822263E-03 +1.52023245805E-01 -4.85166626037E-01
4.18000000000E+09 +1.21550518695E-01 -5.09446015895E-01 -3.56296261352E-04 +3.35499266359E-03 -4.71505723646E-04 +3.38441640504E-03 +1.31009669210E-01 -4.77528851840E-01
4.18500000000E+09 +1.05378218342E-01 -5.05085232652E-01 +7.67238692989E-04 +3.14810738982E-03 +5.85336819440E-04 +3.25985350654E-03 +1.11172059666E-01 -4.70108230351E-01
4.19000000000E+09 +8.75972786805E-02 -4.99506455975E-01 +8.95703053391E-04 +2.22691111576E-03 +8.20450746439E-04 +2.32012756619E-03 +9.00052576131E-02 -4.62196651067E-01
4.19500000000E+09 +6.98849890604E-02 -4.93404515316E-01 +6.60641498975E-04 +1.95142166048E-03 +5.48436413986E-04 +2.08778216880E-03 +6.95298649968E-02 -4.52133178844E-01
4.20000000000E+09 +5.16217843445E-02 -4.88756773818E-01 +7.40224858981E-04 +2.26549386724E-03 +6.34311813815E-04 +2.40504832620E-03 +5.02324206451E-02 -4.41090201974E-01
4.20500000000E+09 +3.26210757014E-02 -4.84487144573E-01 +6.36301752007E-04 +2.26253075607E-03 +6.54054971579E-04 +2.43444746903E-03 +3.07008532499E-02 -4.30070026634E-01
4.21000000000E+09 +1.42564291991E-02 -4.80034448120E-01 +1.11374736086E-03 +2.93782734502E-03 +1.11098122443E-03 +3.13933105484E-03 +1.16377067042E-02 -4.17869894772E-01
4.21500000000E+09 -3.41526098326E-03 -4.74735599562E-01 +2.35389754398E-03 +2.91496548288E-03 +2.48698017372E-03 +3.11896165405E-03 -6.46356020044E-03 -4.05973213871E-01
4.22000000000E+09 -1.97407116365E-02 -4.68069371837E-01 +3.08263340300E-03 +1.94185800676E-03 +3.23770341730E-03 +2.05679103724E-03 -2.45164247256E-02 -3.93497710646E-01
4.22500000000E+09 -3.42831485845E-02 -4.60482190230E-01 +3.16186742210E-03 +9.59181429036E-04 +3.40027096705E-03 +1.04286452962E-03 -4.17548411619E-02 -3.79488640055E-01
4.23000000000E+09 -4.88516812875E-02 -4.51769763236E-01 +2.67102431478E-03 +2.03040674840E-04 +2.85013642161E-03 +2.35055331801E-04 -5.79964334848E-02 -3.65645345746E-01
4.23500000000E+09 -6.44480027331E-02 -4.40713259344E-01 +2.04437814897E-03 +4.57152033998E-04 +2.23822990934E-03 +4.14074473541E-04 -7.48795975882E-02 -3.50579036757E-01
4.24000000000E+09 -8.06502716594E-02 -4.27985028658E-01 +2.16607949792E-03 +8.38878527365E-04 +2.32758330815E-03 +6.91376263847E-04 -9.04295666673E-02 -3.34216173373E-01
4.24500000000E+09 -9.71887183560E-02 -4.14025712268E-01 +2.96359718461E-03 +8.61861117401E-04 +3.10696486525E-03 +7.97850755495E-04 -1.06232086309E-01 -3.17390981788E-01
4.25000000000E+09 -1.14949588797E-01 -4.00865067641E-01 +3.58495115756E-03 +6.63678721249E-05 +3.71447678418E-03 -5.48056719136E-05 -1.20534174402E-01 -2.99475188849E-01
4.25500000000E+09 -1.33666863275E-01 -3.88880485622E-01 +3.41918382671E-03 -1.04618706220E-03 +3.46311648640E-03 -1.24052211510E-03 -1.33672747571E-01 -2.82084315223E-01
4.26000000000E+09 -1.53951805116E-01 -3.77591247694E-01 +2.61995873461E-03 -1.42686959361E-03 +2.60283296311E-03 -1.57827967763E-03 -1.46805833048E-01 -2.64408648392E-01
4.26500000000E+09 -1.73896726547E-01 -3.66112216681E-01 +2.59039009619E-03 -1.31349851972E-03 +2.59212425574E-03 -1.45453884165E-03 -1.59150218219E-01 -2.45262688060E-01
4.27000000000E+09 -1.91652458073E-01 -3.54995993079E-01 +2.59237266927E-03 -1.69091639697E-03 +2.42417745675E-03 -1.79858065431E-03 -1.71274905451E-01 -2.25618333169E-01
4.27500000000E+09 -2.08096053300E-01 -3.44103585134E-01 +2.36211153606E-03 -2.16380797279E-03 +2.19069153471E-03 -2.26896236123E-03 -1.82174321841E-01 -2.04808719596E-01
4.28000000000E+09 -2.22002434918E-01 -3.31427840712E-01 +1.94767591576E-03 -2.36564489763E-03 +1.80449053218E-03 -2.45779565786E-03 -1.92024013501E-01 -1.84004472547E-01
4.28500000000E+09 -2.33596975682E-01 -3.17922322701E-01 +1.83342068604E-03 -2.30984151204E-03 +1.62821235934E-03 -2.36493380837E-03 -2.00381303612E-01 -1.62863506394E-01
4.29000000000E+09 -2.43845795786E-01 -3.03338861075E-01 +1.89391302332E-03 -2.68604811833E-03 +1.72420313054E-03 -2.73765952525E-03 -2.07699129727E-01 -1.43036134935E-01
4.29500000000E+09 -2.54612201624E-01 -2.87029417464E-01 +1.51521164440E-03 -3.57132515471E-03 +1.35065400233E-03 -3.50206324973E-03 -2.14519926154E-01 -1.23633302929E-01
4.30000000000E+09 -2.65818116956E-01 -2.68754598463E-01 +4.17542885552E-04 -3.58070601759E-03 +3.02158638425E-04 -3.49194001697E-03 -2.20653961206E-01 -1.03427082714E-01
4.30500000000E+09 -2.77607283361E-01 -2.49631767745E-01 +2.34544229983E-04 -3.43636268504E-03 +1.61070811997E-04 -3.27310099134E-03 -2.25214406290E-01 -8.27313980482E-02
4.31000000000E+09 -2.90588722457E-01 -2.30220610116E-01 -3.71077924635E-04 -3.67561937819E-03 -3.62171492863E-04 -3.52377659837E-03 -2.28793842263E-01 -6.25689072906E-02
4.31500000000E+09 -3.04391117995E-01 -2.10788795703E-01 -9.37944115130E-04 -3.36279152371E-03 -9.21081384531E-04 -3.23752343449E-03 -2.32081052344E-01 -4.17583585565E-02
4.32000000000E+09 -3.16880172778E-01 -1.92760864952E-01 -1.28446472168E-03 -3.17843783305E-03 -1.20820231260E-03 -3.07922412114E-03 -2.34448754884E-01 -2.10537731426E-02
4.32500000000E+09 -3.29214818552E-01 -1.76344077391E-01 -1.57277755899E-03 -3.14682916207E-03 -1.55267685829E-03 -3.02677811516E-03 -2.36457383614E-01 -6.83685355661E-04
4.33000000000E+09 -3.39323507844E-01 -1.60306104706E-01 -2.21570435983E-03 -2.94088206187E-03 -2.13701600656E-03 -2.82956848882E-03 -2.37944242585E-01 +1.98398593631E-02
4.33500000000E+09 -3.47021291753E-01 -1.45568099403E-01 -2.29371596194E-03 -2.59825464883E-03 -2.20165636986E-03 -2.53015695046E-03 -2.38425037525E-01 +4.07385915574E-02
4.34000000000E+09 -3.53420520993E-01 -1.30231136797E-01 -3.16288832095E-03 -2.50434495990E-03 -3.07257538339E-03 -2.51359086860E-03 -2.38131907442E-01 +6.11826527261E-02
4.34500000000E+09 -3.57613161076E-01 -1.13136070997E-01 -3.60655802546E-03 -1.51937316391E-03 -3.52085234321E-03 -1.55009828028E-03 -2.36933992427E-01 +8.16073052549E-02
4.35000000000E+09 -3.60217896694E-01 -9.45773113994E-02 -3.24790256432E-03 -8.16462538941E-04 -3.22479557797E-03 -8.93488030573E-04 -2.35643900612E-01 +1.01193518518E-01
4.35500000000E+09 -3.62698631271E-01 -7.35898429909E-02 -3.42048692010E-03 -9.16668437322E-04 -3.38503977550E-03 -9.91818883431E-04 -2.33404639228E-01 +1.21259692302E-01
4.36000000000E+09 -3.64945429914E-01 -5.10569602056E-02 -3.63911004036E-03 -1.41787950696E-05 -3.64417540194E-03 -9.42729690548E-05 -2.29945490053E-01 +1.39886301159E-01
4.36500000000E+09 -3.67845355259E-01 -2.82307800428E-02 -3.53300406111E-03 +1.35848872013E-04 -3.52576370384E-03 +8.84114838937E-05 -2.26296876072E-01 +1.58529237869E-01
4.37000000000E+09 -3.72437195362E-01 -5.43751996830E-03 -3.74879362875E-03 +1.03156341882E-03 -3.79119932509E-03 +1.01487762954E-03 -2.21266859541E-01 +1.77011432620E-01
4.37500000000E+09 -3.77667341099E-01 +1.58934952906E-02 -3.14854314265E-03 +1.60542406372E-03 -3.24512737479E-03 +1.52336162818E-03 -2.15613187174E-01 +1.94785913192E-01
4.38000000000E+09 -3.83988770025E-01 +3.63288946966E-02 -2.71976509897E-03 +1.77246442153E-03 -2.73133736293E-03 +1.83947544563E-03 -2.08987870511E-01 +2.12114577518E-01
4.38500000000E+09 -3.88593228023E-01 +5.49456694066E-02 -2.56044289657E-03 +2.21175999646E-03 -2.52272670376E-03 +2.24549977453E-03 -2.02637925512E-01 +2.29133698118E-01
4.39000000000E+09 -3.91585763776E-01 +7.15547226158E-02 -2.08845559882E-03 +2.56971986755E-03 -2.15201705078E-03 +2.60690099634E-03 -1.95833244804E-01 +2.46132290818E-01
4.39500000000E+09 -3.92369801546E-01 +8.66795215502E-02 -1.46696005511E-03 +2.71011038699E-03 -1.49277566391E-03 +2.82667357342E-03 -1.88975180902E-01 +2.61725062153E-01
4.40000000000E+09 -3.90673982562E-01 +1.01515874275E-01 -1.03235868879E-03 +2.49713803907E-03 -1.04317052804E-03 +2.61314115469E-03 -1.81564658666E-01 +2.77782301531E-01
4.40500000000E+09 -3.86778498963E-01 +1.16811229525E-01 -1.00547664709E-03 +2.62592202836E-03 -9.77338808372E-04 +2.68833204953E-03 -1.72981924744E-01 +2.92783687930E-01
4.41000000000E+09 -3.81904170111E-01 +1.33661124298E-01 -5.26761316724E-04 +2.81074919137E-03 -4.41029622368E-04 +2.90764339587E-03 -1.64422079236E-01 +3.06877778285E-01
4.41500000000E+09 -3.76370959946E-01 +1.53013473447E-01 -3.00590799588E-04 +2.74648598801E-03 -2.24169926014E-04 +2.76092300518E-03 -1.55776703667E-01 +3.20889277078E-01
4.42000000000E+09 -3.70245188522E-01 +1.74448600029E-01 +1.00245751101E-04 +2.88234060561E-03 +2.12040588548E-04 +2.90976690461E-03 -1.46823361335E-01 +3.35612954526E-01
4.42500000000E+09 -3.65335080920E-01 +1.96156147459E-01 +7.55864228896E-04 +2.73012674391E-03 +8.79229253119E-04 +2.66446437658E-03 -1.36855077124E-01 +3.48943407325E-01
4.43000000000E+09 -3.61720906062E-01 +2.18261584187E-01 +9.29532872116E-04 +2.29999694910E-03 +1.00229010809E-03 +2.20836843886E-03 -1.28401389292E-01 +3.62408603897E-01
4.43500000000E+09 -3.59029414625E-01 +2.39185663612E-01 +9.96643203964E-04 +2.29578457704E-03 +9.98181900344E-04 +2.26630497178E-03 -1.18341971529E-01 +3.75821248306E-01
4.44000000000E+09 -3.56701902301E-01 +2.58303200614E-01 +1.45358286738E-03 +2.15366497509E-03 +1.54491163820E-03 +2.03253215747E-03 -1.08438659261E-01 +3.87954921860E-01
4.44500000000E+09 -3.54821700608E-01 +2.74732084989E-01 +1.60200399529E-03 +1.68136004417E-03 +1.63659707356E-03 +1.59910822406E-03 -9.78784755977E-02 +3.99888593053E-01
4.45000000000E+09 -3.51971350942E-01 +2.89348217707E-01 +1.55556847591E-03 +1.73585085651E-03 +1.58529306401E-03 +1.60031527544E-03 -8.67836756285E-02 +4.10676640987E-01
4.45500000000E+09 -3.47150573191E-01 +3.02627854902E-01 +2.09983488209E-03 +1.56661867387E-03 +2.05507235824E-03 +1.42137915908E-03 -7.55858509542E-02 +4.21181339280E-01
4.46000000000E+09 -3.40230369422E-01 +3.15440042625E-01 +2.18108312561E-03 +7.02227381092E-04 +2.09279629599E-03 +5.70020129373E-04 -6.41879016085E-02 +4.31265734843E-01
4.46500000000E+09 -3.30896705354E-01 +3.28730956753E-01 +1.87389143586E-03 +6.91400513693E-04 +1.81003746785E-03 +6.01124328526E-04 -5.25230871623E-02 +4.40301205398E-01
4.47000000000E+09 -3.19696661724E-01 +3.43325441119E-01 +1.71294015702E-03 +5.15565394681E-04 +1.66474270496E-03 +3.72800918183E-04 -4.15670115320E-02 +4.49456301258E-01
4.47500000000E+09 -3.07398432905E-01 +3.59841365479E-01 +1.94619242218E-03 +7.35841915802E-04 +1.79083050237E-03 +6.12124249650E-04 -2.98195698210E-02 +4.58654322479E-01
4.48000000000E+09 -2.94925737181E-01 +3.77312943735E-01 +2.36686769721E-03 +4.58086215417E-04 +2.21545249415E-03 +3.97714765589E-04 -1.80862854273E-02 +4.66641744078E-01
4.48500000000E+09 -2.83571299839E-01 +3.95251331477E-01 +2.42143713514E-03 -2.52781488321E-04 +2.21480275624E-03 -2.78860991924E-04 -6.67049144866E-03 +4.74716712557E-01
4.49000000000E+09 -2.74428229649E-01 +4.13328649670E-01 +2.35078739447E-03 -6.52915260262E-04 +2.18023128032E-03 -6.21261233977E-04 +5.43070496196E-03 +4.82294425385E-01
4.49500000000E+09 -2.66231733543E-01 +4.30479315515E-01 +1.80095955261E-03 -1.10274721089E-03 +1.64752252599E-03 -1.02853268980E-03 +1.66854133500E-02 +4.88704495451E-01
4.50000000000E+09 -2.59345328740E-01 +4.44912491909E-01 +1.50856449521E-03 -9.51712049265E-04 +1.42616684786E-03 -8.64617801838E-04 +2.82394559913E-02 +4.95085962369E-01
4.50500000000E+09 -2.54239293645E-01 +4.56882000514E-01 +1.53695931235E-03 -9.67732009616E-04 +1.48034070095E-03 -8.64543226797E-04 +3.94880182434E-02 +5.00956772381E-01
4.51000000000E+09 -2.48515383266E-01 +4.67357096059E-01 +1.47881578436E-03 -1.28696645343E-03 +1.48910482091E-03 -1.17774562898E-03 +5.05737647643E-02 +5.06866387247E-01
4.51500000000E+09 -2.40717344645E-01 +4.75711131427E-01 +1.30465963187E-03 -1.40752611256E-03 +1.27220067890E-03 -1.30105343237E-03 +6.16537659646E-02 +5.12887728333E-01
4.52000000000E+09 -2.31036101528E-01 +4.82794944935E-01 +1.07754444114E-03 -1.60714786572E-03 +1.12118104364E-03 -1.50789490154E-03 +7.37115637462E-02 +5.18184196231E-01
4.52500000000E+09 -2.19363039755E-01 +4.89883963990E-01 +9.57293767401E-04 -1.65755686526E-03 +9.84956104690E-04 -1.53804829422E-03 +8.52929487027E-02 +5.22322932341E-01
4.53000000000E+09 -2.05922090758E-01 +4.97789776337E-01 +9.03934827302E-04 -2.00717606257E-03 +9.42358970826E-04 -1.93551987944E-03 +9.68214069159E-02 +5.26357276917E-01
4.53500000000E+09 -1.90877563199E-01 +5.07345101492E-01 +1.71205066707E-04 -2.22407736479E-03 +2.00372201264E-04 -2.13798258061E-03 +1.08247385026E-01 +5.30210778163E-01
4.54000000000E+09 -1.75226563729E-01 +5.17594454677E-01 -2.26583479008E-04 -2.04155535693E-03 -1.53775439277E-04 -1.95112103698E-03 +1.19910593627E-01 +5.33429066275E-01
4.54500000000E+09 -1.60523904102E-01 +5.28572599123E-01 -6.29463008660E-04 -1.66435477382E-03 -5.94262524582E-04 -1.65463789116E-03 +1.30483144804E-01 +5.36956461148E-01
4.55000000000E+09 -1.47342550227E-01 +5.39341012541E-01 -7.17833549742E-04 -1.36292166907E-03 -7.00223991699E-04 -1.35804914626E-03 +1.42559538860E-01 +5.41008900523E-01
4.55500000000E+09 -1.36300690830E-01 +5.49713086292E-01 -5.37540886054E-04 -1.16334819045E-03 -5.72122086827E-04 -1.16863622372E-03 +1.53979135358E-01 +5.43404678315E-01
4.56000000000E+09 -1.26872610654E-01 +5.59116029302E-01 -5.40254273748E-04 -1.41001874068E-03 -5.67648505422E-04 -1.37574410448E-03 +1.64874284393E-01 +5.46091651222E-01
4.56500000000E+09 -1.18012351028E-01 +5.66947817824E-01 -9.29120100613E-04 -1.40924877845E-03 -9.05107525569E-04 -1.35485256001E-03 +1.75483879146E-01 +5.48258961224E-01
4.57000000000E+09 -1.08646048212E-01 +5.73064326672E-01 -1.37183405911E-03 -1.08279741234E-03 -1.33117310681E-03 -1.10734039031E-03 +1.86060512241E-01 +5.50296511485E-01
