# Hz S RI R 50
! CMT, C1220, 16058040, 17.2.0/1
! Date: 15/08/2018 11:41:03
! Data: Format (Calibration Info)
! Freq                      S11: Re/Im (F2)                       S21: Re/Im (F2)                       S12: Re/Im (F2)                       S22: Re/Im (F2)            
4.00000000000E+09 +6.35610286876E-01 -3.36331271932E-01 -6.85311095418E-04 -2.20380151862E-03 -6.17196865002E-04 -2.29037573243E-03 +7.70053152956E-01 -3.53614182656E-01
4.00500000000E+09 +6.26807436192E-01 -3.42444563777E-01 -8.14763743331E-04 -2.21098480858E-03 -7.62035108576E-04 -2.30401867677E-03 +7.61340665642E-01 -3.64947026006E-01
4.01000000000E+09 +6.16934597467E-01 -3.47916216975E-01 -1.11378861514E-03 -2.38522998510E-03 -1.08172924916E-03 -2.47403135103E-03 +7.51617228878E-01 -3.76026524029E-01
4.01500000000E+09 +6.06219318071E-01 -3.53353055663E-01 -1.39424053941E-03 -2.08889502910E-03 -1.26603140436E-03 -2.14684405514E-03 +7.41806748728E-01 -3.86256056449E-01
4.02000000000E+09 +5.94692415214E-01 -3.60086724846E-01 -1.50121439275E-03 -2.26909224733E-03 -1.43216973826E-03 -2.42677502990E-03 +7.32307690555E-01 -3.96514799009E-01
4.02500000000E+09 +5.81980869268E-01 -3.67352734490E-01 -2.20906630978E-03 -2.21604395238E-03 -2.13208245680E-03 -2.40468425721E-03 +7.22105399164E-01 -4.07031119147E-01
4.03000000000E+09 +5.69561539050E-01 -3.75752760600E-01 -2.52148306595E-03 -1.69768715050E-03 -2.50251949807E-03 -1.82552323286E-03 +7.11212748180E-01 -4.17572129339E-01
4.03500000000E+09 +5.56749199045E-01 -3.85194812703E-01 -2.50036164130E-03 -1.34132878610E-03 -2.47729754913E-03 -1.53991949895E-03 +6.99749373207E-01 -4.28356518553E-01
4.04000000000E+09 +5.44001418949E-01 -3.94613561094E-01 -2.72634127461E-03 -1.12303507700E-03 -2.79400092148E-03 -1.26829590339E-03 +6.87957791377E-01 -4.39007940899E-01
4.04500000000E+09 +5.31374249486E-01 -4.04435471193E-01 -2.58406645410E-03 -8.20929077234E-04 -2.59801574219E-03 -9.78715314594E-04 +6.76155268377E-01 -4.48928920696E-01
4.05000000000E+09 +5.18135565436E-01 -4.12826272303E-01 -2.82065697429E-03 -8.22793946737E-04 -2.95397558945E-03 -1.00146276260E-03 +6.64622186379E-01 -4.58989928574E-01
4.05500000000E+09 +5.04469444673E-01 -4.19431820075E-01 -3.15511295121E-03 -3.39046362455E-04 -3.26743481892E-03 -4.99820700245E-04 +6.52416879294E-01 -4.68724376912E-01
4.06000000000E+09 +4.90882397689E-01 -4.24025303418E-01 -3.08783214407E-03 +1.60125661581E-04 -3.19836163505E-03 +5.86661671139E-05 +6.39991896409E-01 -4.78111424360E-01
4.06500000000E+09 +4.76874769340E-01 -4.27572740600E-01 -2.71113402249E-03 +5.39194489757E-04 -2.87031966314E-03 +5.04877379275E-04 +6.26488831974E-01 -4.87604325461E-01
4.07000000000E+09 +4.62280285679E-01 -4.30555434614E-01 -2.69899298131E-03 +4.50894754970E-04 -2.81856831182E-03 +4.52238445195E-04 +6.12426536066E-01 -4.96985546745E-01
4.07500000000E+09 +4.46631817283E-01 -4.33797731582E-01 -2.63409028884E-03 +7.24114544355E-04 -2.77125518751E-03 +6.48760310118E-04 +5.98395312195E-01 -5.06502079679E-01
4.08000000000E+09 +4.29756284240E-01 -4.37127589677E-01 -2.70959828542E-03 +8.69188089769E-04 -2.88501235817E-03 +7.86482790550E-04 +5.83750655715E-01 -5.16077647130E-01
4.08500000000E+09 +4.12333530082E-01 -4.41239018234E-01 -2.68887120013E-03 +1.12029988628E-03 -2.85909407614E-03 +1.00709060566E-03 +5.69198477951E-01 -5.24457285964E-01
4.09000000000E+09 +3.94337273535E-01 -4.45241148136E-01 -2.47958868673E-03 +1.43212166050E-03 -2.64511287575E-03 +1.42854794608E-03 +5.54627258899E-01 -5.32533586459E-01
4.09500000000E+09 +3.76920031678E-01 -4.49349115972E-01 -2.47367450592E-03 +1.51225320657E-03 -2.64208807264E-03 +1.61697021597E-03 +5.39421470695E-01 -5.40197803545E-01
4.10000000000E+09 +3.59483530956E-01 -4.53786864412E-01 -2.34422892910E-03 +1.55989629399E-03 -2.40178949976E-03 +1.66737818516E-03 +5.23776937856E-01 -5.47359248168E-01
4.10500000000E+09 +3.42188885534E-01 -4.56876282758E-01 -2.53389342525E-03 +1.80933781494E-03 -2.63990952550E-03 +1.85857866211E-03 +5.06713611468E-01 -5.55204316137E-01
4.11000000000E+09 +3.24918375004E-01 -4.58373512528E-01 -2.44311978220E-03 +2.30583246796E-03 -2.53871524245E-03 +2.36235766646E-03 +4.89060350115E-01 -5.62052014133E-01
4.11500000000E+09 +3.08983930051E-01 -4.58225924933E-01 -1.95524770169E-03 +2.56893485190E-03 -1.96622697998E-03 +2.62705290206E-03 +4.71736369411E-01 -5.68544390903E-01
4.12000000000E+09 +2.92587504893E-01 -4.57750821323E-01 -1.87830596304E-03 +2.59395411878E-03 -1.93413090169E-03 +2.57152203788E-03 +4.54387330484E-01 -5.75350480762E-01
4.12500000000E+09 +2.75597651073E-01 -4.56426652487E-01 -1.91170860091E-03 +2.69998840941E-03 -1.93956054512E-03 +2.74922965437E-03 +4.36987706642E-01 -5.81214948567E-01
4.13000000000E+09 +2.57901109520E-01 -4.54824562295E-01 -1.78837510036E-03 +3.02194269628E-03 -1.82989097257E-03 +3.02713673639E-03 +4.18664692238E-01 -5.86832493289E-01
4.13500000000E+09 +2.39571435005E-01 -4.53299632067E-01 -1.81354851601E-03 +3.32704660122E-03 -1.89846505952E-03 +3.34919614166E-03 +3.99959808713E-01 -5.91466680001E-01
4.14000000000E+09 +2.20728606076E-01 -4.53040071064E-01 -1.49033835602E-03 +4.01959303057E-03 -1.65039247406E-03 +4.09494393376E-03 +3.80298433894E-01 -5.95897418881E-01
4.14500000000E+09 +2.01631069449E-01 -4.52821642914E-01 -7.53684506160E-04 +4.57026024248E-03 -8.79239254138E-04 +4.66871433507E-03 +3.60758426688E-01 -5.99614809771E-01
4.15000000000E+09 +1.82897501436E-01 -4.54517810356E-01 -2.26648565045E-05 +4.35235624338E-03 -1.33683224895E-04 +4.48635846835E-03 +3.42295754352E-01 -6.04057065426E-01
4.15500000000E+09 +1.63078793037E-01 -4.55601652332E-01 +3.04600757836E-04 +4.21928699212E-03 +2.67129125709E-04 +4.27408696708E-03 +3.22050639742E-01 -6.08657761526E-01
4.16000000000E+09 +1.44253431924E-01 -4.55046222042E-01 +5.95772584164E-04 +4.26754903688E-03 +5.42382032561E-04 +4.39534175307E-03 +3.01387389108E-01 -6.10591294281E-01
4.16500000000E+09 +1.26296648937E-01 -4.52519985672E-01 +8.94199163668E-04 +4.32626010135E-03 +8.26644247117E-04 +4.39477508770E-03 +2.81754290328E-01 -6.11784994530E-01
4.17000000000E+09 +1.10240398107E-01 -4.47678778510E-01 +1.36170176581E-03 +4.63850975858E-03 +1.27464160331E-03 +4.73854194466E-03 +2.60838123359E-01 -6.12211708045E-01
4.17500000000E+09 +9.50791568985E-02 -4.41679148759E-01 +1.99933672712E-03 +4.82996789749E-03 +1.85103998460E-03 +4.94719271049E-03 +2.39656110156E-01 -6.12192900839E-01
4.18000000000E+09 +7.99209806207E-02 -4.34758401216E-01 +2.91966933149E-03 +4.42807002084E-03 +2.88992192719E-03 +4.62005913940E-03 +2.18083470710E-01 -6.11985505117E-01
4.18500000000E+09 +6.38167593341E-02 -4.26616618398E-01 +3.36487490932E-03 +4.17689118821E-03 +3.32788092732E-03 +4.34686918993E-03 +1.95648350554E-01 -6.11172566917E-01
4.19000000000E+09 +4.71237531572E-02 -4.17866835230E-01 +4.14249774875E-03 +3.93990705219E-03 +4.12926421714E-03 +4.11039016218E-03 +1.74522659554E-01 -6.09344254679E-01
4.19500000000E+09 +2.93832470231E-02 -4.08693467286E-01 +4.63299813093E-03 +3.19108446448E-03 +4.62144370861E-03 +3.38810026091E-03 +1.52870416040E-01 -6.07309079326E-01
4.20000000000E+09 +1.18516981905E-02 -3.99589094316E-01 +4.73156567106E-03 +2.52271929062E-03 +4.77958865675E-03 +2.76912042244E-03 +1.30760741586E-01 -6.04745519430E-01
4.20500000000E+09 -4.87507566658E-03 -3.91719546537E-01 +4.99780451711E-03 +2.16921278486E-03 +5.10819992690E-03 +2.40382131442E-03 +1.08159201313E-01 -6.00966903266E-01
4.21000000000E+09 -2.17412212772E-02 -3.84564047839E-01 +5.29393388780E-03 +1.41134086154E-03 +5.38906849113E-03 +1.62715186494E-03 +8.48149790337E-02 -5.96093246048E-01
4.21500000000E+09 -3.82571644145E-02 -3.76931373706E-01 +5.15466892912E-03 +1.25406816816E-03 +5.28441681422E-03 +1.41760441242E-03 +6.28198191388E-02 -5.90818396260E-01
4.22000000000E+09 -5.33828979866E-02 -3.67970100189E-01 +5.52911492008E-03 +1.09421059881E-03 +5.71131549723E-03 +1.22032894060E-03 +4.00669074416E-02 -5.85142303511E-01
4.22500000000E+09 -6.66765393402E-02 -3.57548987269E-01 +6.25678870369E-03 +1.72116613327E-04 +6.48870565023E-03 +2.67118614098E-04 +1.72220284147E-02 -5.78367322997E-01
4.23000000000E+09 -7.85062478890E-02 -3.46072604128E-01 +6.15033314472E-03 -1.16699064758E-03 +6.37310954273E-03 -1.13426140815E-03 -4.62340740869E-03 -5.70186541117E-01
4.23500000000E+09 -9.03950527032E-02 -3.33259881450E-01 +5.43546590662E-03 -1.64928119521E-03 +5.71149118232E-03 -1.65626661713E-03 -2.64608663913E-02 -5.60672097021E-01
4.24000000000E+09 -1.02809870726E-01 -3.19394813349E-01 +5.24760839682E-03 -1.87487826913E-03 +5.47300957551E-03 -1.99121086334E-03 -4.73074676183E-02 -5.50552454440E-01
4.24500000000E+09 -1.16215740859E-01 -3.04291617887E-01 +5.30341780630E-03 -2.10086076601E-03 +5.42030715336E-03 -2.26476323577E-03 -6.80392193520E-02 -5.40808480572E-01
4.25000000000E+09 -1.30443151495E-01 -2.88433517443E-01 +5.41707445176E-03 -2.82810554066E-03 +5.57769895166E-03 -2.87208401275E-03 -9.02233205991E-02 -5.29474518011E-01
4.25500000000E+09 -1.45179382985E-01 -2.73619567106E-01 +4.97253972911E-03 -3.77466369194E-03 +5.11061979520E-03 -3.97131306777E-03 -1.11818382344E-01 -5.17200890030E-01
4.26000000000E+09 -1.61156249335E-01 -2.60120709514E-01 +4.28551606263E-03 -4.11097309195E-03 +4.42575892204E-03 -4.27664759349E-03 -1.32443287561E-01 -5.03043868217E-01
4.26500000000E+09 -1.78137544794E-01 -2.47163216676E-01 +4.02893713800E-03 -3.98433603177E-03 +4.13416489291E-03 -4.16171366525E-03 -1.52265219105E-01 -4.88301425206E-01
4.27000000000E+09 -1.93807815262E-01 -2.33918157576E-01 +4.13286357211E-03 -4.63304287446E-03 +4.15773136426E-03 -4.76638007104E-03 -1.71263632760E-01 -4.73317192557E-01
4.27500000000E+09 -2.08259378652E-01 -2.20839090422E-01 +3.74129036379E-03 -5.27587533501E-03 +3.72633644308E-03 -5.48035761985E-03 -1.91654691982E-01 -4.57151016436E-01
4.28000000000E+09 -2.19655971820E-01 -2.06676728184E-01 +3.30971384332E-03 -5.90053133383E-03 +3.25242211744E-03 -5.98808593599E-03 -2.10491396687E-01 -4.40705693348E-01
4.28500000000E+09 -2.27867771372E-01 -1.92878778637E-01 +2.73390082549E-03 -6.77477841693E-03 +2.69027742226E-03 -6.88323854234E-03 -2.30315229955E-01 -4.23890010799E-01
4.29000000000E+09 -2.35289349544E-01 -1.78765738830E-01 +1.22623587524E-03 -7.22645622816E-03 +1.10815842051E-03 -7.28371402652E-03 -2.48014033408E-01 -4.04688509877E-01
4.29500000000E+09 -2.42408144049E-01 -1.63413546419E-01 +4.78058422940E-04 -6.56140034014E-03 +3.72011859710E-04 -6.62729504290E-03 -2.63094094672E-01 -3.87722016736E-01
4.30000000000E+09 -2.49499655128E-01 -1.45992968083E-01 +2.29240170499E-05 -6.53552100097E-03 -9.08769703741E-05 -6.52728234069E-03 -2.79710298313E-01 -3.69733821974E-01
4.30500000000E+09 -2.56634634980E-01 -1.27283943463E-01 -3.15956437234E-04 -6.38303468726E-03 -3.15991491255E-04 -6.38474155657E-03 -2.95840469918E-01 -3.49090497355E-01
4.31000000000E+09 -2.64278127697E-01 -1.07216866320E-01 -5.03435996407E-04 -6.73869937085E-03 -4.57297251185E-04 -6.76041513906E-03 -3.10758907844E-01 -3.28240135051E-01
4.31500000000E+09 -2.71295620950E-01 -8.76699302536E-02 -1.15164123056E-03 -7.16658324069E-03 -1.14018531121E-03 -7.24724673780E-03 -3.24858085166E-01 -3.06212209453E-01
4.32000000000E+09 -2.78185090770E-01 -6.85185718327E-02 -2.04715920209E-03 -7.54413048765E-03 -1.96553054847E-03 -7.63527824296E-03 -3.37756319153E-01 -2.84314052225E-01
4.32500000000E+09 -2.84005760382E-01 -5.20926096818E-02 -3.83652876600E-03 -7.55818411499E-03 -3.89575073898E-03 -7.67688669833E-03 -3.50019807567E-01 -2.62210448103E-01
4.33000000000E+09 -2.90130644635E-01 -3.63174870776E-02 -4.50374224060E-03 -6.90170210545E-03 -4.67246204191E-03 -6.94841568879E-03 -3.61661935378E-01 -2.38819160214E-01
4.33500000000E+09 -2.94571541202E-01 -2.05086443147E-02 -5.63970084977E-03 -6.32369979196E-03 -5.69632785154E-03 -6.38553833719E-03 -3.71477940043E-01 -2.13781203726E-01
4.34000000000E+09 -2.96799045353E-01 -4.55831865460E-03 -6.49532046942E-03 -5.24086460467E-03 -6.48858304264E-03 -5.25272817330E-03 -3.79086740683E-01 -1.89545500317E-01
4.34500000000E+09 -2.96434630026E-01 +1.13373007062E-02 -6.34195695468E-03 -4.26813462917E-03 -6.35554440119E-03 -4.35068980123E-03 -3.88064540516E-01 -1.67059431611E-01
4.35000000000E+09 -2.95568848211E-01 +2.84272225619E-02 -6.72481424106E-03 -4.21010474145E-03 -6.79414285505E-03 -4.39463073237E-03 -3.97753250190E-01 -1.42418032254E-01
4.35500000000E+09 -2.93263921789E-01 +4.66168761902E-02 -7.59261267613E-03 -3.58353599218E-03 -7.80068663277E-03 -3.67736380662E-03 -4.05184553457E-01 -1.16723417729E-01
4.36000000000E+09 -2.91248648811E-01 +6.54423303776E-02 -7.59822831039E-03 -2.62820716032E-03 -7.76966355590E-03 -2.69192189002E-03 -4.10586388009E-01 -9.22621322936E-02
4.36500000000E+09 -2.89495481300E-01 +8.53560514238E-02 -8.59998194628E-03 -2.71771950127E-03 -8.87859114757E-03 -2.72600955440E-03 -4.14549427057E-01 -6.80194526912E-02
4.37000000000E+09 -2.88897430531E-01 +1.04882352212E-01 -9.62079648802E-03 -9.32768968753E-04 -9.95391748633E-03 -8.22125320936E-04 -4.17385748620E-01 -4.40890082978E-02
4.37500000000E+09 -2.89098494174E-01 +1.24127564427E-01 -9.43008399656E-03 +8.53208544278E-04 -9.66785241041E-03 +1.01607447605E-03 -4.19696524095E-01 -1.99533617365E-02
4.38000000000E+09 -2.89952104640E-01 +1.41918856575E-01 -9.00834386916E-03 +1.92464232039E-03 -9.21134709516E-03 +2.19172542311E-03 -4.21766857696E-01 +6.04691256485E-03
4.38500000000E+09 -2.90304846139E-01 +1.58676258676E-01 -8.31335756858E-03 +2.92539850304E-03 -8.41117875392E-03 +3.18127322666E-03 -4.21371387323E-01 +3.16101014355E-02
4.39000000000E+09 -2.89463342257E-01 +1.73720973907E-01 -7.82926396650E-03 +3.61601509182E-03 -7.84423481031E-03 +3.90812499672E-03 -4.21196146160E-01 +5.59763625566E-02
4.39500000000E+09 -2.87353659176E-01 +1.86954170497E-01 -7.79538861869E-03 +4.00889730182E-03 -7.81123384803E-03 +4.25897268759E-03 -4.20391813707E-01 +8.01850988000E-02
4.40000000000E+09 -2.83275927671E-01 +2.00296496660E-01 -7.27766918213E-03 +5.41719309479E-03 -7.23750474308E-03 +5.59506317973E-03 -4.18990718593E-01 +1.04099417564E-01
4.40500000000E+09 -2.77885395962E-01 +2.12777627352E-01 -6.74571901319E-03 +6.23893642772E-03 -6.62275441891E-03 +6.45863635046E-03 -4.15371204597E-01 +1.28445844582E-01
4.41000000000E+09 -2.71497762583E-01 +2.26726185435E-01 -5.64898194151E-03 +6.63514480322E-03 -5.57241950715E-03 +6.73817804457E-03 -4.10450357107E-01 +1.52387006486E-01
4.41500000000E+09 -2.63949784467E-01 +2.42311750912E-01 -5.29457607073E-03 +7.72189747378E-03 -5.12911219069E-03 +7.90141382307E-03 -4.04669556038E-01 +1.75742733133E-01
4.42000000000E+09 -2.56659315741E-01 +2.58596481001E-01 -4.20849600359E-03 +7.97731600103E-03 -4.00925502022E-03 +8.10160947082E-03 -3.97328791074E-01 +1.98768838506E-01
4.42500000000E+09 -2.49544371143E-01 +2.75725445379E-01 -3.58244785576E-03 +8.78847803680E-03 -3.36278100893E-03 +8.82580845965E-03 -3.91888461153E-01 +2.19839233844E-01
4.43000000000E+09 -2.43414371448E-01 +2.92625911446E-01 -1.91018192501E-03 +9.41633398265E-03 -1.62538123753E-03 +9.35201461853E-03 -3.85174147096E-01 +2.42980704274E-01
4.43500000000E+09 -2.37811688975E-01 +3.08644678761E-01 -6.31840265562E-04 +8.97422125713E-03 -4.77409496949E-04 +8.84044689723E-03 -3.76228623508E-01 +2.64847188188E-01
4.44000000000E+09 -2.33358375707E-01 +3.22541102165E-01 +4.29808599464E-04 +8.52085670869E-03 +5.02788559979E-04 +8.36698095150E-03 -3.67485619827E-01 +2.84237850094E-01
4.44500000000E+09 -2.29027657222E-01 +3.34392439501E-01 +8.01834782051E-04 +8.32153705095E-03 +8.50133541808E-04 +8.23364348941E-03 -3.59338553415E-01 +3.04140547417E-01
4.45000000000E+09 -2.25080997262E-01 +3.44745515424E-01 +1.32462745616E-03 +7.99913417413E-03 +1.46015575423E-03 +7.94159498310E-03 -3.49657239534E-01 +3.24031352419E-01
4.45500000000E+09 -2.18833858501E-01 +3.54488663273E-01 +1.95932431520E-03 +8.50029802562E-03 +2.14052295980E-03 +8.40174932729E-03 -3.39304858528E-01 +3.43174544363E-01
4.46000000000E+09 -2.11096741822E-01 +3.63178446397E-01 +3.38540231805E-03 +8.42199322597E-03 +3.58695013220E-03 +8.30932885741E-03 -3.26877379027E-01 +3.62138829645E-01
4.46500000000E+09 -2.00943308527E-01 +3.72495426493E-01 +4.28635374769E-03 +7.55687242526E-03 +4.38218652672E-03 +7.45736649044E-03 -3.14966347584E-01 +3.78388222122E-01
4.47000000000E+09 -1.89138363640E-01 +3.82158349081E-01 +4.98424726735E-03 +7.21629153192E-03 +5.10718071084E-03 +7.08796719437E-03 -3.03549911254E-01 +3.95436913911E-01
4.47500000000E+09 -1.76097010793E-01 +3.92726796896E-01 +5.71825192877E-03 +6.54303901082E-03 +5.72752020880E-03 +6.41676161636E-03 -2.91814235872E-01 +4.13077729283E-01
4.48000000000E+09 -1.63936151072E-01 +4.03621766097E-01 +6.56540956519E-03 +5.93986774185E-03 +6.54913305535E-03 +5.70796757547E-03 -2.78988594041E-01 +4.29779719572E-01
4.48500000000E+09 -1.53177394006E-01 +4.16066314657E-01 +7.27607646524E-03 +5.37332104353E-03 +7.26407056683E-03 +5.15070653531E-03 -2.65066290184E-01 +4.45074962692E-01
4.49000000000E+09 -1.43311695842E-01 +4.28758115738E-01 +7.92902773899E-03 +3.70693463736E-03 +7.80352260211E-03 +3.54277873369E-03 -2.52356539499E-01 +4.59485672405E-01
4.49500000000E+09 -1.35396965457E-01 +4.40600861704E-01 +7.40378909825E-03 +2.93408629448E-03 +7.35698438401E-03 +2.86137918515E-03 -2.38958356716E-01 +4.74216209208E-01
4.50000000000E+09 -1.28547602514E-01 +4.51201790029E-01 +7.69822940382E-03 +2.79218183829E-03 +7.57880277817E-03 +2.71048357134E-03 -2.24566419326E-01 +4.87926558886E-01
4.50500000000E+09 -1.22270053054E-01 +4.59889473538E-01 +8.20187008535E-03 +1.99294160902E-03 +8.07165419850E-03 +1.97071702102E-03 -2.10664183443E-01 +5.01431945661E-01
4.51000000000E+09 -1.15556687036E-01 +4.66119209468E-01 +8.75909985831E-03 +1.11556010604E-03 +8.67843924316E-03 +1.00098303131E-03 -1.94696837812E-01 +5.13608632077E-01
4.51500000000E+09 -1.08528265604E-01 +4.70803498464E-01 +8.83849995602E-03 -3.09598964969E-05 +8.76829388951E-03 -1.39507497750E-04 -1.80884737159E-01 +5.24094227020E-01
4.52000000000E+09 -9.94796289793E-02 +4.75108248136E-01 +9.00351040126E-03 -1.51060927707E-03 +8.83381060855E-03 -1.65901936889E-03 -1.67417455057E-01 +5.35173606512E-01
4.52500000000E+09 -8.82836420683E-02 +4.78371214093E-01 +8.03208717382E-03 -2.40437519725E-03 +7.90591720147E-03 -2.55078428494E-03 -1.53619760287E-01 +5.45899426794E-01
4.53000000000E+09 -7.57666767076E-02 +4.82616172983E-01 +7.68229387422E-03 -3.06284174946E-03 +7.52423458277E-03 -3.14506730959E-03 -1.38732503333E-01 +5.55777201205E-01
4.53500000000E+09 -6.18437545294E-02 +4.88163819328E-01 +7.14491888873E-03 -3.94857151619E-03 +7.00140797124E-03 -3.98560821820E-03 -1.23999869049E-01 +5.65242814365E-01
4.54000000000E+09 -4.70982224635E-02 +4.94497929345E-01 +6.68425606327E-03 -4.39412733411E-03 +6.47742375180E-03 -4.48566848556E-03 -1.07919942747E-01 +5.74171381287E-01
4.54500000000E+09 -3.33891379986E-02 +5.01603960775E-01 +5.98915138025E-03 -4.96955402961E-03 +5.78523650544E-03 -5.05831176113E-03 -9.32053762446E-02 +5.83094394995E-01
4.55000000000E+09 -2.08774691098E-02 +5.09449565568E-01 +5.61545829215E-03 -5.53534359364E-03 +5.34533753491E-03 -5.58433568930E-03 -7.72179425991E-02 +5.92124685521E-01
4.55500000000E+09 -1.02471511844E-02 +5.16667566145E-01 +4.76683124064E-03 -5.84462185037E-03 +4.58676236628E-03 -5.79235155814E-03 -6.14066446920E-02 +6.00217133663E-01
4.56000000000E+09 -2.20737004967E-03 +5.23879785721E-01 +4.35951944728E-03 -6.38690757475E-03 +4.15590635691E-03 -6.36501041488E-03 -4.60905345014E-02 +6.06285599984E-01
4.56500000000E+09 +5.90569176968E-03 +5.30549593171E-01 +3.73955617497E-03 -6.71253215549E-03 +3.47431816739E-03 -6.69057874586E-03 -3.20260940619E-02 +6.12488727849E-01
4.57000000000E+09 +1.40307584161E-02 +5.35203851418E-01 +2.95937800695E-03 -7.22406242232E-03 +2.70532889585E-03 -7.09995687919E-03 -1.71789697564E-02 +6.18797140754E-01
