# Hz S RI R 50
! CMT, C1220, 16058040, 17.2.0/1
! Date: 15/08/2018 12:39:30
! Data: Format (Calibration Info)
! Freq                      S11: Re/Im (F2)                       S21: Re/Im (F2)                       S12: Re/Im (F2)                       S22: Re/Im (F2)            
4.00000000000E+09 +6.57342949105E-01 -3.58630471752E-01 +1.60824519609E-03 -8.38548046983E-04 +1.64284384145E-03 -7.33906807264E-04 +7.86751025568E-01 -3.14574060856E-01
4.00500000000E+09 +6.49041946710E-01 -3.64275077839E-01 +1.34854398247E-03 -1.13586532567E-03 +1.39973717057E-03 -1.06131870939E-03 +7.78522194990E-01 -3.26042916532E-01
4.01000000000E+09 +6.40204025023E-01 -3.69879117030E-01 +1.04145038074E-03 -1.32215969949E-03 +1.14135155098E-03 -1.33815891796E-03 +7.69902770589E-01 -3.37996998173E-01
4.01500000000E+09 +6.30415501255E-01 -3.76208266650E-01 +7.56312890622E-04 -1.19983082204E-03 +8.74771898919E-04 -1.13507261956E-03 +7.61422471638E-01 -3.49356291257E-01
4.02000000000E+09 +6.20568357762E-01 -3.83678491833E-01 +8.30482826968E-04 -1.21769125972E-03 +9.20201047212E-04 -1.15533304420E-03 +7.52450644738E-01 -3.60303499598E-01
4.02500000000E+09 +6.10184450766E-01 -3.92770789353E-01 +7.86715079322E-04 -1.29774591109E-03 +9.02169624294E-04 -1.30103602412E-03 +7.42857302857E-01 -3.70916226548E-01
4.03000000000E+09 +5.99061921782E-01 -4.03352171406E-01 +6.13441164945E-04 -1.45085031318E-03 +6.73441737436E-04 -1.48497625711E-03 +7.32641156318E-01 -3.81498249256E-01
4.03500000000E+09 +5.87508619048E-01 -4.13663983635E-01 +4.82384455869E-04 -1.46288319898E-03 +5.08019265154E-04 -1.45503179892E-03 +7.21516771974E-01 -3.92641943280E-01
4.04000000000E+09 +5.76581714089E-01 -4.23577774506E-01 +3.10080502933E-04 -1.41050755882E-03 +3.56944026808E-04 -1.42828163546E-03 +7.10365980684E-01 -4.03775216975E-01
4.04500000000E+09 +5.65700629324E-01 -4.33328642990E-01 +2.84880406499E-04 -1.41832681296E-03 +3.42218115136E-04 -1.46994036581E-03 +6.99450427460E-01 -4.14755255380E-01
4.05000000000E+09 +5.54089370584E-01 -4.41163617457E-01 +1.97888741978E-04 -1.43557139404E-03 +2.83023761008E-04 -1.53766974704E-03 +6.88833348959E-01 -4.25541956771E-01
4.05500000000E+09 +5.42791284411E-01 -4.47385141797E-01 +2.60146224042E-04 -1.52067599727E-03 +3.09598678209E-04 -1.69712483452E-03 +6.77469226601E-01 -4.35401252118E-01
4.06000000000E+09 +5.30762536902E-01 -4.52681879417E-01 -6.99878830770E-05 -1.78990234627E-03 -7.53870015184E-05 -1.92277935821E-03 +6.66201892213E-01 -4.44787523945E-01
4.06500000000E+09 +5.17611276343E-01 -4.56600957113E-01 -3.38290160901E-04 -1.57213899834E-03 -3.74362265478E-04 -1.62866989225E-03 +6.53853797222E-01 -4.54563405401E-01
4.07000000000E+09 +5.04289627666E-01 -4.60808541629E-01 -2.89453782608E-04 -1.48997934086E-03 -2.71095203691E-04 -1.47778075292E-03 +6.40459334729E-01 -4.64545481587E-01
4.07500000000E+09 +4.89663101763E-01 -4.65742195915E-01 -3.15957221983E-04 -1.67400297193E-03 -3.18473375411E-04 -1.75463124054E-03 +6.26714765859E-01 -4.75119455517E-01
4.08000000000E+09 +4.73870158773E-01 -4.71135892227E-01 -6.16703889385E-04 -1.63444411349E-03 -5.78143227613E-04 -1.63995350716E-03 +6.13231711168E-01 -4.85022102879E-01
4.08500000000E+09 +4.57571590353E-01 -4.77656906610E-01 -5.80072132862E-04 -1.67399126127E-03 -5.61550152815E-04 -1.66722300614E-03 +5.99668962780E-01 -4.95120206071E-01
4.09000000000E+09 +4.40617857830E-01 -4.84137910805E-01 -9.04448780515E-04 -1.84045210946E-03 -8.98551412201E-04 -1.92436130346E-03 +5.85736712600E-01 -5.03876066454E-01
4.09500000000E+09 +4.24250664385E-01 -4.90929446887E-01 -1.29655718224E-03 -1.60096744878E-03 -1.27361039890E-03 -1.58078053069E-03 +5.71222112944E-01 -5.12310566531E-01
4.10000000000E+09 +4.07192633606E-01 -4.97123725942E-01 -1.22727827081E-03 -1.30776204622E-03 -1.21635788591E-03 -1.32738808540E-03 +5.55363016283E-01 -5.19893024647E-01
4.10500000000E+09 +3.90455787689E-01 -5.01537626926E-01 -1.33344653303E-03 -1.47173488625E-03 -1.31400823717E-03 -1.50578414576E-03 +5.39701983440E-01 -5.27672923158E-01
4.11000000000E+09 +3.74121960048E-01 -5.03749986409E-01 -1.83381966317E-03 -1.25919816144E-03 -1.79893807066E-03 -1.33533533706E-03 +5.23110016423E-01 -5.36192644412E-01
4.11500000000E+09 +3.58792391675E-01 -5.05044906983E-01 -1.65761806768E-03 -8.22466205990E-04 -1.64438250261E-03 -9.23602637278E-04 +5.06758467875E-01 -5.43866056113E-01
4.12000000000E+09 +3.42976908252E-01 -5.05680721806E-01 -1.72920469612E-03 -8.71502749310E-04 -1.69533442149E-03 -9.57746561519E-04 +4.90587155463E-01 -5.51850689085E-01
4.12500000000E+09 +3.26469278297E-01 -5.06617161815E-01 -1.79269540443E-03 -7.98903973473E-04 -1.78920501518E-03 -9.01425549611E-04 +4.73352795625E-01 -5.58430198513E-01
4.13000000000E+09 +3.08822452249E-01 -5.07868360906E-01 -1.81725158563E-03 -5.63542348429E-04 -1.80119413754E-03 -6.66336917618E-04 +4.55822024336E-01 -5.64340003124E-01
4.13500000000E+09 +2.89837801922E-01 -5.10310866053E-01 -1.70803697219E-03 -5.48323852781E-04 -1.62603248675E-03 -6.52157940428E-04 +4.37472889368E-01 -5.69725975148E-01
4.14000000000E+09 +2.69473792752E-01 -5.12904792701E-01 -1.99024219381E-03 -8.40070682370E-04 -2.00015630096E-03 -1.00839506077E-03 +4.19197870443E-01 -5.75621996991E-01
4.14500000000E+09 +2.49737733339E-01 -5.15697977464E-01 -2.63510283644E-03 -4.93035376836E-04 -2.76299495816E-03 -6.63925743925E-04 +3.99953483826E-01 -5.81536805988E-01
4.15000000000E+09 +2.30108425123E-01 -5.19553619265E-01 -2.56853780781E-03 +1.83350618637E-04 -2.69122536132E-03 +7.45641308946E-05 +3.81635417549E-01 -5.86466750224E-01
4.15500000000E+09 +2.10324173623E-01 -5.22601892290E-01 -2.40751037418E-03 +5.00217175433E-04 -2.56140925562E-03 +4.98438929700E-04 +3.63374263835E-01 -5.91322144943E-01
4.16000000000E+09 +1.91692200686E-01 -5.23283137970E-01 -2.18951051154E-03 +6.97640043678E-04 -2.34619599283E-03 +6.06514185042E-04 +3.44482128779E-01 -5.94738836128E-01
4.16500000000E+09 +1.74816130338E-01 -5.23449389689E-01 -2.09965415837E-03 +6.79369332188E-04 -2.23340317099E-03 +6.14661000442E-04 +3.25128584735E-01 -5.97632684828E-01
4.17000000000E+09 +1.57862679014E-01 -5.21484820523E-01 -2.16357272560E-03 +8.55143776771E-04 -2.32996204125E-03 +8.94960894293E-04 +3.04430938849E-01 -5.99894331630E-01
4.17500000000E+09 +1.41943984134E-01 -5.17554532036E-01 -2.11424790913E-03 +7.90384213998E-04 -2.16405672612E-03 +7.95738422383E-04 +2.83117255849E-01 -6.01354216061E-01
4.18000000000E+09 +1.24941564624E-01 -5.13302516395E-01 -2.42408777512E-03 +1.23267770219E-03 -2.55343052958E-03 +1.30140562746E-03 +2.62028769715E-01 -6.02708618473E-01
4.18500000000E+09 +1.07622245958E-01 -5.07457623723E-01 -1.94675818164E-03 +1.49094965359E-03 -2.01797580567E-03 +1.63227639928E-03 +2.41136333173E-01 -6.04214445972E-01
4.19000000000E+09 +8.91862294552E-02 -5.02035307804E-01 -2.21926837040E-03 +1.46911982701E-03 -2.24772473349E-03 +1.60241312716E-03 +2.19644452369E-01 -6.04161598912E-01
4.19500000000E+09 +7.02465239763E-02 -4.96411089664E-01 -2.28600867070E-03 +2.09780745481E-03 -2.35392499265E-03 +2.18285234332E-03 +1.98552457496E-01 -6.02464265738E-01
4.20000000000E+09 +5.13930200683E-02 -4.91631948008E-01 -1.74014853259E-03 +2.63288428208E-03 -1.73511956605E-03 +2.72211172611E-03 +1.77068257268E-01 -6.00217758381E-01
4.20500000000E+09 +3.21644305391E-02 -4.87682877475E-01 -1.22732378890E-03 +2.50072057637E-03 -1.22349050909E-03 +2.62660766992E-03 +1.55922309722E-01 -5.97044946300E-01
4.21000000000E+09 +1.33342680030E-02 -4.83655002606E-01 -1.33689982572E-03 +2.19980381355E-03 -1.34648727438E-03 +2.21343998668E-03 +1.34125989064E-01 -5.95590426131E-01
4.21500000000E+09 -5.13638163905E-03 -4.78184397527E-01 -1.27220400966E-03 +2.70522604088E-03 -1.28570409998E-03 +2.74199681401E-03 +1.11075044954E-01 -5.93233410049E-01
4.22000000000E+09 -2.18509600239E-02 -4.70515766313E-01 -9.71898385700E-04 +2.74938294112E-03 -9.67641332224E-04 +2.72307764018E-03 +8.87001436391E-02 -5.89393875914E-01
4.22500000000E+09 -3.69707868172E-02 -4.61340040425E-01 -1.14777894981E-03 +2.86406065873E-03 -1.15750293762E-03 +2.79493731359E-03 +6.71719233713E-02 -5.84804618684E-01
4.23000000000E+09 -5.11295783962E-02 -4.50187725357E-01 -8.94562219265E-04 +3.59867302382E-03 -8.88825534131E-04 +3.54249239355E-03 +4.56783631368E-02 -5.78110119287E-01
4.23500000000E+09 -6.49855920347E-02 -4.38976670129E-01 -3.28803632200E-04 +3.80506068024E-03 -4.33842412719E-04 +3.77440864032E-03 +2.44933582304E-02 -5.71188717121E-01
4.24000000000E+09 -8.09868646678E-02 -4.26786079422E-01 +2.74007987387E-04 +3.89963059870E-03 +1.86619764729E-04 +3.94684694152E-03 +2.74351349038E-03 -5.62997790361E-01
4.24500000000E+09 -9.89588216220E-02 -4.13797984993E-01 +8.64361142455E-04 +3.84879936443E-03 +7.55606685780E-04 +3.90813649958E-03 -1.87603861356E-02 -5.55041380856E-01
4.25000000000E+09 -1.18561776845E-01 -3.99899389080E-01 +1.09782436801E-03 +3.91257987097E-03 +9.99975342747E-04 +3.89935385059E-03 -4.05188660864E-02 -5.46563444128E-01
4.25500000000E+09 -1.38355178065E-01 -3.86624044164E-01 +1.88091506392E-03 +3.84498873085E-03 +1.83910058609E-03 +3.92225545790E-03 -6.15891434898E-02 -5.37929026182E-01
4.26000000000E+09 -1.59091863068E-01 -3.74286662418E-01 +2.27633397318E-03 +3.26258651646E-03 +2.15571117710E-03 +3.40938073087E-03 -8.30516935810E-02 -5.27869716865E-01
4.26500000000E+09 -1.78855477262E-01 -3.61237217299E-01 +2.15314264759E-03 +3.42569266700E-03 +2.09521032063E-03 +3.61665696787E-03 -1.03979651599E-01 -5.16336762865E-01
4.27000000000E+09 -1.95955550241E-01 -3.48865536595E-01 +3.09228910692E-03 +3.29758922699E-03 +3.10800001122E-03 +3.44626664737E-03 -1.25628307487E-01 -5.03158706158E-01
4.27500000000E+09 -2.11691833822E-01 -3.36792976163E-01 +3.33207687533E-03 +2.69946125523E-03 +3.41032827208E-03 +2.84703997549E-03 -1.46720242943E-01 -4.88739210221E-01
4.28000000000E+09 -2.25057933053E-01 -3.23703611629E-01 +3.69233067906E-03 +2.67324290098E-03 +3.74948493451E-03 +2.82749403247E-03 -1.67090989301E-01 -4.74572823105E-01
4.28500000000E+09 -2.37094697490E-01 -3.09219141182E-01 +4.26360621667E-03 +2.20363422017E-03 +4.41233241098E-03 +2.33158273248E-03 -1.87678876394E-01 -4.59963896480E-01
4.29000000000E+09 -2.48211438866E-01 -2.93130116755E-01 +4.61485715743E-03 +1.17083621886E-03 +4.85373071800E-03 +1.24475095752E-03 -2.06429132955E-01 -4.45140221700E-01
4.29500000000E+09 -2.59943735814E-01 -2.74686647678E-01 +4.08604535778E-03 +7.09165991371E-04 +4.30272754108E-03 +7.86793020023E-04 -2.25317016976E-01 -4.29273244879E-01
4.30000000000E+09 -2.71013107435E-01 -2.53838196282E-01 +4.35720595944E-03 +4.76321980643E-04 +4.61866026038E-03 +4.87956346017E-04 -2.42004711354E-01 -4.12417206469E-01
4.30500000000E+09 -2.82242288982E-01 -2.33164987268E-01 +4.28059649787E-03 -1.79591012718E-04 +4.50046952435E-03 -2.18166862048E-04 -2.60083442175E-01 -3.95251011637E-01
4.31000000000E+09 -2.94579547271E-01 -2.12994823494E-01 +3.87688351973E-03 +1.24485081282E-04 +4.00043483805E-03 -2.90362223752E-05 -2.77100689996E-01 -3.75780819677E-01
4.31500000000E+09 -3.07723802844E-01 -1.93900394553E-01 +4.64464327105E-03 +3.29070541631E-05 +4.78608683892E-03 -1.18492375141E-04 -2.93616736412E-01 -3.56707632844E-01
4.32000000000E+09 -3.20980933777E-01 -1.75717836882E-01 +5.10014595796E-03 -1.18141936816E-03 +5.26501821254E-03 -1.31641342034E-03 -3.09765614780E-01 -3.36982920448E-01
4.32500000000E+09 -3.32528945395E-01 -1.58282492048E-01 +4.41087535565E-03 -1.89698315172E-03 +4.46141352896E-03 -2.14765285167E-03 -3.24472168516E-01 -3.15772118807E-01
4.33000000000E+09 -3.42355794326E-01 -1.42212984222E-01 +4.51842113778E-03 -1.93338939925E-03 +4.50325405064E-03 -2.15885222257E-03 -3.37526001787E-01 -2.94287287337E-01
4.33500000000E+09 -3.49174179383E-01 -1.25076161736E-01 +4.53507809180E-03 -2.90546345102E-03 +4.44938088688E-03 -3.09199918512E-03 -3.50003867231E-01 -2.72060559130E-01
4.34000000000E+09 -3.51739252109E-01 -1.08734891973E-01 +3.78063254936E-03 -3.57946281977E-03 +3.57563922437E-03 -3.74771999877E-03 -3.62788930313E-01 -2.49712748349E-01
4.34500000000E+09 -3.53341500380E-01 -9.21998756058E-02 +3.11297850943E-03 -3.42200720704E-03 +2.93405849571E-03 -3.43340994768E-03 -3.75221509979E-01 -2.25482701374E-01
4.35000000000E+09 -3.53789351542E-01 -7.33609211987E-02 +3.38206142979E-03 -3.65056443290E-03 +3.23905199339E-03 -3.58755020790E-03 -3.86108079735E-01 -2.02360425282E-01
4.35500000000E+09 -3.54558418981E-01 -5.32201048756E-02 +2.98413820946E-03 -4.22138508058E-03 +2.90710344946E-03 -4.24957250855E-03 -3.96599837314E-01 -1.79797095005E-01
4.36000000000E+09 -3.55714413386E-01 -3.06348834393E-02 +2.57141646084E-03 -4.58594961800E-03 +2.45615148041E-03 -4.50119815689E-03 -4.06555651234E-01 -1.56077159620E-01
4.36500000000E+09 -3.58472377239E-01 -7.53354554926E-03 +2.45729347549E-03 -4.94006232416E-03 +2.39214263961E-03 -4.93550553878E-03 -4.14103507604E-01 -1.30999625808E-01
4.37000000000E+09 -3.62156277897E-01 +1.66639946606E-02 +1.94825500417E-03 -5.57719949589E-03 +1.96571715481E-03 -5.58132609929E-03 -4.20074803313E-01 -1.06297787685E-01
4.37500000000E+09 -3.65526304607E-01 +3.94682287785E-02 +1.21527749711E-03 -6.41232788188E-03 +1.12736194475E-03 -6.35679152929E-03 -4.25667082251E-01 -8.02607773790E-02
4.38000000000E+09 -3.69808055851E-01 +5.90348064055E-02 -1.05937356533E-04 -6.35949724977E-03 -1.21384402000E-04 -6.29270798536E-03 -4.29212738601E-01 -5.45790703606E-02
4.38500000000E+09 -3.73654842995E-01 +7.74018891409E-02 -9.70232558974E-04 -6.06208892215E-03 -9.58785426256E-04 -6.04929476751E-03 -4.32196202542E-01 -3.01255667604E-02
4.39000000000E+09 -3.76029161412E-01 +9.31810338815E-02 -1.65031038214E-03 -5.96082878963E-03 -1.63048702877E-03 -5.97023907635E-03 -4.35607082766E-01 -5.11036027897E-03
4.39500000000E+09 -3.76542849262E-01 +1.07553212774E-01 -2.46173658533E-03 -5.26539084354E-03 -2.38613900139E-03 -5.31526341331E-03 -4.36452615317E-01 +1.89291181311E-02
4.40000000000E+09 -3.74873051458E-01 +1.22394593855E-01 -2.50777555916E-03 -5.23303256432E-03 -2.50184265943E-03 -5.31646687076E-03 -4.37467552291E-01 +4.38714730048E-02
4.40500000000E+09 -3.71074486547E-01 +1.38245956452E-01 -3.51084192716E-03 -5.14011610378E-03 -3.49171373589E-03 -5.24928717298E-03 -4.36607750783E-01 +6.89480546108E-02
4.41000000000E+09 -3.64736592971E-01 +1.54947587584E-01 -3.93461849747E-03 -4.40835297607E-03 -3.96908071023E-03 -4.50238805836E-03 -4.34714772848E-01 +9.39811657436E-02
4.41500000000E+09 -3.58635602575E-01 +1.73253217910E-01 -4.48731042182E-03 -4.04549453334E-03 -4.55633565805E-03 -4.15204204238E-03 -4.32101177045E-01 +1.18174677254E-01
4.42000000000E+09 -3.52435859533E-01 +1.93786879597E-01 -4.81638516685E-03 -3.45792333474E-03 -4.90519192094E-03 -3.50129854182E-03 -4.29975479007E-01 +1.42371753313E-01
4.42500000000E+09 -3.47235844903E-01 +2.15287735162E-01 -5.21735494393E-03 -3.17572801011E-03 -5.42559073962E-03 -3.20919731550E-03 -4.25093917949E-01 +1.67264998628E-01
4.43000000000E+09 -3.42971130101E-01 +2.35889852265E-01 -5.92397108610E-03 -2.49438565803E-03 -6.11464636272E-03 -2.45742343197E-03 -4.19833349779E-01 +1.89801153452E-01
4.43500000000E+09 -3.41055519730E-01 +2.56448249221E-01 -5.96584589450E-03 -1.12257453779E-03 -6.09578355176E-03 -1.04499172447E-03 -4.13682103428E-01 +2.13269121262E-01
4.44000000000E+09 -3.38344665772E-01 +2.75815617189E-01 -5.68358246276E-03 -8.92935098970E-04 -5.78540673655E-03 -7.86224880948E-04 -4.06734394586E-01 +2.36061866595E-01
4.44500000000E+09 -3.34990115502E-01 +2.91069446177E-01 -5.71327307167E-03 +4.08532588607E-05 -5.84982754966E-03 +1.86504184296E-04 -3.99302257697E-01 +2.57974176041E-01
4.45000000000E+09 -3.31981944517E-01 +3.04358063392E-01 -5.34003662300E-03 +3.27412417912E-04 -5.43685663437E-03 +5.47311794390E-04 -3.91466465442E-01 +2.79630528157E-01
4.45500000000E+09 -3.27347510494E-01 +3.16184998025E-01 -5.21294871840E-03 +6.07079921771E-04 -5.31730525569E-03 +8.91773474010E-04 -3.83206986664E-01 +3.00408526183E-01
4.46000000000E+09 -3.21291863638E-01 +3.28079950875E-01 -5.41742691196E-03 +1.10568620546E-03 -5.37871080447E-03 +1.43870636957E-03 -3.72943923291E-01 +3.20432962718E-01
4.46500000000E+09 -3.11876391794E-01 +3.40784718869E-01 -5.24111018329E-03 +1.71371245977E-03 -5.14657331294E-03 +1.92954036562E-03 -3.62834174138E-01 +3.39475936622E-01
4.47000000000E+09 -3.00971900911E-01 +3.54049441236E-01 -5.21766555513E-03 +2.05983366732E-03 -5.06439646802E-03 +2.31709651297E-03 -3.50281979593E-01 +3.59040703301E-01
4.47500000000E+09 -2.88795818486E-01 +3.69748653390E-01 -5.27685143711E-03 +2.86467766438E-03 -5.03736457297E-03 +3.00938866459E-03 -3.38466304484E-01 +3.76635189507E-01
4.48000000000E+09 -2.76320121503E-01 +3.84551313499E-01 -4.88346410542E-03 +3.66870029247E-03 -4.51331441972E-03 +3.78833024692E-03 -3.26742146272E-01 +3.95113504365E-01
4.48500000000E+09 -2.66692264736E-01 +4.01259403950E-01 -4.09989374456E-03 +4.15883824962E-03 -3.80389868665E-03 +4.19061592177E-03 -3.14760532604E-01 +4.11798833300E-01
4.49000000000E+09 -2.57347381761E-01 +4.18318842129E-01 -3.61876057482E-03 +4.48733210496E-03 -3.32825258345E-03 +4.40994625538E-03 -3.02913785848E-01 +4.27858098003E-01
4.49500000000E+09 -2.49568357883E-01 +4.33810495719E-01 -3.19299679966E-03 +4.76574744495E-03 -2.92511758737E-03 +4.64413553578E-03 -2.91239143774E-01 +4.43305201206E-01
4.50000000000E+09 -2.42809994530E-01 +4.47646685471E-01 -2.69158812422E-03 +5.20682737200E-03 -2.51492814830E-03 +5.05456279392E-03 -2.78141915457E-01 +4.58319285346E-01
4.50500000000E+09 -2.36790509244E-01 +4.58821133550E-01 -2.07053619632E-03 +5.28918589107E-03 -1.98474359374E-03 +5.09013229294E-03 -2.64430027257E-01 +4.73313804285E-01
4.51000000000E+09 -2.30118032284E-01 +4.68279870337E-01 -1.76430496640E-03 +5.81691100780E-03 -1.71737494594E-03 +5.65782000713E-03 -2.50498652437E-01 +4.87275405158E-01
4.51500000000E+09 -2.21474383858E-01 +4.75656093768E-01 -7.47047967016E-04 +6.10923804311E-03 -6.63126954361E-04 +5.96557597104E-03 -2.37234302430E-01 +5.01495239291E-01
4.52000000000E+09 -2.11564914830E-01 +4.81982063274E-01 +1.97456718979E-04 +5.83317860955E-03 +2.03722798109E-04 +5.65256071394E-03 -2.23305589760E-01 +5.14983669601E-01
4.52500000000E+09 -1.99209728025E-01 +4.89076513180E-01 +4.53426465511E-04 +5.84938724981E-03 +4.34038406252E-04 +5.67195279000E-03 -2.08839454881E-01 +5.26828032873E-01
4.53000000000E+09 -1.85281001239E-01 +4.96864262612E-01 +1.35989270993E-03 +5.87457782960E-03 +1.29649608253E-03 +5.76072560838E-03 -1.94324758364E-01 +5.37657122929E-01
4.53500000000E+09 -1.69879434242E-01 +5.06385296098E-01 +2.07774066638E-03 +5.31555731008E-03 +2.08295887991E-03 +5.22863460549E-03 -1.79459029997E-01 +5.47819896017E-01
4.54000000000E+09 -1.53802682238E-01 +5.16656353872E-01 +2.58736663793E-03 +5.01767005933E-03 +2.50645031023E-03 +4.96183020895E-03 -1.64537146527E-01 +5.58302990448E-01
4.54500000000E+09 -1.39308864116E-01 +5.27334052391E-01 +3.24368130015E-03 +4.38030375059E-03 +3.19979902206E-03 +4.33942827173E-03 -1.49485472305E-01 +5.68885528235E-01
4.55000000000E+09 -1.26587370637E-01 +5.37700228044E-01 +3.16107934322E-03 +4.02573537334E-03 +3.14118591293E-03 +3.96793480066E-03 -1.34194509398E-01 +5.79112597924E-01
4.55500000000E+09 -1.16395928735E-01 +5.47698783201E-01 +3.80798081663E-03 +3.64262716399E-03 +3.74660089627E-03 +3.63849648703E-03 -1.19429025449E-01 +5.88319789502E-01
4.56000000000E+09 -1.07953039717E-01 +5.57390095874E-01 +3.94004333278E-03 +3.13900041211E-03 +3.92165863999E-03 +3.13784430980E-03 -1.05215476697E-01 +5.96600621872E-01
4.56500000000E+09 -9.98113244755E-02 +5.65347016735E-01 +4.21370643841E-03 +2.63004872436E-03 +4.24387267052E-03 +2.60527878760E-03 -9.00963775823E-02 +6.05146506560E-01
4.57000000000E+09 -9.06262641037E-02 +5.71592213336E-01 +4.22766196543E-03 +2.38014176641E-03 +4.27648280786E-03 +2.26577816710E-03 -7.47268388592E-02 +6.11817185277E-01
