# Hz S RI R 50
! CMT, C1220, 16058040, 17.2.0/1
! Date: 15/08/2018 11:29:08
! Data: Format (Calibration Info)
! Freq                      S11: Re/Im (F2)                       S21: Re/Im (F2)                       S12: Re/Im (F2)                       S22: Re/Im (F2)            
4.00000000000E+09 +6.72739627406E-01 -3.62296318928E-01 +2.84190112995E-03 -9.73217228973E-04 +3.01636570779E-03 -9.00333852402E-04 +7.73710281390E-01 -3.56621499515E-01
4.00500000000E+09 +6.65559467583E-01 -3.69953594246E-01 +2.57710598412E-03 -1.28932916683E-03 +2.70315441492E-03 -1.26335650438E-03 +7.65495054693E-01 -3.67979829145E-01
4.01000000000E+09 +6.57283884168E-01 -3.77479132435E-01 +2.44055135585E-03 -1.29633100976E-03 +2.53814074436E-03 -1.31710688785E-03 +7.56739541191E-01 -3.79340043375E-01
4.01500000000E+09 +6.47993057528E-01 -3.84878712854E-01 +2.53585319307E-03 -1.56009481526E-03 +2.63470772441E-03 -1.51257599734E-03 +7.46842762348E-01 -3.90051091322E-01
4.02000000000E+09 +6.37382811686E-01 -3.93456533192E-01 +2.37656148279E-03 -1.90074754336E-03 +2.50796442485E-03 -1.85786823833E-03 +7.36878797817E-01 -4.00418931948E-01
4.02500000000E+09 +6.25770057665E-01 -4.02206042942E-01 +2.11529217394E-03 -2.22222707330E-03 +2.27145871738E-03 -2.17026215172E-03 +7.26645432561E-01 -4.10462850161E-01
4.03000000000E+09 +6.13826929562E-01 -4.11480513296E-01 +1.90477205313E-03 -2.65252808226E-03 +2.05798182484E-03 -2.61501795731E-03 +7.16409509238E-01 -4.20972230855E-01
4.03500000000E+09 +6.01978149647E-01 -4.21348747090E-01 +1.28618962825E-03 -2.58420732974E-03 +1.46625985730E-03 -2.53765936429E-03 +7.05346347660E-01 -4.32079296820E-01
4.04000000000E+09 +5.90350243399E-01 -4.32054450393E-01 +1.39928569088E-03 -2.21483695188E-03 +1.54875644015E-03 -2.19919174056E-03 +6.94002788025E-01 -4.43065489262E-01
4.04500000000E+09 +5.77708504743E-01 -4.42063464949E-01 +1.76892221773E-03 -2.61189620345E-03 +1.97138959402E-03 -2.67349219130E-03 +6.82038378223E-01 -4.53868912801E-01
4.05000000000E+09 +5.66219152496E-01 -4.50578138029E-01 +1.32721816843E-03 -3.54376441610E-03 +1.55878474071E-03 -3.62216112359E-03 +6.70147538771E-01 -4.63438419088E-01
4.05500000000E+09 +5.54514625975E-01 -4.58657161414E-01 +7.44724433859E-04 -3.55493837897E-03 +8.80634129103E-04 -3.75969285161E-03 +6.57968925075E-01 -4.72867751698E-01
4.06000000000E+09 +5.42249037148E-01 -4.65773747968E-01 +1.89429362181E-04 -3.59322233032E-03 +2.47842930129E-04 -3.81482265323E-03 +6.45815383788E-01 -4.82314925454E-01
4.06500000000E+09 +5.29333900336E-01 -4.72179707193E-01 -2.61548782547E-04 -3.22325712421E-03 -2.39447714124E-04 -3.34009411238E-03 +6.32771272953E-01 -4.91331818040E-01
4.07000000000E+09 +5.15516815141E-01 -4.78634699312E-01 -1.41968482059E-04 -3.13290197431E-03 -6.71733418544E-05 -3.25697582144E-03 +6.19271485325E-01 -5.01253309623E-01
4.07500000000E+09 +5.00250792200E-01 -4.85222829608E-01 -2.83866455046E-04 -3.57535594039E-03 -2.54954142075E-04 -3.66006241837E-03 +6.05361506880E-01 -5.10382180600E-01
4.08000000000E+09 +4.84072556931E-01 -4.90800396273E-01 -9.95121052537E-04 -3.90096055491E-03 -8.39416367585E-04 -3.96762807451E-03 +5.91724173236E-01 -5.19718619610E-01
4.08500000000E+09 +4.68570275153E-01 -4.97759779269E-01 -1.57410737813E-03 -3.38703151772E-03 -1.51878669331E-03 -3.55233782461E-03 +5.77969245080E-01 -5.29213408627E-01
4.09000000000E+09 +4.51730770974E-01 -5.05523825793E-01 -1.78180852016E-03 -3.08663174305E-03 -1.80856651443E-03 -3.23670234821E-03 +5.63474090170E-01 -5.38167321896E-01
4.09500000000E+09 +4.34909382169E-01 -5.12990300596E-01 -1.96998567339E-03 -3.01098707096E-03 -1.96920228403E-03 -3.13998219743E-03 +5.47961790301E-01 -5.45921660237E-01
4.10000000000E+09 +4.17854822482E-01 -5.20009316582E-01 -2.04495406025E-03 -2.91509151206E-03 -2.10224004325E-03 -2.95674991961E-03 +5.31983125850E-01 -5.52973348298E-01
4.10500000000E+09 +4.01234903894E-01 -5.25741118083E-01 -2.42435844982E-03 -3.15954700429E-03 -2.41841855485E-03 -3.25501530990E-03 +5.15978285127E-01 -5.59703231914E-01
4.11000000000E+09 +3.84872859709E-01 -5.29745703906E-01 -3.20791982011E-03 -2.79426132530E-03 -3.23653022351E-03 -2.87798936937E-03 +4.99285286797E-01 -5.67527585019E-01
4.11500000000E+09 +3.69943045910E-01 -5.33026386764E-01 -3.38545292398E-03 -1.92350934171E-03 -3.48345141825E-03 -2.06446538357E-03 +4.81517508343E-01 -5.75439161335E-01
4.12000000000E+09 +3.53187201935E-01 -5.36970809867E-01 -3.25296820645E-03 -1.57683340091E-03 -3.28425903716E-03 -1.69860378156E-03 +4.63724978228E-01 -5.81980608482E-01
4.12500000000E+09 +3.34964424957E-01 -5.38980117598E-01 -3.31088729304E-03 -1.46672887952E-03 -3.36137183510E-03 -1.53488641233E-03 +4.46698669497E-01 -5.87452402849E-01
4.13000000000E+09 +3.16683221206E-01 -5.40615061553E-01 -3.21672916655E-03 -1.40784988555E-03 -3.28669336128E-03 -1.54247386679E-03 +4.29732158106E-01 -5.93080563612E-01
4.13500000000E+09 +2.97593018624E-01 -5.42979549756E-01 -3.44386276655E-03 -1.30881338848E-03 -3.49600698009E-03 -1.45005315262E-03 +4.11922909111E-01 -5.99047293795E-01
4.14000000000E+09 +2.77649852171E-01 -5.45449618235E-01 -3.86468664320E-03 -1.13075230834E-03 -3.96827942532E-03 -1.28853494441E-03 +3.91927288262E-01 -6.04460005071E-01
4.14500000000E+09 +2.58391393866E-01 -5.48435988932E-01 -4.32820198390E-03 -4.16357724955E-04 -4.44031151605E-03 -5.41462394860E-04 +3.71738863226E-01 -6.08706111523E-01
4.15000000000E+09 +2.39282963498E-01 -5.53308188878E-01 -3.75641391408E-03 -1.17811432019E-05 -3.91550974829E-03 -4.03989300480E-05 +3.52681125389E-01 -6.12423958773E-01
4.15500000000E+09 +2.18686428151E-01 -5.56927884519E-01 -3.75122275303E-03 -3.17894237938E-04 -3.86598136753E-03 -3.75743668308E-04 +3.33616830375E-01 -6.16405452912E-01
4.16000000000E+09 +1.99792338015E-01 -5.58795028557E-01 -4.47923203884E-03 -3.09143857550E-04 -4.64467380985E-03 -3.62640789201E-04 +3.14194811699E-01 -6.20077595245E-01
4.16500000000E+09 +1.82172969239E-01 -5.59752701521E-01 -5.12090023119E-03 +7.93581969143E-04 -5.23155884320E-03 +7.08789664789E-04 +2.93489777832E-01 -6.22175208109E-01
4.17000000000E+09 +1.64649215685E-01 -5.58582572093E-01 -5.00013634231E-03 +1.75515140848E-03 -5.15877443762E-03 +1.77637172678E-03 +2.72909488173E-01 -6.22567042655E-01
4.17500000000E+09 +1.47904572891E-01 -5.55779818973E-01 -4.41415836481E-03 +2.63191716048E-03 -4.62846537685E-03 +2.60835828025E-03 +2.52735084255E-01 -6.22767103248E-01
4.18000000000E+09 +1.31305348057E-01 -5.51972771310E-01 -3.35593485439E-03 +2.74521268393E-03 -3.52801391918E-03 +2.82718805567E-03 +2.31849438629E-01 -6.23850019674E-01
4.18500000000E+09 +1.12295636667E-01 -5.48260207138E-01 -3.47076277235E-03 +2.19442840405E-03 -3.58803917354E-03 +2.23347373508E-03 +2.08925137809E-01 -6.24480125647E-01
4.19000000000E+09 +9.22288648309E-02 -5.42413658744E-01 -4.17423577620E-03 +2.51297489341E-03 -4.30206597940E-03 +2.57743681484E-03 +1.86082718459E-01 -6.23306271534E-01
4.19500000000E+09 +7.20723815177E-02 -5.36846780088E-01 -4.39076682170E-03 +3.88742276318E-03 -4.56763953051E-03 +3.98536312648E-03 +1.63644023920E-01 -6.20961590513E-01
4.20000000000E+09 +5.05597832388E-02 -5.32080539301E-01 -3.33339523824E-03 +4.46680296277E-03 -3.47553864346E-03 +4.58396370443E-03 +1.41835240657E-01 -6.18068168265E-01
4.20500000000E+09 +2.91956740556E-02 -5.26877815142E-01 -2.89051061696E-03 +4.71825156461E-03 -3.01114430930E-03 +4.87111922933E-03 +1.19734100552E-01 -6.14302172746E-01
4.21000000000E+09 +8.63546183250E-03 -5.22076139845E-01 -2.36718653567E-03 +5.06410252185E-03 -2.44699364851E-03 +5.17369928016E-03 +9.67562443743E-02 -6.10082039600E-01
4.21500000000E+09 -1.10198184113E-02 -5.17291012689E-01 -2.01208983389E-03 +5.43533013524E-03 -2.10376288670E-03 +5.58688350623E-03 +7.38378842644E-02 -6.04823291164E-01
4.22000000000E+09 -2.93157052494E-02 -5.11291992760E-01 -1.16206672357E-03 +5.87838826092E-03 -1.19350945828E-03 +6.01274285718E-03 +5.18440737441E-02 -5.98717870144E-01
4.22500000000E+09 -4.60394031912E-02 -5.04092027247E-01 -3.66065497766E-04 +5.88556557853E-03 -4.47428366552E-04 +6.01352224740E-03 +3.02696756366E-02 -5.92242810841E-01
4.23000000000E+09 -6.18853608905E-02 -4.96798460017E-01 +7.58777543255E-04 +5.14903224009E-03 +6.81025163216E-04 +5.33566526572E-03 +1.00968275071E-02 -5.85026034946E-01
4.23500000000E+09 -7.92000643593E-02 -4.86899289041E-01 +8.87238525423E-05 +4.67311179141E-03 +8.69185947258E-05 +4.79336365151E-03 -1.17111349013E-02 -5.78226964205E-01
4.24000000000E+09 -9.67071838879E-02 -4.74837285063E-01 -2.18164233923E-04 +5.44264326602E-03 -2.11570843226E-04 +5.59215016299E-03 -3.44099190486E-02 -5.69328957564E-01
4.24500000000E+09 -1.14718849032E-01 -4.61566375281E-01 +6.23317271579E-04 +6.47334974204E-03 +6.16884727868E-04 +6.60618834307E-03 -5.68093747541E-02 -5.58050895208E-01
4.25000000000E+09 -1.34113874444E-01 -4.47295488931E-01 +1.72628383693E-03 +6.63487468169E-03 +1.73233344852E-03 +6.78667755481E-03 -7.70318410902E-02 -5.46892056450E-01
4.25500000000E+09 -1.53714049565E-01 -4.33373645330E-01 +3.25450316466E-03 +6.60988136450E-03 +3.36457334592E-03 +6.74708835571E-03 -9.72020930159E-02 -5.35676716911E-01
4.26000000000E+09 -1.73563668678E-01 -4.20531039057E-01 +4.59630924040E-03 +5.42838614207E-03 +4.69852933537E-03 +5.51938817441E-03 -1.17776662916E-01 -5.23984938276E-01
4.26500000000E+09 -1.94866748357E-01 -4.09272804232E-01 +4.31034346124E-03 +4.32756353464E-03 +4.47220714689E-03 +4.36191900477E-03 -1.38266266407E-01 -5.10576190180E-01
4.27000000000E+09 -2.15300388062E-01 -3.96685635418E-01 +3.94480344749E-03 +4.18773646104E-03 +4.09916458311E-03 +4.23398447802E-03 -1.59267608136E-01 -4.96099587608E-01
4.27500000000E+09 -2.33820022548E-01 -3.84753448718E-01 +4.82570074942E-03 +4.46776795859E-03 +4.90984467722E-03 +4.55845698492E-03 -1.78949169920E-01 -4.79725344501E-01
4.28000000000E+09 -2.50416798728E-01 -3.71839714192E-01 +5.45376085386E-03 +3.47104163333E-03 +5.59461017445E-03 +3.53002051702E-03 -1.97616310434E-01 -4.65797983876E-01
4.28500000000E+09 -2.64230143617E-01 -3.58111530554E-01 +5.58011574741E-03 +3.59741095790E-03 +5.70039957785E-03 +3.58080453572E-03 -2.19469077773E-01 -4.50340426894E-01
4.29000000000E+09 -2.75998013123E-01 -3.43546712996E-01 +6.64593667318E-03 +2.79278874310E-03 +6.77303010537E-03 +2.80833862737E-03 -2.39091262674E-01 -4.31846037793E-01
4.29500000000E+09 -2.87039678393E-01 -3.28935675270E-01 +6.27471887829E-03 +1.95028236209E-03 +6.44686667660E-03 +1.93826560334E-03 -2.55497565167E-01 -4.12153528736E-01
4.30000000000E+09 -2.99327224584E-01 -3.12402867815E-01 +6.92866119095E-03 +2.18808093096E-03 +7.07812191909E-03 +2.22000099875E-03 -2.70547208797E-01 -3.94220853781E-01
4.30500000000E+09 -3.12143270478E-01 -2.94076268321E-01 +8.15309661034E-03 +8.55393567796E-04 +8.31538326364E-03 +7.88842566240E-04 -2.85439321888E-01 -3.75411403244E-01
4.31000000000E+09 -3.25329815280E-01 -2.74072450732E-01 +7.99849306815E-03 -1.14625925767E-03 +8.13406981551E-03 -1.25332357574E-03 -3.00540688749E-01 -3.56073995838E-01
4.31500000000E+09 -3.39057558259E-01 -2.54037918802E-01 +6.94287086128E-03 -1.62371088960E-03 +7.10276379060E-03 -1.70013701141E-03 -3.16223755010E-01 -3.35407831532E-01
4.32000000000E+09 -3.52133324633E-01 -2.33107501232E-01 +6.71867818334E-03 -2.28633769796E-03 +6.79638594652E-03 -2.41347373957E-03 -3.30111768087E-01 -3.13291306109E-01
4.32500000000E+09 -3.63397463549E-01 -2.13890976735E-01 +5.23585517684E-03 -2.70967712792E-03 +5.79584507620E-03 -2.39826228289E-03 -3.42329128405E-01 -2.91470702088E-01
4.33000000000E+09 -3.73820546109E-01 -1.95767198688E-01 +6.74291172695E-03 -1.92755183474E-03 +6.82778254349E-03 -2.05617805187E-03 -3.53814309926E-01 -2.71067289199E-01
4.33500000000E+09 -3.83121864354E-01 -1.78200179531E-01 +7.61190706730E-03 -3.38295574256E-03 +7.62159425264E-03 -3.52431907916E-03 -3.65746273928E-01 -2.47869669219E-01
4.34000000000E+09 -3.90162312251E-01 -1.60316735082E-01 +6.87202342239E-03 -5.27087394176E-03 +6.85465398142E-03 -5.41378767737E-03 -3.76581881558E-01 -2.24084803028E-01
4.34500000000E+09 -3.96566380727E-01 -1.42882217899E-01 +5.89884334910E-03 -5.92188635698E-03 +5.79037851024E-03 -6.00550918275E-03 -3.85841870237E-01 -1.98739795498E-01
4.35000000000E+09 -4.02353807211E-01 -1.22201915404E-01 +5.27006676338E-03 -6.71101620884E-03 +5.27161180149E-03 -6.79875968212E-03 -3.94526183996E-01 -1.75076560789E-01
4.35500000000E+09 -4.05718664345E-01 -9.91537820185E-02 +4.00492384835E-03 -7.31425127397E-03 +4.00521595280E-03 -7.40103878713E-03 -4.03223603801E-01 -1.51985276646E-01
4.36000000000E+09 -4.07949168812E-01 -7.59698533808E-02 +3.68145019729E-03 -7.37048580749E-03 +3.60796925323E-03 -7.49107952268E-03 -4.11371034840E-01 -1.29235144930E-01
4.36500000000E+09 -4.10570204720E-01 -5.31119461827E-02 +2.42295815121E-03 -8.31880201948E-03 +2.28532084374E-03 -8.48327603619E-03 -4.18338251167E-01 -1.04306064061E-01
4.37000000000E+09 -4.15257127683E-01 -3.02209768189E-02 +1.09665466880E-03 -7.80678239565E-03 +9.43198620799E-04 -7.98210488852E-03 -4.22601135491E-01 -7.87108942077E-02
4.37500000000E+09 -4.20575383117E-01 -7.31653105902E-03 +6.82378460168E-04 -7.40345704465E-03 +5.54655960325E-04 -7.46148916068E-03 -4.23509645268E-01 -5.31924774987E-02
4.38000000000E+09 -4.26244340711E-01 +1.54934829605E-02 +6.76447207193E-04 -7.66124041275E-03 +5.42537202435E-04 -7.81908538638E-03 -4.26657956611E-01 -3.06957046082E-02
4.38500000000E+09 -4.30562348435E-01 +3.69878898189E-02 -2.70034250522E-04 -8.46551390609E-03 -4.15882990344E-04 -8.61033131659E-03 -4.29914350867E-01 -5.33183827842E-03
4.39000000000E+09 -4.33359493152E-01 +5.66335050206E-02 -1.12668359557E-03 -8.65089518796E-03 -1.37336373368E-03 -8.70219876481E-03 -4.32264762215E-01 +2.16750772972E-02
4.39500000000E+09 -4.34568992810E-01 +7.45871309210E-02 -2.98870895851E-03 -8.84966950926E-03 -3.23081545766E-03 -8.85921774299E-03 -4.30842902643E-01 +4.78301204643E-02
4.40000000000E+09 -4.33983598356E-01 +9.29743120815E-02 -4.58280137000E-03 -7.88467562019E-03 -4.76264342737E-03 -7.86120774159E-03 -4.28224868617E-01 +7.12150042865E-02
4.40500000000E+09 -4.31384758923E-01 +1.10518418950E-01 -5.24607064534E-03 -6.66170004430E-03 -5.36739646931E-03 -6.59176056440E-03 -4.26012178078E-01 +9.38205593575E-02
4.41000000000E+09 -4.28766713557E-01 +1.29401389576E-01 -5.09112029845E-03 -5.57004215847E-03 -5.12257267043E-03 -5.45598076677E-03 -4.24627874267E-01 +1.16172017464E-01
4.41500000000E+09 -4.24443359274E-01 +1.50954513209E-01 -5.41646436223E-03 -5.60400135618E-03 -5.52826271595E-03 -5.47636979033E-03 -4.21601976723E-01 +1.42042574434E-01
4.42000000000E+09 -4.19090049837E-01 +1.73263334101E-01 -5.89279836776E-03 -5.37890031172E-03 -6.00308827406E-03 -5.23695544892E-03 -4.15094074756E-01 +1.67125208737E-01
4.42500000000E+09 -4.14690725790E-01 +1.95741074528E-01 -7.02846548267E-03 -4.96862841799E-03 -7.09586438143E-03 -4.75371934807E-03 -4.08084003864E-01 +1.88916946212E-01
4.43000000000E+09 -4.11068198657E-01 +2.18303211926E-01 -7.58601171737E-03 -3.69569090407E-03 -7.53307601969E-03 -3.48224707033E-03 -4.04302769716E-01 +2.10872645298E-01
4.43500000000E+09 -4.07721071006E-01 +2.39975906449E-01 -7.67014262249E-03 -2.61236057099E-03 -7.54168404058E-03 -2.43059369631E-03 -3.98820264970E-01 +2.34700867838E-01
4.44000000000E+09 -4.04888732252E-01 +2.59426197782E-01 -7.64221798389E-03 -2.03484074265E-03 -7.64020461717E-03 -1.91241321472E-03 -3.90369207540E-01 +2.58143063932E-01
4.44500000000E+09 -4.02279157557E-01 +2.77005398766E-01 -8.10139195712E-03 -1.37142738854E-03 -8.07729497867E-03 -1.27402721686E-03 -3.79942905101E-01 +2.79189701575E-01
4.45000000000E+09 -3.98475627142E-01 +2.92415774066E-01 -8.34308566615E-03 -5.10054124158E-04 -8.31208850909E-03 -3.81506935470E-04 -3.70003337670E-01 +2.98085256435E-01
4.45500000000E+09 -3.93781731900E-01 +3.06103948791E-01 -8.86942247510E-03 +7.21185293107E-04 -8.81382635247E-03 +9.60963733992E-04 -3.60443819099E-01 +3.16623985909E-01
4.46000000000E+09 -3.88105960623E-01 +3.19960541628E-01 -7.87945457365E-03 +2.54478288931E-03 -7.81834036091E-03 +2.74694595058E-03 -3.51832071576E-01 +3.36930526708E-01
4.46500000000E+09 -3.78882302557E-01 +3.35381650501E-01 -6.82755649238E-03 +2.56779198399E-03 -6.71588158891E-03 +2.74509814613E-03 -3.39111686939E-01 +3.56181566815E-01
4.47000000000E+09 -3.67362838422E-01 +3.50778551706E-01 -6.87728792073E-03 +2.46804469544E-03 -6.76921329073E-03 +2.66331523387E-03 -3.26862493948E-01 +3.74645497759E-01
4.47500000000E+09 -3.54334735421E-01 +3.67236660724E-01 -7.35458093374E-03 +3.55514264051E-03 -7.15671486687E-03 +3.73098356386E-03 -3.14238261292E-01 +3.91445758876E-01
4.48000000000E+09 -3.41480495333E-01 +3.84518285480E-01 -6.74034639515E-03 +4.60809393459E-03 -6.51865260905E-03 +4.67686167323E-03 -3.02990647659E-01 +4.09033483240E-01
4.48500000000E+09 -3.29593560512E-01 +4.02093276483E-01 -6.09638733758E-03 +5.50868242702E-03 -5.86160460235E-03 +5.54338120529E-03 -2.90189206800E-01 +4.26201118293E-01
4.49000000000E+09 -3.19379119360E-01 +4.19835175054E-01 -4.95632020652E-03 +6.59058605784E-03 -4.68808078245E-03 +6.49811963685E-03 -2.77090181220E-01 +4.42497592256E-01
4.49500000000E+09 -3.11163919805E-01 +4.37240675938E-01 -3.97267877407E-03 +6.42922741043E-03 -3.77845188213E-03 +6.32117227647E-03 -2.62210474715E-01 +4.57020637820E-01
4.50000000000E+09 -3.03741553030E-01 +4.53413593800E-01 -3.53716919397E-03 +6.64246722656E-03 -3.39517479267E-03 +6.52044997874E-03 -2.48231110461E-01 +4.70632387380E-01
4.50500000000E+09 -2.97666681960E-01 +4.67728855499E-01 -2.86214565467E-03 +7.36526736567E-03 -2.71138938246E-03 +7.23071120728E-03 -2.34307444218E-01 +4.83027827541E-01
4.51000000000E+09 -2.90169649735E-01 +4.80045918104E-01 -1.27796267013E-03 +7.52275642889E-03 -1.17424522736E-03 +7.37942283533E-03 -2.21966831437E-01 +4.97523393502E-01
4.51500000000E+09 -2.81467251453E-01 +4.89971257994E-01 -6.28296473899E-04 +7.04809120905E-03 -5.04669084467E-04 +6.96263469616E-03 -2.07333331742E-01 +5.11226892766E-01
4.52000000000E+09 -2.71153305005E-01 +4.98177402098E-01 +2.15794683419E-04 +6.93645234103E-03 +3.73004853054E-04 +6.76426304636E-03 -1.92826394807E-01 +5.23719202249E-01
4.52500000000E+09 -2.59869647810E-01 +5.05920286612E-01 +8.06310963258E-04 +6.11548396460E-03 +9.02675524782E-04 +5.99837815746E-03 -1.77880009142E-01 +5.34272116713E-01
4.53000000000E+09 -2.46144611101E-01 +5.14802997833E-01 +8.23076497012E-04 +6.26815465801E-03 +9.09495004342E-04 +6.10939612602E-03 -1.63839176024E-01 +5.44835220841E-01
4.53500000000E+09 -2.30544681045E-01 +5.24786944558E-01 +1.23907456418E-03 +6.49222409280E-03 +1.36264563721E-03 +6.33376505565E-03 -1.48606644226E-01 +5.54911670018E-01
4.54000000000E+09 -2.14051750296E-01 +5.36226873916E-01 +2.92650099590E-03 +6.60108781253E-03 +2.98157014933E-03 +6.32317327014E-03 -1.33013156669E-01 +5.66254371111E-01
4.54500000000E+09 -1.97355866217E-01 +5.48190288670E-01 +3.75531271137E-03 +5.20310133779E-03 +3.75221179383E-03 +5.02665638680E-03 -1.15378430061E-01 +5.75022837494E-01
4.55000000000E+09 -1.81167286029E-01 +5.60007280007E-01 +3.73958047680E-03 +4.21248753077E-03 +3.74576523594E-03 +4.02456244619E-03 -9.93527019586E-02 +5.83298987165E-01
4.55500000000E+09 -1.67564931413E-01 +5.71246923714E-01 +3.69464767224E-03 +3.34172021432E-03 +3.62688749712E-03 +3.21184762112E-03 -8.46720601309E-02 +5.90272904341E-01
4.56000000000E+09 -1.55499245015E-01 +5.82265419902E-01 +3.05289433097E-03 +3.24838974780E-03 +2.98377639082E-03 +3.09871776097E-03 -7.14956450379E-02 +5.99411333185E-01
4.56500000000E+09 -1.45009735266E-01 +5.91986931433E-01 +3.13513218964E-03 +3.48425794475E-03 +3.13566896969E-03 +3.33606033921E-03 -5.58183621242E-02 +6.07860199525E-01
4.57000000000E+09 -1.35140447522E-01 +6.00379342861E-01 +3.75480453786E-03 +3.67717595949E-03 +3.76153551682E-03 +3.46726320976E-03 -3.97284281702E-02 +6.14465039012E-01
