# Hz S RI R 50
! CMT, C1220, 16058040, 17.2.0/1
! Date: 15/08/2018 12:42:20
! Data: Format (Calibration Info)
! Freq                      S11: Re/Im (F2)                       S21: Re/Im (F2)                       S12: Re/Im (F2)                       S22: Re/Im (F2)            
4.00000000000E+09 +6.58416780442E-01 -3.57376152089E-01 +1.23696255062E-03 -1.08658884110E-03 +1.35609831265E-03 -1.06004354641E-03 +7.87411661157E-01 -3.10915227374E-01
4.00500000000E+09 +6.50120181363E-01 -3.62916386196E-01 +9.93565389365E-04 -1.32100945788E-03 +1.04012736034E-03 -1.34229441454E-03 +7.79180664018E-01 -3.22338823325E-01
4.01000000000E+09 +6.41278610786E-01 -3.68584404285E-01 +6.69690839664E-04 -1.52805864728E-03 +7.33177269509E-04 -1.52373203725E-03 +7.70787562668E-01 -3.34371224897E-01
4.01500000000E+09 +6.31312998537E-01 -3.75069791940E-01 +3.54842577484E-04 -1.31795830833E-03 +4.21146278830E-04 -1.31811718605E-03 +7.62379172931E-01 -3.45615738045E-01
4.02000000000E+09 +6.21309244310E-01 -3.82221628684E-01 +3.98301381370E-04 -1.26983696200E-03 +4.61081379696E-04 -1.26911801122E-03 +7.53639068406E-01 -3.56452937432E-01
4.02500000000E+09 +6.11035313387E-01 -3.91291626131E-01 +3.16797956971E-04 -1.29540783048E-03 +4.60565331871E-04 -1.28268472158E-03 +7.44426865889E-01 -3.67135810877E-01
4.03000000000E+09 +6.00016953056E-01 -4.01898714520E-01 +2.43983510402E-04 -1.39863650856E-03 +3.29825454728E-04 -1.43032681326E-03 +7.34262475994E-01 -3.77907768748E-01
4.03500000000E+09 +5.88263443391E-01 -4.12252482356E-01 +6.24925215729E-05 -1.46639135012E-03 +1.44910376635E-04 -1.51501432569E-03 +7.23269758648E-01 -3.89079290661E-01
4.04000000000E+09 +5.77103442337E-01 -4.22227551802E-01 -9.50570646858E-05 -1.40357745712E-03 -3.49795406088E-05 -1.47659292733E-03 +7.12337314311E-01 -4.00372772300E-01
4.04500000000E+09 +5.66198003075E-01 -4.32090414398E-01 -1.49037543781E-04 -1.34650804739E-03 -1.36965386586E-04 -1.35753741202E-03 +7.01432222940E-01 -4.11341823786E-01
4.05000000000E+09 +5.54486725799E-01 -4.40021662836E-01 -2.03891454439E-04 -1.37660108155E-03 -1.82085005825E-04 -1.46699129981E-03 +6.91113333572E-01 -4.22031332648E-01
4.05500000000E+09 +5.43111181574E-01 -4.46056153641E-01 -1.68350433074E-04 -1.38836795777E-03 -1.51598569551E-04 -1.49227462746E-03 +6.79799692604E-01 -4.32172843518E-01
4.06000000000E+09 +5.31362890476E-01 -4.51314720690E-01 -4.93507398906E-04 -1.52571055222E-03 -4.86335678347E-04 -1.59685428954E-03 +6.68617764442E-01 -4.41456231381E-01
4.06500000000E+09 +5.18270440722E-01 -4.55372302380E-01 -6.53332721686E-04 -1.25117028419E-03 -6.85022508132E-04 -1.31203410043E-03 +6.56447735957E-01 -4.51393493532E-01
4.07000000000E+09 +5.05070153913E-01 -4.59516695598E-01 -5.96958909610E-04 -1.24200692989E-03 -5.26411563152E-04 -1.24665900857E-03 +6.43304137604E-01 -4.61755810145E-01
4.07500000000E+09 +4.90474852044E-01 -4.64451001409E-01 -7.18116312353E-04 -1.43685695125E-03 -6.99543451835E-04 -1.43651514660E-03 +6.29589036352E-01 -4.72511737595E-01
4.08000000000E+09 +4.74959646198E-01 -4.69614768983E-01 -1.05971724490E-03 -1.31053592221E-03 -9.94078289285E-04 -1.37093818904E-03 +6.15918392031E-01 -4.82604649628E-01
4.08500000000E+09 +4.58909510936E-01 -4.76160590970E-01 -1.00307570534E-03 -1.26251687628E-03 -1.05742360792E-03 -1.28804243433E-03 +6.02533054393E-01 -4.92709818763E-01
4.09000000000E+09 +4.42027730937E-01 -4.82800185546E-01 -1.36831817496E-03 -1.26920011613E-03 -1.41271295621E-03 -1.38253063373E-03 +5.88573484056E-01 -5.01573874068E-01
4.09500000000E+09 +4.25533007543E-01 -4.89128904219E-01 -1.65048926179E-03 -8.79641900581E-04 -1.66185529067E-03 -9.22105458352E-04 +5.74113666146E-01 -5.09857820352E-01
4.10000000000E+09 +4.08904625784E-01 -4.95480914417E-01 -1.42236447441E-03 -5.71764154426E-04 -1.49210884263E-03 -5.72021999770E-04 +5.58465277010E-01 -5.17534621907E-01
4.10500000000E+09 +3.92117566258E-01 -5.00123963328E-01 -1.37846182339E-03 -7.13612383679E-04 -1.37920465997E-03 -7.48749460545E-04 +5.42963229653E-01 -5.25545700093E-01
4.11000000000E+09 +3.75838471001E-01 -5.02303213434E-01 -1.76824624063E-03 -5.54891213086E-04 -1.80794215469E-03 -5.89944871008E-04 +5.26590307138E-01 -5.34303972008E-01
4.11500000000E+09 +3.60704172674E-01 -5.03866835241E-01 -1.59709931725E-03 -1.73302882357E-04 -1.59358546641E-03 -2.19832969732E-04 +5.10215258915E-01 -5.42318950822E-01
4.12000000000E+09 +3.44851885706E-01 -5.04819123584E-01 -1.59654177575E-03 -2.24427581937E-04 -1.64603080548E-03 -2.18718155580E-04 +4.93919205390E-01 -5.50551614500E-01
4.12500000000E+09 +3.28127435080E-01 -5.05818908022E-01 -1.62753033632E-03 -5.68080743577E-05 -1.59253570041E-03 -1.16447568705E-04 +4.76489563932E-01 -5.57183784918E-01
4.13000000000E+09 +3.10463926874E-01 -5.06742552072E-01 -1.56973495578E-03 +1.13918823776E-04 -1.65689032714E-03 +8.03504370143E-05 +4.59085575079E-01 -5.63167329295E-01
4.13500000000E+09 +2.91920603168E-01 -5.09113547045E-01 -1.35191940665E-03 +2.46694763926E-04 -1.37198824714E-03 +1.65378506256E-04 +4.40811902169E-01 -5.68594228605E-01
4.14000000000E+09 +2.71833575700E-01 -5.11976263645E-01 -1.53350466540E-03 -4.94601419102E-05 -1.62658217865E-03 -1.21369695867E-04 +4.22574322821E-01 -5.74614136295E-01
4.14500000000E+09 +2.52101956726E-01 -5.14663468879E-01 -1.93625421930E-03 +2.26328840860E-04 -2.08425404532E-03 +1.49656534959E-04 +4.03281111428E-01 -5.80754927542E-01
4.15000000000E+09 +2.32707444366E-01 -5.18464066088E-01 -1.79106633383E-03 +7.43032710285E-04 -1.84511006094E-03 +7.35703169732E-04 +3.85111143531E-01 -5.85911419682E-01
4.15500000000E+09 +2.12921933072E-01 -5.21572837852E-01 -1.62149005545E-03 +8.85353928343E-04 -1.64230456861E-03 +8.96849398678E-04 +3.66699107381E-01 -5.91059424916E-01
4.16000000000E+09 +1.94264422053E-01 -5.22169335285E-01 -1.53187385168E-03 +9.44452907019E-04 -1.54233400923E-03 +9.58196334347E-04 +3.47414987322E-01 -5.94685727798E-01
4.16500000000E+09 +1.77469325883E-01 -5.22281409711E-01 -1.37052355182E-03 +9.83489034114E-04 -1.41949455171E-03 +8.77323336968E-04 +3.27724959167E-01 -5.97411961909E-01
4.17000000000E+09 +1.60518645672E-01 -5.20383384024E-01 -1.37814827581E-03 +1.10290393788E-03 -1.50445656991E-03 +1.08249107562E-03 +3.07128722435E-01 -5.99371902724E-01
4.17500000000E+09 +1.44381414310E-01 -5.16461408755E-01 -1.29113610558E-03 +1.01820418301E-03 -1.37605617035E-03 +1.01627493210E-03 +2.85920064480E-01 -6.00959403033E-01
4.18000000000E+09 +1.27641509168E-01 -5.12189840415E-01 -1.44949438016E-03 +1.53108600612E-03 -1.47626117334E-03 +1.52035938500E-03 +2.65127169189E-01 -6.02228864001E-01
4.18500000000E+09 +1.10457819727E-01 -5.06706185461E-01 -9.80085693299E-04 +1.51820432666E-03 -1.04038973992E-03 +1.50890796798E-03 +2.44305213996E-01 -6.04080825594E-01
4.19000000000E+09 +9.20851277483E-02 -5.01531306591E-01 -1.11983479835E-03 +1.46477203345E-03 -1.19073333817E-03 +1.48698398155E-03 +2.22499588262E-01 -6.04146263401E-01
4.19500000000E+09 +7.31675119263E-02 -4.96143721907E-01 -1.16557954150E-03 +1.79626998472E-03 -1.29523381438E-03 +1.79837482116E-03 +2.01541722392E-01 -6.02508134610E-01
4.20000000000E+09 +5.42496417416E-02 -4.91812145189E-01 -7.70012237337E-04 +2.24179971142E-03 -8.60750576263E-04 +2.30719311227E-03 +1.79945763919E-01 -6.00528633571E-01
4.20500000000E+09 +3.48417518133E-02 -4.87751586419E-01 -2.46765085188E-04 +2.04965734694E-03 -2.29718170504E-04 +2.12335705213E-03 +1.58574795606E-01 -5.97252004864E-01
4.21000000000E+09 +1.63135787229E-02 -4.83544889566E-01 -3.53015049470E-04 +1.65411185985E-03 -4.01417496883E-04 +1.71545807088E-03 +1.36768606400E-01 -5.95705642673E-01
4.21500000000E+09 -1.59506595046E-03 -4.78200698974E-01 -3.05599476249E-04 +2.02583003175E-03 -3.10217157536E-04 +2.12791822659E-03 +1.13748491022E-01 -5.93342976791E-01
4.22000000000E+09 -1.80698238293E-02 -4.71019629960E-01 +6.00492959408E-05 +1.95617109220E-03 +1.17446818333E-04 +2.00904671550E-03 +9.15889051296E-02 -5.89586685752E-01
4.22500000000E+09 -3.34232286906E-02 -4.62281989574E-01 -1.72893434025E-04 +1.70617220085E-03 -1.55049414384E-04 +1.78200265909E-03 +6.99931066251E-02 -5.85138459713E-01
4.23000000000E+09 -4.78848354170E-02 -4.51234953272E-01 -6.01300587489E-05 +2.20615229732E-03 -7.54725531001E-05 +2.26705655870E-03 +4.83841123853E-02 -5.78742724992E-01
4.23500000000E+09 -6.17982797843E-02 -4.39892816998E-01 +2.05249175643E-04 +2.29977382747E-03 +1.48472007120E-04 +2.27998835605E-03 +2.69016648209E-02 -5.71687390711E-01
4.24000000000E+09 -7.78190881389E-02 -4.27770249258E-01 +4.76407693410E-04 +2.40853250257E-03 +4.80628104499E-04 +2.47033690022E-03 +5.09493518778E-03 -5.63339515349E-01
4.24500000000E+09 -9.56206377080E-02 -4.14740846753E-01 +8.92618973999E-04 +2.33887799366E-03 +9.10903922666E-04 +2.40762927551E-03 -1.62568490334E-02 -5.55150202498E-01
4.25000000000E+09 -1.14931261364E-01 -4.01364533741E-01 +9.22301414306E-04 +2.30371974877E-03 +9.73259217375E-04 +2.30578189468E-03 -3.78752567145E-02 -5.46662670198E-01
4.25500000000E+09 -1.34816366176E-01 -3.88402963561E-01 +1.41584465302E-03 +2.34954210435E-03 +1.44022227616E-03 +2.34054961563E-03 -5.87583439255E-02 -5.38072517331E-01
4.26000000000E+09 -1.55533289606E-01 -3.76261846550E-01 +1.60854389587E-03 +1.95571006822E-03 +1.67877322466E-03 +1.95207467024E-03 -7.99359028634E-02 -5.28045486057E-01
4.26500000000E+09 -1.74923235255E-01 -3.63824882250E-01 +1.36108349934E-03 +2.06172129802E-03 +1.40004658038E-03 +2.08266024482E-03 -1.00676794529E-01 -5.16686922356E-01
4.27000000000E+09 -1.92427220605E-01 -3.52270073156E-01 +2.01130835921E-03 +2.17348505315E-03 +2.07335400237E-03 +2.18166090688E-03 -1.22239870506E-01 -5.03727122213E-01
4.27500000000E+09 -2.08704880076E-01 -3.40478010694E-01 +2.24184230935E-03 +1.77980111525E-03 +2.30697654746E-03 +1.79418112628E-03 -1.43055390614E-01 -4.89692811111E-01
4.28000000000E+09 -2.22116241469E-01 -3.27230530721E-01 +2.42247309563E-03 +1.78385545550E-03 +2.43058434831E-03 +1.82959037610E-03 -1.63647353066E-01 -4.75956256066E-01
4.28500000000E+09 -2.34065486863E-01 -3.12711381436E-01 +2.92092465322E-03 +1.67443079058E-03 +2.95298834342E-03 +1.70404084715E-03 -1.84496640549E-01 -4.61337907204E-01
4.29000000000E+09 -2.44721111804E-01 -2.96926171591E-01 +3.32747143866E-03 +7.76501903728E-04 +3.38682250318E-03 +7.46995806349E-04 -2.03247397958E-01 -4.46578764141E-01
4.29500000000E+09 -2.56444416968E-01 -2.79193580022E-01 +2.77800007089E-03 +5.36569289028E-04 +2.78886835913E-03 +5.06455441909E-04 -2.21863382844E-01 -4.30848292540E-01
4.30000000000E+09 -2.67832034134E-01 -2.58800664356E-01 +3.18543283745E-03 +5.38034517761E-04 +3.16485776920E-03 +5.04673790513E-04 -2.38728762801E-01 -4.14289261853E-01
4.30500000000E+09 -2.79386275148E-01 -2.38383186289E-01 +3.19819021870E-03 -1.68099296235E-04 +3.32037709633E-03 -1.45531948894E-04 -2.56882315822E-01 -3.97370025139E-01
4.31000000000E+09 -2.92028148026E-01 -2.18132533915E-01 +2.70418171843E-03 +5.74964127675E-05 +2.72891250492E-03 -1.36302101638E-05 -2.73953145135E-01 -3.78116407193E-01
4.31500000000E+09 -3.05159133541E-01 -1.99035302157E-01 +3.44630407192E-03 +7.19430465774E-05 +3.49812558170E-03 +3.39095259321E-05 -2.90644272643E-01 -3.59209403692E-01
4.32000000000E+09 -3.18713620592E-01 -1.81143104832E-01 +3.87249416294E-03 -8.09750360852E-04 +3.92092764285E-03 -8.99076503983E-04 -3.06747890939E-01 -3.39452461214E-01
4.32500000000E+09 -3.30721196220E-01 -1.63809603444E-01 +3.21341398587E-03 -1.52539031367E-03 +3.24527091146E-03 -1.57060341380E-03 -3.21460478347E-01 -3.18497388138E-01
4.33000000000E+09 -3.40691513271E-01 -1.48101674619E-01 +3.28304954062E-03 -1.36101147396E-03 +3.37703158342E-03 -1.43182579750E-03 -3.34710491198E-01 -2.97161600906E-01
4.33500000000E+09 -3.48232503099E-01 -1.31356637509E-01 +3.40814067939E-03 -2.18332826164E-03 +3.42394811446E-03 -2.20938236067E-03 -3.47423770040E-01 -2.74996445732E-01
4.34000000000E+09 -3.51732381032E-01 -1.15226588544E-01 +2.73055020053E-03 -2.88495567776E-03 +2.72348934882E-03 -2.95744621503E-03 -3.59944539151E-01 -2.52617457879E-01
4.34500000000E+09 -3.54162769179E-01 -9.85015443025E-02 +2.10713875239E-03 -2.45241966102E-03 +2.11691860143E-03 -2.49354519841E-03 -3.72427197087E-01 -2.28758645934E-01
4.35000000000E+09 -3.55008123550E-01 -7.96737333031E-02 +2.53734039360E-03 -2.61321857360E-03 +2.51777702726E-03 -2.64670382047E-03 -3.83304594455E-01 -2.05860458207E-01
4.35500000000E+09 -3.56100613016E-01 -5.96622999292E-02 +2.17170957174E-03 -3.13335935341E-03 +2.20960031286E-03 -3.11625972637E-03 -3.93990849113E-01 -1.83596128529E-01
4.36000000000E+09 -3.57864457182E-01 -3.73118056348E-02 +1.94438798317E-03 -3.16714754909E-03 +1.97658747527E-03 -3.25932546695E-03 -4.04288525846E-01 -1.60310449295E-01
4.36500000000E+09 -3.60828766741E-01 -1.42490833387E-02 +2.04266273909E-03 -3.59149233965E-03 +2.01007572228E-03 -3.56531193354E-03 -4.12230051522E-01 -1.35294693771E-01
4.37000000000E+09 -3.65120928621E-01 +9.93154928667E-03 +1.72520478378E-03 -4.09880851959E-03 +1.72524288446E-03 -4.14684087388E-03 -4.18174710341E-01 -1.10632182872E-01
4.37500000000E+09 -3.68769433013E-01 +3.29664435007E-02 +1.14030830928E-03 -4.85218026581E-03 +1.09778333442E-03 -4.94613700156E-03 -4.23892780599E-01 -8.49274442733E-02
4.38000000000E+09 -3.73258051423E-01 +5.27633461576E-02 +8.63219653388E-05 -4.79264926413E-03 +4.00965540624E-05 -4.88020643906E-03 -4.27838876272E-01 -5.94572101196E-02
4.38500000000E+09 -3.77702800488E-01 +7.14877506844E-02 -3.76857888670E-04 -4.65162526219E-03 -4.91137954810E-04 -4.70298260803E-03 -4.31328759648E-01 -3.51212315882E-02
4.39000000000E+09 -3.80284577244E-01 +8.77996439936E-02 -9.27398295387E-04 -4.79325324208E-03 -1.07416839877E-03 -4.81088717499E-03 -4.34922635381E-01 -9.73096631430E-03
4.39500000000E+09 -3.81090176278E-01 +1.02615232530E-01 -1.73538759921E-03 -4.17885292450E-03 -1.78564204446E-03 -4.21994483501E-03 -4.35889534922E-01 +1.41560808252E-02
4.40000000000E+09 -3.79707367694E-01 +1.17886567942E-01 -1.61849043449E-03 -4.27220448035E-03 -1.64936478204E-03 -4.24490077372E-03 -4.37271775065E-01 +3.88431348199E-02
4.40500000000E+09 -3.75870333697E-01 +1.33795295904E-01 -2.55259378938E-03 -4.22631284990E-03 -2.58664635683E-03 -4.24427823122E-03 -4.36713176342E-01 +6.40156051416E-02
4.41000000000E+09 -3.70115839782E-01 +1.50724921702E-01 -2.65956759118E-03 -3.68782978831E-03 -2.75876723649E-03 -3.68221950584E-03 -4.34971149062E-01 +8.90285665778E-02
4.41500000000E+09 -3.64322216337E-01 +1.69250826946E-01 -3.32020454643E-03 -3.75882648251E-03 -3.41396126797E-03 -3.73336910668E-03 -4.32736352645E-01 +1.13455348261E-01
4.42000000000E+09 -3.58672283333E-01 +1.90016412054E-01 -3.68407245518E-03 -3.20459948296E-03 -3.77121737780E-03 -3.17978971236E-03 -4.30526740525E-01 +1.37819124487E-01
4.42500000000E+09 -3.53663745577E-01 +2.11894193784E-01 -4.19331922929E-03 -3.10402055708E-03 -4.19614116421E-03 -3.02684180194E-03 -4.25726892736E-01 +1.62672133003E-01
4.43000000000E+09 -3.49355687965E-01 +2.32905782307E-01 -4.93667614324E-03 -2.67866402938E-03 -4.99101334913E-03 -2.56782049353E-03 -4.20513417997E-01 +1.85163969674E-01
4.43500000000E+09 -3.47424170836E-01 +2.53532130079E-01 -5.22563057365E-03 -1.27267458810E-03 -5.12761350413E-03 -1.21650188145E-03 -4.14515900479E-01 +2.08642498003E-01
4.44000000000E+09 -3.45010863183E-01 +2.73072981887E-01 -5.00925913955E-03 -1.08335804062E-03 -4.99906720033E-03 -1.01658337600E-03 -4.07849482527E-01 +2.30979380731E-01
4.44500000000E+09 -3.41839209281E-01 +2.88871120017E-01 -5.08830572296E-03 -1.53913594233E-04 -5.09372490264E-03 -9.50009167316E-05 -4.00680994006E-01 +2.52857171011E-01
4.45000000000E+09 -3.38846012230E-01 +3.02560881518E-01 -4.64471989659E-03 +1.13391226831E-04 -4.69847346448E-03 +2.31759849974E-04 -3.93401671813E-01 +2.74243312294E-01
4.45500000000E+09 -3.34078567677E-01 +3.14912624413E-01 -4.86380595400E-03 +3.06497842641E-04 -4.81602900017E-03 +3.95367813972E-04 -3.85730370600E-01 +2.95324969255E-01
4.46000000000E+09 -3.28011270184E-01 +3.26722374132E-01 -4.92276810330E-03 +1.03327292767E-03 -4.88106945301E-03 +1.10696200101E-03 -3.75707429364E-01 +3.15949286388E-01
4.46500000000E+09 -3.18972123290E-01 +3.39731840980E-01 -4.74568537165E-03 +1.48792948037E-03 -4.73515956291E-03 +1.57474068347E-03 -3.65642804636E-01 +3.35132310297E-01
4.47000000000E+09 -3.08384802046E-01 +3.53208654993E-01 -4.64841990251E-03 +1.89787975157E-03 -4.64527876256E-03 +1.99831689206E-03 -3.53231119662E-01 +3.54802791710E-01
4.47500000000E+09 -2.96626529054E-01 +3.69517807359E-01 -4.73140223961E-03 +2.52876725431E-03 -4.63858259950E-03 +2.59923560834E-03 -3.41548929410E-01 +3.72598897541E-01
4.48000000000E+09 -2.83744658395E-01 +3.85132963493E-01 -4.44667445640E-03 +3.32427876018E-03 -4.25236417610E-03 +3.42356731281E-03 -3.30013194185E-01 +3.91080881116E-01
4.48500000000E+09 -2.73710174017E-01 +4.01741053008E-01 -3.64557336745E-03 +3.94716243437E-03 -3.44889715845E-03 +3.93987805435E-03 -3.18310457184E-01 +4.07817722850E-01
4.49000000000E+09 -2.64196564241E-01 +4.18931309830E-01 -3.07539198631E-03 +4.28669780377E-03 -2.98149287184E-03 +4.21603070851E-03 -3.06727879032E-01 +4.24291345181E-01
4.49500000000E+09 -2.56288698505E-01 +4.34394803897E-01 -2.53360048609E-03 +4.36157340458E-03 -2.39860572631E-03 +4.24668848153E-03 -2.95022000206E-01 +4.40149971216E-01
4.50000000000E+09 -2.49786440724E-01 +4.48679227371E-01 -2.07746143673E-03 +4.55278872343E-03 -1.99008491890E-03 +4.53461881696E-03 -2.81890905202E-01 +4.55465460912E-01
4.50500000000E+09 -2.43541992982E-01 +4.60410858202E-01 -1.67749241385E-03 +4.53420654231E-03 -1.62827638382E-03 +4.51085609210E-03 -2.68094267809E-01 +4.70536183311E-01
4.51000000000E+09 -2.36680969342E-01 +4.70206428013E-01 -1.50313599844E-03 +5.01061110074E-03 -1.43662534035E-03 +4.89394865886E-03 -2.53977448320E-01 +4.84584171664E-01
4.51500000000E+09 -2.27955224820E-01 +4.78129105369E-01 -6.11964574816E-04 +5.39014390339E-03 -5.19281263676E-04 +5.34285282817E-03 -2.40667705284E-01 +4.98683483562E-01
4.52000000000E+09 -2.17658872573E-01 +4.84627791771E-01 +2.53561774445E-04 +5.07903861170E-03 +2.95523612550E-04 +4.97119515627E-03 -2.26989848597E-01 +5.11965658462E-01
4.52500000000E+09 -2.05335208980E-01 +4.91977996205E-01 +4.68513187643E-04 +5.09061529503E-03 +5.54096700175E-04 +5.00591499157E-03 -2.12879434345E-01 +5.23964038663E-01
4.53000000000E+09 -1.91375531178E-01 +4.99802242613E-01 +1.28812662450E-03 +5.04480077579E-03 +1.41391898527E-03 +4.93164428657E-03 -1.98627646700E-01 +5.34925095050E-01
4.53500000000E+09 -1.75884111456E-01 +5.09668788629E-01 +1.83156667152E-03 +4.53809113668E-03 +1.86144009539E-03 +4.38705696700E-03 -1.83921324439E-01 +5.45529077150E-01
4.54000000000E+09 -1.59649127329E-01 +5.20167401008E-01 +2.23611453270E-03 +4.42909117967E-03 +2.25315137845E-03 +4.31136747898E-03 -1.68902587039E-01 +5.56351912026E-01
4.54500000000E+09 -1.44815946001E-01 +5.31084311161E-01 +2.87945395627E-03 +3.90140350334E-03 +2.89561612255E-03 +3.75008679770E-03 -1.53774702648E-01 +5.67008702963E-01
4.55000000000E+09 -1.31666362731E-01 +5.41555158335E-01 +2.75674845780E-03 +3.50840737667E-03 +2.73882835616E-03 +3.33744405962E-03 -1.38552912407E-01 +5.77355745321E-01
4.55500000000E+09 -1.21443204660E-01 +5.51647479012E-01 +3.29604967496E-03 +3.31278828928E-03 +3.26089864565E-03 +3.21810139779E-03 -1.23941527245E-01 +5.86672891694E-01
4.56000000000E+09 -1.12713639395E-01 +5.61683759651E-01 +3.50650702644E-03 +2.89005217076E-03 +3.48662211890E-03 +2.81083379498E-03 -1.09738655931E-01 +5.95310273222E-01
4.56500000000E+09 -1.04287309806E-01 +5.70007264714E-01 +3.80653616362E-03 +2.51916409884E-03 +3.78007780741E-03 +2.39001438962E-03 -9.47458467138E-02 +6.03997857921E-01
4.57000000000E+09 -9.48910177055E-02 +5.76267559234E-01 +3.98199098128E-03 +2.19123869846E-03 +3.88297251050E-03 +2.08551999544E-03 -7.92671511154E-02 +6.11061469067E-01
