# Hz S RI R 50
! CMT, C1220, 16058040, 17.2.0/1
! Date: 15/08/2018 12:11:59
! Data: Format (Calibration Info)
! Freq                      S11: Re/Im (F2)                       S21: Re/Im (F2)                       S12: Re/Im (F2)                       S22: Re/Im (F2)            
4.00000000000E+09 +6.54963419301E-01 -3.55666164170E-01 +9.38189725850E-05 -8.84045189665E-04 +1.12400182067E-04 -9.10019825489E-04 +7.67479852036E-01 -3.21658842781E-01
4.00500000000E+09 +6.46847999008E-01 -3.62018600143E-01 -1.29707218361E-05 -6.70547702505E-04 +3.00907978246E-05 -6.84295847469E-04 +7.58328943482E-01 -3.32178161017E-01
4.01000000000E+09 +6.37911415728E-01 -3.67848802430E-01 +1.53589679579E-04 -6.22521782953E-04 +2.23129649514E-04 -6.64504840318E-04 +7.48617082279E-01 -3.42765891146E-01
4.01500000000E+09 +6.28223589535E-01 -3.74635384182E-01 +1.43478724850E-04 -8.40912492236E-04 +1.82974814570E-04 -8.42895863059E-04 +7.38878491425E-01 -3.52627727069E-01
4.02000000000E+09 +6.17181187035E-01 -3.82877824635E-01 -9.32330372442E-05 -9.57144988710E-04 -7.82907228163E-05 -9.82165440476E-04 +7.28564462491E-01 -3.62804775998E-01
4.02500000000E+09 +6.05448390496E-01 -3.91866209973E-01 -3.34955421637E-04 -9.12110674024E-04 -3.74450875185E-04 -9.64906387860E-04 +7.17669975678E-01 -3.72204117510E-01
4.03000000000E+09 +5.93978291499E-01 -4.01989534055E-01 -4.61758573933E-04 -6.73928947962E-04 -4.58836435030E-04 -6.63953327223E-04 +7.07089703125E-01 -3.81590059406E-01
4.03500000000E+09 +5.82782142950E-01 -4.13140391431E-01 -4.23180873805E-04 -6.05706649697E-04 -4.10616141392E-04 -6.28197975851E-04 +6.95800139800E-01 -3.91446205427E-01
4.04000000000E+09 +5.71644684580E-01 -4.24432494136E-01 -4.44838864468E-04 -4.18398072413E-04 -4.52082526327E-04 -4.46339623906E-04 +6.84706028370E-01 -4.01397650642E-01
4.04500000000E+09 +5.60758477700E-01 -4.35066844017E-01 -2.36379014059E-04 -4.22752373714E-04 -3.03860248293E-04 -4.31847658462E-04 +6.72631897668E-01 -4.11373342874E-01
4.05000000000E+09 +5.49768258761E-01 -4.43838540834E-01 -1.17401328467E-04 -6.09500609203E-04 -1.26236426676E-04 -6.10435790666E-04 +6.60498638258E-01 -4.20044426993E-01
4.05500000000E+09 +5.38599306777E-01 -4.50560022065E-01 -3.68720761679E-04 -7.87143272266E-04 -3.43947450445E-04 -8.28965954376E-04 +6.48272993426E-01 -4.28646727971E-01
4.06000000000E+09 +5.27118393816E-01 -4.55685421362E-01 -5.65891905299E-04 -7.74446354907E-04 -5.68226591227E-04 -8.58076381740E-04 +6.35494222730E-01 -4.36795497274E-01
4.06500000000E+09 +5.14383204576E-01 -4.59708024974E-01 -7.96707520899E-04 -5.70910271678E-04 -8.01116258802E-04 -6.50396902017E-04 +6.22186213885E-01 -4.44807887626E-01
4.07000000000E+09 +5.01054985996E-01 -4.63270492269E-01 -7.80268377853E-04 -3.56510690055E-04 -7.33530792188E-04 -3.88192367542E-04 +6.08662853971E-01 -4.53033282391E-01
4.07500000000E+09 +4.86328681717E-01 -4.67807371296E-01 -6.73455577726E-04 -4.72787100961E-04 -6.75221618468E-04 -4.56492572520E-04 +5.94679008787E-01 -4.61265903836E-01
4.08000000000E+09 +4.69544458858E-01 -4.72835472809E-01 -9.11279617601E-04 -4.56250684207E-04 -9.25836279341E-04 -4.99398106752E-04 +5.80984811268E-01 -4.68939892452E-01
4.08500000000E+09 +4.52275472224E-01 -4.77986265785E-01 -9.60429336296E-04 -1.81154310774E-04 -9.56250015534E-04 -2.63635434212E-04 +5.66898320200E-01 -4.76892720453E-01
4.09000000000E+09 +4.35468747142E-01 -4.84382456397E-01 -7.90521162390E-04 -2.88289993079E-04 -7.91683583282E-04 -3.08755128857E-04 +5.52268880910E-01 -4.83546708151E-01
4.09500000000E+09 +4.18303750540E-01 -4.91683026000E-01 -1.09308173239E-03 -2.70415046068E-04 -1.13360537532E-03 -2.98055405727E-04 +5.38067167725E-01 -4.89950233402E-01
4.10000000000E+09 +4.00554025113E-01 -4.98445328197E-01 -1.10344981831E-03 -5.14092119410E-05 -1.12186104388E-03 -4.84654051178E-05 +5.21919496669E-01 -4.96337778982E-01
4.10500000000E+09 +3.83319448182E-01 -5.02922289296E-01 -1.23100533809E-03 +1.14198008742E-04 -1.19403303743E-03 +1.15786002293E-04 +5.05773348697E-01 -5.01820967823E-01
4.11000000000E+09 +3.66887916105E-01 -5.05747596034E-01 -1.26939996483E-03 +4.70691192547E-04 -1.30587748122E-03 +4.18911212541E-04 +4.89252811228E-01 -5.07843803730E-01
4.11500000000E+09 +3.51416453734E-01 -5.06829518017E-01 -7.15466217424E-04 +7.04192204546E-04 -7.57495166899E-04 +6.92989380516E-04 +4.72268951551E-01 -5.12884702175E-01
4.12000000000E+09 +3.35735784492E-01 -5.07278026377E-01 -8.11464265879E-04 +3.04727374962E-04 -7.90746872084E-04 +2.66097050469E-04 +4.56283287663E-01 -5.17949813809E-01
4.12500000000E+09 +3.19399275692E-01 -5.07452010038E-01 -9.25979093822E-04 +4.19245767994E-04 -9.50577354513E-04 +3.97858295247E-04 +4.38890603536E-01 -5.22657035369E-01
4.13000000000E+09 +3.01336912927E-01 -5.08476412873E-01 -1.04877236409E-03 +6.52598297637E-04 -1.07785654820E-03 +6.27496675393E-04 +4.21906424609E-01 -5.25880284801E-01
4.13500000000E+09 +2.81216139511E-01 -5.09736361192E-01 -9.48123378194E-04 +8.47570730142E-04 -1.01331253185E-03 +7.76650752429E-04 +4.04572713001E-01 -5.29323274222E-01
4.14000000000E+09 +2.60350430806E-01 -5.10891893824E-01 -7.41614165516E-04 +1.27372939009E-03 -8.16684145172E-04 +1.24553695679E-03 +3.86153077119E-01 -5.32254637870E-01
4.14500000000E+09 +2.39780059320E-01 -5.13428299516E-01 -1.76612531816E-04 +1.11778133850E-03 -1.75073960417E-04 +1.20931368552E-03 +3.68089783002E-01 -5.35006166948E-01
4.15000000000E+09 +2.19269484488E-01 -5.16949911900E-01 -7.68885950083E-05 +7.07115932877E-04 -5.82999308479E-05 +7.59554262767E-04 +3.49822912231E-01 -5.37557599488E-01
4.15500000000E+09 +1.98595374525E-01 -5.20747357557E-01 -5.22552886900E-04 +6.83165675388E-04 -5.23250943655E-04 +7.63535700370E-04 +3.31409081541E-01 -5.39015072300E-01
4.16000000000E+09 +1.79050363378E-01 -5.22528833424E-01 -3.78824505682E-04 +8.48341761645E-04 -3.45211559062E-04 +9.85333399626E-04 +3.13537629519E-01 -5.39670492166E-01
4.16500000000E+09 +1.61136028483E-01 -5.22997418682E-01 -3.17357006986E-04 +9.37833357213E-04 -3.37324246892E-04 +9.73787144469E-04 +2.95076864516E-01 -5.39724333017E-01
4.17000000000E+09 +1.44311246630E-01 -5.21257550260E-01 -1.84567318065E-04 +1.25219036260E-03 -1.45140266709E-04 +1.31170388668E-03 +2.76335744677E-01 -5.38795011923E-01
4.17500000000E+09 +1.28649657938E-01 -5.17900131543E-01 +7.30043062044E-05 +8.14803928721E-04 +9.35559028433E-05 +8.38904082065E-04 +2.57710177849E-01 -5.37430432332E-01
4.18000000000E+09 +1.13201060747E-01 -5.12973218776E-01 -1.50356292922E-04 +9.45182184435E-04 -1.84019650808E-04 +9.80760910179E-04 +2.38299131398E-01 -5.35962983139E-01
4.18500000000E+09 +9.69613491938E-02 -5.07878768398E-01 -6.09273967460E-05 +1.13907444247E-03 -5.31578173451E-05 +1.09400550843E-03 +2.19179365826E-01 -5.33813974290E-01
4.19000000000E+09 +7.92615876863E-02 -5.01869844553E-01 +2.07040401717E-04 +1.03137126999E-03 +1.98346035544E-04 +1.16660984346E-03 +1.99841527796E-01 -5.31509077777E-01
4.19500000000E+09 +6.05849508934E-02 -4.95957042376E-01 +1.59031990863E-05 +1.15272125001E-03 +6.27230602798E-05 +1.17632186956E-03 +1.80624586209E-01 -5.28054434316E-01
4.20000000000E+09 +4.12241574729E-02 -4.89917332548E-01 +3.89901848356E-04 +1.35732583686E-03 +4.04695451811E-04 +1.37195814836E-03 +1.61211330593E-01 -5.24446052197E-01
4.20500000000E+09 +2.20180168097E-02 -4.84542147297E-01 +7.13918940599E-04 +1.10550980272E-03 +7.19066807155E-04 +1.05277027560E-03 +1.41505905989E-01 -5.19000852580E-01
4.21000000000E+09 +3.30666445377E-03 -4.79394795858E-01 +3.32001602828E-04 +9.02209223068E-04 +3.53020681847E-04 +8.26139654816E-04 +1.22244682693E-01 -5.13424288371E-01
4.21500000000E+09 -1.53326646657E-02 -4.74299875380E-01 +4.66594453611E-04 +1.46557127769E-03 +4.52142136568E-04 +1.46053584407E-03 +1.03114620106E-01 -5.07620583564E-01
4.22000000000E+09 -3.29084392220E-02 -4.66673838748E-01 +1.16100577501E-03 +1.46800741367E-03 +1.11406419030E-03 +1.42259300590E-03 +8.43883129324E-02 -5.00853634138E-01
4.22500000000E+09 -4.84760892510E-02 -4.57716848401E-01 +1.16826554193E-03 +8.64151738982E-04 +1.10870314889E-03 +9.07339255305E-04 +6.61830509041E-02 -4.94376065381E-01
4.23000000000E+09 -6.33491462805E-02 -4.47258723333E-01 +1.30388226813E-03 +8.98889217936E-04 +1.31412789679E-03 +8.78423747994E-04 +4.73113520485E-02 -4.86909108620E-01
4.23500000000E+09 -7.74823113249E-02 -4.34948937440E-01 +1.11848054447E-03 +7.94880863225E-04 +1.03435064373E-03 +8.14999135323E-04 +2.89016813621E-02 -4.77974228689E-01
4.24000000000E+09 -9.16473381560E-02 -4.22326867705E-01 +1.47119050348E-03 +9.58227938821E-04 +1.44940555803E-03 +1.02357192742E-03 +1.08494763478E-02 -4.68974962327E-01
4.24500000000E+09 -1.08533818219E-01 -4.10255591673E-01 +2.04751602586E-03 +7.43228067176E-04 +2.14400756114E-03 +8.06516684853E-04 -7.57332618011E-03 -4.58529133140E-01
4.25000000000E+09 -1.28136889015E-01 -3.96301865253E-01 +2.15776946297E-03 +1.15352177028E-04 +2.24120931785E-03 +1.19843167277E-04 -2.47746805376E-02 -4.47578324573E-01
4.25500000000E+09 -1.47892341347E-01 -3.81380793147E-01 +1.92071362053E-03 -3.45050208287E-04 +1.93911487270E-03 -3.23503314505E-04 -4.23024270016E-02 -4.36824851647E-01
4.26000000000E+09 -1.66707337596E-01 -3.67849825398E-01 +1.68628448213E-03 -5.10262230758E-04 +1.73492143125E-03 -4.80910854620E-04 -5.97030754790E-02 -4.24000450371E-01
4.26500000000E+09 -1.85546043548E-01 -3.54896711297E-01 +1.54149861840E-03 -5.77180833971E-04 +1.58009605080E-03 -5.09112613913E-04 -7.52352070263E-02 -4.11091306515E-01
4.27000000000E+09 -2.02373076246E-01 -3.42642563236E-01 +1.60366724861E-03 -7.54709102588E-04 +1.69159250406E-03 -7.21858866987E-04 -9.15850694018E-02 -3.98203142636E-01
4.27500000000E+09 -2.17503807123E-01 -3.30833359175E-01 +1.44217302290E-03 -7.41574078394E-04 +1.55049972596E-03 -8.20257567298E-04 -1.07749886584E-01 -3.83897894648E-01
4.28000000000E+09 -2.30975622644E-01 -3.18454277373E-01 +1.52383699219E-03 -1.07202109235E-03 +1.59746278660E-03 -1.17033657187E-03 -1.23172308808E-01 -3.70026666143E-01
4.28500000000E+09 -2.43188270075E-01 -3.04074063622E-01 +1.13221878937E-03 -1.16902864001E-03 +1.21482816884E-03 -1.23040421575E-03 -1.39168035211E-01 -3.55499718546E-01
4.29000000000E+09 -2.53058993743E-01 -2.87250522211E-01 +1.31295024191E-03 -1.35250576440E-03 +1.40095107161E-03 -1.39075748401E-03 -1.54357761653E-01 -3.40288934439E-01
4.29500000000E+09 -2.62329167067E-01 -2.69463488887E-01 +9.87010061023E-04 -1.83888068925E-03 +9.97473204013E-04 -1.87882783471E-03 -1.68609014790E-01 -3.24062321973E-01
4.30000000000E+09 -2.71791836035E-01 -2.50310274167E-01 +5.15591684691E-04 -1.57382740727E-03 +4.47067267104E-04 -1.64261859018E-03 -1.81230911550E-01 -3.07399681901E-01
4.30500000000E+09 -2.82347835009E-01 -2.30525770504E-01 +3.91692481465E-04 -1.61321231193E-03 +2.98183989560E-04 -1.70033465879E-03 -1.93401113492E-01 -2.90516224985E-01
4.31000000000E+09 -2.94589418349E-01 -2.10312677381E-01 +3.08608771486E-04 -1.71042271658E-03 +2.41810564968E-04 -1.73120752304E-03 -2.04726965873E-01 -2.73232611628E-01
4.31500000000E+09 -3.07414221188E-01 -1.90669652098E-01 -1.34802210546E-04 -1.47728689216E-03 -1.18786817621E-04 -1.50093734394E-03 -2.15779181090E-01 -2.55793305569E-01
4.32000000000E+09 -3.20570387604E-01 -1.71137327542E-01 +1.39907799859E-04 -1.32235438364E-03 +8.22421140459E-05 -1.36386361799E-03 -2.27001920542E-01 -2.37603497498E-01
4.32500000000E+09 -3.31604307163E-01 -1.52853488569E-01 +2.66929837561E-04 -1.48728306656E-03 +2.27275113933E-04 -1.47479821800E-03 -2.36256591223E-01 -2.18687589180E-01
4.33000000000E+09 -3.40775770137E-01 -1.36427537377E-01 -1.04347148808E-04 -1.80753668606E-03 -1.97373894424E-04 -1.72904329279E-03 -2.45845813854E-01 -2.00473497220E-01
4.33500000000E+09 -3.47957838226E-01 -1.20178978597E-01 -2.91946425896E-04 -1.57523710388E-03 -3.33740808117E-04 -1.45662433171E-03 -2.54708027683E-01 -1.80343033263E-01
4.34000000000E+09 -3.52402540380E-01 -1.04435252893E-01 -5.10886185364E-04 -1.76036385423E-03 -5.03586857676E-04 -1.63941501682E-03 -2.62017731469E-01 -1.60198798988E-01
4.34500000000E+09 -3.54576425612E-01 -8.77615488586E-02 -8.37386213456E-04 -1.52898562172E-03 -8.36925602464E-04 -1.49941842749E-03 -2.69397304934E-01 -1.40407107897E-01
4.35000000000E+09 -3.55732759124E-01 -7.01834132035E-02 -8.52800856520E-04 -1.32452272366E-03 -8.44497627071E-04 -1.26235210869E-03 -2.76069679656E-01 -1.20270974747E-01
4.35500000000E+09 -3.57454971554E-01 -5.03284261464E-02 -8.66654360613E-04 -1.27795267801E-03 -8.44363996134E-04 -1.29450348533E-03 -2.81798680068E-01 -1.00405373052E-01
4.36000000000E+09 -3.58927497503E-01 -2.80161029319E-02 -1.11135039747E-03 -1.67076527650E-03 -1.09724555896E-03 -1.61136308041E-03 -2.87257526735E-01 -8.10870597108E-02
4.36500000000E+09 -3.60856380340E-01 -4.76918452682E-03 -1.59288548620E-03 -1.13681567634E-03 -1.54690784068E-03 -1.16083065340E-03 -2.91347375863E-01 -6.10369007524E-02
4.37000000000E+09 -3.63398341963E-01 +1.84283411698E-02 -1.59780973427E-03 -1.03612765164E-03 -1.56056175089E-03 -1.06406795992E-03 -2.94277443334E-01 -4.19720099756E-02
4.37500000000E+09 -3.66851121808E-01 +3.95652727712E-02 -1.72858889188E-03 -4.52894197590E-04 -1.73959588164E-03 -5.55622807795E-04 -2.97572399741E-01 -2.16757731237E-02
4.38000000000E+09 -3.71652669360E-01 +5.91517800024E-02 -1.61444048020E-03 -4.57266969100E-04 -1.59751012831E-03 -4.63177652324E-04 -2.99303600688E-01 -7.92637878329E-04
4.38500000000E+09 -3.75651991168E-01 +7.69255081851E-02 -1.57842760286E-03 -2.34532693019E-04 -1.61886127230E-03 -3.34165225756E-04 -3.00391010986E-01 +1.96301761031E-02
4.39000000000E+09 -3.79077427386E-01 +9.28376034509E-02 -1.43468463272E-03 -2.59915703377E-04 -1.45358909945E-03 -3.09054327546E-04 -3.00967547254E-01 +4.05575018045E-02
4.39500000000E+09 -3.79441300704E-01 +1.07762221280E-01 -1.64446330797E-03 -2.23895878207E-04 -1.65629284524E-03 -2.06072969010E-04 -3.01183708352E-01 +5.96144872772E-02
4.40000000000E+09 -3.77284122130E-01 +1.21958735165E-01 -1.84967667889E-03 -1.90890277690E-04 -1.94560896770E-03 -1.15562370693E-04 -3.01016556093E-01 +7.96608228248E-02
4.40500000000E+09 -3.73202018307E-01 +1.36007531854E-01 -2.11213803770E-03 +3.81011365253E-04 -2.14092634908E-03 +4.81455818293E-04 -2.99308892276E-01 +9.92850186283E-02
4.41000000000E+09 -3.68853003215E-01 +1.52285090216E-01 -1.72068384283E-03 +9.82942943296E-04 -1.73627261176E-03 +1.04337488362E-03 -2.97011478686E-01 +1.18676243121E-01
4.41500000000E+09 -3.62108211282E-01 +1.71562744874E-01 -1.30006639762E-03 +9.04116093662E-04 -1.33112529983E-03 +9.01489228286E-04 -2.93295789144E-01 +1.38418776978E-01
4.42000000000E+09 -3.54945593681E-01 +1.91734027985E-01 -1.18557357570E-03 +1.02803429687E-03 -1.13324455139E-03 +1.04734418177E-03 -2.88654690721E-01 +1.57817683624E-01
4.42500000000E+09 -3.48001919269E-01 +2.12611362176E-01 -9.35735253462E-04 +6.31844644830E-04 -9.13381730302E-04 +6.59435456453E-04 -2.84198803616E-01 +1.76037570662E-01
4.43000000000E+09 -3.43429766081E-01 +2.32513533303E-01 -1.52801578434E-03 +6.60677618269E-04 -1.45699790482E-03 +7.71090902789E-04 -2.80050248661E-01 +1.94255499146E-01
4.43500000000E+09 -3.40650753834E-01 +2.52288578991E-01 -1.53829959994E-03 +1.38881252752E-03 -1.39233608859E-03 +1.37712283574E-03 -2.76069961606E-01 +2.12196067821E-01
4.44000000000E+09 -3.38525353674E-01 +2.71730230031E-01 -1.06511733896E-03 +1.57808099465E-03 -9.96852308151E-04 +1.61174902106E-03 -2.71179878883E-01 +2.31239837629E-01
4.44500000000E+09 -3.34710157660E-01 +2.88572514855E-01 -5.30752229531E-04 +1.86913116179E-03 -5.29840113260E-04 +1.84095273810E-03 -2.63840980552E-01 +2.48761559500E-01
4.45000000000E+09 -3.30255310204E-01 +3.01910390161E-01 -6.05208879226E-05 +1.41670426551E-03 -6.29842084221E-05 +1.39048736619E-03 -2.56732941957E-01 +2.65048580449E-01
4.45500000000E+09 -3.24633943792E-01 +3.13980657051E-01 -3.44572331251E-04 +1.16733641199E-03 -2.96435550803E-04 +1.15945884544E-03 -2.48716704638E-01 +2.81507150183E-01
4.46000000000E+09 -3.16931763905E-01 +3.24789923096E-01 -2.79712787874E-04 +1.21483593520E-03 -3.09711031501E-04 +1.18362415120E-03 -2.40742658715E-01 +2.96842488303E-01
4.46500000000E+09 -3.08521811887E-01 +3.35752144976E-01 -3.35354399485E-04 +1.51228631750E-03 -3.22827549597E-04 +1.47373939179E-03 -2.32604746643E-01 +3.12452334089E-01
4.47000000000E+09 -2.98550538777E-01 +3.50021454970E-01 +1.89440804606E-04 +1.19283236516E-03 +2.44748257578E-04 +1.16992516664E-03 -2.23706425007E-01 +3.27800361939E-01
4.47500000000E+09 -2.85915664931E-01 +3.66164836509E-01 -2.27489904003E-04 +1.23031776806E-03 -1.72675603486E-04 +1.24272153432E-03 -2.15357748940E-01 +3.42380745440E-01
4.48000000000E+09 -2.72632056285E-01 +3.82600856195E-01 -9.28031504914E-05 +1.38554247250E-03 -4.15519204534E-05 +1.37567360321E-03 -2.06420873158E-01 +3.57665367549E-01
4.48500000000E+09 -2.60667163116E-01 +3.99116682336E-01 +6.00876796563E-05 +1.77392712707E-03 +8.26268377928E-05 +1.78591475676E-03 -1.96238799023E-01 +3.71855016366E-01
4.49000000000E+09 -2.50834716057E-01 +4.14729051186E-01 +8.11542730621E-04 +1.81836958147E-03 +8.14662362590E-04 +1.79322356921E-03 -1.86000413651E-01 +3.85202598104E-01
4.49500000000E+09 -2.44085602965E-01 +4.29760709587E-01 +1.22563204963E-03 +1.09950241632E-03 +1.27326002643E-03 +1.05510362519E-03 -1.75744081115E-01 +3.98176713666E-01
4.50000000000E+09 -2.38856578514E-01 +4.44336820233E-01 +7.12728666905E-04 +7.90507721612E-04 +6.79304779972E-04 +8.01984795930E-04 -1.64869767825E-01 +4.10566918225E-01
4.50500000000E+09 -2.33146279770E-01 +4.56561754414E-01 +5.96606406323E-04 +6.96224535792E-04 +5.59004115853E-04 +6.55014047158E-04 -1.54488404934E-01 +4.22666846378E-01
4.51000000000E+09 -2.27556265691E-01 +4.66108894547E-01 +2.32217196128E-04 +1.09802421413E-03 +2.56964453565E-04 +1.06215041888E-03 -1.43504570233E-01 +4.34546452766E-01
4.51500000000E+09 -2.20074117688E-01 +4.74278562670E-01 +5.88089579618E-04 +1.58601354626E-03 +6.61513035715E-04 +1.53497778241E-03 -1.33011124190E-01 +4.45751673176E-01
4.52000000000E+09 -2.10800772744E-01 +4.81189719595E-01 +1.29945155940E-03 +1.56144328268E-03 +1.37250494954E-03 +1.50252956317E-03 -1.22367939235E-01 +4.56753066460E-01
4.52500000000E+09 -1.99268987927E-01 +4.87848793662E-01 +1.69519366770E-03 +1.10959032869E-03 +1.71131681032E-03 +1.03400665447E-03 -1.10773892985E-01 +4.67518441635E-01
4.53000000000E+09 -1.86176005160E-01 +4.95237685584E-01 +2.00040577318E-03 +3.48907103869E-04 +1.92040268302E-03 +3.00645797708E-04 -9.88808267200E-02 +4.76766323062E-01
4.53500000000E+09 -1.71696385810E-01 +5.04220788959E-01 +1.29862483208E-03 +1.19227811141E-04 +1.25078350382E-03 +1.73740564295E-04 -8.67627910917E-02 +4.86462071341E-01
4.54000000000E+09 -1.56836939508E-01 +5.13967349211E-01 +1.34087816493E-03 +3.79286351033E-04 +1.30366938175E-03 +3.60676297015E-04 -7.40960827993E-02 +4.95492064637E-01
4.54500000000E+09 -1.42665481169E-01 +5.24940347731E-01 +1.61115307033E-03 +1.74725949021E-04 +1.55026462726E-03 +1.43768653567E-04 -6.22764551997E-02 +5.03701986039E-01
4.55000000000E+09 -1.30326026885E-01 +5.35528966085E-01 +1.50006935990E-03 -2.64448810497E-04 +1.44301558078E-03 -2.49064524017E-04 -4.99459622011E-02 +5.12773298948E-01
4.55500000000E+09 -1.19662823845E-01 +5.45949770325E-01 +1.15159502854E-03 -1.55119102049E-04 +1.17370950081E-03 -1.46343580804E-04 -3.83137983163E-02 +5.21208091824E-01
4.56000000000E+09 -1.10247088147E-01 +5.54516838298E-01 +1.39614958135E-03 -9.83217738016E-05 +1.40603626157E-03 -7.30936463025E-05 -2.53947066576E-02 +5.29239005255E-01
4.56500000000E+09 -1.02042278541E-01 +5.61214429914E-01 +1.73926766077E-03 -3.94457566334E-04 +1.69158832779E-03 -4.07296921562E-04 -1.34374895124E-02 +5.35832423933E-01
4.57000000000E+09 -9.41281576978E-02 +5.66408460734E-01 +1.55250522379E-03 -1.01731487373E-03 +1.53232528381E-03 -1.01792404498E-03 -1.55924697090E-03 +5.42909944283E-01
