# Hz S RI R 50
! CMT, C1220, 16058040, 17.2.0/1
! Date: 15/08/2018 12:13:45
! Data: Format (Calibration Info)
! Freq                      S11: Re/Im (F2)                       S21: Re/Im (F2)                       S12: Re/Im (F2)                       S22: Re/Im (F2)            
4.00000000000E+09 +6.51424383620E-01 -3.52339398923E-01 +6.14296672101E-05 -5.26700491017E-04 +6.31146808337E-05 -5.45330104309E-04 +7.67456300413E-01 -3.22620772204E-01
4.00500000000E+09 +6.43492031292E-01 -3.58273279592E-01 -5.13540073680E-06 -3.52949010107E-04 -2.56244098950E-05 -3.79691697461E-04 +7.58155203593E-01 -3.33185478558E-01
4.01000000000E+09 +6.34840391641E-01 -3.63905809998E-01 +1.34562013687E-04 -4.31480827617E-04 +1.82109656200E-04 -4.56882208563E-04 +7.48529991463E-01 -3.43628685663E-01
4.01500000000E+09 +6.25093916976E-01 -3.70507633864E-01 +1.55252068941E-05 -7.00201332911E-04 +5.69729856830E-05 -7.41040955646E-04 +7.38838854276E-01 -3.53537473665E-01
4.02000000000E+09 +6.14323950435E-01 -3.78472322024E-01 -3.85647737715E-04 -6.92840680049E-04 -3.69828522333E-04 -7.08686767833E-04 +7.28319574537E-01 -3.63821850703E-01
4.02500000000E+09 +6.02755833837E-01 -3.87111800873E-01 -5.00997242558E-04 -4.20865473605E-04 -5.08929489187E-04 -4.10513509360E-04 +7.17221445891E-01 -3.73151727876E-01
4.03000000000E+09 +5.91585483254E-01 -3.96992202205E-01 -3.32150777056E-04 -1.88886278715E-04 -3.77954251948E-04 -1.77790729553E-04 +7.06441965781E-01 -3.82488945269E-01
4.03500000000E+09 +5.80769856118E-01 -4.08206488208E-01 -1.81226478408E-04 -2.64347484651E-04 -1.64355271706E-04 -3.14961167619E-04 +6.95184982258E-01 -3.92334150642E-01
4.04000000000E+09 +5.69627047122E-01 -4.19511379887E-01 -2.27067383556E-04 -2.46821725311E-04 -1.93789407749E-04 -2.37552396993E-04 +6.83983398169E-01 -4.02280285591E-01
4.04500000000E+09 +5.59109547528E-01 -4.29687887760E-01 -1.64210817460E-04 -2.51132509010E-04 -1.26023729248E-04 -2.98314204732E-04 +6.71869891748E-01 -4.12094543923E-01
4.05000000000E+09 +5.48510160950E-01 -4.38341040604E-01 -8.20454839075E-05 -4.17070624933E-04 -2.64502482436E-05 -3.78359090106E-04 +6.59680289695E-01 -4.20736392392E-01
4.05500000000E+09 +5.37749020972E-01 -4.44784123245E-01 -3.64595879038E-04 -5.59954407328E-04 -4.04379268197E-04 -6.08753558641E-04 +6.47499916752E-01 -4.29335847377E-01
4.06000000000E+09 +5.26965487786E-01 -4.49880559950E-01 -5.25578375015E-04 -4.34447105508E-04 -5.38333789390E-04 -4.72363886596E-04 +6.34589564141E-01 -4.37528149717E-01
4.06500000000E+09 +5.14970238087E-01 -4.53941899238E-01 -6.09074948202E-04 -3.68107793341E-04 -6.42559423367E-04 -3.87812974030E-04 +6.20911902652E-01 -4.45525894768E-01
4.07000000000E+09 +5.01891409897E-01 -4.57587412281E-01 -6.91408466819E-04 -2.46342742989E-04 -6.32480368774E-04 -2.10608963945E-04 +6.07109164006E-01 -4.53391912501E-01
4.07500000000E+09 +4.87190504017E-01 -4.61914585191E-01 -6.89366735892E-04 -1.25791178627E-04 -6.34082220882E-04 -1.60365103500E-04 +5.93106329389E-01 -4.61219090194E-01
4.08000000000E+09 +4.70967290745E-01 -4.66548784389E-01 -6.99874945471E-04 -1.76860820198E-05 -6.87511487668E-04 -8.48179882872E-05 +5.79509353552E-01 -4.68636039295E-01
4.08500000000E+09 +4.54366845422E-01 -4.71474876477E-01 -6.44543607905E-04 +2.36422030673E-05 -6.30136001479E-04 +9.57712770598E-06 +5.65569367901E-01 -4.76546492321E-01
4.09000000000E+09 +4.38059433538E-01 -4.78023991582E-01 -5.54822535644E-04 -7.15700197838E-05 -5.18474895163E-04 -7.99297073567E-05 +5.50895143749E-01 -4.82913558763E-01
4.09500000000E+09 +4.21611622099E-01 -4.85383496631E-01 -8.50398336866E-04 -7.83052621034E-05 -8.90079511406E-04 -1.06106308652E-04 +5.36780402903E-01 -4.89268380730E-01
4.10000000000E+09 +4.04203948303E-01 -4.92474042029E-01 -1.05620786758E-03 +2.02109771995E-04 -1.06345754788E-03 +2.08549313331E-04 +5.20546707250E-01 -4.95599304060E-01
4.10500000000E+09 +3.87341351377E-01 -4.97275099896E-01 -1.02587837220E-03 +7.29981944322E-04 -1.03296493798E-03 +7.30949220401E-04 +5.04517254009E-01 -5.00825635201E-01
4.11000000000E+09 +3.70964657152E-01 -4.99996066306E-01 -6.22985702924E-04 +9.90658762548E-04 -6.87267777150E-04 +9.48203441748E-04 +4.88074769616E-01 -5.06488286952E-01
4.11500000000E+09 +3.56406753195E-01 -5.01000500539E-01 +5.00224806897E-05 +8.84403976460E-04 +5.61326087149E-05 +9.10430387108E-04 +4.71605830381E-01 -5.11430424101E-01
4.12000000000E+09 +3.41351140278E-01 -5.01780779183E-01 -5.69006651693E-05 +1.45689733458E-04 -8.15365746644E-05 +1.53661526337E-04 +4.55723486658E-01 -5.16558978897E-01
4.12500000000E+09 +3.25539989447E-01 -5.02311552327E-01 -5.38904666378E-04 +2.13063476095E-04 -6.64684741797E-04 +2.37953493184E-04 +4.38406648759E-01 -5.21077269719E-01
4.13000000000E+09 +3.07931359278E-01 -5.03670513310E-01 -6.60987061043E-04 +6.64962873426E-04 -7.05937710336E-04 +6.72669977442E-04 +4.21839340598E-01 -5.24245300862E-01
4.13500000000E+09 +2.88051265133E-01 -5.05352439506E-01 -5.51570732687E-04 +9.60775553001E-04 -5.64717793803E-04 +1.01666963592E-03 +4.04744942820E-01 -5.27852598565E-01
4.14000000000E+09 +2.67788219817E-01 -5.06786270460E-01 -9.90519080343E-05 +1.25374762429E-03 -1.13453888855E-04 +1.33357067994E-03 +3.86220259991E-01 -5.30973052813E-01
4.14500000000E+09 +2.47687104365E-01 -5.09699907789E-01 +4.68665774996E-04 +9.59950052992E-04 +4.61466511681E-04 +1.03942240464E-03 +3.68080061349E-01 -5.33643082843E-01
4.15000000000E+09 +2.27416719862E-01 -5.13906047944E-01 +4.33420895337E-04 +4.61300023016E-04 +4.12061164382E-04 +5.31723887868E-04 +3.49897328517E-01 -5.35878941235E-01
4.15500000000E+09 +2.06874650986E-01 -5.17919611044E-01 +4.82998234672E-05 +4.63542611848E-04 +6.40771813266E-05 +4.79423883163E-04 +3.31838841828E-01 -5.37227593889E-01
4.16000000000E+09 +1.87664289457E-01 -5.20330605154E-01 +9.46008066824E-05 +5.30601041599E-04 +1.11704444737E-04 +5.73996051970E-04 +3.14177574462E-01 -5.37931473840E-01
4.16500000000E+09 +1.69958047070E-01 -5.21254611270E-01 +1.03094242833E-04 +5.28731601726E-04 +1.57085586299E-04 +5.79043336303E-04 +2.95898504458E-01 -5.38018294899E-01
4.17000000000E+09 +1.53633055102E-01 -5.20236225849E-01 +2.02570309676E-04 +8.06069407286E-04 +2.31576751764E-04 +8.16391658327E-04 +2.77438683643E-01 -5.37244905248E-01
4.17500000000E+09 +1.38165376742E-01 -5.17672860016E-01 +4.11097022302E-04 +5.33707316532E-04 +4.22806678330E-04 +5.19037825787E-04 +2.58905898861E-01 -5.36027606274E-01
4.18000000000E+09 +1.22422855812E-01 -5.13845887104E-01 +2.56120819171E-04 +6.03980985045E-04 +2.93170059796E-04 +6.41084909835E-04 +2.39629546481E-01 -5.34691943780E-01
4.18500000000E+09 +1.05990865936E-01 -5.08975292300E-01 +4.34024280246E-04 +7.11962122763E-04 +4.38156144494E-04 +7.06926275310E-04 +2.20624987516E-01 -5.32582477067E-01
4.19000000000E+09 +8.84790859830E-02 -5.03325041779E-01 +6.17103874046E-04 +5.00368422064E-04 +5.76225683433E-04 +4.89589110204E-04 +2.01425972023E-01 -5.30185133551E-01
4.19500000000E+09 +7.00845933435E-02 -4.97822019313E-01 +3.42589125796E-04 +6.41846611465E-04 +3.41068384553E-04 +6.86972797967E-04 +1.82611664879E-01 -5.26820964148E-01
4.20000000000E+09 +5.09910173645E-02 -4.92688924952E-01 +7.59090875255E-04 +7.86263900320E-04 +7.53715789168E-04 +7.76555265881E-04 +1.63445513932E-01 -5.23585169160E-01
4.20500000000E+09 +3.16301932586E-02 -4.88335755337E-01 +9.52498607626E-04 +4.65336920806E-04 +9.28589555858E-04 +4.28205657627E-04 +1.43985276972E-01 -5.18365237132E-01
4.21000000000E+09 +1.24013146335E-02 -4.83887367542E-01 +7.19100344995E-04 +2.96475242836E-04 +6.96577674286E-04 +3.66865955654E-04 +1.24853592422E-01 -5.13427919074E-01
4.21500000000E+09 -6.32060540770E-03 -4.78753102942E-01 +8.69321578339E-04 +6.03993584372E-04 +9.13591326446E-04 +5.99720377081E-04 +1.05356027518E-01 -5.07840980092E-01
4.22000000000E+09 -2.36800163639E-02 -4.71818680188E-01 +1.35761027837E-03 +4.11446143855E-04 +1.32558816408E-03 +4.32689415870E-04 +8.66947060670E-02 -5.01145749425E-01
4.22500000000E+09 -3.90211853682E-02 -4.63762670001E-01 +1.26173069218E-03 -2.18858834194E-04 +1.31968459294E-03 -1.52428956139E-04 +6.86519750795E-02 -4.94877113776E-01
4.23000000000E+09 -5.40668147833E-02 -4.54471373328E-01 +9.51385345540E-04 -4.05673278600E-04 +9.73353668552E-04 -3.18059785370E-04 +4.97316009625E-02 -4.87883498640E-01
4.23500000000E+09 -6.89657983539E-02 -4.43274673830E-01 +6.20210730282E-04 -2.49955014142E-05 +6.47206938414E-04 -3.60023779556E-05 +3.12205232251E-02 -4.79438450340E-01
4.24000000000E+09 -8.41953125443E-02 -4.31288782978E-01 +1.13030440108E-03 +1.58257831682E-04 +1.19836135001E-03 +1.53531664731E-04 +1.27951171096E-02 -4.70630019181E-01
4.24500000000E+09 -1.01649646364E-01 -4.18759293841E-01 +1.69548110777E-03 -3.15467067411E-04 +1.74427353157E-03 -2.85652158594E-04 -5.97397732198E-03 -4.60474138670E-01
4.25000000000E+09 -1.20799356189E-01 -4.05364497455E-01 +1.55889896781E-03 -1.17098481037E-03 +1.60075229238E-03 -1.15686778549E-03 -2.33698576396E-02 -4.49417422343E-01
4.25500000000E+09 -1.40780712916E-01 -3.91777887775E-01 +9.11100424853E-04 -1.48825987698E-03 +9.35267107906E-04 -1.44959612073E-03 -4.10829960846E-02 -4.38726144526E-01
4.26000000000E+09 -1.60991222114E-01 -3.79099356007E-01 +3.37618578834E-04 -1.26712911585E-03 +3.80533660548E-04 -1.30522914684E-03 -5.85904840811E-02 -4.26008774847E-01
4.26500000000E+09 -1.81048365943E-01 -3.66409031649E-01 +3.50767961237E-04 -1.06736572727E-03 +3.54035500005E-04 -1.07578446522E-03 -7.41131610811E-02 -4.13219352570E-01
4.27000000000E+09 -1.98859503676E-01 -3.53827560862E-01 +2.19225932918E-04 -1.11731801032E-03 +2.39409434387E-04 -1.17114177371E-03 -9.09073629680E-02 -4.00708982214E-01
4.27500000000E+09 -2.14467673220E-01 -3.42110222880E-01 +1.08332860361E-04 -9.07236319625E-04 +5.23448221053E-05 -9.41370355500E-04 -1.07704294404E-01 -3.86459328487E-01
4.28000000000E+09 -2.28448395634E-01 -3.29906056673E-01 +1.83874980805E-04 -8.42708553551E-04 +1.80970432232E-04 -8.85724429848E-04 -1.23310940345E-01 -3.72350676088E-01
4.28500000000E+09 -2.41291042800E-01 -3.16008068117E-01 +1.63902336544E-04 -9.67120549281E-04 +1.54221593640E-04 -9.92124937589E-04 -1.39426256244E-01 -3.57738128338E-01
4.29000000000E+09 -2.52345169750E-01 -2.99826526585E-01 +1.66925517654E-04 -1.15255108945E-03 +1.36452744952E-04 -1.16203807756E-03 -1.54734732973E-01 -3.42341106398E-01
4.29500000000E+09 -2.62917154400E-01 -2.81730709447E-01 -2.09963968572E-04 -1.39606248227E-03 -2.04620609827E-04 -1.46892498833E-03 -1.69057127803E-01 -3.26269648666E-01
4.30000000000E+09 -2.72997715245E-01 -2.62125228410E-01 -4.90636988664E-04 -9.78696544169E-04 -4.90863805150E-04 -1.01162035092E-03 -1.81883577209E-01 -3.09470174342E-01
4.30500000000E+09 -2.83908629099E-01 -2.42227602933E-01 -3.94944577131E-04 -1.12791221461E-03 -3.89809185635E-04 -1.05512531570E-03 -1.94238822816E-01 -2.92682877177E-01
4.31000000000E+09 -2.96393422778E-01 -2.22418323038E-01 -6.48981583905E-04 -1.03906650126E-03 -6.65812293777E-04 -1.10949227139E-03 -2.05977975846E-01 -2.75428426637E-01
4.31500000000E+09 -3.10479759191E-01 -2.02979807268E-01 -7.67328098305E-04 -7.08716660510E-04 -7.77495589066E-04 -6.65140024492E-04 -2.17369638021E-01 -2.57980203209E-01
4.32000000000E+09 -3.24595384398E-01 -1.83073724494E-01 -6.16069678182E-04 -8.01506777786E-04 -6.60450790515E-04 -8.05952656256E-04 -2.28963127970E-01 -2.39398326794E-01
4.32500000000E+09 -3.36612913540E-01 -1.64041968580E-01 -6.34880017724E-04 -7.04717433716E-04 -7.21078734921E-04 -6.97383808051E-04 -2.38568562423E-01 -2.20253993578E-01
4.33000000000E+09 -3.46051662216E-01 -1.46641033448E-01 -6.82594723850E-04 -8.02403800902E-04 -6.47308223775E-04 -7.70774449874E-04 -2.48220968543E-01 -2.01528395812E-01
4.33500000000E+09 -3.53466737428E-01 -1.30511673542E-01 -7.62391218127E-04 -8.22498412392E-04 -7.62287403808E-04 -7.90048075288E-04 -2.57219623763E-01 -1.81192427935E-01
4.34000000000E+09 -3.58722802275E-01 -1.14274450386E-01 -1.18459691392E-03 -8.93422083352E-04 -1.19726766680E-03 -8.36924438738E-04 -2.64600754311E-01 -1.60869361081E-01
4.34500000000E+09 -3.61524112845E-01 -9.73514220211E-02 -1.31540037828E-03 -5.04840344309E-04 -1.28232749080E-03 -4.78524090875E-04 -2.72293146420E-01 -1.40735270180E-01
4.35000000000E+09 -3.63697596405E-01 -7.93230783013E-02 -1.38328385290E-03 -1.79531147051E-04 -1.38443311568E-03 -1.86644444714E-04 -2.79041680641E-01 -1.20047492469E-01
4.35500000000E+09 -3.66112731304E-01 -5.81288278245E-02 -1.14211469606E-03 -5.29116829723E-06 -1.12575185116E-03 -4.05057430122E-05 -2.85070633573E-01 -9.97331376996E-02
4.36000000000E+09 -3.67621153615E-01 -3.49070604374E-02 -1.22929799932E-03 -2.87463976741E-04 -1.24980034130E-03 -3.19879065493E-04 -2.90262071115E-01 -7.94113516951E-02
4.36500000000E+09 -3.69447522245E-01 -1.13543745031E-02 -1.46192029701E-03 +2.44125883274E-04 -1.46218605286E-03 +2.23285668456E-04 -2.93872204339E-01 -5.88558501493E-02
4.37000000000E+09 -3.72651259139E-01 +1.21577491838E-02 -1.32497688131E-03 +2.53970216785E-04 -1.28662278490E-03 +2.65794163746E-04 -2.96171234164E-01 -3.95546050437E-02
4.37500000000E+09 -3.76483485358E-01 +3.41056237329E-02 -1.45148141490E-03 +5.95601016363E-04 -1.45533271292E-03 +5.87329600466E-04 -2.98977116020E-01 -1.92225973355E-02
4.38000000000E+09 -3.81086531593E-01 +5.43375872160E-02 -1.24656597489E-03 +9.22964917308E-04 -1.27297223792E-03 +9.28263122769E-04 -3.00109951883E-01 +1.59145565013E-03
4.38500000000E+09 -3.85502854318E-01 +7.26321448679E-02 -8.83637137275E-04 +9.88467897913E-04 -8.84708747290E-04 +1.04473148723E-03 -3.01024465098E-01 +2.17127726641E-02
4.39000000000E+09 -3.88868443170E-01 +8.93147438919E-02 -6.87778904049E-04 +8.26079902643E-04 -7.17951706729E-04 +8.88695073575E-04 -3.01787127786E-01 +4.26407864695E-02
4.39500000000E+09 -3.89467787583E-01 +1.04810076853E-01 -6.69804266909E-04 +1.00111149057E-03 -6.04467897012E-04 +1.03567927898E-03 -3.01955218369E-01 +6.23673935246E-02
4.40000000000E+09 -3.87277942229E-01 +1.20064557998E-01 -5.90234571233E-04 +8.53136963668E-04 -6.26486119020E-04 +8.63508958957E-04 -3.01168626188E-01 +8.26954148319E-02
4.40500000000E+09 -3.83237170182E-01 +1.34746689453E-01 -9.55178529066E-04 +9.84609191120E-04 -9.30236705176E-04 +1.05902728284E-03 -2.98798006182E-01 +1.02283348304E-01
4.41000000000E+09 -3.78125462653E-01 +1.51652564791E-01 -6.15881940375E-04 +1.68338132456E-03 -5.72458795220E-04 +1.71187783952E-03 -2.96021220574E-01 +1.21236787949E-01
4.41500000000E+09 -3.71565004447E-01 +1.70713178560E-01 +1.11596406897E-04 +1.48775548751E-03 +1.46048527668E-04 +1.43896543776E-03 -2.92125591280E-01 +1.40501814879E-01
4.42000000000E+09 -3.64683339360E-01 +1.91571964574E-01 +2.32376225052E-04 +1.31251218299E-03 +2.44057931437E-04 +1.33642029402E-03 -2.87766135657E-01 +1.59825399805E-01
4.42500000000E+09 -3.58129728829E-01 +2.13137088426E-01 +5.57255408896E-04 +9.25399119517E-04 +5.23723870400E-04 +9.07830054659E-04 -2.83018409324E-01 +1.78559284418E-01
4.43000000000E+09 -3.53225372795E-01 +2.34163322916E-01 +7.18578195769E-05 +7.22931591815E-04 +7.75813230937E-05 +7.54785002027E-04 -2.78455638607E-01 +1.96407289714E-01
4.43500000000E+09 -3.49810406019E-01 +2.54702357242E-01 +5.56347637757E-05 +9.49791230074E-04 +5.13725679704E-05 +9.41514374912E-04 -2.74428494545E-01 +2.14449311170E-01
4.44000000000E+09 -3.46737815462E-01 +2.74024395720E-01 +1.10955652236E-04 +1.10162155095E-03 +1.60158999359E-04 +1.09750017949E-03 -2.69024983047E-01 +2.33429621407E-01
4.44500000000E+09 -3.43012166172E-01 +2.90857034993E-01 +5.18171081229E-04 +1.48159689599E-03 +5.04938806636E-04 +1.45048987154E-03 -2.61295105879E-01 +2.50638756850E-01
4.45000000000E+09 -3.38523978129E-01 +3.04474785123E-01 +1.16285889935E-03 +1.07160226425E-03 +1.12093567465E-03 +1.06073582745E-03 -2.53949779458E-01 +2.66574679230E-01
4.45500000000E+09 -3.33186285843E-01 +3.16844313277E-01 +9.93290107514E-04 +5.75523961144E-04 +1.09185476047E-03 +5.91830584351E-04 -2.45610098714E-01 +2.82694419753E-01
4.46000000000E+09 -3.25401111511E-01 +3.28638288454E-01 +9.11386628985E-04 +3.36376532927E-04 +8.99262815328E-04 +2.59720064742E-04 -2.37333214775E-01 +2.97743717809E-01
4.46500000000E+09 -3.16252196964E-01 +3.40556059060E-01 +7.29903294622E-04 +3.78262829307E-04 +7.30778637401E-04 +3.20180133380E-04 -2.29198560121E-01 +3.12665199955E-01
4.47000000000E+09 -3.05118033748E-01 +3.54781757323E-01 +6.54820281672E-04 +2.75698244064E-05 +6.98592496316E-04 -3.07235066019E-06 -2.20487782372E-01 +3.27792658429E-01
4.47500000000E+09 -2.92175557816E-01 +3.70581862061E-01 +3.72196205851E-04 +5.20380779701E-04 +3.89777525399E-04 +4.92515242306E-04 -2.11927755719E-01 +3.42070732161E-01
4.48000000000E+09 -2.78852345869E-01 +3.86752723116E-01 +7.02246525631E-04 +6.09532545061E-04 +6.83223055432E-04 +5.71522477155E-04 -2.02987626262E-01 +3.56690769283E-01
4.48500000000E+09 -2.67220197544E-01 +4.03556846728E-01 +7.99780276066E-04 +6.07298830235E-04 +7.85122375831E-04 +6.28263051065E-04 -1.93119011942E-01 +3.70498627923E-01
4.49000000000E+09 -2.57204967797E-01 +4.20273914243E-01 +1.25014427538E-03 +5.17924303848E-04 +1.19257834443E-03 +4.61770279177E-04 -1.83200501422E-01 +3.83470946112E-01
4.49500000000E+09 -2.49534258501E-01 +4.35846454380E-01 +1.36560510508E-03 -1.88445578674E-04 +1.36928896919E-03 -1.74170428943E-04 -1.73155164118E-01 +3.96199105897E-01
4.50000000000E+09 -2.43467664420E-01 +4.50298383706E-01 +8.13456707721E-04 -2.23983254069E-04 +7.84329353835E-04 -2.02818666805E-04 -1.62643844300E-01 +4.08561329531E-01
4.50500000000E+09 -2.37592041157E-01 +4.62683102764E-01 +9.05093567566E-04 -4.06774284279E-04 +8.67379399491E-04 -4.06141350945E-04 -1.52447292088E-01 +4.20532519900E-01
4.51000000000E+09 -2.31375438804E-01 +4.72456040331E-01 +4.77381290055E-04 -2.64996966181E-04 +4.66210552804E-04 -2.29263675820E-04 -1.41694140354E-01 +4.32128472339E-01
4.51500000000E+09 -2.23910368196E-01 +4.80530029100E-01 +5.13689489418E-04 +8.72057276334E-05 +5.03948405161E-04 +1.19271250889E-04 -1.31665362402E-01 +4.43124592952E-01
4.52000000000E+09 -2.14454964416E-01 +4.87909320176E-01 +9.62431546001E-04 +1.83540535305E-04 +9.91327521781E-04 +1.94833579746E-04 -1.21216451928E-01 +4.54394250911E-01
4.52500000000E+09 -2.02179120626E-01 +4.94952906899E-01 +1.22679122572E-03 -1.71984752196E-04 +1.21487494395E-03 -1.20150608254E-04 -1.09583966614E-01 +4.65061125768E-01
4.53000000000E+09 -1.88441388336E-01 +5.02399260933E-01 +1.44562496532E-03 -7.45441292841E-04 +1.39923453417E-03 -7.19532209244E-04 -9.81188598225E-02 +4.74284219389E-01
4.53500000000E+09 -1.73551010335E-01 +5.11202354733E-01 +8.37216094034E-04 -9.60489796948E-04 +7.86748365078E-04 -9.32961572036E-04 -8.60435297781E-02 +4.83957149257E-01
4.54000000000E+09 -1.58415918103E-01 +5.21196263365E-01 +6.84601861912E-04 -9.97492785504E-04 +6.29071365159E-04 -9.26848012921E-04 -7.36771267905E-02 +4.92897685765E-01
4.54500000000E+09 -1.43592863377E-01 +5.32038745377E-01 +4.08144153926E-04 -9.53879683522E-04 +3.72078873660E-04 -9.56136704398E-04 -6.19774083394E-02 +5.01296583355E-01
4.55000000000E+09 -1.30486073882E-01 +5.42354095531E-01 +3.24091974843E-04 -9.39398663569E-04 +3.33586795056E-04 -9.29814619413E-04 -4.97689077657E-02 +5.10019733325E-01
4.55500000000E+09 -1.19827120681E-01 +5.52554390489E-01 +2.56567337359E-04 -8.28584908680E-04 +2.41373497175E-04 -7.92031605715E-04 -3.84184029939E-02 +5.18455247926E-01
4.56000000000E+09 -1.10174380902E-01 +5.61101475671E-01 +9.76918425418E-05 -7.09594312331E-04 +1.01978703775E-04 -6.70574063004E-04 -2.61502905929E-02 +5.26463676249E-01
4.56500000000E+09 -1.01801618188E-01 +5.67873059493E-01 +4.98855713440E-04 -8.10132928784E-04 +4.37740273254E-04 -7.77862922406E-04 -1.43578278448E-02 +5.33602243392E-01
4.57000000000E+09 -9.37216446782E-02 +5.73031187447E-01 +2.92799496302E-04 -1.28082839940E-03 +2.68797532245E-04 -1.30124465764E-03 -2.47532063811E-03 +5.40778751053E-01
