# Hz S RI R 50
! CMT, C1220, 16058040, 17.2.0/1
! Date: 15/08/2018 12:31:29
! Data: Format (Calibration Info)
! Freq                      S11: Re/Im (F2)                       S21: Re/Im (F2)                       S12: Re/Im (F2)                       S22: Re/Im (F2)            
4.00000000000E+09 +6.63325584929E-01 -3.59182155571E-01 -2.74465942775E-04 -3.36560074204E-04 -3.02287436486E-04 -3.64821923409E-04 +7.82744744954E-01 -3.18256546417E-01
4.00500000000E+09 +6.55651493956E-01 -3.66156141193E-01 -1.30419563986E-04 -2.99768571710E-04 -1.43245592929E-04 -2.90391505541E-04 +7.74114703759E-01 -3.29937194748E-01
4.01000000000E+09 +6.46757539274E-01 -3.72495322228E-01 -2.64080837279E-04 -4.40300349870E-04 -3.00387785629E-04 -4.45279155942E-04 +7.65261380559E-01 -3.41686308240E-01
4.01500000000E+09 +6.37603695811E-01 -3.79314525565E-01 -2.53601713815E-04 -2.71240300005E-04 -2.51744275174E-04 -2.34965068139E-04 +7.56467194049E-01 -3.52413198855E-01
4.02000000000E+09 +6.27432975725E-01 -3.87740356962E-01 -2.34616395095E-04 -3.71616565269E-04 -2.07787010556E-04 -3.70097198800E-04 +7.47342769507E-01 -3.63039962897E-01
4.02500000000E+09 +6.16560655442E-01 -3.97182399367E-01 -3.11757425658E-04 -4.01736350813E-04 -3.10834408604E-04 -3.83037233347E-04 +7.37675318119E-01 -3.73099125720E-01
4.03000000000E+09 +6.05257655288E-01 -4.07704431962E-01 -4.43984273070E-04 -4.81788385407E-04 -3.79960698389E-04 -4.87906852086E-04 +7.27743555977E-01 -3.83299677370E-01
4.03500000000E+09 +5.93662452550E-01 -4.18389963203E-01 -5.87290677696E-04 -4.33920615241E-04 -5.37455227611E-04 -4.81795538113E-04 +7.16824159119E-01 -3.94187502142E-01
4.04000000000E+09 +5.82655759827E-01 -4.29074380409E-01 -8.21293149720E-04 -1.69537191172E-04 -7.70086151206E-04 -2.92228817781E-04 +7.06070998016E-01 -4.05297826270E-01
4.04500000000E+09 +5.70931218781E-01 -4.39279131464E-01 -6.90817739069E-04 +9.05483071664E-05 -6.70216381619E-04 +2.48330131566E-05 +6.95175735934E-01 -4.16497345947E-01
4.05000000000E+09 +5.59647016003E-01 -4.47154100288E-01 -5.07599296211E-04 +3.80757273892E-05 -4.78454107558E-04 +3.28999199350E-05 +6.84217751234E-01 -4.27070808651E-01
4.05500000000E+09 +5.48519729279E-01 -4.54586018929E-01 -5.48685514778E-04 +6.26120833027E-05 -5.34532609416E-04 +4.01700223781E-05 +6.72908333146E-01 -4.36370783944E-01
4.06000000000E+09 +5.35855690284E-01 -4.60390263920E-01 -4.99722644572E-04 -5.55786441493E-06 -5.09885526146E-04 -2.59470212621E-05 +6.61710599980E-01 -4.45522121606E-01
4.06500000000E+09 +5.23091484888E-01 -4.65017133567E-01 -6.40833744738E-04 +6.29129448290E-05 -6.24136156735E-04 -3.22520299981E-05 +6.49219409176E-01 -4.54658501297E-01
4.07000000000E+09 +5.09018789137E-01 -4.70494107624E-01 -6.52259954528E-04 +1.38998371506E-04 -6.72027836528E-04 +1.44688172564E-04 +6.36115390854E-01 -4.64364653783E-01
4.07500000000E+09 +4.93563830475E-01 -4.75681603966E-01 -6.98953291855E-04 +2.26592331197E-04 -7.41914838899E-04 +1.66993266315E-04 +6.22546382705E-01 -4.74520643544E-01
4.08000000000E+09 +4.77392509429E-01 -4.81580860878E-01 -8.14658603273E-04 +4.65718061966E-04 -8.41163409435E-04 +4.32537822657E-04 +6.09255177570E-01 -4.84111074972E-01
4.08500000000E+09 +4.60410857051E-01 -4.88316760413E-01 -5.61499260615E-04 +7.74519917463E-04 -6.34873596254E-04 +7.83432886459E-04 +5.96188760340E-01 -4.93897178753E-01
4.09000000000E+09 +4.43410399268E-01 -4.95235409246E-01 -3.38409377029E-04 +6.72113255866E-04 -4.18057690972E-04 +6.92661593725E-04 +5.82268014935E-01 -5.02470745576E-01
4.09500000000E+09 +4.26842607438E-01 -5.02609842924E-01 -1.66517230906E-04 +5.26632619452E-04 -1.86050720083E-04 +5.54015735374E-04 +5.68211599387E-01 -5.10113363808E-01
4.10000000000E+09 +4.09432740542E-01 -5.09257515661E-01 -3.05831685014E-04 +4.99951757844E-04 -3.81219028923E-04 +5.59366301806E-04 +5.53495901991E-01 -5.17969851946E-01
4.10500000000E+09 +3.92812897848E-01 -5.13913072891E-01 -3.63164953099E-04 +6.37686695524E-04 -4.33693934875E-04 +6.47964954433E-04 +5.37611564306E-01 -5.25953363345E-01
4.11000000000E+09 +3.76765384320E-01 -5.17440644415E-01 -1.22194641919E-04 +7.51159734593E-04 -1.32350510771E-04 +8.27285750767E-04 +5.21326640664E-01 -5.33928775818E-01
4.11500000000E+09 +3.60704803878E-01 -5.19392963111E-01 -7.99215751354E-05 +6.39180639812E-04 -3.63162320674E-05 +6.86247657537E-04 +5.05051390718E-01 -5.41530290460E-01
4.12000000000E+09 +3.43375552313E-01 -5.20597502097E-01 -8.39841972198E-05 +7.38129024484E-04 -8.13390961881E-05 +7.98648426197E-04 +4.88993841071E-01 -5.48885872260E-01
4.12500000000E+09 +3.26153508179E-01 -5.20652823661E-01 +1.28832699712E-04 +7.71365225944E-04 +1.71464493784E-04 +7.98845350632E-04 +4.72592623519E-01 -5.55117244918E-01
4.13000000000E+09 +3.07806017273E-01 -5.22260997044E-01 +3.07336606105E-04 +5.01019770794E-04 +3.65674214608E-04 +5.00300772160E-04 +4.55987016959E-01 -5.61543100334E-01
4.13500000000E+09 +2.88056250610E-01 -5.24148551349E-01 +1.18032245648E-04 +5.01365601244E-04 +1.27282698129E-04 +5.23993265320E-04 +4.37846889376E-01 -5.67451859593E-01
4.14000000000E+09 +2.68104696176E-01 -5.27003168242E-01 +5.49675289893E-05 +5.46027987866E-04 +1.12671788346E-04 +4.78769192364E-04 +4.19352038471E-01 -5.73066972188E-01
4.14500000000E+09 +2.47412927684E-01 -5.31132013156E-01 -7.05516651900E-05 +6.47262509637E-04 -7.28043517102E-05 +6.37023279780E-04 +4.00512895293E-01 -5.78839890545E-01
4.15000000000E+09 +2.26396692523E-01 -5.34478861115E-01 +1.31047154033E-04 +1.10114398101E-03 +1.30782205736E-04 +1.03756947161E-03 +3.82471777296E-01 -5.83908788940E-01
4.15500000000E+09 +2.06858549420E-01 -5.37514245402E-01 +5.50469482785E-04 +1.04634733774E-03 +5.38685229151E-04 +1.05461013734E-03 +3.64356185843E-01 -5.88388848649E-01
4.16000000000E+09 +1.88271316695E-01 -5.39512489971E-01 +9.68791789239E-04 +8.81298388310E-04 +9.34193258106E-04 +8.34892381246E-04 +3.46454788295E-01 -5.91597212876E-01
4.16500000000E+09 +1.70545134562E-01 -5.39743202795E-01 +1.07299543709E-03 +3.35708842876E-04 +9.88436359792E-04 +2.97996465467E-04 +3.27601208584E-01 -5.95010708506E-01
4.17000000000E+09 +1.53326949649E-01 -5.37948690634E-01 +6.96456970437E-04 +4.09468651199E-04 +6.18596184514E-04 +4.82671893382E-04 +3.07649443996E-01 -5.97581711473E-01
4.17500000000E+09 +1.36962289208E-01 -5.33656873382E-01 +1.06705736666E-03 +3.09432360143E-04 +1.04283198223E-03 +3.72184097626E-04 +2.86225575914E-01 -5.99882380715E-01
4.18000000000E+09 +1.20492989492E-01 -5.29327408965E-01 +8.84854342464E-04 -1.22467928010E-04 +9.01770717642E-04 -1.04050110707E-04 +2.65226293897E-01 -6.01618333950E-01
4.18500000000E+09 +1.01838738482E-01 -5.23764019097E-01 +4.02801979107E-04 +2.47044473909E-04 +3.56176499539E-04 +3.20151590362E-04 +2.44367808083E-01 -6.02758127734E-01
4.19000000000E+09 +8.27632672622E-02 -5.17405068853E-01 +1.12088244500E-03 +5.85502957960E-04 +1.07609943479E-03 +6.56082562519E-04 +2.23814859027E-01 -6.03004516848E-01
4.19500000000E+09 +6.28430988194E-02 -5.11940158675E-01 +1.29741083368E-03 -1.32360633679E-04 +1.39119538058E-03 -9.97691124295E-06 +2.02830083127E-01 -6.01826880804E-01
4.20000000000E+09 +4.16985621735E-02 -5.06064086666E-01 +1.18973743612E-03 -2.25264648283E-04 +1.24672235067E-03 -1.89449660369E-04 +1.82247176324E-01 -6.00065687315E-01
4.20500000000E+09 +2.14418509570E-02 -5.00856186598E-01 +1.40786846494E-03 -5.31175886876E-04 +1.52826356244E-03 -4.92599613361E-04 +1.59878309925E-01 -5.98061409794E-01
4.21000000000E+09 +1.76759082983E-03 -4.95524904815E-01 +1.04938630147E-03 -1.15800510727E-03 +1.15100271569E-03 -1.18830623936E-03 +1.37368693604E-01 -5.95853175808E-01
4.21500000000E+09 -1.62411986805E-02 -4.89568524968E-01 +5.37318213785E-04 -8.71850272622E-04 +5.67463932171E-04 -8.98171592550E-04 +1.15188703925E-01 -5.93156895850E-01
4.22000000000E+09 -3.33895337953E-02 -4.82959892799E-01 +4.23068113882E-04 -9.37660217839E-04 +5.17882476699E-04 -9.37833696468E-04 +9.34417383358E-02 -5.90163039073E-01
4.22500000000E+09 -4.95039353290E-02 -4.74042528485E-01 +4.84899915269E-04 -6.74257820994E-04 +6.23117280709E-04 -7.45538253059E-04 +7.18592836743E-02 -5.85777290187E-01
4.23000000000E+09 -6.43887886451E-02 -4.63637045483E-01 +5.13907497049E-04 -1.12851207919E-03 +5.56053602030E-04 -1.19852577611E-03 +5.09527031505E-02 -5.80286878582E-01
4.23500000000E+09 -8.04070821257E-02 -4.51410306689E-01 -1.05879692679E-04 -1.05311334679E-03 -5.89177165769E-05 -1.16868129377E-03 +2.86575544099E-02 -5.73780392154E-01
4.24000000000E+09 -9.70313502032E-02 -4.36711048220E-01 -6.51276999606E-05 -5.78381714737E-04 -4.84649761383E-05 -6.86375782502E-04 +6.38618271318E-03 -5.65733597838E-01
4.24500000000E+09 -1.13081226420E-01 -4.22011419020E-01 +1.83494134513E-04 -8.49354668022E-04 +2.23166472389E-04 -8.90418388393E-04 -1.62799378224E-02 -5.57829369819E-01
4.25000000000E+09 -1.32193043477E-01 -4.08155294442E-01 -4.60235499294E-05 -1.25032283643E-03 -1.68461305611E-04 -1.31216215401E-03 -3.88984929903E-02 -5.48909421290E-01
4.25500000000E+09 -1.52292784940E-01 -3.94097035595E-01 -5.55324426445E-04 -7.18374402995E-04 -6.47991853885E-04 -7.72839758961E-04 -5.98527958218E-02 -5.39011495866E-01
4.26000000000E+09 -1.72669006027E-01 -3.80551707026E-01 -1.11367684874E-04 -5.35941210034E-04 -2.52995218715E-04 -5.50379316497E-04 -8.06208066693E-02 -5.28705083327E-01
4.26500000000E+09 -1.92520417472E-01 -3.67387860671E-01 -1.11160945008E-04 -8.50275819757E-04 -2.09029987593E-04 -8.53979177356E-04 -1.01047421012E-01 -5.17286814352E-01
4.27000000000E+09 -2.10008372382E-01 -3.54279475037E-01 -6.91629520512E-04 -8.99491060741E-04 -7.16147475211E-04 -8.59160091451E-04 -1.22838747409E-01 -5.04557559021E-01
4.27500000000E+09 -2.25033856997E-01 -3.41589699066E-01 -5.88822305872E-04 -4.58588103199E-04 -6.25821456100E-04 -3.88214289534E-04 -1.44049355322E-01 -4.89389211885E-01
4.28000000000E+09 -2.37943410439E-01 -3.28466768125E-01 -6.58362028674E-04 -4.46899254777E-04 -6.84085766949E-04 -3.83966577093E-04 -1.64384905136E-01 -4.74723769875E-01
4.28500000000E+09 -2.49129295506E-01 -3.13970733498E-01 -4.67575615854E-04 -2.80999448794E-04 -5.47816525250E-04 -1.61577555212E-04 -1.84162563112E-01 -4.60221639338E-01
4.29000000000E+09 -2.59446140493E-01 -2.97450338355E-01 -5.83639402656E-04 -3.56730552532E-04 -6.02525443565E-04 -2.95432675994E-04 -2.03296585251E-01 -4.45311415293E-01
4.29500000000E+09 -2.68698434444E-01 -2.79004235795E-01 -4.42052620456E-04 -3.96521162976E-05 -3.32014370078E-04 -4.77124442822E-05 -2.21459476378E-01 -4.29610770845E-01
4.30000000000E+09 -2.78893377135E-01 -2.59187743166E-01 -4.22923171759E-04 -3.32615047720E-04 -3.78375621841E-04 -3.67073605047E-04 -2.38983221918E-01 -4.12571413695E-01
4.30500000000E+09 -2.89983275513E-01 -2.38198461179E-01 -6.86099328513E-04 -4.96758936411E-04 -6.14767039788E-04 -4.81855948840E-04 -2.56065943761E-01 -3.93927788219E-01
4.31000000000E+09 -3.02021082192E-01 -2.16801721861E-01 -9.34599835503E-04 +3.25301490077E-05 -8.48370941961E-04 -1.11950880888E-06 -2.71948415545E-01 -3.75218053322E-01
4.31500000000E+09 -3.14518351893E-01 -1.95921800960E-01 -7.03069609582E-04 -7.67351498846E-05 -6.88065924281E-04 -8.17996684773E-05 -2.88123421747E-01 -3.55909200314E-01
4.32000000000E+09 -3.26695179513E-01 -1.76666498591E-01 -9.06666577335E-04 +4.33884791874E-04 -8.63011249448E-04 +4.14877053566E-04 -3.03012940236E-01 -3.36411374505E-01
4.32500000000E+09 -3.38279490339E-01 -1.58448280249E-01 -1.35706284445E-04 +2.95417731100E-04 -6.56189162790E-05 +2.12060336972E-04 -3.18299638050E-01 -3.16556846442E-01
4.33000000000E+09 -3.47308716161E-01 -1.41364175053E-01 -6.50811205584E-04 +1.31281556386E-04 -6.59831342473E-04 +4.73026687336E-05 -3.31384739703E-01 -2.94383626305E-01
4.33500000000E+09 -3.54270218785E-01 -1.26050941430E-01 -2.84061429797E-04 +6.36913274040E-04 -2.84972032568E-04 +5.53673420949E-04 -3.43778263841E-01 -2.73161728545E-01
4.34000000000E+09 -3.59971337760E-01 -1.09645058297E-01 -2.25827266280E-05 +1.68124297438E-04 -3.93334263288E-05 +1.85566285198E-04 -3.56574955627E-01 -2.49492115054E-01
4.34500000000E+09 -3.61946088264E-01 -9.13452525472E-02 -3.63205376597E-04 +5.82239316071E-07 -4.10703286424E-04 -5.37339331809E-05 -3.67499256423E-01 -2.26167000840E-01
4.35000000000E+09 -3.63248067788E-01 -7.26781882069E-02 -3.64859252024E-04 +4.95272210865E-04 -4.73466731284E-04 +5.00749138381E-04 -3.79041853422E-01 -2.02816734162E-01
4.35500000000E+09 -3.63156877376E-01 -5.13652055507E-02 -6.06331988151E-05 +3.73443306236E-04 -1.14286422509E-04 +3.73142644481E-04 -3.88590298171E-01 -1.78628117398E-01
4.36000000000E+09 -3.63683117179E-01 -2.92504242195E-02 -4.38537108910E-05 +2.49963875657E-04 -4.57833250174E-05 +2.67226905445E-04 -3.96032048196E-01 -1.55387692717E-01
4.36500000000E+09 -3.65833034406E-01 -6.38022577519E-03 -2.86190455178E-05 +3.21295986086E-04 -9.98052886732E-05 +3.06452598629E-04 -4.03281332580E-01 -1.32388936376E-01
4.37000000000E+09 -3.68892780264E-01 +1.70922585483E-02 +1.75338396476E-04 +2.77504656313E-04 +1.27682617041E-04 +3.51565466512E-04 -4.08996859415E-01 -1.08220950764E-01
4.37500000000E+09 -3.73402091872E-01 +3.95400669288E-02 +5.52405195566E-04 -2.82907375144E-04 +5.44384040215E-04 -2.51922990749E-04 -4.14091880515E-01 -8.33120586098E-02
4.38000000000E+09 -3.77601538047E-01 +6.11624869851E-02 -3.86382978162E-04 -6.95221115526E-04 -2.95622068922E-04 -6.15628931128E-04 -4.17987563214E-01 -5.90774106172E-02
4.38500000000E+09 -3.80174930085E-01 +7.94436036775E-02 -6.92669344620E-04 +1.54325778113E-05 -6.83159390054E-04 +9.81819045846E-05 -4.21823601934E-01 -3.39357088134E-02
4.39000000000E+09 -3.82600968873E-01 +9.54551606969E-02 -2.84148489766E-04 +2.10724386497E-04 -2.25963458648E-04 +2.45518109119E-04 -4.23455588942E-01 -9.55872714056E-03
4.39500000000E+09 -3.82638739994E-01 +1.10944696162E-01 -3.36573747573E-04 -1.41182052675E-05 -2.49024843777E-04 -1.81078671390E-05 -4.24883187201E-01 +1.39204958711E-02
4.40000000000E+09 -3.79891853043E-01 +1.25532867371E-01 -1.90786526669E-04 +2.57674168605E-04 -1.26596154035E-04 +2.25395835880E-04 -4.24522125899E-01 +3.77622172583E-02
4.40500000000E+09 -3.74965970344E-01 +1.40588888354E-01 -1.81061066791E-04 -1.69528191541E-04 -2.03059214256E-04 -1.92052240555E-04 -4.24232873300E-01 +6.07466328175E-02
4.41000000000E+09 -3.68690327457E-01 +1.56722016690E-01 -3.53349843309E-04 -6.76329432587E-05 -3.68530620442E-04 -8.13255276627E-05 -4.23153080600E-01 +8.52969389812E-02
4.41500000000E+09 -3.61942323331E-01 +1.75395574573E-01 -4.96465238288E-04 -1.60724147161E-04 -4.69962089827E-04 -1.66057195442E-04 -4.21332752301E-01 +1.09104837223E-01
4.42000000000E+09 -3.55064915972E-01 +1.96133457704E-01 -9.85608842158E-04 -2.79832702936E-05 -9.88944439513E-04 -8.56207957944E-05 -4.18638842886E-01 +1.34032693577E-01
4.42500000000E+09 -3.49177815711E-01 +2.17677010643E-01 -9.49862260454E-04 +5.54822546980E-04 -9.69985908560E-04 +5.39416507041E-04 -4.13005030306E-01 +1.56634223112E-01
4.43000000000E+09 -3.44315237416E-01 +2.40030797395E-01 -7.28733412979E-04 +8.15159198274E-04 -7.21743552952E-04 +7.72927097943E-04 -4.09414948730E-01 +1.78578493184E-01
4.43500000000E+09 -3.39490956665E-01 +2.60856676109E-01 -5.67768815591E-04 +9.49516278957E-04 -5.75673127330E-04 +9.77382604171E-04 -4.03126224669E-01 +2.01869814920E-01
4.44000000000E+09 -3.36096957290E-01 +2.78289057433E-01 -4.57384570989E-05 +9.13307280772E-04 -3.40208821840E-05 +9.53675836266E-04 -3.96671949980E-01 +2.23452307519E-01
4.44500000000E+09 -3.34241995825E-01 +2.94197583456E-01 -1.32864661268E-04 +5.67958000675E-04 -1.86638414439E-04 +5.74512134680E-04 -3.89914591060E-01 +2.45193466836E-01
4.45000000000E+09 -3.31401797440E-01 +3.08057387731E-01 -3.14313889504E-04 +7.77923857277E-04 -3.40606808289E-04 +8.50997946314E-04 -3.82779723614E-01 +2.66261087834E-01
4.45500000000E+09 -3.26650441988E-01 +3.20834503944E-01 -2.02930178454E-04 +9.43391038464E-04 -1.78185116087E-04 +9.82921954436E-04 -3.73929704172E-01 +2.86293336796E-01
4.46000000000E+09 -3.19561323583E-01 +3.32781010984E-01 -6.42467243074E-05 +9.92036020461E-04 -3.97342761643E-05 +1.02197360813E-03 -3.65566529679E-01 +3.04982982228E-01
4.46500000000E+09 -3.10059432427E-01 +3.44850816063E-01 +2.08203408845E-04 +1.03565414253E-03 +2.95872523348E-04 +1.06804402454E-03 -3.55845271124E-01 +3.24400550147E-01
4.47000000000E+09 -2.98658331394E-01 +3.58089748698E-01 +3.26462120375E-04 +1.08976685764E-03 +4.19642506385E-04 +1.10244147015E-03 -3.44639143083E-01 +3.42936796432E-01
4.47500000000E+09 -2.86109079910E-01 +3.72043176855E-01 +3.86786450509E-04 +9.70060612184E-04 +4.63260839908E-04 +9.26684156519E-04 -3.34040072503E-01 +3.61530411208E-01
4.48000000000E+09 -2.74622435404E-01 +3.88417682074E-01 +7.13885942413E-04 +1.08894182890E-03 +7.81075370526E-04 +1.07053405315E-03 -3.22179202783E-01 +3.79726059384E-01
4.48500000000E+09 -2.62278291949E-01 +4.05890963103E-01 +7.82093543344E-04 +5.93054168790E-04 +8.22664718374E-04 +5.26621205688E-04 -3.10802135875E-01 +3.96452769057E-01
4.49000000000E+09 -2.51740232411E-01 +4.21944811616E-01 +5.75394276973E-04 +6.85324222356E-04 +6.48871677642E-04 +6.23096991645E-04 -2.99629624340E-01 +4.12280664976E-01
4.49500000000E+09 -2.43617885221E-01 +4.37824235416E-01 +7.47372340611E-04 +7.22854076502E-04 +7.42295393600E-04 +6.44762404842E-04 -2.88550537308E-01 +4.27605545693E-01
4.50000000000E+09 -2.36588959104E-01 +4.50720417412E-01 +6.99618038744E-04 +9.74836363442E-04 +6.89341798783E-04 +9.13893376208E-04 -2.76447539724E-01 +4.43264873774E-01
4.50500000000E+09 -2.32229224124E-01 +4.62378044215E-01 +1.40022912334E-03 +9.12055089003E-04 +1.36105226876E-03 +8.71297994946E-04 -2.63454395677E-01 +4.57936895748E-01
4.51000000000E+09 -2.26148270808E-01 +4.72573373122E-01 +1.50465383947E-03 +1.24311059259E-04 +1.51207269759E-03 +9.67731968516E-05 -2.50241332076E-01 +4.72409769980E-01
4.51500000000E+09 -2.19276577213E-01 +4.80177201078E-01 +1.28686175708E-03 +2.46979131299E-04 +1.19845642438E-03 +1.98983155066E-04 -2.36882911794E-01 +4.86676696392E-01
4.52000000000E+09 -2.09756928198E-01 +4.87974958313E-01 +1.56265790468E-03 -1.43673737792E-04 +1.48865789070E-03 -1.39646672997E-04 -2.23866333087E-01 +4.99792524196E-01
4.52500000000E+09 -1.98036835813E-01 +4.93808592385E-01 +1.20101691621E-03 -3.79755823831E-04 +1.17380137284E-03 -3.77952934806E-04 -2.10440162529E-01 +5.12311164200E-01
4.53000000000E+09 -1.84991035931E-01 +5.01328953592E-01 +1.06544117410E-03 -2.19991627890E-04 +1.07547424012E-03 -2.04220515567E-04 -1.96690326875E-01 +5.23951084939E-01
4.53500000000E+09 -1.69854747594E-01 +5.09858863933E-01 +1.06223231081E-03 -3.41485622156E-04 +1.01196682219E-03 -2.94742616524E-04 -1.82111463287E-01 +5.35810487326E-01
4.54000000000E+09 -1.54666483586E-01 +5.19245015468E-01 +1.39820548820E-03 -1.32490599040E-04 +1.37134881221E-03 -8.68463471863E-05 -1.66244289117E-01 +5.46449626834E-01
4.54500000000E+09 -1.39890350957E-01 +5.30153352648E-01 +1.69669463892E-03 -8.79253658018E-04 +1.62293892839E-03 -8.31912426239E-04 -1.51457481752E-01 +5.56329499199E-01
4.55000000000E+09 -1.26159804299E-01 +5.40520519649E-01 +1.32808475893E-03 -9.95829251946E-04 +1.27317105568E-03 -9.62391617729E-04 -1.36588510161E-01 +5.66749088705E-01
4.55500000000E+09 -1.15101913544E-01 +5.50853946297E-01 +1.09475270930E-03 -1.40365901306E-03 +1.07486488124E-03 -1.36413929052E-03 -1.22340123970E-01 +5.76234030420E-01
4.56000000000E+09 -1.04762964331E-01 +5.60181336770E-01 +6.58096159026E-04 -1.28918852803E-03 +6.83720333996E-04 -1.35214554294E-03 -1.07813903592E-01 +5.84874929254E-01
4.56500000000E+09 -9.61738651201E-02 +5.67836431889E-01 +6.05180525036E-04 -1.45780227434E-03 +5.99809672599E-04 -1.51116601097E-03 -9.39515934378E-02 +5.93530627659E-01
4.57000000000E+09 -8.71535279134E-02 +5.74629161970E-01 +3.72277673744E-04 -1.48863351063E-03 +3.43900447579E-04 -1.45360300863E-03 -7.81621964999E-02 +6.02048630875E-01
