# Hz S RI R 50
! CMT, C1220, 16058040, 17.2.0/1
! Date: 15/08/2018 11:41:58
! Data: Format (Calibration Info)
! Freq                      S11: Re/Im (F2)                       S21: Re/Im (F2)                       S12: Re/Im (F2)                       S22: Re/Im (F2)            
4.00000000000E+09 +6.36238226366E-01 -3.36104357373E-01 -1.17090360196E-03 -2.91865738973E-03 -1.13465017361E-03 -3.03883882216E-03 +7.71181288214E-01 -3.52498257766E-01
4.00500000000E+09 +6.27335971531E-01 -3.42377756091E-01 -1.34992790767E-03 -2.82867524967E-03 -1.30263427123E-03 -2.95868025087E-03 +7.62590484584E-01 -3.63923476487E-01
4.01000000000E+09 +6.17386807592E-01 -3.47670444602E-01 -1.68777013843E-03 -3.00417995085E-03 -1.60857829957E-03 -3.13860842955E-03 +7.52823724789E-01 -3.75164989414E-01
4.01500000000E+09 +6.06740084443E-01 -3.52949974235E-01 -2.05329627565E-03 -2.69208519676E-03 -2.03338137178E-03 -2.81487682728E-03 +7.43155671521E-01 -3.85333806956E-01
4.02000000000E+09 +5.95282870030E-01 -3.59400763812E-01 -2.14231524538E-03 -2.74027928477E-03 -2.07840825587E-03 -2.93859543071E-03 +7.33523505014E-01 -3.95789894360E-01
4.02500000000E+09 +5.82858460834E-01 -3.66592162560E-01 -2.93090908040E-03 -2.75058931337E-03 -2.90864718753E-03 -2.90828128011E-03 +7.23176823249E-01 -4.06475140853E-01
4.03000000000E+09 +5.70648101828E-01 -3.74562507990E-01 -3.38455408566E-03 -2.14943952895E-03 -3.38544122874E-03 -2.29724454059E-03 +7.12350466636E-01 -4.16980171978E-01
4.03500000000E+09 +5.58041440137E-01 -3.84084633314E-01 -3.34890407371E-03 -1.68136202821E-03 -3.42250499830E-03 -1.87583453815E-03 +7.01016710081E-01 -4.27866219674E-01
4.04000000000E+09 +5.45276314394E-01 -3.93375532795E-01 -3.64202022733E-03 -1.38549992266E-03 -3.71650131615E-03 -1.52793099103E-03 +6.89226517761E-01 -4.38687569175E-01
4.04500000000E+09 +5.33051817224E-01 -4.02716809061E-01 -3.57250377495E-03 -9.30837464773E-04 -3.64751592271E-03 -1.06318142782E-03 +6.77495608663E-01 -4.48765474944E-01
4.05000000000E+09 +5.20251360858E-01 -4.11201400537E-01 -3.70494150884E-03 -9.08092174610E-04 -3.81907615980E-03 -1.06835966994E-03 +6.65938133449E-01 -4.59152792798E-01
4.05500000000E+09 +5.06717529529E-01 -4.17768018215E-01 -4.10529589049E-03 -3.93579128514E-04 -4.24363828087E-03 -5.35015180768E-04 +6.53308032908E-01 -4.69157926667E-01
4.06000000000E+09 +4.93515101519E-01 -4.22361432693E-01 -4.14056012441E-03 +1.17672678376E-04 -4.24015410922E-03 +1.97959460550E-05 +6.40510228089E-01 -4.78466227612E-01
4.06500000000E+09 +4.79653511518E-01 -4.26091799296E-01 -3.95453592442E-03 +7.14560057573E-04 -4.08399663629E-03 +6.54320813479E-04 +6.26815425358E-01 -4.87808724652E-01
4.07000000000E+09 +4.65309340459E-01 -4.28936547359E-01 -3.89671146010E-03 +8.48433022974E-04 -3.95061399193E-03 +7.80159905183E-04 +6.12805978985E-01 -4.97075496326E-01
4.07500000000E+09 +4.50106718596E-01 -4.32377132626E-01 -3.81869847345E-03 +1.16548598410E-03 -3.90112017085E-03 +1.12723621496E-03 +5.98730252816E-01 -5.06653408648E-01
4.08000000000E+09 +4.33703424549E-01 -4.35885769647E-01 -3.75982675795E-03 +1.45960600897E-03 -3.89287544714E-03 +1.29786410691E-03 +5.83856775143E-01 -5.16362808841E-01
4.08500000000E+09 +4.16389070607E-01 -4.40306975069E-01 -3.72404214398E-03 +1.78793227189E-03 -3.91913150354E-03 +1.71498389603E-03 +5.69175214155E-01 -5.24578853740E-01
4.09000000000E+09 +3.98450353701E-01 -4.44407023474E-01 -3.46465793249E-03 +2.12538737450E-03 -3.68416407481E-03 +2.14777339764E-03 +5.54322389934E-01 -5.32607519066E-01
4.09500000000E+09 +3.81030253499E-01 -4.48380658702E-01 -3.66816261705E-03 +2.42591329507E-03 -3.78615225216E-03 +2.45252877750E-03 +5.38995377987E-01 -5.39797552468E-01
4.10000000000E+09 +3.64149021630E-01 -4.52551738649E-01 -3.38643853799E-03 +2.86800685219E-03 -3.53513526130E-03 +2.89146671247E-03 +5.23411037597E-01 -5.46911458836E-01
4.10500000000E+09 +3.47529309441E-01 -4.56050130839E-01 -3.28526344532E-03 +3.27859457432E-03 -3.40770864633E-03 +3.33525295954E-03 +5.06230497756E-01 -5.54637238811E-01
4.11000000000E+09 +3.30580737517E-01 -4.58128089101E-01 -3.12461821334E-03 +3.87391947067E-03 -3.29982763489E-03 +3.90292119228E-03 +4.88616472292E-01 -5.61339712032E-01
4.11500000000E+09 +3.14522468269E-01 -4.58407368011E-01 -2.27368006324E-03 +4.31057635092E-03 -2.47613830944E-03 +4.35572041082E-03 +4.71449984361E-01 -5.67696642516E-01
4.12000000000E+09 +2.97944746731E-01 -4.58174350871E-01 -2.02569302569E-03 +4.22624048764E-03 -2.14531997972E-03 +4.31224926190E-03 +4.54207578835E-01 -5.74554014161E-01
4.12500000000E+09 +2.80869963535E-01 -4.56847366611E-01 -1.90218892163E-03 +4.49412763919E-03 -2.07048746261E-03 +4.58701716320E-03 +4.36526746711E-01 -5.80288849890E-01
4.13000000000E+09 +2.63503319269E-01 -4.55135282411E-01 -1.43435244808E-03 +4.91178986014E-03 -1.58486193254E-03 +4.93630971639E-03 +4.18399768050E-01 -5.85687975096E-01
4.13500000000E+09 +2.45473294102E-01 -4.53963060292E-01 -1.26669152321E-03 +4.99187624501E-03 -1.45526420596E-03 +5.09250631075E-03 +3.99894322902E-01 -5.90230068999E-01
4.14000000000E+09 +2.27179944347E-01 -4.53686805854E-01 -8.34995799539E-04 +5.79491661815E-03 -1.09699420392E-03 +5.92407956415E-03 +3.80317507691E-01 -5.94698907060E-01
4.14500000000E+09 +2.08501890444E-01 -4.54450825429E-01 +2.82292198530E-04 +6.35805082262E-03 +9.80171042623E-05 +6.58808469633E-03 +3.60752926804E-01 -5.98399732355E-01
4.15000000000E+09 +1.89386699408E-01 -4.56527506143E-01 +1.28812454925E-03 +5.95114017794E-03 +1.23976175340E-03 +6.25483742523E-03 +3.42109548308E-01 -6.02922839866E-01
4.15500000000E+09 +1.69618975521E-01 -4.57696968680E-01 +2.02570262429E-03 +5.50318563884E-03 +2.02315890124E-03 +5.64927501657E-03 +3.21939841430E-01 -6.07183141164E-01
4.16000000000E+09 +1.50874296586E-01 -4.57218091026E-01 +2.38370039676E-03 +5.14447048263E-03 +2.38382286595E-03 +5.23989256910E-03 +3.01187153740E-01 -6.08948124178E-01
4.16500000000E+09 +1.33117981853E-01 -4.55011429052E-01 +2.41719184937E-03 +4.95340379159E-03 +2.42407690173E-03 +5.11679063023E-03 +2.81907143996E-01 -6.09693690455E-01
4.17000000000E+09 +1.17210585306E-01 -4.50432265892E-01 +2.90470468815E-03 +5.14958098425E-03 +2.92344172678E-03 +5.31004706682E-03 +2.61311506099E-01 -6.10370976723E-01
4.17500000000E+09 +1.02288790254E-01 -4.45073565334E-01 +3.62918142735E-03 +5.24131928172E-03 +3.66094573905E-03 +5.45406665866E-03 +2.40099969671E-01 -6.10451368568E-01
4.18000000000E+09 +8.69111244012E-02 -4.38777359174E-01 +4.58191908570E-03 +4.68699703302E-03 +4.68584943279E-03 +4.94010866490E-03 +2.18380104804E-01 -6.10151968906E-01
4.18500000000E+09 +7.03893816937E-02 -4.31225543641E-01 +5.04752715850E-03 +4.22602544255E-03 +5.17957581682E-03 +4.41165619862E-03 +1.95969865210E-01 -6.09046269111E-01
4.19000000000E+09 +5.35793134459E-02 -4.22795817684E-01 +5.69432917664E-03 +3.88346983184E-03 +5.87024298275E-03 +4.09251187899E-03 +1.75145963978E-01 -6.06695176691E-01
4.19500000000E+09 +3.56514775801E-02 -4.14035225228E-01 +6.43264482505E-03 +3.02434418602E-03 +6.51788300327E-03 +3.22890604157E-03 +1.54310484325E-01 -6.04517602771E-01
4.20000000000E+09 +1.78523760976E-02 -4.05235376058E-01 +6.52743501920E-03 +2.08029672113E-03 +6.67796864596E-03 +2.25753882761E-03 +1.32694608337E-01 -6.02327873067E-01
4.20500000000E+09 +8.51976728834E-04 -3.97539593090E-01 +6.68687647499E-03 +1.43428063086E-03 +6.84951737610E-03 +1.62454883943E-03 +1.10205041207E-01 -5.98650457529E-01
4.21000000000E+09 -1.59743153733E-02 -3.90543693757E-01 +6.76799165242E-03 +4.66724494187E-04 +6.93348352371E-03 +5.77530762503E-04 +8.73862083719E-02 -5.93874133990E-01
4.21500000000E+09 -3.24581900721E-02 -3.83599799384E-01 +6.44649260751E-03 +3.13597844531E-04 +6.62684062653E-03 +4.15678695581E-04 +6.56459473542E-02 -5.89411394143E-01
4.22000000000E+09 -4.80356137110E-02 -3.75164160527E-01 +6.83959746937E-03 +3.49595312783E-04 +7.02692223832E-03 +4.13114351756E-04 +4.29267971188E-02 -5.83685384092E-01
4.22500000000E+09 -6.18339091391E-02 -3.65141986496E-01 +7.82992693333E-03 -7.83975049667E-04 +8.00412262756E-03 -7.17705162428E-04 +2.03464794479E-02 -5.77502535426E-01
4.23000000000E+09 -7.44682990337E-02 -3.53715023132E-01 +7.80350163835E-03 -2.42886158570E-03 +7.94045970534E-03 -2.39214699356E-03 -1.84279415853E-03 -5.69579664442E-01
4.23500000000E+09 -8.65636081602E-02 -3.40798924889E-01 +6.98406345190E-03 -3.42365810502E-03 +7.16561339300E-03 -3.40398253392E-03 -2.33139323016E-02 -5.60164198301E-01
4.24000000000E+09 -9.93070973690E-02 -3.26884491166E-01 +6.36373215586E-03 -4.03298097781E-03 +6.51310292324E-03 -4.10230037185E-03 -4.42689946432E-02 -5.50408813292E-01
4.24500000000E+09 -1.12606889266E-01 -3.11924999943E-01 +5.81910593053E-03 -4.18284096326E-03 +5.97747101883E-03 -4.24806235773E-03 -6.50188541461E-02 -5.40802219957E-01
4.25000000000E+09 -1.27087654295E-01 -2.96659245212E-01 +5.85089488639E-03 -4.75316837038E-03 +5.97399091612E-03 -4.87726876774E-03 -8.71939720091E-02 -5.29911550514E-01
4.25500000000E+09 -1.42522648109E-01 -2.82259200166E-01 +5.26580132672E-03 -5.77699499351E-03 +5.41406578687E-03 -5.92845349070E-03 -1.09045854588E-01 -5.17843181725E-01
4.26000000000E+09 -1.59016971804E-01 -2.68490209892E-01 +4.50490998502E-03 -6.14866667161E-03 +4.51781653813E-03 -6.30331398759E-03 -1.29838268051E-01 -5.03860056545E-01
4.26500000000E+09 -1.76069573681E-01 -2.55559406969E-01 +4.14311736772E-03 -6.22936227525E-03 +4.19414120368E-03 -6.41805251669E-03 -1.49828205478E-01 -4.89420300225E-01
4.27000000000E+09 -1.92107509485E-01 -2.42379738749E-01 +3.72313392681E-03 -7.08258833113E-03 +3.77132250394E-03 -7.21635497596E-03 -1.69060782994E-01 -4.74172930756E-01
4.27500000000E+09 -2.06803461662E-01 -2.29433223301E-01 +2.90684515866E-03 -7.58994460559E-03 +2.87492149680E-03 -7.80917821117E-03 -1.89117347581E-01 -4.58010914859E-01
4.28000000000E+09 -2.18638233232E-01 -2.15160695349E-01 +2.22302662379E-03 -8.04208782587E-03 +2.18965422899E-03 -8.14563148093E-03 -2.08006519471E-01 -4.41734698131E-01
4.28500000000E+09 -2.27267664061E-01 -2.01135820476E-01 +1.42372763122E-03 -8.74465575662E-03 +1.33259502998E-03 -8.85864588620E-03 -2.27524885169E-01 -4.25152945042E-01
4.29000000000E+09 -2.34781178277E-01 -1.87006484173E-01 -4.25153210374E-04 -9.08762116264E-03 -3.96677862314E-04 -9.22477150187E-03 -2.45002994712E-01 -4.06693461847E-01
4.29500000000E+09 -2.42134833691E-01 -1.71688439912E-01 -1.60660019759E-03 -8.04237290564E-03 -1.61642646786E-03 -8.21152354710E-03 -2.60436158520E-01 -3.90396876323E-01
4.30000000000E+09 -2.49906437213E-01 -1.54386162240E-01 -2.14519642862E-03 -7.53643496693E-03 -2.24578329765E-03 -7.68588792395E-03 -2.77580236787E-01 -3.72903255895E-01
4.30500000000E+09 -2.57590545247E-01 -1.35434662758E-01 -2.34711625602E-03 -7.07972209707E-03 -2.45970006434E-03 -7.24530129021E-03 -2.94406237228E-01 -3.52359349736E-01
4.31000000000E+09 -2.65731258604E-01 -1.15081607112E-01 -2.39941588610E-03 -7.34593651134E-03 -2.44160335561E-03 -7.45614674362E-03 -3.09892133247E-01 -3.31257436155E-01
4.31500000000E+09 -2.73172242255E-01 -9.51561403597E-02 -3.25275911623E-03 -7.82654047923E-03 -3.32941435257E-03 -7.89760655924E-03 -3.23940143004E-01 -3.08980071662E-01
4.32000000000E+09 -2.80054287244E-01 -7.57760229119E-02 -4.36617889500E-03 -7.88205397611E-03 -4.46958803582E-03 -7.98640622762E-03 -3.36975980112E-01 -2.87580247779E-01
4.32500000000E+09 -2.85922314364E-01 -5.95216056376E-02 -6.12982714465E-03 -7.30017714330E-03 -6.30239884337E-03 -7.52174434591E-03 -3.49826993907E-01 -2.65846316573E-01
4.33000000000E+09 -2.92710737693E-01 -4.38764550891E-02 -6.72244980361E-03 -6.38434206884E-03 -6.89591421230E-03 -6.52882932958E-03 -3.62133961218E-01 -2.42222418091E-01
4.33500000000E+09 -2.97598191019E-01 -2.77429064697E-02 -7.65411727950E-03 -5.47117630955E-03 -7.85443721979E-03 -5.54851959618E-03 -3.72490198825E-01 -2.17031802683E-01
4.34000000000E+09 -3.00294733789E-01 -1.12762232850E-02 -8.15668501979E-03 -4.40146205772E-03 -8.34004274891E-03 -4.37882941946E-03 -3.80660852026E-01 -1.92367834042E-01
4.34500000000E+09 -2.99995453495E-01 +5.21665754497E-03 -8.13866666088E-03 -3.26547591478E-03 -8.17131804148E-03 -3.25644486006E-03 -3.89793785367E-01 -1.69548853307E-01
4.35000000000E+09 -2.99092193813E-01 +2.23192071152E-02 -8.25329963807E-03 -3.03687408338E-03 -8.34322385644E-03 -3.04727229103E-03 -3.99797857947E-01 -1.44504766867E-01
4.35500000000E+09 -2.96770858642E-01 +4.05426937198E-02 -9.02763053132E-03 -2.30270910524E-03 -9.16681202887E-03 -2.29441381348E-03 -4.07235350536E-01 -1.18065540459E-01
4.36000000000E+09 -2.95474872024E-01 +5.93200655421E-02 -8.82152887314E-03 -1.45395824258E-03 -9.03212311869E-03 -1.38515410127E-03 -4.12349751769E-01 -9.33870593666E-02
4.36500000000E+09 -2.94420877406E-01 +7.97869611147E-02 -9.88851581766E-03 -1.31957880428E-03 -1.00631481084E-02 -1.13500972333E-03 -4.16208542533E-01 -6.92017857704E-02
4.37000000000E+09 -2.94160350199E-01 +1.00078458410E-01 -1.08058006387E-02 +6.13050395584E-04 -1.10100493060E-02 +8.13599073691E-04 -4.19216565878E-01 -4.50567186961E-02
4.37500000000E+09 -2.94001672030E-01 +1.19817124040E-01 -1.03653301065E-02 +2.67382945164E-03 -1.04892600136E-02 +2.89533721589E-03 -4.21472530533E-01 -2.07347828800E-02
4.38000000000E+09 -2.95089736516E-01 +1.37898653738E-01 -9.66645053129E-03 +3.60948491627E-03 -9.78760947076E-03 +3.88051726937E-03 -4.23501376987E-01 +5.35302255182E-03
4.38500000000E+09 -2.95373199758E-01 +1.54717478382E-01 -8.96580902179E-03 +4.66148283767E-03 -8.98174089817E-03 +4.96961009540E-03 -4.22898905847E-01 +3.12277385264E-02
4.39000000000E+09 -2.94874969633E-01 +1.70090174734E-01 -8.14742038361E-03 +5.46326121651E-03 -8.06681656420E-03 +5.76882879918E-03 -4.22723851583E-01 +5.54385396598E-02
4.39500000000E+09 -2.92912808143E-01 +1.83813310793E-01 -8.05034746151E-03 +5.80372151293E-03 -7.94958533707E-03 +6.10130540561E-03 -4.22307907042E-01 +7.96004684505E-02
4.40000000000E+09 -2.88872538221E-01 +1.97376897643E-01 -7.39320044560E-03 +7.38295663529E-03 -7.18461115032E-03 +7.52301636991E-03 -4.20939340400E-01 +1.04025253098E-01
4.40500000000E+09 -2.83462608501E-01 +2.10502013337E-01 -6.50218560809E-03 +8.21690537797E-03 -6.32458822442E-03 +8.34017496829E-03 -4.17300073408E-01 +1.28423471505E-01
4.41000000000E+09 -2.76778567517E-01 +2.24721602943E-01 -5.15090063407E-03 +8.49792004875E-03 -5.00581145800E-03 +8.62532749841E-03 -4.12223380458E-01 +1.52661745047E-01
4.41500000000E+09 -2.69327649818E-01 +2.40467318109E-01 -4.71533682785E-03 +9.48170882152E-03 -4.57570006671E-03 +9.53370879666E-03 -4.06425805274E-01 +1.75879933687E-01
4.42000000000E+09 -2.61866104293E-01 +2.57189481944E-01 -3.59390026615E-03 +9.78948569205E-03 -3.41116292884E-03 +9.76425578794E-03 -3.99447974347E-01 +1.99180101415E-01
4.42500000000E+09 -2.54768947400E-01 +2.74772206888E-01 -2.69359226735E-03 +1.07900126064E-02 -2.43836882188E-03 +1.07730515135E-02 -3.94048108398E-01 +2.20840174759E-01
4.43000000000E+09 -2.48177502127E-01 +2.91989681462E-01 -3.61027076049E-04 +1.11806188763E-02 -2.09704148339E-04 +1.11091958345E-02 -3.86876354706E-01 +2.44500324459E-01
4.43500000000E+09 -2.42340310724E-01 +3.08101015775E-01 +1.05188471964E-03 +1.03621331569E-02 +1.13885550520E-03 +1.02580715399E-02 -3.77597112945E-01 +2.66518140040E-01
4.44000000000E+09 -2.37752985013E-01 +3.21809774016E-01 +2.16383749885E-03 +9.55393393694E-03 +2.22841981236E-03 +9.43790637773E-03 -3.68472804807E-01 +2.86105484198E-01
4.44500000000E+09 -2.33692880395E-01 +3.34058189218E-01 +2.52387040121E-03 +9.17691812151E-03 +2.58837745162E-03 +9.07511787600E-03 -3.59911047055E-01 +3.05928665178E-01
4.45000000000E+09 -2.29661790405E-01 +3.44799198791E-01 +3.06943550182E-03 +8.77845474587E-03 +3.14033123756E-03 +8.74833141644E-03 -3.50090944595E-01 +3.25951268782E-01
4.45500000000E+09 -2.23297082818E-01 +3.54753449091E-01 +3.95342813193E-03 +9.25408633543E-03 +4.07224610257E-03 +9.20606228140E-03 -3.39178654810E-01 +3.45193674884E-01
4.46000000000E+09 -2.15452326397E-01 +3.63606839450E-01 +5.48779133991E-03 +8.67619509795E-03 +5.64524464896E-03 +8.55106757036E-03 -3.26136830787E-01 +3.63810674820E-01
4.46500000000E+09 -2.05161922506E-01 +3.72772724673E-01 +6.22857355916E-03 +7.49524164806E-03 +6.46100580046E-03 +7.37381448212E-03 -3.14021336793E-01 +3.79451394808E-01
4.47000000000E+09 -1.93656607566E-01 +3.82717718872E-01 +6.88290594920E-03 +7.05150073745E-03 +7.03361167758E-03 +6.80931111711E-03 -3.02783122733E-01 +3.96116476078E-01
4.47500000000E+09 -1.80410042633E-01 +3.93515990923E-01 +7.38254306211E-03 +6.21594214130E-03 +7.44560510999E-03 +5.95990547139E-03 -2.91146774972E-01 +4.13859676766E-01
4.48000000000E+09 -1.68048192343E-01 +4.04430015010E-01 +8.21979384929E-03 +5.35351583012E-03 +8.24334874923E-03 +5.12001902979E-03 -2.78081467142E-01 +4.30551575010E-01
4.48500000000E+09 -1.57365182657E-01 +4.16993560535E-01 +8.96401404702E-03 +4.69616689635E-03 +8.91572641213E-03 +4.46050711862E-03 -2.64033978450E-01 +4.45618548603E-01
4.49000000000E+09 -1.47459892301E-01 +4.29790470720E-01 +9.45148181395E-03 +2.72232231508E-03 +9.35642480452E-03 +2.60696455724E-03 -2.51049220550E-01 +4.59591273526E-01
4.49500000000E+09 -1.39421222083E-01 +4.41892269455E-01 +8.75908295365E-03 +1.86079544162E-03 +8.62659084400E-03 +1.74948274814E-03 -2.38103111451E-01 +4.73899701686E-01
4.50000000000E+09 -1.32639455663E-01 +4.52564335791E-01 +8.80636027098E-03 +1.53708207680E-03 +8.69993560771E-03 +1.46548562574E-03 -2.23790112727E-01 +4.87742106614E-01
4.50500000000E+09 -1.26526300728E-01 +4.61902367860E-01 +9.01002158626E-03 +1.02382896344E-03 +8.94597448050E-03 +8.54069337523E-04 -2.09791794974E-01 +5.01035539618E-01
4.51000000000E+09 -1.19295047746E-01 +4.68511908269E-01 +9.84922243922E-03 +2.44743507195E-05 +9.72274666448E-03 -7.68389715418E-05 -1.93962844255E-01 +5.13263152072E-01
4.51500000000E+09 -1.11909399344E-01 +4.73300049045E-01 +9.77650291480E-03 -1.38569433860E-03 +9.57174152188E-03 -1.48273805638E-03 -1.79881080459E-01 +5.23514760899E-01
4.52000000000E+09 -1.02732109302E-01 +4.77361567760E-01 +9.73600908754E-03 -2.97709621990E-03 +9.59600645439E-03 -3.08954456487E-03 -1.66841953821E-01 +5.34372724799E-01
4.52500000000E+09 -9.17471969354E-02 +4.80773208321E-01 +8.49988677159E-03 -3.99773275867E-03 +8.28558555241E-03 -4.14133190554E-03 -1.52908791315E-01 +5.45179964933E-01
4.53000000000E+09 -7.92865625850E-02 +4.85166043402E-01 +7.97284471204E-03 -4.55634164056E-03 +7.66638067543E-03 -4.66699518788E-03 -1.38033546704E-01 +5.54934411266E-01
4.53500000000E+09 -6.52460107384E-02 +4.90844090482E-01 +7.38678092719E-03 -5.31265271382E-03 +7.04369622783E-03 -5.33107677215E-03 -1.23298974872E-01 +5.64136531798E-01
4.54000000000E+09 -5.01934078029E-02 +4.97342896903E-01 +6.89461570552E-03 -5.87179330258E-03 +6.56300522704E-03 -5.85699151375E-03 -1.07163370327E-01 +5.72781173594E-01
4.54500000000E+09 -3.64608673339E-02 +5.04452878781E-01 +6.04332591436E-03 -6.48740919721E-03 +5.71905798644E-03 -6.45447332529E-03 -9.29097668051E-02 +5.81351849444E-01
4.55000000000E+09 -2.36450114428E-02 +5.11957039452E-01 +5.49747812225E-03 -7.17708780265E-03 +5.27085886509E-03 -7.07864083306E-03 -7.71837175413E-02 +5.90368411686E-01
4.55500000000E+09 -1.31478370358E-02 +5.19172944492E-01 +4.26556801073E-03 -7.28400930838E-03 +4.03037909572E-03 -7.19466990244E-03 -6.16004774163E-02 +5.98622939667E-01
4.56000000000E+09 -4.93929976756E-03 +5.26451345896E-01 +3.84168848543E-03 -7.65367307286E-03 +3.64089311921E-03 -7.54157046491E-03 -4.65153769451E-02 +6.04453788504E-01
4.56500000000E+09 +3.21629391516E-03 +5.33034999714E-01 +3.20953920584E-03 -7.99100121597E-03 +2.96014189291E-03 -7.87490400337E-03 -3.26462428185E-02 +6.10800425680E-01
4.57000000000E+09 +1.14286065634E-02 +5.37819388674E-01 +2.23519767991E-03 -8.57043199425E-03 +2.11040383885E-03 -8.34474121461E-03 -1.78637707082E-02 +6.16996877346E-01
