# Hz S RI R 50
! CMT, C1220, 16058040, 17.2.0/1
! Date: 15/08/2018 11:31:32
! Data: Format (Calibration Info)
! Freq                      S11: Re/Im (F2)                       S21: Re/Im (F2)                       S12: Re/Im (F2)                       S22: Re/Im (F2)            
4.00000000000E+09 +6.64685945339E-01 -3.56909080008E-01 +1.16291665902E-03 -3.58128403351E-03 +1.34414365893E-03 -3.62187509427E-03 +7.74728389306E-01 -3.55856731467E-01
4.00500000000E+09 +6.56650140791E-01 -3.64976107462E-01 +6.72468529500E-04 -3.84780352547E-03 +8.08272930993E-04 -3.90191742414E-03 +7.66439490814E-01 -3.67112286696E-01
4.01000000000E+09 +6.48004891708E-01 -3.72202182518E-01 +1.05347826571E-04 -3.84623896630E-03 +2.50424046479E-04 -3.96722882175E-03 +7.57386527592E-01 -3.78528603416E-01
4.01500000000E+09 +6.38714668635E-01 -3.79572955205E-01 -4.08245881059E-04 -3.80030192459E-03 -3.36469248432E-04 -3.83034128632E-03 +7.47601085994E-01 -3.89247077918E-01
4.02000000000E+09 +6.28628199857E-01 -3.88011461837E-01 -6.26423234389E-04 -3.60496359784E-03 -5.32310305338E-04 -3.70672681901E-03 +7.37627229329E-01 -3.99693522511E-01
4.02500000000E+09 +6.17553040492E-01 -3.97003726933E-01 -7.77401027843E-04 -3.58454948132E-03 -6.21766836153E-04 -3.70041594667E-03 +7.27252463687E-01 -4.09766311491E-01
4.03000000000E+09 +6.05926709009E-01 -4.06422804824E-01 -1.16381664355E-03 -3.83112542731E-03 -1.06149040701E-03 -4.02376407571E-03 +7.16872592007E-01 -4.20315829316E-01
4.03500000000E+09 +5.94234469711E-01 -4.15902382533E-01 -1.90038981402E-03 -3.62517588928E-03 -1.82891395983E-03 -3.82718795403E-03 +7.05919612665E-01 -4.31419251114E-01
4.04000000000E+09 +5.82719125006E-01 -4.25721362545E-01 -2.08442170040E-03 -3.23142876267E-03 -2.02654841227E-03 -3.42157619115E-03 +6.94454102604E-01 -4.42559518477E-01
4.04500000000E+09 +5.70918006223E-01 -4.35220005684E-01 -2.35550792273E-03 -3.11416247242E-03 -2.33600459481E-03 -3.30848356965E-03 +6.82510044354E-01 -4.53340584769E-01
4.05000000000E+09 +5.59363508306E-01 -4.43892017117E-01 -2.56857069385E-03 -2.90589301262E-03 -2.62393436811E-03 -3.11953122085E-03 +6.70754525759E-01 -4.63134897547E-01
4.05500000000E+09 +5.47439104926E-01 -4.52052938000E-01 -2.52673357759E-03 -2.85803999929E-03 -2.59799070881E-03 -3.07272010825E-03 +6.58283831472E-01 -4.72807723721E-01
4.06000000000E+09 +5.34306659267E-01 -4.59514612091E-01 -3.24549183784E-03 -3.01672333924E-03 -3.35494938036E-03 -3.25790713105E-03 +6.45632388646E-01 -4.82123087192E-01
4.06500000000E+09 +5.20808163169E-01 -4.65487457795E-01 -3.95845738183E-03 -2.31482438004E-03 -4.03643156621E-03 -2.41086856223E-03 +6.32345383074E-01 -4.91164929734E-01
4.07000000000E+09 +5.07053421677E-01 -4.72131695783E-01 -3.81233275855E-03 -1.84096231010E-03 -3.91000638534E-03 -1.96905195928E-03 +6.18548140953E-01 -5.00571820012E-01
4.07500000000E+09 +4.91613786153E-01 -4.79205390460E-01 -4.10331445824E-03 -1.71146420134E-03 -4.13227082236E-03 -1.84003013926E-03 +6.04921286691E-01 -5.09659506052E-01
4.08000000000E+09 +4.75692986749E-01 -4.85657474102E-01 -4.31097708939E-03 -1.22590317643E-03 -4.41041244177E-03 -1.35219303006E-03 +5.91347869105E-01 -5.19046310769E-01
4.08500000000E+09 +4.59389531294E-01 -4.92611827653E-01 -4.41858466368E-03 -7.18415803764E-04 -4.52433826157E-03 -8.58389692241E-04 +5.77389555825E-01 -5.28591856184E-01
4.09000000000E+09 +4.42932264250E-01 -4.99955089892E-01 -4.50432380700E-03 -4.01951850406E-04 -4.69689519265E-03 -5.39405216168E-04 +5.62811804732E-01 -5.37238392725E-01
4.09500000000E+09 +4.26438849893E-01 -5.06701161404E-01 -4.72184986483E-03 +1.24822842503E-04 -4.90686832198E-03 -3.82229493999E-06 +5.47296428110E-01 -5.44947073523E-01
4.10000000000E+09 +4.11174219251E-01 -5.13300932579E-01 -4.39259992797E-03 +4.90351137510E-04 -4.48581818431E-03 +4.78815684211E-04 +5.31332229033E-01 -5.51876256338E-01
4.10500000000E+09 +3.94693502280E-01 -5.19626837180E-01 -4.67197717403E-03 +5.66513413552E-04 -4.76151119126E-03 +5.47438309913E-04 +5.15086945859E-01 -5.58711583737E-01
4.11000000000E+09 +3.77935068310E-01 -5.23610229777E-01 -5.02685186500E-03 +1.34675296520E-03 -5.11096718728E-03 +1.26797766006E-03 +4.98234916220E-01 -5.66353127094E-01
4.11500000000E+09 +3.62114895152E-01 -5.26069926601E-01 -4.72460371341E-03 +2.21381646527E-03 -4.91782478474E-03 +2.17405923945E-03 +4.80735434464E-01 -5.73722965125E-01
4.12000000000E+09 +3.45702843429E-01 -5.28225460268E-01 -4.35087071102E-03 +2.79760983077E-03 -4.50826821814E-03 +2.66281806535E-03 +4.63190499218E-01 -5.80367874062E-01
4.12500000000E+09 +3.29133793166E-01 -5.29841752976E-01 -3.99393557502E-03 +3.20512148392E-03 -4.18674330439E-03 +3.17372578777E-03 +4.46165811764E-01 -5.86051115770E-01
4.13000000000E+09 +3.11826431327E-01 -5.32448069064E-01 -3.22787287387E-03 +3.46999896035E-03 -3.46282982329E-03 +3.45194137732E-03 +4.29045248201E-01 -5.91715095858E-01
4.13500000000E+09 +2.92735387566E-01 -5.35767998024E-01 -2.91577426801E-03 +3.28708684698E-03 -3.16229466233E-03 +3.26032006109E-03 +4.11025000176E-01 -5.97201716999E-01
4.14000000000E+09 +2.72612917129E-01 -5.38671505499E-01 -3.09125116272E-03 +3.31060312692E-03 -3.29438169442E-03 +3.27562045221E-03 +3.91129487576E-01 -6.02453678803E-01
4.14500000000E+09 +2.53207138363E-01 -5.41323485652E-01 -3.41165795445E-03 +3.98976070416E-03 -3.66397914993E-03 +4.04825735786E-03 +3.71260370799E-01 -6.06685250633E-01
4.15000000000E+09 +2.34469935366E-01 -5.45785024490E-01 -2.53746641344E-03 +4.68645902890E-03 -2.73823896113E-03 +4.81004977659E-03 +3.52079654957E-01 -6.10584351305E-01
4.15500000000E+09 +2.14761117452E-01 -5.48735077387E-01 -2.21427602114E-03 +4.77246318634E-03 -2.32579365143E-03 +4.97584294530E-03 +3.32779881262E-01 -6.14179480802E-01
4.16000000000E+09 +1.97096942245E-01 -5.50671975978E-01 -1.57221880638E-03 +5.24616111062E-03 -1.65773288174E-03 +5.42072632652E-03 +3.13786391717E-01 -6.17087837652E-01
4.16500000000E+09 +1.79866756655E-01 -5.51664777153E-01 -8.63327832763E-04 +5.07980239826E-03 -9.03942849705E-04 +5.25769494305E-03 +2.93745735852E-01 -6.19280951890E-01
4.17000000000E+09 +1.62578971217E-01 -5.50943481912E-01 -8.66416735698E-04 +5.00245854470E-03 -9.68676091203E-04 +5.17757842087E-03 +2.73608645254E-01 -6.20111183414E-01
4.17500000000E+09 +1.45524432644E-01 -5.47955544149E-01 -4.28805458948E-04 +5.56065610618E-03 -5.00649425453E-04 +5.79688412709E-03 +2.53224328372E-01 -6.20686591802E-01
4.18000000000E+09 +1.28786548952E-01 -5.44017053572E-01 +5.30013839182E-04 +5.60812807055E-03 +5.15920725441E-04 +5.83664975669E-03 +2.31918320604E-01 -6.21724229439E-01
4.18500000000E+09 +1.09966812873E-01 -5.40125223761E-01 +7.80829242012E-04 +5.12449325198E-03 +7.72985316896E-04 +5.37026921271E-03 +2.09443329421E-01 -6.21950416580E-01
4.19000000000E+09 +9.00361658435E-02 -5.34415527888E-01 +8.16687126341E-04 +5.27167859672E-03 +8.25745743403E-04 +5.47983387288E-03 +1.86783072073E-01 -6.21004383937E-01
4.19500000000E+09 +7.02231124725E-02 -5.28957039791E-01 +1.28650844351E-03 +5.69908946666E-03 +1.29131827226E-03 +5.90071306709E-03 +1.64678056073E-01 -6.18728358981E-01
4.20000000000E+09 +4.94360328937E-02 -5.24356814516E-01 +1.98477910950E-03 +5.88863967854E-03 +1.93934756460E-03 +6.04935124931E-03 +1.43270773245E-01 -6.15971656156E-01
4.20500000000E+09 +2.85828618596E-02 -5.19970542308E-01 +3.10880722015E-03 +6.12040504415E-03 +3.10148947673E-03 +6.31753484541E-03 +1.20860334507E-01 -6.12733203945E-01
4.21000000000E+09 +8.29294459035E-03 -5.15074319476E-01 +4.25516252709E-03 +5.51905857989E-03 +4.34427173180E-03 +5.73482312979E-03 +9.79478178764E-02 -6.08656805733E-01
4.21500000000E+09 -1.06467553008E-02 -5.10759252306E-01 +4.49835902311E-03 +4.46145250015E-03 +4.58230178029E-03 +4.54448479459E-03 +7.51871428594E-02 -6.03522899063E-01
4.22000000000E+09 -2.90395103264E-02 -5.04914107090E-01 +4.67942715233E-03 +4.35886259765E-03 +4.72107217293E-03 +4.37138107587E-03 +5.30238759757E-02 -5.97612087897E-01
4.22500000000E+09 -4.55356643367E-02 -4.97911102531E-01 +5.25276828028E-03 +4.07441294556E-03 +5.30828616539E-03 +4.15057607732E-03 +3.12737473553E-02 -5.91551926801E-01
4.23000000000E+09 -6.16558513684E-02 -4.90196152032E-01 +6.00416922799E-03 +3.60477130198E-03 +6.07860166648E-03 +3.69493850369E-03 +1.05046630473E-02 -5.84217593894E-01
4.23500000000E+09 -7.88582328997E-02 -4.79966522801E-01 +6.25972694167E-03 +2.77311676421E-03 +6.35075009272E-03 +2.95389038063E-03 -1.13982814354E-02 -5.76907445531E-01
4.24000000000E+09 -9.54762434654E-02 -4.68027269137E-01 +6.49980722065E-03 +2.35061684778E-03 +6.61892633335E-03 +2.44174284329E-03 -3.33569282439E-02 -5.67615344601E-01
4.24500000000E+09 -1.12802242923E-01 -4.55505612584E-01 +6.85083171621E-03 +1.52833939345E-03 +6.96219477388E-03 +1.56878543970E-03 -5.53678943897E-02 -5.57044936795E-01
4.25000000000E+09 -1.31890013362E-01 -4.42475103042E-01 +6.75588926748E-03 +1.26808913013E-03 +6.89821909280E-03 +1.32997325532E-03 -7.60804225178E-02 -5.46553185128E-01
4.25500000000E+09 -1.51529923704E-01 -4.29493360687E-01 +7.39546390959E-03 +7.04302265787E-04 +7.54727477943E-03 +7.60831965762E-04 -9.65778639308E-02 -5.35050626407E-01
4.26000000000E+09 -1.71581273078E-01 -4.17230097589E-01 +8.11928136823E-03 -4.98371580022E-04 +8.35904664275E-03 -4.86869245120E-04 -1.17245405284E-01 -5.23236860837E-01
4.26500000000E+09 -1.92375528281E-01 -4.06136618141E-01 +7.59468873522E-03 -1.67321848125E-03 +7.77450762996E-03 -1.66040591426E-03 -1.37192383227E-01 -5.09991525119E-01
4.27000000000E+09 -2.12129117286E-01 -3.93778527350E-01 +7.34985663898E-03 -2.50147481327E-03 +7.50828545585E-03 -2.56248740706E-03 -1.58413096981E-01 -4.96316226492E-01
4.27500000000E+09 -2.30114373155E-01 -3.81892093130E-01 +6.88383215819E-03 -3.60892206555E-03 +7.02602889593E-03 -3.74572168654E-03 -1.78795252995E-01 -4.79987374198E-01
4.28000000000E+09 -2.46202232216E-01 -3.69356799146E-01 +5.92503067163E-03 -3.82089284151E-03 +6.07139629484E-03 -3.91741677316E-03 -1.97769617951E-01 -4.65558962908E-01
4.28500000000E+09 -2.60171444500E-01 -3.56154948254E-01 +6.01299738043E-03 -3.62285944548E-03 +6.14962237509E-03 -3.77385327346E-03 -2.18867500755E-01 -4.50055720320E-01
4.29000000000E+09 -2.72727848231E-01 -3.41924164480E-01 +6.37548826739E-03 -4.72904588231E-03 +6.53678916749E-03 -4.93023573613E-03 -2.38433157756E-01 -4.32671912496E-01
4.29500000000E+09 -2.84516789764E-01 -3.27047782171E-01 +5.29459255297E-03 -5.71351538338E-03 +5.36814395684E-03 -5.93705125002E-03 -2.55842973857E-01 -4.13681896855E-01
4.30000000000E+09 -2.97394454509E-01 -3.10377307470E-01 +5.29870046190E-03 -5.80473880310E-03 +5.37432152225E-03 -6.00176197000E-03 -2.72325266792E-01 -3.95293061441E-01
4.30500000000E+09 -3.10797040503E-01 -2.92314720826E-01 +4.57625804583E-03 -7.15977076760E-03 +4.57199443625E-03 -7.38869632318E-03 -2.87571395807E-01 -3.75524341995E-01
4.31000000000E+09 -3.24075066535E-01 -2.72263709715E-01 +3.47670463227E-03 -7.52695994727E-03 +3.44775574201E-03 -7.73091836992E-03 -3.02688286332E-01 -3.55539393190E-01
4.31500000000E+09 -3.36988791517E-01 -2.52418769783E-01 +2.84482568070E-03 -7.73556298703E-03 +2.76415483626E-03 -7.91790974256E-03 -3.18462844558E-01 -3.34611469721E-01
4.32000000000E+09 -3.49004961437E-01 -2.32778434989E-01 +1.82252180320E-03 -8.45753903324E-03 +1.76788049507E-03 -8.68269580551E-03 -3.32159797004E-01 -3.12133724408E-01
4.32500000000E+09 -3.59473577211E-01 -2.15008365701E-01 -6.84318764113E-05 -8.27542476989E-03 -2.23267855340E-04 -8.48900491550E-03 -3.44251648738E-01 -2.90117974500E-01
4.33000000000E+09 -3.70539176045E-01 -1.98778688774E-01 +1.62585655887E-05 -6.91250124464E-03 -1.11486488614E-04 -6.99414416987E-03 -3.55645437500E-01 -2.69315116690E-01
4.33500000000E+09 -3.80717062525E-01 -1.81256142054E-01 +3.62549092463E-04 -7.38748622040E-03 +1.83009883164E-04 -7.40043310840E-03 -3.67446626776E-01 -2.46133185017E-01
4.34000000000E+09 -3.88340391910E-01 -1.62555284725E-01 -2.01187621243E-04 -8.16349632838E-03 -3.11836416050E-04 -8.17521731031E-03 -3.78342098863E-01 -2.22066484073E-01
4.34500000000E+09 -3.93768161824E-01 -1.43077038786E-01 -1.00445213179E-03 -8.98601925825E-03 -1.02237892776E-03 -8.95795663769E-03 -3.87755957700E-01 -1.96766657770E-01
4.35000000000E+09 -3.97584214904E-01 -1.22471947459E-01 -2.81382952035E-03 -9.49810759173E-03 -2.93423194646E-03 -9.51725824166E-03 -3.96326861739E-01 -1.72706543375E-01
4.35500000000E+09 -4.00630302551E-01 -1.01045352386E-01 -4.65806949392E-03 -8.75565444501E-03 -4.76079326439E-03 -8.73344775906E-03 -4.04978379437E-01 -1.49221444774E-01
4.36000000000E+09 -4.03855117643E-01 -7.94063137070E-02 -5.19299396154E-03 -7.19928459506E-03 -5.37167878441E-03 -7.18866857803E-03 -4.12804066793E-01 -1.26007841372E-01
4.36500000000E+09 -4.08767823763E-01 -5.64190729526E-02 -5.71088780935E-03 -7.20380515697E-03 -5.82325682544E-03 -7.15076893640E-03 -4.18929457118E-01 -1.01182353157E-01
4.37000000000E+09 -4.14105701824E-01 -3.24710903806E-02 -6.44414797465E-03 -6.39904256390E-03 -6.58377643665E-03 -6.40351386232E-03 -4.23168603206E-01 -7.64320381629E-02
4.37500000000E+09 -4.18995641866E-01 -9.50297248295E-03 -6.87132922354E-03 -6.08057437859E-03 -7.01491682244E-03 -6.11928101159E-03 -4.25045704758E-01 -5.11329417394E-02
4.38000000000E+09 -4.23873769401E-01 +1.23716473115E-02 -7.79710778418E-03 -5.44495104592E-03 -7.96157608222E-03 -5.34551329363E-03 -4.28209039401E-01 -2.75392408420E-02
4.38500000000E+09 -4.27871300388E-01 +3.29890977486E-02 -8.77987532118E-03 -4.61126429656E-03 -8.95350995861E-03 -4.44713718136E-03 -4.31369931568E-01 -1.67369696591E-03
4.39000000000E+09 -4.30701099989E-01 +5.18262932248E-02 -8.86828550977E-03 -3.72626131352E-03 -9.00646468729E-03 -3.53319573236E-03 -4.32987895585E-01 +2.54040377762E-02
4.39500000000E+09 -4.31366629450E-01 +6.94984861376E-02 -9.89257248175E-03 -3.19305561020E-03 -1.00287642152E-02 -3.05619009726E-03 -4.31942452021E-01 +5.13006785022E-02
4.40000000000E+09 -4.30828808457E-01 +8.70680312577E-02 -1.09001600527E-02 -1.35046174303E-03 -1.09726009840E-02 -1.17745295707E-03 -4.29487813827E-01 +7.54542625220E-02
4.40500000000E+09 -4.28248796991E-01 +1.04656804492E-01 -1.08589907210E-02 +1.83511372358E-04 -1.09154756803E-02 +3.40958332983E-04 -4.26339436335E-01 +9.87248416594E-02
4.41000000000E+09 -4.25449439713E-01 +1.23518678597E-01 -1.03029886552E-02 +2.37788469700E-03 -1.02256618782E-02 +2.60632354664E-03 -4.24025813235E-01 +1.20979665260E-01
4.41500000000E+09 -4.22043698579E-01 +1.44865282622E-01 -9.29826031661E-03 +3.00181113720E-03 -9.23113217348E-03 +3.16907046629E-03 -4.20721567543E-01 +1.46272970552E-01
4.42000000000E+09 -4.17081459515E-01 +1.67413395227E-01 -8.79092132950E-03 +3.43795870529E-03 -8.71623506030E-03 +3.57810983709E-03 -4.14520932817E-01 +1.71155643882E-01
4.42500000000E+09 -4.13140200391E-01 +1.90061972130E-01 -8.53861012514E-03 +3.99621624818E-03 -8.45058102343E-03 +4.13292023319E-03 -4.07544154047E-01 +1.93783169861E-01
4.43000000000E+09 -4.09292726365E-01 +2.12460632181E-01 -8.75680455260E-03 +4.73725189284E-03 -8.62000355430E-03 +4.87585540905E-03 -4.02483905768E-01 +2.15971662458E-01
4.43500000000E+09 -4.06094237352E-01 +2.33394862231E-01 -8.47916715677E-03 +6.43055860209E-03 -8.25549157467E-03 +6.45857433981E-03 -3.95973585415E-01 +2.39026986603E-01
4.44000000000E+09 -4.03491093906E-01 +2.51696432824E-01 -7.32970863417E-03 +8.19753970793E-03 -7.14554009354E-03 +8.22163216738E-03 -3.87821720112E-01 +2.61530192346E-01
4.44500000000E+09 -4.01604203881E-01 +2.68502930773E-01 -5.35076416475E-03 +8.24652965825E-03 -5.21404976381E-03 +8.26517987837E-03 -3.77199221305E-01 +2.82818347395E-01
4.45000000000E+09 -3.98891855209E-01 +2.84392160914E-01 -4.42516214733E-03 +7.99341311844E-03 -4.27696195109E-03 +8.10004411848E-03 -3.66905194987E-01 +3.01208747395E-01
4.45500000000E+09 -3.93569682831E-01 +2.99192582161E-01 -4.49457302787E-03 +8.28775931142E-03 -4.28573084476E-03 +8.36133754783E-03 -3.57437176987E-01 +3.19312455597E-01
4.46000000000E+09 -3.86529821197E-01 +3.13319307882E-01 -3.54430153293E-03 +9.40861719018E-03 -3.31109830854E-03 +9.48639420535E-03 -3.48591425867E-01 +3.39089380683E-01
4.46500000000E+09 -3.76677883500E-01 +3.28682868216E-01 -2.19428276532E-03 +9.69713697253E-03 -1.92177253542E-03 +9.68373086629E-03 -3.36297157688E-01 +3.58146407758E-01
4.47000000000E+09 -3.64218674161E-01 +3.43550895491E-01 -6.91590165542E-04 +9.73116569077E-03 -4.72492976140E-04 +9.62970073702E-03 -3.24382753187E-01 +3.76338777289E-01
4.47500000000E+09 -3.52090240700E-01 +3.59037858433E-01 +1.56221507459E-04 +8.86728225779E-03 +4.52804058555E-04 +8.83081252011E-03 -3.11728600135E-01 +3.93606677994E-01
4.48000000000E+09 -3.40676726741E-01 +3.76391017202E-01 +1.90876195425E-04 +9.08041554089E-03 +4.50637106097E-04 +8.94900875784E-03 -3.00118088774E-01 +4.10848458025E-01
4.48500000000E+09 -3.29154073702E-01 +3.95088389252E-01 +1.31108636913E-03 +9.58032865446E-03 +1.52442695465E-03 +9.40964144941E-03 -2.87390069361E-01 +4.27737596152E-01
4.49000000000E+09 -3.19380115753E-01 +4.12997337967E-01 +2.77383204338E-03 +9.86498888746E-03 +2.85425781182E-03 +9.61084123498E-03 -2.74123095833E-01 +4.43986692101E-01
4.49500000000E+09 -3.10839955247E-01 +4.30988986202E-01 +4.44128175810E-03 +8.98797380657E-03 +4.36461575480E-03 +8.77470018368E-03 -2.59107938065E-01 +4.58181316865E-01
4.50000000000E+09 -3.02565405369E-01 +4.46771543936E-01 +5.28680641374E-03 +8.06232195542E-03 +5.23625416523E-03 +7.90531065848E-03 -2.45468375345E-01 +4.71467491882E-01
4.50500000000E+09 -2.95538349402E-01 +4.60226963515E-01 +6.10314553288E-03 +7.02815370750E-03 +6.14806765810E-03 +6.88396417493E-03 -2.31589834126E-01 +4.84206125870E-01
4.51000000000E+09 -2.88015108798E-01 +4.71715326438E-01 +6.03840538251E-03 +6.21299889323E-03 +6.10496860698E-03 +6.06978585222E-03 -2.18679407633E-01 +4.97985318570E-01
4.51500000000E+09 -2.79039443635E-01 +4.80952971532E-01 +6.51064933079E-03 +6.18355781796E-03 +6.56273411910E-03 +5.93654126435E-03 -2.04559444307E-01 +5.11218128338E-01
4.52000000000E+09 -2.68904470738E-01 +4.88993195069E-01 +7.67996301876E-03 +5.46101656975E-03 +7.67646576663E-03 +5.17212506988E-03 -1.90294967177E-01 +5.23792422179E-01
4.52500000000E+09 -2.57004123970E-01 +4.97430777279E-01 +8.02015958997E-03 +3.89040597548E-03 +7.95985107071E-03 +3.58511087599E-03 -1.75211469703E-01 +5.34217490849E-01
4.53000000000E+09 -2.42915750879E-01 +5.06879813912E-01 +7.90485456364E-03 +3.50935849588E-03 +7.81443865047E-03 +3.21993350458E-03 -1.61259992522E-01 +5.44323372980E-01
4.53500000000E+09 -2.26447825130E-01 +5.16998051711E-01 +8.28908369629E-03 +2.85041200569E-03 +8.18809407214E-03 +2.57635968726E-03 -1.46368606344E-01 +5.54035889641E-01
4.54000000000E+09 -2.09335896323E-01 +5.27371103787E-01 +8.79633056328E-03 +2.03105845592E-03 +8.55440960125E-03 +1.73018739852E-03 -1.31130818976E-01 +5.65001167544E-01
4.54500000000E+09 -1.92756155331E-01 +5.38345096621E-01 +9.24863795508E-03 +8.58577539678E-04 +8.95488873787E-03 +6.18895872624E-04 -1.14511634425E-01 +5.73733161363E-01
4.55000000000E+09 -1.77497633651E-01 +5.48918024933E-01 +9.21218607845E-03 -5.21588994034E-04 +8.93898010404E-03 -7.09559463480E-04 -9.86685388135E-02 +5.82609335177E-01
4.55500000000E+09 -1.65130111030E-01 +5.59301381801E-01 +8.74299574059E-03 -2.38818273078E-03 +8.44455178348E-03 -2.36870352629E-03 -8.37620623189E-02 +5.90098403168E-01
4.56000000000E+09 -1.54368051508E-01 +5.69948607525E-01 +7.06586001493E-03 -3.03476009222E-03 +6.81010754866E-03 -2.97802556189E-03 -7.03060682349E-02 +5.98534166131E-01
4.56500000000E+09 -1.44010441369E-01 +5.80091027948E-01 +6.60608818452E-03 -2.73037269452E-03 +6.36871055782E-03 -2.78749630514E-03 -5.51477168707E-02 +6.06950785267E-01
4.57000000000E+09 -1.33883345277E-01 +5.88594906966E-01 +6.50822252352E-03 -2.75977948918E-03 +6.27333100698E-03 -2.78073636629E-03 -3.93361938882E-02 +6.13630771338E-01
