# Hz S RI R 50
! CMT, C1220, 16058040, 17.2.0/1
! Date: 15/08/2018 11:32:35
! Data: Format (Calibration Info)
! Freq                      S11: Re/Im (F2)                       S21: Re/Im (F2)                       S12: Re/Im (F2)                       S22: Re/Im (F2)            
4.00000000000E+09 +6.67225469797E-01 -3.56411400323E-01 +1.70140972287E-03 -3.53541347318E-03 +1.92503364721E-03 -3.56161059409E-03 +7.74352828613E-01 -3.55293897844E-01
4.00500000000E+09 +6.59185539781E-01 -3.64435654330E-01 +1.30214230177E-03 -4.02412012224E-03 +1.47211709883E-03 -4.02989697128E-03 +7.65832236988E-01 -3.66524317207E-01
4.01000000000E+09 +6.50654669223E-01 -3.71790812347E-01 +6.03242977815E-04 -4.21489247206E-03 +8.00176476157E-04 -4.24796786131E-03 +7.57061758725E-01 -3.77792459022E-01
4.01500000000E+09 +6.41221443544E-01 -3.79478791185E-01 +3.53556162144E-06 -4.14920954246E-03 +1.99362675015E-04 -4.16573594217E-03 +7.47226683769E-01 -3.88321231355E-01
4.02000000000E+09 +6.31184733054E-01 -3.87892981901E-01 -2.22387054610E-04 -3.95409629070E-03 -6.20364504040E-05 -4.10308253910E-03 +7.37545677230E-01 -3.98736682326E-01
4.02500000000E+09 +6.20336205275E-01 -3.97126300283E-01 -4.62255124000E-04 -3.98170270338E-03 -2.92412210342E-04 -4.14084897044E-03 +7.27287938712E-01 -4.08899577725E-01
4.03000000000E+09 +6.08437829230E-01 -4.06881227471E-01 -8.21823530255E-04 -4.22510869838E-03 -6.51538713478E-04 -4.39436148218E-03 +7.16991144367E-01 -4.19572662350E-01
4.03500000000E+09 +5.96709414671E-01 -4.16335257236E-01 -1.49727237469E-03 -4.13729180629E-03 -1.36417133503E-03 -4.37573099445E-03 +7.05781475577E-01 -4.30635702951E-01
4.04000000000E+09 +5.85192169843E-01 -4.26371244066E-01 -1.80386730567E-03 -3.82522845036E-03 -1.70431988382E-03 -4.02971455741E-03 +6.94354031822E-01 -4.41764253460E-01
4.04500000000E+09 +5.73354204009E-01 -4.35921798273E-01 -2.19117822675E-03 -3.72939920115E-03 -2.12330952549E-03 -4.02020005314E-03 +6.82562769504E-01 -4.52285086845E-01
4.05000000000E+09 +5.61883247797E-01 -4.44677517103E-01 -2.46123562088E-03 -3.56126137985E-03 -2.47999446265E-03 -3.86066631466E-03 +6.70999589916E-01 -4.62013683083E-01
4.05500000000E+09 +5.49894684619E-01 -4.53305686481E-01 -2.55889229692E-03 -3.53931349772E-03 -2.63576539497E-03 -3.84983335756E-03 +6.58610814459E-01 -4.71761271971E-01
4.06000000000E+09 +5.36453977771E-01 -4.60903988414E-01 -3.31474971376E-03 -3.68981479784E-03 -3.40179207600E-03 -3.92729255995E-03 +6.46048297457E-01 -4.81314830477E-01
4.06500000000E+09 +5.22752494055E-01 -4.66819952722E-01 -4.08743628799E-03 -2.92419782083E-03 -4.27945261143E-03 -3.11411289664E-03 +6.32817134407E-01 -4.90264850411E-01
4.07000000000E+09 +5.09293797821E-01 -4.73601999385E-01 -3.98482101447E-03 -2.46849645099E-03 -4.11536133554E-03 -2.62023618340E-03 +6.19211038056E-01 -4.99675890811E-01
4.07500000000E+09 +4.93831731321E-01 -4.80899543024E-01 -4.19384092568E-03 -2.21539537937E-03 -4.25576450301E-03 -2.37890972502E-03 +6.05402362258E-01 -5.08904572079E-01
4.08000000000E+09 +4.77740758546E-01 -4.87690397383E-01 -4.47491277146E-03 -1.95875487639E-03 -4.61541503595E-03 -2.15538128398E-03 +5.91913348973E-01 -5.18276233357E-01
4.08500000000E+09 +4.61121657635E-01 -4.94972302958E-01 -4.78471159284E-03 -1.56790251261E-03 -4.92283852446E-03 -1.70539793318E-03 +5.78038838455E-01 -5.27707698625E-01
4.09000000000E+09 +4.44319503236E-01 -5.02322578390E-01 -5.21094137820E-03 -1.06129459665E-03 -5.37354458049E-03 -1.21701911136E-03 +5.63555237908E-01 -5.36450116559E-01
4.09500000000E+09 +4.27675116452E-01 -5.08843897485E-01 -5.47174849794E-03 -3.77165818982E-04 -5.62502626606E-03 -4.16272191149E-04 +5.48235760944E-01 -5.44032680971E-01
4.10000000000E+09 +4.12456283693E-01 -5.15354072464E-01 -4.96579249664E-03 +2.97520205674E-04 -5.13120745495E-03 +2.84998761474E-04 +5.32541829767E-01 -5.51164008098E-01
4.10500000000E+09 +3.96084704758E-01 -5.21943161588E-01 -5.15359040490E-03 +2.58580455379E-04 -5.24071980938E-03 +2.39013385525E-04 +5.16324350805E-01 -5.58376174055E-01
4.11000000000E+09 +3.79231769785E-01 -5.26213902337E-01 -5.57511920935E-03 +8.57222703641E-04 -5.66585843328E-03 +8.53334751412E-04 +4.99468124832E-01 -5.66072731151E-01
4.11500000000E+09 +3.62850398741E-01 -5.28782330612E-01 -5.54195818512E-03 +1.67401956512E-03 -5.63411275061E-03 +1.63672425183E-03 +4.81851974702E-01 -5.73537455745E-01
4.12000000000E+09 +3.46344528334E-01 -5.30830701545E-01 -5.30654282626E-03 +2.38429872900E-03 -5.44342645828E-03 +2.29437306342E-03 +4.64485318839E-01 -5.80300079163E-01
4.12500000000E+09 +3.29584570535E-01 -5.32338678427E-01 -5.08876415620E-03 +3.03435854944E-03 -5.24967149209E-03 +2.97721190590E-03 +4.47307297257E-01 -5.86121529272E-01
4.13000000000E+09 +3.12307390087E-01 -5.34625222352E-01 -4.43554123125E-03 +3.61409703311E-03 -4.57555121318E-03 +3.51616481100E-03 +4.30256723248E-01 -5.91830049224E-01
4.13500000000E+09 +2.93166908348E-01 -5.38189666711E-01 -3.92920313612E-03 +3.56955290486E-03 -4.09417198290E-03 +3.55454758558E-03 +4.12267729604E-01 -5.97394706100E-01
4.14000000000E+09 +2.72904611639E-01 -5.41388411836E-01 -4.03128463722E-03 +3.53397488313E-03 -4.27498904923E-03 +3.54340194389E-03 +3.92440512917E-01 -6.02841994374E-01
4.14500000000E+09 +2.52793131761E-01 -5.43897949500E-01 -4.40338186202E-03 +4.51120358125E-03 -4.73834357003E-03 +4.55445796026E-03 +3.72395008606E-01 -6.07412580856E-01
4.15000000000E+09 +2.34086365859E-01 -5.47849681835E-01 -3.22879068397E-03 +5.30015802815E-03 -3.44628580839E-03 +5.40204986798E-03 +3.53109524100E-01 -6.11226294072E-01
4.15500000000E+09 +2.14575098680E-01 -5.50719917867E-01 -2.88928283463E-03 +5.23254202430E-03 -3.03404495799E-03 +5.38536782236E-03 +3.33753255688E-01 -6.15237864677E-01
4.16000000000E+09 +1.96810123125E-01 -5.52640847941E-01 -2.51665510869E-03 +5.70732512546E-03 -2.63925065621E-03 +5.90748249270E-03 +3.14373283271E-01 -6.18279423039E-01
4.16500000000E+09 +1.79563064501E-01 -5.53810306740E-01 -1.93352194299E-03 +5.95421648666E-03 -2.06571103552E-03 +6.08814808258E-03 +2.94175032516E-01 -6.20161430056E-01
4.17000000000E+09 +1.61902161434E-01 -5.53068013730E-01 -1.71019106665E-03 +6.33550966137E-03 -1.83927190517E-03 +6.48776845958E-03 +2.73986920048E-01 -6.20996751833E-01
4.17500000000E+09 +1.44590106669E-01 -5.49847768998E-01 -8.80085132710E-04 +7.10933947352E-03 -1.05582613549E-03 +7.25540965654E-03 +2.53551871774E-01 -6.21695428252E-01
4.18000000000E+09 +1.28177737576E-01 -5.45667885112E-01 +7.34854797885E-04 +7.04154715243E-03 +6.13598216129E-04 +7.39186080412E-03 +2.32199448498E-01 -6.22645949022E-01
4.18500000000E+09 +1.09092224610E-01 -5.41969311735E-01 +1.17368901128E-03 +6.14437693890E-03 +1.08997209233E-03 +6.44414028489E-03 +2.09581266516E-01 -6.23129140428E-01
4.19000000000E+09 +8.88564475987E-02 -5.36376993242E-01 +9.12901159441E-04 +6.06568983348E-03 +9.43850649594E-04 +6.23704533949E-03 +1.86864534505E-01 -6.22002232829E-01
4.19500000000E+09 +6.86919469281E-02 -5.30695458148E-01 +1.12204589193E-03 +6.51600328098E-03 +1.10469308161E-03 +6.76650636188E-03 +1.64503912046E-01 -6.19793182910E-01
4.20000000000E+09 +4.77372817210E-02 -5.25771550484E-01 +1.88415900237E-03 +7.06157864747E-03 +1.88510317210E-03 +7.23929446742E-03 +1.42697482601E-01 -6.16929756372E-01
4.20500000000E+09 +2.70060950520E-02 -5.20962381708E-01 +3.35231575374E-03 +7.38644094831E-03 +3.34071248494E-03 +7.60519279671E-03 +1.20549449231E-01 -6.13426420981E-01
4.21000000000E+09 +6.68330771625E-03 -5.16098588791E-01 +4.83776740383E-03 +6.90481263574E-03 +4.91237044656E-03 +7.12701440875E-03 +9.76550260883E-02 -6.09456378970E-01
4.21500000000E+09 -1.21797320903E-02 -5.11970132036E-01 +5.36767981680E-03 +5.51819248661E-03 +5.45739541844E-03 +5.69658238690E-03 +7.43187493530E-02 -6.04209357612E-01
4.22000000000E+09 -3.11606665641E-02 -5.06043248447E-01 +5.56669621492E-03 +5.14834322205E-03 +5.67203697643E-03 +5.28860486039E-03 +5.24806797901E-02 -5.98136972415E-01
4.22500000000E+09 -4.78214813049E-02 -4.98473042328E-01 +6.13629006743E-03 +4.87384636057E-03 +6.22483409604E-03 +4.99133528397E-03 +3.07379473490E-02 -5.91992799491E-01
4.23000000000E+09 -6.38890617487E-02 -4.90270606024E-01 +7.07518211738E-03 +4.09955801963E-03 +7.20756539209E-03 +4.29605248165E-03 +1.00924160596E-02 -5.84726323892E-01
4.23500000000E+09 -8.07748621246E-02 -4.79822288259E-01 +7.07204680461E-03 +3.19654013894E-03 +7.28277306152E-03 +3.34077564617E-03 -1.18255789279E-02 -5.77834087028E-01
4.24000000000E+09 -9.72212587231E-02 -4.67876630966E-01 +7.45825509862E-03 +2.86219974323E-03 +7.60337063844E-03 +3.01277110321E-03 -3.45702857904E-02 -5.68905177296E-01
4.24500000000E+09 -1.14612565013E-01 -4.55447089684E-01 +7.76225602606E-03 +2.08060466945E-03 +7.96411075348E-03 +2.18026766126E-03 -5.70282212025E-02 -5.57820993755E-01
4.25000000000E+09 -1.33658840002E-01 -4.42083185497E-01 +8.09051619450E-03 +1.83099948808E-03 +8.30574245502E-03 +1.88968135736E-03 -7.77527904890E-02 -5.46836674642E-01
4.25500000000E+09 -1.53382887612E-01 -4.28937377848E-01 +9.04811528200E-03 +1.06471021001E-03 +9.25823500150E-03 +1.08763310797E-03 -9.82716784107E-02 -5.35150331385E-01
4.26000000000E+09 -1.73087705118E-01 -4.16171478862E-01 +9.90235135326E-03 -8.50688551249E-04 +1.02292428465E-02 -9.26352739648E-04 -1.18861982036E-01 -5.22858074245E-01
4.26500000000E+09 -1.93486883865E-01 -4.05248891636E-01 +8.80193494759E-03 -2.37690800976E-03 +9.10023599825E-03 -2.50806098038E-03 -1.38785338290E-01 -5.09385243279E-01
4.27000000000E+09 -2.13148819864E-01 -3.92853201823E-01 +8.24539104171E-03 -3.14056097229E-03 +8.36598319662E-03 -3.28821765308E-03 -1.59710813753E-01 -4.95414424238E-01
4.27500000000E+09 -2.31005837946E-01 -3.81039580183E-01 +7.77833880496E-03 -3.90456154122E-03 +7.90330674589E-03 -4.10710681484E-03 -1.80169157712E-01 -4.79265184818E-01
4.28000000000E+09 -2.47064835373E-01 -3.68168702257E-01 +7.12126263680E-03 -3.98001247462E-03 +7.27754169905E-03 -4.18211818052E-03 -1.99230289198E-01 -4.64481188156E-01
4.28500000000E+09 -2.60586363725E-01 -3.54854306854E-01 +7.65406687118E-03 -4.36667630804E-03 +7.75233264037E-03 -4.54066108486E-03 -2.20432917655E-01 -4.48688706733E-01
4.29000000000E+09 -2.72893404403E-01 -3.40766756313E-01 +7.79266478501E-03 -6.04227131279E-03 +7.85827445534E-03 -6.28201295979E-03 -2.39758001858E-01 -4.30642443375E-01
4.29500000000E+09 -2.84528055649E-01 -3.26072907262E-01 +6.07501214401E-03 -7.32150358114E-03 +6.06714592895E-03 -7.49731020808E-03 -2.56558076182E-01 -4.10947077558E-01
4.30000000000E+09 -2.97756059044E-01 -3.09306722032E-01 +5.80003761030E-03 -7.24629712766E-03 +5.76953116761E-03 -7.43840658265E-03 -2.71717290793E-01 -3.92987919312E-01
4.30500000000E+09 -3.10844071492E-01 -2.90906123362E-01 +4.99635300609E-03 -8.41710791767E-03 +4.95199389872E-03 -8.62267784419E-03 -2.86824314246E-01 -3.73994485132E-01
4.31000000000E+09 -3.23867514206E-01 -2.70876148031E-01 +3.94674303874E-03 -8.91388105552E-03 +3.90682256850E-03 -9.07122996282E-03 -3.02242742130E-01 -3.54357163303E-01
4.31500000000E+09 -3.36441873638E-01 -2.51156115085E-01 +2.98297439285E-03 -9.30381663437E-03 +2.96481437530E-03 -9.39678344020E-03 -3.18053528533E-01 -3.33507697719E-01
4.32000000000E+09 -3.48311165705E-01 -2.31836511664E-01 +1.76896764814E-03 -1.00011437267E-02 +1.66573443584E-03 -1.01866572087E-02 -3.31817147661E-01 -3.10898039047E-01
4.32500000000E+09 -3.58864974293E-01 -2.14196183714E-01 -2.65370950693E-04 -9.82456445865E-03 -4.34686253768E-04 -9.91762894066E-03 -3.43682108122E-01 -2.88998191244E-01
4.33000000000E+09 -3.69925802857E-01 -1.97871270218E-01 -3.01832883002E-04 -8.38412415981E-03 -4.31045266764E-04 -8.42972901812E-03 -3.55231664386E-01 -2.68411786710E-01
4.33500000000E+09 -3.79846653458E-01 -1.80361868609E-01 -6.86021110621E-05 -9.05955356228E-03 -1.72939216062E-04 -9.09058040462E-03 -3.67185146162E-01 -2.44912240556E-01
4.34000000000E+09 -3.87424255787E-01 -1.61718816385E-01 -1.29206716112E-03 -9.96738581618E-03 -1.38765010063E-03 -9.95075687757E-03 -3.77800446520E-01 -2.20782742734E-01
4.34500000000E+09 -3.92676442994E-01 -1.42438746910E-01 -2.63291980267E-03 -1.02116157850E-02 -2.71569782362E-03 -1.02482915568E-02 -3.86790208420E-01 -1.95518637250E-01
4.35000000000E+09 -3.96293669183E-01 -1.22128230740E-01 -4.44668163174E-03 -1.00355947880E-02 -4.51058284470E-03 -1.00676939106E-02 -3.95294688122E-01 -1.71855302937E-01
4.35500000000E+09 -3.99427631458E-01 -1.00827894511E-01 -5.73991433174E-03 -8.97142678015E-03 -5.87224023283E-03 -9.03440865063E-03 -4.03991018358E-01 -1.48729554426E-01
4.36000000000E+09 -4.02825805717E-01 -7.92119105588E-02 -6.19331022235E-03 -7.69463843699E-03 -6.29744420752E-03 -7.73947621436E-03 -4.12082888005E-01 -1.25498506971E-01
4.36500000000E+09 -4.07685907990E-01 -5.60460484012E-02 -6.89542756783E-03 -7.89285978354E-03 -7.02826681129E-03 -7.89183288309E-03 -4.18228975469E-01 -1.00195475430E-01
4.37000000000E+09 -4.12633609540E-01 -3.19916246990E-02 -7.92630513666E-03 -6.87537138930E-03 -8.20819958095E-03 -6.85143484144E-03 -4.21988952317E-01 -7.52507067627E-02
4.37500000000E+09 -4.16753709303E-01 -9.62102781153E-03 -8.62819287265E-03 -6.12995672683E-03 -8.85088385709E-03 -6.08653603968E-03 -4.23380461228E-01 -5.04530414578E-02
4.38000000000E+09 -4.22232897198E-01 +1.16516090856E-02 -9.14343837564E-03 -5.07722707517E-03 -9.35269166044E-03 -4.96474756422E-03 -4.26660762649E-01 -2.72588329548E-02
4.38500000000E+09 -4.26391596091E-01 +3.23169271565E-02 -9.90873157116E-03 -4.29405190024E-03 -1.01489810774E-02 -4.15869392590E-03 -4.29772241350E-01 -1.57487100668E-03
4.39000000000E+09 -4.29101302470E-01 +5.11488380843E-02 -1.00670159535E-02 -3.29776595751E-03 -1.02977801883E-02 -3.05232839967E-03 -4.31580359205E-01 +2.53573644269E-02
4.39500000000E+09 -4.29972766441E-01 +6.87417558268E-02 -1.10519735329E-02 -2.52982736605E-03 -1.12966187689E-02 -2.28984512916E-03 -4.30438604318E-01 +5.12511170191E-02
4.40000000000E+09 -4.29185145662E-01 +8.62784035454E-02 -1.19547990360E-02 -5.51519947522E-04 -1.20175355968E-02 -2.58498313734E-04 -4.27764289789E-01 +7.49584722582E-02
4.40500000000E+09 -4.26489713922E-01 +1.03300897943E-01 -1.15006880254E-02 +9.77288880567E-04 -1.15439006582E-02 +1.19465370243E-03 -4.25044096272E-01 +9.81161479733E-02
4.41000000000E+09 -4.23948628012E-01 +1.21920546698E-01 -1.09322001024E-02 +2.94583956677E-03 -1.09554506211E-02 +3.20344518797E-03 -4.22613004359E-01 +1.20110112695E-01
4.41500000000E+09 -4.20795274515E-01 +1.43286828950E-01 -1.02552027528E-02 +3.54666032228E-03 -1.01718085264E-02 +3.85745311677E-03 -4.19615044472E-01 +1.45219730999E-01
4.42000000000E+09 -4.15967114650E-01 +1.65649048799E-01 -9.86179569925E-03 +4.56287996857E-03 -9.67226448750E-03 +4.84645394788E-03 -4.13361547300E-01 +1.70176844618E-01
4.42500000000E+09 -4.12148866680E-01 +1.88176450314E-01 -9.21446964768E-03 +5.50615900478E-03 -8.99985410790E-03 +5.76022510795E-03 -4.06324280143E-01 +1.92049333769E-01
4.43000000000E+09 -4.08510804392E-01 +2.10510650386E-01 -8.87244314824E-03 +6.27938865428E-03 -8.57875393912E-03 +6.38418443059E-03 -4.02001323633E-01 +2.14016907135E-01
4.43500000000E+09 -4.05637506894E-01 +2.31235621251E-01 -8.21762622385E-03 +7.49484543104E-03 -7.92614779917E-03 +7.60022262787E-03 -3.96263915635E-01 +2.37230620349E-01
4.44000000000E+09 -4.03394885820E-01 +2.49936255634E-01 -7.06216059198E-03 +9.01902817025E-03 -6.84339886956E-03 +9.02026488124E-03 -3.87991693955E-01 +2.60071924934E-01
4.44500000000E+09 -4.01279676304E-01 +2.66824436027E-01 -5.28626485378E-03 +8.90478612574E-03 -5.10419706228E-03 +8.98718720478E-03 -3.77926736751E-01 +2.81261211917E-01
4.45000000000E+09 -3.98708329552E-01 +2.82434581626E-01 -4.62004768592E-03 +8.90634438897E-03 -4.41487412817E-03 +8.94676002767E-03 -3.67989955392E-01 +3.00069430629E-01
4.45500000000E+09 -3.93528975946E-01 +2.97278278630E-01 -4.67318851035E-03 +9.53815733585E-03 -4.39560884342E-03 +9.64511639566E-03 -3.58555681100E-01 +3.18564588769E-01
4.46000000000E+09 -3.86758884284E-01 +3.11221943510E-01 -3.05362999789E-03 +1.07240680337E-02 -2.75371924620E-03 +1.06895297116E-02 -3.49698103948E-01 +3.39016008345E-01
4.46500000000E+09 -3.77240548284E-01 +3.26689296932E-01 -1.49666739045E-03 +1.08350098620E-02 -1.16508892041E-03 +1.07276115526E-02 -3.36696611589E-01 +3.58179129127E-01
4.47000000000E+09 -3.65104986266E-01 +3.41869713312E-01 +4.84229390123E-05 +1.05250446916E-02 +3.22487827786E-04 +1.04917677948E-02 -3.24538260213E-01 +3.75862498386E-01
4.47500000000E+09 -3.52960801265E-01 +3.57547873183E-01 +1.02538203513E-03 +9.70406298101E-03 +1.22933747286E-03 +9.55882218814E-03 -3.12348856058E-01 +3.92701347775E-01
4.48000000000E+09 -3.41171924721E-01 +3.74890432426E-01 +1.20746990389E-03 +9.70768183748E-03 +1.43330538543E-03 +9.54418039161E-03 -3.01299832224E-01 +4.10420487538E-01
4.48500000000E+09 -3.29721577437E-01 +3.93238886058E-01 +2.21313002082E-03 +9.99460985156E-03 +2.40135427428E-03 +9.73132932123E-03 -2.88332272953E-01 +4.27788394609E-01
4.49000000000E+09 -3.20422736263E-01 +4.10996276916E-01 +3.75682004005E-03 +1.01907934116E-02 +3.78747417391E-03 +9.82693491867E-03 -2.74835606519E-01 +4.44114156554E-01
4.49500000000E+09 -3.12121196194E-01 +4.29245999429E-01 +5.25016367049E-03 +9.27598081436E-03 +5.20679110430E-03 +9.03373911755E-03 -2.59859388266E-01 +4.58138901878E-01
4.50000000000E+09 -3.03931336439E-01 +4.45094476312E-01 +6.11043470890E-03 +8.39269783027E-03 +6.07335512130E-03 +8.15026008626E-03 -2.46296641211E-01 +4.71478530991E-01
4.50500000000E+09 -2.96963063999E-01 +4.58966904211E-01 +7.19560127567E-03 +7.38285350879E-03 +7.17384583597E-03 +7.21511719329E-03 -2.32421509267E-01 +4.84176359801E-01
4.51000000000E+09 -2.89150058573E-01 +4.70432269220E-01 +7.46130506768E-03 +6.24242862573E-03 +7.39387829996E-03 +6.01841907530E-03 -2.19613454680E-01 +4.98240074732E-01
4.51500000000E+09 -2.80341262211E-01 +4.79542713591E-01 +7.74139205149E-03 +5.67211153833E-03 +7.69643958181E-03 +5.37266821003E-03 -2.05320637263E-01 +5.11406877249E-01
4.52000000000E+09 -2.70206748240E-01 +4.87563791806E-01 +8.59129524385E-03 +4.78012011598E-03 +8.53218971246E-03 +4.45945378844E-03 -1.91291100859E-01 +5.23842642406E-01
4.52500000000E+09 -2.58645721306E-01 +4.95944998524E-01 +8.67174991813E-03 +3.28170194106E-03 +8.53410774649E-03 +3.01699426797E-03 -1.76575020094E-01 +5.34481961537E-01
4.53000000000E+09 -2.44692809368E-01 +5.05425203024E-01 +8.61023559021E-03 +2.82248649419E-03 +8.48097175116E-03 +2.59391333940E-03 -1.62478205627E-01 +5.45372232433E-01
4.53500000000E+09 -2.28547639326E-01 +5.15546152512E-01 +8.86927332381E-03 +2.05466310611E-03 +8.72822495378E-03 +1.82390758610E-03 -1.47107207426E-01 +5.55180865641E-01
4.54000000000E+09 -2.11659403955E-01 +5.26325577174E-01 +9.15240697983E-03 +1.24639499850E-03 +8.96256266166E-03 +9.29743586277E-04 -1.31629881918E-01 +5.66242716227E-01
4.54500000000E+09 -1.95044966717E-01 +5.37433925306E-01 +9.45932396076E-03 +9.37567400231E-05 +9.22618478986E-03 -1.61950840864E-04 -1.14658646431E-01 +5.74968228848E-01
4.55000000000E+09 -1.79862378572E-01 +5.48405433969E-01 +9.44192602978E-03 -1.23549505116E-03 +9.13684951322E-03 -1.37527635286E-03 -9.87767422023E-02 +5.83532231053E-01
4.55500000000E+09 -1.67132365376E-01 +5.59000005718E-01 +8.88359898452E-03 -3.17981975999E-03 +8.56629108650E-03 -3.20534093270E-03 -8.41085837839E-02 +5.90939165586E-01
4.56000000000E+09 -1.56063472944E-01 +5.69425840020E-01 +7.14972594329E-03 -3.79721002055E-03 +6.88589421932E-03 -3.81230953615E-03 -7.05146348547E-02 +5.99652674015E-01
4.56500000000E+09 -1.46021844944E-01 +5.79113903805E-01 +6.38647515890E-03 -3.61515746661E-03 +6.17035968094E-03 -3.60510253647E-03 -5.52636602020E-02 +6.08001997057E-01
4.57000000000E+09 -1.36334019346E-01 +5.87801915914E-01 +6.18845876762E-03 -3.59112723417E-03 +5.94557232066E-03 -3.58506371524E-03 -3.93963258854E-02 +6.14893523205E-01
