# Hz S RI R 50
! CMT, C1220, 16058040, 17.2.0/1
! Date: 15/08/2018 11:44:09
! Data: Format (Calibration Info)
! Freq                      S11: Re/Im (F2)                       S21: Re/Im (F2)                       S12: Re/Im (F2)                       S22: Re/Im (F2)            
4.00000000000E+09 +6.40416071274E-01 -3.37123491164E-01 -9.40940294897E-04 -2.40007370972E-03 -8.61793555824E-04 -2.53304842009E-03 +7.70966448136E-01 -3.51297438148E-01
4.00500000000E+09 +6.31508301965E-01 -3.43347459273E-01 -1.07217464112E-03 -2.38931886666E-03 -1.04152973599E-03 -2.51044344970E-03 +7.62227630601E-01 -3.62785592420E-01
4.01000000000E+09 +6.21721666331E-01 -3.49071928169E-01 -1.40189467789E-03 -2.51016439987E-03 -1.36125096032E-03 -2.61565356588E-03 +7.52590433601E-01 -3.73829159159E-01
4.01500000000E+09 +6.10941365284E-01 -3.54720632860E-01 -1.65552135379E-03 -2.24179285673E-03 -1.61126441183E-03 -2.31753322908E-03 +7.42796933901E-01 -3.83991927453E-01
4.02000000000E+09 +5.99391575872E-01 -3.61432869963E-01 -1.79469591479E-03 -2.33203163411E-03 -1.77464179057E-03 -2.48092819433E-03 +7.33098817707E-01 -3.94167636685E-01
4.02500000000E+09 +5.86797520645E-01 -3.68640035072E-01 -2.48011119949E-03 -2.24166886443E-03 -2.36824453004E-03 -2.42777195576E-03 +7.22927993688E-01 -4.04838081686E-01
4.03000000000E+09 +5.74483593162E-01 -3.76851017466E-01 -2.80167732657E-03 -1.72713032761E-03 -2.82317236549E-03 -1.88275818992E-03 +7.12074339478E-01 -4.15140981212E-01
4.03500000000E+09 +5.61972830714E-01 -3.86280019837E-01 -2.76232858421E-03 -1.36003262235E-03 -2.76218948095E-03 -1.44609187843E-03 +7.00574596465E-01 -4.25931416807E-01
4.04000000000E+09 +5.49230855094E-01 -3.95947481314E-01 -2.94830793899E-03 -1.03656948421E-03 -3.00240631581E-03 -1.24703353418E-03 +6.88962190998E-01 -4.36512412828E-01
4.04500000000E+09 +5.36539664404E-01 -4.05650643074E-01 -2.72297830507E-03 -7.58209791391E-04 -2.83514034579E-03 -9.29494719073E-04 +6.77375951822E-01 -4.46598791487E-01
4.05000000000E+09 +5.23481976153E-01 -4.14176414070E-01 -2.96512629042E-03 -8.44239412830E-04 -3.03846528854E-03 -1.00525923783E-03 +6.66007444575E-01 -4.56851469685E-01
4.05500000000E+09 +5.09828682805E-01 -4.20759529232E-01 -3.27315681653E-03 -3.93282373358E-04 -3.49007392858E-03 -5.31387417952E-04 +6.53378004258E-01 -4.66803169169E-01
4.06000000000E+09 +4.96526722232E-01 -4.25713475680E-01 -3.30139921011E-03 +2.78629879941E-05 -3.51004168220E-03 -2.32281278153E-05 +6.40789235203E-01 -4.75863537094E-01
4.06500000000E+09 +4.82622800343E-01 -4.29516782305E-01 -3.08073404380E-03 +4.56419932056E-04 -3.20745115050E-03 +4.37716457707E-04 +6.27223820547E-01 -4.85029410999E-01
4.07000000000E+09 +4.67919407814E-01 -4.32963938256E-01 -3.03300113696E-03 +4.95880511968E-04 -3.13454324135E-03 +4.62495119729E-04 +6.13429932337E-01 -4.94326613700E-01
4.07500000000E+09 +4.52200037512E-01 -4.36450902417E-01 -3.04028894123E-03 +7.86213506599E-04 -3.08633334281E-03 +7.09313454409E-04 +5.99687833189E-01 -5.03916758815E-01
4.08000000000E+09 +4.35480459716E-01 -4.39980161191E-01 -3.03062662942E-03 +9.34493705583E-04 -3.13564433998E-03 +8.46646458667E-04 +5.85050927977E-01 -5.13729971574E-01
4.08500000000E+09 +4.18104413820E-01 -4.44284890058E-01 -3.07563971315E-03 +1.20094056155E-03 -3.17545592952E-03 +1.15208102453E-03 +5.70454738452E-01 -5.22083521380E-01
4.09000000000E+09 +4.00225300731E-01 -4.48499441506E-01 -2.89516996545E-03 +1.50213760199E-03 -2.99932441330E-03 +1.48099021512E-03 +5.55816944651E-01 -5.30046702203E-01
4.09500000000E+09 +3.82713931356E-01 -4.52740185139E-01 -2.96358671483E-03 +1.73876907790E-03 -3.05262801001E-03 +1.70852475951E-03 +5.40642302158E-01 -5.37565934260E-01
4.10000000000E+09 +3.65299322375E-01 -4.57216776095E-01 -2.85593710243E-03 +1.85259144802E-03 -2.90543055602E-03 +1.89103649612E-03 +5.24921886469E-01 -5.44696109266E-01
4.10500000000E+09 +3.48174768653E-01 -4.60576857412E-01 -3.14030294221E-03 +2.28160631093E-03 -3.19395928325E-03 +2.23812618260E-03 +5.08002665670E-01 -5.52333114957E-01
4.11000000000E+09 +3.31059697750E-01 -4.62339463099E-01 -2.89507093166E-03 +3.03567668510E-03 -3.06583457708E-03 +2.99041161179E-03 +4.90585122583E-01 -5.59036175706E-01
4.11500000000E+09 +3.14883771376E-01 -4.62681729755E-01 -2.02869219535E-03 +3.40984517075E-03 -2.23560426927E-03 +3.38221034860E-03 +4.73673691325E-01 -5.65512234367E-01
4.12000000000E+09 +2.98199177319E-01 -4.62488381868E-01 -1.89906872809E-03 +3.18538003748E-03 -2.08459982741E-03 +3.20140126978E-03 +4.56657270169E-01 -5.72676870272E-01
4.12500000000E+09 +2.80793397466E-01 -4.61278447457E-01 -1.91995088190E-03 +3.41263868519E-03 -2.09437319901E-03 +3.42575710424E-03 +4.39035969299E-01 -5.78591908107E-01
4.13000000000E+09 +2.62998497244E-01 -4.59783492749E-01 -1.67141269683E-03 +3.70284547235E-03 -1.82937590092E-03 +3.75387030926E-03 +4.20901061323E-01 -5.84084139488E-01
4.13500000000E+09 +2.44510626572E-01 -4.58269310030E-01 -1.69532576684E-03 +4.05083710168E-03 -1.85851911428E-03 +4.11266224994E-03 +4.02303093558E-01 -5.88997227703E-01
4.14000000000E+09 +2.26061633440E-01 -4.58042239752E-01 -1.17416952066E-03 +4.83846211965E-03 -1.36633856177E-03 +4.93367577450E-03 +3.82719756979E-01 -5.93224400615E-01
4.14500000000E+09 +2.07130143993E-01 -4.58358576283E-01 -2.67264211295E-04 +5.22384047619E-03 -4.04289225234E-04 +5.40037924551E-03 +3.63516423431E-01 -5.96929841188E-01
4.15000000000E+09 +1.88155084575E-01 -4.60043562131E-01 +5.78181703111E-04 +4.94459206541E-03 +4.73804690608E-04 +5.14853625300E-03 +3.45068563304E-01 -6.01844207974E-01
4.15500000000E+09 +1.68561735400E-01 -4.61099509764E-01 +1.00033404616E-03 +4.57063637626E-03 +1.00631689733E-03 +4.80688749352E-03 +3.24950822797E-01 -6.06537556116E-01
4.16000000000E+09 +1.49555623288E-01 -4.60779253055E-01 +1.27403311262E-03 +4.51849594011E-03 +1.17650521604E-03 +4.58352633953E-03 +3.04174278219E-01 -6.08381629768E-01
4.16500000000E+09 +1.31621872196E-01 -4.58342880072E-01 +1.43253043143E-03 +4.41854278624E-03 +1.40371372738E-03 +4.52350915774E-03 +2.84974420781E-01 -6.09566089605E-01
4.17000000000E+09 +1.15495028339E-01 -4.53751294791E-01 +1.78756586035E-03 +4.69180384338E-03 +1.77743788319E-03 +4.86664280405E-03 +2.64185247889E-01 -6.10616298298E-01
4.17500000000E+09 +1.00085172372E-01 -4.48022042687E-01 +2.46592249923E-03 +4.94713882364E-03 +2.39330648557E-03 +5.13556658650E-03 +2.42691640209E-01 -6.10805249041E-01
4.18000000000E+09 +8.48623935507E-02 -4.41438848701E-01 +3.50776255249E-03 +4.57250003341E-03 +3.53650713645E-03 +4.74892616827E-03 +2.20867334753E-01 -6.10530823717E-01
4.18500000000E+09 +6.80769797195E-02 -4.33701646107E-01 +3.85990868248E-03 +4.06745691695E-03 +3.90626130310E-03 +4.28120316677E-03 +1.98538720705E-01 -6.09567938922E-01
4.19000000000E+09 +5.11591970603E-02 -4.24998097041E-01 +4.52225377671E-03 +3.92636477270E-03 +4.54425894304E-03 +4.15767158142E-03 +1.77569462373E-01 -6.07613916252E-01
4.19500000000E+09 +3.33260592424E-02 -4.15826786948E-01 +5.28952836032E-03 +3.20089782084E-03 +5.32867209596E-03 +3.44219310833E-03 +1.56500086570E-01 -6.05582127078E-01
4.20000000000E+09 +1.56067358944E-02 -4.06998402949E-01 +5.34326688791E-03 +2.37335283344E-03 +5.44057355074E-03 +2.55865398362E-03 +1.34537584117E-01 -6.03743429342E-01
4.20500000000E+09 -1.40982802525E-03 -3.99276225531E-01 +5.56001140297E-03 +1.85028995700E-03 +5.66313350168E-03 +1.99275135512E-03 +1.11577975225E-01 -6.00058876319E-01
4.21000000000E+09 -1.82010264033E-02 -3.92178835226E-01 +5.57537720647E-03 +1.08658782529E-03 +5.75187353167E-03 +1.19212214442E-03 +8.85416975569E-02 -5.95108921594E-01
4.21500000000E+09 -3.49892291258E-02 -3.84939897101E-01 +5.37321295124E-03 +1.12983136856E-03 +5.56842391224E-03 +1.22320846643E-03 +6.64730518497E-02 -5.90376781545E-01
4.22000000000E+09 -5.03111960729E-02 -3.75993480642E-01 +6.00410248304E-03 +1.07566159203E-03 +6.15091905165E-03 +1.13771338308E-03 +4.39083851093E-02 -5.84999808992E-01
4.22500000000E+09 -6.39651223228E-02 -3.65687808242E-01 +6.92176193997E-03 -2.48123578018E-05 +7.09959330022E-03 +3.85607731217E-05 +2.08253881402E-02 -5.78626085565E-01
4.23000000000E+09 -7.61828299673E-02 -3.54212555652E-01 +6.75227897906E-03 -1.48669398724E-03 +6.93358407138E-03 -1.48349597880E-03 -1.33678855184E-03 -5.70469002210E-01
4.23500000000E+09 -8.82218910786E-02 -3.41364783814E-01 +5.98734426053E-03 -2.15971682375E-03 +6.22378469344E-03 -2.18327394109E-03 -2.28672431881E-02 -5.61115828429E-01
4.24000000000E+09 -1.00914414772E-01 -3.27454506772E-01 +5.62235169668E-03 -2.46388477043E-03 +5.74471941781E-03 -2.53746420559E-03 -4.40844934547E-02 -5.51461735962E-01
4.24500000000E+09 -1.14428717233E-01 -3.12363307290E-01 +5.66215456884E-03 -2.61718598653E-03 +5.75174478790E-03 -2.68196383490E-03 -6.51094780269E-02 -5.41794364985E-01
4.25000000000E+09 -1.28572385494E-01 -2.96553133135E-01 +5.69241785267E-03 -3.51653339577E-03 +5.80860587801E-03 -3.55445733736E-03 -8.76068084923E-02 -5.30739056968E-01
4.25500000000E+09 -1.43252082067E-01 -2.82018353323E-01 +5.07637402709E-03 -4.41857158530E-03 +5.23915716675E-03 -4.52763856058E-03 -1.09639998759E-01 -5.18404508646E-01
4.26000000000E+09 -1.59479045932E-01 -2.68824038252E-01 +4.40615289143E-03 -4.61402054814E-03 +4.45843263548E-03 -4.82451549928E-03 -1.30606208325E-01 -5.03891861914E-01
4.26500000000E+09 -1.76557802356E-01 -2.55820437886E-01 +4.22857394882E-03 -4.55936855581E-03 +4.31874577138E-03 -4.64263872339E-03 -1.50290318641E-01 -4.89144505961E-01
4.27000000000E+09 -1.92403479624E-01 -2.42819063422E-01 +4.37477080768E-03 -5.30337545032E-03 +4.39044751103E-03 -5.48351022922E-03 -1.69613776949E-01 -4.73867006420E-01
4.27500000000E+09 -2.06974214081E-01 -2.29402756551E-01 +3.74426169820E-03 -6.21899427519E-03 +3.72952629225E-03 -6.34214472955E-03 -1.89810779579E-01 -4.57576628736E-01
4.28000000000E+09 -2.18184923840E-01 -2.15595541312E-01 +3.16107118522E-03 -6.67163628448E-03 +3.12024995915E-03 -6.76764460169E-03 -2.08635835964E-01 -4.40768839364E-01
4.28500000000E+09 -2.26812314286E-01 -2.01848401878E-01 +2.47754116060E-03 -7.49099685161E-03 +2.42471332359E-03 -7.61451439802E-03 -2.27897353330E-01 -4.24196587464E-01
4.29000000000E+09 -2.34323932970E-01 -1.87783181223E-01 +8.97511961891E-04 -7.92608144647E-03 +8.98498139540E-04 -7.98316072325E-03 -2.45534711584E-01 -4.05656748370E-01
4.29500000000E+09 -2.41811207829E-01 -1.72485297235E-01 +5.45964118066E-05 -7.15754319369E-03 +4.57129116220E-05 -7.24519351836E-03 -2.60941705242E-01 -3.88767337713E-01
4.30000000000E+09 -2.49387145674E-01 -1.54993894231E-01 -4.82882403846E-04 -7.18338388882E-03 -4.74319505743E-04 -7.23903941441E-03 -2.77770034384E-01 -3.70815518761E-01
4.30500000000E+09 -2.56743656178E-01 -1.36112625242E-01 -8.62089206695E-04 -7.00558314170E-03 -8.74615003501E-04 -7.06971115506E-03 -2.94026765353E-01 -3.50068991608E-01
4.31000000000E+09 -2.64649138418E-01 -1.16158751299E-01 -1.10580885821E-03 -7.18660869697E-03 -1.11384194631E-03 -7.32946498499E-03 -3.08948170719E-01 -3.29203708609E-01
4.31500000000E+09 -2.71969504370E-01 -9.67246954429E-02 -1.92259494959E-03 -7.63158373929E-03 -2.00392544201E-03 -7.80457527912E-03 -3.23042900776E-01 -3.07219422809E-01
4.32000000000E+09 -2.79151113701E-01 -7.77084281905E-02 -2.87432682525E-03 -7.75424819889E-03 -2.89541602362E-03 -7.87885095369E-03 -3.36185260189E-01 -2.85834500752E-01
4.32500000000E+09 -2.85301601056E-01 -6.15090785980E-02 -4.46323464683E-03 -7.70767792147E-03 -4.53453922571E-03 -7.88393529883E-03 -3.48835449355E-01 -2.63613531558E-01
4.33000000000E+09 -2.91668335315E-01 -4.58513786532E-02 -5.28371951687E-03 -7.02445037020E-03 -5.42427007147E-03 -7.16920210348E-03 -3.60589079984E-01 -2.39741182441E-01
4.33500000000E+09 -2.96688935939E-01 -3.01831053862E-02 -6.39408569587E-03 -6.38262526208E-03 -6.51148520278E-03 -6.39801594723E-03 -3.70326067126E-01 -2.14696114094E-01
4.34000000000E+09 -2.99285678789E-01 -1.40382685012E-02 -7.33359064061E-03 -5.15958920607E-03 -7.45205887472E-03 -5.22191807099E-03 -3.78227897413E-01 -1.90421578312E-01
4.34500000000E+09 -2.98932572377E-01 +1.94153685276E-03 -7.15147011643E-03 -3.98272820293E-03 -7.18701871231E-03 -3.97568951839E-03 -3.87348664096E-01 -1.67529543234E-01
4.35000000000E+09 -2.98390546592E-01 +1.86839907638E-02 -7.22302293890E-03 -3.93777373851E-03 -7.33522635410E-03 -3.95559671652E-03 -3.96933913194E-01 -1.42430045040E-01
4.35500000000E+09 -2.96558882146E-01 +3.69130740890E-02 -8.25764633076E-03 -3.47101172245E-03 -8.40304945367E-03 -3.55535859577E-03 -4.03631801147E-01 -1.16456400798E-01
4.36000000000E+09 -2.95076317915E-01 +5.56781584713E-02 -8.29895472632E-03 -2.38173606696E-03 -8.50977933158E-03 -2.39863526100E-03 -4.08481221498E-01 -9.24008094860E-02
4.36500000000E+09 -2.93691673249E-01 +7.57567252102E-02 -9.24161580745E-03 -2.25805288549E-03 -9.48915609256E-03 -2.22401009053E-03 -4.12655429745E-01 -6.87653654735E-02
4.37000000000E+09 -2.93651321267E-01 +9.51889617213E-02 -1.01712065332E-02 -4.72759379620E-04 -1.03462310731E-02 -3.12676536291E-04 -4.15782638558E-01 -4.45889740661E-02
4.37500000000E+09 -2.94479331715E-01 +1.14779055850E-01 -9.80236305346E-03 +1.22626230563E-03 -9.94572623051E-03 +1.40993285059E-03 -4.17663390270E-01 -2.05018395925E-02
4.38000000000E+09 -2.95645634893E-01 +1.32751604944E-01 -9.58182027540E-03 +2.13757341069E-03 -9.70989397950E-03 +2.30305800983E-03 -4.19507116591E-01 +5.28775719547E-03
4.38500000000E+09 -2.96393966037E-01 +1.49756200888E-01 -9.13667413059E-03 +3.42194006439E-03 -9.21522388278E-03 +3.73954341344E-03 -4.18875974440E-01 +3.03279979054E-02
4.39000000000E+09 -2.95763310200E-01 +1.65005978454E-01 -8.21328867450E-03 +4.48854649083E-03 -8.21315922975E-03 +4.76542398746E-03 -4.18935474375E-01 +5.41908974082E-02
4.39500000000E+09 -2.94084043036E-01 +1.78237939984E-01 -8.07111944916E-03 +4.66980460252E-03 -8.02199894525E-03 +4.91131753925E-03 -4.18654265794E-01 +7.85665120557E-02
4.40000000000E+09 -2.90661486485E-01 +1.91697168716E-01 -7.48873803149E-03 +6.02333130902E-03 -7.38826469944E-03 +6.25826823072E-03 -4.17248724598E-01 +1.02332468462E-01
4.40500000000E+09 -2.85834253910E-01 +2.04701772964E-01 -6.90792945320E-03 +6.90582684507E-03 -6.78998358375E-03 +6.99676441524E-03 -4.13814955471E-01 +1.26390203974E-01
4.41000000000E+09 -2.79793875227E-01 +2.19155931992E-01 -6.01097469678E-03 +7.27483107764E-03 -5.87003704243E-03 +7.38651986537E-03 -4.09065082429E-01 +1.50294864099E-01
4.41500000000E+09 -2.72197293098E-01 +2.35299001440E-01 -5.52449664115E-03 +8.59453077529E-03 -5.39810377341E-03 +8.73070982673E-03 -4.03614661054E-01 +1.73552863796E-01
4.42000000000E+09 -2.64958472234E-01 +2.51668133890E-01 -4.34061944247E-03 +8.96163347200E-03 -4.14113924390E-03 +8.97466358416E-03 -3.96569822048E-01 +1.96845459771E-01
4.42500000000E+09 -2.58391147173E-01 +2.69072865457E-01 -3.39817314063E-03 +9.86249554506E-03 -3.21014533211E-03 +9.82040376019E-03 -3.90844023527E-01 +2.18237539576E-01
4.43000000000E+09 -2.52615067414E-01 +2.86632613935E-01 -1.57726168557E-03 +1.02793395578E-02 -1.39700777508E-03 +1.01392377934E-02 -3.83904179191E-01 +2.40972152625E-01
4.43500000000E+09 -2.47077661924E-01 +3.03243619153E-01 -4.02898221916E-04 +9.92036764607E-03 -2.87577327275E-04 +9.75288816757E-03 -3.75382334728E-01 +2.62648774694E-01
4.44000000000E+09 -2.42716426365E-01 +3.17395126671E-01 +8.83448442212E-04 +9.44210043534E-03 +9.51301883010E-04 +9.26199871848E-03 -3.66858388275E-01 +2.82476309322E-01
4.44500000000E+09 -2.38905848023E-01 +3.29649245829E-01 +1.32133969045E-03 +9.09323455527E-03 +1.42428990033E-03 +9.02877780213E-03 -3.58374531053E-01 +3.02267758532E-01
4.45000000000E+09 -2.35084674435E-01 +3.40600974636E-01 +1.97992108264E-03 +8.87617607236E-03 +2.13489595351E-03 +8.80547773568E-03 -3.48649070222E-01 +3.21988657879E-01
4.45500000000E+09 -2.29250785222E-01 +3.50642886866E-01 +2.99409081045E-03 +9.21408979461E-03 +3.18187523943E-03 +9.11874059525E-03 -3.38171514526E-01 +3.40820236584E-01
4.46000000000E+09 -2.21953696486E-01 +3.59822143348E-01 +4.32233992824E-03 +8.73635634681E-03 +4.50133060303E-03 +8.52802176908E-03 -3.25915437907E-01 +3.59272467180E-01
4.46500000000E+09 -2.12093754160E-01 +3.69494514619E-01 +5.10415223283E-03 +7.92183377209E-03 +5.20815074110E-03 +7.73667241157E-03 -3.14437959543E-01 +3.75376210508E-01
4.47000000000E+09 -2.00647355470E-01 +3.79707055380E-01 +6.09336478605E-03 +7.51589618121E-03 +6.17425554870E-03 +7.32011756873E-03 -3.03516342296E-01 +3.92275030489E-01
4.47500000000E+09 -1.87688500716E-01 +3.90429239161E-01 +6.61986902568E-03 +6.50047883906E-03 +6.71041187916E-03 +6.32454906181E-03 -2.91998401374E-01 +4.10185475983E-01
4.48000000000E+09 -1.75990762900E-01 +4.01759080397E-01 +7.48950824266E-03 +5.83675816700E-03 +7.51920054935E-03 +5.66976863186E-03 -2.79210622803E-01 +4.26870620134E-01
4.48500000000E+09 -1.65450525328E-01 +4.14745284394E-01 +8.16771580858E-03 +5.06063173666E-03 +8.18458236331E-03 +4.83733777362E-03 -2.65801673773E-01 +4.41957709485E-01
4.49000000000E+09 -1.55591108924E-01 +4.28019899102E-01 +8.58895406421E-03 +3.40509164073E-03 +8.55875838102E-03 +3.23107507190E-03 -2.53384134785E-01 +4.56691761459E-01
4.49500000000E+09 -1.47678833807E-01 +4.40438867345E-01 +8.18239773333E-03 +2.70360896796E-03 +8.08195018017E-03 +2.51020504820E-03 -2.40165742953E-01 +4.71608321480E-01
4.50000000000E+09 -1.40663789307E-01 +4.51430811490E-01 +8.45352472423E-03 +2.30544857055E-03 +8.33987012325E-03 +2.23175647109E-03 -2.25557311585E-01 +4.85315465125E-01
4.50500000000E+09 -1.34499711194E-01 +4.60494499769E-01 +8.72395694736E-03 +1.46619125325E-03 +8.62000160892E-03 +1.34871488628E-03 -2.12097291001E-01 +4.98573214654E-01
4.51000000000E+09 -1.27890533095E-01 +4.67429134702E-01 +9.03176456085E-03 +6.38000243771E-04 +9.00494609292E-03 +5.23367879939E-04 -1.96811342834E-01 +5.11405892460E-01
4.51500000000E+09 -1.21064025155E-01 +4.72723921241E-01 +9.19608368158E-03 -3.53418549238E-04 +9.10963818269E-03 -5.43898012525E-04 -1.82633275691E-01 +5.22387252343E-01
4.52000000000E+09 -1.12042062429E-01 +4.77693342772E-01 +9.45803522694E-03 -1.74971662423E-03 +9.32568552564E-03 -1.91636624321E-03 -1.68940112438E-01 +5.33450640250E-01
4.52500000000E+09 -1.00704288218E-01 +4.81541162491E-01 +8.63830442597E-03 -2.94874696658E-03 +8.34846178327E-03 -3.07407974083E-03 -1.54991116814E-01 +5.44092014354E-01
4.53000000000E+09 -8.81214538254E-02 +4.86181934338E-01 +8.07891149898E-03 -3.75205971858E-03 +7.84037022313E-03 -3.87064069510E-03 -1.40267003972E-01 +5.53838741695E-01
4.53500000000E+09 -7.42862202452E-02 +4.92029248419E-01 +7.32023172554E-03 -4.55972765048E-03 +7.09936610030E-03 -4.67829602363E-03 -1.25794076031E-01 +5.63380605273E-01
4.54000000000E+09 -5.95266011420E-02 +4.98924183386E-01 +6.88971596462E-03 -4.77179463678E-03 +6.56220094580E-03 -4.85906829271E-03 -1.09760245498E-01 +5.72400829484E-01
4.54500000000E+09 -4.57437659039E-02 +5.06556449117E-01 +6.29699839699E-03 -5.48549594363E-03 +6.02285907189E-03 -5.49947290248E-03 -9.51819530805E-02 +5.81430938999E-01
4.55000000000E+09 -3.28009736040E-02 +5.14660692844E-01 +5.94460406964E-03 -6.20370284064E-03 +5.73961357670E-03 -6.15552536156E-03 -7.92330674435E-02 +5.90465583249E-01
4.55500000000E+09 -2.18799305133E-02 +5.22040626430E-01 +4.92716742859E-03 -6.58112023186E-03 +4.65671905851E-03 -6.50153318079E-03 -6.37380669156E-02 +5.98472618894E-01
4.56000000000E+09 -1.36960936303E-02 +5.29738313671E-01 +4.43450614684E-03 -7.05549073839E-03 +4.21736857594E-03 -6.93245931513E-03 -4.85941827116E-02 +6.04920239025E-01
4.56500000000E+09 -5.29623396966E-03 +5.36768759724E-01 +3.79755220946E-03 -7.58425311273E-03 +3.58761924478E-03 -7.41653938255E-03 -3.44489143517E-02 +6.11587412989E-01
4.57000000000E+09 +3.05570164765E-03 +5.41914991875E-01 +2.92098874225E-03 -8.03618049393E-03 +2.74862046622E-03 -7.89540382332E-03 -1.92826709386E-02 +6.17683022520E-01
