# Hz S RI R 50
! CMT, C1220, 16058040, 17.2.0/1
! Date: 15/08/2018 12:20:59
! Data: Format (Calibration Info)
! Freq                      S11: Re/Im (F2)                       S21: Re/Im (F2)                       S12: Re/Im (F2)                       S22: Re/Im (F2)            
4.00000000000E+09 +6.54322895301E-01 -3.55383580079E-01 +4.34894216602E-04 +9.11028468944E-05 +4.64432250899E-04 +6.09287025156E-05 +7.42570178643E-01 -3.24180232685E-01
4.00500000000E+09 +6.46062333243E-01 -3.62010028268E-01 +6.05636411763E-04 +9.16723187811E-05 +5.65392021735E-04 +6.80463090366E-05 +7.32163468170E-01 -3.34911584810E-01
4.01000000000E+09 +6.36983590153E-01 -3.68572250866E-01 +7.63064220097E-04 -3.09975299313E-04 +7.89841810639E-04 -2.84616101045E-04 +7.21325578698E-01 -3.45713957837E-01
4.01500000000E+09 +6.26592217106E-01 -3.75987548672E-01 +6.10927568383E-04 -5.11289190049E-04 +5.89923246934E-04 -5.02230853602E-04 +7.10257990389E-01 -3.55939703235E-01
4.02000000000E+09 +6.15688312671E-01 -3.84173893682E-01 +2.74015689375E-04 -5.95032257125E-04 +2.57756028663E-04 -5.87315618918E-04 +6.98782372791E-01 -3.65899627129E-01
4.02500000000E+09 +6.04266690626E-01 -3.93662118198E-01 +2.15542705418E-05 -1.27990902581E-04 -3.99718053803E-05 -8.60162327736E-05 +6.86703778886E-01 -3.75760782632E-01
4.03000000000E+09 +5.92778134318E-01 -4.03682232459E-01 +5.81398670506E-04 +5.40613281197E-05 +5.90165993658E-04 +6.23775488352E-05 +6.73837658802E-01 -3.85316115063E-01
4.03500000000E+09 +5.81502807755E-01 -4.14253999289E-01 +7.67000440102E-04 -3.86864849050E-04 +8.26864860689E-04 -3.23231173646E-04 +6.61102276832E-01 -3.94871649822E-01
4.04000000000E+09 +5.70697644464E-01 -4.24707720392E-01 +7.45860771604E-04 -7.47040917958E-04 +8.44904039234E-04 -7.12839097160E-04 +6.47801455936E-01 -4.05142882558E-01
4.04500000000E+09 +5.59568562988E-01 -4.34857933371E-01 +4.02793920808E-04 -1.17726659618E-03 +4.87215905665E-04 -1.14928858627E-03 +6.33631161644E-01 -4.14598313746E-01
4.05000000000E+09 +5.47875942102E-01 -4.42838218785E-01 -1.75927571991E-04 -1.00754077443E-03 -4.36905911092E-05 -9.89833043466E-04 +6.19994730235E-01 -4.23116357252E-01
4.05500000000E+09 +5.36119585545E-01 -4.48708199598E-01 -2.31460320267E-04 -7.32236034099E-04 -8.34116365378E-05 -7.55102772114E-04 +6.05895297692E-01 -4.31593492301E-01
4.06000000000E+09 +5.24127016524E-01 -4.53347117959E-01 -3.02513996084E-04 -5.95390816882E-04 -2.46824310432E-04 -6.57427747934E-04 +5.91460630629E-01 -4.39620918770E-01
4.06500000000E+09 +5.11615008668E-01 -4.57206544632E-01 -2.21797597177E-05 -5.79801047725E-04 +4.23045852035E-05 -6.65163754411E-04 +5.75792778014E-01 -4.47503552962E-01
4.07000000000E+09 +4.97799128404E-01 -4.62015135468E-01 -1.97151440181E-04 -7.42297104272E-04 -1.34421134493E-04 -7.49949136013E-04 +5.59772426807E-01 -4.54757234885E-01
4.07500000000E+09 +4.82091343493E-01 -4.66614754438E-01 -2.20266498497E-04 -7.10953748113E-04 -1.19858625797E-04 -8.10594448575E-04 +5.43358598980E-01 -4.62445017079E-01
4.08000000000E+09 +4.65511141433E-01 -4.72045608083E-01 -4.25283447933E-04 -8.53277891790E-04 -4.56134417127E-04 -9.41805342065E-04 +5.27192966864E-01 -4.68996408780E-01
4.08500000000E+09 +4.47950622257E-01 -4.77536898779E-01 -6.88741788950E-04 -6.82302371419E-04 -7.31819007422E-04 -7.55087900566E-04 +5.10972468129E-01 -4.76613427356E-01
4.09000000000E+09 +4.30738137651E-01 -4.83702303095E-01 -6.53126658630E-04 -4.75365288537E-04 -7.58773649011E-04 -5.71870204070E-04 +4.93034009524E-01 -4.82428531220E-01
4.09500000000E+09 +4.13902428004E-01 -4.89934134487E-01 -6.81974288652E-04 -2.20445539332E-04 -7.58173534437E-04 -2.51138275252E-04 +4.76049766960E-01 -4.87435313999E-01
4.10000000000E+09 +3.96920200595E-01 -4.95996654503E-01 -5.77615430158E-04 -1.31443995672E-04 -6.51625712293E-04 -2.05794741141E-04 +4.57486421206E-01 -4.92686326414E-01
4.10500000000E+09 +3.80286095717E-01 -5.00514594436E-01 -4.09191900582E-04 +6.42777906375E-05 -5.17824649135E-04 +8.14231383447E-05 +4.38184184414E-01 -4.96535860412E-01
4.11000000000E+09 +3.63751865953E-01 -5.03155485407E-01 -1.94192927674E-04 -2.11536059250E-04 -3.18457505576E-04 -2.21167159883E-04 +4.18927676691E-01 -5.00089896308E-01
4.11500000000E+09 +3.48032960860E-01 -5.04642848872E-01 -2.25372986062E-04 -4.88890091759E-04 -2.82340399364E-04 -4.63628560171E-04 +3.99703810183E-01 -5.03583667698E-01
4.12000000000E+09 +3.31871305403E-01 -5.05572091236E-01 -5.82125107533E-04 -8.07468750689E-04 -6.36255110837E-04 -7.72335273941E-04 +3.80089277800E-01 -5.06616279004E-01
4.12500000000E+09 +3.14214708938E-01 -5.06501519451E-01 -1.09972529739E-03 -6.45071986789E-04 -1.11352747944E-03 -5.83225737061E-04 +3.59833365517E-01 -5.08802925674E-01
4.13000000000E+09 +2.95351207329E-01 -5.07450918177E-01 -1.31322449419E-03 -7.07837340053E-05 -1.32583122992E-03 -4.07617796893E-05 +3.39424697447E-01 -5.10001690028E-01
4.13500000000E+09 +2.75458495068E-01 -5.08554461602E-01 -1.02017821206E-03 +3.06677243811E-04 -1.04496452712E-03 +4.07124900531E-04 +3.18627247454E-01 -5.09992665563E-01
4.14000000000E+09 +2.55218090585E-01 -5.10540747082E-01 -7.14379115071E-04 +1.82433437621E-04 -6.60415319414E-04 +2.67711166217E-04 +2.98154240743E-01 -5.09760940876E-01
4.14500000000E+09 +2.35322024349E-01 -5.13520541776E-01 -7.91326803943E-04 +1.93753984286E-04 -6.82556241422E-04 +1.58035659131E-04 +2.77121183859E-01 -5.09080194549E-01
4.15000000000E+09 +2.15496086468E-01 -5.17402497426E-01 -7.36914278820E-04 +1.12583738332E-04 -6.89687659909E-04 +9.19775865493E-05 +2.56658326703E-01 -5.07851967597E-01
4.15500000000E+09 +1.95810039272E-01 -5.21192194784E-01 -9.91260907853E-04 -1.57635356736E-04 -9.55067208615E-04 -1.63728995840E-04 +2.35652366612E-01 -5.05471763659E-01
4.16000000000E+09 +1.77049254384E-01 -5.23714705491E-01 -1.45025859736E-03 +2.39764628191E-04 -1.35863179210E-03 +1.80790041141E-04 +2.14911216670E-01 -5.01855241377E-01
4.16500000000E+09 +1.59130961446E-01 -5.24153112869E-01 -1.44782499241E-03 +8.06426231248E-04 -1.42811812323E-03 +6.91659166113E-04 +1.94258796532E-01 -4.97418488417E-01
4.17000000000E+09 +1.42860818577E-01 -5.21827794426E-01 -1.37365294088E-03 +8.93199135880E-04 -1.35254278446E-03 +8.08218257180E-04 +1.73108170585E-01 -4.92446792133E-01
4.17500000000E+09 +1.27677686784E-01 -5.18445696787E-01 -1.30342705263E-03 +1.56432733059E-03 -1.36296041417E-03 +1.42493978124E-03 +1.51549330325E-01 -4.86140566715E-01
4.18000000000E+09 +1.12544913501E-01 -5.13704580646E-01 -7.71844835372E-04 +1.78840224658E-03 -8.08741912705E-04 +1.77116000788E-03 +1.30710724426E-01 -4.78640668295E-01
4.18500000000E+09 +9.66076474726E-02 -5.09494112385E-01 -1.51598099352E-04 +1.92846212671E-03 -2.16003941769E-04 +1.88723139963E-03 +1.10874006334E-01 -4.71501455825E-01
4.19000000000E+09 +7.81922935068E-02 -5.03993971215E-01 +1.14409726733E-04 +1.54416273079E-03 -1.14961842664E-05 +1.50233204647E-03 +8.93616900466E-02 -4.63642706369E-01
4.19500000000E+09 +5.96130436129E-02 -4.97754343767E-01 +1.87640476072E-05 +1.30795871722E-03 -1.00100977025E-04 +1.29967956550E-03 +6.86381314038E-02 -4.53630828081E-01
4.20000000000E+09 +4.05437578216E-02 -4.91708625222E-01 +3.45847786681E-05 +1.57624124511E-03 -7.77801268685E-05 +1.63179929904E-03 +4.91196910422E-02 -4.42572496503E-01
4.20500000000E+09 +2.19988755123E-02 -4.86052580137E-01 +7.57803276587E-05 +1.53599697678E-03 -8.33182941458E-05 +1.59432874060E-03 +2.93578441746E-02 -4.31503753999E-01
4.21000000000E+09 +4.07979026261E-03 -4.80749661359E-01 +3.05274969974E-04 +2.16120266681E-03 +2.11253515552E-04 +2.34136915212E-03 +1.00256471843E-02 -4.19155247613E-01
4.21500000000E+09 -1.35997051660E-02 -4.74593789311E-01 +1.26977888468E-03 +2.27757844249E-03 +1.21442790527E-03 +2.44558038141E-03 -8.42470298604E-03 -4.06961721931E-01
4.22000000000E+09 -2.98051751413E-02 -4.67277361604E-01 +1.73680513765E-03 +1.72792269168E-03 +1.76829006177E-03 +1.91732190542E-03 -2.65536607242E-02 -3.94393457989E-01
4.22500000000E+09 -4.51273868088E-02 -4.58915612057E-01 +2.18101419981E-03 +1.21073845977E-03 +2.32044240378E-03 +1.36919371345E-03 -4.42155486443E-02 -3.80146304427E-01
4.23000000000E+09 -5.99971586219E-02 -4.48515379588E-01 +2.00937780871E-03 +4.55504253670E-04 +2.10405967633E-03 +5.99654465672E-04 -6.04833894055E-02 -3.65580371548E-01
4.23500000000E+09 -7.53701960326E-02 -4.37027777646E-01 +1.74139486792E-03 +4.46659400685E-04 +1.89186703177E-03 +5.54132938755E-04 -7.70367439110E-02 -3.50189394786E-01
4.24000000000E+09 -9.15084480931E-02 -4.23633340302E-01 +1.70305628726E-03 +3.88645645287E-04 +1.86376354777E-03 +4.60561161166E-04 -9.25768342340E-02 -3.33377616452E-01
4.24500000000E+09 -1.08357611730E-01 -4.09667943315E-01 +2.12484819151E-03 +4.85287233815E-04 +2.24977472830E-03 +4.72094329782E-04 -1.07902794083E-01 -3.16535271494E-01
4.25000000000E+09 -1.26328137274E-01 -3.95667001830E-01 +2.49579819424E-03 -5.63201041445E-05 +2.67344366993E-03 -1.63863119264E-04 -1.22170904626E-01 -2.98450681182E-01
4.25500000000E+09 -1.44314768579E-01 -3.82335318415E-01 +2.33711467546E-03 -9.29591881449E-04 +2.51726487142E-03 -1.03732708221E-03 -1.35227919335E-01 -2.81007456337E-01
4.26000000000E+09 -1.63397243473E-01 -3.70549414914E-01 +1.74409893040E-03 -1.16726368836E-03 +1.85838729264E-03 -1.30146717156E-03 -1.48455034908E-01 -2.63291258068E-01
4.26500000000E+09 -1.82337329876E-01 -3.58795594704E-01 +1.59945548064E-03 -1.06678952001E-03 +1.68128756852E-03 -1.27774277583E-03 -1.60577103054E-01 -2.43554631532E-01
4.27000000000E+09 -1.99481756926E-01 -3.47009291585E-01 +1.65685918555E-03 -1.18934663653E-03 +1.66362324790E-03 -1.36077819189E-03 -1.72137202751E-01 -2.24107597512E-01
4.27500000000E+09 -2.15385215115E-01 -3.35081496972E-01 +1.51228940541E-03 -1.81127851450E-03 +1.43452779699E-03 -1.96234203699E-03 -1.83212204832E-01 -2.03280741829E-01
4.28000000000E+09 -2.28693536588E-01 -3.21034518286E-01 +9.45946494885E-04 -1.82365490576E-03 +7.89417941862E-04 -1.94014671907E-03 -1.92948900337E-01 -1.82177790714E-01
4.28500000000E+09 -2.39259547804E-01 -3.06277392682E-01 +9.18226095667E-04 -1.73266976452E-03 +7.49556030644E-04 -1.83258505232E-03 -2.01247457953E-01 -1.61187182671E-01
4.29000000000E+09 -2.48710710513E-01 -2.91156746067E-01 +6.54684753129E-04 -1.88541426233E-03 +4.71551790978E-04 -1.98250554655E-03 -2.08594653656E-01 -1.40907211372E-01
4.29500000000E+09 -2.58906325380E-01 -2.74938053625E-01 +5.51118964011E-04 -1.91464501884E-03 +3.09120756146E-04 -1.99122475312E-03 -2.15115400891E-01 -1.21271600896E-01
4.30000000000E+09 -2.70257568805E-01 -2.56388898524E-01 +9.97490448572E-05 -1.92084466524E-03 -9.48637766121E-05 -1.90737283072E-03 -2.20950539001E-01 -1.01136658337E-01
4.30500000000E+09 -2.81813384533E-01 -2.36843769049E-01 +3.26034071636E-04 -1.95214025278E-03 +1.93719453217E-04 -1.83392985800E-03 -2.25547967930E-01 -7.99593856461E-02
4.31000000000E+09 -2.93913501414E-01 -2.17025934167E-01 +4.29316717579E-06 -2.64856988672E-03 -1.59636446692E-04 -2.48844269310E-03 -2.28359241945E-01 -5.95501563237E-02
4.31500000000E+09 -3.06492063870E-01 -1.97899555258E-01 -1.01990549563E-03 -2.62448694703E-03 -1.10634945386E-03 -2.42023511091E-03 -2.31094584529E-01 -3.88522126103E-02
4.32000000000E+09 -3.18065486612E-01 -1.80426610155E-01 -1.49136277008E-03 -1.78278968944E-03 -1.45359292814E-03 -1.65500700603E-03 -2.33234967406E-01 -1.82732106812E-02
4.32500000000E+09 -3.29470100854E-01 -1.64483106972E-01 -1.01941971413E-03 -1.66450560108E-03 -1.06508155487E-03 -1.50017580867E-03 -2.34934913850E-01 +1.86483970833E-03
4.33000000000E+09 -3.38893345138E-01 -1.48416160100E-01 -1.50878768578E-03 -1.93759052614E-03 -1.42067378593E-03 -1.79954942654E-03 -2.35992481600E-01 +2.23080452652E-02
4.33500000000E+09 -3.45248175179E-01 -1.33598133518E-01 -1.69897933160E-03 -1.69027225044E-03 -1.59300642117E-03 -1.58438967303E-03 -2.36284045395E-01 +4.28143522684E-02
4.34000000000E+09 -3.50439653239E-01 -1.18282828762E-01 -2.28201239506E-03 -1.71537765402E-03 -2.10791725953E-03 -1.63729252708E-03 -2.35872109330E-01 +6.33881985739E-02
4.34500000000E+09 -3.53730519531E-01 -1.01411632746E-01 -2.83331243926E-03 -9.50920676135E-04 -2.61005488867E-03 -9.45977684250E-04 -2.34062531796E-01 +8.36406623859E-02
4.35000000000E+09 -3.55264675648E-01 -8.32323214448E-02 -2.66572783247E-03 -2.46268354270E-04 -2.47290573298E-03 -3.58675834118E-04 -2.32428140701E-01 +1.02571217419E-01
4.35500000000E+09 -3.57804448636E-01 -6.26162418736E-02 -2.73957206412E-03 -2.78469756996E-04 -2.55776140181E-03 -3.65637612584E-04 -2.29898577449E-01 +1.22092148856E-01
4.36000000000E+09 -3.59386684673E-01 -3.99902788980E-02 -2.79025255526E-03 +5.08552494100E-04 -2.66704666283E-03 +3.97826395972E-04 -2.26796743895E-01 +1.40128639917E-01
4.36500000000E+09 -3.61088157712E-01 -1.76808615406E-02 -2.71283680224E-03 +4.76402235943E-04 -2.59065536101E-03 +3.07978779866E-04 -2.23251768189E-01 +1.58603510387E-01
4.37000000000E+09 -3.65199617175E-01 +4.15937671544E-03 -3.04702773204E-03 +1.34816337111E-03 -3.06465841164E-03 +1.21883286153E-03 -2.18523978747E-01 +1.76772753625E-01
4.37500000000E+09 -3.69889674484E-01 +2.44911984094E-02 -2.26304680757E-03 +2.09879159838E-03 -2.21998941175E-03 +1.95878846416E-03 -2.13060834393E-01 +1.94492598351E-01
4.38000000000E+09 -3.75811078676E-01 +4.40554947954E-02 -1.62623409766E-03 +1.99393106260E-03 -1.69297765428E-03 +1.90017130823E-03 -2.06559776735E-01 +2.11839703671E-01
4.38500000000E+09 -3.80315672702E-01 +6.23248340228E-02 -1.40641660439E-03 +2.17453208577E-03 -1.49133292843E-03 +2.10886412712E-03 -2.00069815269E-01 +2.29059897550E-01
4.39000000000E+09 -3.82703822301E-01 +7.87580061707E-02 -1.15101863362E-03 +2.26595611127E-03 -1.20534615122E-03 +2.20971582140E-03 -1.92995395706E-01 +2.45566213778E-01
4.39500000000E+09 -3.82532448981E-01 +9.35161969030E-02 -8.81981184575E-04 +2.56909096776E-03 -1.02839349905E-03 +2.60505448538E-03 -1.86303903533E-01 +2.60673935303E-01
4.40000000000E+09 -3.80446380118E-01 +1.07600729682E-01 -2.46575442430E-04 +2.74838355665E-03 -3.06571458223E-04 +2.79831955565E-03 -1.79352143422E-01 +2.76837377916E-01
4.40500000000E+09 -3.76406581199E-01 +1.22451072352E-01 +2.03246387627E-04 +2.58149958271E-03 +1.66503679806E-04 +2.62800072544E-03 -1.70911190487E-01 +2.92010739833E-01
4.41000000000E+09 -3.71589899844E-01 +1.38580237335E-01 +7.89369088721E-04 +2.47956913065E-03 +6.85523151644E-04 +2.57414297982E-03 -1.62109008914E-01 +3.06195847794E-01
4.41500000000E+09 -3.65924570846E-01 +1.57738775245E-01 +9.91942830646E-04 +1.87570604729E-03 +9.74707943361E-04 +2.01950375032E-03 -1.53296819304E-01 +3.19893150565E-01
4.42000000000E+09 -3.59767236577E-01 +1.78440081143E-01 +7.83582209958E-04 +1.78977178803E-03 +8.39404005187E-04 +1.91288780184E-03 -1.44411904300E-01 +3.34383662773E-01
4.42500000000E+09 -3.54351479790E-01 +1.99339850526E-01 +1.30017907759E-03 +2.07776647400E-03 +1.34345198933E-03 +2.14526404515E-03 -1.34410053158E-01 +3.47617295690E-01
4.43000000000E+09 -3.50847139714E-01 +2.20397392116E-01 +1.63773789763E-03 +1.59540932812E-03 +1.78388991452E-03 +1.62774154778E-03 -1.25930045862E-01 +3.60498078059E-01
4.43500000000E+09 -3.48043650357E-01 +2.40667910477E-01 +1.78225876119E-03 +1.24811357167E-03 +1.92468158314E-03 +1.23124539972E-03 -1.16262707147E-01 +3.73637105783E-01
4.44000000000E+09 -3.45707001935E-01 +2.59081209520E-01 +1.94577610034E-03 +1.02452680673E-03 +2.10169849309E-03 +9.97096475261E-04 -1.06558379945E-01 +3.85599304956E-01
4.44500000000E+09 -3.43365898493E-01 +2.74758415047E-01 +2.02077021323E-03 +2.85925406463E-04 +2.14465940026E-03 +3.00293666372E-04 -9.65760820148E-02 +3.97493474259E-01
4.45000000000E+09 -3.40763079798E-01 +2.88796522545E-01 +1.55179269776E-03 +3.67945588800E-04 +1.67319139512E-03 +3.14669383630E-04 -8.57586037105E-02 +4.08738595951E-01
4.45500000000E+09 -3.36063669691E-01 +3.01825219871E-01 +2.06121867819E-03 +3.95974664060E-04 +2.08404001533E-03 +2.46917725457E-04 -7.46775175365E-02 +4.19235783182E-01
4.46000000000E+09 -3.29209046569E-01 +3.14120725928E-01 +1.89679564997E-03 -5.45826711097E-04 +1.97332446282E-03 -7.50511110181E-04 -6.34379488123E-02 +4.29258326183E-01
4.46500000000E+09 -3.20302301502E-01 +3.26809501275E-01 +1.29486174069E-03 -4.96480128461E-04 +1.24929818555E-03 -6.04834544659E-04 -5.18096645059E-02 +4.38345783143E-01
4.47000000000E+09 -3.10468184327E-01 +3.41125611440E-01 +1.10711195077E-03 -4.00981936906E-04 +1.02756815657E-03 -5.53207785974E-04 -4.12608976359E-02 +4.47561122648E-01
4.47500000000E+09 -2.98441259511E-01 +3.57619713880E-01 +1.24347960014E-03 +4.93089435440E-05 +1.13264152261E-03 -1.31816997528E-04 -2.95788662518E-02 +4.57206227070E-01
4.48000000000E+09 -2.86400403871E-01 +3.74590984927E-01 +1.63469207698E-03 -5.34345243337E-05 +1.43123151193E-03 -1.95085334210E-04 -1.77115758194E-02 +4.65317569559E-01
4.48500000000E+09 -2.75315671485E-01 +3.91733642319E-01 +1.90314807834E-03 -7.31875935562E-04 +1.71817334009E-03 -7.94500666196E-04 -6.08179322923E-03 +4.73581382473E-01
4.49000000000E+09 -2.66673389329E-01 +4.08764477259E-01 +1.81605371557E-03 -1.16648644076E-03 +1.61581866737E-03 -1.17721237142E-03 +5.99670704083E-03 +4.80758585574E-01
4.49500000000E+09 -2.58964268735E-01 +4.25285366904E-01 +1.05424687942E-03 -1.66816787235E-03 +8.49202908346E-04 -1.57007357992E-03 +1.71127480962E-02 +4.87156825353E-01
4.50000000000E+09 -2.52547336722E-01 +4.39090302453E-01 +6.51070251015E-04 -1.34598015567E-03 +4.81263552187E-04 -1.22263285779E-03 +2.83869992871E-02 +4.93715570281E-01
4.50500000000E+09 -2.47397553404E-01 +4.50814127901E-01 +7.27258680100E-04 -1.04318556619E-03 +6.24200002332E-04 -9.52950842024E-04 +3.96933795449E-02 +4.99615630080E-01
4.51000000000E+09 -2.41719718258E-01 +4.61258024344E-01 +9.39115604128E-04 -1.35400353033E-03 +8.64770154040E-04 -1.17887137223E-03 +5.06229388617E-02 +5.05602073209E-01
4.51500000000E+09 -2.33556713084E-01 +4.69420265158E-01 +8.66496869094E-04 -1.68271754123E-03 +8.24273312657E-04 -1.50564072616E-03 +6.18805958717E-02 +5.11606043162E-01
4.52000000000E+09 -2.24698176377E-01 +4.76287965433E-01 +2.79047232407E-04 -2.06162385589E-03 +2.79476675460E-04 -1.84712802435E-03 +7.37677820865E-02 +5.16855814739E-01
4.52500000000E+09 -2.13028939393E-01 +4.84005414101E-01 -3.32577100682E-05 -1.78899696257E-03 +9.46127270033E-05 -1.60105834386E-03 +8.51841029025E-02 +5.21366619269E-01
4.53000000000E+09 -1.99875809092E-01 +4.91704119126E-01 -4.60085367835E-05 -1.86329542892E-03 +2.12464970172E-05 -1.74983485319E-03 +9.68242759175E-02 +5.25527735225E-01
4.53500000000E+09 -1.85332013325E-01 +5.01072694415E-01 -6.02528324059E-04 -1.95474293322E-03 -5.12571192143E-04 -1.85649174819E-03 +1.08092047289E-01 +5.29196761737E-01
4.54000000000E+09 -1.70549977653E-01 +5.11014175132E-01 -8.99927658556E-04 -1.85054479403E-03 -7.82590976047E-04 -1.80133899981E-03 +1.19531559913E-01 +5.32806484379E-01
4.54500000000E+09 -1.56463502854E-01 +5.21986000521E-01 -1.23754427259E-03 -1.45519379448E-03 -1.11285371321E-03 -1.43877544260E-03 +1.30431917731E-01 +5.36547709067E-01
4.55000000000E+09 -1.43946941730E-01 +5.32236533007E-01 -1.48395749339E-03 -1.13193413757E-03 -1.37845058315E-03 -1.13619016077E-03 +1.42425604126E-01 +5.40470375752E-01
4.55500000000E+09 -1.33235844612E-01 +5.42300318642E-01 -1.33682896280E-03 -7.32087276317E-04 -1.22935356892E-03 -7.02594576660E-04 +1.53755873132E-01 +5.43243707634E-01
4.56000000000E+09 -1.24078501292E-01 +5.51501110534E-01 -1.19702174481E-03 -7.35299001702E-04 -1.18449632134E-03 -8.25059508238E-04 +1.64901075913E-01 +5.45961224091E-01
4.56500000000E+09 -1.14863632709E-01 +5.59032272478E-01 -1.39766423454E-03 -8.00858073101E-04 -1.38408666031E-03 -8.45647506158E-04 +1.75459638057E-01 +5.48239733731E-01
4.57000000000E+09 -1.05950650414E-01 +5.64775167387E-01 -1.76684015782E-03 -5.55252222938E-04 -1.69822353735E-03 -5.84495657473E-04 +1.86338380520E-01 +5.50475144398E-01
