# Hz S RI R 50
! CMT, C1220, 16058040, 17.2.0/1
! Date: 15/08/2018 12:40:08
! Data: Format (Calibration Info)
! Freq                      S11: Re/Im (F2)                       S21: Re/Im (F2)                       S12: Re/Im (F2)                       S22: Re/Im (F2)            
4.00000000000E+09 +6.57506983588E-01 -3.61184850570E-01 +1.42435761014E-03 -1.03302912990E-03 +1.46047445479E-03 -9.96618205589E-04 +7.86959844571E-01 -3.13753887316E-01
4.00500000000E+09 +6.48941733050E-01 -3.66847094451E-01 +1.15775912390E-03 -1.32449582099E-03 +1.27976260987E-03 -1.31236990885E-03 +7.78679999682E-01 -3.25189915599E-01
4.01000000000E+09 +6.39912632339E-01 -3.72513339011E-01 +9.62063710593E-04 -1.51984642951E-03 +1.01532308243E-03 -1.49894410588E-03 +7.70143545290E-01 -3.37171472529E-01
4.01500000000E+09 +6.29936409250E-01 -3.79044614344E-01 +5.91942520668E-04 -1.48158844105E-03 +7.04644279560E-04 -1.46639552714E-03 +7.61559585625E-01 -3.48445118210E-01
4.02000000000E+09 +6.19755074050E-01 -3.86263243773E-01 +5.90696893172E-04 -1.52912270303E-03 +6.40481336669E-04 -1.50390842303E-03 +7.52668491495E-01 -3.59243309673E-01
4.02500000000E+09 +6.09232073369E-01 -3.95283640384E-01 +4.21501619849E-04 -1.53607994367E-03 +4.90693369946E-04 -1.60143468796E-03 +7.43197014664E-01 -3.69790838787E-01
4.03000000000E+09 +5.98074387157E-01 -4.05724020189E-01 +2.19771011615E-04 -1.53314015694E-03 +3.07233360483E-04 -1.55300582024E-03 +7.33192208752E-01 -3.80304344584E-01
4.03500000000E+09 +5.86418840421E-01 -4.16259811560E-01 +1.08929108963E-04 -1.52772207452E-03 +1.22280653197E-04 -1.56428173599E-03 +7.22319677910E-01 -3.91460278067E-01
4.04000000000E+09 +5.75009780185E-01 -4.26204245789E-01 -1.93837629440E-05 -1.41757480057E-03 +9.02166793150E-05 -1.43393852101E-03 +7.11213955316E-01 -4.02802342032E-01
4.04500000000E+09 +5.63888928548E-01 -4.35814913270E-01 -1.95440439313E-06 -1.47973594225E-03 +6.90439603678E-05 -1.57018279937E-03 +7.00346096025E-01 -4.13937037479E-01
4.05000000000E+09 +5.52266460170E-01 -4.43797101636E-01 -1.08375996776E-04 -1.60800168665E-03 -3.23090409310E-05 -1.71280151846E-03 +6.89790451682E-01 -4.24771368516E-01
4.05500000000E+09 +5.40246470432E-01 -4.50015049654E-01 -2.43513697765E-04 -1.67124720896E-03 -1.71294912448E-04 -1.76217680703E-03 +6.78396138510E-01 -4.34759156394E-01
4.06000000000E+09 +5.28033372827E-01 -4.54695716356E-01 -5.94927024299E-04 -1.81946601087E-03 -5.73899466979E-04 -1.94938104623E-03 +6.67099169139E-01 -4.44329620803E-01
4.06500000000E+09 +5.14926152515E-01 -4.58449842901E-01 -8.16151673166E-04 -1.45778237524E-03 -8.26564874004E-04 -1.56887114893E-03 +6.54595595775E-01 -4.54191410084E-01
4.07000000000E+09 +5.01594783150E-01 -4.62472441617E-01 -8.21648631853E-04 -1.30557742999E-03 -8.44809831152E-04 -1.35118069497E-03 +6.41289229137E-01 -4.64245934881E-01
4.07500000000E+09 +4.86873082097E-01 -4.67185347220E-01 -7.88902749397E-04 -1.45252754225E-03 -7.76460546558E-04 -1.48593423281E-03 +6.27368271508E-01 -4.74903451748E-01
4.08000000000E+09 +4.71291575876E-01 -4.72223646096E-01 -1.07060219955E-03 -1.35492550402E-03 -1.08437665219E-03 -1.38166880759E-03 +6.13606519536E-01 -4.84715617855E-01
4.08500000000E+09 +4.54917673777E-01 -4.78733794168E-01 -1.01326429531E-03 -1.24571276187E-03 -9.94737204322E-04 -1.29182187139E-03 +6.00055284050E-01 -4.94779387518E-01
4.09000000000E+09 +4.37688025336E-01 -4.85278181262E-01 -1.28927574028E-03 -1.44949861084E-03 -1.25686199680E-03 -1.55325074576E-03 +5.86012772515E-01 -5.03249246881E-01
4.09500000000E+09 +4.20905311317E-01 -4.91657413320E-01 -1.68725445364E-03 -1.25314527044E-03 -1.70712398218E-03 -1.29179750752E-03 +5.71623972570E-01 -5.11530194128E-01
4.10000000000E+09 +4.03763573563E-01 -4.97184363294E-01 -1.70882381224E-03 -8.23253931446E-04 -1.71795240775E-03 -7.88194664507E-04 +5.55778145401E-01 -5.19090756074E-01
4.10500000000E+09 +3.87040324009E-01 -5.01356010913E-01 -1.74547343285E-03 -7.76108446816E-04 -1.81443364158E-03 -8.38481821086E-04 +5.40298335631E-01 -5.26954386004E-01
4.11000000000E+09 +3.70655054980E-01 -5.03241165516E-01 -2.00229917352E-03 -4.80970642362E-04 -2.05795760733E-03 -5.72202141686E-04 +5.23842625618E-01 -5.35296331589E-01
4.11500000000E+09 +3.55452948621E-01 -5.04288806002E-01 -1.76412638832E-03 -6.35562366994E-05 -1.80702659930E-03 -1.08212865386E-04 +5.07619065862E-01 -5.43185292592E-01
4.12000000000E+09 +3.39798943857E-01 -5.04983514122E-01 -1.61445735568E-03 -1.06896236695E-04 -1.68751010431E-03 -1.37856309459E-04 +4.91460362500E-01 -5.51043632621E-01
4.12500000000E+09 +3.23107313110E-01 -5.06127612188E-01 -1.66509396430E-03 -1.03519501458E-04 -1.70110009838E-03 -1.34807298684E-04 +4.74330736488E-01 -5.57720403601E-01
4.13000000000E+09 +3.05018060082E-01 -5.06885196341E-01 -1.76244974926E-03 +8.83954281840E-05 -1.76942631203E-03 +2.78769862886E-05 +4.56958317013E-01 -5.63851206334E-01
4.13500000000E+09 +2.86175982357E-01 -5.08868341685E-01 -1.51017648162E-03 +2.37895031769E-04 -1.48876465156E-03 +1.56552962937E-04 +4.38710457187E-01 -5.69356468719E-01
4.14000000000E+09 +2.66231338763E-01 -5.10981309901E-01 -1.72158909566E-03 -1.17407358715E-04 -1.73512051118E-03 -2.13126507904E-04 +4.20505281991E-01 -5.75349558326E-01
4.14500000000E+09 +2.46459391747E-01 -5.13503400981E-01 -2.29580626933E-03 +2.91812123504E-04 -2.38441522578E-03 +2.05987513111E-04 +4.01114560261E-01 -5.81522091196E-01
4.15000000000E+09 +2.27123853140E-01 -5.16766107691E-01 -2.04528656491E-03 +9.70890777928E-04 -2.12476706443E-03 +9.54643422141E-04 +3.82744302179E-01 -5.86544556827E-01
4.15500000000E+09 +2.07672464460E-01 -5.19472326707E-01 -1.64861995791E-03 +1.15032733312E-03 -1.79007062867E-03 +1.18560055895E-03 +3.64241520184E-01 -5.91467730766E-01
4.16000000000E+09 +1.89099330574E-01 -5.19989132791E-01 -1.48425205379E-03 +1.26677619836E-03 -1.52214276831E-03 +1.29837136849E-03 +3.45106159889E-01 -5.94840993856E-01
4.16500000000E+09 +1.71958773538E-01 -5.19727022163E-01 -1.19905761885E-03 +1.06439933035E-03 -1.22768827870E-03 +1.11435069267E-03 +3.25754181821E-01 -5.97438038373E-01
4.17000000000E+09 +1.55196916112E-01 -5.17041182056E-01 -1.22671521599E-03 +1.13100881253E-03 -1.22991688897E-03 +1.12633773818E-03 +3.05059353973E-01 -5.99747422612E-01
4.17500000000E+09 +1.39321214947E-01 -5.12865901721E-01 -1.26505762180E-03 +8.52297703142E-04 -1.34434095725E-03 +8.62437106516E-04 +2.83746716966E-01 -6.01129794260E-01
4.18000000000E+09 +1.22747999476E-01 -5.07770971368E-01 -1.60866516629E-03 +1.43428468064E-03 -1.74112041221E-03 +1.46341833024E-03 +2.62928364414E-01 -6.02430036297E-01
4.18500000000E+09 +1.06328200320E-01 -5.01994491148E-01 -1.12014392701E-03 +1.57348385566E-03 -1.18460676611E-03 +1.59185981635E-03 +2.41937037190E-01 -6.03989498822E-01
4.19000000000E+09 +8.81808504311E-02 -4.96821432816E-01 -1.29226600612E-03 +1.68689349407E-03 -1.40866329386E-03 +1.67430551720E-03 +2.20476194678E-01 -6.03773231655E-01
4.19500000000E+09 +6.95562204490E-02 -4.91019658245E-01 -1.11266614085E-03 +1.95417657548E-03 -1.10857022444E-03 +2.04237176990E-03 +1.99566620223E-01 -6.02098041997E-01
4.20000000000E+09 +5.13127959939E-02 -4.86640283140E-01 -6.06911591753E-04 +2.18035013986E-03 -7.04167547574E-04 +2.22345622734E-03 +1.78420451187E-01 -6.00056358975E-01
4.20500000000E+09 +3.18218428291E-02 -4.82538673326E-01 -3.60370967254E-04 +1.96946918841E-03 -3.92353035069E-04 +2.04234120388E-03 +1.57214675538E-01 -5.96982911725E-01
4.21000000000E+09 +1.37444615227E-02 -4.77750862197E-01 -5.67178791651E-04 +1.65969821817E-03 -6.15333161505E-04 +1.69793472033E-03 +1.35546206437E-01 -5.95744331009E-01
4.21500000000E+09 -4.08029785251E-03 -4.71902604408E-01 -5.65051956913E-04 +2.16839807455E-03 -6.60959226715E-04 +2.20251208859E-03 +1.12358367600E-01 -5.93742877960E-01
4.22000000000E+09 -1.94316878319E-02 -4.64131300544E-01 -2.21907783895E-04 +2.27273506652E-03 -2.51730420859E-04 +2.32880758775E-03 +8.99933298266E-02 -5.89818387983E-01
4.22500000000E+09 -3.39654039285E-02 -4.55450493158E-01 -2.69729210316E-04 +2.18890567578E-03 -2.23958490693E-04 +2.31000800451E-03 +6.83279577853E-02 -5.85381334774E-01
4.23000000000E+09 -4.80250792941E-02 -4.44696164426E-01 +6.58098646216E-06 +2.72095340721E-03 +1.79219387794E-05 +2.79539606929E-03 +4.67524970227E-02 -5.79042930846E-01
4.23500000000E+09 -6.18403271142E-02 -4.33399054594E-01 +4.70673669989E-04 +2.68352121436E-03 +5.05074864055E-04 +2.73625736569E-03 +2.50565004570E-02 -5.72039560314E-01
4.24000000000E+09 -7.76404354181E-02 -4.21442468826E-01 +7.89668215948E-04 +2.67937171569E-03 +7.65000123817E-04 +2.69311213266E-03 +3.38860794510E-03 -5.63696240342E-01
4.24500000000E+09 -9.57595328960E-02 -4.08107564775E-01 +1.27167381060E-03 +2.40089931571E-03 +1.25685169550E-03 +2.50384840943E-03 -1.83215628855E-02 -5.55728394682E-01
4.25000000000E+09 -1.14578007791E-01 -3.94205087325E-01 +1.19709869114E-03 +2.38691878332E-03 +1.22143471892E-03 +2.38047402522E-03 -4.02697159710E-02 -5.47207197865E-01
4.25500000000E+09 -1.33500240863E-01 -3.81005220101E-01 +1.68466234648E-03 +2.39531557869E-03 +1.69453946978E-03 +2.47054990145E-03 -6.13384954095E-02 -5.38187024490E-01
4.26000000000E+09 -1.53876265017E-01 -3.69392625902E-01 +1.82960316848E-03 +2.02923364195E-03 +1.94792073982E-03 +2.09029988924E-03 -8.27294500142E-02 -5.28124140775E-01
4.26500000000E+09 -1.73179155858E-01 -3.56562405368E-01 +1.71876936569E-03 +2.22762327384E-03 +1.78235917434E-03 +2.26266955745E-03 -1.03548378571E-01 -5.16515218869E-01
4.27000000000E+09 -1.89508479220E-01 -3.44927623614E-01 +2.58890456268E-03 +2.05575633350E-03 +2.66893289640E-03 +2.07032431840E-03 -1.24998848989E-01 -5.03233948474E-01
4.27500000000E+09 -2.05142101592E-01 -3.33624610504E-01 +2.79342368390E-03 +1.48810655297E-03 +2.80014433901E-03 +1.53987337462E-03 -1.45941432587E-01 -4.88992388015E-01
4.28000000000E+09 -2.18382597699E-01 -3.20731071761E-01 +2.75362415199E-03 +1.26148593623E-03 +2.80341576053E-03 +1.30241680973E-03 -1.66496384912E-01 -4.74926578826E-01
4.28500000000E+09 -2.29994111812E-01 -3.06272196884E-01 +2.90741727911E-03 +1.15231429174E-03 +2.99731906882E-03 +1.15096273625E-03 -1.87050865170E-01 -4.60123291694E-01
4.29000000000E+09 -2.40533676018E-01 -2.90383307082E-01 +3.29005644415E-03 +4.76168257736E-04 +3.30350730689E-03 +3.86752790954E-04 -2.05545402234E-01 -4.45364738972E-01
4.29500000000E+09 -2.51391699460E-01 -2.72658516782E-01 +2.74616743611E-03 +2.67308599389E-04 +2.71827715371E-03 +2.20152057220E-04 -2.24348203795E-01 -4.29839447532E-01
4.30000000000E+09 -2.62155242803E-01 -2.52694824767E-01 +3.00133334510E-03 +2.25603376286E-04 +3.04106319307E-03 +2.27839580755E-04 -2.41167560225E-01 -4.12999834584E-01
4.30500000000E+09 -2.73165511925E-01 -2.32721402828E-01 +3.00020360790E-03 -1.64677848726E-04 +3.09816445449E-03 -2.18281281620E-04 -2.59358047746E-01 -3.95995929210E-01
4.31000000000E+09 -2.85664538821E-01 -2.13674985551E-01 +2.69521476932E-03 +3.86391096221E-05 +2.76106114097E-03 +8.20632066263E-05 -2.76471794312E-01 -3.76729204237E-01
4.31500000000E+09 -2.99395350726E-01 -1.94604115749E-01 +3.47772593491E-03 +1.21714796684E-05 +3.57162537084E-03 -2.05826405355E-05 -2.93349660166E-01 -3.57575898915E-01
4.32000000000E+09 -3.12255307657E-01 -1.76643181922E-01 +3.76369621356E-03 -1.12095990040E-03 +3.83899045942E-03 -1.13850010082E-03 -3.09402316238E-01 -3.37575053690E-01
4.32500000000E+09 -3.23888850327E-01 -1.59949886964E-01 +3.08028884892E-03 -1.50261057457E-03 +3.08799165375E-03 -1.56169323131E-03 -3.24072419855E-01 -3.16339934710E-01
4.33000000000E+09 -3.33793407946E-01 -1.44173366046E-01 +3.32268187351E-03 -1.55871098294E-03 +3.38586448890E-03 -1.61250982331E-03 -3.37094888050E-01 -2.94970473864E-01
4.33500000000E+09 -3.40365862327E-01 -1.27559738906E-01 +3.17158914521E-03 -2.17929922858E-03 +3.18396850722E-03 -2.25258825479E-03 -3.49856485960E-01 -2.72560579459E-01
4.34000000000E+09 -3.43385660725E-01 -1.12328591472E-01 +2.76913840954E-03 -2.82170483200E-03 +2.79940183573E-03 -2.81303074964E-03 -3.62460820612E-01 -2.50124562639E-01
4.34500000000E+09 -3.45685656845E-01 -9.63157691566E-02 +2.19593490514E-03 -2.59829091237E-03 +2.22194457496E-03 -2.58807966427E-03 -3.74885995472E-01 -2.25825327666E-01
4.35000000000E+09 -3.46570608098E-01 -7.78823449416E-02 +2.57052976222E-03 -2.80590767133E-03 +2.54935420480E-03 -2.83230966209E-03 -3.85659984907E-01 -2.02484908380E-01
4.35500000000E+09 -3.47967434503E-01 -5.79766428381E-02 +2.20191664735E-03 -3.32244301772E-03 +2.24840429789E-03 -3.40910627505E-03 -3.95859125262E-01 -1.79743217678E-01
4.36000000000E+09 -3.49048587520E-01 -3.58666357072E-02 +1.73945071434E-03 -3.55100073565E-03 +1.68657414722E-03 -3.58249174632E-03 -4.05429131057E-01 -1.56406612479E-01
4.36500000000E+09 -3.52039497828E-01 -1.32570897208E-02 +1.72621288078E-03 -3.64146954195E-03 +1.74130638019E-03 -3.74453043728E-03 -4.13026987669E-01 -1.31607559143E-01
4.37000000000E+09 -3.56067458391E-01 +1.02557429990E-02 +1.42082737205E-03 -4.20471991929E-03 +1.40519996825E-03 -4.25182882786E-03 -4.18864233688E-01 -1.06956188054E-01
4.37500000000E+09 -3.59600734922E-01 +3.25007502169E-02 +8.75795861784E-04 -4.93610085294E-03 +8.05076052533E-04 -5.04568886428E-03 -4.24400808490E-01 -8.14247987723E-02
4.38000000000E+09 -3.64614703857E-01 +5.14967458313E-02 -2.80337826433E-04 -4.89912103351E-03 -3.97022336307E-04 -4.92073735902E-03 -4.28323724410E-01 -5.59836508674E-02
4.38500000000E+09 -3.68902771081E-01 +6.98823016135E-02 -8.92920600415E-04 -4.48819411517E-03 -9.90512669810E-04 -4.54134287712E-03 -4.31426235806E-01 -3.14232492612E-02
4.39000000000E+09 -3.71591977244E-01 +8.56193001957E-02 -1.34410630201E-03 -4.45020908331E-03 -1.48551118072E-03 -4.50155477810E-03 -4.34837615934E-01 -6.59618740568E-03
4.39500000000E+09 -3.72580932942E-01 +9.98736983214E-02 -1.94191678232E-03 -3.87836953302E-03 -2.01276746648E-03 -3.83220355923E-03 -4.35996191925E-01 +1.76488061269E-02
4.40000000000E+09 -3.71266791634E-01 +1.14793379541E-01 -1.91110623397E-03 -3.89172949697E-03 -1.94464063191E-03 -3.82950567633E-03 -4.37047797160E-01 +4.24101888250E-02
4.40500000000E+09 -3.67754720229E-01 +1.30554688073E-01 -2.61471757164E-03 -3.78945612543E-03 -2.64495615124E-03 -3.76688220913E-03 -4.36311379786E-01 +6.74734436415E-02
4.41000000000E+09 -3.61828698704E-01 +1.47373469796E-01 -2.71842352484E-03 -3.27967040314E-03 -2.80773210896E-03 -3.21899539921E-03 -4.34468511367E-01 +9.25265155736E-02
4.41500000000E+09 -3.55874364422E-01 +1.65051006232E-01 -3.25061058207E-03 -3.14724533238E-03 -3.31807921191E-03 -3.06912115025E-03 -4.32080318878E-01 +1.16845381387E-01
4.42000000000E+09 -3.50941435785E-01 +1.85012652415E-01 -3.42649454249E-03 -2.53194997037E-03 -3.49897931110E-03 -2.51540535909E-03 -4.29851855471E-01 +1.41245033829E-01
4.42500000000E+09 -3.46425220255E-01 +2.06851297951E-01 -3.63060748166E-03 -2.70537081290E-03 -3.70579160424E-03 -2.58885624500E-03 -4.24799350292E-01 +1.66184431485E-01
4.43000000000E+09 -3.42671405857E-01 +2.27489373956E-01 -4.43824972822E-03 -2.34687028079E-03 -4.44053519555E-03 -2.32475495437E-03 -4.19550432557E-01 +1.88724812157E-01
4.43500000000E+09 -3.41140911145E-01 +2.48110724851E-01 -4.53829441579E-03 -1.12161506585E-03 -4.51587270530E-03 -1.02022951128E-03 -4.13144487901E-01 +2.12090616366E-01
4.44000000000E+09 -3.38536081270E-01 +2.67288945677E-01 -4.33600053097E-03 -1.13024147220E-03 -4.31840998783E-03 -1.10112269854E-03 -4.06137159974E-01 +2.34360113370E-01
4.44500000000E+09 -3.35659611733E-01 +2.82471041893E-01 -4.53298142603E-03 -2.98529976723E-04 -4.51649017352E-03 -2.49690352390E-04 -3.98845664143E-01 +2.55992729700E-01
4.45000000000E+09 -3.33111713282E-01 +2.95388225739E-01 -4.16603846012E-03 -1.19790169577E-04 -4.21635321389E-03 -1.84304963866E-05 -3.91440521270E-01 +2.77438780341E-01
4.45500000000E+09 -3.29206274592E-01 +3.07463689296E-01 -4.17555596160E-03 -1.17184620990E-04 -4.12023070867E-03 +2.69825869964E-05 -3.83351918935E-01 +2.98280703070E-01
4.46000000000E+09 -3.23552846197E-01 +3.19307124540E-01 -4.61347859363E-03 +3.52024367822E-04 -4.58346420852E-03 +4.66719875793E-04 -3.73358681074E-01 +3.18358256900E-01
4.46500000000E+09 -3.15014458093E-01 +3.32402656433E-01 -4.60895495318E-03 +8.67638393175E-04 -4.54447943633E-03 +9.79995424281E-04 -3.63372481502E-01 +3.37455615683E-01
4.47000000000E+09 -3.04374728582E-01 +3.46014495011E-01 -4.59140237438E-03 +1.33513233552E-03 -4.58437126433E-03 +1.48705999144E-03 -3.50987918920E-01 +3.57166329944E-01
4.47500000000E+09 -2.92854625265E-01 +3.61806939277E-01 -4.67767574861E-03 +2.07705691767E-03 -4.60181520044E-03 +2.16943187483E-03 -3.39252618187E-01 +3.74685698631E-01
4.48000000000E+09 -2.81223224357E-01 +3.77241007683E-01 -4.29602181983E-03 +2.77900435467E-03 -4.13949788521E-03 +2.86695227536E-03 -3.27675023607E-01 +3.93082578969E-01
4.48500000000E+09 -2.71733904627E-01 +3.94425083521E-01 -3.88206601975E-03 +3.12499156040E-03 -3.69706223967E-03 +3.14763545647E-03 -3.16017492193E-01 +4.09846280909E-01
4.49000000000E+09 -2.62793907190E-01 +4.11774350259E-01 -3.55288503944E-03 +3.73375741267E-03 -3.37384244859E-03 +3.70461129100E-03 -3.04403616596E-01 +4.26411440893E-01
4.49500000000E+09 -2.55167414328E-01 +4.27401913250E-01 -3.07052673402E-03 +4.06501806691E-03 -2.89371347068E-03 +3.97359796503E-03 -2.92451115757E-01 +4.41959657403E-01
4.50000000000E+09 -2.49105807193E-01 +4.41187813765E-01 -2.47220701539E-03 +4.51140385216E-03 -2.43084045257E-03 +4.43745108366E-03 -2.79420739193E-01 +4.57165663685E-01
4.50500000000E+09 -2.43811739325E-01 +4.52991274396E-01 -1.91394424132E-03 +4.33149538123E-03 -1.79136108463E-03 +4.25760210931E-03 -2.65607699137E-01 +4.72034238827E-01
4.51000000000E+09 -2.37165050114E-01 +4.63213619671E-01 -1.92956592577E-03 +4.73857433425E-03 -1.81155264866E-03 +4.71705823402E-03 -2.51696655271E-01 +4.86049302711E-01
4.51500000000E+09 -2.28581717140E-01 +4.70905069481E-01 -1.03392706711E-03 +5.31379462769E-03 -9.49672395467E-04 +5.26941148306E-03 -2.38362073384E-01 +5.00139154065E-01
4.52000000000E+09 -2.18756097364E-01 +4.77812322121E-01 -2.83160211567E-04 +4.95267695368E-03 -1.60540585377E-04 +4.88817540061E-03 -2.24487211975E-01 +5.13442725879E-01
4.52500000000E+09 -2.06474035732E-01 +4.85140276912E-01 -5.22506037937E-05 +5.24271273051E-03 +7.33853680692E-05 +5.15181908090E-03 -2.10574222929E-01 +5.25403313872E-01
4.53000000000E+09 -1.92776961990E-01 +4.93039967213E-01 +9.52033560861E-04 +5.25215576316E-03 +1.04583407456E-03 +5.09763431067E-03 -1.96128205992E-01 +5.36615403016E-01
4.53500000000E+09 -1.77950851303E-01 +5.03178803780E-01 +1.49795517255E-03 +4.61470955925E-03 +1.57220115189E-03 +4.53933761629E-03 -1.80898110255E-01 +5.46897654396E-01
4.54000000000E+09 -1.62092638922E-01 +5.14282354342E-01 +1.84882862523E-03 +4.53250452166E-03 +1.91579113652E-03 +4.41524516933E-03 -1.66204555044E-01 +5.57142551574E-01
4.54500000000E+09 -1.47522160239E-01 +5.25780233811E-01 +2.53098679796E-03 +4.03214084403E-03 +2.53946317084E-03 +3.91397385383E-03 -1.51313148304E-01 +5.67875793917E-01
4.55000000000E+09 -1.34420408928E-01 +5.36670814827E-01 +2.49747285935E-03 +3.75917420202E-03 +2.47677053063E-03 +3.57787489947E-03 -1.36152709238E-01 +5.78191725814E-01
4.55500000000E+09 -1.24322758753E-01 +5.46871937004E-01 +2.97248415086E-03 +3.54444396199E-03 +2.94889741508E-03 +3.42867682492E-03 -1.21455736914E-01 +5.87544063046E-01
4.56000000000E+09 -1.15953018300E-01 +5.56861278232E-01 +3.22916236986E-03 +3.18724231542E-03 +3.22636296888E-03 +3.07958013783E-03 -1.07402845493E-01 +5.96136887071E-01
4.56500000000E+09 -1.08093042809E-01 +5.65318293557E-01 +3.57440638479E-03 +2.84325777048E-03 +3.55347161536E-03 +2.72013313949E-03 -9.23293845779E-02 +6.04702199652E-01
4.57000000000E+09 -9.89863866692E-02 +5.72190602951E-01 +3.68312960996E-03 +2.60377601564E-03 +3.62560653997E-03 +2.47056650215E-03 -7.68585065352E-02 +6.11727610327E-01
