# Hz S RI R 50
! CMT, C1220, 16058040, 17.2.0/1
! Date: 15/08/2018 11:36:44
! Data: Format (Calibration Info)
! Freq                      S11: Re/Im (F2)                       S21: Re/Im (F2)                       S12: Re/Im (F2)                       S22: Re/Im (F2)            
4.00000000000E+09 +6.69265466729E-01 -3.56023203383E-01 +5.75248338900E-04 -3.37315251825E-03 +7.29745513337E-04 -3.49933035058E-03 +7.75513970878E-01 -3.52194367279E-01
4.00500000000E+09 +6.61275649450E-01 -3.64257808504E-01 +1.46819024998E-04 -3.61125245127E-03 +2.31620940597E-04 -3.64698739857E-03 +7.67281566566E-01 -3.63358398702E-01
4.01000000000E+09 +6.52515065515E-01 -3.71620608968E-01 -3.35601701748E-04 -3.61189687952E-03 -2.57458568009E-04 -3.69399057087E-03 +7.58638305989E-01 -3.74752328952E-01
4.01500000000E+09 +6.43263540097E-01 -3.79211628410E-01 -9.42871450504E-04 -3.51374871325E-03 -8.36492222576E-04 -3.53792466906E-03 +7.48836278570E-01 -3.85574058106E-01
4.02000000000E+09 +6.33237776699E-01 -3.87814769104E-01 -1.05853660055E-03 -3.20297986424E-03 -9.83602706571E-04 -3.32987212618E-03 +7.39040849979E-01 -3.96003410598E-01
4.02500000000E+09 +6.22298156634E-01 -3.97101516318E-01 -1.24530945896E-03 -3.22017852347E-03 -1.13359543644E-03 -3.34443056925E-03 +7.28853449056E-01 -4.06189225652E-01
4.03000000000E+09 +6.10544632594E-01 -4.07151949709E-01 -1.57050583378E-03 -3.31844365445E-03 -1.45983617839E-03 -3.46745601988E-03 +7.18643364326E-01 -4.16952400812E-01
4.03500000000E+09 +5.98491028644E-01 -4.16805904159E-01 -2.13132104525E-03 -3.14364264762E-03 -2.09324072507E-03 -3.27210617837E-03 +7.07505907953E-01 -4.28181199107E-01
4.04000000000E+09 +5.86630628331E-01 -4.26651392275E-01 -2.34461139343E-03 -2.79543586034E-03 -2.28195282898E-03 -2.96936688647E-03 +6.96033613686E-01 -4.39212694192E-01
4.04500000000E+09 +5.74933939618E-01 -4.35804587840E-01 -2.62186663599E-03 -2.64723855408E-03 -2.63296473934E-03 -2.87636760853E-03 +6.84097659538E-01 -4.49821726119E-01
4.05000000000E+09 +5.63729547684E-01 -4.44543524822E-01 -2.81952896715E-03 -2.34924963819E-03 -2.87468856582E-03 -2.56691884428E-03 +6.72563861479E-01 -4.59633439543E-01
4.05500000000E+09 +5.51881413113E-01 -4.53006173157E-01 -2.78413602168E-03 -2.23553781871E-03 -2.88270064625E-03 -2.44195829173E-03 +6.60338683994E-01 -4.69324444855E-01
4.06000000000E+09 +5.38588343142E-01 -4.60779890911E-01 -3.41156535425E-03 -2.38468592753E-03 -3.53638579335E-03 -2.49609109302E-03 +6.47782926408E-01 -4.78785927369E-01
4.06500000000E+09 +5.24822414205E-01 -4.66869069051E-01 -4.06864455122E-03 -1.58939884846E-03 -4.14024843714E-03 -1.68850778670E-03 +6.34702209326E-01 -4.87832740661E-01
4.07000000000E+09 +5.11047238533E-01 -4.73593472089E-01 -3.79406392366E-03 -1.15775231209E-03 -3.86451275351E-03 -1.23343659481E-03 +6.20855392857E-01 -4.97376588419E-01
4.07500000000E+09 +4.95450684776E-01 -4.80582833448E-01 -3.99486607459E-03 -9.16279188803E-04 -4.00615671586E-03 -1.02975141389E-03 +6.07157174082E-01 -5.06326190527E-01
4.08000000000E+09 +4.79621244343E-01 -4.86978734017E-01 -4.10212747156E-03 -5.40187385268E-04 -4.17499592882E-03 -6.76470439602E-04 +5.93930007984E-01 -5.15914639987E-01
4.08500000000E+09 +4.63247867913E-01 -4.94480336135E-01 -4.19240676399E-03 -1.22604084685E-04 -4.39292156484E-03 -3.21351178284E-04 +5.79948341071E-01 -5.25606467550E-01
4.09000000000E+09 +4.46456987268E-01 -5.02044812365E-01 -4.32151946097E-03 +3.09912290358E-04 -4.49950589199E-03 +2.19916010733E-04 +5.65516810404E-01 -5.34180583958E-01
4.09500000000E+09 +4.29789924814E-01 -5.08854502598E-01 -4.36473436520E-03 +8.80218408196E-04 -4.52278585444E-03 +9.24878732716E-04 +5.50275467215E-01 -5.42046517734E-01
4.10000000000E+09 +4.14205216220E-01 -5.15512817972E-01 -3.76180023105E-03 +1.27302779090E-03 -3.93514452730E-03 +1.23704151027E-03 +5.34561975186E-01 -5.49204171016E-01
4.10500000000E+09 +3.97721535261E-01 -5.21928079563E-01 -4.02144054581E-03 +1.22794404614E-03 -4.14465332741E-03 +1.11903812360E-03 +5.18527592232E-01 -5.56365726467E-01
4.11000000000E+09 +3.80982060078E-01 -5.25982463322E-01 -4.22647714113E-03 +1.84181842789E-03 -4.36384779450E-03 +1.82846377470E-03 +5.01561269261E-01 -5.64471987874E-01
4.11500000000E+09 +3.64989959641E-01 -5.28800114222E-01 -4.02556403085E-03 +2.51318353163E-03 -4.22155247889E-03 +2.46878380337E-03 +4.83873699391E-01 -5.71909867812E-01
4.12000000000E+09 +3.48465909444E-01 -5.31041652773E-01 -3.73266554691E-03 +3.00256723781E-03 -3.92105897730E-03 +2.99418189724E-03 +4.66407668537E-01 -5.78582943079E-01
4.12500000000E+09 +3.31481904318E-01 -5.32712213403E-01 -3.34686812534E-03 +3.62918060334E-03 -3.52301107554E-03 +3.64679742140E-03 +4.49409468965E-01 -5.84365403035E-01
4.13000000000E+09 +3.13978726353E-01 -5.35199671192E-01 -2.41976787825E-03 +3.85182946428E-03 -2.54710164758E-03 +3.89822643844E-03 +4.32466001258E-01 -5.90182895281E-01
4.13500000000E+09 +2.94709107591E-01 -5.38460520526E-01 -1.95061757103E-03 +3.46565042444E-03 -2.12062970335E-03 +3.58474735830E-03 +4.14541331614E-01 -5.96038958719E-01
4.14000000000E+09 +2.74247611188E-01 -5.41529925874E-01 -2.14209742221E-03 +3.29725163809E-03 -2.28855238290E-03 +3.38311554147E-03 +3.94653348685E-01 -6.01619616903E-01
4.14500000000E+09 +2.54302661958E-01 -5.44072657555E-01 -2.38067522523E-03 +3.93202546426E-03 -2.56036715782E-03 +3.99454318691E-03 +3.74386599734E-01 -6.06169548223E-01
4.15000000000E+09 +2.35472667926E-01 -5.47923559006E-01 -1.60495812738E-03 +4.31384770071E-03 -1.73690400823E-03 +4.50148157020E-03 +3.55149279944E-01 -6.09943636711E-01
4.15500000000E+09 +2.15974594179E-01 -5.50730004424E-01 -1.36953606385E-03 +4.47902497124E-03 -1.46956671321E-03 +4.62794377653E-03 +3.35937270316E-01 -6.13870577303E-01
4.16000000000E+09 +1.98534961374E-01 -5.52808628061E-01 -7.77018870128E-04 +4.76937224409E-03 -8.22682211616E-04 +4.89143795422E-03 +3.16640511836E-01 -6.17111597602E-01
4.16500000000E+09 +1.81171382583E-01 -5.54042737487E-01 -2.99492575457E-04 +4.60727181811E-03 -3.32580329797E-04 +4.74153824077E-03 +2.96323209901E-01 -6.19290867170E-01
4.17000000000E+09 +1.63612688320E-01 -5.53504981960E-01 -3.62984659682E-04 +4.65096925779E-03 -3.85914627289E-04 +4.74151248323E-03 +2.76006851306E-01 -6.20171764352E-01
4.17500000000E+09 +1.46398785696E-01 -5.50640780230E-01 +2.43764300604E-04 +5.37366399668E-03 +1.66567374399E-04 +5.50201737744E-03 +2.55495016048E-01 -6.20794618436E-01
4.18000000000E+09 +1.29393421715E-01 -5.46601793513E-01 +1.57173166724E-03 +5.30242779946E-03 +1.52795779556E-03 +5.48091978408E-03 +2.34227543412E-01 -6.21791881948E-01
4.18500000000E+09 +1.10552303400E-01 -5.42466382205E-01 +1.85285950760E-03 +4.29225692365E-03 +1.83160751030E-03 +4.47854580291E-03 +2.11557828027E-01 -6.22292773253E-01
4.19000000000E+09 +9.06645487811E-02 -5.36630168743E-01 +1.54797921679E-03 +4.10526615589E-03 +1.58839449844E-03 +4.27423122844E-03 +1.88890055887E-01 -6.21184696653E-01
4.19500000000E+09 +7.09709988920E-02 -5.31389019319E-01 +1.55785447764E-03 +4.46306157184E-03 +1.53631130125E-03 +4.56961006751E-03 +1.66607657019E-01 -6.19068437910E-01
4.20000000000E+09 +5.00557616943E-02 -5.26960655352E-01 +1.96521127789E-03 +4.96934650095E-03 +1.91212165068E-03 +5.14556858822E-03 +1.45000960399E-01 -6.16490651385E-01
4.20500000000E+09 +2.88022109782E-02 -5.22545443212E-01 +3.25424069954E-03 +5.45201557828E-03 +3.25326389046E-03 +5.66266987172E-03 +1.22578884429E-01 -6.13404984333E-01
4.21000000000E+09 +8.20930802871E-03 -5.17493462178E-01 +4.64566328130E-03 +4.86276999087E-03 +4.68653167504E-03 +5.06029591593E-03 +9.93186408664E-02 -6.09462918301E-01
4.21500000000E+09 -1.08591907127E-02 -5.13121040778E-01 +4.91580961692E-03 +3.51020030829E-03 +5.05695082785E-03 +3.63801579254E-03 +7.57564836689E-02 -6.04066216736E-01
4.22000000000E+09 -2.94328059311E-02 -5.06997739664E-01 +5.02326183460E-03 +2.97636070408E-03 +5.08846307531E-03 +3.04008472775E-03 +5.40123938517E-02 -5.97635308643E-01
4.22500000000E+09 -4.60113341721E-02 -4.99929482888E-01 +5.05674397684E-03 +2.61095364381E-03 +5.15218404781E-03 +2.74173699039E-03 +3.25725118573E-02 -5.91622811469E-01
4.23000000000E+09 -6.22007409181E-02 -4.91928562169E-01 +5.50887854671E-03 +2.21196995234E-03 +5.63991913412E-03 +2.40336029959E-03 +1.17787303076E-02 -5.84946076068E-01
4.23500000000E+09 -7.92150157978E-02 -4.81718994365E-01 +5.54441837015E-03 +1.82580111709E-03 +5.71836823308E-03 +1.92636971789E-03 -1.07573959975E-02 -5.77963723525E-01
4.24000000000E+09 -9.59800228017E-02 -4.69656659864E-01 +5.86622251505E-03 +1.46702894934E-03 +6.04715346395E-03 +1.51906395200E-03 -3.38133472065E-02 -5.68511171485E-01
4.24500000000E+09 -1.12934065708E-01 -4.57082252139E-01 +6.07121260499E-03 +6.85042545951E-04 +6.25121679152E-03 +7.38541406099E-04 -5.58786612216E-02 -5.57021373289E-01
4.25000000000E+09 -1.32084226768E-01 -4.44187284886E-01 +6.18746589767E-03 +6.38594590495E-04 +6.40463634437E-03 +6.60727668694E-04 -7.64281179968E-02 -5.46001076569E-01
4.25500000000E+09 -1.51637445777E-01 -4.30887280820E-01 +6.84745453160E-03 -1.42089550953E-05 +7.07984690638E-03 -4.10316669407E-05 -9.68106476996E-02 -5.34557359017E-01
4.26000000000E+09 -1.71453078958E-01 -4.18550241250E-01 +7.46366827035E-03 -1.36141927823E-03 +7.67913361750E-03 -1.43454906538E-03 -1.17210567287E-01 -5.22581978243E-01
4.26500000000E+09 -1.91806967646E-01 -4.07262030022E-01 +6.64295420919E-03 -2.53534118498E-03 +6.79450553858E-03 -2.62045845168E-03 -1.37159180776E-01 -5.09172821647E-01
4.27000000000E+09 -2.11292160891E-01 -3.95016217877E-01 +6.20301186336E-03 -3.26627109110E-03 +6.29191317479E-03 -3.40575653643E-03 -1.58476603979E-01 -4.95302960214E-01
4.27500000000E+09 -2.28939137101E-01 -3.83293079379E-01 +5.42376236396E-03 -3.99978684151E-03 +5.50988649771E-03 -4.15595487562E-03 -1.78937472416E-01 -4.78816546560E-01
4.28000000000E+09 -2.45204715631E-01 -3.71011773904E-01 +4.73874245977E-03 -3.55135062654E-03 +4.76632673266E-03 -3.73982507071E-03 -1.97732840175E-01 -4.64104929895E-01
4.28500000000E+09 -2.59269904791E-01 -3.57734622292E-01 +5.38869907332E-03 -3.66666820138E-03 +5.39730075637E-03 -3.76512024968E-03 -2.18978751683E-01 -4.48641460779E-01
4.29000000000E+09 -2.71911106651E-01 -3.43148129702E-01 +5.64429599983E-03 -5.13773980110E-03 +5.67708717165E-03 -5.31582973798E-03 -2.38312936654E-01 -4.30382688955E-01
4.29500000000E+09 -2.83359988672E-01 -3.28182953850E-01 +3.99785887554E-03 -6.20304563679E-03 +4.02592097327E-03 -6.30592430186E-03 -2.54721594206E-01 -4.10938525019E-01
4.30000000000E+09 -2.96115703153E-01 -3.11734997220E-01 +3.74723692023E-03 -6.01743843978E-03 +3.81884076675E-03 -6.18221233335E-03 -2.70182114790E-01 -3.93147489012E-01
4.30500000000E+09 -3.09528522901E-01 -2.93809556221E-01 +2.85524078757E-03 -6.67803971203E-03 +2.80646729407E-03 -6.81936241066E-03 -2.85391714615E-01 -3.74326732198E-01
4.31000000000E+09 -3.22971223582E-01 -2.73995081700E-01 +2.35303318979E-03 -6.57115946061E-03 +2.29804204990E-03 -6.69210248479E-03 -3.01443392944E-01 -3.54804128798E-01
4.31500000000E+09 -3.36106452940E-01 -2.54075638415E-01 +2.12762677763E-03 -7.04225710804E-03 +2.07934769324E-03 -7.12988874161E-03 -3.17183139571E-01 -3.33099075858E-01
4.32000000000E+09 -3.48075777474E-01 -2.34390414896E-01 +9.00078289317E-04 -8.00210328906E-03 +8.47962444182E-04 -8.17881696143E-03 -3.30127155245E-01 -3.10811559606E-01
4.32500000000E+09 -3.58387929598E-01 -2.16773558681E-01 -1.24179532701E-03 -7.68504489857E-03 -1.38481749940E-03 -7.82499855517E-03 -3.42113097288E-01 -2.89303895383E-01
4.33000000000E+09 -3.69426438872E-01 -2.00847613181E-01 -9.63750518635E-04 -5.93933790852E-03 -1.04992174904E-03 -5.97429303459E-03 -3.53653865554E-01 -2.68976800401E-01
4.33500000000E+09 -3.79808072778E-01 -1.83600915632E-01 -3.99434384749E-04 -6.32068754854E-03 -5.05376076208E-04 -6.40182784032E-03 -3.65900328742E-01 -2.45842371158E-01
4.34000000000E+09 -3.87933284724E-01 -1.64993518376E-01 -7.38049674979E-04 -7.06487458665E-03 -8.86831845392E-04 -7.04559533491E-03 -3.77002185092E-01 -2.21613000679E-01
4.34500000000E+09 -3.93620470489E-01 -1.45388254725E-01 -1.57362493332E-03 -8.00479725798E-03 -1.64122002015E-03 -8.05928661888E-03 -3.85726433551E-01 -1.96067554062E-01
4.35000000000E+09 -3.97398447269E-01 -1.24492154651E-01 -3.58282077187E-03 -8.37937871873E-03 -3.67408868949E-03 -8.36727422678E-03 -3.94190785844E-01 -1.72435593845E-01
4.35500000000E+09 -4.00208193839E-01 -1.03406903367E-01 -5.23205306102E-03 -7.12588693152E-03 -5.35016137656E-03 -7.10192770703E-03 -4.03061683650E-01 -1.49585854182E-01
4.36000000000E+09 -4.03614803195E-01 -8.21483198501E-02 -5.06652300661E-03 -5.57896843733E-03 -5.17717892081E-03 -5.60738903137E-03 -4.11500881519E-01 -1.26004892853E-01
4.36500000000E+09 -4.08821646219E-01 -5.92033277770E-02 -5.52581709231E-03 -5.98689774748E-03 -5.65525059663E-03 -6.02154330006E-03 -4.17465791191E-01 -1.00711059291E-01
4.37000000000E+09 -4.14128659531E-01 -3.53530780410E-02 -6.36986953645E-03 -5.24064599111E-03 -6.50482066300E-03 -5.26575704739E-03 -4.20952528863E-01 -7.58456693283E-02
4.37500000000E+09 -4.19279171513E-01 -1.26003451544E-02 -6.82947881652E-03 -4.78540555208E-03 -7.05299003950E-03 -4.72503202034E-03 -4.22282567069E-01 -5.12871921874E-02
4.38000000000E+09 -4.24471034163E-01 +9.12284401892E-03 -7.48798215066E-03 -4.06707703150E-03 -7.60120947438E-03 -3.98461635981E-03 -4.25878032754E-01 -2.81784427906E-02
4.38500000000E+09 -4.28476004293E-01 +3.00232672120E-02 -8.27639141538E-03 -3.11914909493E-03 -8.42453877634E-03 -2.97900651088E-03 -4.29106914573E-01 -2.32827031859E-03
4.39000000000E+09 -4.31357285490E-01 +4.86915049287E-02 -7.86255762180E-03 -2.34226386305E-03 -7.99975267062E-03 -2.14860621696E-03 -4.30830257740E-01 +2.43335636009E-02
4.39500000000E+09 -4.32268615624E-01 +6.63173629329E-02 -8.85187632063E-03 -2.22385120951E-03 -8.93297489671E-03 -2.04540826466E-03 -4.29587124418E-01 +4.99176946577E-02
4.40000000000E+09 -4.31704669427E-01 +8.37946600912E-02 -9.79661794867E-03 -6.15623917137E-04 -9.89827351593E-03 -4.13883406426E-04 -4.27298643817E-01 +7.32130592003E-02
4.40500000000E+09 -4.29293375295E-01 +1.01311470234E-01 -9.98830859020E-03 +6.72508155914E-04 -1.00105644443E-02 +8.65107941347E-04 -4.25149802315E-01 +9.62225944008E-02
4.41000000000E+09 -4.26476862764E-01 +1.19931348573E-01 -9.44046046607E-03 +3.09459520287E-03 -9.40024051753E-03 +3.28895743434E-03 -4.23254975495E-01 +1.18632484904E-01
4.41500000000E+09 -4.23391134929E-01 +1.41283650994E-01 -8.16590370669E-03 +3.64395309498E-03 -8.12376164490E-03 +3.84222012661E-03 -4.20272001316E-01 +1.44309664907E-01
4.42000000000E+09 -4.18798738018E-01 +1.63781959872E-01 -7.59656242482E-03 +3.97034877635E-03 -7.52609524245E-03 +4.09796168804E-03 -4.13733651174E-01 +1.69252171865E-01
4.42500000000E+09 -4.14837630339E-01 +1.86618636203E-01 -7.39814507383E-03 +4.29592425280E-03 -7.25501091402E-03 +4.45033044113E-03 -4.06748404239E-01 +1.90757130670E-01
4.43000000000E+09 -4.11071139184E-01 +2.09014707121E-01 -7.50633763566E-03 +5.10528031659E-03 -7.25906035237E-03 +5.20085286870E-03 -4.02997003755E-01 +2.12863856340E-01
4.43500000000E+09 -4.08006671914E-01 +2.29654455109E-01 -7.13322206624E-03 +6.48346636036E-03 -6.93386756450E-03 +6.52368487993E-03 -3.97340815679E-01 +2.36728978070E-01
4.44000000000E+09 -4.05755738604E-01 +2.48169917925E-01 -5.83118995817E-03 +8.09762133185E-03 -5.64627281655E-03 +8.05269978249E-03 -3.88976492980E-01 +2.60022223437E-01
4.44500000000E+09 -4.04181579368E-01 +2.65149083672E-01 -4.13075836671E-03 +7.75496597833E-03 -4.01184716359E-03 +7.76603256882E-03 -3.78176401957E-01 +2.81167371798E-01
4.45000000000E+09 -4.01808758157E-01 +2.81309376887E-01 -3.52784939594E-03 +7.63710250452E-03 -3.41725096499E-03 +7.71178788179E-03 -3.68099000853E-01 +2.99556786370E-01
4.45500000000E+09 -3.96755799861E-01 +2.96553991540E-01 -3.62652013938E-03 +8.10287161066E-03 -3.38435715354E-03 +8.16088109427E-03 -3.58976579143E-01 +3.17763475932E-01
4.46000000000E+09 -3.89711987491E-01 +3.10603306905E-01 -2.34071412999E-03 +9.32938397138E-03 -2.08978401728E-03 +9.33812741560E-03 -3.50233206444E-01 +3.38407233818E-01
4.46500000000E+09 -3.80360740967E-01 +3.26086677240E-01 -7.05296918757E-04 +9.36880069301E-03 -4.63760578317E-04 +9.29051461367E-03 -3.37271585471E-01 +3.57422708116E-01
4.47000000000E+09 -3.68278752809E-01 +3.41218806372E-01 +8.15365129127E-04 +8.79262819836E-03 +1.08719649468E-03 +8.70966289651E-03 -3.25179630740E-01 +3.75370204398E-01
4.47500000000E+09 -3.56435754461E-01 +3.56744847544E-01 +1.11263603212E-03 +7.57923705282E-03 +1.25756264853E-03 +7.44074136142E-03 -3.12915685987E-01 +3.91915035143E-01
4.48000000000E+09 -3.45161273018E-01 +3.74469191861E-01 +7.29394335750E-04 +8.10919803293E-03 +9.12203372604E-04 +7.96228336152E-03 -3.02017892957E-01 +4.09660975637E-01
4.48500000000E+09 -3.33728675316E-01 +3.93225825366E-01 +2.03688577242E-03 +8.74669744212E-03 +2.19051019630E-03 +8.49900461063E-03 -2.89391040171E-01 +4.26908952349E-01
4.49000000000E+09 -3.24171294949E-01 +4.11285445846E-01 +3.59180126821E-03 +8.91917537897E-03 +3.66395235217E-03 +8.61255379652E-03 -2.75908712792E-01 +4.43579709446E-01
4.49500000000E+09 -3.15788524129E-01 +4.29420363591E-01 +5.11251630238E-03 +7.67919440339E-03 +5.05474512025E-03 +7.45704941373E-03 -2.60885926451E-01 +4.57638686768E-01
4.50000000000E+09 -3.07672224780E-01 +4.45565291240E-01 +5.58788288705E-03 +6.64511022427E-03 +5.55229181021E-03 +6.49378233037E-03 -2.47165209979E-01 +4.70961995248E-01
4.50500000000E+09 -3.00407437654E-01 +4.59476588186E-01 +6.24744692927E-03 +5.79137214619E-03 +6.15249719368E-03 +5.61705152919E-03 -2.33550128263E-01 +4.83348442766E-01
4.51000000000E+09 -2.92524156095E-01 +4.71256183962E-01 +6.20794564160E-03 +5.02177784296E-03 +6.16665318768E-03 +4.89983019797E-03 -2.21084767912E-01 +4.97742583666E-01
4.51500000000E+09 -2.83394017837E-01 +4.80245004554E-01 +6.70331275652E-03 +5.00335483786E-03 +6.61975558632E-03 +4.78731288375E-03 -2.06801366220E-01 +5.11051965048E-01
4.52000000000E+09 -2.73794122483E-01 +4.88021953887E-01 +7.83105487501E-03 +3.99631236214E-03 +7.75724998054E-03 +3.78268282115E-03 -1.92440353336E-01 +5.23639922876E-01
4.52500000000E+09 -2.62509810450E-01 +4.96747051375E-01 +7.55412556049E-03 +2.24431827153E-03 +7.42718067415E-03 +1.97659522633E-03 -1.78010944847E-01 +5.34095258208E-01
4.53000000000E+09 -2.48555777581E-01 +5.06713556679E-01 +7.22763363771E-03 +2.19277787596E-03 +7.11881833261E-03 +2.01343133235E-03 -1.63987335224E-01 +5.45160694862E-01
4.53500000000E+09 -2.32010275407E-01 +5.17264303691E-01 +7.60922123384E-03 +1.71745142866E-03 +7.52058917560E-03 +1.53381463367E-03 -1.48798014817E-01 +5.55373653866E-01
4.54000000000E+09 -2.14646916272E-01 +5.27788093983E-01 +8.07169914387E-03 +1.03769741170E-03 +7.89842534114E-03 +8.59377351881E-04 -1.32824895143E-01 +5.66561070865E-01
4.54500000000E+09 -1.97858582242E-01 +5.38399312352E-01 +8.56382351718E-03 -1.16987587372E-04 +8.32085085131E-03 -2.41278538789E-04 -1.15591373485E-01 +5.75106222376E-01
4.55000000000E+09 -1.82953922885E-01 +5.48743674656E-01 +8.42265263253E-03 -1.60510661619E-03 +8.16836040573E-03 -1.68838743808E-03 -9.98736221231E-02 +5.83297539220E-01
4.55500000000E+09 -1.70938240043E-01 +5.59304511362E-01 +7.50656985145E-03 -3.39912648449E-03 +7.29867846443E-03 -3.45874800437E-03 -8.55513029117E-02 +5.90659358023E-01
4.56000000000E+09 -1.60343262289E-01 +5.70450001354E-01 +5.78820234329E-03 -3.49343079743E-03 +5.60081410733E-03 -3.49032442548E-03 -7.19297551805E-02 +5.99984515871E-01
4.56500000000E+09 -1.49986425120E-01 +5.80929395595E-01 +5.48525652064E-03 -3.20060961470E-03 +5.30315225667E-03 -3.24682116088E-03 -5.62860431050E-02 +6.08335343510E-01
4.57000000000E+09 -1.39322877913E-01 +5.89809541692E-01 +5.41822382347E-03 -3.21092834102E-03 +5.20383538699E-03 -3.19978032282E-03 -4.01643283522E-02 +6.14851854434E-01
