# Hz S RI R 50
! CMT, C1220, 16058040, 17.2.0/1
! Date: 15/08/2018 12:40:49
! Data: Format (Calibration Info)
! Freq                      S11: Re/Im (F2)                       S21: Re/Im (F2)                       S12: Re/Im (F2)                       S22: Re/Im (F2)            
4.00000000000E+09 +6.56039331276E-01 -3.58977635063E-01 +7.71076196722E-04 -1.04252218711E-03 +8.67156626301E-04 -1.08312362241E-03 +7.86569170725E-01 -3.13550421962E-01
4.00500000000E+09 +6.47517109330E-01 -3.64512352314E-01 +6.13752478761E-04 -1.21648234447E-03 +6.85316708921E-04 -1.26064577668E-03 +7.78098506705E-01 -3.24838389061E-01
4.01000000000E+09 +6.38686840156E-01 -3.69887820822E-01 +2.94563855164E-04 -1.47722620020E-03 +4.29990636554E-04 -1.48187071085E-03 +7.69568047730E-01 -3.36887349028E-01
4.01500000000E+09 +6.28771786373E-01 -3.76323811180E-01 -8.05053531032E-05 -1.28795550437E-03 -9.24481653476E-06 -1.29056560753E-03 +7.61008319188E-01 -3.47967614429E-01
4.02000000000E+09 +6.18912949300E-01 -3.83505363983E-01 -8.69825357673E-07 -1.21862231912E-03 +8.01468924080E-05 -1.20249906346E-03 +7.52234629160E-01 -3.58752925357E-01
4.02500000000E+09 +6.08294762183E-01 -3.92469086562E-01 -1.29078682974E-04 -1.24580861639E-03 -7.99396956423E-05 -1.24755342036E-03 +7.42862727021E-01 -3.69512078542E-01
4.03000000000E+09 +5.97346409652E-01 -4.02837989211E-01 -2.38122495508E-04 -1.16862586008E-03 -2.27409610746E-04 -1.18835151266E-03 +7.32602458440E-01 -3.80207726706E-01
4.03500000000E+09 +5.85661832580E-01 -4.13317789079E-01 -3.94789324090E-04 -1.16877216553E-03 -3.86654044559E-04 -1.19439982096E-03 +7.21486322320E-01 -3.91257332048E-01
4.04000000000E+09 +5.74365956592E-01 -4.22890168700E-01 -5.38975923038E-04 -1.04350395264E-03 -4.99637049419E-04 -1.08088141057E-03 +7.10362947127E-01 -4.02568246275E-01
4.04500000000E+09 +5.63773249704E-01 -4.32387207020E-01 -5.03180966953E-04 -9.22920126499E-04 -5.05710096084E-04 -1.02566498599E-03 +6.99166792116E-01 -4.13392239608E-01
4.05000000000E+09 +5.52268850058E-01 -4.40476690436E-01 -5.04620527271E-04 -9.72883241534E-04 -4.99877444452E-04 -1.02008100521E-03 +6.88539459451E-01 -4.23927199045E-01
4.05500000000E+09 +5.40292244857E-01 -4.46574321278E-01 -5.04800252970E-04 -9.50345339072E-04 -5.20780942565E-04 -9.85093860324E-04 +6.77105132973E-01 -4.33617399336E-01
4.06000000000E+09 +5.28434746183E-01 -4.51373818801E-01 -7.50966412966E-04 -1.12478571456E-03 -7.80667229252E-04 -1.14218940625E-03 +6.65913056107E-01 -4.42787152274E-01
4.06500000000E+09 +5.15201967458E-01 -4.55281190434E-01 -1.04056925702E-03 -8.43091198851E-04 -9.99950690322E-04 -9.40317119632E-04 +6.53700980613E-01 -4.52374497920E-01
4.07000000000E+09 +5.02015155276E-01 -4.58941044960E-01 -9.31791968358E-04 -6.20443097850E-04 -9.37668740403E-04 -6.05755840488E-04 +6.40563610981E-01 -4.62212728335E-01
4.07500000000E+09 +4.87733272875E-01 -4.63607975535E-01 -8.72304162915E-04 -7.43714941671E-04 -8.90476216694E-04 -7.17021072778E-04 +6.27159226539E-01 -4.72765387566E-01
4.08000000000E+09 +4.72360363567E-01 -4.68779774678E-01 -1.16613620157E-03 -6.24615964693E-04 -1.09913942197E-03 -6.16905883088E-04 +6.13693988051E-01 -4.82610065783E-01
4.08500000000E+09 +4.56310222019E-01 -4.75144224818E-01 -8.89240134043E-04 -4.45235518374E-04 -9.43940906668E-04 -4.46470593813E-04 +6.00459084651E-01 -4.92620789437E-01
4.09000000000E+09 +4.39475792698E-01 -4.81820842025E-01 -1.08070296515E-03 -7.38136241399E-04 -1.12649740168E-03 -6.89541193779E-04 +5.86588917792E-01 -5.01384367588E-01
4.09500000000E+09 +4.22852335632E-01 -4.88064061766E-01 -1.43199505559E-03 -3.68375444962E-04 -1.43171952041E-03 -4.26242695407E-04 +5.72258373874E-01 -5.09651145867E-01
4.10000000000E+09 +4.06353926468E-01 -4.93798035874E-01 -1.25594418658E-03 +2.68993160749E-07 -1.27122057539E-03 -1.42846761096E-05 +5.56797790415E-01 -5.17233554119E-01
4.10500000000E+09 +3.89873764202E-01 -4.98261128300E-01 -1.23040481557E-03 -1.11689539845E-04 -1.24936048195E-03 -1.46487772425E-04 +5.41417534516E-01 -5.25268106989E-01
4.11000000000E+09 +3.73485666224E-01 -5.00232501081E-01 -1.42414376053E-03 +1.10985819102E-04 -1.47252774123E-03 +5.48664129874E-05 +5.25030444209E-01 -5.33822398217E-01
4.11500000000E+09 +3.58729997921E-01 -5.01606418391E-01 -1.10699520557E-03 +3.59156445335E-04 -1.12456107060E-03 +3.65588406232E-04 +5.08952441224E-01 -5.41889610476E-01
4.12000000000E+09 +3.42954569014E-01 -5.02539628676E-01 -1.15037595679E-03 +2.59023246885E-04 -1.14695138977E-03 +2.05242590251E-04 +4.92525585923E-01 -5.50164919832E-01
4.12500000000E+09 +3.26230908411E-01 -5.03351038647E-01 -1.09903808242E-03 +4.32134593507E-04 -1.16814142974E-03 +3.77725289051E-04 +4.75319157019E-01 -5.56747335106E-01
4.13000000000E+09 +3.09094331480E-01 -5.04306963822E-01 -1.00066594081E-03 +5.95984405725E-04 -1.00182718063E-03 +5.52385695741E-04 +4.57908012800E-01 -5.62726302484E-01
4.13500000000E+09 +2.90387848234E-01 -5.06879827775E-01 -5.98882410339E-04 +5.97113228583E-04 -6.54633220484E-04 +6.05557296447E-04 +4.39527555774E-01 -5.67928006794E-01
4.14000000000E+09 +2.70260734269E-01 -5.09573896128E-01 -8.14429015102E-04 +1.24246646321E-04 -9.17993898267E-04 +9.57830334004E-05 +4.21497336970E-01 -5.73741393888E-01
4.14500000000E+09 +2.50442165552E-01 -5.11927192316E-01 -1.30616285039E-03 +3.50190306104E-04 -1.40821935257E-03 +3.27148674694E-04 +4.02401197546E-01 -5.79706509584E-01
4.15000000000E+09 +2.31563123346E-01 -5.15416004603E-01 -1.18014353492E-03 +9.42326227891E-04 -1.24765329542E-03 +9.57423841372E-04 +3.84387138575E-01 -5.84781135898E-01
4.15500000000E+09 +2.11973354795E-01 -5.18521678933E-01 -7.88784419593E-04 +1.01224464594E-03 -9.07496550897E-04 +1.09817226589E-03 +3.66348560784E-01 -5.89851117323E-01
4.16000000000E+09 +1.93689796587E-01 -5.19044278506E-01 -6.48192924786E-04 +1.06378502757E-03 -6.39842417096E-04 +1.11309640551E-03 +3.47542005565E-01 -5.93403320874E-01
4.16500000000E+09 +1.77051575548E-01 -5.19384285937E-01 -4.37763107806E-04 +8.89847602175E-04 -4.43277731756E-04 +9.49745780625E-04 +3.28320953318E-01 -5.96294780342E-01
4.17000000000E+09 +1.60001653492E-01 -5.17386634506E-01 -4.07035494203E-04 +8.39139831935E-04 -4.06602355929E-04 +9.32466913376E-04 +3.08037417984E-01 -5.98851593731E-01
4.17500000000E+09 +1.43704319676E-01 -5.13231169373E-01 -4.58339649396E-04 +5.04780456210E-04 -5.26677304214E-04 +5.50042029568E-04 +2.86760015291E-01 -6.00853567248E-01
4.18000000000E+09 +1.27480278064E-01 -5.08183384445E-01 -8.14807995345E-04 +9.30697198504E-04 -8.70799532226E-04 +1.01455909157E-03 +2.65883926714E-01 -6.02409106583E-01
4.18500000000E+09 +1.11109573204E-01 -5.03069378418E-01 -4.81780737000E-04 +1.02491329879E-03 -4.62058779683E-04 +1.05352747667E-03 +2.44840420274E-01 -6.04175740640E-01
4.19000000000E+09 +9.28068615271E-02 -4.98222839759E-01 -5.87655085963E-04 +1.12864478474E-03 -5.87264280695E-04 +1.16239296826E-03 +2.23502217036E-01 -6.04372343741E-01
4.19500000000E+09 +7.41565898620E-02 -4.92679235745E-01 -5.43924729775E-04 +1.26505030376E-03 -5.34540077473E-04 +1.29958572767E-03 +2.02592850044E-01 -6.03248724023E-01
4.20000000000E+09 +5.55718934612E-02 -4.88669164452E-01 -1.25999225192E-04 +1.59703352341E-03 -1.29430227710E-04 +1.60618744218E-03 +1.80873778794E-01 -6.01677551093E-01
4.20500000000E+09 +3.61153446105E-02 -4.84801069681E-01 +2.54625726198E-04 +1.31963185339E-03 +2.23889145609E-04 +1.30742206457E-03 +1.59271087775E-01 -5.98753023115E-01
4.21000000000E+09 +1.77906046908E-02 -4.80300329283E-01 -3.62269911774E-05 +7.93830286690E-04 -1.02157379274E-04 +7.76484716715E-04 +1.37042440366E-01 -5.97445424532E-01
4.21500000000E+09 +1.97241916559E-04 -4.74987711908E-01 -1.57479594332E-04 +1.30041588238E-03 -1.85388474937E-04 +1.29694419312E-03 +1.13562949469E-01 -5.95015948673E-01
4.22000000000E+09 -1.58143733641E-02 -4.67844101500E-01 +1.66148506183E-04 +1.25858364902E-03 +1.50288639682E-04 +1.32066582632E-03 +9.12453574215E-02 -5.91291263622E-01
4.22500000000E+09 -3.08872863525E-02 -4.59256519251E-01 +2.82873830933E-05 +1.13405943800E-03 -4.03458445618E-05 +1.14780041042E-03 +6.94825058629E-02 -5.86563224373E-01
4.23000000000E+09 -4.51203321818E-02 -4.48112874971E-01 +1.74434520151E-04 +1.64073431936E-03 +1.33655188622E-04 +1.66771318801E-03 +4.79532848807E-02 -5.80003055239E-01
4.23500000000E+09 -5.85901718454E-02 -4.36977902889E-01 +5.12380741380E-04 +1.43242248208E-03 +4.90270670581E-04 +1.51774663557E-03 +2.66306338436E-02 -5.73186285680E-01
4.24000000000E+09 -7.45528658525E-02 -4.25326854046E-01 +5.87819902814E-04 +1.46204485237E-03 +5.74116998199E-04 +1.52054770006E-03 +4.82815125319E-03 -5.65024684815E-01
4.24500000000E+09 -9.22663915016E-02 -4.12285267063E-01 +1.00244893988E-03 +1.24436491947E-03 +1.05235687719E-03 +1.26941374724E-03 -1.66976988267E-02 -5.57058473182E-01
4.25000000000E+09 -1.11497619495E-01 -3.99274348541E-01 +6.35084624200E-04 +1.04018902788E-03 +6.23960333314E-04 +1.10546118732E-03 -3.85584028571E-02 -5.48998648243E-01
4.25500000000E+09 -1.31486542925E-01 -3.86405036627E-01 +8.13217742558E-04 +1.33356711545E-03 +8.22470445207E-04 +1.37869909199E-03 -5.97989787107E-02 -5.40188894409E-01
4.26000000000E+09 -1.51997977597E-01 -3.74240157047E-01 +1.14193746554E-03 +1.19199966786E-03 +1.16561601084E-03 +1.26876379974E-03 -8.12535823243E-02 -5.30488405103E-01
4.26500000000E+09 -1.71007319350E-01 -3.61965036635E-01 +8.76347062468E-04 +1.35252475946E-03 +9.15651427252E-04 +1.38966167976E-03 -1.02666936445E-01 -5.19135108172E-01
4.27000000000E+09 -1.88246198663E-01 -3.50792686306E-01 +1.57287135471E-03 +1.35166614762E-03 +1.71283123457E-03 +1.40979226095E-03 -1.24256044483E-01 -5.05643918048E-01
4.27500000000E+09 -2.04449413883E-01 -3.39453155238E-01 +1.65930433184E-03 +9.07082500882E-04 +1.71974647900E-03 +8.81875332465E-04 -1.45384892798E-01 -4.91949169685E-01
4.28000000000E+09 -2.17829691667E-01 -3.26271742689E-01 +1.64354287560E-03 +9.62581214857E-04 +1.58293265763E-03 +9.69593433474E-04 -1.66618840149E-01 -4.77889459657E-01
4.28500000000E+09 -2.29760997298E-01 -3.12037246119E-01 +2.01128325055E-03 +9.63004449628E-04 +2.05637143303E-03 +9.80454505012E-04 -1.87332340580E-01 -4.63048013364E-01
4.29000000000E+09 -2.40372130570E-01 -2.96104416283E-01 +2.21396242761E-03 +1.97617814420E-04 +2.26518688688E-03 +1.52691955203E-04 -2.06404986960E-01 -4.48273452996E-01
4.29500000000E+09 -2.51837923566E-01 -2.78547592895E-01 +1.49958795067E-03 +7.41931768165E-05 +1.56756457028E-03 +8.58184862434E-05 -2.25883611739E-01 -4.32571679142E-01
4.30000000000E+09 -2.62963887133E-01 -2.58633131470E-01 +1.88430886212E-03 +4.32163997120E-04 +1.93377108477E-03 +4.65783388381E-04 -2.43079725731E-01 -4.15014980935E-01
4.30500000000E+09 -2.74403773922E-01 -2.38812804220E-01 +2.17467006205E-03 -6.31934723287E-05 +2.22623998952E-03 -8.80948560332E-05 -2.61219950999E-01 -3.97293748350E-01
4.31000000000E+09 -2.87570439294E-01 -2.19130550492E-01 +1.71796424444E-03 +1.92013849006E-04 +1.74428927783E-03 +1.60041417986E-04 -2.78228856209E-01 -3.77766461165E-01
4.31500000000E+09 -3.00819830393E-01 -2.00047548579E-01 +2.58529650920E-03 +2.64166541099E-04 +2.58067268265E-03 +2.11132262208E-04 -2.94825923258E-01 -3.58432255140E-01
4.32000000000E+09 -3.14229732885E-01 -1.82563058220E-01 +2.92565962222E-03 -7.30309004762E-04 +2.90241693965E-03 -7.33688259198E-04 -3.10766742213E-01 -3.38162780140E-01
4.32500000000E+09 -3.26426136001E-01 -1.65905484933E-01 +2.20179840280E-03 -1.28456948398E-03 +2.14087685719E-03 -1.29583474238E-03 -3.25324467101E-01 -3.16943491651E-01
4.33000000000E+09 -3.36838985337E-01 -1.50398798830E-01 +2.33021593568E-03 -9.89953866322E-04 +2.32666967427E-03 -9.79873561423E-04 -3.38447603938E-01 -2.95457173288E-01
4.33500000000E+09 -3.44349407660E-01 -1.33562189722E-01 +2.43754628343E-03 -1.61003015099E-03 +2.42200128578E-03 -1.63568549061E-03 -3.51072864644E-01 -2.72959145710E-01
4.34000000000E+09 -3.47858188420E-01 -1.17548318626E-01 +1.94330532761E-03 -2.18499182898E-03 +2.01558407770E-03 -2.13873644769E-03 -3.63498949221E-01 -2.50340893698E-01
4.34500000000E+09 -3.50158928931E-01 -1.01276546334E-01 +1.53220400107E-03 -1.83237772352E-03 +1.52894992672E-03 -1.83306037863E-03 -3.76050181011E-01 -2.26007131900E-01
4.35000000000E+09 -3.51170290699E-01 -8.27448858956E-02 +1.88553813169E-03 -2.02826392121E-03 +1.93681661145E-03 -2.06012922013E-03 -3.86724541040E-01 -2.02832783646E-01
4.35500000000E+09 -3.52596240530E-01 -6.30943320259E-02 +1.46283277668E-03 -2.55114740710E-03 +1.53348452391E-03 -2.60362824231E-03 -3.97085536905E-01 -1.80085382347E-01
4.36000000000E+09 -3.55131621466E-01 -4.09762943822E-02 +1.11807100758E-03 -2.45478741644E-03 +1.20675104748E-03 -2.47873153383E-03 -4.06681599072E-01 -1.56454909008E-01
4.36500000000E+09 -3.58446687018E-01 -1.76239724821E-02 +1.34216868841E-03 -2.68693934754E-03 +1.37316089105E-03 -2.75596758551E-03 -4.14415945474E-01 -1.31575810332E-01
4.37000000000E+09 -3.62869626710E-01 +6.61301262947E-03 +1.09578525637E-03 -3.11546080349E-03 +1.04246227852E-03 -3.25115372763E-03 -4.20353460340E-01 -1.06787517860E-01
4.37500000000E+09 -3.66799337276E-01 +2.93802001585E-02 +6.03266730376E-04 -3.71401503877E-03 +5.88300554252E-04 -3.78611663985E-03 -4.25879943563E-01 -8.07380485375E-02
4.38000000000E+09 -3.71539673596E-01 +4.91757903283E-02 -1.88858897828E-04 -3.54780566122E-03 -2.62928091896E-04 -3.66376253338E-03 -4.29656986289E-01 -5.50326678864E-02
4.38500000000E+09 -3.76066019937E-01 +6.76014864408E-02 -5.96641986541E-04 -3.36688146192E-03 -6.83154858857E-04 -3.44719553623E-03 -4.32686329499E-01 -2.99148175760E-02
4.39000000000E+09 -3.79083462341E-01 +8.38718125583E-02 -9.21156861713E-04 -3.38220467274E-03 -1.05857528426E-03 -3.44989355361E-03 -4.35399800746E-01 -4.68288303706E-03
4.39500000000E+09 -3.80147028499E-01 +9.87141652349E-02 -1.51220708076E-03 -2.96428894497E-03 -1.58495478516E-03 -2.99146480099E-03 -4.36004217372E-01 +1.95164150540E-02
4.40000000000E+09 -3.79108206373E-01 +1.14104251752E-01 -1.32021033124E-03 -2.94746879147E-03 -1.43226388679E-03 -2.97485233828E-03 -4.36316056644E-01 +4.42141898668E-02
4.40500000000E+09 -3.75317369637E-01 +1.30491294350E-01 -2.01893777387E-03 -2.94257279994E-03 -2.13206052390E-03 -2.94805797657E-03 -4.35296954273E-01 +6.85495882840E-02
4.41000000000E+09 -3.69612094202E-01 +1.47242649442E-01 -1.96946770767E-03 -2.54697248297E-03 -2.07330362731E-03 -2.51907892012E-03 -4.33822552821E-01 +9.34406588654E-02
4.41500000000E+09 -3.64102676286E-01 +1.65863709355E-01 -2.53394038594E-03 -2.64725624469E-03 -2.66043888554E-03 -2.52628421136E-03 -4.30991881267E-01 +1.17800803405E-01
4.42000000000E+09 -3.58708032390E-01 +1.86759873421E-01 -2.68717295160E-03 -2.18648496106E-03 -2.74527343434E-03 -2.05321343919E-03 -4.28506942166E-01 +1.41813576677E-01
4.42500000000E+09 -3.54017821233E-01 +2.08838668147E-01 -3.09543567890E-03 -2.32869066978E-03 -3.07242674630E-03 -2.25494765237E-03 -4.23496353630E-01 +1.66608365815E-01
4.43000000000E+09 -3.49930344724E-01 +2.29993378641E-01 -3.77302504320E-03 -2.06552446406E-03 -3.84683865247E-03 -1.95579002619E-03 -4.18080776869E-01 +1.88647390567E-01
4.43500000000E+09 -3.48189017156E-01 +2.50570320140E-01 -4.08872067494E-03 -7.28255848959E-04 -4.01583428187E-03 -6.46314945296E-04 -4.11884428553E-01 +2.11943927314E-01
4.44000000000E+09 -3.45981800476E-01 +2.70168423057E-01 -3.64906099735E-03 -6.29449022588E-04 -3.61496332813E-03 -5.94790849194E-04 -4.04734746686E-01 +2.34041846861E-01
4.44500000000E+09 -3.43059810910E-01 +2.86336461169E-01 -3.68556277928E-03 -1.07748309728E-04 -3.64907714181E-03 -9.05250922143E-05 -3.97642593968E-01 +2.55293816402E-01
4.45000000000E+09 -3.40292144133E-01 +3.00361816740E-01 -3.58938139714E-03 -3.30420501573E-05 -3.56957886985E-03 +7.67015663819E-06 -3.90351170530E-01 +2.76643844965E-01
4.45500000000E+09 -3.35177571356E-01 +3.13009635399E-01 -3.94079653626E-03 +2.78305079958E-04 -3.82457459809E-03 +3.17328802278E-04 -3.82522554637E-01 +2.97458468848E-01
4.46000000000E+09 -3.29159601218E-01 +3.24605710761E-01 -3.93140827066E-03 +9.26495988567E-04 -3.81967540342E-03 +9.88281332080E-04 -3.72561611165E-01 +3.17567397639E-01
4.46500000000E+09 -3.20535810362E-01 +3.38081309686E-01 -3.66646187942E-03 +1.27936850561E-03 -3.59623952243E-03 +1.29683257724E-03 -3.62645257676E-01 +3.36721637984E-01
4.47000000000E+09 -3.09731454322E-01 +3.51961026760E-01 -3.69061721663E-03 +1.61813326139E-03 -3.70433520877E-03 +1.60564436865E-03 -3.50163308362E-01 +3.56377179644E-01
4.47500000000E+09 -2.98003333624E-01 +3.68413563154E-01 -3.76008005160E-03 +2.21859891981E-03 -3.71868838038E-03 +2.27554579338E-03 -3.38420484976E-01 +3.73933623635E-01
4.48000000000E+09 -2.85363148797E-01 +3.84448720530E-01 -3.32589126298E-03 +2.89218902048E-03 -3.24783876610E-03 +2.90350917613E-03 -3.26553453908E-01 +3.92388672546E-01
4.48500000000E+09 -2.75028243935E-01 +4.01596945367E-01 -2.82725962972E-03 +3.24892964126E-03 -2.71036874646E-03 +3.21918742594E-03 -3.14688449462E-01 +4.08548921080E-01
4.49000000000E+09 -2.65479493992E-01 +4.18716244079E-01 -2.36338930208E-03 +3.65460607872E-03 -2.30347783964E-03 +3.60667325401E-03 -3.03438505896E-01 +4.24671352672E-01
4.49500000000E+09 -2.57520226572E-01 +4.34291426602E-01 -1.81578043685E-03 +3.71401096686E-03 -1.76515385609E-03 +3.61852726678E-03 -2.91531477711E-01 +4.40081334237E-01
4.50000000000E+09 -2.51220742461E-01 +4.48776297224E-01 -1.38767674934E-03 +3.89387757273E-03 -1.39547239821E-03 +3.85689595453E-03 -2.79046570577E-01 +4.55005649163E-01
4.50500000000E+09 -2.44760235670E-01 +4.60560945934E-01 -1.11112109757E-03 +3.71615859347E-03 -1.09270137543E-03 +3.67393674944E-03 -2.65487539620E-01 +4.70173728656E-01
4.51000000000E+09 -2.37864640552E-01 +4.70384979372E-01 -1.00580577000E-03 +4.12323852735E-03 -9.39731807347E-04 +4.12182762852E-03 -2.51431016960E-01 +4.84252313049E-01
4.51500000000E+09 -2.29029345046E-01 +4.78413821339E-01 -1.29327231362E-04 +4.56475188359E-03 -7.37212644615E-05 +4.53086275795E-03 -2.38345595409E-01 +4.98114787356E-01
4.52000000000E+09 -2.18460535999E-01 +4.85224357821E-01 +6.43832206503E-04 +4.09076996656E-03 +7.25645829326E-04 +4.06638512734E-03 -2.24691914529E-01 +5.11256856163E-01
4.52500000000E+09 -2.06016651328E-01 +4.92418235122E-01 +7.42531745368E-04 +4.07278998139E-03 +8.64618019405E-04 +4.02181613842E-03 -2.10997702123E-01 +5.23257106069E-01
4.53000000000E+09 -1.91822184007E-01 +5.00578410981E-01 +1.38788052324E-03 +3.91614978501E-03 +1.47565620201E-03 +3.86300095732E-03 -1.96818593424E-01 +5.34325777822E-01
4.53500000000E+09 -1.75898443801E-01 +5.10445820162E-01 +1.75937132017E-03 +3.44669521253E-03 +1.87326093923E-03 +3.36971042197E-03 -1.82017757483E-01 +5.44763119657E-01
4.54000000000E+09 -1.59766322148E-01 +5.20879946983E-01 +2.06209838015E-03 +3.38452129344E-03 +2.18417523548E-03 +3.22460076483E-03 -1.67427300812E-01 +5.55334354586E-01
4.54500000000E+09 -1.44856823224E-01 +5.31963233792E-01 +2.57389716098E-03 +2.91395123969E-03 +2.63800881047E-03 +2.79162185166E-03 -1.52589754397E-01 +5.66335709757E-01
4.55000000000E+09 -1.31529910189E-01 +5.42458212517E-01 +2.44212293792E-03 +2.64061208323E-03 +2.44138015954E-03 +2.47376697949E-03 -1.37395277417E-01 +5.76816264684E-01
4.55500000000E+09 -1.21177443174E-01 +5.52601188520E-01 +2.83381069855E-03 +2.49767414259E-03 +2.79655810674E-03 +2.35092266765E-03 -1.22739951411E-01 +5.86239927898E-01
4.56000000000E+09 -1.12323268103E-01 +5.62474157557E-01 +3.03633974362E-03 +2.13036882083E-03 +3.05083284697E-03 +1.99025001423E-03 -1.08445552098E-01 +5.94797552951E-01
4.56500000000E+09 -1.03785727823E-01 +5.70527326701E-01 +3.26026454817E-03 +1.78312629511E-03 +3.24305760334E-03 +1.64102587607E-03 -9.37459724456E-02 +6.03338739723E-01
4.57000000000E+09 -9.43407126857E-02 +5.76729394243E-01 +3.39287184702E-03 +1.49352823108E-03 +3.30673420613E-03 +1.36150790245E-03 -7.81784339397E-02 +6.10519169084E-01
