# Hz S RI R 50
! CMT, C1220, 16058040, 17.2.0/1
! Date: 15/08/2018 12:11:10
! Data: Format (Calibration Info)
! Freq                      S11: Re/Im (F2)                       S21: Re/Im (F2)                       S12: Re/Im (F2)                       S22: Re/Im (F2)            
4.00000000000E+09 +6.51516163580E-01 -3.51962686641E-01 -2.89459325949E-04 -5.57447723805E-04 -2.51318311254E-04 -6.21831748921E-04 +7.67333599470E-01 -3.21257670193E-01
4.00500000000E+09 +6.43530495277E-01 -3.58003329031E-01 -3.68751336678E-04 -2.16603909790E-04 -3.93104715504E-04 -2.50138164290E-04 +7.58101406554E-01 -3.31758747202E-01
4.01000000000E+09 +6.34708894129E-01 -3.63564670820E-01 -1.70939238993E-04 -2.09255971434E-04 -1.33862242984E-04 -2.15454542823E-04 +7.48382588782E-01 -3.42195529099E-01
4.01500000000E+09 +6.25239161726E-01 -3.70216702677E-01 -1.69146752957E-04 -3.61517166733E-04 -1.98516637779E-04 -4.08561906108E-04 +7.38759407941E-01 -3.52038768846E-01
4.02000000000E+09 +6.14285488143E-01 -3.78254717917E-01 -4.19788299683E-04 -3.39396679087E-04 -4.20251131864E-04 -4.07586554381E-04 +7.28497221053E-01 -3.62162144593E-01
4.02500000000E+09 +6.02530390728E-01 -3.86952196436E-01 -5.39255508248E-04 -1.68089966660E-04 -5.69709265227E-04 -1.79962361172E-04 +7.17688498386E-01 -3.71638408144E-01
4.03000000000E+09 +5.91244209552E-01 -3.96568915618E-01 -3.51619614551E-04 +4.72624107996E-05 -4.07155480829E-04 +5.54480144263E-05 +7.06970076841E-01 -3.81122952399E-01
4.03500000000E+09 +5.80265026011E-01 -4.07638571597E-01 -2.16667461412E-04 +4.90751561601E-06 -3.35418851617E-04 -1.20614006231E-05 +6.95820564075E-01 -3.90979594728E-01
4.04000000000E+09 +5.69250091906E-01 -4.18527722151E-01 -1.66348453405E-04 +1.27563067993E-04 -2.39685290206E-04 +8.37201776746E-05 +6.84522282367E-01 -4.00930745384E-01
4.04500000000E+09 +5.58735165960E-01 -4.28639130721E-01 -6.06502407665E-05 -3.36097138438E-05 -7.43583875321E-05 -5.14007101237E-06 +6.72569269492E-01 -4.10770294049E-01
4.05000000000E+09 +5.48041548728E-01 -4.37340463902E-01 -1.22351939654E-04 -2.26432980288E-04 -9.10883049111E-05 -1.65294856300E-04 +6.60597757891E-01 -4.19397822801E-01
4.05500000000E+09 +5.37079450540E-01 -4.43677503471E-01 -3.06920997516E-04 -2.31282429615E-04 -2.75355588608E-04 -2.26068818608E-04 +6.48621230754E-01 -4.28243760486E-01
4.06000000000E+09 +5.26020727333E-01 -4.48538082744E-01 -2.50733278073E-04 -1.80196181001E-04 -2.75745523815E-04 -1.38699803945E-04 +6.35932367227E-01 -4.36570052974E-01
4.06500000000E+09 +5.13953636738E-01 -4.52167333783E-01 -3.78963916515E-04 -1.09867523705E-04 -3.17594757310E-04 -1.00526533014E-04 +6.22483853318E-01 -4.44822586447E-01
4.07000000000E+09 +5.00983323350E-01 -4.55946650557E-01 -3.50019931250E-04 +8.29847101071E-05 -2.76022244084E-04 +9.40613325153E-06 +6.08888932117E-01 -4.52987519970E-01
4.07500000000E+09 +4.86332267673E-01 -4.60361501033E-01 -2.49864888430E-04 -3.50351634730E-05 -1.78171518235E-04 -8.49598959171E-05 +5.94887952209E-01 -4.61213345628E-01
4.08000000000E+09 +4.69883451952E-01 -4.65018247334E-01 -4.26082762753E-04 -9.97643071986E-05 -4.32018258461E-04 -1.04458485418E-04 +5.81088936996E-01 -4.69148206039E-01
4.08500000000E+09 +4.53429084835E-01 -4.70017690332E-01 -4.75786257311E-04 +7.59952191725E-05 -4.42577658183E-04 +8.39096050099E-05 +5.66900185068E-01 -4.77267262251E-01
4.09000000000E+09 +4.36905757084E-01 -4.76848845596E-01 -1.73126163537E-04 +6.51961755068E-06 -1.41269995056E-04 +5.17506072741E-05 +5.52103761592E-01 -4.83896047033E-01
4.09500000000E+09 +4.20188727558E-01 -4.84007207981E-01 -4.46561014024E-04 -9.02817491491E-05 -4.38654953387E-04 -7.36200082148E-05 +5.37787216474E-01 -4.90446011770E-01
4.10000000000E+09 +4.02828387104E-01 -4.90877056160E-01 -5.26812417181E-04 -2.44879451601E-07 -4.53182709736E-04 -7.22299552489E-05 +5.21433055320E-01 -4.96831998314E-01
4.10500000000E+09 +3.85813018667E-01 -4.95532329934E-01 -7.15718728535E-04 +2.89424638038E-04 -7.26123308209E-04 +2.50635881204E-04 +5.05186587794E-01 -5.02224638585E-01
4.11000000000E+09 +3.69594737635E-01 -4.98025182473E-01 -5.24690425109E-04 +5.64168427083E-04 -5.01288864435E-04 +5.60571050157E-04 +4.88482514194E-01 -5.08050973523E-01
4.11500000000E+09 +3.55107103119E-01 -4.98695385447E-01 +3.87632801010E-05 +4.93637867802E-04 +5.67607678575E-05 +4.77790335015E-04 +4.71669078305E-01 -5.12980174202E-01
4.12000000000E+09 +3.40435287456E-01 -4.99633917553E-01 -2.47891586600E-04 -1.86932067135E-05 -2.38350656075E-04 -4.09011774287E-05 +4.55390978048E-01 -5.18130177345E-01
4.12500000000E+09 +3.24355128734E-01 -5.00609560126E-01 -5.18757195866E-04 +1.43217903469E-04 -5.11861446390E-04 +1.68465326288E-04 +4.37870765072E-01 -5.22614739492E-01
4.13000000000E+09 +3.06540098644E-01 -5.01731867281E-01 -5.60918489346E-04 +4.53219894262E-04 -5.88603265254E-04 +4.14365179284E-04 +4.21006862236E-01 -5.25675849949E-01
4.13500000000E+09 +2.86407387184E-01 -5.02975364169E-01 -5.06575407333E-04 +5.16866025315E-04 -5.78855313683E-04 +4.90232863064E-04 +4.03854829859E-01 -5.29105062634E-01
4.14000000000E+09 +2.66378540299E-01 -5.04196932930E-01 -2.40718471521E-04 +9.34994352656E-04 -2.58183377235E-04 +8.79911858917E-04 +3.85319319849E-01 -5.32098632758E-01
4.14500000000E+09 +2.46536736162E-01 -5.06873339031E-01 +3.03981384296E-04 +6.83630396199E-04 +3.02843219277E-04 +7.10497946392E-04 +3.67190235523E-01 -5.34889243057E-01
4.15000000000E+09 +2.26614224442E-01 -5.11160542413E-01 +1.40700507320E-04 +2.26257210387E-04 +9.39069261720E-05 +2.19405551979E-04 +3.48834449408E-01 -5.37209396271E-01
4.15500000000E+09 +2.06142530590E-01 -5.15290440452E-01 -2.85932839729E-04 +4.11965526538E-04 -4.15078928894E-04 +4.99192973703E-04 +3.30639075362E-01 -5.38663143863E-01
4.16000000000E+09 +1.86841820275E-01 -5.17703825842E-01 -6.04344917854E-05 +6.79253291453E-04 -5.97896423088E-05 +6.78329801098E-04 +3.12651975673E-01 -5.39658433675E-01
4.16500000000E+09 +1.69024144094E-01 -5.18276330111E-01 +7.13458432397E-05 +6.10476925080E-04 +7.49844010222E-05 +6.07664442050E-04 +2.93952296873E-01 -5.39477445696E-01
4.17000000000E+09 +1.52898529597E-01 -5.16555371803E-01 +2.88288098974E-04 +8.74736284844E-04 +2.34593196933E-04 +9.29730714492E-04 +2.75358121579E-01 -5.38656134095E-01
4.17500000000E+09 +1.38028684042E-01 -5.13950158047E-01 +5.64532808035E-04 +3.95985193223E-04 +5.58935545412E-04 +4.65449985967E-04 +2.56288827704E-01 -5.37395503735E-01
4.18000000000E+09 +1.22683050192E-01 -5.10116360392E-01 +3.34119717445E-04 +2.41277495350E-04 +3.80087046719E-04 +3.35914081946E-04 +2.36740484606E-01 -5.35796069743E-01
4.18500000000E+09 +1.06234859268E-01 -5.05288034515E-01 +1.79284875267E-04 +2.82495541209E-04 +1.96395123211E-04 +4.12439357943E-04 +2.17401252239E-01 -5.33564980180E-01
4.19000000000E+09 +8.87178132429E-02 -4.99710247567E-01 +2.76431354330E-04 +2.67284861754E-04 +3.26340097024E-04 +2.80958605154E-04 +1.98004256588E-01 -5.30837009592E-01
4.19500000000E+09 +7.02775027881E-02 -4.93984839847E-01 +6.70739349885E-05 +4.07901357688E-04 +1.29753433069E-04 +4.28592124675E-04 +1.78900522932E-01 -5.27254068902E-01
4.20000000000E+09 +5.14948254071E-02 -4.88624895611E-01 +2.88497709314E-04 +6.45016219228E-04 +3.03127027170E-04 +5.99318094300E-04 +1.59390959259E-01 -5.23670240445E-01
4.20500000000E+09 +3.23311059370E-02 -4.84102438153E-01 +6.05293737182E-04 +3.80718808419E-04 +5.81053262184E-04 +4.03041720220E-04 +1.39428219677E-01 -5.17820854871E-01
4.21000000000E+09 +1.35124850628E-02 -4.79992757786E-01 +3.06379069442E-04 +1.26917900530E-04 +3.62972206856E-04 +4.81739576619E-05 +1.20416306607E-01 -5.12134247127E-01
4.21500000000E+09 -5.53114017120E-03 -4.74877451408E-01 +2.05961165686E-04 +4.06101128165E-04 +2.17581568846E-04 +3.47208759795E-04 +1.01043680305E-01 -5.06075576692E-01
4.22000000000E+09 -2.28155487618E-02 -4.67805846195E-01 +6.15000065567E-04 +4.68621035801E-04 +6.33156576110E-04 +4.40411947600E-04 +8.24369497982E-02 -4.98872402403E-01
4.22500000000E+09 -3.78593566242E-02 -4.59536865044E-01 +3.91757566238E-04 +1.39836650450E-04 +4.50478028700E-04 +4.66618873528E-05 +6.44670110356E-02 -4.92191167633E-01
4.23000000000E+09 -5.27804693766E-02 -4.50104157125E-01 +4.00093913600E-04 +1.81556720785E-04 +4.35765214496E-04 +2.07896851086E-04 +4.57231497908E-02 -4.84534948500E-01
4.23500000000E+09 -6.71973280443E-02 -4.39091469313E-01 +1.42882811629E-04 +6.12175337053E-04 +1.13368314320E-04 +5.32011971228E-04 +2.77794987671E-02 -4.75649079847E-01
4.24000000000E+09 -8.23860648729E-02 -4.27050177312E-01 +8.90595759633E-04 +7.69039214357E-04 +8.81797424031E-04 +7.57063670938E-04 +9.78264040677E-03 -4.66451320773E-01
4.24500000000E+09 -9.96574941843E-02 -4.14760007568E-01 +1.34716243612E-03 +3.96205266901E-04 +1.26567634054E-03 +3.87592559005E-04 -8.34685143420E-03 -4.56174005706E-01
4.25000000000E+09 -1.18648414662E-01 -4.01413373938E-01 +1.32081037396E-03 -2.91130778362E-04 +1.24674849437E-03 -3.19670036261E-04 -2.55020076136E-02 -4.45177042686E-01
4.25500000000E+09 -1.38117147479E-01 -3.87771403609E-01 +8.23791122272E-04 -3.68731140397E-04 +7.94203633745E-04 -4.02958237335E-04 -4.29249581487E-02 -4.34371581030E-01
4.26000000000E+09 -1.57923637203E-01 -3.75628559845E-01 +6.40753443289E-04 -2.66499953436E-04 +6.23200692106E-04 -2.95366954499E-04 -6.01671347447E-02 -4.21755762092E-01
4.26500000000E+09 -1.77669446561E-01 -3.63192177884E-01 +7.83611665366E-04 -1.22632108241E-04 +7.58310847373E-04 -1.34741639364E-04 -7.56099597990E-02 -4.08695515793E-01
4.27000000000E+09 -1.95548008909E-01 -3.51306787920E-01 +9.95523333724E-04 -3.17617794631E-04 +8.95278565949E-04 -2.72267570108E-04 -9.18266971144E-02 -3.96050100873E-01
4.27500000000E+09 -2.11309316539E-01 -3.39476138035E-01 +1.00421869601E-03 -3.83703116652E-04 +1.03778464819E-03 -3.34525774467E-04 -1.08376691608E-01 -3.81831534511E-01
4.28000000000E+09 -2.24918509566E-01 -3.27260155560E-01 +1.03364364323E-03 -7.16171570614E-04 +1.03418152879E-03 -6.83666560140E-04 -1.23778893082E-01 -3.67295025553E-01
4.28500000000E+09 -2.37374059283E-01 -3.13432841178E-01 +7.20807036568E-04 -8.62427648406E-04 +7.31526019000E-04 -7.85502913259E-04 -1.39252997023E-01 -3.52923392252E-01
4.29000000000E+09 -2.48092318369E-01 -2.97856315329E-01 +8.02905340657E-04 -8.32408155633E-04 +8.04813672312E-04 -7.80701067458E-04 -1.54580844517E-01 -3.37687088641E-01
4.29500000000E+09 -2.58692877672E-01 -2.80131124801E-01 +6.27194855909E-04 -1.23507643824E-03 +5.90070418721E-04 -1.18527554465E-03 -1.68565198781E-01 -3.21217104785E-01
4.30000000000E+09 -2.68733766965E-01 -2.60814001741E-01 +2.83317133217E-04 -1.03045745000E-03 +3.32404719156E-04 -9.82586807853E-04 -1.81052242797E-01 -3.04452385957E-01
4.30500000000E+09 -2.79907787882E-01 -2.41385255929E-01 +3.36767397652E-04 -1.17316792717E-03 +4.09810638353E-04 -1.13368434827E-03 -1.92811429298E-01 -2.87570242527E-01
4.31000000000E+09 -2.92788141361E-01 -2.21366111332E-01 +2.27080764998E-04 -1.43712310173E-03 +3.54968973256E-04 -1.45358857251E-03 -2.03761040187E-01 -2.70367250261E-01
4.31500000000E+09 -3.06519284577E-01 -2.01618144813E-01 -2.98900945582E-04 -1.41286335586E-03 -1.72102563847E-04 -1.45217483710E-03 -2.14582523301E-01 -2.53166756303E-01
4.32000000000E+09 -3.20442213049E-01 -1.82424633971E-01 -5.43137318730E-04 -1.21140973816E-03 -4.71563641174E-04 -1.27252416367E-03 -2.25524008068E-01 -2.35218938660E-01
4.32500000000E+09 -3.32547282471E-01 -1.64200440524E-01 -3.71602010654E-04 -8.79713219417E-04 -3.83016870118E-04 -9.46593033353E-04 -2.34786276569E-01 -2.16821710221E-01
4.33000000000E+09 -3.42482397588E-01 -1.47333142171E-01 -4.16279562616E-04 -9.82942998708E-04 -4.29199213630E-04 -1.05782590256E-03 -2.44441907098E-01 -1.98536233087E-01
4.33500000000E+09 -3.50126881774E-01 -1.31251083676E-01 -4.73576855013E-04 -8.96469001671E-04 -4.36871411703E-04 -9.70368226221E-04 -2.53338821968E-01 -1.78713774490E-01
4.34000000000E+09 -3.55411632309E-01 -1.15488313081E-01 -7.27905383106E-04 -1.05733693461E-03 -7.95979378695E-04 -1.10062836420E-03 -2.60741855387E-01 -1.58685197007E-01
4.34500000000E+09 -3.58920339262E-01 -9.88627000798E-02 -8.46002145534E-04 -6.49858728534E-04 -9.34276258777E-04 -7.34853789091E-04 -2.67862548394E-01 -1.38799568635E-01
4.35000000000E+09 -3.61077123875E-01 -8.01789962223E-02 -7.26761311163E-04 -6.03139294798E-04 -7.72160839080E-04 -6.63782520534E-04 -2.74465519196E-01 -1.19178565283E-01
4.35500000000E+09 -3.63051169013E-01 -5.96231133660E-02 -8.45528653647E-04 -5.58837390097E-04 -9.23135758636E-04 -5.65522301544E-04 -2.80661451790E-01 -9.94858341587E-02
4.36000000000E+09 -3.64580408287E-01 -3.69369322865E-02 -9.68762902913E-04 -7.12651804419E-04 -1.08893941161E-03 -7.29099101050E-04 -2.86081979054E-01 -8.00563037338E-02
4.36500000000E+09 -3.66960412687E-01 -1.39880476797E-02 -1.12971165509E-03 -1.86069572580E-04 -1.16883245567E-03 -1.12834020020E-04 -2.90295134071E-01 -6.01926090374E-02
4.37000000000E+09 -3.70787697065E-01 +9.47716730874E-03 -8.33589882393E-04 -1.67584382756E-04 -9.52956124427E-04 -1.21137983472E-04 -2.93311161628E-01 -4.10889549758E-02
4.37500000000E+09 -3.75298962558E-01 +3.13580572655E-02 -8.31727444931E-04 -5.08900347816E-05 -9.17365684004E-04 +3.24223712181E-05 -2.96654407422E-01 -2.09224422216E-02
4.38000000000E+09 -3.80488444582E-01 +5.21744721035E-02 -6.95689034909E-04 -1.94802778838E-04 -7.56404097470E-04 -1.42058978647E-05 -2.98471057666E-01 +9.08250737422E-05
4.38500000000E+09 -3.84479651052E-01 +7.05307108813E-02 -7.35981810053E-04 -2.38066216683E-04 -7.28660790157E-04 -9.08651981847E-05 -2.99536989148E-01 +2.03890747717E-02
4.39000000000E+09 -3.87845376659E-01 +8.70636103989E-02 -9.07470802245E-04 -3.90834017104E-04 -8.44149365149E-04 -2.95593545760E-04 -3.00199940760E-01 +4.12201928292E-02
4.39500000000E+09 -3.88558341662E-01 +1.02326385934E-01 -1.07661726145E-03 -1.43343612162E-04 -1.00067034156E-03 -9.36660583168E-06 -3.00751353323E-01 +6.05707684234E-02
4.40000000000E+09 -3.86592239198E-01 +1.16889406957E-01 -1.33146973590E-03 -5.19142312501E-05 -1.25534242924E-03 -2.37077341449E-05 -3.00339074503E-01 +8.07772827561E-02
4.40500000000E+09 -3.83379733339E-01 +1.31502762043E-01 -1.32740896198E-03 +3.52741172464E-04 -1.24042287839E-03 +3.45100087859E-04 -2.98431262287E-01 +1.00273811881E-01
4.41000000000E+09 -3.78618862784E-01 +1.49004652580E-01 -1.16613634769E-03 +5.40917114819E-04 -1.04363269120E-03 +5.37641622023E-04 -2.96400907569E-01 +1.19554179544E-01
4.41500000000E+09 -3.72129913831E-01 +1.68465400136E-01 -8.67230697908E-04 +4.45458851944E-04 -7.62158901624E-04 +4.17398476580E-04 -2.92530146687E-01 +1.39247888138E-01
4.42000000000E+09 -3.65127421046E-01 +1.89285710467E-01 -1.04078629258E-03 +5.24379101016E-04 -9.43410533103E-04 +4.40838389370E-04 -2.88296142940E-01 +1.58536907227E-01
4.42500000000E+09 -3.58680545164E-01 +2.10737590717E-01 -1.04317978609E-03 +4.51058623139E-04 -9.75780667370E-04 +3.94956539793E-04 -2.83771418447E-01 +1.77153146778E-01
4.43000000000E+09 -3.54098085893E-01 +2.31950444091E-01 -1.36309694339E-03 +8.75498809669E-04 -1.34807308596E-03 +8.17082365869E-04 -2.79299421623E-01 +1.95268541360E-01
4.43500000000E+09 -3.50844674690E-01 +2.52379095149E-01 -1.11828246330E-03 +1.22236962920E-03 -1.11904858948E-03 +1.19737242688E-03 -2.75514494133E-01 +2.13168060418E-01
4.44000000000E+09 -3.48563867167E-01 +2.71871446505E-01 -8.14159967783E-04 +1.38179769988E-03 -9.02229795468E-04 +1.32761905359E-03 -2.70532331735E-01 +2.32221284006E-01
4.44500000000E+09 -3.45100294341E-01 +2.89232895592E-01 -4.03474283305E-04 +1.77145780043E-03 -4.50312833514E-04 +1.70271359956E-03 -2.63391936201E-01 +2.49619008102E-01
4.45000000000E+09 -3.40455657764E-01 +3.03471213653E-01 +1.47748188410E-04 +1.35725471473E-03 +9.69600661258E-05 +1.30504407675E-03 -2.56288608964E-01 +2.66053891820E-01
4.45500000000E+09 -3.35035581774E-01 +3.15873415682E-01 -6.57859600898E-05 +9.94133094093E-04 -1.04299264143E-04 +9.87402295234E-04 -2.48385802166E-01 +2.82482665388E-01
4.46000000000E+09 -3.27304238712E-01 +3.27804655740E-01 -1.92269282828E-04 +1.07276358179E-03 -2.17149943505E-04 +1.10429361544E-03 -2.40285529900E-01 +2.98259158674E-01
4.46500000000E+09 -3.18226391436E-01 +3.39935947658E-01 -5.21757391532E-05 +1.38424569723E-03 -8.04004758207E-05 +1.43562211296E-03 -2.31786310547E-01 +3.13712925548E-01
4.47000000000E+09 -3.07317387751E-01 +3.54115421798E-01 +2.40492765565E-04 +1.14839452371E-03 +2.21521763515E-04 +1.18457627112E-03 -2.23134271197E-01 +3.28922631790E-01
4.47500000000E+09 -2.94794986356E-01 +3.70085972919E-01 +1.17573938054E-04 +1.35564056193E-03 +1.16614740373E-04 +1.37854088490E-03 -2.14699295211E-01 +3.43797602118E-01
4.48000000000E+09 -2.81743206539E-01 +3.87184329810E-01 +4.68597929562E-04 +1.31597603034E-03 +4.81071334874E-04 +1.36484164157E-03 -2.05456280707E-01 +3.58862057704E-01
4.48500000000E+09 -2.69730702868E-01 +4.04176591306E-01 +5.75487244287E-04 +1.32594059695E-03 +6.13021782172E-04 +1.31129766809E-03 -1.95366179246E-01 +3.73155297092E-01
4.49000000000E+09 -2.59608944656E-01 +4.21110223090E-01 +1.01599340736E-03 +1.26415141217E-03 +1.03965643961E-03 +1.25021015522E-03 -1.84954089427E-01 +3.86361253303E-01
4.49500000000E+09 -2.51866080521E-01 +4.36863008090E-01 +1.06443438368E-03 +6.80414305994E-04 +1.12524894596E-03 +7.30462275527E-04 -1.74709489661E-01 +3.99078835249E-01
4.50000000000E+09 -2.45576959406E-01 +4.51424141777E-01 +7.19270219723E-04 +8.27966905954E-04 +6.92292788170E-04 +8.60397534192E-04 -1.64088135624E-01 +4.11689927169E-01
4.50500000000E+09 -2.39624169429E-01 +4.63476095294E-01 +9.92482974379E-04 +7.03596535414E-04 +1.06347530354E-03 +6.96723741261E-04 -1.53634055372E-01 +4.23866298530E-01
4.51000000000E+09 -2.33561923442E-01 +4.73244775536E-01 +8.96378903218E-04 +7.47083858497E-04 +9.24580678565E-04 +7.34937249334E-04 -1.42616827697E-01 +4.35710185371E-01
4.51500000000E+09 -2.26132243445E-01 +4.81456211272E-01 +1.04037127341E-03 +8.27240913709E-04 +1.12260773298E-03 +8.14497827535E-04 -1.32057225811E-01 +4.47070228678E-01
4.52000000000E+09 -2.16547883107E-01 +4.89148009033E-01 +1.43597296686E-03 +6.99950007632E-04 +1.41043726846E-03 +6.64895901267E-04 -1.21027699864E-01 +4.58018480481E-01
4.52500000000E+09 -2.04005592914E-01 +4.96455793271E-01 +1.49482411163E-03 +4.99404442079E-04 +1.50539368894E-03 +3.73409618787E-04 -1.09390572315E-01 +4.68643448264E-01
4.53000000000E+09 -1.89754281618E-01 +5.03943341810E-01 +1.81555395105E-03 -9.36074208591E-06 +1.78617126561E-03 -6.65261221924E-05 -9.74323091707E-02 +4.77705117938E-01
4.53500000000E+09 -1.74571659527E-01 +5.12750877793E-01 +1.38477124655E-03 -1.88141370803E-04 +1.29966185675E-03 -2.68442635254E-04 -8.54142962726E-02 +4.87224050031E-01
4.54000000000E+09 -1.59135537061E-01 +5.22502736180E-01 +1.32769255341E-03 -2.45880940122E-04 +1.28949401471E-03 -3.35152156658E-04 -7.27541342062E-02 +4.96164029161E-01
4.54500000000E+09 -1.44428305947E-01 +5.33182436362E-01 +1.28542558193E-03 -3.07407384439E-04 +1.28397873175E-03 -3.26800330228E-04 -6.10167593091E-02 +5.04716153254E-01
4.55000000000E+09 -1.31539396951E-01 +5.43867175694E-01 +1.36300500074E-03 -5.48205379236E-04 +1.24069666413E-03 -5.81178331830E-04 -4.84851256875E-02 +5.13538603811E-01
4.55500000000E+09 -1.20526052578E-01 +5.54044646491E-01 +1.15620821996E-03 -7.15795094459E-04 +1.10467201339E-03 -7.19295555966E-04 -3.68267222312E-02 +5.21829862538E-01
4.56000000000E+09 -1.10606515413E-01 +5.62665261822E-01 +9.09544411279E-04 -6.73493587778E-04 +8.97711585217E-04 -6.69024732998E-04 -2.42753497912E-02 +5.29522177941E-01
4.56500000000E+09 -1.01952315988E-01 +5.69274388941E-01 +1.22628882150E-03 -8.18115020181E-04 +1.19404113009E-03 -7.79458835766E-04 -1.22382465059E-02 +5.36361594166E-01
4.57000000000E+09 -9.37051972815E-02 +5.74307989661E-01 +1.00375115284E-03 -1.18346791406E-03 +9.18244041858E-04 -1.19359916005E-03 -2.75808859422E-04 +5.43354588109E-01
