# Hz S RI R 50
! CMT, C1220, 16058040, 17.2.0/1
! Date: 15/08/2018 12:27:14
! Data: Format (Calibration Info)
! Freq                      S11: Re/Im (F2)                       S21: Re/Im (F2)                       S12: Re/Im (F2)                       S22: Re/Im (F2)            
4.00000000000E+09 +6.59630157486E-01 -3.59400290421E-01 -7.83633442251E-05 -6.56264938856E-04 -3.86185278930E-05 -7.04692109357E-04 +7.83655256202E-01 -3.17682529532E-01
4.00500000000E+09 +6.51847016881E-01 -3.65830916782E-01 -3.67436775177E-05 -6.82819154018E-04 -2.81860898666E-05 -6.66326689957E-04 +7.75146569182E-01 -3.29328588077E-01
4.01000000000E+09 +6.42991614492E-01 -3.71940401511E-01 -2.41583462909E-04 -8.08642104447E-04 -1.96445544059E-04 -7.86796839954E-04 +7.66201224513E-01 -3.41184675720E-01
4.01500000000E+09 +6.33973838460E-01 -3.78281014416E-01 -1.91991426709E-04 -5.96270052897E-04 -1.31810721566E-04 -6.06451773741E-04 +7.57436609889E-01 -3.52093660352E-01
4.02000000000E+09 +6.24002576902E-01 -3.86400190349E-01 -1.88686218614E-04 -7.70779076179E-04 -1.70780176792E-04 -7.66406820689E-04 +7.48413527530E-01 -3.62684341941E-01
4.02500000000E+09 +6.13127029017E-01 -3.95783554365E-01 -3.13826382653E-04 -8.00030503458E-04 -3.37984331095E-04 -8.33908316508E-04 +7.38895516080E-01 -3.72636127046E-01
4.03000000000E+09 +6.01391803852E-01 -4.05632464145E-01 -5.94057377153E-04 -7.78548476158E-04 -5.87361335996E-04 -8.47491271525E-04 +7.29169005091E-01 -3.83057900589E-01
4.03500000000E+09 +5.89979699006E-01 -4.15744524175E-01 -7.02530004436E-04 -6.15309969649E-04 -6.63258586222E-04 -7.12795887310E-04 +7.18121862821E-01 -3.94046971409E-01
4.04000000000E+09 +5.78887468305E-01 -4.26086762794E-01 -9.05090688409E-04 -4.67141114696E-04 -8.47276644953E-04 -5.42455823558E-04 +7.07414750280E-01 -4.05151992441E-01
4.04500000000E+09 +5.66872014155E-01 -4.35727284564E-01 -7.08493277616E-04 -1.11832954580E-04 -7.20539534964E-04 -1.33554883869E-04 +6.96842078751E-01 -4.16384563765E-01
4.05000000000E+09 +5.55433099833E-01 -4.42927570959E-01 -4.18073832056E-04 -1.66857253455E-04 -4.11800338691E-04 -2.02950706153E-04 +6.85885822086E-01 -4.27335675287E-01
4.05500000000E+09 +5.43943053874E-01 -4.49518517897E-01 -4.26577691143E-04 -3.45934793550E-04 -4.68567585704E-04 -3.63246983451E-04 +6.74596047885E-01 -4.36884893884E-01
4.06000000000E+09 +5.31271977185E-01 -4.54622489729E-01 -5.39764852598E-04 -4.89675692669E-04 -5.67344540817E-04 -4.60949418607E-04 +6.63399416353E-01 -4.46374329587E-01
4.06500000000E+09 +5.18499732840E-01 -4.58270583125E-01 -7.86235153880E-04 -3.88835975919E-04 -7.78726699196E-04 -4.26593504074E-04 +6.50696502066E-01 -4.55743114094E-01
4.07000000000E+09 +5.04974860998E-01 -4.62681622701E-01 -8.41220656606E-04 -1.88912818681E-04 -8.37176761249E-04 -2.23403820603E-04 +6.37553733488E-01 -4.65579497353E-01
4.07500000000E+09 +4.90057874128E-01 -4.67537391192E-01 -8.07883478940E-04 -1.45317015574E-04 -8.43792101847E-04 -1.64386897445E-04 +6.23766958725E-01 -4.75969290630E-01
4.08000000000E+09 +4.74004351843E-01 -4.72899593571E-01 -8.83793850899E-04 -2.35366944028E-05 -9.21677462420E-04 -5.22947747037E-05 +6.10023627979E-01 -4.85617323429E-01
4.08500000000E+09 +4.57463839982E-01 -4.78470382889E-01 -7.26363317774E-04 +2.51583745721E-04 -7.82629715017E-04 +2.22931555179E-04 +5.96763516758E-01 -4.95255894142E-01
4.09000000000E+09 +4.41027646650E-01 -4.85060784868E-01 -5.69144832934E-04 -1.76827922067E-05 -6.16293885784E-04 -8.62545024388E-06 +5.82768500367E-01 -5.03971503809E-01
4.09500000000E+09 +4.24336748062E-01 -4.91842259426E-01 -7.32112935469E-04 -6.09880090981E-05 -7.53408353583E-04 -1.07292107410E-04 +5.68607564784E-01 -5.11750424782E-01
4.10000000000E+09 +4.07173863802E-01 -4.97458364729E-01 -8.71301462208E-04 -7.28242932878E-05 -9.28419626935E-04 +6.59803293045E-06 +5.53740711153E-01 -5.19791389143E-01
4.10500000000E+09 +3.91171496293E-01 -5.01722332763E-01 -1.14023982106E-03 +1.04778922605E-04 -1.19681434315E-03 +1.00485781346E-04 +5.37375295860E-01 -5.27546821650E-01
4.11000000000E+09 +3.75105359143E-01 -5.04997033690E-01 -1.11446650820E-03 +4.90376681441E-04 -1.16302658718E-03 +4.59773908602E-04 +5.21005921336E-01 -5.35211750217E-01
4.11500000000E+09 +3.58848068350E-01 -5.06542074741E-01 -9.51395861126E-04 +7.53164312375E-04 -1.00516561412E-03 +7.17141101939E-04 +5.04746783485E-01 -5.42709423316E-01
4.12000000000E+09 +3.42489942972E-01 -5.06935451848E-01 -7.68302682596E-04 +8.13585209196E-04 -7.96667207855E-04 +8.70287182093E-04 +4.88597930269E-01 -5.49875093216E-01
4.12500000000E+09 +3.26149739171E-01 -5.06931106560E-01 -6.06892857196E-04 +9.05318624954E-04 -6.26414246833E-04 +9.36400701593E-04 +4.72196006388E-01 -5.56199264267E-01
4.13000000000E+09 +3.08474034569E-01 -5.08871812371E-01 -4.53901884527E-04 +5.75194634021E-04 -4.46209163365E-04 +5.41209042071E-04 +4.55441648959E-01 -5.62579427212E-01
4.13500000000E+09 +2.89193287826E-01 -5.10295435516E-01 -8.00550160086E-04 +7.16004770451E-04 -8.33046404897E-04 +6.65730591378E-04 +4.37332677052E-01 -5.68493054565E-01
4.14000000000E+09 +2.70211414643E-01 -5.13033936035E-01 -8.31216666659E-04 +9.65841946242E-04 -9.03099050630E-04 +9.87250949591E-04 +4.18518709802E-01 -5.74246405286E-01
4.14500000000E+09 +2.49717261399E-01 -5.17355371363E-01 -7.63541948982E-04 +1.27078543235E-03 -8.13770602297E-04 +1.33308737285E-03 +3.99743005728E-01 -5.79588641876E-01
4.15000000000E+09 +2.29278176406E-01 -5.19846747750E-01 -3.92205802507E-04 +1.67254319385E-03 -4.72464950165E-04 +1.73239958959E-03 +3.81731371953E-01 -5.84783036501E-01
4.15500000000E+09 +2.10372924095E-01 -5.22573762903E-01 +5.64187893410E-05 +1.69698722801E-03 -4.37116971508E-05 +1.75003827833E-03 +3.63126266532E-01 -5.89327349159E-01
4.16000000000E+09 +1.92308972728E-01 -5.24544797075E-01 +4.98707463298E-04 +1.53835747074E-03 +5.37557785783E-04 +1.59206989592E-03 +3.45026735156E-01 -5.91895393855E-01
4.16500000000E+09 +1.74707088718E-01 -5.24102538366E-01 +6.43322924080E-04 +1.08111817960E-03 +6.77210180337E-04 +1.06751649910E-03 +3.26181271139E-01 -5.95158706954E-01
4.17000000000E+09 +1.58160442280E-01 -5.21811107583E-01 +2.79688153538E-04 +1.12396586521E-03 +2.98700878552E-04 +1.15306879547E-03 +3.06231111407E-01 -5.97491493064E-01
4.17500000000E+09 +1.42795698940E-01 -5.17327611845E-01 +7.78809421728E-04 +1.20905442442E-03 +7.70865340081E-04 +1.19759079751E-03 +2.85014799857E-01 -5.99461646903E-01
4.18000000000E+09 +1.26999280018E-01 -5.12953548120E-01 +8.57890904769E-04 +6.16588135840E-04 +8.63165262886E-04 +6.56431592683E-04 +2.64195037012E-01 -6.01182126603E-01
4.18500000000E+09 +1.09566311866E-01 -5.07264536533E-01 +2.67498286982E-04 +9.63392240889E-04 +2.92547906824E-04 +9.74982197142E-04 +2.42938608687E-01 -6.02033512906E-01
4.19000000000E+09 +9.18181447984E-02 -5.01475506998E-01 +9.61472661186E-04 +1.31428871040E-03 +9.37564151368E-04 +1.34494122292E-03 +2.22524594376E-01 -6.01689896821E-01
4.19500000000E+09 +7.24916806660E-02 -4.96307054327E-01 +1.22876793712E-03 +6.40153599982E-04 +1.29222296141E-03 +6.62171110329E-04 +2.01915237095E-01 -6.00298114212E-01
4.20000000000E+09 +5.26058404800E-02 -4.90285029546E-01 +1.08450419065E-03 +6.94709797199E-04 +1.06353955027E-03 +7.33663086482E-04 +1.81545199324E-01 -5.98310254189E-01
4.20500000000E+09 +3.36862395045E-02 -4.84966865927E-01 +1.57502490201E-03 +4.30763975278E-04 +1.60994715650E-03 +4.90502077225E-04 +1.59588517543E-01 -5.96268299209E-01
4.21000000000E+09 +1.54363872844E-02 -4.80086173857E-01 +1.40752303560E-03 -2.22897651165E-04 +1.47237606720E-03 -2.12571995382E-04 +1.37511536867E-01 -5.93748008513E-01
4.21500000000E+09 -2.03286590911E-03 -4.74555166840E-01 +9.57509054399E-04 -1.42564882256E-04 +1.01148857360E-03 -8.45667651711E-05 +1.15794890013E-01 -5.91343824639E-01
4.22000000000E+09 -1.86873662103E-02 -4.67576999774E-01 +8.17622107785E-04 -2.18216422436E-04 +8.54442592847E-04 -2.66316424603E-04 +9.40460471268E-02 -5.88509193002E-01
4.22500000000E+09 -3.35662126694E-02 -4.58598326458E-01 +9.70796234817E-04 +3.43111887449E-05 +1.00226708217E-03 +4.66201393150E-05 +7.26171096782E-02 -5.83901348825E-01
4.23000000000E+09 -4.78111110518E-02 -4.48972723698E-01 +9.69356682243E-04 -4.60588148777E-04 +9.92938763437E-04 -4.56133198244E-04 +5.19380850842E-02 -5.78483182779E-01
4.23500000000E+09 -6.31806861329E-02 -4.37021393255E-01 +4.78019137150E-04 -3.56179633198E-04 +4.95099825668E-04 -3.29135946847E-04 +3.01465094318E-02 -5.71876022876E-01
4.24000000000E+09 -7.86560992774E-02 -4.23576961334E-01 +6.30144447189E-04 +1.32516114134E-04 +6.23544983793E-04 +1.11068971209E-04 +8.29270200148E-03 -5.64029010496E-01
4.24500000000E+09 -9.54767174856E-02 -4.10931519802E-01 +1.16946774630E-03 -1.47229254222E-04 +1.19588706026E-03 -1.47150312123E-04 -1.42689342934E-02 -5.56549163103E-01
4.25000000000E+09 -1.14914050713E-01 -3.97381017540E-01 +8.57738533908E-04 -7.04953300813E-04 +8.79746810194E-04 -7.43400132600E-04 -3.68234474205E-02 -5.47679618576E-01
4.25500000000E+09 -1.34796421326E-01 -3.84215741112E-01 +6.43678289307E-04 -3.44701560756E-04 +6.29933785821E-04 -3.30199936367E-04 -5.76920586151E-02 -5.37773822374E-01
4.26000000000E+09 -1.54759550021E-01 -3.71682997027E-01 +9.21695649431E-04 -5.74550306635E-04 +9.22164180856E-04 -5.94836191214E-04 -7.83667138515E-02 -5.27298258803E-01
4.26500000000E+09 -1.74718252470E-01 -3.59530589436E-01 +6.23294550448E-04 -9.35188269166E-04 +5.40188365605E-04 -1.02524955978E-03 -9.80558796202E-02 -5.15883815186E-01
4.27000000000E+09 -1.92238674377E-01 -3.47518184514E-01 +2.20354581837E-04 -6.58066798988E-04 +2.41324011909E-04 -6.51658251503E-04 -1.19493710669E-01 -5.03900485120E-01
4.27500000000E+09 -2.07648645490E-01 -3.35541582583E-01 +4.20164462422E-04 -7.22455768703E-04 +4.04607536295E-04 -6.93058096671E-04 -1.40812518527E-01 -4.88864307035E-01
4.28000000000E+09 -2.20327532807E-01 -3.23014340472E-01 -7.62689028843E-05 -5.92960975301E-04 -8.54541157798E-05 -6.61574139990E-04 -1.60581695274E-01 -4.74477928544E-01
4.28500000000E+09 -2.31913782059E-01 -3.09386238786E-01 +3.59636612211E-04 -2.38247157404E-04 +3.48235832394E-04 -2.48518970197E-04 -1.80648186289E-01 -4.60357142625E-01
4.29000000000E+09 -2.42116322166E-01 -2.93146366819E-01 +2.99536048083E-04 -5.02472415269E-04 +3.33309266216E-04 -5.19305106910E-04 -1.99567229484E-01 -4.45298494812E-01
4.29500000000E+09 -2.51500079300E-01 -2.76103398178E-01 +4.92450838252E-04 -5.42559916645E-04 +5.00092269911E-04 -5.17615249348E-04 -2.17239808456E-01 -4.30118290006E-01
4.30000000000E+09 -2.62102168519E-01 -2.57031073164E-01 +3.49493948554E-04 -9.28079893027E-04 +3.63598558864E-04 -9.77069960715E-04 -2.34620147813E-01 -4.13674566422E-01
4.30500000000E+09 -2.73642528770E-01 -2.37084819388E-01 -1.36205271503E-04 -8.18455512081E-04 -1.52861426487E-04 -8.50883942528E-04 -2.51350899864E-01 -3.95894934010E-01
4.31000000000E+09 -2.86169237794E-01 -2.16440092209E-01 -8.86840375281E-05 -3.33221194714E-04 -6.48147446677E-05 -3.54258505472E-04 -2.67567623527E-01 -3.77994722788E-01
4.31500000000E+09 -2.99153305854E-01 -1.96134725068E-01 -1.02505344639E-04 -3.87483158561E-04 -9.15341921436E-05 -4.15722164030E-04 -2.84135184709E-01 -3.59170933488E-01
4.32000000000E+09 -3.11450347805E-01 -1.77741896694E-01 +1.94036634991E-04 +4.73591586657E-06 +1.96706999478E-04 +4.09187349529E-05 -2.99400492233E-01 -3.39734432915E-01
4.32500000000E+09 -3.23519530189E-01 -1.60316279182E-01 +9.22071839280E-04 -6.46685842743E-04 +9.19892587871E-04 -5.87700697444E-04 -3.14749642341E-01 -3.20206375169E-01
4.33000000000E+09 -3.32776063689E-01 -1.43781234434E-01 +3.74227414661E-05 -9.35377462099E-04 +3.16175155693E-05 -9.56545843220E-04 -3.28424083419E-01 -2.98594049092E-01
4.33500000000E+09 -3.40912294780E-01 -1.28974942732E-01 +3.01883321681E-04 -4.41580329784E-04 +3.01191791031E-04 -4.19461343976E-04 -3.41313209156E-01 -2.77336787493E-01
4.34000000000E+09 -3.46513291656E-01 -1.12145809586E-01 +4.87305616352E-04 -8.56731575065E-04 +4.52365300090E-04 -8.82083363125E-04 -3.54101731284E-01 -2.53655253005E-01
4.34500000000E+09 -3.48524406939E-01 -9.49420720476E-02 -2.99042810696E-05 -1.21174077309E-03 -5.96842750887E-05 -1.16761291373E-03 -3.65269614850E-01 -2.30877159645E-01
4.35000000000E+09 -3.50781782389E-01 -7.67364920558E-02 -4.92364467599E-05 -5.89267254562E-04 -7.05015483013E-05 -5.77470790111E-04 -3.76873532361E-01 -2.07790100471E-01
4.35500000000E+09 -3.51474377524E-01 -5.58096651537E-02 +2.49482350668E-04 -8.24598797911E-04 +2.55946972259E-04 -8.71474518881E-04 -3.87019372286E-01 -1.84123871707E-01
4.36000000000E+09 -3.52977501258E-01 -3.42607418684E-02 +9.60492193339E-05 -1.00965119178E-03 +1.43727431380E-04 -1.04533512120E-03 -3.95339870733E-01 -1.61018803900E-01
4.36500000000E+09 -3.56196890399E-01 -1.11438091398E-02 +9.32375256028E-05 -1.08469842901E-03 +1.40331819566E-04 -1.11191589206E-03 -4.03035128911E-01 -1.37498856428E-01
4.37000000000E+09 -3.59569729311E-01 +1.21009921755E-02 +3.20134449723E-06 -1.17033315069E-03 -4.03762253865E-05 -1.19119048597E-03 -4.08616142920E-01 -1.13227509604E-01
4.37500000000E+09 -3.64582832572E-01 +3.41293371740E-02 +1.76362862802E-04 -1.69647919044E-03 +1.38950491357E-04 -1.76030319645E-03 -4.14030937026E-01 -8.88062727023E-02
4.38000000000E+09 -3.69414248873E-01 +5.54205695530E-02 -8.58459771453E-04 -1.95968233252E-03 -9.25064323232E-04 -1.96793895228E-03 -4.18222008304E-01 -6.45314292220E-02
4.38500000000E+09 -3.73214221547E-01 +7.31385403390E-02 -1.25223648155E-03 -1.30566607126E-03 -1.28764069947E-03 -1.31919729194E-03 -4.22423009038E-01 -4.01293940882E-02
4.39000000000E+09 -3.76752721401E-01 +8.98618539255E-02 -9.15294872018E-04 -1.10128728239E-03 -9.45292618776E-04 -1.02531845290E-03 -4.25237575546E-01 -1.56860985777E-02
4.39500000000E+09 -3.76910753018E-01 +1.05495885497E-01 -1.21419961480E-03 -1.32379629162E-03 -1.24392969370E-03 -1.34446396040E-03 -4.27197007000E-01 +8.66123366684E-03
4.40000000000E+09 -3.74911922414E-01 +1.20031564496E-01 -1.22262630084E-03 -9.56062443853E-04 -1.24916150107E-03 -1.01955819734E-03 -4.27164675102E-01 +3.26130742895E-02
4.40500000000E+09 -3.70966605940E-01 +1.35016789372E-01 -1.55518159130E-03 -1.28275622700E-03 -1.56788899943E-03 -1.23920416508E-03 -4.27224875697E-01 +5.62812284441E-02
4.41000000000E+09 -3.66243383293E-01 +1.51066799316E-01 -1.77125498115E-03 -9.33962180105E-04 -1.83748030126E-03 -9.05392026466E-04 -4.26267164502E-01 +8.08630897328E-02
4.41500000000E+09 -3.60693943784E-01 +1.70763364330E-01 -1.93356319232E-03 -8.66052101675E-04 -1.91871915600E-03 -8.33658160312E-04 -4.24940493979E-01 +1.04930902412E-01
4.42000000000E+09 -3.54424357884E-01 +1.91778917606E-01 -2.49072508836E-03 -7.52103491422E-04 -2.46381421157E-03 -6.14134416077E-04 -4.22484819778E-01 +1.30157559039E-01
4.42500000000E+09 -3.49405053022E-01 +2.14179463132E-01 -2.56309529620E-03 -2.65296383433E-06 -2.53022906707E-03 +6.93788759848E-05 -4.17035740529E-01 +1.53352199845E-01
4.43000000000E+09 -3.44421304134E-01 +2.36562240125E-01 -2.49640719654E-03 +4.33077841216E-04 -2.41366885376E-03 +4.67528834088E-04 -4.13403514697E-01 +1.75551763206E-01
4.43500000000E+09 -3.40552066162E-01 +2.57241721680E-01 -2.49603645876E-03 +7.03100084903E-04 -2.48294572160E-03 +7.39856367564E-04 -4.07138862631E-01 +1.99441182570E-01
4.44000000000E+09 -3.37688773020E-01 +2.75491899205E-01 -2.12432488240E-03 +1.27448906087E-03 -2.08523164939E-03 +1.19932803135E-03 -4.00742336265E-01 +2.21106129135E-01
4.44500000000E+09 -3.35648461348E-01 +2.91691732576E-01 -1.97163046377E-03 +1.04765383127E-03 -1.99138057585E-03 +1.05507867199E-03 -3.93956819093E-01 +2.43392398106E-01
4.45000000000E+09 -3.33200761727E-01 +3.06193463658E-01 -2.07985193277E-03 +1.41008295654E-03 -2.07192859495E-03 +1.40753459850E-03 -3.86885264881E-01 +2.64569489395E-01
4.45500000000E+09 -3.28339442888E-01 +3.19792972819E-01 -2.02862225030E-03 +1.81047058356E-03 -2.02271086909E-03 +1.87371109753E-03 -3.78056148040E-01 +2.85016843748E-01
4.46000000000E+09 -3.21036868783E-01 +3.32066760765E-01 -1.65394089092E-03 +1.96962080206E-03 -1.58638303516E-03 +1.98403592605E-03 -3.69563018368E-01 +3.03976796483E-01
4.46500000000E+09 -3.12069589001E-01 +3.44919182206E-01 -1.48929736044E-03 +2.31286496988E-03 -1.42944246148E-03 +2.27709972594E-03 -3.59514720048E-01 +3.23520998658E-01
4.47000000000E+09 -3.00798915543E-01 +3.59048465427E-01 -1.01156851412E-03 +2.57605002659E-03 -9.21318173200E-04 +2.64309430179E-03 -3.48495488761E-01 +3.42118517775E-01
4.47500000000E+09 -2.88487863605E-01 +3.73924668632E-01 -7.34518656805E-04 +2.62317286539E-03 -6.77847500949E-04 +2.60777762887E-03 -3.37899386187E-01 +3.61026823320E-01
4.48000000000E+09 -2.76596100533E-01 +3.90989844507E-01 -2.03446087367E-04 +2.78597726740E-03 -1.11149447967E-04 +2.75619398995E-03 -3.25981246451E-01 +3.79430247167E-01
4.48500000000E+09 -2.64517329439E-01 +4.07905007206E-01 -1.66837553129E-04 +2.49522744513E-03 -1.07015198566E-04 +2.41444575093E-03 -3.14711448865E-01 +3.96675125629E-01
4.49000000000E+09 -2.55182493351E-01 +4.24805855583E-01 +1.77990369975E-04 +2.89451815118E-03 +1.56431147354E-04 +2.85979854590E-03 -3.02954320576E-01 +4.12870907682E-01
4.49500000000E+09 -2.46781700119E-01 +4.40936237249E-01 +7.06739582049E-04 +2.69089978538E-03 +7.12509564486E-04 +2.63038803176E-03 -2.91768916789E-01 +4.28182787140E-01
4.50000000000E+09 -2.40485109860E-01 +4.54700396058E-01 +7.61198797086E-04 +2.77833895518E-03 +7.75567062008E-04 +2.76078127728E-03 -2.79428904576E-01 +4.43969013323E-01
4.50500000000E+09 -2.35010589760E-01 +4.67223296331E-01 +1.54659163297E-03 +2.68933494924E-03 +1.56681602665E-03 +2.64988698176E-03 -2.66247486397E-01 +4.58596730589E-01
4.51000000000E+09 -2.28281960663E-01 +4.76507842021E-01 +1.82132576668E-03 +2.02846942678E-03 +1.82834522867E-03 +1.97043657447E-03 -2.52952645499E-01 +4.73326584374E-01
4.51500000000E+09 -2.21736950853E-01 +4.84461715712E-01 +1.79853734572E-03 +2.04163767657E-03 +1.81941463080E-03 +2.00321605031E-03 -2.39364631986E-01 +4.87683050912E-01
4.52000000000E+09 -2.12063293533E-01 +4.92209504187E-01 +2.20187261140E-03 +1.79915662444E-03 +2.19191202957E-03 +1.68388713217E-03 -2.26195749000E-01 +5.01106156389E-01
4.52500000000E+09 -2.00437069164E-01 +4.98791256109E-01 +2.19423082489E-03 +1.44452343358E-03 +2.19167272320E-03 +1.33197424793E-03 -2.12160762808E-01 +5.13657084230E-01
4.53000000000E+09 -1.87007325448E-01 +5.07210469821E-01 +2.37654859295E-03 +1.37461402831E-03 +2.35814987123E-03 +1.30667942589E-03 -1.98149969921E-01 +5.25061572982E-01
4.53500000000E+09 -1.71315425845E-01 +5.15788865656E-01 +2.40286502200E-03 +9.73684819422E-04 +2.42434258023E-03 +8.47699778174E-04 -1.83680033975E-01 +5.36665475470E-01
4.54000000000E+09 -1.55903676957E-01 +5.25635745284E-01 +2.73458550089E-03 +9.51793797561E-04 +2.71351231158E-03 +8.65322650409E-04 -1.67551205406E-01 +5.47326762620E-01
4.54500000000E+09 -1.40610884138E-01 +5.36410968470E-01 +2.94655448831E-03 +2.82710290803E-04 +2.92797358961E-03 +1.87037534920E-04 -1.52809122246E-01 +5.57063275918E-01
4.55000000000E+09 -1.27580718275E-01 +5.46687794283E-01 +3.02049865145E-03 -1.78222196167E-05 +2.94062943626E-03 -4.74456000855E-05 -1.38044663513E-01 +5.67557720349E-01
4.55500000000E+09 -1.16049830593E-01 +5.57475625138E-01 +2.88328458344E-03 -7.27684862138E-04 +2.79974816627E-03 -7.55252477503E-04 -1.23478227111E-01 +5.77155810403E-01
4.56000000000E+09 -1.05607509110E-01 +5.66471194959E-01 +2.43036817593E-03 -9.65776841865E-04 +2.33730537313E-03 -9.36788023847E-04 -1.08680730649E-01 +5.85710431803E-01
4.56500000000E+09 -9.67929444656E-02 +5.74109180057E-01 +2.28019484972E-03 -1.08135529874E-03 +2.18116753809E-03 -1.06756566646E-03 -9.46291379309E-02 +5.94123140059E-01
4.57000000000E+09 -8.76077650829E-02 +5.80510257635E-01 +2.20395140856E-03 -1.18062789005E-03 +2.12157508331E-03 -1.25528999769E-03 -7.90599779631E-02 +6.02305356280E-01
