# Hz S RI R 50
! CMT, C1220, 16058040, 17.2.0/1
! Date: 15/08/2018 12:03:26
! Data: Format (Calibration Info)
! Freq                      S11: Re/Im (F2)                       S21: Re/Im (F2)                       S12: Re/Im (F2)                       S22: Re/Im (F2)            
4.00000000000E+09 +6.66166099035E-01 -3.40242080516E-01 +1.91191403482E-03 -4.24227361984E-04 +1.94874808210E-03 -3.79714830354E-04 +7.76770152108E-01 -3.40432176951E-01
4.00500000000E+09 +6.58390397279E-01 -3.46485690617E-01 +1.71875111018E-03 -4.56913252195E-04 +1.75416808573E-03 -3.42747598459E-04 +7.68209977603E-01 -3.52079323618E-01
4.01000000000E+09 +6.49666476494E-01 -3.52857732382E-01 +1.62256798555E-03 -5.62318477262E-04 +1.64490476921E-03 -4.36674522393E-04 +7.58741611913E-01 -3.63453369752E-01
4.01500000000E+09 +6.39349250665E-01 -3.59631849501E-01 +1.71328597069E-03 -4.98637495006E-04 +1.71843018674E-03 -4.10657652039E-04 +7.49211418210E-01 -3.73806684369E-01
4.02000000000E+09 +6.28579211895E-01 -3.66995878163E-01 +1.92142638398E-03 -7.70989189167E-04 +2.07667555781E-03 -6.53316340222E-04 +7.39361016291E-01 -3.84280768910E-01
4.02500000000E+09 +6.17614653854E-01 -3.75922036234E-01 +1.93251516479E-03 -1.17748079407E-03 +2.05986727698E-03 -1.14399632724E-03 +7.29253544016E-01 -3.94615852895E-01
4.03000000000E+09 +6.05722634815E-01 -3.86129987767E-01 +1.63704119478E-03 -1.58118491974E-03 +1.77286477757E-03 -1.61781857909E-03 +7.18741121053E-01 -4.04700512082E-01
4.03500000000E+09 +5.94263115719E-01 -3.96600096165E-01 +1.18568740254E-03 -1.51226980775E-03 +1.29270666012E-03 -1.51579015657E-03 +7.07852631227E-01 -4.15347172888E-01
4.04000000000E+09 +5.83162768098E-01 -4.07436384095E-01 +1.14831234883E-03 -1.46855855551E-03 +1.30506297006E-03 -1.48106768732E-03 +6.96943293852E-01 -4.26049776910E-01
4.04500000000E+09 +5.72210988989E-01 -4.17914409969E-01 +1.04163945407E-03 -1.35869858729E-03 +1.17866166912E-03 -1.42150563911E-03 +6.85541593314E-01 -4.36745896872E-01
4.05000000000E+09 +5.61114834848E-01 -4.26861782415E-01 +1.32092786823E-03 -1.56993949071E-03 +1.40919052716E-03 -1.67130791005E-03 +6.74039713172E-01 -4.46585440977E-01
4.05500000000E+09 +5.49403121465E-01 -4.34230822719E-01 +1.15232842004E-03 -1.90724436431E-03 +1.30899735412E-03 -1.97346761880E-03 +6.62458401632E-01 -4.56227828988E-01
4.06000000000E+09 +5.37296077357E-01 -4.39828857521E-01 +1.01969934070E-03 -2.03909094082E-03 +1.12543638867E-03 -2.12195785100E-03 +6.50132474269E-01 -4.66248022225E-01
4.06500000000E+09 +5.24900333950E-01 -4.43998706963E-01 +8.02327831217E-04 -2.12410264875E-03 +8.16052426069E-04 -2.20783117843E-03 +6.37074713380E-01 -4.75375717213E-01
4.07000000000E+09 +5.11702373005E-01 -4.48276020521E-01 +7.24340644737E-04 -2.34412240025E-03 +7.87780730393E-04 -2.41468297414E-03 +6.23234025989E-01 -4.85016419697E-01
4.07500000000E+09 +4.97518890067E-01 -4.53232742388E-01 +3.92064181784E-04 -2.58405118417E-03 +5.07236786235E-04 -2.65072207195E-03 +6.09473716548E-01 -4.93999641535E-01
4.08000000000E+09 +4.81961808842E-01 -4.58934396848E-01 +7.18389621781E-05 -2.60367749564E-03 +9.64338315465E-05 -2.70480823533E-03 +5.96158046684E-01 -5.03102002829E-01
4.08500000000E+09 +4.65597094026E-01 -4.65271793984E-01 -3.27203026195E-04 -2.43625274802E-03 -2.76740664196E-04 -2.61438982407E-03 +5.82272388060E-01 -5.12592485897E-01
4.09000000000E+09 +4.49305775810E-01 -4.72092695507E-01 -3.94802986805E-04 -2.30941456258E-03 -3.89215611891E-04 -2.43266001835E-03 +5.68047860174E-01 -5.20368590383E-01
4.09500000000E+09 +4.33346312896E-01 -4.79145189368E-01 -3.18699290640E-04 -2.28448464665E-03 -3.18181794535E-04 -2.37622164547E-03 +5.53992624633E-01 -5.28781216169E-01
4.10000000000E+09 +4.16988138139E-01 -4.86272285317E-01 -3.27199497767E-04 -2.66879118331E-03 -3.31514627656E-04 -2.72360575176E-03 +5.38555259514E-01 -5.37091135991E-01
4.10500000000E+09 +4.00951150752E-01 -4.91590011384E-01 -7.74728506865E-04 -3.05528450249E-03 -7.55205586285E-04 -3.10932438000E-03 +5.21995483487E-01 -5.45011420101E-01
4.11000000000E+09 +3.85068605902E-01 -4.95197863366E-01 -1.43829711153E-03 -3.12214677094E-03 -1.42720498814E-03 -3.14698296966E-03 +5.04683400127E-01 -5.52748607691E-01
4.11500000000E+09 +3.69882622136E-01 -4.97049307070E-01 -2.07120990419E-03 -2.69323903730E-03 -2.06633182402E-03 -2.74013008211E-03 +4.87570814678E-01 -5.59800751412E-01
4.12000000000E+09 +3.54502867329E-01 -4.97701186540E-01 -2.14249222450E-03 -2.29196011489E-03 -2.20084633721E-03 -2.36078373488E-03 +4.70383467097E-01 -5.66180565656E-01
4.12500000000E+09 +3.39062059421E-01 -4.98619591954E-01 -2.28552240814E-03 -2.10838975319E-03 -2.35081858823E-03 -2.19325217371E-03 +4.53345492232E-01 -5.72269003005E-01
4.13000000000E+09 +3.21046649251E-01 -5.00380134207E-01 -2.44359881312E-03 -2.08088121778E-03 -2.41664712067E-03 -2.19494395340E-03 +4.36445560682E-01 -5.77895025779E-01
4.13500000000E+09 +3.01875434309E-01 -5.01510695445E-01 -2.77234673803E-03 -1.96752106963E-03 -2.71662146714E-03 -1.97239303787E-03 +4.17979149642E-01 -5.83918872171E-01
4.14000000000E+09 +2.82675608595E-01 -5.03611058014E-01 -3.03951703998E-03 -1.63981302468E-03 -3.05340521078E-03 -1.82105639248E-03 +3.98927947056E-01 -5.88979235234E-01
4.14500000000E+09 +2.63408870673E-01 -5.06880425440E-01 -3.28028116072E-03 -1.21311870974E-03 -3.35899908707E-03 -1.35414090754E-03 +3.79850847237E-01 -5.94215606766E-01
4.15000000000E+09 +2.44008115118E-01 -5.11333477340E-01 -3.28439490320E-03 -1.05087434498E-03 -3.34659818202E-03 -1.18284215316E-03 +3.59642578479E-01 -5.99084358603E-01
4.15500000000E+09 +2.24328286926E-01 -5.15436487405E-01 -3.56667575099E-03 -1.15591286645E-03 -3.62662865571E-03 -1.26719272251E-03 +3.40367415837E-01 -6.02017565881E-01
4.16000000000E+09 +2.05475615667E-01 -5.18271207280E-01 -4.34207679917E-03 -5.54235795856E-04 -4.39873907630E-03 -6.38700399751E-04 +3.21171443827E-01 -6.04979433575E-01
4.16500000000E+09 +1.87965364853E-01 -5.18764969393E-01 -4.39041341425E-03 +3.29705760119E-04 -4.44709739902E-03 +2.68629407985E-04 +3.00685901537E-01 -6.06701366977E-01
4.17000000000E+09 +1.71437805000E-01 -5.17843683681E-01 -4.18340790208E-03 +7.72282580937E-04 -4.28861129786E-03 +6.86926579819E-04 +2.80988957489E-01 -6.07213171032E-01
4.17500000000E+09 +1.55094642827E-01 -5.14245379194E-01 -4.06166226103E-03 +1.70125624745E-03 -4.28397416884E-03 +1.65514596731E-03 +2.60387340311E-01 -6.08085482576E-01
4.18000000000E+09 +1.39559290925E-01 -5.10121947436E-01 -3.03797053888E-03 +1.85954990663E-03 -3.18840456002E-03 +1.79574540710E-03 +2.39998961189E-01 -6.08806379690E-01
4.18500000000E+09 +1.22480380334E-01 -5.05322828368E-01 -3.22648870248E-03 +1.24140028550E-03 -3.41179437376E-03 +1.12158088181E-03 +2.18184822388E-01 -6.09890505411E-01
4.19000000000E+09 +1.03969755505E-01 -5.00019955843E-01 -3.66522252672E-03 +1.64769308137E-03 -3.87070368631E-03 +1.61892737684E-03 +1.95930614543E-01 -6.08736705952E-01
4.19500000000E+09 +8.49568326522E-02 -4.94351926054E-01 -3.85316640079E-03 +2.45016811733E-03 -4.07675115296E-03 +2.47580305346E-03 +1.74724272686E-01 -6.06746084637E-01
4.20000000000E+09 +6.54542163211E-02 -4.90323099285E-01 -3.67584000523E-03 +3.07750163069E-03 -3.91473432284E-03 +3.12571168540E-03 +1.53420337280E-01 -6.04480194536E-01
4.20500000000E+09 +4.52289946415E-02 -4.86833209773E-01 -3.25832452403E-03 +4.00856728843E-03 -3.46349544014E-03 +4.12675064735E-03 +1.31179529287E-01 -6.01561186109E-01
4.21000000000E+09 +2.58123411107E-02 -4.83159486391E-01 -2.30725297979E-03 +3.94377856545E-03 -2.44995331298E-03 +4.08562908814E-03 +1.08947711501E-01 -5.98057399442E-01
4.21500000000E+09 +6.88640851071E-03 -4.79455580014E-01 -2.19538824309E-03 +4.06429502782E-03 -2.28668630303E-03 +4.22085887922E-03 +8.58755287259E-02 -5.93728631819E-01
4.22000000000E+09 -1.07776275731E-02 -4.74095702179E-01 -2.04757917970E-03 +4.47668895520E-03 -2.03428625150E-03 +4.65034996651E-03 +6.43254847957E-02 -5.88308545358E-01
4.22500000000E+09 -2.68789097832E-02 -4.66554903177E-01 -1.40803775152E-03 +4.98226205728E-03 -1.37595152926E-03 +5.18512900313E-03 +4.28496079234E-02 -5.83430363423E-01
4.23000000000E+09 -4.11484322274E-02 -4.58264016617E-01 -6.02063498611E-04 +4.79802118956E-03 -5.76502850561E-04 +4.95676076741E-03 +2.08740037648E-02 -5.77338649033E-01
4.23500000000E+09 -5.64571572849E-02 -4.48641851944E-01 -2.64415549478E-04 +4.73990744883E-03 -2.28682100368E-04 +4.88807088616E-03 -7.83901187388E-04 -5.69694945667E-01
4.24000000000E+09 -7.31794131042E-02 -4.37265411589E-01 -3.45427442608E-04 +4.99165830476E-03 -2.81364275141E-04 +5.15950450928E-03 -2.32642605969E-02 -5.61401443860E-01
4.24500000000E+09 -9.07679597173E-02 -4.24447846415E-01 +4.93920732963E-04 +5.51244130025E-03 +5.82533680252E-04 +5.64220718466E-03 -4.54030228556E-02 -5.51323407351E-01
4.25000000000E+09 -1.09811359291E-01 -4.11729708315E-01 +1.27467164367E-03 +5.32028602861E-03 +1.38897350582E-03 +5.51076484059E-03 -6.69133061962E-02 -5.41581205830E-01
4.25500000000E+09 -1.29531875384E-01 -3.98758763650E-01 +1.87305218652E-03 +5.22196663169E-03 +1.97202335035E-03 +5.22831985219E-03 -8.96351715843E-02 -5.30015529833E-01
4.26000000000E+09 -1.49384757995E-01 -3.88030481169E-01 +2.21854277942E-03 +5.15612100138E-03 +2.35118109661E-03 +5.15560960518E-03 -1.10251567741E-01 -5.16900464632E-01
4.26500000000E+09 -1.70640603880E-01 -3.77624702278E-01 +2.99598702167E-03 +5.09779411726E-03 +3.07814279750E-03 +5.14387764999E-03 -1.30448917766E-01 -5.04187164129E-01
4.27000000000E+09 -1.90227297827E-01 -3.66249056268E-01 +3.65939667621E-03 +4.83764952511E-03 +3.76778367857E-03 +4.82342659496E-03 -1.51281999725E-01 -4.89228931237E-01
4.27500000000E+09 -2.06855446965E-01 -3.54985023558E-01 +4.46110144652E-03 +4.37555113166E-03 +4.53600326124E-03 +4.41737397431E-03 -1.70761773229E-01 -4.74105200103E-01
4.28000000000E+09 -2.21276176592E-01 -3.42952735653E-01 +5.17606476804E-03 +3.68818872745E-03 +5.25411233661E-03 +3.67377217929E-03 -1.90575386027E-01 -4.58849432285E-01
4.28500000000E+09 -2.34174483280E-01 -3.29772103079E-01 +5.21819386610E-03 +2.68670432432E-03 +5.23220905614E-03 +2.63346646126E-03 -2.10676596227E-01 -4.43271916908E-01
4.29000000000E+09 -2.44456533129E-01 -3.14194733399E-01 +5.13096721166E-03 +2.18530402844E-03 +5.13316782763E-03 +2.18275163714E-03 -2.29260857310E-01 -4.26753291505E-01
4.29500000000E+09 -2.55323805596E-01 -2.97952997667E-01 +4.91590588134E-03 +2.50375312436E-03 +4.96587710394E-03 +2.49052011533E-03 -2.48501286553E-01 -4.09231910633E-01
4.30000000000E+09 -2.66919835303E-01 -2.79377670481E-01 +6.07647586701E-03 +2.18165631111E-03 +6.15132559427E-03 +2.23542128706E-03 -2.65186040817E-01 -3.89703164627E-01
4.30500000000E+09 -2.79415991835E-01 -2.59021735386E-01 +6.62727933192E-03 +1.30772871009E-03 +6.75557186630E-03 +1.33285142633E-03 -2.80375988159E-01 -3.70479657217E-01
4.31000000000E+09 -2.92473318960E-01 -2.38480809506E-01 +7.27306926944E-03 +2.96825285139E-04 +7.41624798169E-03 +2.97393198616E-04 -2.95924495540E-01 -3.50940036738E-01
4.31500000000E+09 -3.06767627338E-01 -2.18156442544E-01 +7.15400652900E-03 -1.19740941940E-03 +7.30491556830E-03 -1.21863812652E-03 -3.11173108903E-01 -3.30332653255E-01
4.32000000000E+09 -3.20230957033E-01 -1.99261112787E-01 +6.28076446907E-03 -2.44090896445E-03 +6.41505602073E-03 -2.52198198242E-03 -3.25416714333E-01 -3.08638038829E-01
4.32500000000E+09 -3.33929566334E-01 -1.81738653563E-01 +5.27717277419E-03 -2.47775198191E-03 +5.36915253266E-03 -2.47028484422E-03 -3.38497753591E-01 -2.86956320189E-01
4.33000000000E+09 -3.45118053139E-01 -1.64593666596E-01 +5.53322642839E-03 -2.27489484913E-03 +5.60195574650E-03 -2.27733795605E-03 -3.51213970102E-01 -2.64849001819E-01
4.33500000000E+09 -3.53370920204E-01 -1.48059783053E-01 +5.78520625335E-03 -2.61985046769E-03 +5.82947242347E-03 -2.68396058747E-03 -3.63375057092E-01 -2.40954680901E-01
4.34000000000E+09 -3.59258054680E-01 -1.32559055599E-01 +6.19041323592E-03 -3.76232399562E-03 +6.26026024960E-03 -3.78631736989E-03 -3.74177722327E-01 -2.16955624188E-01
4.34500000000E+09 -3.63565573469E-01 -1.16193689105E-01 +5.51839792027E-03 -5.19997635620E-03 +5.55734733233E-03 -5.24100494741E-03 -3.84435382629E-01 -1.90916558154E-01
4.35000000000E+09 -3.66605557511E-01 -9.75090069776E-02 +4.58751547812E-03 -5.85221172203E-03 +4.64077359675E-03 -5.98516834840E-03 -3.91885930574E-01 -1.65875560423E-01
4.35500000000E+09 -3.68896595447E-01 -7.70257858557E-02 +3.93899419393E-03 -6.46663494601E-03 +3.95221444454E-03 -6.55483601773E-03 -3.99461927347E-01 -1.42328157742E-01
4.36000000000E+09 -3.71938160262E-01 -5.40695805398E-02 +2.78638299371E-03 -6.88696190721E-03 +2.79875459502E-03 -7.03347042629E-03 -4.06251632455E-01 -1.18363225922E-01
4.36500000000E+09 -3.74788967939E-01 -3.00591293588E-02 +1.85280163698E-03 -6.95461482086E-03 +1.78920418773E-03 -7.14507661065E-03 -4.11966818033E-01 -9.42988451628E-02
4.37000000000E+09 -3.79173920808E-01 -6.82896173258E-03 +8.83375278123E-04 -6.87560358175E-03 +8.01742844159E-04 -7.03225603246E-03 -4.15672555348E-01 -6.94443868138E-02
4.37500000000E+09 -3.84604637344E-01 +1.59655830780E-02 +2.77532063503E-04 -6.31611448619E-03 +1.79038873592E-04 -6.45744756998E-03 -4.18301274019E-01 -4.44279449967E-02
4.38000000000E+09 -3.90840333471E-01 +3.68668463407E-02 +2.83803003975E-04 -6.65328112438E-03 +1.74816490666E-04 -6.77277801332E-03 -4.20179899179E-01 -2.01064566157E-02
4.38500000000E+09 -3.96630938236E-01 +5.60485252175E-02 -1.97469846455E-04 -6.83960540469E-03 -3.17382957806E-04 -6.96767988453E-03 -4.22176897951E-01 +4.66450635084E-03
4.39000000000E+09 -4.00329127330E-01 +7.35754868268E-02 -1.32203196640E-03 -7.58117425885E-03 -1.52631795696E-03 -7.65554611395E-03 -4.23609539113E-01 +3.00025782236E-02
4.39500000000E+09 -4.01576706045E-01 +8.90845462524E-02 -2.83928764224E-03 -7.05367154087E-03 -3.10018529484E-03 -7.06009203735E-03 -4.23507420175E-01 +5.46736063489E-02
4.40000000000E+09 -4.00647620009E-01 +1.03342738223E-01 -3.58162767350E-03 -6.59107658939E-03 -3.73640821492E-03 -6.54930773013E-03 -4.22207113798E-01 +7.96867468855E-02
4.40500000000E+09 -3.98202165836E-01 +1.19251208635E-01 -4.79026843241E-03 -5.47095230166E-03 -4.95315729048E-03 -5.38173793873E-03 -4.18679792258E-01 +1.03690473961E-01
4.41000000000E+09 -3.92806917264E-01 +1.36111868868E-01 -4.27144346064E-03 -4.59933869296E-03 -4.49131316076E-03 -4.47033671327E-03 -4.15079048070E-01 +1.26758907373E-01
4.41500000000E+09 -3.87336943929E-01 +1.55229166718E-01 -4.66575327831E-03 -4.41375979317E-03 -4.85236961619E-03 -4.24680323475E-03 -4.10400182258E-01 +1.50995932037E-01
4.42000000000E+09 -3.81648871094E-01 +1.76569348147E-01 -5.17659965673E-03 -4.15878363756E-03 -5.28562376038E-03 -3.91347009154E-03 -4.04785902630E-01 +1.73786155869E-01
4.42500000000E+09 -3.76389112253E-01 +1.99110615478E-01 -5.59698173593E-03 -3.73073525625E-03 -5.71355031075E-03 -3.47660486727E-03 -3.98660862784E-01 +1.96676954200E-01
4.43000000000E+09 -3.71940320411E-01 +2.21516312895E-01 -5.82375551756E-03 -2.97099234000E-03 -5.78437671777E-03 -2.71135118366E-03 -3.92844779691E-01 +2.18367864753E-01
4.43500000000E+09 -3.69018353935E-01 +2.42843056364E-01 -6.58158563120E-03 -2.64344307899E-03 -6.51084283868E-03 -2.51442814703E-03 -3.86445776914E-01 +2.40462432163E-01
4.44000000000E+09 -3.66453034632E-01 +2.62278268912E-01 -6.82863996268E-03 -1.53034704373E-03 -6.76481436025E-03 -1.38549810761E-03 -3.78073736402E-01 +2.63619361782E-01
4.44500000000E+09 -3.64986580073E-01 +2.78788732283E-01 -6.70124796952E-03 -7.02874860670E-04 -6.59814339364E-03 -5.60570138155E-04 -3.67998645269E-01 +2.83162072665E-01
4.45000000000E+09 -3.62427794881E-01 +2.93724111301E-01 -6.85388718700E-03 -3.41982767682E-06 -6.77852683171E-03 +1.77391505387E-04 -3.58207853834E-01 +3.02701067802E-01
4.45500000000E+09 -3.58143667111E-01 +3.06717981546E-01 -6.54728793075E-03 +1.00248177533E-03 -6.41552569438E-03 +1.13212807638E-03 -3.47161295248E-01 +3.21079214587E-01
4.46000000000E+09 -3.52223775132E-01 +3.19188007400E-01 -6.03508344058E-03 +1.60387300656E-03 -5.87620942892E-03 +1.67179542124E-03 -3.38356317477E-01 +3.38449634825E-01
4.46500000000E+09 -3.43042684731E-01 +3.32978195857E-01 -5.66035781092E-03 +1.91464326485E-03 -5.51372262241E-03 +1.96807702150E-03 -3.26563479188E-01 +3.57510337100E-01
4.47000000000E+09 -3.31030102112E-01 +3.47203689531E-01 -5.42739384966E-03 +1.83501459485E-03 -5.27198672197E-03 +1.95156645887E-03 -3.14697812290E-01 +3.74551310987E-01
4.47500000000E+09 -3.18188799892E-01 +3.62510639590E-01 -6.41392872891E-03 +2.61137177026E-03 -6.22985996350E-03 +2.71362174054E-03 -3.03142934407E-01 +3.90570246973E-01
4.48000000000E+09 -3.05408779231E-01 +3.79510226617E-01 -5.49756305419E-03 +4.08324413374E-03 -5.32221513108E-03 +4.05713143943E-03 -2.91603450065E-01 +4.07053011251E-01
4.48500000000E+09 -2.92847411793E-01 +3.97635739371E-01 -4.55188029497E-03 +4.62424257281E-03 -4.41401673179E-03 +4.60907778836E-03 -2.79769887809E-01 +4.23163136903E-01
4.49000000000E+09 -2.82452266199E-01 +4.14648649312E-01 -4.01635783885E-03 +4.86610968900E-03 -3.88652091813E-03 +4.74795646026E-03 -2.66399410707E-01 +4.39299965085E-01
4.49500000000E+09 -2.73956612009E-01 +4.32456790725E-01 -3.20302145128E-03 +4.96973834298E-03 -3.16569487970E-03 +4.81634843001E-03 -2.52939616233E-01 +4.53041813307E-01
4.50000000000E+09 -2.66478743064E-01 +4.47505110624E-01 -2.83207784847E-03 +5.13266111243E-03 -2.81456748154E-03 +5.00895947788E-03 -2.40019960802E-01 +4.66780837060E-01
4.50500000000E+09 -2.60268348846E-01 +4.60645413682E-01 -2.29529405608E-03 +5.31289833100E-03 -2.30647279065E-03 +5.18696025412E-03 -2.26375509904E-01 +4.79794969691E-01
4.51000000000E+09 -2.53548998321E-01 +4.71263929053E-01 -1.78512884408E-03 +5.31819828615E-03 -1.74764413252E-03 +5.31612720148E-03 -2.13231644702E-01 +4.92511648786E-01
4.51500000000E+09 -2.45634170534E-01 +4.80012907343E-01 -1.23493881132E-03 +5.49489090944E-03 -1.16351308578E-03 +5.47797707807E-03 -1.99578532075E-01 +5.04751711717E-01
4.52000000000E+09 -2.36179057585E-01 +4.87484646091E-01 -9.01803272697E-04 +5.37555925148E-03 -8.16447363893E-04 +5.32359943137E-03 -1.85513135285E-01 +5.16445762743E-01
4.52500000000E+09 -2.24546476197E-01 +4.95446242009E-01 -5.21596520263E-04 +5.31449743318E-03 -4.13704773457E-04 +5.25226437001E-03 -1.72236322780E-01 +5.26567895540E-01
4.53000000000E+09 -2.10333464173E-01 +5.03285918096E-01 -2.90242292152E-04 +5.93004650913E-03 -1.83850034316E-04 +5.86400910822E-03 -1.58581664454E-01 +5.37430481391E-01
4.53500000000E+09 -1.95195194194E-01 +5.12607575523E-01 +8.86790099524E-04 +5.76093524222E-03 +1.02101376125E-03 +5.64066689267E-03 -1.43844403555E-01 +5.47477915978E-01
4.54000000000E+09 -1.79411545313E-01 +5.23088657984E-01 +1.46398499761E-03 +5.51472926862E-03 +1.54645699145E-03 +5.41115023043E-03 -1.29106193441E-01 +5.57204113745E-01
4.54500000000E+09 -1.64030727689E-01 +5.33852876820E-01 +1.62864873264E-03 +5.32858919255E-03 +1.68668554754E-03 +5.22731455808E-03 -1.13849606970E-01 +5.66074039765E-01
4.55000000000E+09 -1.51110397585E-01 +5.44304048046E-01 +2.64578108441E-03 +5.22445224015E-03 +2.74596857024E-03 +5.05319895063E-03 -9.90821512862E-02 +5.74670399137E-01
4.55500000000E+09 -1.40258339403E-01 +5.55330137376E-01 +2.97439446774E-03 +4.53577787068E-03 +3.02550206405E-03 +4.38083357698E-03 -8.56155807029E-02 +5.82567457222E-01
4.56000000000E+09 -1.30574893088E-01 +5.65149201292E-01 +3.16327333799E-03 +4.23660655784E-03 +3.15687184518E-03 +4.06931403563E-03 -7.15016714570E-02 +5.91419968732E-01
4.56500000000E+09 -1.21839669724E-01 +5.72869323754E-01 +3.74727051513E-03 +3.97987952995E-03 +3.73731935014E-03 +3.75896335098E-03 -5.70588656614E-02 +5.98967776562E-01
4.57000000000E+09 -1.13212490979E-01 +5.79510117865E-01 +3.66547477139E-03 +3.43773651258E-03 +3.67017363926E-03 +3.23462264978E-03 -4.24027797748E-02 +6.06278105630E-01
