# Hz S RI R 50
! CMT, C1220, 16058040, 17.2.0/1
! Date: 15/08/2018 12:42:29
! Data: Format (Calibration Info)
! Freq                      S11: Re/Im (F2)                       S21: Re/Im (F2)                       S12: Re/Im (F2)                       S22: Re/Im (F2)            
4.00000000000E+09 +6.58397549719E-01 -3.57128990458E-01 +1.35796727143E-03 -9.95265518058E-04 +1.50282252858E-03 -9.59225702504E-04 +7.86813430051E-01 -3.10745658058E-01
4.00500000000E+09 +6.50109391786E-01 -3.62812736970E-01 +1.10809676180E-03 -1.26815251420E-03 +1.16235049092E-03 -1.27681632651E-03 +7.78591601688E-01 -3.22010922023E-01
4.01000000000E+09 +6.41237740971E-01 -3.68565882514E-01 +7.78353537220E-04 -1.45675143436E-03 +9.30766281566E-04 -1.50744130815E-03 +7.70094691129E-01 -3.33975023471E-01
4.01500000000E+09 +6.31413143143E-01 -3.74913668832E-01 +5.22390405194E-04 -1.27800329988E-03 +5.22981228352E-04 -1.24959129919E-03 +7.61638452631E-01 -3.45071735349E-01
4.02000000000E+09 +6.21502638350E-01 -3.82195429185E-01 +5.67744382194E-04 -1.22527586426E-03 +6.55452157216E-04 -1.22582039706E-03 +7.52878563112E-01 -3.55810293271E-01
4.02500000000E+09 +6.11036199815E-01 -3.91388888625E-01 +5.58860560861E-04 -1.28355279586E-03 +5.82031538554E-04 -1.27050372952E-03 +7.43842004903E-01 -3.66460056056E-01
4.03000000000E+09 +5.99897536782E-01 -4.01984113509E-01 +4.72695492540E-04 -1.35286853789E-03 +5.16712629652E-04 -1.34640534252E-03 +7.33740910847E-01 -3.77069835688E-01
4.03500000000E+09 +5.88207482062E-01 -4.12434788246E-01 +3.28568309690E-04 -1.43610756066E-03 +3.70430115572E-04 -1.43502996009E-03 +7.22876940750E-01 -3.88179415050E-01
4.04000000000E+09 +5.76965853450E-01 -4.22377717823E-01 +1.87904357511E-04 -1.46303818598E-03 +2.24001067692E-04 -1.48272815484E-03 +7.11859891884E-01 -3.99467800630E-01
4.04500000000E+09 +5.66095878908E-01 -4.32170855327E-01 +1.36481446694E-04 -1.40096217992E-03 +1.58617775493E-04 -1.41919623449E-03 +7.01003211890E-01 -4.10461601613E-01
4.05000000000E+09 +5.54384757965E-01 -4.40166213477E-01 +9.33775916605E-05 -1.49827143059E-03 +1.10319068611E-04 -1.50689861923E-03 +6.90504757667E-01 -4.21307524181E-01
4.05500000000E+09 +5.42966657367E-01 -4.46285055840E-01 +5.70486048873E-05 -1.53465486567E-03 +9.67942159064E-05 -1.61425526977E-03 +6.79248115107E-01 -4.30951115560E-01
4.06000000000E+09 +5.31049814532E-01 -4.51633407209E-01 -2.58088440163E-04 -1.79714277486E-03 -2.36860854804E-04 -1.82581191175E-03 +6.68282265989E-01 -4.40365107633E-01
4.06500000000E+09 +5.17880460202E-01 -4.55629427418E-01 -4.98956053720E-04 -1.54412976685E-03 -4.81749454581E-04 -1.61232373119E-03 +6.56151377882E-01 -4.50027551172E-01
4.07000000000E+09 +5.04693148845E-01 -4.59661794371E-01 -4.74535988096E-04 -1.49153577499E-03 -4.21757029838E-04 -1.51050855996E-03 +6.43199843266E-01 -4.60192822860E-01
4.07500000000E+09 +4.90131443066E-01 -4.64587509177E-01 -6.47775923979E-04 -1.68278654418E-03 -4.94684348128E-04 -1.70280094631E-03 +6.29614299474E-01 -4.71100784039E-01
4.08000000000E+09 +4.74506192540E-01 -4.69725472494E-01 -8.81894867011E-04 -1.60931395516E-03 -8.28705796739E-04 -1.65431219541E-03 +6.16017158590E-01 -4.81109186092E-01
4.08500000000E+09 +4.58492711772E-01 -4.76284824277E-01 -9.04253247376E-04 -1.52516724563E-03 -8.90169995529E-04 -1.63614450344E-03 +6.02771956205E-01 -4.91156402453E-01
4.09000000000E+09 +4.41631960902E-01 -4.82906403020E-01 -1.34202755440E-03 -1.61522675573E-03 -1.27333185300E-03 -1.75536118720E-03 +5.88806515372E-01 -4.99863053191E-01
4.09500000000E+09 +4.25252368801E-01 -4.89294973249E-01 -1.60593642532E-03 -1.23005024191E-03 -1.62233554811E-03 -1.34763040326E-03 +5.74635543685E-01 -5.08142310655E-01
4.10000000000E+09 +4.08479459018E-01 -4.95541336070E-01 -1.42987478520E-03 -9.25140202800E-04 -1.50202972364E-03 -9.88385621176E-04 +5.59212247502E-01 -5.15778817078E-01
4.10500000000E+09 +3.91746486634E-01 -5.00030448018E-01 -1.52160607142E-03 -1.08119193223E-03 -1.55868371794E-03 -1.13931453164E-03 +5.44041272934E-01 -5.23945975814E-01
4.11000000000E+09 +3.75545016496E-01 -5.02126910990E-01 -1.93897727195E-03 -8.12860642459E-04 -1.96678967417E-03 -8.54204462087E-04 +5.27820896884E-01 -5.32763228773E-01
4.11500000000E+09 +3.60410249172E-01 -5.03558333763E-01 -1.73565819606E-03 -4.16125936563E-04 -1.79538965164E-03 -4.93262592746E-04 +5.11548110762E-01 -5.40951914807E-01
4.12000000000E+09 +3.44702567962E-01 -5.04458653397E-01 -1.69596226968E-03 -3.97739749253E-04 -1.74182976365E-03 -4.44838852883E-04 +4.95438899666E-01 -5.49211084007E-01
4.12500000000E+09 +3.28047752406E-01 -5.05437829881E-01 -1.65362652067E-03 -3.52494506942E-04 -1.75516096729E-03 -3.37219040674E-04 +4.78133594307E-01 -5.56093575509E-01
4.13000000000E+09 +3.10547072673E-01 -5.06313352955E-01 -1.68540311301E-03 -1.55122927817E-04 -1.77335808786E-03 -1.94864843643E-04 +4.60834079611E-01 -5.62286988785E-01
4.13500000000E+09 +2.91967448541E-01 -5.08822644214E-01 -1.47951634045E-03 -1.17360869730E-04 -1.52113267176E-03 -1.42959137343E-04 +4.42646643374E-01 -5.67890140524E-01
4.14000000000E+09 +2.71841006234E-01 -5.11506528860E-01 -1.78013667339E-03 -3.63554174785E-04 -1.84820906549E-03 -4.45247256814E-04 +4.24504123564E-01 -5.74136639548E-01
4.14500000000E+09 +2.52208278280E-01 -5.14140025784E-01 -2.27748632504E-03 -3.11718106757E-05 -2.38761746710E-03 -8.52628295999E-05 +4.05218002224E-01 -5.80444343711E-01
4.15000000000E+09 +2.32837225234E-01 -5.17943296107E-01 -2.16777825189E-03 +5.32087675727E-04 -2.23427298556E-03 +5.38095030601E-04 +3.86980765001E-01 -5.85815636553E-01
4.15500000000E+09 +2.13150012067E-01 -5.20965320415E-01 -1.99013356951E-03 +6.83760668010E-04 -2.01848555643E-03 +7.60038976659E-04 +3.68671473012E-01 -5.91094666489E-01
4.16000000000E+09 +1.94702963463E-01 -5.21693382021E-01 -1.84566646827E-03 +8.29954508086E-04 -1.87299439327E-03 +8.40065896063E-04 +3.49441757933E-01 -5.95026552645E-01
4.16500000000E+09 +1.77776667222E-01 -5.21891555188E-01 -1.70570792833E-03 +7.40781287272E-04 -1.67021157869E-03 +7.85300265999E-04 +3.29708332454E-01 -5.97972277209E-01
4.17000000000E+09 +1.60772559185E-01 -5.19994781430E-01 -1.84609845421E-03 +8.69860918484E-04 -1.87160763120E-03 +8.80713165649E-04 +3.08861603661E-01 -6.00064153607E-01
4.17500000000E+09 +1.44617821267E-01 -5.16067182616E-01 -1.88739510371E-03 +8.38252320307E-04 -1.89109967355E-03 +8.18561172911E-04 +2.87644075302E-01 -6.01597176162E-01
4.18000000000E+09 +1.27885861604E-01 -5.11717742317E-01 -2.10748019150E-03 +1.54198191718E-03 -2.17237537982E-03 +1.45905855393E-03 +2.66663002796E-01 -6.03154920364E-01
4.18500000000E+09 +1.10672766043E-01 -5.06362000335E-01 -1.46989760060E-03 +1.65497747695E-03 -1.56514194648E-03 +1.70154182238E-03 +2.45799425858E-01 -6.04889671284E-01
4.19000000000E+09 +9.21991197811E-02 -5.01264333138E-01 -1.64984990917E-03 +1.60826310130E-03 -1.76425411038E-03 +1.60205264804E-03 +2.24243839109E-01 -6.05238308126E-01
4.19500000000E+09 +7.31357943267E-02 -4.95722264225E-01 -1.79005023895E-03 +2.09029195078E-03 -1.83424877806E-03 +2.04761675725E-03 +2.02992772738E-01 -6.03798015008E-01
4.20000000000E+09 +5.43382901648E-02 -4.91202711159E-01 -1.20804103562E-03 +2.61162461011E-03 -1.28116556498E-03 +2.58271193751E-03 +1.81556465052E-01 -6.01980467823E-01
4.20500000000E+09 +3.49512863964E-02 -4.87295216066E-01 -7.16662191504E-04 +2.33814018228E-03 -7.76266953429E-04 +2.42529097980E-03 +1.60020716201E-01 -5.99126931871E-01
4.21000000000E+09 +1.64175426734E-02 -4.83048228981E-01 -8.68975025805E-04 +2.05111885016E-03 -9.56760907169E-04 +2.10721489008E-03 +1.37843423134E-01 -5.97909596921E-01
4.21500000000E+09 -1.57014720775E-03 -4.77768580025E-01 -7.80332101630E-04 +2.54893050160E-03 -8.40605476459E-04 +2.54245876564E-03 +1.14520449543E-01 -5.95741007533E-01
4.22000000000E+09 -1.81565810725E-02 -4.70557502552E-01 -3.91293649405E-04 +2.62837537444E-03 -4.66758487302E-04 +2.69301068229E-03 +9.18467553734E-02 -5.91985241017E-01
4.22500000000E+09 -3.34688257011E-02 -4.61713258081E-01 -3.88019324383E-04 +2.52183919043E-03 -4.34157321481E-04 +2.54237176299E-03 +7.00040382745E-02 -5.87442523911E-01
4.23000000000E+09 -4.78252578893E-02 -4.50526346992E-01 -1.22867899948E-04 +2.96258128452E-03 -1.91383598726E-04 +3.05226080146E-03 +4.82543453543E-02 -5.80882455931E-01
4.23500000000E+09 -6.15990948225E-02 -4.39305759947E-01 +2.44207468658E-04 +2.92162085848E-03 +1.68590635886E-04 +3.03832834967E-03 +2.66287821047E-02 -5.73881578924E-01
4.24000000000E+09 -7.76254792338E-02 -4.27198133354E-01 +5.35581440191E-04 +3.01377901127E-03 +5.63732726872E-04 +3.11718735818E-03 +4.28791053624E-03 -5.65677401804E-01
4.24500000000E+09 -9.53097012097E-02 -4.14207042697E-01 +9.63480798677E-04 +2.97892596962E-03 +1.00328317693E-03 +3.15627062659E-03 -1.73498962196E-02 -5.57240693608E-01
4.25000000000E+09 -1.14584403532E-01 -4.00961936805E-01 +1.07004343177E-03 +2.93409561536E-03 +1.08504006482E-03 +3.03827580965E-03 -3.94650377462E-02 -5.48798391393E-01
4.25500000000E+09 -1.34556020449E-01 -3.88149458022E-01 +1.64835856096E-03 +2.97131586971E-03 +1.72393746453E-03 +3.09868877155E-03 -6.07531007986E-02 -5.39584046507E-01
4.26000000000E+09 -1.55283450072E-01 -3.75952971970E-01 +1.96896373317E-03 +2.50424967393E-03 +2.07352327640E-03 +2.62233301875E-03 -8.18118298939E-02 -5.29164400004E-01
4.26500000000E+09 -1.74717992036E-01 -3.63481664770E-01 +1.74814319993E-03 +2.54295088653E-03 +1.87898751839E-03 +2.67680258145E-03 -1.02576174752E-01 -5.17662300617E-01
4.27000000000E+09 -1.92014260757E-01 -3.51881733527E-01 +2.52411101881E-03 +2.63197946533E-03 +2.58498704092E-03 +2.67049988124E-03 -1.24214622712E-01 -5.04319599076E-01
4.27500000000E+09 -2.08275037134E-01 -3.40241358775E-01 +2.79914673616E-03 +2.12739568668E-03 +2.91340283638E-03 +2.17864912636E-03 -1.44930576490E-01 -4.90102485756E-01
4.28000000000E+09 -2.21600970482E-01 -3.27083019887E-01 +2.91359347219E-03 +2.04439812049E-03 +3.01381953321E-03 +2.05275825690E-03 -1.65519677800E-01 -4.76147363326E-01
4.28500000000E+09 -2.33520199360E-01 -3.12666627656E-01 +3.40443056713E-03 +1.97502815235E-03 +3.51193472353E-03 +1.92380662384E-03 -1.86196911560E-01 -4.61407205265E-01
4.29000000000E+09 -2.44319776009E-01 -2.96931049040E-01 +3.83303336066E-03 +1.01007717399E-03 +3.94996156559E-03 +9.65384397003E-04 -2.04942591263E-01 -4.46538461605E-01
4.29500000000E+09 -2.55977047675E-01 -2.79026617858E-01 +3.22164668872E-03 +8.22483268723E-04 +3.29509711068E-03 +7.42662981180E-04 -2.23730624667E-01 -4.30707864244E-01
4.30000000000E+09 -2.67134111330E-01 -2.58737829639E-01 +3.72694840737E-03 +7.93134309033E-04 +3.83934604349E-03 +7.66071126742E-04 -2.40683878870E-01 -4.13875142164E-01
4.30500000000E+09 -2.78711182979E-01 -2.38441424340E-01 +4.04345147517E-03 +1.20992980011E-04 +3.99116662307E-03 +9.51234247612E-06 -2.58927969961E-01 -3.96586987728E-01
4.31000000000E+09 -2.91353200572E-01 -2.18260145832E-01 +3.50636418936E-03 +9.15582359603E-05 +3.51958071272E-03 +5.66646264576E-05 -2.75812303299E-01 -3.77167075814E-01
4.31500000000E+09 -3.04501718631E-01 -1.99182967833E-01 +4.29382722944E-03 +2.35570252298E-05 +4.30545480487E-03 +5.64321767985E-05 -2.92381460371E-01 -3.57939400082E-01
4.32000000000E+09 -3.17899184407E-01 -1.81366196730E-01 +4.61155547900E-03 -1.09761277251E-03 +4.67438965022E-03 -1.15333196476E-03 -3.08455122685E-01 -3.37960807974E-01
4.32500000000E+09 -3.29812309050E-01 -1.64194320685E-01 +3.81769435415E-03 -1.73513912833E-03 +3.86657606375E-03 -1.78434078371E-03 -3.23114216209E-01 -3.16765344792E-01
4.33000000000E+09 -3.40003188172E-01 -1.48567871310E-01 +3.97065537913E-03 -1.58411091823E-03 +3.95488967180E-03 -1.66928146778E-03 -3.36171216034E-01 -2.95301913050E-01
4.33500000000E+09 -3.47501040831E-01 -1.31785357597E-01 +4.29124596763E-03 -2.31746895106E-03 +4.23319683344E-03 -2.37772489923E-03 -3.48702966624E-01 -2.72610423580E-01
4.34000000000E+09 -3.51028958017E-01 -1.15733704702E-01 +3.69968833161E-03 -3.36447993441E-03 +3.63599421816E-03 -3.34160214752E-03 -3.60711372869E-01 -2.50022950476E-01
4.34500000000E+09 -3.53496935334E-01 -9.89341107784E-02 +2.95440037242E-03 -3.26908537933E-03 +2.92999236590E-03 -3.16142851905E-03 -3.72767379788E-01 -2.25992712010E-01
4.35000000000E+09 -3.54187901721E-01 -8.00822672846E-02 +3.13782276764E-03 -3.55448378297E-03 +3.15827601468E-03 -3.59308155216E-03 -3.83190178160E-01 -2.03001120923E-01
4.35500000000E+09 -3.55277696662E-01 -6.02228196538E-02 +2.64425675886E-03 -4.14259929238E-03 +2.58915063116E-03 -4.16088910322E-03 -3.93184353684E-01 -1.80808883062E-01
4.36000000000E+09 -3.57090210482E-01 -3.79030760146E-02 +2.08315335224E-03 -4.15661659564E-03 +2.08799739977E-03 -4.24468412094E-03 -4.02955716838E-01 -1.57682474103E-01
4.36500000000E+09 -3.60151393759E-01 -1.48425171153E-02 +2.17811590920E-03 -4.41168131963E-03 +2.22413855712E-03 -4.51588686795E-03 -4.10518181334E-01 -1.33074894171E-01
4.37000000000E+09 -3.64449950570E-01 +9.29458578497E-03 +1.75620079245E-03 -5.11950745008E-03 +1.78498167348E-03 -5.17991529465E-03 -4.16207179369E-01 -1.08827522231E-01
4.37500000000E+09 -3.68123441534E-01 +3.23679017649E-02 +9.00521036816E-04 -5.85912225212E-03 +9.26755573113E-04 -5.97229287959E-03 -4.22051643636E-01 -8.34991931726E-02
4.38000000000E+09 -3.72678015488E-01 +5.20112100907E-02 -1.67432449969E-04 -5.67155715319E-03 -2.23354964056E-04 -5.78857889583E-03 -4.25855397651E-01 -5.81685310560E-02
4.38500000000E+09 -3.77065208447E-01 +7.07869908825E-02 -8.16075418294E-04 -5.56653069762E-03 -8.88359168235E-04 -5.66093098379E-03 -4.28990382892E-01 -3.40235464709E-02
4.39000000000E+09 -3.79803629330E-01 +8.70723145919E-02 -1.53487126443E-03 -5.52861537367E-03 -1.62314804675E-03 -5.61033366233E-03 -4.32579260570E-01 -9.07900503431E-03
4.39500000000E+09 -3.80577786757E-01 +1.01829475192E-01 -2.35582563672E-03 -4.85105338454E-03 -2.54454473038E-03 -4.88557985050E-03 -4.33584496974E-01 +1.44616949278E-02
4.40000000000E+09 -3.79256266550E-01 +1.17092587835E-01 -2.39589995963E-03 -4.68733169230E-03 -2.45618886176E-03 -4.70692062491E-03 -4.35083514197E-01 +3.90165332626E-02
4.40500000000E+09 -3.75471342981E-01 +1.33057882207E-01 -3.27977799089E-03 -4.50518502657E-03 -3.41252562033E-03 -4.53046926713E-03 -4.34376174844E-01 +6.39169102965E-02
4.41000000000E+09 -3.69882337794E-01 +1.49875144286E-01 -3.32321537404E-03 -3.75146400140E-03 -3.38365010727E-03 -3.76233874276E-03 -4.32858420696E-01 +8.85936937139E-02
4.41500000000E+09 -3.64208619823E-01 +1.68408865850E-01 -3.74598188312E-03 -3.90180148848E-03 -3.90078532523E-03 -3.83008331072E-03 -4.30931012622E-01 +1.12911532147E-01
4.42000000000E+09 -3.58542970803E-01 +1.89256483856E-01 -4.19021714460E-03 -3.41713635611E-03 -4.32461525095E-03 -3.38633364119E-03 -4.28552026083E-01 +1.37350108332E-01
4.42500000000E+09 -3.53689823033E-01 +2.11030221262E-01 -4.73719609514E-03 -3.32533580304E-03 -4.86929771309E-03 -3.19883004743E-03 -4.23748239351E-01 +1.62036243152E-01
4.43000000000E+09 -3.49494143150E-01 +2.32099246582E-01 -5.57040580794E-03 -2.75235018284E-03 -5.60329774489E-03 -2.61216868448E-03 -4.18461287176E-01 +1.84429483057E-01
4.43500000000E+09 -3.47525883339E-01 +2.52748545425E-01 -5.87439258000E-03 -1.26583239035E-03 -5.76887139009E-03 -1.16716278544E-03 -4.12254232567E-01 +2.07480809979E-01
4.44000000000E+09 -3.45315239177E-01 +2.72227354396E-01 -5.59288373091E-03 -1.02458689010E-03 -5.54294577984E-03 -9.15042969371E-04 -4.05763529926E-01 +2.29385393529E-01
4.44500000000E+09 -3.42305340684E-01 +2.88263696041E-01 -5.55086220753E-03 -8.58894425044E-06 -5.57124923567E-03 +9.75551726700E-05 -3.98880927987E-01 +2.50867078426E-01
4.45000000000E+09 -3.39259909988E-01 +3.01865181227E-01 -5.09448057152E-03 +2.19117461389E-04 -5.11043413630E-03 +3.65051829744E-04 -3.91745064768E-01 +2.72023904410E-01
4.45500000000E+09 -3.34542556909E-01 +3.14227249492E-01 -5.25664844667E-03 +3.78320596439E-04 -5.23087454207E-03 +5.13706027271E-04 -3.84473135502E-01 +2.92886722295E-01
4.46000000000E+09 -3.28662158601E-01 +3.26014217440E-01 -5.47189839484E-03 +1.05485762375E-03 -5.36342154415E-03 +1.19064901285E-03 -3.74857187396E-01 +3.13200476854E-01
4.46500000000E+09 -3.19734108295E-01 +3.39216531610E-01 -5.27336388508E-03 +1.59091506603E-03 -5.16057460706E-03 +1.74045892182E-03 -3.65235697747E-01 +3.32425213872E-01
4.47000000000E+09 -3.09076724774E-01 +3.52762908826E-01 -5.32834255711E-03 +2.10307053604E-03 -5.15939696335E-03 +2.14334841617E-03 -3.53163470959E-01 +3.52281698428E-01
4.47500000000E+09 -2.97250740312E-01 +3.69035225946E-01 -5.30044703351E-03 +2.93328245894E-03 -5.18675704491E-03 +3.06425740104E-03 -3.41805901826E-01 +3.70027500506E-01
4.48000000000E+09 -2.84420970560E-01 +3.84590958759E-01 -4.89586539745E-03 +3.86782896547E-03 -4.69201117513E-03 +3.89470344864E-03 -3.30493736587E-01 +3.88719716517E-01
4.48500000000E+09 -2.74438353093E-01 +4.01304937575E-01 -4.04947687242E-03 +4.52062430175E-03 -3.86259059378E-03 +4.42459270506E-03 -3.19047007773E-01 +4.05500780522E-01
4.49000000000E+09 -2.64966413784E-01 +4.18358214530E-01 -3.32996191141E-03 +4.80665024142E-03 -3.21043837998E-03 +4.74987391972E-03 -3.07891634736E-01 +4.22170948309E-01
4.49500000000E+09 -2.57191546695E-01 +4.33880454354E-01 -2.73239435567E-03 +4.85464273045E-03 -2.66268667565E-03 +4.75293893615E-03 -2.96287719765E-01 +4.38293919920E-01
4.50000000000E+09 -2.50786584424E-01 +4.48284844692E-01 -2.39937823095E-03 +5.14356106570E-03 -2.32139768138E-03 +5.08018313261E-03 -2.83152736566E-01 +4.53689528849E-01
4.50500000000E+09 -2.44404808268E-01 +4.59994774512E-01 -1.87637887965E-03 +5.15790666135E-03 -1.78405775502E-03 +5.08329269009E-03 -2.69444388373E-01 +4.69142625163E-01
4.51000000000E+09 -2.37589288359E-01 +4.69844212342E-01 -1.60585017978E-03 +5.68061734368E-03 -1.54447919969E-03 +5.62043405264E-03 -2.55354203282E-01 +4.83324785793E-01
4.51500000000E+09 -2.28789094889E-01 +4.77723741085E-01 -5.93287568922E-04 +6.15889422012E-03 -5.34544119995E-04 +6.05543158747E-03 -2.42010553522E-01 +4.97442021737E-01
4.52000000000E+09 -2.18595743527E-01 +4.84207249177E-01 +3.83690115301E-04 +5.80207602407E-03 +4.50055327282E-04 +5.75724458474E-03 -2.28268568303E-01 +5.10700762488E-01
4.52500000000E+09 -2.06270612038E-01 +4.91589692105E-01 +7.50988090269E-04 +5.74530203103E-03 +8.03297417734E-04 +5.61616920044E-03 -2.14397887952E-01 +5.22775421576E-01
4.53000000000E+09 -1.92396539246E-01 +4.99554341090E-01 +1.67885991515E-03 +5.62013476889E-03 +1.73588679789E-03 +5.48236345881E-03 -2.00259804474E-01 +5.33758556582E-01
4.53500000000E+09 -1.76823248308E-01 +5.09555210949E-01 +2.14071682918E-03 +4.94474847447E-03 +2.21265593580E-03 +4.78832498118E-03 -1.85738150767E-01 +5.44576571282E-01
4.54000000000E+09 -1.60509890805E-01 +5.19977123426E-01 +2.59761555268E-03 +4.82834468118E-03 +2.62531374595E-03 +4.67518428242E-03 -1.70758839981E-01 +5.55478362311E-01
4.54500000000E+09 -1.45662594515E-01 +5.30931819956E-01 +3.29234859255E-03 +4.27375518234E-03 +3.29218450589E-03 +4.07062419971E-03 -1.55728675364E-01 +5.66280481931E-01
4.55000000000E+09 -1.32479593206E-01 +5.41538642836E-01 +3.20288643169E-03 +3.82989613285E-03 +3.20225545178E-03 +3.71542163530E-03 -1.40721685469E-01 +5.76841262663E-01
4.55500000000E+09 -1.22235101642E-01 +5.51658151182E-01 +3.82034889659E-03 +3.53422822004E-03 +3.80563258441E-03 +3.39853551045E-03 -1.25988313063E-01 +5.86480922900E-01
4.56000000000E+09 -1.13332707609E-01 +5.61735964811E-01 +3.96442054159E-03 +3.01571034607E-03 +3.92847904949E-03 +2.92545099096E-03 -1.11959729698E-01 +5.95161942109E-01
4.56500000000E+09 -1.04941211807E-01 +5.69996911644E-01 +4.30237984896E-03 +2.53207880968E-03 +4.30760987407E-03 +2.39773601544E-03 -9.68009619611E-02 +6.04160002351E-01
4.57000000000E+09 -9.55060758731E-02 +5.76411037861E-01 +4.30835100188E-03 +2.22237835359E-03 +4.29009000897E-03 +2.09524114445E-03 -8.12934881532E-02 +6.11488613004E-01
