# Hz S RI R 50
! CMT, C1220, 16058040, 17.2.0/1
! Date: 15/08/2018 11:41:15
! Data: Format (Calibration Info)
! Freq                      S11: Re/Im (F2)                       S21: Re/Im (F2)                       S12: Re/Im (F2)                       S22: Re/Im (F2)            
4.00000000000E+09 +6.36364426233E-01 -3.37905537294E-01 -9.84201319989E-04 -2.32633656291E-03 -9.16565439980E-04 -2.41909310605E-03 +7.70058417513E-01 -3.53477086064E-01
4.00500000000E+09 +6.27397941296E-01 -3.44113428675E-01 -1.09716784029E-03 -2.26777953823E-03 -1.08630155943E-03 -2.35694662685E-03 +7.61445525565E-01 -3.64851241658E-01
4.01000000000E+09 +6.17538409163E-01 -3.49570238605E-01 -1.39604288519E-03 -2.42370955520E-03 -1.31286723841E-03 -2.53523273917E-03 +7.51858039029E-01 -3.75993164563E-01
4.01500000000E+09 +6.06628488937E-01 -3.55103546282E-01 -1.61243957385E-03 -2.13133953188E-03 -1.60222346110E-03 -2.21328570745E-03 +7.42012345265E-01 -3.86207963693E-01
4.02000000000E+09 +5.95122267899E-01 -3.61657678562E-01 -1.79322765913E-03 -2.21988053508E-03 -1.74219211659E-03 -2.36760093795E-03 +7.32359047667E-01 -3.96533597424E-01
4.02500000000E+09 +5.82559011252E-01 -3.68859881931E-01 -2.41454697490E-03 -2.16145924942E-03 -2.42435857638E-03 -2.28625413339E-03 +7.22021729411E-01 -4.07020597828E-01
4.03000000000E+09 +5.70103114620E-01 -3.77304018361E-01 -2.68970019443E-03 -1.60165939426E-03 -2.70452155888E-03 -1.67931571546E-03 +7.11206032709E-01 -4.17557870062E-01
4.03500000000E+09 +5.57132632841E-01 -3.86721515581E-01 -2.62314379354E-03 -1.31933462133E-03 -2.63819083819E-03 -1.38794214769E-03 +6.99797087053E-01 -4.28276885371E-01
4.04000000000E+09 +5.44389479851E-01 -3.96188506433E-01 -2.79889186164E-03 -1.06616875182E-03 -2.79943603939E-03 -1.15603598815E-03 +6.88110690723E-01 -4.38944494549E-01
4.04500000000E+09 +5.31675558721E-01 -4.05780289052E-01 -2.67308023619E-03 -8.16161590636E-04 -2.73013766082E-03 -9.21293277839E-04 +6.76185746288E-01 -4.49232521412E-01
4.05000000000E+09 +5.18617042906E-01 -4.14085660902E-01 -2.93165719792E-03 -8.26485285913E-04 -3.01584435586E-03 -1.00917056596E-03 +6.64502795629E-01 -4.59192543626E-01
4.05500000000E+09 +5.05136032027E-01 -4.20700712199E-01 -3.26241700155E-03 -3.15799479666E-04 -3.38712369988E-03 -4.68198100257E-04 +6.52090468638E-01 -4.68857655483E-01
4.06000000000E+09 +4.91423188566E-01 -4.25406991341E-01 -3.24123335551E-03 +8.03946143976E-05 -3.35091645982E-03 -7.01504308016E-07 +6.39619601336E-01 -4.78054352689E-01
4.06500000000E+09 +4.77347434758E-01 -4.29021783899E-01 -2.99339632125E-03 +5.16049577160E-04 -3.07788761646E-03 +5.30857876227E-04 +6.26152633129E-01 -4.87511706434E-01
4.07000000000E+09 +4.62536753095E-01 -4.32007832004E-01 -2.94782727386E-03 +5.33165581316E-04 -2.97090044049E-03 +5.19294467810E-04 +6.12025159259E-01 -4.96825275174E-01
4.07500000000E+09 +4.46987796528E-01 -4.35156706775E-01 -2.96243043140E-03 +7.58149593073E-04 -3.01232688392E-03 +6.84973872545E-04 +5.98047293070E-01 -5.06342610238E-01
4.08000000000E+09 +4.30244468587E-01 -4.38487530847E-01 -2.95705888948E-03 +9.48669751105E-04 -3.06831422499E-03 +8.50793560319E-04 +5.83277421395E-01 -5.15865513398E-01
4.08500000000E+09 +4.12629698138E-01 -4.42842365780E-01 -2.94648103167E-03 +1.16657247904E-03 -3.09166609260E-03 +1.08837711133E-03 +5.68764932445E-01 -5.24050787686E-01
4.09000000000E+09 +3.94454399129E-01 -4.46652088253E-01 -2.85686580284E-03 +1.63211241268E-03 -2.97417546095E-03 +1.56636642507E-03 +5.54148923202E-01 -5.32043582192E-01
4.09500000000E+09 +3.76975220068E-01 -4.50827352598E-01 -2.80085840176E-03 +1.76037694920E-03 -2.91153332586E-03 +1.78525241301E-03 +5.39078993028E-01 -5.39435655836E-01
4.10000000000E+09 +3.59355908183E-01 -4.55051911042E-01 -2.67596438585E-03 +1.93578635092E-03 -2.77795271421E-03 +1.94485179134E-03 +5.23527806273E-01 -5.46687526488E-01
4.10500000000E+09 +3.42102249329E-01 -4.57960782400E-01 -2.79742366979E-03 +2.33264601273E-03 -2.95822969357E-03 +2.34807412849E-03 +5.06480631733E-01 -5.54356754120E-01
4.11000000000E+09 +3.25043463478E-01 -4.59539183987E-01 -2.54026667886E-03 +2.89980629380E-03 -2.72266210435E-03 +2.96901627735E-03 +4.88990522126E-01 -5.61199953083E-01
4.11500000000E+09 +3.08943906822E-01 -4.59393822165E-01 -1.94976211707E-03 +3.07962065541E-03 -2.05896401054E-03 +3.10518584187E-03 +4.71904135093E-01 -5.67799327513E-01
4.12000000000E+09 +2.92340858517E-01 -4.58866013659E-01 -1.87014423560E-03 +3.06282644557E-03 -2.02190311060E-03 +3.09141529804E-03 +4.54501759196E-01 -5.74618089720E-01
4.12500000000E+09 +2.75218881107E-01 -4.57418484755E-01 -1.84007016078E-03 +3.33425861781E-03 -1.92151939005E-03 +3.36636193356E-03 +4.36947036891E-01 -5.80394530074E-01
4.13000000000E+09 +2.57533279093E-01 -4.55500055331E-01 -1.50915895371E-03 +3.72045531825E-03 -1.67986145627E-03 +3.72579533651E-03 +4.19019961895E-01 -5.86011659100E-01
4.13500000000E+09 +2.39291690396E-01 -4.53949824382E-01 -1.32075940059E-03 +4.00590636305E-03 -1.52225009081E-03 +4.06623078448E-03 +4.00318111582E-01 -5.90692699704E-01
4.14000000000E+09 +2.20523179231E-01 -4.53648836374E-01 -9.22996257052E-04 +4.47700932786E-03 -1.12898845296E-03 +4.61598861063E-03 +3.80641365888E-01 -5.95199749751E-01
4.14500000000E+09 +2.01460989568E-01 -4.53456949446E-01 -1.25724052300E-04 +4.90262393043E-03 -2.93554687292E-04 +5.13758767288E-03 +3.61172301102E-01 -5.98875839273E-01
4.15000000000E+09 +1.82663176784E-01 -4.55061389537E-01 +7.13539208434E-04 +4.65070977487E-03 +5.77568872969E-04 +4.87199148782E-03 +3.42692599650E-01 -6.03345167002E-01
4.15500000000E+09 +1.62846796894E-01 -4.55923536492E-01 +1.08212592600E-03 +4.26042708417E-03 +1.09360076064E-03 +4.43818239128E-03 +3.22589337471E-01 -6.07997069858E-01
4.16000000000E+09 +1.44013302678E-01 -4.55105422696E-01 +1.37950551034E-03 +4.23369626873E-03 +1.39828784957E-03 +4.34892198371E-03 +3.01770417209E-01 -6.09958371747E-01
4.16500000000E+09 +1.26352506055E-01 -4.52572819173E-01 +1.49804661954E-03 +3.99455539962E-03 +1.50954384378E-03 +4.12522494734E-03 +2.82391537532E-01 -6.11126563185E-01
4.17000000000E+09 +1.10408223964E-01 -4.47776043817E-01 +1.75970682042E-03 +4.27495767399E-03 +1.73744075950E-03 +4.43770992919E-03 +2.61559094140E-01 -6.11555817959E-01
4.17500000000E+09 +9.52845982215E-02 -4.41805505465E-01 +2.34803988890E-03 +4.50623732492E-03 +2.39141760145E-03 +4.66342587753E-03 +2.40384295446E-01 -6.11716334275E-01
4.18000000000E+09 +8.02733594617E-02 -4.34893134163E-01 +3.37246030614E-03 +4.08231923231E-03 +3.40188255809E-03 +4.28695225269E-03 +2.18650013059E-01 -6.11583983989E-01
4.18500000000E+09 +6.40369392522E-02 -4.26772351390E-01 +3.65655246384E-03 +3.65088213945E-03 +3.74134633388E-03 +3.81698367707E-03 +1.96354872150E-01 -6.10623897714E-01
4.19000000000E+09 +4.75116395481E-02 -4.17909516819E-01 +4.19494468586E-03 +3.41666234663E-03 +4.36788455824E-03 +3.54992305093E-03 +1.75430485811E-01 -6.08864180663E-01
4.19500000000E+09 +2.99767464576E-02 -4.08842106430E-01 +4.63805503615E-03 +2.76993511541E-03 +4.74858597914E-03 +2.89961107919E-03 +1.54023911487E-01 -6.06845767916E-01
4.20000000000E+09 +1.23474258260E-02 -3.99806484869E-01 +4.73292803681E-03 +2.21999267844E-03 +4.83730542999E-03 +2.35359346397E-03 +1.31963920038E-01 -6.04563689273E-01
4.20500000000E+09 -4.52067751546E-03 -3.91854084244E-01 +4.94072816528E-03 +1.90498371051E-03 +5.03034353578E-03 +1.99370368970E-03 +1.09345995089E-01 -6.00946382377E-01
4.21000000000E+09 -2.14160983943E-02 -3.84516321625E-01 +5.18761484177E-03 +1.22931260293E-03 +5.34246534088E-03 +1.24932793275E-03 +8.58808767859E-02 -5.96134083549E-01
4.21500000000E+09 -3.77049180748E-02 -3.76757465558E-01 +5.12435386371E-03 +1.11067883923E-03 +5.21624475414E-03 +1.06504632837E-03 +6.37571105665E-02 -5.91119837033E-01
4.22000000000E+09 -5.26434675741E-02 -3.67835357020E-01 +5.52557475796E-03 +1.02063386075E-03 +5.61018923347E-03 +1.04951739100E-03 +4.08270173362E-02 -5.85335217821E-01
4.22500000000E+09 -6.58117577372E-02 -3.57431557807E-01 +6.39746680035E-03 +1.38955699082E-04 +6.48026436788E-03 +1.96389720474E-04 +1.82568754025E-02 -5.78495944880E-01
4.23000000000E+09 -7.78410699829E-02 -3.46173247390E-01 +6.40947225783E-03 -1.26473262060E-03 +6.52294186310E-03 -1.25840978540E-03 -3.57802696877E-03 -5.70388864406E-01
4.23500000000E+09 -8.98261112054E-02 -3.33145331234E-01 +5.65269295816E-03 -1.93751290348E-03 +5.73949539927E-03 -1.94224265456E-03 -2.50539758226E-02 -5.61307121071E-01
4.24000000000E+09 -1.02106801399E-01 -3.19011057201E-01 +5.47518752057E-03 -2.25768182924E-03 +5.59966331360E-03 -2.19172337429E-03 -4.62592143305E-02 -5.51567464661E-01
4.24500000000E+09 -1.15380110850E-01 -3.03879734055E-01 +5.37457545048E-03 -2.58331517752E-03 +5.48084800668E-03 -2.62858518557E-03 -6.74276908881E-02 -5.41796362063E-01
4.25000000000E+09 -1.29296188213E-01 -2.88096560093E-01 +5.38594244501E-03 -3.28621296780E-03 +5.48191460532E-03 -3.23136297418E-03 -8.97940567167E-02 -5.30396441428E-01
4.25500000000E+09 -1.44013627326E-01 -2.73458503696E-01 +4.88177016332E-03 -4.19466357962E-03 +5.08291490610E-03 -4.24946268975E-03 -1.11318906465E-01 -5.17939329083E-01
4.26000000000E+09 -1.60220464005E-01 -2.59874624782E-01 +4.25767447760E-03 -4.62735946379E-03 +4.41666585617E-03 -4.69180318226E-03 -1.31972169421E-01 -5.03954088689E-01
4.26500000000E+09 -1.76953489952E-01 -2.46702162343E-01 +3.91338910121E-03 -4.61848123194E-03 +4.06891400223E-03 -4.65708923035E-03 -1.51957585065E-01 -4.89464212761E-01
4.27000000000E+09 -1.92473497086E-01 -2.33441770342E-01 +3.70921340905E-03 -5.35007955736E-03 +3.86687065116E-03 -5.47853678736E-03 -1.71233692023E-01 -4.74350607239E-01
4.27500000000E+09 -2.06722852509E-01 -2.20377590451E-01 +3.09868825775E-03 -5.84465730698E-03 +3.18148403939E-03 -5.98620074373E-03 -1.91679230018E-01 -4.58104430661E-01
4.28000000000E+09 -2.17988841899E-01 -2.06440417726E-01 +2.55217144240E-03 -6.20813545641E-03 +2.63569727450E-03 -6.37410539881E-03 -2.10636571320E-01 -4.41638372024E-01
4.28500000000E+09 -2.26350066468E-01 -1.92693790992E-01 +1.99251013521E-03 -6.97544752833E-03 +2.06346810003E-03 -7.18051204144E-03 -2.30539008744E-01 -4.24700720962E-01
4.29000000000E+09 -2.33623049293E-01 -1.78370301042E-01 +4.55577778068E-04 -7.34113208497E-03 +4.78947499868E-04 -7.52209952792E-03 -2.48412969437E-01 -4.05407971759E-01
4.29500000000E+09 -2.40465969747E-01 -1.63108953442E-01 -3.86219896047E-04 -6.54897773926E-03 -4.40915398697E-04 -6.75046351596E-03 -2.63262632000E-01 -3.88199100456E-01
4.30000000000E+09 -2.47614977819E-01 -1.45861076769E-01 -9.06439908265E-04 -6.24232435369E-03 -9.90746537952E-04 -6.45072416393E-03 -2.79962749944E-01 -3.70384018860E-01
4.30500000000E+09 -2.54616453889E-01 -1.27330861246E-01 -1.07037933531E-03 -5.84019223015E-03 -1.17043971661E-03 -5.93261353602E-03 -2.96091662879E-01 -3.49768367528E-01
4.31000000000E+09 -2.62437114851E-01 -1.07275954832E-01 -9.14801442711E-04 -6.05915694075E-03 -1.04765265354E-03 -6.24368707110E-03 -3.11135207269E-01 -3.28796001993E-01
4.31500000000E+09 -2.69446538730E-01 -8.76736099668E-02 -1.49457033062E-03 -6.56872903485E-03 -1.61882347405E-03 -6.73956826817E-03 -3.25117223242E-01 -3.06777479931E-01
4.32000000000E+09 -2.76121632225E-01 -6.86845656373E-02 -2.41870523818E-03 -6.96086538657E-03 -2.50181158855E-03 -7.05875089994E-03 -3.38048408208E-01 -2.85052284667E-01
4.32500000000E+09 -2.81980257242E-01 -5.23217267781E-02 -4.03632784813E-03 -6.69670077831E-03 -4.19002309188E-03 -6.83648851906E-03 -3.50478043375E-01 -2.63066603479E-01
4.33000000000E+09 -2.87995316127E-01 -3.68383128186E-02 -4.45595075466E-03 -6.07044804988E-03 -4.62332918444E-03 -6.11217570080E-03 -3.62483710134E-01 -2.39499149135E-01
4.33500000000E+09 -2.92582878607E-01 -2.11071323198E-02 -5.41426420088E-03 -5.64231078383E-03 -5.55068825873E-03 -5.58849613283E-03 -3.72492332266E-01 -2.14537893453E-01
4.34000000000E+09 -2.94909402678E-01 -5.07550591233E-03 -6.09048286060E-03 -4.67390277808E-03 -6.16621554548E-03 -4.57219369631E-03 -3.80426702388E-01 -1.89820842212E-01
4.34500000000E+09 -2.94460575039E-01 +1.08609845000E-02 -5.95171191201E-03 -3.90868659096E-03 -5.94957915158E-03 -3.85827397769E-03 -3.89326241585E-01 -1.67159269825E-01
4.35000000000E+09 -2.93392520992E-01 +2.77187910422E-02 -6.37580432276E-03 -3.97046229732E-03 -6.37339995705E-03 -3.94531068876E-03 -3.99150768219E-01 -1.42214982414E-01
4.35500000000E+09 -2.91204020805E-01 +4.57234267315E-02 -7.26161455763E-03 -3.33071905206E-03 -7.37197125271E-03 -3.34569034110E-03 -4.06274118397E-01 -1.16056933672E-01
4.36000000000E+09 -2.89418567883E-01 +6.44064930418E-02 -7.18277752372E-03 -2.51593328672E-03 -7.27016418302E-03 -2.49013443153E-03 -4.11396540149E-01 -9.14682440250E-02
4.36500000000E+09 -2.87800959504E-01 +8.43184643090E-02 -8.25007821889E-03 -2.67127789466E-03 -8.34682845363E-03 -2.61695008728E-03 -4.15203920403E-01 -6.72906623436E-02
4.37000000000E+09 -2.87408960228E-01 +1.03920495734E-01 -9.31605851707E-03 -9.30509195543E-04 -9.41452005627E-03 -7.89205276140E-04 -4.17867484646E-01 -4.31214514703E-02
4.37500000000E+09 -2.87466681740E-01 +1.23288357879E-01 -9.17901201004E-03 +7.33963292504E-04 -9.26814085647E-03 +8.92258130826E-04 -4.19972408671E-01 -1.90637337317E-02
4.38000000000E+09 -2.88296373784E-01 +1.40934810306E-01 -8.86165643654E-03 +1.81846592009E-03 -8.97624448499E-03 +1.97843110727E-03 -4.21850526059E-01 +6.94543995371E-03
4.38500000000E+09 -2.88742337336E-01 +1.57496773450E-01 -8.23896888734E-03 +2.81772202316E-03 -8.34076137183E-03 +2.96441436982E-03 -4.21121125768E-01 +3.24559755559E-02
4.39000000000E+09 -2.88035440761E-01 +1.72456440530E-01 -7.76001392892E-03 +3.68055815291E-03 -7.79195829366E-03 +3.83670652830E-03 -4.20900030940E-01 +5.64246801048E-02
4.39500000000E+09 -2.86162943017E-01 +1.85756990008E-01 -7.61898994602E-03 +4.09306825945E-03 -7.63617915591E-03 +4.25521608034E-03 -4.20305304020E-01 +8.06000539908E-02
4.40000000000E+09 -2.82141936145E-01 +1.99168160686E-01 -7.11492520525E-03 +5.45597451645E-03 -7.08551384364E-03 +5.56442225997E-03 -4.18746701747E-01 +1.04545661499E-01
4.40500000000E+09 -2.76820351536E-01 +2.11739410963E-01 -6.45889760339E-03 +6.27408268110E-03 -6.48371588548E-03 +6.37621976647E-03 -4.15195921698E-01 +1.28644056403E-01
4.41000000000E+09 -2.70377920811E-01 +2.25821507674E-01 -5.41690648953E-03 +6.56196947466E-03 -5.34022333549E-03 +6.67941644378E-03 -4.10484093291E-01 +1.52593770915E-01
4.41500000000E+09 -2.62776982869E-01 +2.41163571113E-01 -5.14652652564E-03 +7.61967227339E-03 -5.15686708565E-03 +7.77968599659E-03 -4.04819924393E-01 +1.76239765542E-01
4.42000000000E+09 -2.55665526363E-01 +2.57422681793E-01 -4.17345912311E-03 +7.92165093339E-03 -4.05092957124E-03 +8.04717045244E-03 -3.97323699276E-01 +1.99228935943E-01
4.42500000000E+09 -2.48680935101E-01 +2.74566818965E-01 -3.45194728445E-03 +8.85886793336E-03 -3.30629813816E-03 +8.97160878300E-03 -3.91804071296E-01 +2.20422698905E-01
4.43000000000E+09 -2.42734396500E-01 +2.91720577217E-01 -1.56747128165E-03 +9.47313523177E-03 -1.34281864045E-03 +9.46336065846E-03 -3.84944952419E-01 +2.43701058577E-01
4.43500000000E+09 -2.37008196780E-01 +3.07698746635E-01 -2.03076585838E-04 +8.80647586181E-03 -1.61686756773E-04 +8.80384056517E-03 -3.75793481144E-01 +2.65617576285E-01
4.44000000000E+09 -2.32607589158E-01 +3.21520301378E-01 +6.97651953985E-04 +8.19386852935E-03 +8.46888762187E-04 +8.19637817842E-03 -3.66860926843E-01 +2.84953662968E-01
4.44500000000E+09 -2.28377798123E-01 +3.33396321458E-01 +9.26266855594E-04 +7.95092337220E-03 +1.04641519393E-03 +7.96461666616E-03 -3.58466885749E-01 +3.04705390284E-01
4.45000000000E+09 -2.24495927286E-01 +3.43803003392E-01 +1.40726789718E-03 +7.69768391455E-03 +1.52711476325E-03 +7.71720846411E-03 -3.48792299892E-01 +3.24197660991E-01
4.45500000000E+09 -2.18253128984E-01 +3.53599459838E-01 +2.04012574436E-03 +8.37151979054E-03 +2.18950996831E-03 +8.32142655166E-03 -3.38418612487E-01 +3.43344863602E-01
4.46000000000E+09 -2.10529915610E-01 +3.62174836982E-01 +3.54428320021E-03 +8.08964360719E-03 +3.69238244639E-03 +7.98707461884E-03 -3.25881686420E-01 +3.62088807038E-01
4.46500000000E+09 -2.00469371699E-01 +3.71587975628E-01 +4.29314961526E-03 +7.17171454748E-03 +4.45279302989E-03 +7.06593276406E-03 -3.13998550337E-01 +3.78086200002E-01
4.47000000000E+09 -1.88835229114E-01 +3.81115691562E-01 +4.97073700702E-03 +6.87773209698E-03 +5.10259809709E-03 +6.68165861816E-03 -3.02755796515E-01 +3.94904562862E-01
4.47500000000E+09 -1.76005805283E-01 +3.91811964304E-01 +5.42666745571E-03 +6.24682417296E-03 +5.55260344800E-03 +5.99623030626E-03 -2.91168238861E-01 +4.12609556944E-01
4.48000000000E+09 -1.63988028311E-01 +4.02962936922E-01 +6.22289352763E-03 +5.65381868472E-03 +6.29858656106E-03 +5.41996344655E-03 -2.78486704579E-01 +4.29126465036E-01
4.48500000000E+09 -1.53159138383E-01 +4.15402119643E-01 +7.02438063727E-03 +5.23102042441E-03 +7.01638055258E-03 +5.03369351643E-03 -2.64644604234E-01 +4.44380707555E-01
4.49000000000E+09 -1.43344853670E-01 +4.28032583902E-01 +7.69699326803E-03 +3.51894377592E-03 +7.56667722590E-03 +3.29731203628E-03 -2.52011261600E-01 +4.58635783911E-01
4.49500000000E+09 -1.35654999291E-01 +4.39946510837E-01 +7.10978362107E-03 +2.87296768411E-03 +7.03949078810E-03 +2.74994528389E-03 -2.38979480399E-01 +4.73458158030E-01
4.50000000000E+09 -1.28804014726E-01 +4.50565573232E-01 +7.34877775498E-03 +2.75751743600E-03 +7.29248919035E-03 +2.64997237492E-03 -2.24527522433E-01 +4.87402648676E-01
4.50500000000E+09 -1.22883088546E-01 +4.59372594084E-01 +7.78263307603E-03 +2.07300401980E-03 +7.69723006348E-03 +1.93437866678E-03 -2.10615530354E-01 +5.00888274078E-01
4.51000000000E+09 -1.16257963308E-01 +4.66013570942E-01 +8.44866527901E-03 +1.42769189141E-03 +8.34332348383E-03 +1.28331473547E-03 -1.94715299367E-01 +5.13131013513E-01
4.51500000000E+09 -1.09188942146E-01 +4.70987710241E-01 +8.68538568967E-03 +2.70161384716E-04 +8.58294568202E-03 +1.40028636759E-04 -1.80669597649E-01 +5.23427396672E-01
4.52000000000E+09 -9.99420366756E-02 +4.75240129944E-01 +9.00532233180E-03 -1.30929220046E-03 +8.81687256336E-03 -1.36580719089E-03 -1.67483759364E-01 +5.34423766234E-01
4.52500000000E+09 -8.89211569120E-02 +4.78652602715E-01 +7.93578659712E-03 -2.32419876029E-03 +7.77982891560E-03 -2.39489631197E-03 -1.53609524908E-01 +5.45205135033E-01
4.53000000000E+09 -7.63905224707E-02 +4.83014610779E-01 +7.58098317971E-03 -2.88994364139E-03 +7.39684594850E-03 -2.98938064866E-03 -1.38941149768E-01 +5.55005792607E-01
4.53500000000E+09 -6.24439753818E-02 +4.88706275197E-01 +7.04598829858E-03 -3.63077568495E-03 +6.85102816974E-03 -3.71845761381E-03 -1.24215554942E-01 +5.64523359352E-01
4.54000000000E+09 -4.76259124448E-02 +4.95164111361E-01 +6.75491354156E-03 -4.06458225999E-03 +6.55774517798E-03 -4.11896251534E-03 -1.08108718641E-01 +5.73387593641E-01
4.54500000000E+09 -3.38936404279E-02 +5.02384729172E-01 +6.20448328419E-03 -4.70402850955E-03 +5.96398828902E-03 -4.77289633752E-03 -9.36912647689E-02 +5.82245082432E-01
4.55000000000E+09 -2.12886450109E-02 +5.10158529469E-01 +5.89889379506E-03 -5.48749923216E-03 +5.68750016758E-03 -5.41468205690E-03 -7.77839520585E-02 +5.91472926592E-01
4.55500000000E+09 -1.08881751465E-02 +5.17467950155E-01 +4.94692013824E-03 -5.81281066805E-03 +4.77474092005E-03 -5.76897388048E-03 -6.20092999986E-02 +5.99561788096E-01
4.56000000000E+09 -2.81546002644E-03 +5.24935161869E-01 +4.46918197776E-03 -6.32477559006E-03 +4.30167277491E-03 -6.28714839212E-03 -4.68755902486E-02 +6.05668277404E-01
4.56500000000E+09 +5.49929733763E-03 +5.31677128944E-01 +3.88928199214E-03 -6.78469309762E-03 +3.67522362992E-03 -6.63369638615E-03 -3.27850518368E-02 +6.12050445817E-01
4.57000000000E+09 +1.37501208234E-02 +5.36335582604E-01 +3.11826579642E-03 -7.28045596618E-03 +2.85266073670E-03 -7.14928332842E-03 -1.79375231292E-02 +6.18307084839E-01
