# Hz S RI R 50
! CMT, C1220, 16058040, 17.2.0/1
! Date: 15/08/2018 11:30:13
! Data: Format (Calibration Info)
! Freq                      S11: Re/Im (F2)                       S21: Re/Im (F2)                       S12: Re/Im (F2)                       S22: Re/Im (F2)            
4.00000000000E+09 +6.63003536218E-01 -3.57509142915E-01 +1.28385592900E-03 -3.42811384017E-03 +1.42522960087E-03 -3.50168642154E-03 +7.74014790472E-01 -3.56948873609E-01
4.00500000000E+09 +6.55101212376E-01 -3.65449459374E-01 +7.69185341242E-04 -3.76915287902E-03 +9.49602470263E-04 -3.81375639580E-03 +7.65749914972E-01 -3.68116444878E-01
4.01000000000E+09 +6.46386650973E-01 -3.72562216982E-01 +1.56900293255E-04 -3.80099074829E-03 +2.55575278055E-04 -3.87885417657E-03 +7.56978125157E-01 -3.79570236448E-01
4.01500000000E+09 +6.37226474122E-01 -3.79981875752E-01 -3.92967334465E-04 -3.62036081107E-03 -2.31382569621E-04 -3.71351386016E-03 +7.47154757136E-01 -3.90326163222E-01
4.02000000000E+09 +6.27079583949E-01 -3.88486105377E-01 -4.98559939609E-04 -3.38007035946E-03 -3.70378602190E-04 -3.49291153734E-03 +7.37149766977E-01 -4.00890680891E-01
4.02500000000E+09 +6.15992905634E-01 -3.97522996282E-01 -5.35763702885E-04 -3.45690924376E-03 -4.28190977187E-04 -3.53346632872E-03 +7.26839753171E-01 -4.10936304735E-01
4.03000000000E+09 +6.04025160666E-01 -4.06964121701E-01 -8.40352200245E-04 -3.77571921875E-03 -7.09631187062E-04 -3.90744528863E-03 +7.16558923965E-01 -4.21466765630E-01
4.03500000000E+09 +5.92302810300E-01 -4.16267958039E-01 -1.70816473513E-03 -3.75528730956E-03 -1.54169826275E-03 -3.93775520750E-03 +7.05545453668E-01 -4.32668292643E-01
4.04000000000E+09 +5.80797705834E-01 -4.26164339134E-01 -2.02401635703E-03 -3.32175518645E-03 -1.92508099904E-03 -3.48995207088E-03 +6.94154829920E-01 -4.43811698205E-01
4.04500000000E+09 +5.68894413769E-01 -4.35543989150E-01 -2.23028973196E-03 -3.03583793335E-03 -2.21503051403E-03 -3.30893133435E-03 +6.82112001228E-01 -4.54600570382E-01
4.05000000000E+09 +5.57413447406E-01 -4.44260937826E-01 -2.40089497278E-03 -2.92203758311E-03 -2.36522506040E-03 -3.17943343309E-03 +6.70255278681E-01 -4.64400116902E-01
4.05500000000E+09 +5.45413237264E-01 -4.52345853657E-01 -2.45997293771E-03 -3.00876306473E-03 -2.47121121124E-03 -3.16981580445E-03 +6.57735410746E-01 -4.74148621025E-01
4.06000000000E+09 +5.32136173588E-01 -4.59865200555E-01 -3.15287409036E-03 -3.13342314033E-03 -3.21900412320E-03 -3.32150472926E-03 +6.45334998547E-01 -4.83525157102E-01
4.06500000000E+09 +5.18635718961E-01 -4.65692435253E-01 -3.92946857075E-03 -2.47670023491E-03 -4.00073224933E-03 -2.58012940860E-03 +6.31887449055E-01 -4.92650995729E-01
4.07000000000E+09 +5.04976414038E-01 -4.72276226281E-01 -3.84634495186E-03 -1.87174407502E-03 -3.91619799072E-03 -2.02094505657E-03 +6.17894443263E-01 -5.02063447002E-01
4.07500000000E+09 +4.89662746976E-01 -4.79296935854E-01 -3.98858953170E-03 -1.64466647587E-03 -4.03711384669E-03 -1.81243894808E-03 +6.04061355877E-01 -5.11004787725E-01
4.08000000000E+09 +4.73688869938E-01 -4.85738301598E-01 -4.18948435112E-03 -1.29377413696E-03 -4.22043661771E-03 -1.47762734061E-03 +5.90473565390E-01 -5.20173824579E-01
4.08500000000E+09 +4.57364290878E-01 -4.92697365870E-01 -4.32875724176E-03 -8.19729656753E-04 -4.47674621045E-03 -9.43422432561E-04 +5.76536795870E-01 -5.29575524069E-01
4.09000000000E+09 +4.41071851860E-01 -5.00040347482E-01 -4.48902526085E-03 -4.13721204061E-04 -4.68055363343E-03 -4.70051762812E-04 +5.62132963580E-01 -5.38177116936E-01
4.09500000000E+09 +4.24419604812E-01 -5.06597751303E-01 -4.64009640840E-03 +1.04847021038E-04 -4.80198009103E-03 +2.83279149233E-05 +5.46682255481E-01 -5.46016492020E-01
4.10000000000E+09 +4.09133075333E-01 -5.13245143174E-01 -4.22254583474E-03 +4.55820258025E-04 -4.27925100603E-03 +4.48831096970E-04 +5.30719019911E-01 -5.52891210856E-01
4.10500000000E+09 +3.92545453587E-01 -5.19508680902E-01 -4.49213843205E-03 +4.81613629039E-04 -4.57234999651E-03 +4.21319050395E-04 +5.14590013406E-01 -5.59732067900E-01
4.11000000000E+09 +3.75760782859E-01 -5.23273702232E-01 -4.91260080282E-03 +1.14073860965E-03 -5.00918546165E-03 +1.11333383723E-03 +4.97794319498E-01 -5.67387645281E-01
4.11500000000E+09 +3.59971416215E-01 -5.25547155995E-01 -4.67158578338E-03 +2.05279335715E-03 -4.84746235959E-03 +2.04600318799E-03 +4.80285929666E-01 -5.74906148889E-01
4.12000000000E+09 +3.43650269183E-01 -5.27703898245E-01 -4.24205834870E-03 +2.61837693473E-03 -4.43535228987E-03 +2.56025065989E-03 +4.62775747052E-01 -5.81590929680E-01
4.12500000000E+09 +3.27066800349E-01 -5.29204835433E-01 -3.87420289279E-03 +3.01297627649E-03 -4.06093383893E-03 +3.01585182609E-03 +4.45698951306E-01 -5.87267098570E-01
4.13000000000E+09 +3.09870431751E-01 -5.31691415171E-01 -3.15913048228E-03 +3.22762623480E-03 -3.36362765735E-03 +3.21159977384E-03 +4.28497205808E-01 -5.92933148388E-01
4.13500000000E+09 +2.90738373473E-01 -5.34999981318E-01 -2.97611481904E-03 +2.98181720652E-03 -3.15177838553E-03 +2.96366233946E-03 +4.10429519292E-01 -5.98599327489E-01
4.14000000000E+09 +2.70566846694E-01 -5.37746466249E-01 -3.14491459957E-03 +3.01968706457E-03 -3.34086333099E-03 +3.01452638556E-03 +3.90505383824E-01 -6.03954072752E-01
4.14500000000E+09 +2.51184090064E-01 -5.40198198235E-01 -3.49878127295E-03 +3.72079224092E-03 -3.70905887064E-03 +3.81461720982E-03 +3.70205731297E-01 -6.08176384652E-01
4.15000000000E+09 +2.32725717264E-01 -5.44556127383E-01 -2.66448656443E-03 +4.50042472176E-03 -2.83858251921E-03 +4.60387997292E-03 +3.50881711629E-01 -6.11647098556E-01
4.15500000000E+09 +2.13118775462E-01 -5.47446054177E-01 -2.29795526181E-03 +4.60252820890E-03 -2.44228139027E-03 +4.78204744465E-03 +3.31840337770E-01 -6.15218468073E-01
4.16000000000E+09 +1.95432785825E-01 -5.49307848195E-01 -1.80811038287E-03 +4.95416359089E-03 -1.84863468000E-03 +5.10459305392E-03 +3.12739224421E-01 -6.18205676726E-01
4.16500000000E+09 +1.78226627043E-01 -5.50135057456E-01 -1.27080903508E-03 +5.00005635022E-03 -1.30677013871E-03 +5.09218317657E-03 +2.92503730446E-01 -6.20224805646E-01
4.17000000000E+09 +1.61126130811E-01 -5.49286292145E-01 -1.08118256945E-03 +5.09966885173E-03 -1.23285544805E-03 +5.21810658031E-03 +2.72183172213E-01 -6.20723673643E-01
4.17500000000E+09 +1.44021031448E-01 -5.46306218829E-01 -5.91312189855E-04 +5.66008185174E-03 -6.40435740586E-04 +5.78619496020E-03 +2.52004300752E-01 -6.21002773304E-01
4.18000000000E+09 +1.27432558166E-01 -5.42244609959E-01 +5.10455871089E-04 +5.63587340286E-03 +4.04683261939E-04 +5.83919872842E-03 +2.31149274683E-01 -6.21890942575E-01
4.18500000000E+09 +1.08660605856E-01 -5.38249880212E-01 +6.84679115604E-04 +5.06862924301E-03 +6.92919602678E-04 +5.23978095907E-03 +2.08756047348E-01 -6.22482158448E-01
4.19000000000E+09 +8.89669738634E-02 -5.32532984952E-01 +6.27940394870E-04 +5.23546362375E-03 +5.79512939566E-04 +5.37216169064E-03 +1.86092939333E-01 -6.21307331474E-01
4.19500000000E+09 +6.91556252677E-02 -5.27230527521E-01 +1.04282651167E-03 +5.81180306251E-03 +1.01798175089E-03 +5.96765969482E-03 +1.63850274647E-01 -6.19118396454E-01
4.20000000000E+09 +4.83452741982E-02 -5.22550021958E-01 +1.93751413115E-03 +6.09303906590E-03 +1.90310341635E-03 +6.25738709634E-03 +1.42549398084E-01 -6.16203834576E-01
4.20500000000E+09 +2.75678905754E-02 -5.18120575280E-01 +3.14414538485E-03 +6.16292150043E-03 +3.21456791248E-03 +6.39652838055E-03 +1.20533461661E-01 -6.12921814512E-01
4.21000000000E+09 +7.34712145921E-03 -5.13180447549E-01 +4.32687788270E-03 +5.44785616300E-03 +4.40404885390E-03 +5.68378184102E-03 +9.77047848519E-02 -6.09029735706E-01
4.21500000000E+09 -1.14930690309E-02 -5.08889969388E-01 +4.52237838170E-03 +4.25996301918E-03 +4.61048742916E-03 +4.42031059067E-03 +7.47013680617E-02 -6.04060283504E-01
4.22000000000E+09 -2.98126482975E-02 -5.02999371086E-01 +4.51424835547E-03 +4.08679137927E-03 +4.60483349845E-03 +4.20343404255E-03 +5.26523379492E-02 -5.98126485132E-01
4.22500000000E+09 -4.60564631101E-02 -4.95877774030E-01 +4.97886507545E-03 +3.99164182156E-03 +5.07977236195E-03 +4.09189423556E-03 +3.08059774325E-02 -5.92134531410E-01
4.23000000000E+09 -6.20236723197E-02 -4.88233876905E-01 +5.76811706888E-03 +3.37694503367E-03 +5.89458653364E-03 +3.54528128889E-03 +1.01029460130E-02 -5.84711845847E-01
4.23500000000E+09 -7.89502971693E-02 -4.77939358471E-01 +5.83368372000E-03 +2.78735471712E-03 +5.96514842657E-03 +2.89807731203E-03 -1.19833261327E-02 -5.77512315491E-01
4.24000000000E+09 -9.54094191664E-02 -4.66188802976E-01 +6.15187134195E-03 +2.51952579390E-03 +6.29983138419E-03 +2.57023821159E-03 -3.41313867908E-02 -5.68173849575E-01
4.24500000000E+09 -1.12678778743E-01 -4.53907705642E-01 +6.49450235805E-03 +1.64056783619E-03 +6.64157529570E-03 +1.68673829965E-03 -5.61163829614E-02 -5.57337789980E-01
4.25000000000E+09 -1.31801138330E-01 -4.40963150217E-01 +6.46920655401E-03 +1.55454066157E-03 +6.65305767483E-03 +1.63938714752E-03 -7.64818051046E-02 -5.46638878465E-01
4.25500000000E+09 -1.51408312513E-01 -4.27956585487E-01 +7.24571405570E-03 +1.10833986867E-03 +7.44380804101E-03 +1.07656022140E-03 -9.66945586923E-02 -5.35315727136E-01
4.26000000000E+09 -1.71389057837E-01 -4.15882871034E-01 +8.09510331578E-03 -1.86699009714E-04 +8.23546631052E-03 -2.45541313212E-04 -1.17221443050E-01 -5.23720622585E-01
4.26500000000E+09 -1.92267034055E-01 -4.04825939723E-01 +7.50733738020E-03 -1.37172556314E-03 +7.67436326997E-03 -1.52141523534E-03 -1.37555319931E-01 -5.10477455814E-01
4.27000000000E+09 -2.12055286667E-01 -3.92458205010E-01 +7.30545187634E-03 -2.11398765417E-03 +7.41474741230E-03 -2.22194318128E-03 -1.58823736105E-01 -4.96527237924E-01
4.27500000000E+09 -2.29993633548E-01 -3.80756802121E-01 +6.92845117560E-03 -3.23763174288E-03 +7.01561941647E-03 -3.36170279279E-03 -1.78977368739E-01 -4.80167878783E-01
4.28000000000E+09 -2.45990891559E-01 -3.68214654032E-01 +6.12662111935E-03 -3.37257499656E-03 +6.11944924574E-03 -3.49267111448E-03 -1.97609500818E-01 -4.65972912992E-01
4.28500000000E+09 -2.59983203549E-01 -3.55182734882E-01 +6.32097104772E-03 -3.44116792612E-03 +6.41035206205E-03 -3.53061035427E-03 -2.18981572231E-01 -4.50758839882E-01
4.29000000000E+09 -2.72528421033E-01 -3.40877260313E-01 +6.65636880813E-03 -4.55816409675E-03 +6.72309830662E-03 -4.73724960523E-03 -2.38787716321E-01 -4.33169385332E-01
4.29500000000E+09 -2.84331551164E-01 -3.26209125586E-01 +5.59866267312E-03 -5.67246160764E-03 +5.63441154329E-03 -5.80863945041E-03 -2.56208862502E-01 -4.13834169133E-01
4.30000000000E+09 -2.97148317733E-01 -3.09501525861E-01 +5.50877477192E-03 -5.88324373002E-03 +5.58227134217E-03 -6.00339392797E-03 -2.72016551611E-01 -3.95672564156E-01
4.30500000000E+09 -3.10591226647E-01 -2.91421679284E-01 +4.68974747188E-03 -7.15037980270E-03 +4.74809235990E-03 -7.35652655034E-03 -2.87436859884E-01 -3.76250712995E-01
4.31000000000E+09 -3.23716816211E-01 -2.71323379585E-01 +3.60190452339E-03 -7.53412125203E-03 +3.59186409552E-03 -7.67832654357E-03 -3.02753153528E-01 -3.56475556277E-01
4.31500000000E+09 -3.36558744473E-01 -2.51674032167E-01 +2.98699347657E-03 -7.81481071873E-03 +2.98072510146E-03 -7.92486229841E-03 -3.18803083281E-01 -3.35425737654E-01
4.32000000000E+09 -3.48678482223E-01 -2.32116130446E-01 +1.88675361464E-03 -8.51214889034E-03 +1.84761431845E-03 -8.71511631043E-03 -3.32602578289E-01 -3.12822585320E-01
4.32500000000E+09 -3.59170840707E-01 -2.14181920874E-01 +1.06256708722E-05 -8.42655570911E-03 -8.89062555529E-05 -8.51533614672E-03 -3.44507809963E-01 -2.90536678768E-01
4.33000000000E+09 -3.70187676300E-01 -1.97905530124E-01 -1.54499095923E-05 -7.04630240039E-03 -1.10472407018E-04 -7.13351929035E-03 -3.55905393376E-01 -2.70042827832E-01
4.33500000000E+09 -3.80398014676E-01 -1.80324702561E-01 +2.94396021147E-04 -7.49127924595E-03 +1.72899849220E-04 -7.55447889737E-03 -3.67913480955E-01 -2.46814141613E-01
4.34000000000E+09 -3.88065532835E-01 -1.61484134485E-01 -4.44775735937E-04 -8.21493395663E-03 -5.58462144117E-04 -8.24433246924E-03 -3.78654595670E-01 -2.22622883562E-01
4.34500000000E+09 -3.93456340434E-01 -1.42011666731E-01 -1.21611237248E-03 -8.92005331474E-03 -1.31358698532E-03 -8.92581284241E-03 -3.88095192534E-01 -1.97235375108E-01
4.35000000000E+09 -3.97145220264E-01 -1.21382771099E-01 -3.05787111936E-03 -9.18972691159E-03 -3.09594956323E-03 -9.20017688493E-03 -3.96514378329E-01 -1.73188137210E-01
4.35500000000E+09 -4.00330174848E-01 -1.00009673360E-01 -4.64805822867E-03 -8.34447693652E-03 -4.73948922554E-03 -8.41034198671E-03 -4.05317503636E-01 -1.50042038833E-01
4.36000000000E+09 -4.03643358818E-01 -7.81512068070E-02 -5.05622216648E-03 -6.89691519338E-03 -5.20925793921E-03 -6.98478224802E-03 -4.13320126604E-01 -1.26675736479E-01
4.36500000000E+09 -4.08319405830E-01 -5.50878800751E-02 -5.45851931600E-03 -6.98993948587E-03 -5.64201197970E-03 -6.98305135678E-03 -4.19460488988E-01 -1.01507370468E-01
4.37000000000E+09 -4.13572685438E-01 -3.12573507010E-02 -6.39643326730E-03 -6.22383167628E-03 -6.57114050775E-03 -6.23762371373E-03 -4.23554985911E-01 -7.65878818207E-02
4.37500000000E+09 -4.18560244994E-01 -8.33560320022E-03 -6.70462119756E-03 -5.83619016654E-03 -6.88610312016E-03 -5.76215755511E-03 -4.25259076371E-01 -5.13652132499E-02
4.38000000000E+09 -4.23487803782E-01 +1.36706993453E-02 -7.40143093635E-03 -5.20590179861E-03 -7.57994641206E-03 -5.08983684892E-03 -4.28306517184E-01 -2.81168656446E-02
4.38500000000E+09 -4.27330437977E-01 +3.45092006029E-02 -8.28534567316E-03 -4.55237798071E-03 -8.49236050166E-03 -4.43923750443E-03 -4.31721802089E-01 -2.20678961337E-03
4.39000000000E+09 -4.29933058900E-01 +5.34460249852E-02 -8.57748995407E-03 -3.81066504177E-03 -8.74801791100E-03 -3.65854705140E-03 -4.33442403835E-01 +2.53142452686E-02
4.39500000000E+09 -4.30401530376E-01 +7.09036999439E-02 -9.56682726243E-03 -3.23215111148E-03 -9.69614869957E-03 -2.97788385115E-03 -4.31953513222E-01 +5.13426136084E-02
4.40000000000E+09 -4.29875584237E-01 +8.83258678006E-02 -1.05308611642E-02 -1.49669798309E-03 -1.05678539131E-02 -1.23240183940E-03 -4.29192898295E-01 +7.53002515560E-02
4.40500000000E+09 -4.27426672134E-01 +1.05884448387E-01 -1.05820778953E-02 -9.99891693207E-05 -1.06457106616E-02 +7.90665709627E-05 -4.26092175698E-01 +9.82165273944E-02
4.41000000000E+09 -4.24445720894E-01 +1.25020468711E-01 -1.02208051569E-02 +2.08193541915E-03 -1.02098434205E-02 +2.29652202812E-03 -4.23768962636E-01 +1.20179635937E-01
4.41500000000E+09 -4.20748227266E-01 +1.46209950429E-01 -9.26847756719E-03 +2.87039816890E-03 -9.23172248235E-03 +3.05602419822E-03 -4.20734629772E-01 +1.45726966928E-01
4.42000000000E+09 -4.15794561890E-01 +1.68474157878E-01 -8.66292038827E-03 +3.32475914777E-03 -8.56963398666E-03 +3.52354612702E-03 -4.14239920549E-01 +1.70682546926E-01
4.42500000000E+09 -4.11639248171E-01 +1.90913295905E-01 -8.44846690452E-03 +3.82076159102E-03 -8.26551266265E-03 +3.97204507840E-03 -4.07108580793E-01 +1.92687670226E-01
4.43000000000E+09 -4.07901358769E-01 +2.13115986048E-01 -8.70111564446E-03 +4.56490460950E-03 -8.48509796291E-03 +4.76752572421E-03 -4.02678037303E-01 +2.14717958161E-01
4.43500000000E+09 -4.04702201142E-01 +2.33832097115E-01 -8.40555526792E-03 +6.25470999218E-03 -8.18461279895E-03 +6.32301074536E-03 -3.96645185598E-01 +2.37987412586E-01
4.44000000000E+09 -4.02150448141E-01 +2.52222476070E-01 -7.30550990309E-03 +8.14430552571E-03 -7.07619363172E-03 +8.14878087699E-03 -3.88411516651E-01 +2.60931832530E-01
4.44500000000E+09 -4.00094438332E-01 +2.68790976317E-01 -5.24423448826E-03 +8.22348512733E-03 -5.07067667011E-03 +8.26653236161E-03 -3.77670840089E-01 +2.82296113966E-01
4.45000000000E+09 -3.97410208007E-01 +2.84436632235E-01 -4.19724980656E-03 +8.02464223573E-03 -4.02301770354E-03 +8.08891975544E-03 -3.67418882797E-01 +3.00667456121E-01
4.45500000000E+09 -3.92354353026E-01 +2.99090462704E-01 -4.20934809458E-03 +8.12275602613E-03 -3.99678682229E-03 +8.18118711819E-03 -3.57998473160E-01 +3.18860202464E-01
4.46000000000E+09 -3.85362879853E-01 +3.13341561403E-01 -3.18728610279E-03 +9.20553959396E-03 -2.96389043599E-03 +9.26380542323E-03 -3.49302452632E-01 +3.39026168782E-01
4.46500000000E+09 -3.75477028643E-01 +3.28872055573E-01 -1.91599015584E-03 +9.35609239673E-03 -1.61725251518E-03 +9.36006172651E-03 -3.36420479815E-01 +3.58233825583E-01
4.47000000000E+09 -3.62914498335E-01 +3.43818764484E-01 -5.12317028468E-04 +9.26173700103E-03 -2.54894217198E-04 +9.19592640240E-03 -3.24315491963E-01 +3.76083966285E-01
4.47500000000E+09 -3.50610384025E-01 +3.59309633428E-01 +2.98618770861E-04 +8.43677569617E-03 +5.13761922209E-04 +8.31624592689E-03 -3.11866602196E-01 +3.93170561454E-01
4.48000000000E+09 -3.39097014510E-01 +3.76749767082E-01 +1.51483796876E-04 +8.55676424321E-03 +3.85557847498E-04 +8.43190542373E-03 -3.00447735453E-01 +4.10588827591E-01
4.48500000000E+09 -3.27428132454E-01 +3.95410219235E-01 +1.14180213310E-03 +9.08356361952E-03 +1.33166073477E-03 +8.85296059352E-03 -2.87385648605E-01 +4.27731808086E-01
4.49000000000E+09 -3.17750572033E-01 +4.13385260801E-01 +2.54651501943E-03 +9.56995309765E-03 +2.63846695079E-03 +9.19470929881E-03 -2.73938327913E-01 +4.43800577464E-01
4.49500000000E+09 -3.08958649054E-01 +4.31423359354E-01 +4.11927921560E-03 +8.68076306992E-03 +4.12904661208E-03 +8.39073532856E-03 -2.58817618498E-01 +4.57653926275E-01
4.50000000000E+09 -3.00451489639E-01 +4.47148457344E-01 +4.94163181425E-03 +7.74608109204E-03 +4.92723545770E-03 +7.58928309807E-03 -2.45457682438E-01 +4.70732348768E-01
4.50500000000E+09 -2.93233989692E-01 +4.60607487900E-01 +5.81564411966E-03 +6.93331623390E-03 +5.78154408738E-03 +6.73835050393E-03 -2.31833853060E-01 +4.83532738388E-01
4.51000000000E+09 -2.85612979767E-01 +4.71841898444E-01 +5.83479846050E-03 +6.05588541464E-03 +5.88992476886E-03 +5.83513611839E-03 -2.19076835543E-01 +4.97667266032E-01
4.51500000000E+09 -2.76577261908E-01 +4.80916932979E-01 +6.20205299699E-03 +5.90112323927E-03 +6.19428533705E-03 +5.68444957443E-03 -2.04776494265E-01 +5.10796635617E-01
4.52000000000E+09 -2.66463371467E-01 +4.88727347190E-01 +7.20369111653E-03 +5.33832770417E-03 +7.24513508071E-03 +5.09410463732E-03 -1.90737841728E-01 +5.23348949932E-01
4.52500000000E+09 -2.54599421220E-01 +4.97035637806E-01 +7.71430902591E-03 +3.86349326047E-03 +7.54488330129E-03 +3.63157269005E-03 -1.75792558227E-01 +5.34115287948E-01
4.53000000000E+09 -2.40531738461E-01 +5.06293360336E-01 +7.65893704670E-03 +3.43880914433E-03 +7.59228773402E-03 +3.23344230993E-03 -1.61756286579E-01 +5.44517856351E-01
4.53500000000E+09 -2.24206403169E-01 +5.16374400986E-01 +8.10365188304E-03 +2.79182818862E-03 +7.96593906617E-03 +2.57147982527E-03 -1.46583022218E-01 +5.54543491912E-01
4.54000000000E+09 -2.07220769339E-01 +5.26659968932E-01 +8.49082966041E-03 +1.88769841326E-03 +8.30316440244E-03 +1.64564877771E-03 -1.31031067724E-01 +5.65302084820E-01
4.54500000000E+09 -1.90656629512E-01 +5.37568252502E-01 +8.92731663278E-03 +7.24280682470E-04 +8.73074109149E-03 +4.95158283497E-04 -1.14020932653E-01 +5.73903413661E-01
4.55000000000E+09 -1.75605980121E-01 +5.48033657578E-01 +8.83844421487E-03 -5.59909079363E-04 +8.62599822924E-03 -7.31360246131E-04 -9.84672945315E-02 +5.82594645825E-01
4.55500000000E+09 -1.63277396269E-01 +5.58460554056E-01 +8.44175412455E-03 -2.45758502789E-03 +8.17748125186E-03 -2.48794402353E-03 -8.34325616971E-02 +5.90124123096E-01
4.56000000000E+09 -1.52639266055E-01 +5.69171120079E-01 +6.59243407348E-03 -3.01071979925E-03 +6.41213193464E-03 -3.08528751670E-03 -6.99370423827E-02 +5.98614628714E-01
4.56500000000E+09 -1.42444279573E-01 +5.79222910388E-01 +6.04171502753E-03 -2.64008196877E-03 +5.90241779665E-03 -2.69688187754E-03 -5.46702463025E-02 +6.06897283747E-01
4.57000000000E+09 -1.32287994986E-01 +5.87790931068E-01 +6.06163044713E-03 -2.51728235502E-03 +5.87186811524E-03 -2.53531699434E-03 -3.89051538826E-02 +6.13541366114E-01
