# Hz S RI R 50
! CMT, C1220, 16058040, 17.2.0/1
! Date: 15/08/2018 12:35:14
! Data: Format (Calibration Info)
! Freq                      S11: Re/Im (F2)                       S21: Re/Im (F2)                       S12: Re/Im (F2)                       S22: Re/Im (F2)            
4.00000000000E+09 +6.63493379157E-01 -3.66227294242E-01 -2.60672796330E-04 -8.84175463861E-04 -2.55925271866E-04 -9.18004800977E-04 +7.83848204667E-01 -3.17209430526E-01
4.00500000000E+09 +6.55195509285E-01 -3.73003501426E-01 -3.12732769281E-04 -7.40531137505E-04 -2.78606680254E-04 -8.40526115139E-04 +7.75314552404E-01 -3.28893020024E-01
4.01000000000E+09 +6.45996067915E-01 -3.79515234623E-01 -4.17447140274E-04 -7.77430057827E-04 -3.87455045808E-04 -8.12612003411E-04 +7.66447046084E-01 -3.40854770063E-01
4.01500000000E+09 +6.36108582532E-01 -3.86550390319E-01 -4.79375200909E-04 -6.67815634734E-04 -4.45539510853E-04 -6.91557897779E-04 +7.57688100934E-01 -3.51891592663E-01
4.02000000000E+09 +6.25622286918E-01 -3.95198257063E-01 -4.61278678915E-04 -6.31641357830E-04 -4.34567412759E-04 -6.49080658430E-04 +7.48563472254E-01 -3.62718391670E-01
4.02500000000E+09 +6.14659191814E-01 -4.05173700769E-01 -5.02589373126E-04 -6.27851149432E-04 -4.76757695240E-04 -7.36093186066E-04 +7.38882324847E-01 -3.72465572741E-01
4.03000000000E+09 +6.02935229739E-01 -4.15769169548E-01 -7.22786256730E-04 -7.25622421605E-04 -7.20314578396E-04 -7.57300101990E-04 +7.29101445560E-01 -3.83005870851E-01
4.03500000000E+09 +5.91694206148E-01 -4.26105603934E-01 -7.62694661348E-04 -5.03275593985E-04 -6.92017078330E-04 -5.72090505188E-04 +7.17968694823E-01 -3.94065621655E-01
4.04000000000E+09 +5.80807907360E-01 -4.36817257830E-01 -8.64590567958E-04 -4.98530538903E-04 -9.07282395256E-04 -4.76910552041E-04 +7.07222751782E-01 -4.05122112402E-01
4.04500000000E+09 +5.69294059425E-01 -4.46656380511E-01 -8.76457129132E-04 -2.21116059456E-04 -8.83179138575E-04 -2.49092584982E-04 +6.96604346725E-01 -4.16520074558E-01
4.05000000000E+09 +5.58090279599E-01 -4.54212400152E-01 -6.43294680702E-04 -9.63347179435E-05 -7.09737081056E-04 -1.29700633592E-04 +6.85363972422E-01 -4.27253069661E-01
4.05500000000E+09 +5.46686494892E-01 -4.60987213247E-01 -6.29883956933E-04 -1.84232678664E-04 -6.63469785958E-04 -2.11479189672E-04 +6.74192671719E-01 -4.36696502792E-01
4.06000000000E+09 +5.34082650799E-01 -4.66151201636E-01 -7.20052168943E-04 -2.72421498480E-04 -7.26549146280E-04 -2.84043049052E-04 +6.62834083882E-01 -4.46139044670E-01
4.06500000000E+09 +5.21171533186E-01 -4.70329264052E-01 -8.40827782643E-04 -2.59593339089E-04 -8.53686490071E-04 -3.04901983312E-04 +6.50005962601E-01 -4.55185700478E-01
4.07000000000E+09 +5.07041519668E-01 -4.75345320203E-01 -9.36098629287E-04 -1.64029543394E-04 -9.35036858121E-04 -2.22651675819E-04 +6.37015941970E-01 -4.65048039478E-01
4.07500000000E+09 +4.91935508999E-01 -4.80581408689E-01 -1.02013507572E-03 -7.75796149165E-05 -1.01891456127E-03 -6.57529462397E-05 +6.23353764437E-01 -4.75328288780E-01
4.08000000000E+09 +4.75526227357E-01 -4.86860719754E-01 -1.10872972107E-03 +1.06532994677E-04 -1.07001460840E-03 +9.41339383298E-05 +6.09683944380E-01 -4.85086109297E-01
4.08500000000E+09 +4.58276803916E-01 -4.93245390438E-01 -1.09693128104E-03 +3.76521231079E-04 -1.07698904471E-03 +3.07497296668E-04 +5.96510400300E-01 -4.94609114245E-01
4.09000000000E+09 +4.41632047711E-01 -5.00102073761E-01 -9.02593927884E-04 +4.06927010304E-04 -9.60347131524E-04 +3.80811068447E-04 +5.82821588848E-01 -5.03345673438E-01
4.09500000000E+09 +4.25199607709E-01 -5.07064680227E-01 -9.12632761975E-04 +3.60856507409E-04 -9.54547142520E-04 +3.81720718570E-04 +5.68682051253E-01 -5.11233682389E-01
4.10000000000E+09 +4.08100927190E-01 -5.12985733093E-01 -9.50198839766E-04 +5.48739270475E-04 -1.00066212492E-03 +5.64616580282E-04 +5.53619600420E-01 -5.19420917685E-01
4.10500000000E+09 +3.92077258212E-01 -5.17171791435E-01 -9.63443929513E-04 +6.91733362885E-04 -1.00428129963E-03 +6.61125240081E-04 +5.37378409831E-01 -5.27303424951E-01
4.11000000000E+09 +3.76040527312E-01 -5.20226415804E-01 -8.28269218113E-04 +8.98889557322E-04 -8.43839165578E-04 +8.80650086741E-04 +5.20787460730E-01 -5.35272796433E-01
4.11500000000E+09 +3.59622155073E-01 -5.21881812446E-01 -6.77658016430E-04 +1.09514436229E-03 -6.81067690021E-04 +1.13234235060E-03 +5.04559798108E-01 -5.42713021833E-01
4.12000000000E+09 +3.42391516992E-01 -5.22404683634E-01 -4.01644428079E-04 +1.10871288051E-03 -4.70215530037E-04 +1.12414202009E-03 +4.88600705680E-01 -5.50055159806E-01
4.12500000000E+09 +3.24836255344E-01 -5.22301415235E-01 -3.16547283546E-04 +1.07418823726E-03 -3.32699561952E-04 +1.14508694851E-03 +4.71943552927E-01 -5.56869932279E-01
4.13000000000E+09 +3.06190432961E-01 -5.23728908117E-01 -6.96633317459E-05 +8.57964928917E-04 -6.78499903691E-05 +8.59886239619E-04 +4.54718078254E-01 -5.62916633963E-01
4.13500000000E+09 +2.86225777620E-01 -5.25251026240E-01 -3.45090573345E-04 +7.81469294809E-04 -3.35819834387E-04 +8.39428515260E-04 +4.36417735516E-01 -5.68902486244E-01
4.14000000000E+09 +2.66516551298E-01 -5.27624741881E-01 -3.14797437914E-04 +1.04744151819E-03 -3.58650670066E-04 +1.06615424354E-03 +4.17177767940E-01 -5.74372268738E-01
4.14500000000E+09 +2.46191144015E-01 -5.31920840071E-01 -1.81399647181E-04 +1.20447136332E-03 -2.52870330892E-04 +1.20115442699E-03 +3.98351372377E-01 -5.79615822309E-01
4.15000000000E+09 +2.25482459160E-01 -5.35062499918E-01 +2.70079634057E-05 +1.40722403587E-03 +2.66335041770E-05 +1.48615716132E-03 +3.80206924780E-01 -5.84873614194E-01
4.15500000000E+09 +2.06604809023E-01 -5.37668311715E-01 +4.09005489414E-04 +1.31948266804E-03 +4.58829535096E-04 +1.37180780651E-03 +3.61459071662E-01 -5.88875679105E-01
4.16000000000E+09 +1.88875389482E-01 -5.39368197533E-01 +6.55437078767E-04 +1.04226312167E-03 +6.81477949369E-04 +1.09840315298E-03 +3.43840051568E-01 -5.91417264507E-01
4.16500000000E+09 +1.71127390934E-01 -5.39028692308E-01 +5.13079208054E-04 +7.18911050823E-04 +4.78218808388E-04 +7.28446311371E-04 +3.24622964705E-01 -5.94874908372E-01
4.17000000000E+09 +1.54337260212E-01 -5.36011840503E-01 +3.15923221986E-04 +9.33782627370E-04 +3.31438170095E-04 +9.57986392051E-04 +3.04469656990E-01 -5.96598896718E-01
4.17500000000E+09 +1.38531071233E-01 -5.30806327530E-01 +7.47379762261E-04 +1.03112565957E-03 +7.03790506315E-04 +1.01145729982E-03 +2.83649723712E-01 -5.98512957822E-01
4.18000000000E+09 +1.22165384546E-01 -5.25697780877E-01 +7.31438755291E-04 +5.73956677884E-04 +7.59718559860E-04 +5.71063187271E-04 +2.62965022731E-01 -6.00291831032E-01
4.18500000000E+09 +1.04002847798E-01 -5.19591236377E-01 +3.43088921875E-04 +9.70509231430E-04 +3.26319739770E-04 +9.35393243708E-04 +2.42130161442E-01 -6.01273270021E-01
4.19000000000E+09 +8.51995620731E-02 -5.13494606847E-01 +8.79740219464E-04 +1.16732386961E-03 +8.66181018602E-04 +1.17495499754E-03 +2.21855346691E-01 -6.01353241861E-01
4.19500000000E+09 +6.49170656132E-02 -5.08109321483E-01 +1.06069968612E-03 +7.20753277339E-04 +1.06629622022E-03 +7.21756627071E-04 +2.00941272827E-01 -6.00169879500E-01
4.20000000000E+09 +4.41438914595E-02 -5.02251205542E-01 +1.05909342513E-03 +8.36482553635E-04 +1.05921521322E-03 +8.13210697689E-04 +1.80527628459E-01 -5.98657834391E-01
4.20500000000E+09 +2.44229621562E-02 -4.96979233969E-01 +1.55619857111E-03 +6.21435018759E-04 +1.51894980261E-03 +6.71637294341E-04 +1.57701030068E-01 -5.96748641616E-01
4.21000000000E+09 +5.96480532232E-03 -4.91494968993E-01 +1.41814342195E-03 +1.09199354204E-04 +1.45274895681E-03 +9.31890596535E-05 +1.35264568269E-01 -5.93978808247E-01
4.21500000000E+09 -1.08314292219E-02 -4.85845650634E-01 +1.18928721614E-03 +1.78691296446E-04 +1.13695852288E-03 +2.14007331039E-04 +1.13119258661E-01 -5.91352139121E-01
4.22000000000E+09 -2.69221268412E-02 -4.79193126929E-01 +1.26360702332E-03 +1.64599052883E-04 +1.29504976619E-03 +1.47329409855E-04 +9.15247556735E-02 -5.88233694218E-01
4.22500000000E+09 -4.17766029028E-02 -4.69695351846E-01 +1.72353478930E-03 +6.94665073296E-05 +1.71345046668E-03 +1.59159688436E-04 +6.98688323765E-02 -5.83815825919E-01
4.23000000000E+09 -5.56330938401E-02 -4.59359585800E-01 +1.61385299994E-03 -7.98261201567E-04 +1.64848355709E-03 -7.59217285544E-04 +4.86139106792E-02 -5.77855144648E-01
4.23500000000E+09 -7.11197457374E-02 -4.46636566501E-01 +8.70764165352E-04 -7.40988747829E-04 +9.29020188988E-04 -6.93716641715E-04 +2.67006054689E-02 -5.70764640637E-01
4.24000000000E+09 -8.68850232786E-02 -4.31530306432E-01 +9.26757279029E-04 -3.22090744111E-04 +9.59235838178E-04 -2.73992056072E-04 +4.88878474417E-03 -5.62633112920E-01
4.24500000000E+09 -1.03108718466E-01 -4.17317516046E-01 +1.31135992244E-03 -4.55186181318E-04 +1.37414439858E-03 -4.73241850366E-04 -1.77146231631E-02 -5.54408527342E-01
4.25000000000E+09 -1.22373963695E-01 -4.03158399648E-01 +1.07472611336E-03 -1.06798400754E-03 +1.20306796717E-03 -1.10691204448E-03 -3.96731968929E-02 -5.45082123986E-01
4.25500000000E+09 -1.42188149504E-01 -3.89513092761E-01 +8.39391509719E-04 -7.76851322250E-04 +8.90212285435E-04 -7.71394551260E-04 -6.01940993702E-02 -5.35289868881E-01
4.26000000000E+09 -1.62163814106E-01 -3.76905829319E-01 +1.16184149772E-03 -1.13057064677E-03 +1.20373943005E-03 -1.19224461035E-03 -8.04337658367E-02 -5.24746508060E-01
4.26500000000E+09 -1.81993827909E-01 -3.65187276959E-01 +7.38522711928E-04 -1.71486295550E-03 +7.93475858981E-04 -1.83247883940E-03 -9.96971819136E-02 -5.13836752076E-01
4.27000000000E+09 -1.99238548598E-01 -3.53185788838E-01 -1.72588209313E-04 -1.46160897582E-03 -1.99935176023E-04 -1.56558944878E-03 -1.21505848392E-01 -5.01947771667E-01
4.27500000000E+09 -2.14093300121E-01 -3.41543219179E-01 -6.48854875970E-05 -1.01407567321E-03 -5.11146176153E-05 -1.05826678560E-03 -1.42632717362E-01 -4.87085750158E-01
4.28000000000E+09 -2.26092179955E-01 -3.28941320955E-01 -2.55989314134E-04 -9.43484307862E-04 -2.79972727388E-04 -9.56542759404E-04 -1.62655583858E-01 -4.73184357433E-01
4.28500000000E+09 -2.36507248027E-01 -3.15025630246E-01 -8.00574280251E-05 -5.31945056604E-04 -1.16620885306E-04 -5.87420060552E-04 -1.83182393263E-01 -4.59193471230E-01
4.29000000000E+09 -2.45733908921E-01 -2.98667805794E-01 +3.10107904273E-05 -4.32766723708E-04 -4.51576203647E-05 -5.06251880988E-04 -2.02384923618E-01 -4.44111406484E-01
4.29500000000E+09 -2.54153262986E-01 -2.80908115167E-01 +5.23170275655E-04 -7.23213289839E-04 +5.07882329273E-04 -7.74371011361E-04 -2.20772013721E-01 -4.28959468253E-01
4.30000000000E+09 -2.64035189142E-01 -2.61818450077E-01 +9.87849292776E-05 -1.20641474139E-03 +8.28071163957E-05 -1.24009903279E-03 -2.38624532357E-01 -4.11704513386E-01
4.30500000000E+09 -2.75563844559E-01 -2.41276729541E-01 -3.58118855543E-04 -1.05343859669E-03 -4.16791913130E-04 -1.10358368612E-03 -2.55505690231E-01 -3.93483853302E-01
4.31000000000E+09 -2.87917387246E-01 -2.19903432532E-01 -3.58131402515E-04 -5.53786139942E-04 -3.91405239381E-04 -5.60891302004E-04 -2.72041949845E-01 -3.75039814204E-01
4.31500000000E+09 -3.00833313632E-01 -1.99482162590E-01 -2.77891979159E-04 -6.62339167484E-04 -2.85161551192E-04 -6.31065145092E-04 -2.88578016906E-01 -3.55404999365E-01
4.32000000000E+09 -3.13220955503E-01 -1.80664171344E-01 -2.34444092905E-04 -2.60616668902E-04 -2.28239131266E-04 -2.60061723777E-04 -3.03693208503E-01 -3.35513614138E-01
4.32500000000E+09 -3.24852894936E-01 -1.63127749399E-01 +5.40752587637E-04 -5.99557025399E-04 +5.26485037567E-04 -6.55558354893E-04 -3.18705199104E-01 -3.15238504220E-01
4.33000000000E+09 -3.33690733647E-01 -1.46936142453E-01 -7.82260463938E-05 -1.16651066187E-03 -1.31804145675E-04 -1.12192350361E-03 -3.31524011857E-01 -2.93177147152E-01
4.33500000000E+09 -3.40766455702E-01 -1.32915270556E-01 -2.57270285883E-05 -9.22034159177E-04 -4.91252910417E-05 -9.69880989156E-04 -3.43976702069E-01 -2.71573584220E-01
4.34000000000E+09 -3.46364926445E-01 -1.16939341205E-01 -1.84030375955E-04 -1.16763212646E-03 -1.37847456353E-04 -1.12408156867E-03 -3.55928639095E-01 -2.48251008365E-01
4.34500000000E+09 -3.47892130827E-01 -9.93965112320E-02 -7.02456439073E-04 -1.35746396082E-03 -6.59408645175E-04 -1.35238036792E-03 -3.66884831153E-01 -2.25456077171E-01
4.35000000000E+09 -3.49231261748E-01 -8.10353663878E-02 -7.62232140299E-04 -7.11910018966E-04 -7.39587839239E-04 -7.42193301356E-04 -3.78175395651E-01 -2.02589051269E-01
4.35500000000E+09 -3.49187716050E-01 -5.99976798586E-02 -6.19498476885E-04 -8.86971209268E-04 -5.89617847556E-04 -8.67366042237E-04 -3.87821113763E-01 -1.79285042044E-01
4.36000000000E+09 -3.49926730589E-01 -3.77393699366E-02 -7.82937257481E-04 -9.08873477177E-04 -7.85565249877E-04 -9.45088180153E-04 -3.96260059474E-01 -1.56692474111E-01
4.36500000000E+09 -3.52400093578E-01 -1.46994400603E-02 -8.85594615206E-04 -6.73056595143E-04 -9.03581082570E-04 -7.05589772970E-04 -4.04292621941E-01 -1.33443684026E-01
4.37000000000E+09 -3.55861538409E-01 +8.74239995280E-03 -8.67844547157E-04 -7.47223544584E-04 -9.14639302311E-04 -8.00970455126E-04 -4.10221698311E-01 -1.09251540614E-01
4.37500000000E+09 -3.60965110349E-01 +3.09936152071E-02 -6.74842596510E-04 -9.53143169955E-04 -7.12744065865E-04 -9.66892338253E-04 -4.15820334559E-01 -8.43710935950E-02
4.38000000000E+09 -3.65662523124E-01 +5.23066698220E-02 -1.45484165028E-03 -1.11996079760E-03 -1.50748709695E-03 -1.14333294185E-03 -4.20245322024E-01 -5.97908362616E-02
4.38500000000E+09 -3.69144643869E-01 +6.99332387574E-02 -1.84108033060E-03 -3.65548265719E-04 -1.94169703330E-03 -3.55778740761E-04 -4.24604836386E-01 -3.50916754638E-02
4.39000000000E+09 -3.72655805747E-01 +8.59456415602E-02 -1.34746279800E-03 +8.78884211744E-05 -1.35696007494E-03 +6.50987113022E-05 -4.27380810965E-01 -9.98247377522E-03
4.39500000000E+09 -3.72656708938E-01 +1.01528253016E-01 -1.31278446104E-03 -3.10890585837E-04 -1.39925485972E-03 -3.04229913996E-04 -4.28944715042E-01 +1.47280464421E-02
4.40000000000E+09 -3.70077288428E-01 +1.15704465337E-01 -1.30413464427E-03 +2.01904721853E-04 -1.36384144187E-03 +2.17777124197E-04 -4.28802896872E-01 +3.90274057079E-02
4.40500000000E+09 -3.65501192289E-01 +1.30189852738E-01 -1.22321647721E-03 -1.80084463395E-04 -1.29504429689E-03 -1.78283416962E-04 -4.28294251433E-01 +6.35795922190E-02
4.41000000000E+09 -3.59937549953E-01 +1.45840314060E-01 -1.48240234701E-03 +1.06390279471E-04 -1.58152352713E-03 +2.03503420352E-04 -4.25983592757E-01 +8.85345058016E-02
4.41500000000E+09 -3.54068492114E-01 +1.64846064706E-01 -1.24779219523E-03 +1.25254313822E-04 -1.29660261467E-03 +1.67414137070E-04 -4.23666057588E-01 +1.11824672486E-01
4.42000000000E+09 -3.48224237488E-01 +1.85704204518E-01 -1.78027802788E-03 +1.82460610009E-05 -1.82077140192E-03 +9.13609345908E-05 -4.20912130635E-01 +1.36527902666E-01
4.42500000000E+09 -3.43471529539E-01 +2.07940140039E-01 -1.87773486408E-03 +6.24659702407E-04 -1.87371172998E-03 +6.92050843532E-04 -4.15325611585E-01 +1.59216679607E-01
4.43000000000E+09 -3.39023167358E-01 +2.30774308091E-01 -1.82747508211E-03 +1.04550255023E-03 -1.80190489694E-03 +1.04845679977E-03 -4.11722767391E-01 +1.81406415568E-01
4.43500000000E+09 -3.35028123081E-01 +2.51307043850E-01 -1.67880616645E-03 +1.25211740161E-03 -1.62410140581E-03 +1.32700675181E-03 -4.04952108329E-01 +2.04904957135E-01
4.44000000000E+09 -3.32392506568E-01 +2.68653134023E-01 -1.16455477696E-03 +1.46772615457E-03 -1.09706127511E-03 +1.51901357011E-03 -3.98369406177E-01 +2.26055465269E-01
4.44500000000E+09 -3.31109510478E-01 +2.84079504892E-01 -1.31040413337E-03 +1.16948387264E-03 -1.25835857799E-03 +1.20572423155E-03 -3.91680215044E-01 +2.47776378306E-01
4.45000000000E+09 -3.29139580076E-01 +2.97651983197E-01 -1.34403317863E-03 +1.61474120906E-03 -1.25851602525E-03 +1.61746042990E-03 -3.84685532466E-01 +2.68366993607E-01
4.45500000000E+09 -3.24745367713E-01 +3.10427184761E-01 -1.27549660010E-03 +1.88405483496E-03 -1.22517824980E-03 +1.91854325565E-03 -3.76709666111E-01 +2.88768718059E-01
4.46000000000E+09 -3.17669024724E-01 +3.22367293093E-01 -9.30350000560E-04 +2.08759764390E-03 -8.00601251169E-04 +2.13528703541E-03 -3.68535372135E-01 +3.08038394278E-01
4.46500000000E+09 -3.08291768170E-01 +3.34800407273E-01 -5.91472884459E-04 +2.33756831455E-03 -5.20447060238E-04 +2.25268103531E-03 -3.58518039625E-01 +3.28212933008E-01
4.47000000000E+09 -2.96803697914E-01 +3.48683653889E-01 -1.86329887281E-04 +2.37937204740E-03 -1.15376514385E-04 +2.35384784215E-03 -3.46971619798E-01 +3.47050569347E-01
4.47500000000E+09 -2.84136236142E-01 +3.63365438207E-01 -1.23807691447E-05 +2.37641847923E-03 +2.69010685010E-05 +2.36529451024E-03 -3.36284947151E-01 +3.65842011589E-01
4.48000000000E+09 -2.72563777535E-01 +3.80649695652E-01 +5.37199383241E-04 +2.60606035292E-03 +5.47479610051E-04 +2.45926512159E-03 -3.24097227478E-01 +3.84682077194E-01
4.48500000000E+09 -2.60356429349E-01 +3.98313227090E-01 +5.53385989230E-04 +2.12666818581E-03 +5.49817181132E-04 +2.07449607608E-03 -3.12126171250E-01 +4.01603035290E-01
4.49000000000E+09 -2.50902526658E-01 +4.14956711688E-01 +8.86853573059E-04 +2.53356910370E-03 +9.35637278875E-04 +2.44123305897E-03 -3.00672715351E-01 +4.17774890261E-01
4.49500000000E+09 -2.43218076375E-01 +4.31493116547E-01 +1.42863986361E-03 +2.13712179387E-03 +1.34796062964E-03 +2.05270779528E-03 -2.88883463848E-01 +4.33154563823E-01
4.50000000000E+09 -2.37297024139E-01 +4.44914857732E-01 +1.36270612352E-03 +2.08907993323E-03 +1.28771618070E-03 +2.04083856275E-03 -2.76097305397E-01 +4.48600223734E-01
4.50500000000E+09 -2.33110033959E-01 +4.57371141343E-01 +2.17242213593E-03 +2.09459595585E-03 +2.10333712877E-03 +2.02269606555E-03 -2.62743368705E-01 +4.63022353729E-01
4.51000000000E+09 -2.26690210122E-01 +4.67109580627E-01 +2.29397188923E-03 +1.20415617608E-03 +2.30083743877E-03 +1.22160871860E-03 -2.48997556226E-01 +4.77400790129E-01
4.51500000000E+09 -2.20047156446E-01 +4.74513239394E-01 +2.09827649188E-03 +1.12853758142E-03 +2.09233044754E-03 +1.13750513307E-03 -2.35243858629E-01 +4.91172910400E-01
4.52000000000E+09 -2.10555163304E-01 +4.82075007956E-01 +2.46818534509E-03 +8.71080463459E-04 +2.41937545009E-03 +8.62052224580E-04 -2.21945720331E-01 +5.03982801480E-01
4.52500000000E+09 -1.98621192573E-01 +4.88274757042E-01 +2.25813013987E-03 +3.84211589662E-04 +2.29313513719E-03 +3.87898913303E-04 -2.08487164468E-01 +5.16080331860E-01
4.53000000000E+09 -1.85293078536E-01 +4.96463012506E-01 +2.31182470500E-03 +3.96607169307E-04 +2.31238382279E-03 +4.03599057076E-04 -1.94954644842E-01 +5.26961477275E-01
4.53500000000E+09 -1.69360876689E-01 +5.05772348236E-01 +2.19103427933E-03 +3.35267317881E-05 +2.15513062724E-03 +2.53226621639E-05 -1.80815356658E-01 +5.39038790981E-01
4.54000000000E+09 -1.53743716815E-01 +5.15839682426E-01 +2.49627474707E-03 +2.64139481235E-04 +2.47987610014E-03 +2.00118959741E-04 -1.64587949752E-01 +5.49644318830E-01
4.54500000000E+09 -1.38455876722E-01 +5.27422720005E-01 +2.77937402536E-03 -5.72181353495E-04 +2.73883927105E-03 -6.22356280285E-04 -1.50158245647E-01 +5.59146141126E-01
4.55000000000E+09 -1.25161657577E-01 +5.38294279059E-01 +2.45198177457E-03 -8.70696340348E-04 +2.40707434389E-03 -9.18582112230E-04 -1.35448235602E-01 +5.69900074747E-01
4.55500000000E+09 -1.14267766565E-01 +5.49410755055E-01 +2.22383598516E-03 -1.31110585071E-03 +2.19819851542E-03 -1.27012289621E-03 -1.20734909062E-01 +5.79262535842E-01
4.56000000000E+09 -1.04542600256E-01 +5.59081333578E-01 +1.83282212539E-03 -1.42135561922E-03 +1.81215663336E-03 -1.41595859533E-03 -1.06085678704E-01 +5.87893112108E-01
4.56500000000E+09 -9.64145976224E-02 +5.67064955603E-01 +1.72071059711E-03 -1.65775357302E-03 +1.67119184696E-03 -1.65483477119E-03 -9.25748388344E-02 +5.96179216260E-01
4.57000000000E+09 -8.79017909279E-02 +5.73990748485E-01 +1.50421882958E-03 -1.73771986874E-03 +1.44594712077E-03 -1.75304462543E-03 -7.67893641769E-02 +6.05043288333E-01
