# Hz S RI R 50
! CMT, C1220, 16058040, 17.2.0/1
! Date: 15/08/2018 12:41:28
! Data: Format (Calibration Info)
! Freq                      S11: Re/Im (F2)                       S21: Re/Im (F2)                       S12: Re/Im (F2)                       S22: Re/Im (F2)            
4.00000000000E+09 +6.58520048491E-01 -3.59968981732E-01 +9.41757601557E-04 -1.01651399550E-03 +1.01995431558E-03 -1.01313237350E-03 +7.86802006593E-01 -3.12163455084E-01
4.00500000000E+09 +6.49926825662E-01 -3.65665866120E-01 +6.81110529111E-04 -1.24582580967E-03 +7.15618442513E-04 -1.18787729859E-03 +7.78752115463E-01 -3.23363450419E-01
4.01000000000E+09 +6.40902716673E-01 -3.71251432787E-01 +3.94242308894E-04 -1.31530818319E-03 +4.24886785175E-04 -1.40981393276E-03 +7.70295839607E-01 -3.35388266701E-01
4.01500000000E+09 +6.30968264358E-01 -3.77780536845E-01 +1.46863600041E-04 -1.16077065199E-03 +1.47017651778E-04 -1.22038931207E-03 +7.61830244916E-01 -3.46695022028E-01
4.02000000000E+09 +6.21059002246E-01 -3.84995717448E-01 +1.61469941128E-04 -1.18449403187E-03 +1.99184008162E-04 -1.15504511743E-03 +7.52963735093E-01 -3.57503289424E-01
4.02500000000E+09 +6.10550777307E-01 -3.94076122634E-01 +8.78399857891E-05 -1.19355717025E-03 +1.10727454984E-04 -1.16720062128E-03 +7.43635442147E-01 -3.68127373295E-01
4.03000000000E+09 +5.99469412398E-01 -4.04757459334E-01 +2.97757976364E-06 -1.22466550846E-03 +5.73617214690E-05 -1.21751388693E-03 +7.33555076913E-01 -3.78763307908E-01
4.03500000000E+09 +5.87779754216E-01 -4.15269830262E-01 -1.54243648760E-04 -1.23004055234E-03 -1.17183362295E-04 -1.23733449880E-03 +7.22625047767E-01 -3.89914798600E-01
4.04000000000E+09 +5.76294361844E-01 -4.25351662321E-01 -2.75852130163E-04 -1.17248402488E-03 -2.43600555377E-04 -1.20065814866E-03 +7.11572014098E-01 -4.01209034195E-01
4.04500000000E+09 +5.65297741723E-01 -4.34849643935E-01 -3.35691629320E-04 -1.17517317069E-03 -2.86924678997E-04 -1.17558660229E-03 +7.00814175821E-01 -4.12130920374E-01
4.05000000000E+09 +5.53525177601E-01 -4.43015950650E-01 -4.41944170233E-04 -1.19441374055E-03 -4.40073652210E-04 -1.24850639764E-03 +6.90398670289E-01 -4.22839500061E-01
4.05500000000E+09 +5.41682701786E-01 -4.49075637731E-01 -4.69975837365E-04 -1.08596231943E-03 -4.80972433525E-04 -1.17268966816E-03 +6.79119099351E-01 -4.32849924171E-01
4.06000000000E+09 +5.29694384596E-01 -4.54095398097E-01 -6.70321993616E-04 -1.19053785167E-03 -7.04910516779E-04 -1.22418826584E-03 +6.68024953275E-01 -4.42462190848E-01
4.06500000000E+09 +5.16560066316E-01 -4.58320142293E-01 -8.30984767580E-04 -1.01221318134E-03 -8.45910579502E-04 -9.82904359074E-04 +6.55603162108E-01 -4.52392191060E-01
4.07000000000E+09 +5.02969292787E-01 -4.62326657455E-01 -7.60832275559E-04 -8.70582217234E-04 -6.87897404066E-04 -8.89966297776E-04 +6.42398153845E-01 -4.62466171707E-01
4.07500000000E+09 +4.88251403175E-01 -4.67131022913E-01 -8.11068317822E-04 -1.06409442260E-03 -7.86005488873E-04 -1.11291918336E-03 +6.28665532846E-01 -4.73135459762E-01
4.08000000000E+09 +4.72521765859E-01 -4.72231536501E-01 -1.14290515811E-03 -9.63395762205E-04 -1.13104265607E-03 -1.04301283092E-03 +6.15042695646E-01 -4.83071366203E-01
4.08500000000E+09 +4.56269733865E-01 -4.78782628351E-01 -1.13453208218E-03 -7.52630937943E-04 -1.11336457409E-03 -8.56899791549E-04 +6.01686257575E-01 -4.93145553793E-01
4.09000000000E+09 +4.39178082911E-01 -4.85205623177E-01 -1.37219622694E-03 -8.81918087983E-04 -1.35675094135E-03 -9.63045728852E-04 +5.87761667796E-01 -5.01891128757E-01
4.09500000000E+09 +4.22429637433E-01 -4.91534969102E-01 -1.71054315546E-03 -4.00324536647E-04 -1.74720769570E-03 -4.60129985004E-04 +5.73366387833E-01 -5.10329659331E-01
4.10000000000E+09 +4.05610633691E-01 -4.97401971267E-01 -1.47574368883E-03 -5.84038157236E-05 -1.51961970964E-03 -9.92319594752E-05 +5.57726386360E-01 -5.18050971759E-01
4.10500000000E+09 +3.88777619085E-01 -5.01874579133E-01 -1.30832809836E-03 -1.31904723423E-04 -1.38720197983E-03 -1.74946443154E-04 +5.42094231822E-01 -5.26005907085E-01
4.11000000000E+09 +3.72370992225E-01 -5.03789044907E-01 -1.51019934686E-03 -1.56755695862E-05 -1.56820734513E-03 -9.76532731877E-05 +5.25602327720E-01 -5.34517598509E-01
4.11500000000E+09 +3.57123043435E-01 -5.05047457724E-01 -1.28211967655E-03 +1.84740681413E-04 -1.35121483975E-03 +1.39903038285E-04 +5.09427613877E-01 -5.42383103231E-01
4.12000000000E+09 +3.41286066748E-01 -5.05869259894E-01 -1.42056231870E-03 +1.87641722771E-04 -1.49320015153E-03 +1.66751899456E-04 +4.93312203148E-01 -5.50384290340E-01
4.12500000000E+09 +3.24297056853E-01 -5.06781116975E-01 -1.35140904672E-03 +3.79403081992E-04 -1.45242076640E-03 +3.29885727891E-04 +4.76195906389E-01 -5.57068310009E-01
4.13000000000E+09 +3.06654511857E-01 -5.07335694028E-01 -1.37065316019E-03 +6.07361626754E-04 -1.41073952246E-03 +5.47325121222E-04 +4.58933546253E-01 -5.63416256650E-01
4.13500000000E+09 +2.88018226745E-01 -5.09496205688E-01 -9.74609482525E-04 +7.96213673237E-04 -1.04385615045E-03 +7.43289097439E-04 +4.40707935095E-01 -5.68919266295E-01
4.14000000000E+09 +2.68077730191E-01 -5.12191654008E-01 -1.02297991850E-03 +3.59895338039E-04 -1.10482595502E-03 +4.39794738383E-04 +4.22387751274E-01 -5.75144771880E-01
4.14500000000E+09 +2.47908448857E-01 -5.14852838087E-01 -1.41266534337E-03 +6.33600150586E-04 -1.48417985818E-03 +6.59247238809E-04 +4.02837328127E-01 -5.81301589110E-01
4.15000000000E+09 +2.28668569269E-01 -5.18225868225E-01 -1.09087506886E-03 +1.08513198827E-03 -1.11410361188E-03 +1.11321024639E-03 +3.84578167522E-01 -5.86310455497E-01
4.15500000000E+09 +2.08858174941E-01 -5.21249149188E-01 -1.01292091615E-03 +1.04782981422E-03 -9.75372543647E-04 +1.07752379948E-03 +3.66228070310E-01 -5.91514927007E-01
4.16000000000E+09 +1.89897998717E-01 -5.21523523887E-01 -8.96605295985E-04 +1.07738864894E-03 -9.18397218920E-04 +1.15065654555E-03 +3.47025880757E-01 -5.95010252715E-01
4.16500000000E+09 +1.73199967495E-01 -5.21131607193E-01 -8.07603642332E-04 +1.03140369613E-03 -8.09840987126E-04 +1.03679058158E-03 +3.27557996749E-01 -5.97743065556E-01
4.17000000000E+09 +1.56481149805E-01 -5.18866112012E-01 -8.68244352913E-04 +1.26064323575E-03 -8.59148449929E-04 +1.27093794853E-03 +3.06785533489E-01 -6.00133370278E-01
4.17500000000E+09 +1.40281990809E-01 -5.15016327296E-01 -5.57178802008E-04 +1.16175506481E-03 -5.43599831679E-04 +1.09776377868E-03 +2.85407600958E-01 -6.01536792863E-01
4.18000000000E+09 +1.23429895400E-01 -5.10310992006E-01 -7.10608163153E-04 +1.41174390489E-03 -7.81769560054E-04 +1.38972147070E-03 +2.64518612615E-01 -6.02904621850E-01
4.18500000000E+09 +1.06473505146E-01 -5.04222282536E-01 -2.21604255976E-04 +1.48911078862E-03 -2.03981244858E-04 +1.50766003031E-03 +2.43520726535E-01 -6.04445144962E-01
4.19000000000E+09 +8.85472983733E-02 -4.99204452677E-01 -3.60856412948E-04 +1.28282888567E-03 -3.71961104853E-04 +1.32193563622E-03 +2.22122413404E-01 -6.04479424412E-01
4.19500000000E+09 +6.92532073980E-02 -4.93615118350E-01 -4.06025330768E-04 +1.45914447267E-03 -3.96890665874E-04 +1.48840210138E-03 +2.01140116669E-01 -6.03030644018E-01
4.20000000000E+09 +5.06588450109E-02 -4.88665454307E-01 -8.74359414165E-05 +1.81707356303E-03 -1.27760498977E-04 +1.86084464686E-03 +1.79723008633E-01 -6.00881149497E-01
4.20500000000E+09 +3.15152685296E-02 -4.84574587980E-01 +3.91484440516E-04 +1.63522947567E-03 +3.19123529630E-04 +1.68720953085E-03 +1.58365748324E-01 -5.97986591701E-01
4.21000000000E+09 +1.30625399210E-02 -4.79845609153E-01 +2.26583750006E-04 +1.29427014110E-03 +2.22335744372E-04 +1.30458567561E-03 +1.36625909942E-01 -5.96562776869E-01
4.21500000000E+09 -4.46430941178E-03 -4.74106553734E-01 +3.89133845986E-04 +1.61778909665E-03 +3.39625776675E-04 +1.62876863999E-03 +1.13500049932E-01 -5.94426687210E-01
4.22000000000E+09 -2.03327297851E-02 -4.66817738284E-01 +6.93854329361E-04 +1.52177630656E-03 +6.77174649754E-04 +1.53667927712E-03 +9.10395906590E-02 -5.90770445543E-01
4.22500000000E+09 -3.52705967400E-02 -4.58253998660E-01 +6.46719881568E-04 +1.14861211974E-03 +6.79551034579E-04 +1.26344362151E-03 +6.91804575173E-02 -5.86546834605E-01
4.23000000000E+09 -4.99450281511E-02 -4.47073810415E-01 +7.03820910465E-04 +1.35140433923E-03 +6.74512729526E-04 +1.43503383873E-03 +4.75250254281E-02 -5.80022020908E-01
4.23500000000E+09 -6.37917873937E-02 -4.35263972354E-01 +8.77755175184E-04 +1.37595390797E-03 +8.59809710562E-04 +1.42947432578E-03 +2.57395834664E-02 -5.73084837838E-01
4.24000000000E+09 -7.93013606088E-02 -4.22843061842E-01 +1.00779094147E-03 +1.26928705881E-03 +1.04653410872E-03 +1.35606618294E-03 +3.76448623020E-03 -5.64680077056E-01
4.24500000000E+09 -9.68274039035E-02 -4.09786055625E-01 +1.23503633660E-03 +1.08169967429E-03 +1.25453355599E-03 +1.17490769693E-03 -1.80259831572E-02 -5.56299979862E-01
4.25000000000E+09 -1.15651831475E-01 -3.96045479691E-01 +1.01425856893E-03 +1.14237402693E-03 +1.03773851304E-03 +1.19380030198E-03 -3.99542111513E-02 -5.47746821441E-01
4.25500000000E+09 -1.34989521819E-01 -3.83517219599E-01 +1.58762860855E-03 +1.18016374383E-03 +1.67107500503E-03 +1.23288007083E-03 -6.08793344185E-02 -5.38501397851E-01
4.26000000000E+09 -1.55743534876E-01 -3.71388255462E-01 +1.62713590220E-03 +6.27698747244E-04 +1.69195248536E-03 +6.30483597134E-04 -8.20922699568E-02 -5.28635231270E-01
4.26500000000E+09 -1.75032823954E-01 -3.58685889764E-01 +1.20811429335E-03 +7.29227995421E-04 +1.22596051546E-03 +7.85173465755E-04 -1.03138319465E-01 -5.17063034339E-01
4.27000000000E+09 -1.91939004019E-01 -3.46944847047E-01 +1.68703533038E-03 +8.32816879535E-04 +1.74751987966E-03 +8.17611705358E-04 -1.24531170393E-01 -5.03514400021E-01
4.27500000000E+09 -2.07744298265E-01 -3.35215588395E-01 +1.75401027367E-03 +4.14244149228E-04 +1.81158549050E-03 +4.31084271622E-04 -1.45344480459E-01 -4.89336163425E-01
4.28000000000E+09 -2.20948745815E-01 -3.22187544447E-01 +1.70181644532E-03 +4.22241469435E-04 +1.71271346258E-03 +4.17744160828E-04 -1.65921435085E-01 -4.75297278836E-01
4.28500000000E+09 -2.32633262315E-01 -3.07566936804E-01 +1.93904177761E-03 +4.98392517863E-04 +2.01824672710E-03 +4.45751417899E-04 -1.86299062500E-01 -4.60553934317E-01
4.29000000000E+09 -2.42925471062E-01 -2.91690744517E-01 +2.22088822554E-03 -2.59231093434E-04 +2.24107218738E-03 -2.26983059694E-04 -2.04830008446E-01 -4.45744867977E-01
4.29500000000E+09 -2.54130757626E-01 -2.74020682659E-01 +1.66371631861E-03 -4.21146253353E-04 +1.62116717772E-03 -4.51342118106E-04 -2.23409400630E-01 -4.30391585119E-01
4.30000000000E+09 -2.65268602299E-01 -2.53833617502E-01 +1.64456156958E-03 -3.95858137278E-04 +1.71461578495E-03 -4.26272248997E-04 -2.40531575414E-01 -4.13682310814E-01
4.30500000000E+09 -2.76445038025E-01 -2.33427920538E-01 +1.73454495385E-03 -4.86659786910E-04 +1.76535673406E-03 -5.96084168665E-04 -2.58889700543E-01 -3.96431524469E-01
4.31000000000E+09 -2.88918065552E-01 -2.13735464629E-01 +1.39844786543E-03 -2.64206284361E-04 +1.28955038393E-03 -3.09262088740E-04 -2.75768316048E-01 -3.77137874515E-01
4.31500000000E+09 -3.02112703872E-01 -1.94528759188E-01 +2.11268404166E-03 -1.72988094537E-04 +2.02287272640E-03 -1.06553380130E-04 -2.92497777112E-01 -3.57909554460E-01
4.32000000000E+09 -3.15157915041E-01 -1.76493177120E-01 +2.49548119855E-03 -9.32724559576E-04 +2.54636143771E-03 -1.03735646535E-03 -3.08584627157E-01 -3.37944418565E-01
4.32500000000E+09 -3.26449551923E-01 -1.59619535847E-01 +1.67717696440E-03 -1.61742137115E-03 +1.67479579133E-03 -1.59114945347E-03 -3.23252732109E-01 -3.16706879870E-01
4.33000000000E+09 -3.36290563654E-01 -1.44264563239E-01 +1.70179829901E-03 -1.15272018815E-03 +1.69741650820E-03 -1.17484964272E-03 -3.36230176589E-01 -2.95202750584E-01
4.33500000000E+09 -3.43639178632E-01 -1.27820672481E-01 +1.89432589695E-03 -1.59691769886E-03 +1.86801978876E-03 -1.60551915496E-03 -3.48860386885E-01 -2.73024041775E-01
4.34000000000E+09 -3.46766451610E-01 -1.11994511579E-01 +1.57614382725E-03 -2.16050043777E-03 +1.57452063404E-03 -2.18254664176E-03 -3.61382788584E-01 -2.50237044695E-01
4.34500000000E+09 -3.49195268642E-01 -9.57058421798E-02 +1.04282598430E-03 -1.93747573608E-03 +9.99346589520E-04 -1.92449381890E-03 -3.73436429564E-01 -2.26092917367E-01
4.35000000000E+09 -3.49673645999E-01 -7.68853151877E-02 +1.19890062537E-03 -2.00725210108E-03 +1.17092199083E-03 -1.94901783067E-03 -3.83930677576E-01 -2.03047425362E-01
4.35500000000E+09 -3.50215011725E-01 -5.71741784024E-02 +1.01727215943E-03 -2.20500005392E-03 +1.06618954983E-03 -2.20130793848E-03 -3.94260578204E-01 -1.80822062310E-01
4.36000000000E+09 -3.52030493818E-01 -3.57195501656E-02 +7.91545314082E-04 -2.20258829421E-03 +7.85407352004E-04 -2.19096257703E-03 -4.03894762668E-01 -1.57345832739E-01
4.36500000000E+09 -3.55055693470E-01 -1.25922057097E-02 +1.01800616725E-03 -2.42469901892E-03 +1.04394737000E-03 -2.50746288742E-03 -4.11521110619E-01 -1.32819460227E-01
4.37000000000E+09 -3.59217682282E-01 +1.09468128532E-02 +7.03463966947E-04 -2.89682949694E-03 +6.79731915377E-04 -2.96890803892E-03 -4.17346987842E-01 -1.08448255404E-01
4.37500000000E+09 -3.63031755607E-01 +3.36696987564E-02 +1.40291802222E-04 -3.41170929954E-03 +1.13920674357E-04 -3.50054068183E-03 -4.22840654760E-01 -8.27921653434E-02
4.38000000000E+09 -3.67382178835E-01 +5.33964728876E-02 -5.78981703949E-04 -3.11739786151E-03 -6.07523727237E-04 -3.17921689974E-03 -4.26668774691E-01 -5.79975959324E-02
4.38500000000E+09 -3.71536954737E-01 +7.14535541056E-02 -9.51280166827E-04 -2.80905200059E-03 -1.00425403523E-03 -2.90434119593E-03 -4.30272255227E-01 -3.35714662720E-02
4.39000000000E+09 -3.74320130139E-01 +8.74166136778E-02 -1.08870679405E-03 -2.84412564835E-03 -1.23306321767E-03 -2.87654272128E-03 -4.33782237171E-01 -8.74466438093E-03
4.39500000000E+09 -3.75095794127E-01 +1.01692888617E-01 -1.58151245656E-03 -2.47308035303E-03 -1.68080353253E-03 -2.49811469776E-03 -4.35229051801E-01 +1.52562145437E-02
4.40000000000E+09 -3.74236321539E-01 +1.16788792685E-01 -1.41875935828E-03 -2.43221324511E-03 -1.51336718237E-03 -2.46857180391E-03 -4.36420197078E-01 +4.00039173019E-02
4.40500000000E+09 -3.69936985310E-01 +1.33125876690E-01 -2.10859273908E-03 -2.54603815954E-03 -2.17810016172E-03 -2.57053946404E-03 -4.35887247529E-01 +6.50225123869E-02
4.41000000000E+09 -3.63973684064E-01 +1.49067486983E-01 -2.16884677202E-03 -1.87083008729E-03 -2.26860110406E-03 -1.89783291131E-03 -4.34336996006E-01 +9.00768767572E-02
4.41500000000E+09 -3.58566932711E-01 +1.67365907782E-01 -2.32315822748E-03 -1.97995427622E-03 -2.42443482780E-03 -1.96086631566E-03 -4.31959113147E-01 +1.14649712739E-01
4.42000000000E+09 -3.52960501165E-01 +1.87719864502E-01 -2.54186426605E-03 -1.73909009421E-03 -2.62978888521E-03 -1.66264823580E-03 -4.29664585615E-01 +1.38907558319E-01
4.42500000000E+09 -3.48251649378E-01 +2.09465872275E-01 -2.91074197318E-03 -1.78723848585E-03 -3.02259101827E-03 -1.70285918338E-03 -4.24834971724E-01 +1.63822353786E-01
4.43000000000E+09 -3.43978492882E-01 +2.30336690791E-01 -3.46316192160E-03 -1.40822642868E-03 -3.58936797850E-03 -1.31911175610E-03 -4.19704804358E-01 +1.86136333493E-01
4.43500000000E+09 -3.42059242019E-01 +2.50470089921E-01 -3.60347872814E-03 -1.64405610025E-04 -3.62386920589E-03 -6.90534665870E-05 -4.13536237132E-01 +2.09819206376E-01
4.44000000000E+09 -3.39828754231E-01 +2.69421428204E-01 -3.08250147254E-03 -1.79042701467E-04 -3.02242581786E-03 -7.62769147270E-05 -4.06511518693E-01 +2.32103080811E-01
4.44500000000E+09 -3.37097830362E-01 +2.84852532034E-01 -3.17276473970E-03 +1.76564847944E-04 -3.14953706217E-03 +2.60186474479E-04 -3.99494658089E-01 +2.53784027866E-01
4.45000000000E+09 -3.34657637701E-01 +2.98089720693E-01 -2.92307561837E-03 +3.42046322829E-04 -2.84570807811E-03 +4.25309509117E-04 -3.91783628956E-01 +2.75187585127E-01
4.45500000000E+09 -3.30369825857E-01 +3.10802271303E-01 -3.14108150817E-03 +2.11319260425E-04 -3.06769049817E-03 +3.19947613519E-04 -3.83940570489E-01 +2.95870618310E-01
4.46000000000E+09 -3.23953288966E-01 +3.22302134886E-01 -3.45899206021E-03 +8.03858794446E-04 -3.36177757164E-03 +9.37520590828E-04 -3.74041766804E-01 +3.15917448693E-01
4.46500000000E+09 -3.15305420310E-01 +3.34998894255E-01 -3.10050662050E-03 +1.37528692596E-03 -2.99216925423E-03 +1.40862135423E-03 -3.64311478955E-01 +3.34871515484E-01
4.47000000000E+09 -3.04994646735E-01 +3.48273051428E-01 -3.05677625182E-03 +1.45697080064E-03 -2.92400760936E-03 +1.51474400456E-03 -3.52218677263E-01 +3.54381966036E-01
4.47500000000E+09 -2.93656690581E-01 +3.64274438473E-01 -3.11716703648E-03 +1.90538562462E-03 -2.99979335756E-03 +1.93382039975E-03 -3.41085376136E-01 +3.72183192150E-01
4.48000000000E+09 -2.81511547318E-01 +3.79938182726E-01 -2.86847097128E-03 +2.43223600418E-03 -2.69012211564E-03 +2.45773088868E-03 -3.29590451218E-01 +3.91117123405E-01
4.48500000000E+09 -2.71865866962E-01 +3.96871719704E-01 -2.49223822920E-03 +2.86843582575E-03 -2.28730117411E-03 +2.77170668878E-03 -3.17723799828E-01 +4.08204092235E-01
4.49000000000E+09 -2.62630562602E-01 +4.14155645762E-01 -2.03137392902E-03 +3.14384824331E-03 -1.91227326735E-03 +3.07688500422E-03 -3.06197737344E-01 +4.24439471776E-01
4.49500000000E+09 -2.54865879328E-01 +4.29504903913E-01 -1.65161238504E-03 +3.19983364150E-03 -1.65416705509E-03 +3.05489557898E-03 -2.94393735180E-01 +4.40130745660E-01
4.50000000000E+09 -2.48977334150E-01 +4.43555612188E-01 -1.39755068000E-03 +3.47036872169E-03 -1.40194168679E-03 +3.35826942727E-03 -2.81660139568E-01 +4.55471161549E-01
4.50500000000E+09 -2.43144821057E-01 +4.55576986609E-01 -1.00701577860E-03 +3.47532719179E-03 -1.02478857947E-03 +3.39546534967E-03 -2.67915335314E-01 +4.70782784916E-01
4.51000000000E+09 -2.36315833153E-01 +4.65323484997E-01 -9.09281077139E-04 +3.72870530880E-03 -8.42042263225E-04 +3.67719458962E-03 -2.53927345909E-01 +4.85145424800E-01
4.51500000000E+09 -2.27942629176E-01 +4.73269989771E-01 -1.63988492608E-04 +4.22048690860E-03 -1.24595647582E-04 +4.19488471315E-03 -2.40451163260E-01 +4.99444788142E-01
4.52000000000E+09 -2.17855579958E-01 +4.79941980054E-01 +6.96512773586E-04 +3.73222775439E-03 +6.88596954504E-04 +3.72944988375E-03 -2.26303525558E-01 +5.12916356024E-01
4.52500000000E+09 -2.05786401222E-01 +4.86962279014E-01 +6.59149999520E-04 +3.67074949130E-03 +6.63380693737E-04 +3.63250355186E-03 -2.12016237400E-01 +5.24725917605E-01
4.53000000000E+09 -1.92246518749E-01 +4.95229815734E-01 +1.38978804150E-03 +3.71849330652E-03 +1.37661173138E-03 +3.67479039286E-03 -1.97521085883E-01 +5.35654833247E-01
4.53500000000E+09 -1.76924579657E-01 +5.05339929896E-01 +1.65696438427E-03 +3.13869838089E-03 +1.71556248151E-03 +3.14664075212E-03 -1.82639754021E-01 +5.45916291828E-01
4.54000000000E+09 -1.61034985561E-01 +5.16054032898E-01 +1.99852442652E-03 +3.15269420012E-03 +2.02489275007E-03 +3.03103647085E-03 -1.67930249859E-01 +5.56352633608E-01
4.54500000000E+09 -1.46025176434E-01 +5.27250735314E-01 +2.45059599655E-03 +2.68517344673E-03 +2.48970847324E-03 +2.60843643432E-03 -1.52958933173E-01 +5.66985173308E-01
4.55000000000E+09 -1.33059660845E-01 +5.37711748753E-01 +2.29632940896E-03 +2.38843476043E-03 +2.33697422579E-03 +2.31455834113E-03 -1.37876613429E-01 +5.77376072044E-01
4.55500000000E+09 -1.23201242965E-01 +5.47977876831E-01 +2.72316321799E-03 +2.25464599844E-03 +2.74696192479E-03 +2.10480794001E-03 -1.23235905299E-01 +5.86719830710E-01
4.56000000000E+09 -1.14760455842E-01 +5.58000580891E-01 +2.88355324869E-03 +1.86433342707E-03 +2.91080078411E-03 +1.76724038596E-03 -1.09265085258E-01 +5.95395406134E-01
4.56500000000E+09 -1.06505862271E-01 +5.66584131299E-01 +3.07157237470E-03 +1.48248452321E-03 +3.09965045520E-03 +1.39115847366E-03 -9.42592781607E-02 +6.04140413224E-01
4.57000000000E+09 -9.72727547425E-02 +5.73070088643E-01 +3.01579250703E-03 +1.23096636184E-03 +3.02082420685E-03 +1.14787576590E-03 -7.87857537176E-02 +6.11081202837E-01
