# Hz S RI R 50
! CMT, C1220, 16058040, 17.2.0/1
! Date: 15/08/2018 12:30:02
! Data: Format (Calibration Info)
! Freq                      S11: Re/Im (F2)                       S21: Re/Im (F2)                       S12: Re/Im (F2)                       S22: Re/Im (F2)            
4.00000000000E+09 +6.61755621747E-01 -3.63111727681E-01 -5.69586668969E-04 -7.80823774642E-04 -5.17765012938E-04 -8.83848432055E-04 +7.83432568787E-01 -3.17273557264E-01
4.00500000000E+09 +6.53762595858E-01 -3.69654240623E-01 -5.09765841519E-04 -6.47274001538E-04 -5.10144358208E-04 -7.59837546410E-04 +7.75048109507E-01 -3.29055284371E-01
4.01000000000E+09 +6.44726766528E-01 -3.76048206797E-01 -6.00814024556E-04 -6.35766431291E-04 -6.32070754589E-04 -7.27612030155E-04 +7.66503507472E-01 -3.41100787515E-01
4.01500000000E+09 +6.35235194213E-01 -3.82580564056E-01 -6.76914870809E-04 -4.80033014259E-04 -6.24573210906E-04 -5.15530386507E-04 +7.57675556442E-01 -3.52108983734E-01
4.02000000000E+09 +6.24867547873E-01 -3.90789039941E-01 -5.68724584039E-04 -4.51546100278E-04 -6.05948539240E-04 -4.39608341985E-04 +7.48704474434E-01 -3.63059858659E-01
4.02500000000E+09 +6.13981476926E-01 -4.00194896828E-01 -5.05986023081E-04 -4.11866339629E-04 -5.29721131401E-04 -4.10516167934E-04 +7.38974856670E-01 -3.73040840300E-01
4.03000000000E+09 +6.01996924200E-01 -4.10565288543E-01 -6.63304093455E-04 -6.46982885917E-04 -6.79427905013E-04 -6.36481879461E-04 +7.29133970487E-01 -3.83585267936E-01
4.03500000000E+09 +5.90194004208E-01 -4.20782143108E-01 -7.78815591391E-04 -4.73122077679E-04 -8.03976709556E-04 -4.73354908877E-04 +7.17968317854E-01 -3.94450260179E-01
4.04000000000E+09 +5.78909943182E-01 -4.31199840255E-01 -8.81281275406E-04 -4.21699094237E-04 -9.14248642288E-04 -3.75191209633E-04 +7.07129447417E-01 -4.05629455972E-01
4.04500000000E+09 +5.67045724573E-01 -4.41139755771E-01 -8.76596668949E-04 -1.99101250165E-04 -9.28216088781E-04 -1.49330206424E-04 +6.96433768253E-01 -4.16832101558E-01
4.05000000000E+09 +5.55367351728E-01 -4.48792468137E-01 -7.55300852912E-04 -1.56770504397E-04 -7.82703055561E-04 -1.27562686422E-04 +6.85374827090E-01 -4.27538709683E-01
4.05500000000E+09 +5.43681552610E-01 -4.55649284634E-01 -7.23374111674E-04 -1.78015844006E-04 -7.06092004718E-04 -1.56918404354E-04 +6.74124578062E-01 -4.36993001937E-01
4.06000000000E+09 +5.30878402002E-01 -4.60878861582E-01 -8.05621102930E-04 -2.63011707902E-04 -8.09357734221E-04 -2.88112863861E-04 +6.63087873988E-01 -4.46323726751E-01
4.06500000000E+09 +5.17999323586E-01 -4.64705448836E-01 -9.67090061671E-04 -3.04436878372E-04 -9.35961321357E-04 -3.14868654860E-04 +6.50563365829E-01 -4.55455154875E-01
4.07000000000E+09 +5.04100598026E-01 -4.69497839543E-01 -1.28792691277E-03 -1.59080073592E-04 -1.21255278968E-03 -1.88682878618E-04 +6.37487727963E-01 -4.65466001563E-01
4.07500000000E+09 +4.89006428818E-01 -4.74342519143E-01 -1.31310098912E-03 +1.53975607602E-04 -1.21863998787E-03 +6.65018354754E-05 +6.23883025040E-01 -4.75750466812E-01
4.08000000000E+09 +4.72789281617E-01 -4.80438959848E-01 -1.33222941524E-03 +2.91616356304E-04 -1.32176333978E-03 +2.17912536678E-04 +6.10348027165E-01 -4.85478321363E-01
4.08500000000E+09 +4.55192376623E-01 -4.86389033459E-01 -1.39271780621E-03 +5.81687344967E-04 -1.42642423501E-03 +4.80726559210E-04 +5.97346468373E-01 -4.95149807977E-01
4.09000000000E+09 +4.38242384147E-01 -4.92861851752E-01 -1.12108653892E-03 +7.98747137451E-04 -1.17415680473E-03 +7.22832196871E-04 +5.83557930905E-01 -5.04100993798E-01
4.09500000000E+09 +4.21529835537E-01 -4.99593012881E-01 -1.05672007061E-03 +7.81246071147E-04 -1.06116833861E-03 +7.39646759228E-04 +5.69365568313E-01 -5.11978993106E-01
4.10000000000E+09 +4.04085636651E-01 -5.05540382096E-01 -1.06607056163E-03 +1.06135904487E-03 -1.13025923133E-03 +1.01633810988E-03 +5.54480412183E-01 -5.20383096066E-01
4.10500000000E+09 +3.87734966357E-01 -5.09587660476E-01 -9.30683059369E-04 +1.18503301829E-03 -1.06207277572E-03 +1.13991669001E-03 +5.38288101833E-01 -5.28450798721E-01
4.11000000000E+09 +3.71980829834E-01 -5.12805460834E-01 -7.31978380820E-04 +1.38683849625E-03 -8.88608074120E-04 +1.32579120285E-03 +5.21581566344E-01 -5.36629721079E-01
4.11500000000E+09 +3.55317152046E-01 -5.14798474391E-01 -4.51118058246E-04 +1.55142872646E-03 -6.07918572952E-04 +1.52808853378E-03 +5.05089123408E-01 -5.44215630678E-01
4.12000000000E+09 +3.38271563424E-01 -5.15131265468E-01 -2.47800852689E-04 +1.59701950284E-03 -3.81186014497E-04 +1.60240066875E-03 +4.88920695611E-01 -5.51506742455E-01
4.12500000000E+09 +3.21156987969E-01 -5.14906471520E-01 -1.98671177514E-05 +1.67971885839E-03 -9.37433793295E-05 +1.69377638915E-03 +4.72235971481E-01 -5.57937426061E-01
4.13000000000E+09 +3.02987648519E-01 -5.16306078745E-01 +3.73447274481E-04 +1.39789948632E-03 +3.26821324750E-04 +1.41725833927E-03 +4.55246998889E-01 -5.64397392059E-01
4.13500000000E+09 +2.82837524367E-01 -5.17385734394E-01 +2.21071323293E-04 +1.18341219658E-03 +1.59985831961E-04 +1.24388852529E-03 +4.36860319209E-01 -5.70175245460E-01
4.14000000000E+09 +2.63679391109E-01 -5.19124255507E-01 +2.54805350650E-04 +1.12413018666E-03 +2.69182082041E-04 +1.28532197773E-03 +4.17776055549E-01 -5.75966925503E-01
4.14500000000E+09 +2.43584635198E-01 -5.23258630148E-01 +2.41235760245E-04 +1.25276555966E-03 +2.31096303164E-04 +1.36300324264E-03 +3.98606585485E-01 -5.81046044940E-01
4.15000000000E+09 +2.22476001901E-01 -5.25971035389E-01 +4.35344415913E-04 +1.57837036069E-03 +4.83512728303E-04 +1.71923583230E-03 +3.80622402069E-01 -5.86198636642E-01
4.15500000000E+09 +2.03626512024E-01 -5.28347628454E-01 +9.26260178438E-04 +1.55072995534E-03 +9.80238890036E-04 +1.63660156621E-03 +3.61949280658E-01 -5.90702373614E-01
4.16000000000E+09 +1.85674042017E-01 -5.30411766441E-01 +1.34612987578E-03 +1.15249978542E-03 +1.44696213676E-03 +1.17911108447E-03 +3.43599759732E-01 -5.93170615254E-01
4.16500000000E+09 +1.67606764464E-01 -5.30088792096E-01 +1.23373341338E-03 +6.37160116208E-04 +1.37081002010E-03 +6.64548733631E-04 +3.24747233183E-01 -5.96202514346E-01
4.17000000000E+09 +1.50773768010E-01 -5.27196723150E-01 +8.75788874476E-04 +6.89359087554E-04 +1.00266921184E-03 +6.82631181066E-04 +3.04745070491E-01 -5.98357380857E-01
4.17500000000E+09 +1.35321829326E-01 -5.22068201893E-01 +1.18024171059E-03 +7.81108070827E-04 +1.23970242237E-03 +7.41499323315E-04 +2.83596988551E-01 -6.00251338273E-01
4.18000000000E+09 +1.19808314225E-01 -5.17284525575E-01 +1.25768101307E-03 +2.22150405323E-04 +1.32496844237E-03 +1.49532205919E-04 +2.62916867350E-01 -6.01891071529E-01
4.18500000000E+09 +1.02277684811E-01 -5.11698768887E-01 +6.85219210862E-04 +6.63896911794E-04 +7.36291593227E-04 +6.05728157540E-04 +2.41787037943E-01 -6.03088069923E-01
4.19000000000E+09 +8.39317161489E-02 -5.05528800637E-01 +1.34016853559E-03 +8.52197184076E-04 +1.32783314331E-03 +8.59660148365E-04 +2.21306987607E-01 -6.02993023110E-01
4.19500000000E+09 +6.37922753241E-02 -5.00306592026E-01 +1.76067741174E-03 +5.30483816381E-04 +1.72351254418E-03 +5.03286089714E-04 +2.00105345080E-01 -6.01890398595E-01
4.20000000000E+09 +4.32436776185E-02 -4.93993094046E-01 +1.73040854502E-03 +4.09910119512E-04 +1.66809789341E-03 +4.48498046001E-04 +1.79485344603E-01 -5.99909135667E-01
4.20500000000E+09 +2.35463465519E-02 -4.88110938505E-01 +2.19172015780E-03 +7.19532649272E-06 +2.14264052993E-03 +6.64242650177E-05 +1.56897232326E-01 -5.97728022879E-01
4.21000000000E+09 +5.28619752167E-03 -4.82321091598E-01 +1.95193848481E-03 -6.35409584037E-04 +1.95817745880E-03 -5.76447572898E-04 +1.34467400970E-01 -5.94900302651E-01
4.21500000000E+09 -1.16250944740E-02 -4.76751447441E-01 +1.54695992357E-03 -6.49992553770E-04 +1.53722737200E-03 -5.31390018858E-04 +1.12376608654E-01 -5.92119682038E-01
4.22000000000E+09 -2.81523725090E-02 -4.70411200508E-01 +1.50101702163E-03 -6.74488869229E-04 +1.48883861038E-03 -5.93832477882E-04 +9.05746811251E-02 -5.88956618648E-01
4.22500000000E+09 -4.34204523080E-02 -4.61247355763E-01 +1.89987543449E-03 -7.30965370355E-04 +1.91750249835E-03 -6.33632910175E-04 +6.88226341166E-02 -5.84072431726E-01
4.23000000000E+09 -5.74422502792E-02 -4.51479216865E-01 +1.71929297125E-03 -1.64486103082E-03 +1.84173689101E-03 -1.58396048382E-03 +4.80361511517E-02 -5.77975040649E-01
4.23500000000E+09 -7.29448696874E-02 -4.39138510287E-01 +9.40657327221E-04 -1.65559348200E-03 +1.04825456140E-03 -1.60638169577E-03 +2.62449340828E-02 -5.70958564195E-01
4.24000000000E+09 -8.83393573761E-02 -4.24755360591E-01 +9.68496974969E-04 -1.27924192512E-03 +1.06697149770E-03 -1.27095797483E-03 +4.60894525735E-03 -5.62457274963E-01
4.24500000000E+09 -1.04116499743E-01 -4.11050191883E-01 +1.06983584810E-03 -1.76722255495E-03 +1.22624129748E-03 -1.77213644181E-03 -1.74892947135E-02 -5.54448292396E-01
4.25000000000E+09 -1.22895662196E-01 -3.97035137258E-01 +4.58303255530E-04 -2.36715704681E-03 +5.40879389567E-04 -2.43876067389E-03 -3.97013535109E-02 -5.45312608619E-01
4.25500000000E+09 -1.41959610679E-01 -3.83441509333E-01 -2.24839644504E-04 -1.70566203870E-03 -1.07069765851E-04 -1.78348859579E-03 -6.01953677390E-02 -5.35507164187E-01
4.26000000000E+09 -1.61644667249E-01 -3.70503644717E-01 +2.30045787903E-04 -1.63520648093E-03 +3.00623077111E-04 -1.71271511078E-03 -8.06360891200E-02 -5.24821082226E-01
4.26500000000E+09 -1.81387463644E-01 -3.58312812083E-01 -6.34698424872E-05 -2.23363282694E-03 +3.48435805343E-06 -2.34968072300E-03 -9.98590900295E-02 -5.13429652655E-01
4.27000000000E+09 -1.98691214810E-01 -3.45667278527E-01 -1.06408155593E-03 -1.91186693250E-03 -1.04555416179E-03 -2.04086813218E-03 -1.20971512501E-01 -5.01564529041E-01
4.27500000000E+09 -2.13763183801E-01 -3.33684206267E-01 -8.96504835621E-04 -1.50261297832E-03 -8.25063241835E-04 -1.63938773311E-03 -1.42203131761E-01 -4.86979828425E-01
4.28000000000E+09 -2.26328616942E-01 -3.20444683290E-01 -1.41847400240E-03 -1.39219583113E-03 -1.51718414704E-03 -1.46835734412E-03 -1.62186061709E-01 -4.72670512489E-01
4.28500000000E+09 -2.36973421783E-01 -3.06463288655E-01 -1.33786389756E-03 -7.46087650476E-04 -1.38828991922E-03 -8.02181303777E-04 -1.82340971385E-01 -4.58798950931E-01
4.29000000000E+09 -2.46254007115E-01 -2.90067918402E-01 -1.27790758003E-03 -4.96606999056E-04 -1.38806833948E-03 -5.15797717563E-04 -2.01655055991E-01 -4.43689986479E-01
4.29500000000E+09 -2.54415725561E-01 -2.73176771553E-01 -8.15611943633E-04 -2.84397750481E-04 -9.72599818036E-04 -2.85246068407E-04 -2.19579549320E-01 -4.28190828697E-01
4.30000000000E+09 -2.64724200690E-01 -2.54927015992E-01 -8.37693058153E-04 -4.59110694102E-04 -9.75130898274E-04 -4.87388079711E-04 -2.37035482059E-01 -4.11391145392E-01
4.30500000000E+09 -2.76403153821E-01 -2.34537649702E-01 -1.02163575966E-03 -5.64222497351E-04 -1.17682784198E-03 -5.31192635545E-04 -2.53929987846E-01 -3.93052530908E-01
4.31000000000E+09 -2.88138006023E-01 -2.13310506935E-01 -1.14465946339E-03 -1.11254164259E-04 -1.27803207414E-03 +3.94982451761E-06 -2.70139966440E-01 -3.74482075974E-01
4.31500000000E+09 -3.00586565925E-01 -1.93363637887E-01 -1.11170987925E-03 -1.99395003483E-04 -1.15666034500E-03 -1.34144719507E-04 -2.86130827150E-01 -3.55069655349E-01
4.32000000000E+09 -3.12520736728E-01 -1.74588805413E-01 -1.08333343468E-03 +3.99631222540E-04 -1.10762776055E-03 +4.94795541080E-04 -3.00958589742E-01 -3.35478988794E-01
4.32500000000E+09 -3.23905706114E-01 -1.57239400929E-01 -2.43679203726E-04 +1.29073540907E-04 -2.48824358370E-04 +2.45222196669E-04 -3.15791470933E-01 -3.15567117321E-01
4.33000000000E+09 -3.32743701319E-01 -1.41129414127E-01 -8.15475422274E-04 -1.34065493842E-04 -8.21386225560E-04 -7.78122299374E-05 -3.28603571857E-01 -2.93951261977E-01
4.33500000000E+09 -3.40241933735E-01 -1.27195068391E-01 -6.27712995886E-04 +1.51204147784E-04 -5.85598927081E-04 +2.16177173142E-04 -3.41116568231E-01 -2.72843985570E-01
4.34000000000E+09 -3.46539964682E-01 -1.10991736511E-01 -4.80415130198E-04 +5.76901187934E-05 -4.19741331673E-04 +1.04226862940E-04 -3.53382505620E-01 -2.49243854651E-01
4.34500000000E+09 -3.48324514178E-01 -9.33982368834E-02 -7.31006049668E-04 -2.63908360070E-04 -6.12295339799E-04 -2.83846621744E-04 -3.63811256461E-01 -2.26455203161E-01
4.35000000000E+09 -3.50007421748E-01 -7.56307073220E-02 -9.41800729116E-04 +2.41610740054E-04 -7.86099555791E-04 +2.07829621565E-04 -3.75022083949E-01 -2.04128641626E-01
4.35500000000E+09 -3.50651695239E-01 -5.50927874587E-02 -8.29870466642E-04 +2.59032443788E-04 -7.95572649021E-04 +1.30736033583E-04 -3.84887314443E-01 -1.80958465720E-01
4.36000000000E+09 -3.51441101394E-01 -3.32194552576E-02 -9.02380390418E-04 +4.00908939296E-04 -8.09398724245E-04 +3.40947746856E-04 -3.92976063362E-01 -1.58567747259E-01
4.36500000000E+09 -3.54078337260E-01 -1.10381230903E-02 -6.90160611150E-04 +8.05369993221E-04 -6.09657486900E-04 +7.55440980217E-04 -4.01138863119E-01 -1.35873228970E-01
4.37000000000E+09 -3.57514705124E-01 +1.19222045772E-02 -1.77808535352E-04 +7.71985549700E-04 -1.88718466194E-04 +6.26390634861E-04 -4.07447099762E-01 -1.11691411865E-01
4.37500000000E+09 -3.62365322471E-01 +3.37240252631E-02 +2.11592404850E-04 +6.16687247530E-05 +2.04521768136E-04 +1.85706450878E-05 -4.13016674683E-01 -8.68889124706E-02
4.38000000000E+09 -3.67240092891E-01 +5.44863767487E-02 -5.88958430935E-04 -3.09718550790E-04 -6.38505281868E-04 -4.09475216538E-04 -4.17387939485E-01 -6.25528272349E-02
4.38500000000E+09 -3.70648426565E-01 +7.22310625870E-02 -1.06895064287E-03 +3.60536144166E-04 -1.12951771527E-03 +3.35967800560E-04 -4.21569695288E-01 -3.79236697645E-02
4.39000000000E+09 -3.74035561086E-01 +8.83207977525E-02 -4.58949054580E-04 +8.53244252807E-04 -5.36518356783E-04 +8.82921969069E-04 -4.24391941847E-01 -1.34792428417E-02
4.39500000000E+09 -3.74184339053E-01 +1.03731995495E-01 -2.45040170191E-04 +4.70683753421E-04 -3.18129562516E-04 +5.08365476658E-04 -4.26396858802E-01 +1.08607350955E-02
4.40000000000E+09 -3.71707435364E-01 +1.17779773874E-01 -3.45266686990E-05 +8.05348978968E-04 -1.27870078389E-04 +8.20833947691E-04 -4.26292859125E-01 +3.49871756110E-02
4.40500000000E+09 -3.67494635219E-01 +1.31920331196E-01 +2.18328799829E-04 +2.80421615798E-04 +1.42952340887E-04 +3.21711336970E-04 -4.26188068437E-01 +5.89402022977E-02
4.41000000000E+09 -3.62363722433E-01 +1.47577232224E-01 +2.55755149145E-05 +1.37611668694E-04 -3.39795513814E-06 +1.37892555502E-04 -4.24784130039E-01 +8.39228909109E-02
4.41500000000E+09 -3.56711802696E-01 +1.66363047930E-01 -2.26209799861E-04 -2.65163560257E-05 -1.93394269900E-04 +5.71081819426E-05 -4.22619489070E-01 +1.07704417317E-01
4.42000000000E+09 -3.50843374038E-01 +1.87182849562E-01 -4.42868572701E-04 -1.10633766900E-04 -4.26563574028E-04 +3.35534025400E-05 -4.19881723461E-01 +1.32456872525E-01
4.42500000000E+09 -3.45799836849E-01 +2.09121376816E-01 -6.74673082585E-04 +2.60874155142E-04 -6.53913285642E-04 +2.84679451759E-04 -4.14238759929E-01 +1.55153544856E-01
4.43000000000E+09 -3.41167311243E-01 +2.31721743053E-01 -7.65157855691E-04 +4.25478234459E-04 -7.09443410164E-04 +5.08179505893E-04 -4.10645162716E-01 +1.76778677124E-01
4.43500000000E+09 -3.37025240995E-01 +2.52285980581E-01 -5.84375709838E-04 +7.51603466313E-04 -4.63176837785E-04 +7.91269760043E-04 -4.04663067972E-01 +2.00241887438E-01
4.44000000000E+09 -3.34477410562E-01 +2.69622308237E-01 -1.90420314199E-04 +8.07532382356E-04 -6.16457028084E-05 +7.91277790133E-04 -3.98470537909E-01 +2.21590437786E-01
4.44500000000E+09 -3.33425140581E-01 +2.85832245959E-01 -2.35097317767E-04 +4.29417045966E-04 -1.50250443196E-04 +4.18513722984E-04 -3.91890864588E-01 +2.43647011045E-01
4.45000000000E+09 -3.31177596621E-01 +3.00074647777E-01 -4.43649327252E-04 +4.21753985899E-04 -3.26697775028E-04 +4.12311244879E-04 -3.84899002090E-01 +2.64519315353E-01
4.45500000000E+09 -3.27127652013E-01 +3.12982606682E-01 -7.32550876218E-04 +7.30142150756E-04 -6.91311074997E-04 +6.81373042402E-04 -3.76899670881E-01 +2.84755129897E-01
4.46000000000E+09 -3.20241510930E-01 +3.25252725304E-01 -4.94235958753E-04 +1.01760594182E-03 -4.45335766112E-04 +9.77190594290E-04 -3.68863346478E-01 +3.04029743483E-01
4.46500000000E+09 -3.11542014127E-01 +3.37223761912E-01 -3.17104296343E-04 +1.13400992312E-03 -2.58671106156E-04 +1.07600133388E-03 -3.59190731991E-01 +3.23958057774E-01
4.47000000000E+09 -3.00912360106E-01 +3.51233034574E-01 -5.92449440942E-05 +1.37214131687E-03 -6.22076957148E-05 +1.32458203735E-03 -3.48124986470E-01 +3.42865252363E-01
4.47500000000E+09 -2.88704331824E-01 +3.66000896298E-01 +2.32073136197E-05 +1.31817985978E-03 +5.14257393152E-05 +1.22024725848E-03 -3.37583222104E-01 +3.62036839622E-01
4.48000000000E+09 -2.77223447064E-01 +3.83070082488E-01 +5.63199470201E-04 +1.63890174895E-03 +5.18084731429E-04 +1.56182089759E-03 -3.25637778940E-01 +3.80877766696E-01
4.48500000000E+09 -2.64762389001E-01 +4.00450837048E-01 +6.40710676511E-04 +9.70715626620E-04 +6.10023121312E-04 +9.78586006844E-04 -3.14025111442E-01 +3.98329809703E-01
4.49000000000E+09 -2.55280085113E-01 +4.16382788928E-01 +5.70605845405E-04 +1.28400483911E-03 +5.57085385615E-04 +1.18942396046E-03 -3.02369234366E-01 +4.14628838335E-01
4.49500000000E+09 -2.47769632650E-01 +4.32982494865E-01 +9.10111110267E-04 +1.12619657067E-03 +8.80055154174E-04 +1.09718355197E-03 -2.90791738424E-01 +4.30207143151E-01
4.50000000000E+09 -2.41667008317E-01 +4.46680398507E-01 +8.48384597817E-04 +1.18516360219E-03 +8.01076848097E-04 +1.16710493377E-03 -2.78111351039E-01 +4.46143132116E-01
4.50500000000E+09 -2.37089095770E-01 +4.59617153734E-01 +1.44836637844E-03 +1.05047340091E-03 +1.37092752151E-03 +1.10807849445E-03 -2.64588059800E-01 +4.60633257774E-01
4.51000000000E+09 -2.30665685446E-01 +4.69748760833E-01 +1.48155689837E-03 +4.90322415880E-04 +1.45877293982E-03 +5.07203316911E-04 -2.51048618548E-01 +4.75331097131E-01
4.51500000000E+09 -2.24018635653E-01 +4.77567170966E-01 +1.36658916060E-03 +5.35912539455E-04 +1.33602632713E-03 +5.39296964440E-04 -2.37152446093E-01 +4.89428483072E-01
4.52000000000E+09 -2.14745417207E-01 +4.85532835278E-01 +1.70335012471E-03 +2.77899291896E-04 +1.64433414993E-03 +3.08349154321E-04 -2.23710265682E-01 +5.02439666024E-01
4.52500000000E+09 -2.03310341592E-01 +4.91909513449E-01 +1.45074011351E-03 -1.31542097595E-04 +1.44112426159E-03 -9.03141960651E-05 -2.10052353883E-01 +5.14594446487E-01
4.53000000000E+09 -1.90271724884E-01 +5.00033197422E-01 +1.41989163283E-03 -2.21755008915E-05 +1.41043632034E-03 -6.47375397273E-06 -1.96102054575E-01 +5.25722685072E-01
4.53500000000E+09 -1.74994450775E-01 +5.08919985507E-01 +1.10611707371E-03 -3.29565994930E-04 +1.14880879625E-03 -3.61528824371E-04 -1.81898761719E-01 +5.37396460984E-01
4.54000000000E+09 -1.59754400090E-01 +5.18715838790E-01 +1.36280618079E-03 +2.81697602608E-05 +1.38086440970E-03 +8.28556150499E-06 -1.65886152166E-01 +5.48110140226E-01
4.54500000000E+09 -1.44727853715E-01 +5.29851446717E-01 +1.56047900121E-03 -5.66796163501E-04 +1.61394869113E-03 -5.82658538821E-04 -1.51191836079E-01 +5.57762932771E-01
4.55000000000E+09 -1.31209622288E-01 +5.40545581734E-01 +1.33738158772E-03 -7.02313232846E-04 +1.33776780917E-03 -7.48958576411E-04 -1.36497335039E-01 +5.68400080624E-01
4.55500000000E+09 -1.19692095293E-01 +5.51258842995E-01 +1.22298083729E-03 -9.56096083218E-04 +1.25818902495E-03 -9.75329782906E-04 -1.21950707053E-01 +5.78050173599E-01
4.56000000000E+09 -1.09604685721E-01 +5.60767777012E-01 +9.52394877081E-04 -9.68619521402E-04 +9.28649891691E-04 -1.00998090642E-03 -1.07195028715E-01 +5.86760667624E-01
4.56500000000E+09 -1.00965369761E-01 +5.68845560974E-01 +8.35989673974E-04 -1.08643684637E-03 +8.02615276536E-04 -1.16554946634E-03 -9.32298155152E-02 +5.95293632802E-01
4.57000000000E+09 -9.20357733566E-02 +5.75572378916E-01 +8.05737747344E-04 -1.09828110421E-03 +7.60725362325E-04 -1.14434240868E-03 -7.75873800365E-02 +6.03727984477E-01
