# Hz S RI R 50
! CMT, C1220, 16058040, 17.2.0/1
! Date: 15/08/2018 12:20:12
! Data: Format (Calibration Info)
! Freq                      S11: Re/Im (F2)                       S21: Re/Im (F2)                       S12: Re/Im (F2)                       S22: Re/Im (F2)            
4.00000000000E+09 +6.53761301760E-01 -3.51831485820E-01 +1.13600713680E-03 -8.41956735317E-05 +1.23807538734E-03 -1.08368499687E-04 +7.42829981645E-01 -3.25273845097E-01
4.00500000000E+09 +6.45558469219E-01 -3.58228898179E-01 +1.12012727753E-03 -1.79332315048E-04 +1.17330495188E-03 -1.82593783838E-04 +7.32290869944E-01 -3.35821904943E-01
4.01000000000E+09 +6.36658905755E-01 -3.65074361362E-01 +1.23199422725E-03 -4.84089734790E-04 +1.26431948368E-03 -5.00699157488E-04 +7.21422032227E-01 -3.46817307475E-01
4.01500000000E+09 +6.26392681292E-01 -3.72431671473E-01 +9.71224104018E-04 -8.03244600516E-04 +1.01224423927E-03 -7.95993367646E-04 +7.10230155520E-01 -3.57154270259E-01
4.02000000000E+09 +6.15779190995E-01 -3.80739659908E-01 +5.31507952273E-04 -8.27724648095E-04 +6.27292371207E-04 -8.28194995398E-04 +6.98557293160E-01 -3.67324982720E-01
4.02500000000E+09 +6.04586167972E-01 -3.90257826087E-01 +4.50836244916E-04 -3.76500465931E-04 +4.60999966500E-04 -3.67887142429E-04 +6.85995054030E-01 -3.77239587101E-01
4.03000000000E+09 +5.93401072484E-01 -4.00567103904E-01 +9.30428137910E-04 -3.45297556156E-04 +9.70427777466E-04 -3.66747988907E-04 +6.73034844344E-01 -3.86658504107E-01
4.03500000000E+09 +5.82319176004E-01 -4.11344257360E-01 +1.10119811955E-03 -7.64556250715E-04 +1.19278522468E-03 -7.46645027535E-04 +6.60146456598E-01 -3.96114891504E-01
4.04000000000E+09 +5.71337340844E-01 -4.21804177487E-01 +9.91612238530E-04 -1.15121396369E-03 +1.02587138811E-03 -1.21073935550E-03 +6.46550139588E-01 -4.06447941515E-01
4.04500000000E+09 +5.60216848135E-01 -4.31479555661E-01 +5.60144038700E-04 -1.37157041123E-03 +5.86124956991E-04 -1.45914496126E-03 +6.32280048328E-01 -4.15662910208E-01
4.05000000000E+09 +5.48844488056E-01 -4.39337229238E-01 +1.00180812816E-04 -1.24360752784E-03 +1.34303781846E-04 -1.31312278338E-03 +6.18364269725E-01 -4.24220415609E-01
4.05500000000E+09 +5.37367377991E-01 -4.44865204172E-01 +1.49869414169E-04 -1.00352389594E-03 +1.16548547311E-04 -1.09678114323E-03 +6.03994303133E-01 -4.32692982945E-01
4.06000000000E+09 +5.25996626828E-01 -4.49630793182E-01 +1.46750035189E-04 -8.84574013283E-04 +1.60397753236E-04 -9.10973622347E-04 +5.89163639276E-01 -4.40463410669E-01
4.06500000000E+09 +5.13294569597E-01 -4.53835123442E-01 +4.78372936247E-04 -1.00585219376E-03 +4.26594683985E-04 -1.04856955306E-03 +5.73335855063E-01 -4.47981496832E-01
4.07000000000E+09 +4.99148526648E-01 -4.58152035279E-01 +3.06120406164E-04 -1.45586143343E-03 +3.21793164871E-04 -1.45213061238E-03 +5.57266170009E-01 -4.54837597458E-01
4.07500000000E+09 +4.83703034539E-01 -4.62674159586E-01 +5.94190874282E-05 -1.54765707455E-03 +1.18682262689E-04 -1.53008102589E-03 +5.40669565777E-01 -4.62036554462E-01
4.08000000000E+09 +4.67190213886E-01 -4.68149255114E-01 -2.71906866152E-04 -1.72146292152E-03 -2.59675905061E-04 -1.71832397072E-03 +5.24740286613E-01 -4.68155637408E-01
4.08500000000E+09 +4.49798611460E-01 -4.73586489095E-01 -6.88154048891E-04 -1.56260679676E-03 -6.96105171496E-04 -1.63532086281E-03 +5.08603471909E-01 -4.75750678199E-01
4.09000000000E+09 +4.33251732507E-01 -4.80015978452E-01 -8.03529770809E-04 -1.35744849960E-03 -7.79000961362E-04 -1.43352248167E-03 +4.90657151623E-01 -4.81455605659E-01
4.09500000000E+09 +4.16375510226E-01 -4.86630802492E-01 -9.69819328486E-04 -1.20649149610E-03 -9.44530033335E-04 -1.24556926610E-03 +4.73639320881E-01 -4.86072436487E-01
4.10000000000E+09 +3.99818680486E-01 -4.92799774561E-01 -1.08729204517E-03 -1.10672845371E-03 -1.05339207886E-03 -1.10487492210E-03 +4.55112334945E-01 -4.90957379331E-01
4.10500000000E+09 +3.83680259672E-01 -4.97702727352E-01 -9.32459440854E-04 -8.87269381042E-04 -9.19201004117E-04 -9.66165843433E-04 +4.36072067935E-01 -4.94622003725E-01
4.11000000000E+09 +3.67329856242E-01 -5.00950387592E-01 -1.01799055506E-03 -1.16521892122E-03 -9.77260520733E-04 -1.20015975142E-03 +4.16942347587E-01 -4.97866133205E-01
4.11500000000E+09 +3.51715827905E-01 -5.02419025576E-01 -1.14650132575E-03 -1.24295284125E-03 -1.12908990847E-03 -1.27663173051E-03 +3.98114415140E-01 -5.01108608622E-01
4.12000000000E+09 +3.35563413411E-01 -5.03406694869E-01 -1.67706895863E-03 -1.41483037904E-03 -1.70487757686E-03 -1.53985580926E-03 +3.78824028043E-01 -5.04143911766E-01
4.12500000000E+09 +3.18148779826E-01 -5.03839820252E-01 -2.45158337638E-03 -9.54078202027E-04 -2.48252755962E-03 -1.07031627013E-03 +3.58648537883E-01 -5.06503953407E-01
4.13000000000E+09 +3.00060705080E-01 -5.04593595749E-01 -2.62389025558E-03 +7.29168483671E-07 -2.63197711875E-03 -3.75339086861E-05 +3.38098395577E-01 -5.07835667332E-01
4.13500000000E+09 +2.80690410699E-01 -5.06290295237E-01 -2.07667189223E-03 +5.90166996556E-04 -2.17685783152E-03 +5.73756324941E-04 +3.17116002243E-01 -5.07342725216E-01
4.14000000000E+09 +2.60427417204E-01 -5.08789144345E-01 -1.54112982698E-03 +6.06840745563E-04 -1.62499088459E-03 +5.83067627382E-04 +2.96666462007E-01 -5.06874555951E-01
4.14500000000E+09 +2.40248347594E-01 -5.12420278064E-01 -1.46042332015E-03 +5.08996676285E-04 -1.58997350545E-03 +4.72662547550E-04 +2.75911744193E-01 -5.05634881859E-01
4.15000000000E+09 +2.19646483055E-01 -5.16194895599E-01 -1.38430368412E-03 +4.42711997872E-04 -1.50808766922E-03 +4.41921963882E-04 +2.55930694901E-01 -5.03982494352E-01
4.15500000000E+09 +2.00170594410E-01 -5.19738685256E-01 -1.63585389781E-03 +1.89330366697E-04 -1.68103695566E-03 +1.79967736165E-04 +2.35418723843E-01 -5.01555973640E-01
4.16000000000E+09 +1.81625312402E-01 -5.22512677541E-01 -2.17610981363E-03 +4.82532598901E-04 -2.28640741425E-03 +5.48003014531E-04 +2.15130092426E-01 -4.97810539901E-01
4.16500000000E+09 +1.63867226534E-01 -5.23298240732E-01 -2.30797619987E-03 +1.35290232857E-03 -2.38697450065E-03 +1.42511897379E-03 +1.94818285045E-01 -4.93386891008E-01
4.17000000000E+09 +1.47875384398E-01 -5.21838302005E-01 -1.84440938890E-03 +1.72617248443E-03 -1.89872054995E-03 +1.71716965737E-03 +1.74007389083E-01 -4.88319424389E-01
4.17500000000E+09 +1.32515849682E-01 -5.19073488978E-01 -1.59500927536E-03 +2.23476105742E-03 -1.66350569688E-03 +2.30241904524E-03 +1.52914552514E-01 -4.81826876254E-01
4.18000000000E+09 +1.17237750567E-01 -5.15313921846E-01 -9.10208435168E-04 +2.46101988189E-03 -9.12177604073E-04 +2.56134663172E-03 +1.32954174462E-01 -4.74169332822E-01
4.18500000000E+09 +1.00503322993E-01 -5.11093717773E-01 -1.19710886200E-04 +2.19866218194E-03 -1.22091512827E-04 +2.36007827443E-03 +1.13722939711E-01 -4.67521181447E-01
4.19000000000E+09 +8.24404504501E-02 -5.05759578144E-01 -4.38864106977E-04 +1.43629302485E-03 -4.47441678692E-04 +1.50609609046E-03 +9.30087745080E-02 -4.60082622589E-01
4.19500000000E+09 +6.37830893296E-02 -4.99528589768E-01 -8.69177822925E-04 +1.65709795117E-03 -8.20094802690E-04 +1.73117600215E-03 +7.26684269822E-02 -4.50618799960E-01
4.20000000000E+09 +4.49637581330E-02 -4.93942553692E-01 -7.75066208571E-04 +2.32446045258E-03 -7.75986173875E-04 +2.35211457624E-03 +5.35478742704E-02 -4.40164623627E-01
4.20500000000E+09 +2.62775053509E-02 -4.88504827572E-01 -5.72515054887E-04 +2.47763669778E-03 -5.56622827489E-04 +2.57395163359E-03 +3.39336650088E-02 -4.29984031156E-01
4.21000000000E+09 +8.14237095683E-03 -4.83473101558E-01 -2.56156427879E-04 +3.13266201965E-03 -2.13202798271E-04 +3.23064966512E-03 +1.44518712716E-02 -4.18442086878E-01
4.21500000000E+09 -9.92370597959E-03 -4.78097061094E-01 +8.84848107187E-04 +3.46557262178E-03 +9.29446823745E-04 +3.55301546983E-03 -4.38441860891E-03 -4.06676213054E-01
4.22000000000E+09 -2.73796302346E-02 -4.70755991258E-01 +1.71635522258E-03 +2.86445924617E-03 +1.80264283612E-03 +2.90323045925E-03 -2.26519350304E-02 -3.94354014808E-01
4.22500000000E+09 -4.28813017713E-02 -4.61859462545E-01 +2.07444757174E-03 +2.11273983743E-03 +2.11304110041E-03 +2.09755505691E-03 -4.02038326248E-02 -3.80614959776E-01
4.23000000000E+09 -5.81203143345E-02 -4.51477945380E-01 +1.67014641636E-03 +1.52473606575E-03 +1.65769549370E-03 +1.52245384795E-03 -5.67727466266E-02 -3.66471036952E-01
4.23500000000E+09 -7.33382428788E-02 -4.40008305564E-01 +1.36081247002E-03 +2.07847957324E-03 +1.38143000218E-03 +2.07130970242E-03 -7.38327963956E-02 -3.51283537139E-01
4.24000000000E+09 -8.97314516701E-02 -4.27224367475E-01 +1.88311254916E-03 +2.40607482024E-03 +1.96102892760E-03 +2.40147145470E-03 -8.96308152570E-02 -3.34540325935E-01
4.24500000000E+09 -1.06958015397E-01 -4.13883017208E-01 +2.95665486675E-03 +2.44009191500E-03 +2.97110652253E-03 +2.40251973484E-03 -1.04998023252E-01 -3.17651436758E-01
4.25000000000E+09 -1.25415156120E-01 -4.00131184331E-01 +3.83092321279E-03 +1.60111481601E-03 +3.89252858209E-03 +1.58981168914E-03 -1.19447109332E-01 -2.99621606310E-01
4.25500000000E+09 -1.43887612627E-01 -3.86975839855E-01 +4.03460756559E-03 +3.95607490205E-04 +4.07543701222E-03 +3.44871503844E-04 -1.32356460717E-01 -2.81966991752E-01
4.26000000000E+09 -1.62934348200E-01 -3.75056886245E-01 +3.34654884882E-03 -3.63173468209E-04 +3.34754674487E-03 -3.49159152307E-04 -1.45040479836E-01 -2.64548623425E-01
4.26500000000E+09 -1.82086434198E-01 -3.63671724036E-01 +3.35968232752E-03 -4.45878512188E-04 +3.40327095057E-03 -4.63516099934E-04 -1.56951142715E-01 -2.45687478216E-01
4.27000000000E+09 -1.99310094573E-01 -3.51835239334E-01 +3.28476647828E-03 -7.73501670006E-04 +3.33093572876E-03 -8.13039063445E-04 -1.68777937264E-01 -2.26929608627E-01
4.27500000000E+09 -2.15374939108E-01 -3.39918562745E-01 +3.33110976586E-03 -1.49382136348E-03 +3.29483665116E-03 -1.50712736019E-03 -1.80261111477E-01 -2.06655035264E-01
4.28000000000E+09 -2.28959344353E-01 -3.25997421454E-01 +2.83589363753E-03 -1.64822805784E-03 +2.81831922564E-03 -1.64903710002E-03 -1.90330732559E-01 -1.86201425921E-01
4.28500000000E+09 -2.39956924254E-01 -3.11078829258E-01 +3.01859795674E-03 -1.84875172780E-03 +2.97361597043E-03 -1.81812823193E-03 -1.99332354318E-01 -1.65735987336E-01
4.29000000000E+09 -2.49820673441E-01 -2.95958718499E-01 +2.88490199012E-03 -2.75606188456E-03 +2.92552238066E-03 -2.77986152026E-03 -2.07467260224E-01 -1.45943285710E-01
4.29500000000E+09 -2.60765061110E-01 -2.79368011987E-01 +2.12407109850E-03 -3.49934306268E-03 +2.12884275121E-03 -3.51943469078E-03 -2.14835968428E-01 -1.26382116722E-01
4.30000000000E+09 -2.72790693307E-01 -2.60238430841E-01 +1.25024267770E-03 -3.45211230534E-03 +1.22143112965E-03 -3.47127289212E-03 -2.21447379247E-01 -1.06329639025E-01
4.30500000000E+09 -2.84705236686E-01 -2.40190572799E-01 +9.02666159229E-04 -3.36301673510E-03 +8.57495140885E-04 -3.40270138024E-03 -2.27100330808E-01 -8.53665319311E-02
4.31000000000E+09 -2.97082381492E-01 -2.19932259287E-01 +3.74492797216E-04 -3.65096705989E-03 +3.41086622860E-04 -3.64570014126E-03 -2.31488715299E-01 -6.44187830884E-02
4.31500000000E+09 -3.09706575562E-01 -2.00730016477E-01 -3.21737637106E-04 -3.32013913130E-03 -3.96535741332E-04 -3.32282986084E-03 -2.34903192966E-01 -4.25810462959E-02
4.32000000000E+09 -3.21373626681E-01 -1.83299408195E-01 -6.18274326222E-04 -2.87990762510E-03 -6.52251926597E-04 -2.93366905541E-03 -2.37404014018E-01 -2.11087680732E-02
4.32500000000E+09 -3.33103727488E-01 -1.67516070619E-01 -4.47652913949E-04 -2.83961434138E-03 -5.43521717557E-04 -2.87650464354E-03 -2.39298404024E-01 +2.09492212998E-04
4.33000000000E+09 -3.43133981037E-01 -1.51284975603E-01 -1.00900109204E-03 -3.14133321677E-03 -1.11827625513E-03 -3.10364965939E-03 -2.40257020599E-01 +2.15544966471E-02
4.33500000000E+09 -3.49898418274E-01 -1.35753884169E-01 -1.31012762381E-03 -3.05286536621E-03 -1.45094519928E-03 -2.98486554881E-03 -2.40130942630E-01 +4.26366510855E-02
4.34000000000E+09 -3.54611012285E-01 -1.19856480714E-01 -2.20725104768E-03 -2.90176314563E-03 -2.29061905822E-03 -2.78390644577E-03 -2.39436313027E-01 +6.34569405579E-02
4.34500000000E+09 -3.57334624906E-01 -1.02961441156E-01 -2.60869576895E-03 -2.11417450077E-03 -2.68056437443E-03 -2.06495873604E-03 -2.37516997912E-01 +8.42574496785E-02
4.35000000000E+09 -3.59134614380E-01 -8.46374659253E-02 -2.33754350431E-03 -1.37515018710E-03 -2.36757367134E-03 -1.33538034919E-03 -2.35338854196E-01 +1.03500565792E-01
4.35500000000E+09 -3.61221865053E-01 -6.37050183382E-02 -2.26326904105E-03 -1.74833851527E-03 -2.29701660952E-03 -1.71038545985E-03 -2.32612710351E-01 +1.23158874020E-01
4.36000000000E+09 -3.62943991571E-01 -4.07433697119E-02 -2.70169511396E-03 -1.35124652909E-03 -2.71225041466E-03 -1.31019337026E-03 -2.29154955980E-01 +1.41548009059E-01
4.36500000000E+09 -3.64847308706E-01 -1.80126097810E-02 -3.08447485107E-03 -1.38840564853E-03 -3.10445074703E-03 -1.26974311896E-03 -2.25205389741E-01 +1.59904322005E-01
4.37000000000E+09 -3.69023293064E-01 +4.53298669291E-03 -3.39436222014E-03 -5.22549222646E-04 -3.43417927081E-03 -4.86300939382E-04 -2.20258927553E-01 +1.77734790113E-01
4.37500000000E+09 -3.73327183344E-01 +2.54241981738E-02 -3.25692975854E-03 -1.61054527843E-05 -3.18578464626E-03 +5.40438417300E-05 -2.15025804270E-01 +1.95156398073E-01
4.38000000000E+09 -3.79383124699E-01 +4.53697558514E-02 -3.15424037383E-03 +4.22147475976E-04 -3.12883213424E-03 +4.51338850239E-04 -2.09087158987E-01 +2.12636863514E-01
4.38500000000E+09 -3.83708784641E-01 +6.36327770008E-02 -2.99990201697E-03 +1.03283245876E-03 -2.91020829159E-03 +1.06442697860E-03 -2.02816697631E-01 +2.30116435364E-01
4.39000000000E+09 -3.86114046051E-01 +8.02963446245E-02 -2.77121474974E-03 +1.20135811769E-03 -2.68058175576E-03 +1.24373327903E-03 -1.96004733527E-01 +2.47326719097E-01
4.39500000000E+09 -3.86074430372E-01 +9.49838745521E-02 -2.48460510294E-03 +1.66674721182E-03 -2.32759619745E-03 +1.63081958329E-03 -1.89237086447E-01 +2.63346491405E-01
4.40000000000E+09 -3.83873455599E-01 +1.09225270154E-01 -2.13239713446E-03 +1.66739602371E-03 -2.04413565311E-03 +1.68864146076E-03 -1.81700254971E-01 +2.80138525798E-01
4.40500000000E+09 -3.80000117284E-01 +1.24016325245E-01 -2.14312786315E-03 +1.86387656030E-03 -2.03106194550E-03 +1.85648689991E-03 -1.72818232178E-01 +2.95576108528E-01
4.41000000000E+09 -3.74946697933E-01 +1.40582313292E-01 -1.91446360307E-03 +2.35854633304E-03 -1.85843256563E-03 +2.35287863924E-03 -1.63564065510E-01 +3.10239650487E-01
4.41500000000E+09 -3.68809421569E-01 +1.59662205329E-01 -1.59144961197E-03 +2.62210880972E-03 -1.48882123399E-03 +2.63619552047E-03 -1.54003858848E-01 +3.24216996992E-01
4.42000000000E+09 -3.62106916471E-01 +1.80384006002E-01 -1.17137045993E-03 +2.98001146289E-03 -1.09170741917E-03 +2.94468494418E-03 -1.44473315131E-01 +3.38606302994E-01
4.42500000000E+09 -3.56398910263E-01 +2.00996702172E-01 -3.82765002886E-04 +3.07950891144E-03 -3.68340866068E-04 +2.95897602685E-03 -1.33867916122E-01 +3.51864845092E-01
4.43000000000E+09 -3.52939120275E-01 +2.21812447321E-01 +3.45414570795E-05 +2.88954175559E-03 +9.29422603452E-05 +2.82449160279E-03 -1.24777430740E-01 +3.64728898895E-01
4.43500000000E+09 -3.50220075800E-01 +2.42424269582E-01 +5.28633082039E-04 +2.63017383982E-03 +4.61359677561E-04 +2.53673272261E-03 -1.14339833486E-01 +3.77723739916E-01
4.44000000000E+09 -3.47643266119E-01 +2.61015175651E-01 +6.20989813653E-04 +2.35179436436E-03 +6.18662205438E-04 +2.28828246416E-03 -1.03877280176E-01 +3.89284060907E-01
4.44500000000E+09 -3.45258672218E-01 +2.77100868087E-01 +7.71775776504E-04 +2.23307297569E-03 +7.14608035109E-04 +2.16210521528E-03 -9.31374881969E-02 +4.00534045603E-01
4.45000000000E+09 -3.42409587403E-01 +2.91226685328E-01 +9.05072924115E-04 +2.39396216206E-03 +9.21567696501E-04 +2.31931928176E-03 -8.21427120717E-02 +4.10570739437E-01
4.45500000000E+09 -3.37707177237E-01 +3.04453045123E-01 +1.57050267490E-03 +2.31526496176E-03 +1.56983858570E-03 +2.31789513902E-03 -7.14821807564E-02 +4.20308689723E-01
4.46000000000E+09 -3.30765678654E-01 +3.16752356148E-01 +1.99857830196E-03 +1.49814619237E-03 +1.96765204884E-03 +1.51015824853E-03 -6.06060427733E-02 +4.29906240089E-01
4.46500000000E+09 -3.21564944316E-01 +3.29534939687E-01 +1.77844374965E-03 +1.21824104562E-03 +1.73392455397E-03 +1.18925394274E-03 -4.92798331675E-02 +4.38838573981E-01
4.47000000000E+09 -3.11418453308E-01 +3.43236433847E-01 +1.64315555205E-03 +1.05285392106E-03 +1.55558448125E-03 +9.97462988654E-04 -3.88629652356E-02 +4.48036080611E-01
4.47500000000E+09 -2.99920189899E-01 +3.59469368863E-01 +1.86015201684E-03 +1.22287266634E-03 +1.82615314464E-03 +1.14506345177E-03 -2.70841909217E-02 +4.57575160154E-01
4.48000000000E+09 -2.87965345476E-01 +3.76340295890E-01 +2.27245518434E-03 +1.04919213372E-03 +2.23333351489E-03 +9.45100093941E-04 -1.53743464808E-02 +4.65401063966E-01
4.48500000000E+09 -2.76746734757E-01 +3.93296056203E-01 +2.44817218025E-03 +2.32790368558E-04 +2.36648728469E-03 +1.43371705433E-04 -4.05115114249E-03 +4.73495169583E-01
4.49000000000E+09 -2.67869578431E-01 +4.10258028107E-01 +2.30320432881E-03 -1.58156891414E-04 +2.18882864891E-03 -1.92643894501E-04 +7.93429803132E-03 +4.80833244533E-01
4.49500000000E+09 -2.59886344822E-01 +4.26475496510E-01 +1.72739264843E-03 -5.06274945893E-04 +1.68476821281E-03 -4.80597964081E-04 +1.89715916982E-02 +4.87320301879E-01
4.50000000000E+09 -2.53132569264E-01 +4.40066834464E-01 +1.74636327715E-03 -3.18034835611E-04 +1.66841522883E-03 -3.35220581889E-04 +3.03784027343E-02 +4.93937964511E-01
4.50500000000E+09 -2.47792350445E-01 +4.51781635968E-01 +1.82397869869E-03 -5.68594740338E-04 +1.79242432331E-03 -6.08995913035E-04 +4.17609722537E-02 +5.00010837519E-01
4.51000000000E+09 -2.41795607617E-01 +4.61878263074E-01 +1.66483921721E-03 -9.87999695729E-04 +1.61587989596E-03 -9.21095765887E-04 +5.33268233755E-02 +5.05918244085E-01
4.51500000000E+09 -2.33866170749E-01 +4.70252864552E-01 +1.41155798559E-03 -1.03061254207E-03 +1.37066508304E-03 -1.03111017989E-03 +6.48320874666E-02 +5.11506396785E-01
4.52000000000E+09 -2.24656675261E-01 +4.77342131662E-01 +1.22767487661E-03 -1.19002632217E-03 +1.14293445845E-03 -1.17966762403E-03 +7.69552404701E-02 +5.16194742806E-01
4.52500000000E+09 -2.13062723288E-01 +4.85048009570E-01 +1.06310913689E-03 -1.08444529007E-03 +9.95624403089E-04 -1.03560766359E-03 +8.82449565142E-02 +5.20013280470E-01
4.53000000000E+09 -2.00033379986E-01 +4.93045493621E-01 +1.15824014635E-03 -1.30040996487E-03 +1.09249276202E-03 -1.29243032897E-03 +9.98075874871E-02 +5.23824399203E-01
4.53500000000E+09 -1.85413665031E-01 +5.02564974345E-01 +7.94804578405E-04 -1.52737472180E-03 +7.33386589908E-04 -1.46990406232E-03 +1.10797833919E-01 +5.27046571349E-01
4.54000000000E+09 -1.70632644846E-01 +5.12461802638E-01 +6.33556752326E-04 -1.68140035749E-03 +5.84229835659E-04 -1.66699610127E-03 +1.21941384721E-01 +5.30181367363E-01
4.54500000000E+09 -1.56913257650E-01 +5.23193074409E-01 +5.81255623677E-05 -1.55331416191E-03 +3.95163392859E-05 -1.51960582365E-03 +1.32314623658E-01 +5.33645378803E-01
4.55000000000E+09 -1.44430258709E-01 +5.33526321136E-01 -1.18432722175E-04 -1.17858836488E-03 -1.16596496386E-04 -1.11089991536E-03 +1.43985421429E-01 +5.37287850388E-01
4.55500000000E+09 -1.34155518875E-01 +5.43584923352E-01 +2.53474416740E-04 -1.11435408669E-03 +2.20519835010E-04 -1.00697026876E-03 +1.54721379501E-01 +5.39712280562E-01
4.56000000000E+09 -1.24915884642E-01 +5.52737754073E-01 +1.37220187469E-04 -1.58014677750E-03 +1.32873270415E-04 -1.49033708319E-03 +1.65280393384E-01 +5.42586724196E-01
4.56500000000E+09 -1.15560189984E-01 +5.60246304531E-01 -2.88871742510E-04 -1.66496798360E-03 -2.63604136421E-04 -1.64075935101E-03 +1.75361298752E-01 +5.44991208862E-01
4.57000000000E+09 -1.06418772370E-01 +5.65641517594E-01 -6.87893898832E-04 -1.46264929132E-03 -6.26169579090E-04 -1.40498646624E-03 +1.85605596649E-01 +5.47567803333E-01
