# Hz S RI R 50
! CMT, C1220, 16058040, 17.2.0/1
! Date: 15/08/2018 11:33:39
! Data: Format (Calibration Info)
! Freq                      S11: Re/Im (F2)                       S21: Re/Im (F2)                       S12: Re/Im (F2)                       S22: Re/Im (F2)            
4.00000000000E+09 +6.66766505408E-01 -3.56040056886E-01 +5.24045427207E-04 -2.86019118458E-03 +6.15476421671E-04 -2.94362489413E-03 +7.74777427970E-01 -3.54261285095E-01
4.00500000000E+09 +6.58810128944E-01 -3.64114030949E-01 +2.14276952038E-04 -3.14074347724E-03 +2.71057456966E-04 -3.13451116369E-03 +7.66487725832E-01 -3.65564430657E-01
4.01000000000E+09 +6.50145743527E-01 -3.71367343276E-01 -3.42506672588E-04 -3.20749523467E-03 -2.55084536044E-04 -3.23386480436E-03 +7.57576449252E-01 -3.77020069744E-01
4.01500000000E+09 +6.40978370113E-01 -3.78776831812E-01 -8.57558278413E-04 -3.00472711781E-03 -7.44833630515E-04 -3.06959738597E-03 +7.47795330797E-01 -3.87503634887E-01
4.02000000000E+09 +6.31327895697E-01 -3.87267088139E-01 -9.55545592615E-04 -2.77087521539E-03 -8.24934092319E-04 -2.79685257649E-03 +7.38065143634E-01 -3.98024174423E-01
4.02500000000E+09 +6.20426943827E-01 -3.96731944083E-01 -1.08207560602E-03 -2.74195661788E-03 -9.16406091126E-04 -2.79421535388E-03 +7.27804155269E-01 -4.08115290086E-01
4.03000000000E+09 +6.08450710892E-01 -4.06710145706E-01 -1.33614706684E-03 -2.87611593738E-03 -1.23226915127E-03 -2.96743345236E-03 +7.17494211813E-01 -4.18728095097E-01
4.03500000000E+09 +5.96444575898E-01 -4.16087438002E-01 -1.82494019976E-03 -2.62713543366E-03 -1.76418369993E-03 -2.73102464427E-03 +7.06394984321E-01 -4.29922132810E-01
4.04000000000E+09 +5.84917837702E-01 -4.25730887300E-01 -1.91634278281E-03 -2.37589792106E-03 -1.87650094050E-03 -2.51337440442E-03 +6.95110389465E-01 -4.41010990706E-01
4.04500000000E+09 +5.73297961046E-01 -4.35080657470E-01 -2.20291287106E-03 -2.21405496898E-03 -2.17020664735E-03 -2.43243849596E-03 +6.83242562742E-01 -4.51771202073E-01
4.05000000000E+09 +5.62203118609E-01 -4.43787141997E-01 -2.29941592530E-03 -2.06157958567E-03 -2.32191302334E-03 -2.25171132883E-03 +6.71487149680E-01 -4.61463723061E-01
4.05500000000E+09 +5.50318087834E-01 -4.52402013944E-01 -2.32195930744E-03 -1.99927808796E-03 -2.36662933902E-03 -2.27440164871E-03 +6.59262324803E-01 -4.71262032868E-01
4.06000000000E+09 +5.37136895041E-01 -4.60130803649E-01 -2.92302509690E-03 -2.17458105613E-03 -3.05046932382E-03 -2.34719293652E-03 +6.46600166320E-01 -4.80821597834E-01
4.06500000000E+09 +5.23321795303E-01 -4.66290841819E-01 -3.52400552297E-03 -1.43782489608E-03 -3.64776718948E-03 -1.56931713805E-03 +6.33266477762E-01 -4.89846213968E-01
4.07000000000E+09 +5.09534823023E-01 -4.72869575260E-01 -3.32155619787E-03 -1.02650861717E-03 -3.36455127935E-03 -1.16782558334E-03 +6.19605504842E-01 -4.99271318062E-01
4.07500000000E+09 +4.94064679525E-01 -4.79808772314E-01 -3.43617177698E-03 -8.11111355500E-04 -3.49734891054E-03 -8.99915731555E-04 +6.05799873490E-01 -5.08157750853E-01
4.08000000000E+09 +4.78262404743E-01 -4.86365546537E-01 -3.46917272396E-03 -5.24870703016E-04 -3.61869474314E-03 -5.77666658735E-04 +5.92433401435E-01 -5.17660416350E-01
4.08500000000E+09 +4.61895532857E-01 -4.93637191432E-01 -3.53695755327E-03 -2.13717179197E-04 -3.63341337489E-03 -3.27065398367E-04 +5.78511789561E-01 -5.27217160907E-01
4.09000000000E+09 +4.45409778669E-01 -5.01062631349E-01 -3.74576372155E-03 +9.57062321049E-05 -3.89230610302E-03 +7.52962939385E-05 +5.63855722256E-01 -5.36016427023E-01
4.09500000000E+09 +4.28961326830E-01 -5.07783341432E-01 -3.90254090204E-03 +7.09865548611E-04 -4.03463636376E-03 +6.96639659376E-04 +5.48356248983E-01 -5.43623408277E-01
4.10000000000E+09 +4.13636067751E-01 -5.14535768540E-01 -3.31280338781E-03 +1.06730425689E-03 -3.47235313009E-03 +1.09925155560E-03 +5.32619571889E-01 -5.50382028770E-01
4.10500000000E+09 +3.97173411201E-01 -5.20982871812E-01 -3.40093495777E-03 +1.07483893056E-03 -3.46276261795E-03 +1.08228977194E-03 +5.16602625963E-01 -5.57464673778E-01
4.11000000000E+09 +3.80417331707E-01 -5.25020643379E-01 -3.57298724993E-03 +1.50960559264E-03 -3.62640202696E-03 +1.58956683533E-03 +4.99719863872E-01 -5.65205101718E-01
4.11500000000E+09 +3.64458776511E-01 -5.27751081350E-01 -3.39417612762E-03 +2.09876872866E-03 -3.49447075196E-03 +2.08449729377E-03 +4.82227602885E-01 -5.72576727558E-01
4.12000000000E+09 +3.48026978773E-01 -5.29867869858E-01 -3.15991219653E-03 +2.53942733547E-03 -3.26171154850E-03 +2.55558686069E-03 +4.65073769221E-01 -5.79299118214E-01
4.12500000000E+09 +3.31427686005E-01 -5.31493590841E-01 -2.76199925600E-03 +2.93012621944E-03 -2.88995533021E-03 +2.97261851385E-03 +4.48063251027E-01 -5.85104553551E-01
4.13000000000E+09 +3.14110710446E-01 -5.34185011797E-01 -1.93167580058E-03 +3.07295384990E-03 -2.09575165757E-03 +3.07963130348E-03 +4.31100961254E-01 -5.91159249324E-01
4.13500000000E+09 +2.94887870922E-01 -5.37706456411E-01 -1.67478490954E-03 +2.64779802043E-03 -1.69271967954E-03 +2.65863963276E-03 +4.12965155968E-01 -5.96806168371E-01
4.14000000000E+09 +2.74668625003E-01 -5.40793370413E-01 -1.96531967286E-03 +2.49941302431E-03 -2.05374644722E-03 +2.45164981850E-03 +3.92961384170E-01 -6.02067390801E-01
4.14500000000E+09 +2.54825452472E-01 -5.43365506787E-01 -2.31787649659E-03 +3.13494579490E-03 -2.55141146900E-03 +3.16626427091E-03 +3.73173869229E-01 -6.06274904670E-01
4.15000000000E+09 +2.36182725612E-01 -5.47650199087E-01 -1.59184604824E-03 +3.68094195471E-03 -1.69016800849E-03 +3.73921430339E-03 +3.54299436165E-01 -6.10424688163E-01
4.15500000000E+09 +2.16637850419E-01 -5.50627041661E-01 -1.25333378958E-03 +3.70227574389E-03 -1.33682047447E-03 +3.78570704668E-03 +3.34917281811E-01 -6.14620018748E-01
4.16000000000E+09 +1.98923968421E-01 -5.52668940714E-01 -8.01542981097E-04 +3.79897409275E-03 -9.19485178264E-04 +3.89269539675E-03 +3.15390346772E-01 -6.18016483830E-01
4.16500000000E+09 +1.81697716358E-01 -5.53808744907E-01 -5.26324282280E-04 +3.60301539316E-03 -6.09285584302E-04 +3.72511057578E-03 +2.94779364568E-01 -6.20071139896E-01
4.17000000000E+09 +1.64308535975E-01 -5.53510818562E-01 -7.27024852396E-04 +3.72645348716E-03 -8.32189339311E-04 +3.86436340884E-03 +2.74357339240E-01 -6.20705085230E-01
4.17500000000E+09 +1.46958405834E-01 -5.50592418598E-01 -2.07224949030E-04 +4.52190741601E-03 -2.96744430999E-04 +4.66836857896E-03 +2.53989197105E-01 -6.21103753210E-01
4.18000000000E+09 +1.30044947718E-01 -5.46585950459E-01 +9.24267841137E-04 +4.36779401188E-03 +8.74823752203E-04 +4.55234272026E-03 +2.32788930519E-01 -6.22154532205E-01
4.18500000000E+09 +1.11055578017E-01 -5.42715352446E-01 +9.10751276676E-04 +3.65220487242E-03 +8.71171793945E-04 +3.83947666616E-03 +2.10086898982E-01 -6.22581649348E-01
4.19000000000E+09 +9.12974844798E-02 -5.36955362793E-01 +7.30658353501E-04 +3.72970979425E-03 +7.07447649370E-04 +3.88812148059E-03 +1.87300354932E-01 -6.21519660060E-01
4.19500000000E+09 +7.14504291001E-02 -5.31976249077E-01 +8.67714290273E-04 +4.10493532212E-03 +8.87101270040E-04 +4.27933798783E-03 +1.65158223544E-01 -6.19049411057E-01
4.20000000000E+09 +5.02828581395E-02 -5.27657558102E-01 +1.30711738388E-03 +4.58101015004E-03 +1.36295779960E-03 +4.75758244552E-03 +1.43553559193E-01 -6.16338826838E-01
4.20500000000E+09 +2.89690954059E-02 -5.23138969067E-01 +2.53519406217E-03 +4.85738219852E-03 +2.58132656682E-03 +5.07199495301E-03 +1.21281861152E-01 -6.12781388069E-01
4.21000000000E+09 +8.58200717432E-03 -5.18138110954E-01 +3.60938296882E-03 +4.30729426661E-03 +3.75270159553E-03 +4.46719765090E-03 +9.83779097046E-02 -6.08744458946E-01
4.21500000000E+09 -1.05764777961E-02 -5.14084518741E-01 +3.65067378727E-03 +3.18370388195E-03 +3.80884958169E-03 +3.25768799537E-03 +7.53794642370E-02 -6.03754280975E-01
4.22000000000E+09 -2.93044615183E-02 -5.08248490570E-01 +3.58080432324E-03 +3.08100399498E-03 +3.72415873125E-03 +3.12101841612E-03 +5.31776474547E-02 -5.97344780534E-01
4.22500000000E+09 -4.61346763457E-02 -5.01144661314E-01 +3.95483625988E-03 +3.09704254970E-03 +4.03209169661E-03 +3.11347994389E-03 +3.22165137686E-02 -5.91054361483E-01
4.23000000000E+09 -6.24755149067E-02 -4.93201637113E-01 +4.66353738649E-03 +2.69811020070E-03 +4.75575521323E-03 +2.73401058589E-03 +1.15816158791E-02 -5.84591003934E-01
4.23500000000E+09 -7.95140733054E-02 -4.83022449462E-01 +4.88177633416E-03 +2.10201183022E-03 +4.94147358741E-03 +2.12046974217E-03 -1.05608655567E-02 -5.77577251280E-01
4.24000000000E+09 -9.63862058231E-02 -4.71175416766E-01 +4.94832319413E-03 +1.61494858154E-03 +5.04780751826E-03 +1.65384319349E-03 -3.31438608413E-02 -5.68521251941E-01
4.24500000000E+09 -1.14021344622E-01 -4.58725261661E-01 +4.79856240847E-03 +1.15450249400E-03 +4.88379663193E-03 +1.17566735783E-03 -5.53627330475E-02 -5.57580481304E-01
4.25000000000E+09 -1.33576953566E-01 -4.45579155438E-01 +5.08393600309E-03 +1.47187923586E-03 +5.13400957734E-03 +1.48192537348E-03 -7.60312063450E-02 -5.47062534530E-01
4.25500000000E+09 -1.53330434118E-01 -4.32378790539E-01 +5.97830633797E-03 +1.05647203154E-03 +6.06818140001E-03 +1.08923380878E-03 -9.67062112009E-02 -5.36008341147E-01
4.26000000000E+09 -1.73704169879E-01 -4.19721570181E-01 +7.05398064230E-03 -1.01096581979E-04 +7.14526617425E-03 -9.16815368993E-05 -1.17928462846E-01 -5.24126271806E-01
4.26500000000E+09 -1.94177098857E-01 -4.08119491912E-01 +6.40712656957E-03 -1.60313864373E-03 +6.57965291110E-03 -1.58426305269E-03 -1.38363580702E-01 -5.10106942963E-01
4.27000000000E+09 -2.13874000286E-01 -3.95605862588E-01 +5.80390499859E-03 -2.43687658731E-03 +5.94201141443E-03 -2.49169009635E-03 -1.59316317368E-01 -4.95649629322E-01
4.27500000000E+09 -2.31546806245E-01 -3.83895289192E-01 +5.01276228747E-03 -3.06747462331E-03 +5.11904635231E-03 -3.10325275723E-03 -1.79175711648E-01 -4.79452909289E-01
4.28000000000E+09 -2.48274808503E-01 -3.71427500458E-01 +4.47296649708E-03 -2.46284583894E-03 +4.59009384369E-03 -2.52530086813E-03 -1.98177633090E-01 -4.65292447669E-01
4.28500000000E+09 -2.62416290559E-01 -3.57602885547E-01 +5.26815798531E-03 -2.36663247887E-03 +5.37875597395E-03 -2.48261460617E-03 -2.19901644290E-01 -4.49740682526E-01
4.29000000000E+09 -2.74800473537E-01 -3.42963077663E-01 +5.75906993104E-03 -3.78643557006E-03 +5.86503046750E-03 -3.91885406160E-03 -2.39478765945E-01 -4.31538546536E-01
4.29500000000E+09 -2.86361436131E-01 -3.27777172964E-01 +4.55798289258E-03 -4.96089981994E-03 +4.61477175241E-03 -5.09631727214E-03 -2.56169280999E-01 -4.11903776644E-01
4.30000000000E+09 -2.99101322931E-01 -3.11111982833E-01 +4.42624096729E-03 -4.98856848554E-03 +4.49499930465E-03 -5.16084593862E-03 -2.71739658432E-01 -3.93893988636E-01
4.30500000000E+09 -3.12411580390E-01 -2.92824612595E-01 +3.72329373164E-03 -5.91436861335E-03 +3.78036841360E-03 -6.07332856060E-03 -2.87067625405E-01 -3.74532068659E-01
4.31000000000E+09 -3.25654294323E-01 -2.72789358284E-01 +3.13006003683E-03 -6.31267571669E-03 +3.17308820763E-03 -6.49402567886E-03 -3.02414897110E-01 -3.54746072881E-01
4.31500000000E+09 -3.38625951922E-01 -2.52767078865E-01 +2.43870413911E-03 -6.89564556167E-03 +2.39789132331E-03 -7.08340356463E-03 -3.18068803035E-01 -3.33441473795E-01
4.32000000000E+09 -3.50389506599E-01 -2.33018663341E-01 +9.85729199858E-04 -7.51397996342E-03 +9.00492582036E-04 -7.72240586387E-03 -3.31290541606E-01 -3.11248292617E-01
4.32500000000E+09 -3.60689052229E-01 -2.15367102309E-01 -9.14764476013E-04 -6.78666958434E-03 -1.03672276519E-03 -6.97549986625E-03 -3.43264272513E-01 -2.89735675584E-01
4.33000000000E+09 -3.71907157950E-01 -1.99163309525E-01 -2.45700757077E-04 -5.10706835235E-03 -3.81357078544E-04 -5.17661797939E-03 -3.55111740164E-01 -2.69281039501E-01
4.33500000000E+09 -3.82127994451E-01 -1.81402216156E-01 +3.44657985895E-04 -5.64839310461E-03 +2.48763469794E-04 -5.72654179948E-03 -3.67433160198E-01 -2.46143450244E-01
4.34000000000E+09 -3.89905680176E-01 -1.62479263574E-01 +2.23950279381E-04 -6.67964042779E-03 +9.58939091411E-05 -6.67233892606E-03 -3.78849982138E-01 -2.21267387697E-01
4.34500000000E+09 -3.95120259813E-01 -1.42781289899E-01 -8.16492615515E-04 -7.80345745275E-03 -9.46581580020E-04 -7.83323537639E-03 -3.87067510278E-01 -1.95447131683E-01
4.35000000000E+09 -3.98513011211E-01 -1.22048773418E-01 -3.02865166196E-03 -8.09705424771E-03 -3.09105644094E-03 -8.06716579883E-03 -3.95157287235E-01 -1.72045034073E-01
4.35500000000E+09 -4.01340235655E-01 -1.00955366391E-01 -4.61083362155E-03 -6.60729327935E-03 -4.64582562617E-03 -6.60130823930E-03 -4.04127153639E-01 -1.49397620983E-01
4.36000000000E+09 -4.04862638841E-01 -7.93675776482E-02 -4.28165213632E-03 -5.03229537594E-03 -4.38370456944E-03 -5.01202692408E-03 -4.12807970218E-01 -1.26043652310E-01
4.36500000000E+09 -4.09776776855E-01 -5.60769124862E-02 -4.32326619101E-03 -5.33798207692E-03 -4.42782871796E-03 -5.34095145530E-03 -4.18950966138E-01 -1.00496531589E-01
4.37000000000E+09 -4.14899048627E-01 -3.21492980212E-02 -4.75591898127E-03 -4.94442550858E-03 -4.92554868092E-03 -4.91808568613E-03 -4.22532240331E-01 -7.53908493126E-02
4.37500000000E+09 -4.19548763135E-01 -8.88296438451E-03 -5.23331288862E-03 -5.12237105167E-03 -5.37448056367E-03 -5.04260280412E-03 -4.23858535567E-01 -5.07396073866E-02
4.38000000000E+09 -4.24352683877E-01 +1.27829754073E-02 -6.03175191717E-03 -4.44645916471E-03 -6.20018670870E-03 -4.42944996915E-03 -4.27942885033E-01 -2.75457637091E-02
4.38500000000E+09 -4.28089782861E-01 +3.34435070618E-02 -6.88934361663E-03 -3.88756299492E-03 -7.06559176121E-03 -3.76705851594E-03 -4.31127478469E-01 -8.75724387767E-04
4.39000000000E+09 -4.30533514857E-01 +5.22238858257E-02 -6.83398182949E-03 -3.35639505602E-03 -7.02103896175E-03 -3.19530165679E-03 -4.32181527634E-01 +2.65452680813E-02
4.39500000000E+09 -4.31204367491E-01 +6.96653134771E-02 -8.25309118894E-03 -3.23515020368E-03 -8.43336498131E-03 -3.08558135966E-03 -4.30000685380E-01 +5.20084178761E-02
4.40000000000E+09 -4.30430850253E-01 +8.70133577321E-02 -9.43119003402E-03 -1.22016718356E-03 -9.46113603451E-03 -1.05617523231E-03 -4.27408394003E-01 +7.47407880399E-02
4.40500000000E+09 -4.27887477317E-01 +1.04447169138E-01 -9.20644496343E-03 +3.57712439959E-04 -9.25233432950E-03 +5.67700040145E-04 -4.25888255709E-01 +9.77358008283E-02
4.41000000000E+09 -4.25139975312E-01 +1.22967925979E-01 -8.16366346297E-03 +2.25590878924E-03 -8.15183577930E-03 +2.45015816385E-03 -4.23980526351E-01 +1.21000062989E-01
4.41500000000E+09 -4.21801618699E-01 +1.44540772084E-01 -7.30920974533E-03 +2.25393453939E-03 -7.23875465347E-03 +2.41160551242E-03 -4.19770008455E-01 +1.46749554425E-01
4.42000000000E+09 -4.16753176594E-01 +1.66997979709E-01 -7.23441083873E-03 +2.31640472259E-03 -7.19962897206E-03 +2.47720315047E-03 -4.12952345473E-01 +1.71109609469E-01
4.42500000000E+09 -4.12589997040E-01 +1.89417941934E-01 -7.54488738448E-03 +3.05611839171E-03 -7.45118391841E-03 +3.18907270824E-03 -4.06047650386E-01 +1.92184627361E-01
4.43000000000E+09 -4.08838533477E-01 +2.11555688032E-01 -7.53993050717E-03 +4.12752406800E-03 -7.37684609222E-03 +4.26200488284E-03 -4.02277670143E-01 +2.14617226939E-01
4.43500000000E+09 -4.05866853912E-01 +2.32135384476E-01 -7.09101639201E-03 +5.60098654033E-03 -6.92386633811E-03 +5.64628546749E-03 -3.95922862957E-01 +2.38288257724E-01
4.44000000000E+09 -4.03678700193E-01 +2.50386264107E-01 -5.76268040638E-03 +7.07023832934E-03 -5.61703749212E-03 +7.02383943779E-03 -3.87149196664E-01 +2.61071064883E-01
4.44500000000E+09 -4.02163241872E-01 +2.67432022754E-01 -4.06349892371E-03 +6.74734578177E-03 -3.90965178955E-03 +6.75516665053E-03 -3.76691875171E-01 +2.81372236064E-01
4.45000000000E+09 -3.99355551385E-01 +2.83592901263E-01 -3.61267833088E-03 +6.39329105613E-03 -3.52399129084E-03 +6.47374580974E-03 -3.67198510244E-01 +2.99728596552E-01
4.45500000000E+09 -3.94075079528E-01 +2.98552034026E-01 -3.93681467412E-03 +6.69150535278E-03 -3.70677981967E-03 +6.79538077332E-03 -3.58011640719E-01 +3.18162636499E-01
4.46000000000E+09 -3.86960575249E-01 +3.12439057236E-01 -2.90505117558E-03 +7.85899711413E-03 -2.63175757427E-03 +7.86370902622E-03 -3.49349580899E-01 +3.38551317993E-01
4.46500000000E+09 -3.77297810954E-01 +3.27689950211E-01 -1.72537322572E-03 +8.05690093541E-03 -1.47332130883E-03 +8.10142090841E-03 -3.36577829703E-01 +3.57876355962E-01
4.47000000000E+09 -3.65154558430E-01 +3.42524463038E-01 -4.75508009303E-04 +7.82423110198E-03 -2.37481052774E-04 +7.74725024302E-03 -3.24357517040E-01 +3.75653492184E-01
4.47500000000E+09 -3.53495448716E-01 +3.58132264864E-01 -7.80715125121E-05 +7.11809832340E-03 +1.30886801886E-04 +7.04309444253E-03 -3.12326093162E-01 +3.92207516016E-01
4.48000000000E+09 -3.41816920863E-01 +3.75843902246E-01 -2.12890300486E-04 +7.68423966560E-03 +2.49884511449E-05 +7.53332774745E-03 -3.01256546236E-01 +4.10111676555E-01
4.48500000000E+09 -3.30187867699E-01 +3.94556998641E-01 +1.02118218598E-03 +8.27226996513E-03 +1.21179118521E-03 +8.09014173523E-03 -2.88486150336E-01 +4.27439306220E-01
4.49000000000E+09 -3.20341855748E-01 +4.12160623603E-01 +2.62553832635E-03 +8.45788842613E-03 +2.68769051936E-03 +8.19653704798E-03 -2.75061555245E-01 +4.44093724953E-01
4.49500000000E+09 -3.11993333233E-01 +4.30145453859E-01 +3.86425645063E-03 +7.38170673350E-03 +3.87372398977E-03 +7.16475680546E-03 -2.59765078158E-01 +4.58104351976E-01
4.50000000000E+09 -3.03886902894E-01 +4.45887216952E-01 +4.35036723720E-03 +6.52268460309E-03 +4.32234805568E-03 +6.35909818360E-03 -2.46154160104E-01 +4.71205877882E-01
4.50500000000E+09 -2.96776544799E-01 +4.59653367095E-01 +4.91946793840E-03 +5.88576051031E-03 +4.89555036092E-03 +5.78084851169E-03 -2.32791580527E-01 +4.83683236598E-01
4.51000000000E+09 -2.88872519332E-01 +4.71058085486E-01 +5.15931695091E-03 +5.33173705019E-03 +5.20411487836E-03 +5.23908241611E-03 -2.20040773606E-01 +4.98482320752E-01
4.51500000000E+09 -2.79959650983E-01 +4.79710324688E-01 +5.79361473980E-03 +5.11620427578E-03 +5.78445652825E-03 +4.91585764327E-03 -2.05135522676E-01 +5.11879342080E-01
4.52000000000E+09 -2.70439882472E-01 +4.87497332537E-01 +6.72230870418E-03 +4.18590793013E-03 +6.65635921479E-03 +3.97963791081E-03 -1.90431358568E-01 +5.23836908406E-01
4.52500000000E+09 -2.59072904569E-01 +4.96288192454E-01 +6.55848112145E-03 +2.70862556537E-03 +6.48447178558E-03 +2.47548075710E-03 -1.75989507087E-01 +5.33682899873E-01
4.53000000000E+09 -2.45071670692E-01 +5.06099433906E-01 +6.31268316143E-03 +2.80584034803E-03 +6.22202649022E-03 +2.56357775040E-03 -1.62563700610E-01 +5.44296772265E-01
4.53500000000E+09 -2.28520113385E-01 +5.16316275504E-01 +6.79837701272E-03 +2.31593834991E-03 +6.66838172091E-03 +2.15559526795E-03 -1.47480897944E-01 +5.54709388035E-01
4.54000000000E+09 -2.11212463749E-01 +5.26770869487E-01 +7.34680508732E-03 +1.59201919235E-03 +7.19343562891E-03 +1.40050956936E-03 -1.31551200888E-01 +5.65700955179E-01
4.54500000000E+09 -1.94767639157E-01 +5.37250599492E-01 +7.79181074355E-03 +4.75808482256E-04 +7.58142700159E-03 +2.91154585232E-04 -1.14765109845E-01 +5.73942865631E-01
4.55000000000E+09 -1.80087307576E-01 +5.47805207665E-01 +7.55888075528E-03 -9.06849753895E-04 +7.33604671805E-03 -1.06206963820E-03 -9.93513449031E-02 +5.82468347487E-01
4.55500000000E+09 -1.68023482981E-01 +5.58783829991E-01 +6.73365149463E-03 -2.45667820328E-03 +6.52846033058E-03 -2.54141048630E-03 -8.50945588082E-02 +5.90125126177E-01
4.56000000000E+09 -1.57094551487E-01 +5.69794810779E-01 +5.23358910764E-03 -2.41046260619E-03 +5.06947972301E-03 -2.46698425678E-03 -7.13302280656E-02 +5.99498599164E-01
4.56500000000E+09 -1.46575758365E-01 +5.79988195452E-01 +5.05723620353E-03 -2.18529593821E-03 +4.83062620363E-03 -2.24499900312E-03 -5.55697116993E-02 +6.07546516494E-01
4.57000000000E+09 -1.36143914092E-01 +5.88492831914E-01 +5.08652200464E-03 -2.14191471228E-03 +4.86053201259E-03 -2.24077076740E-03 -4.00404906106E-02 +6.13724212732E-01
