# Hz S RI R 50
! CMT, C1220, 16058040, 17.2.0/1
! Date: 15/08/2018 11:39:06
! Data: Format (Calibration Info)
! Freq                      S11: Re/Im (F2)                       S21: Re/Im (F2)                       S12: Re/Im (F2)                       S22: Re/Im (F2)            
4.00000000000E+09 +6.36928133117E-01 -3.35574197259E-01 -1.73806836075E-03 -2.88312482121E-03 -1.67183958831E-03 -3.04943132552E-03 +7.69921525011E-01 -3.54920791995E-01
4.00500000000E+09 +6.28024939422E-01 -3.42093987943E-01 -1.80280733295E-03 -2.84073445380E-03 -1.73015551816E-03 -3.03938333950E-03 +7.61137795397E-01 -3.66254387431E-01
4.01000000000E+09 +6.18205142332E-01 -3.47757386217E-01 -2.23087875473E-03 -3.00306076890E-03 -2.13632942690E-03 -3.17678848495E-03 +7.51427377007E-01 -3.77343830845E-01
4.01500000000E+09 +6.07481457033E-01 -3.53086819650E-01 -2.58402077195E-03 -2.60518784287E-03 -2.54634563952E-03 -2.76888989744E-03 +7.41652878762E-01 -3.87576986390E-01
4.02000000000E+09 +5.96203762920E-01 -3.59769161368E-01 -2.71912926898E-03 -2.63263497918E-03 -2.66431496535E-03 -2.81782992021E-03 +7.32002152059E-01 -3.98047588055E-01
4.02500000000E+09 +5.83863283385E-01 -3.66865898389E-01 -3.47362279634E-03 -2.53100538129E-03 -3.47746383917E-03 -2.75166371862E-03 +7.21554681180E-01 -4.08693833320E-01
4.03000000000E+09 +5.71595985621E-01 -3.75068536704E-01 -3.86310406759E-03 -1.86675304444E-03 -3.88814300195E-03 -2.09027810532E-03 +7.10670657427E-01 -4.19058033562E-01
4.03500000000E+09 +5.58835379631E-01 -3.84405006177E-01 -3.84776949899E-03 -1.37038347881E-03 -3.87394083655E-03 -1.56759661517E-03 +6.99172012944E-01 -4.29746947943E-01
4.04000000000E+09 +5.45971951184E-01 -3.93715282112E-01 -4.11472705759E-03 -9.73211750228E-04 -4.23080942188E-03 -1.14376093457E-03 +6.87430479689E-01 -4.40158837518E-01
4.04500000000E+09 +5.33433387898E-01 -4.03083915326E-01 -3.86245257474E-03 -5.13965452744E-04 -3.99979473756E-03 -7.36313304890E-04 +6.75719106640E-01 -4.50348396318E-01
4.05000000000E+09 +5.20505585537E-01 -4.11494757015E-01 -4.00011431521E-03 -4.59126924323E-04 -4.18984437651E-03 -6.49155271555E-04 +6.64068453016E-01 -4.60808231588E-01
4.05500000000E+09 +5.06895694554E-01 -4.18199372223E-01 -4.41844727583E-03 +5.81197843554E-05 -4.66056508054E-03 -5.58586913391E-05 +6.51349920652E-01 -4.70581605865E-01
4.06000000000E+09 +4.93516664010E-01 -4.22965803041E-01 -4.39750291173E-03 +6.33469669896E-04 -4.65934205070E-03 +5.89742686357E-04 +6.38640222825E-01 -4.79711209044E-01
4.06500000000E+09 +4.79733102085E-01 -4.26731809377E-01 -4.09402716494E-03 +1.24235276124E-03 -4.22010733591E-03 +1.26778251435E-03 +6.25163007839E-01 -4.88690917441E-01
4.07000000000E+09 +4.65447981736E-01 -4.29804824653E-01 -3.95120352603E-03 +1.33150067535E-03 -4.16203283615E-03 +1.31639499284E-03 +6.11519025134E-01 -4.98129567288E-01
4.07500000000E+09 +4.50427046365E-01 -4.33232888637E-01 -3.93565631190E-03 +1.78433967388E-03 -3.99840409869E-03 +1.71959392547E-03 +5.97419378861E-01 -5.07872488978E-01
4.08000000000E+09 +4.34163105256E-01 -4.36999713509E-01 -3.84630189091E-03 +2.07612400800E-03 -3.99732412855E-03 +2.05001507328E-03 +5.82466083994E-01 -5.17344493944E-01
4.08500000000E+09 +4.16810663314E-01 -4.41551850327E-01 -3.60793365021E-03 +2.47377287718E-03 -3.83499650156E-03 +2.45445926464E-03 +5.67932108296E-01 -5.25429245508E-01
4.09000000000E+09 +3.98731965792E-01 -4.45512373981E-01 -3.30544517403E-03 +2.69197760921E-03 -3.50360296266E-03 +2.72443095191E-03 +5.53268510985E-01 -5.33758851066E-01
4.09500000000E+09 +3.81186601146E-01 -4.49218104434E-01 -3.45326046168E-03 +2.91817467886E-03 -3.59597426991E-03 +2.93815268497E-03 +5.37765489015E-01 -5.41190308271E-01
4.10000000000E+09 +3.64351475200E-01 -4.53064595447E-01 -3.27118060060E-03 +3.43933076454E-03 -3.43038644088E-03 +3.48926403583E-03 +5.22111333083E-01 -5.48328810377E-01
4.10500000000E+09 +3.47992949161E-01 -4.56185807473E-01 -3.04234508642E-03 +3.95745352570E-03 -3.16846456516E-03 +4.01138173139E-03 +5.04807419950E-01 -5.55843831669E-01
4.11000000000E+09 +3.31365559156E-01 -4.58401207774E-01 -2.59929018686E-03 +4.50417248688E-03 -2.75999914857E-03 +4.54483513798E-03 +4.87394675148E-01 -5.62304355436E-01
4.11500000000E+09 +3.15122344277E-01 -4.59305522029E-01 -1.67951738378E-03 +4.68587346329E-03 -1.85954268848E-03 +4.77124453528E-03 +4.70574130978E-01 -5.68829038075E-01
4.12000000000E+09 +2.98333404296E-01 -4.58987216233E-01 -1.43007421072E-03 +4.44862305556E-03 -1.61012647130E-03 +4.55109847504E-03 +4.53104376127E-01 -5.75767819663E-01
4.12500000000E+09 +2.81226260173E-01 -4.57816713488E-01 -1.41597460597E-03 +4.65915770042E-03 -1.54308551718E-03 +4.77382412505E-03 +4.35341632187E-01 -5.81460194105E-01
4.13000000000E+09 +2.63873812548E-01 -4.56139166187E-01 -8.71991504961E-04 +5.15395114921E-03 -1.08480512449E-03 +5.21899848666E-03 +4.17123311950E-01 -5.86708368099E-01
4.13500000000E+09 +2.45965876358E-01 -4.54930612221E-01 -5.94559418080E-04 +5.17385840206E-03 -7.43930580908E-04 +5.25241283011E-03 +3.98605916391E-01 -5.91267757317E-01
4.14000000000E+09 +2.27630568367E-01 -4.54865676318E-01 -2.05842543632E-04 +5.70176799485E-03 -4.22604919389E-04 +5.85874118675E-03 +3.79147181115E-01 -5.95466064958E-01
4.14500000000E+09 +2.09093910208E-01 -4.55380165682E-01 +7.81955162475E-04 +6.23627739501E-03 +6.09551949658E-04 +6.52302600322E-03 +3.59981246252E-01 -5.99353934377E-01
4.15000000000E+09 +1.90295295937E-01 -4.57470144253E-01 +1.85334240191E-03 +5.85942447310E-03 +1.73687085878E-03 +6.14296465533E-03 +3.41313347484E-01 -6.04154065020E-01
4.15500000000E+09 +1.70612112943E-01 -4.58574404073E-01 +2.45921549364E-03 +5.28253542545E-03 +2.44035332674E-03 +5.48284223562E-03 +3.21086354079E-01 -6.08362497452E-01
4.16000000000E+09 +1.51695030383E-01 -4.58075045181E-01 +2.69128921108E-03 +4.96334208454E-03 +2.72003772825E-03 +5.11042384526E-03 +3.00243567227E-01 -6.10109838971E-01
4.16500000000E+09 +1.34012623717E-01 -4.55715600053E-01 +2.78653705106E-03 +4.66627271756E-03 +2.77191225933E-03 +4.78306066388E-03 +2.81413743719E-01 -6.11026322530E-01
4.17000000000E+09 +1.18148955825E-01 -4.51001464248E-01 +3.00705552617E-03 +4.97701464355E-03 +2.96005113608E-03 +5.12587603839E-03 +2.60468980474E-01 -6.12020677483E-01
4.17500000000E+09 +1.03566571651E-01 -4.45458939713E-01 +3.84393532022E-03 +5.24856588037E-03 +3.92015850684E-03 +5.49148469469E-03 +2.39110870310E-01 -6.12240355524E-01
4.18000000000E+09 +8.86669657379E-02 -4.39289655783E-01 +5.02400662161E-03 +4.56260847206E-03 +5.06330580609E-03 +4.79371972223E-03 +2.17314391051E-01 -6.11796379139E-01
4.18500000000E+09 +7.25234551829E-02 -4.31956615191E-01 +5.41754906390E-03 +4.04786941447E-03 +5.48867432429E-03 +4.28062314801E-03 +1.94869050644E-01 -6.10718012620E-01
4.19000000000E+09 +5.59566316312E-02 -4.23770441471E-01 +6.07048153832E-03 +3.64287209310E-03 +6.20574062332E-03 +3.84518061941E-03 +1.74035457466E-01 -6.08612698601E-01
4.19500000000E+09 +3.82193386676E-02 -4.15218612788E-01 +6.64745614045E-03 +2.80815721224E-03 +6.86299218463E-03 +3.00036903159E-03 +1.52959853029E-01 -6.06638986122E-01
4.20000000000E+09 +2.04912461407E-02 -4.06323504278E-01 +6.74742441907E-03 +1.95280559116E-03 +6.97388291198E-03 +2.12991132690E-03 +1.30931036587E-01 -6.04022157863E-01
4.20500000000E+09 +3.87220855502E-03 -3.98713570842E-01 +7.09223464399E-03 +1.17725970058E-03 +7.26718024590E-03 +1.33033835024E-03 +1.08535311499E-01 -6.00403749062E-01
4.21000000000E+09 -1.28696997966E-02 -3.91873659148E-01 +7.11735907411E-03 +1.72177036261E-04 +7.36177468670E-03 +2.05652687960E-04 +8.55996705627E-02 -5.95527548354E-01
4.21500000000E+09 -2.90432984116E-02 -3.85034351439E-01 +6.61409779207E-03 -7.66831949020E-05 +6.82670104017E-03 -7.10897965320E-06 +6.36340437091E-02 -5.91075840801E-01
4.22000000000E+09 -4.43609319350E-02 -3.77183551330E-01 +7.08170297869E-03 +2.79810456989E-05 +7.27365898548E-03 +1.14715041636E-04 +4.07638478650E-02 -5.85413144973E-01
4.22500000000E+09 -5.83405942148E-02 -3.68003239616E-01 +8.06626637126E-03 -1.21133528358E-03 +8.25096141788E-03 -1.21071876001E-03 +1.78268789757E-02 -5.78812267479E-01
4.23000000000E+09 -7.13212849361E-02 -3.57285686445E-01 +7.85559076849E-03 -2.90483092434E-03 +8.10938225953E-03 -2.89839594655E-03 -3.96194912402E-03 -5.70846018994E-01
4.23500000000E+09 -8.37635778917E-02 -3.44871870773E-01 +7.08590622237E-03 -3.92776820461E-03 +7.28868144087E-03 -3.95415869441E-03 -2.53824411351E-02 -5.61495375561E-01
4.24000000000E+09 -9.64429022041E-02 -3.31512248891E-01 +6.36817612556E-03 -4.50197944313E-03 +6.56703413601E-03 -4.63879806085E-03 -4.64576535307E-02 -5.51635429130E-01
4.24500000000E+09 -1.09663725671E-01 -3.17139745016E-01 +5.71119544678E-03 -4.68993681066E-03 +5.83357457932E-03 -4.85089886933E-03 -6.71769635857E-02 -5.41975627529E-01
4.25000000000E+09 -1.23730519661E-01 -3.02337665338E-01 +5.62424895884E-03 -5.19450052930E-03 +5.80427735113E-03 -5.36227391718E-03 -8.94442090449E-02 -5.30924778741E-01
4.25500000000E+09 -1.38674060141E-01 -2.88875347165E-01 +4.86209957603E-03 -6.11923414564E-03 +4.96533943470E-03 -6.29042675081E-03 -1.11196658408E-01 -5.18966299173E-01
4.26000000000E+09 -1.55505835411E-01 -2.75721440158E-01 +4.35926430292E-03 -6.26714965887E-03 +4.44622160164E-03 -6.46675533006E-03 -1.32489112014E-01 -5.05149937315E-01
4.26500000000E+09 -1.72633172757E-01 -2.63064205364E-01 +4.09389214476E-03 -6.49605957648E-03 +4.16238603490E-03 -6.66835543833E-03 -1.52700589370E-01 -4.90339800667E-01
4.27000000000E+09 -1.88779147854E-01 -2.50009181219E-01 +3.61383812068E-03 -7.28764813061E-03 +3.58697483687E-03 -7.46191317332E-03 -1.71913863035E-01 -4.75054829401E-01
4.27500000000E+09 -2.03721804129E-01 -2.37074484278E-01 +2.75985250411E-03 -7.77205298966E-03 +2.76289369513E-03 -7.94677809017E-03 -1.91974752764E-01 -4.58823580409E-01
4.28000000000E+09 -2.15955641008E-01 -2.22877254510E-01 +2.30315416028E-03 -8.23178294588E-03 +2.21050817970E-03 -8.36416502277E-03 -2.11041658848E-01 -4.42138278594E-01
4.28500000000E+09 -2.24895579695E-01 -2.08892135874E-01 +1.31534217474E-03 -9.03823129040E-03 +1.23732966954E-03 -9.15943050936E-03 -2.30597478288E-01 -4.25446770005E-01
4.29000000000E+09 -2.32456115738E-01 -1.94959951384E-01 -4.57141578341E-04 -9.31586516874E-03 -4.76872581470E-04 -9.47859417828E-03 -2.48236410720E-01 -4.06896929485E-01
4.29500000000E+09 -2.40030139104E-01 -1.80526093839E-01 -1.72920050610E-03 -8.29859970883E-03 -1.73290416080E-03 -8.42636966132E-03 -2.64075197177E-01 -3.90049839784E-01
4.30000000000E+09 -2.48571747078E-01 -1.63911949709E-01 -2.14898995414E-03 -7.77748310936E-03 -2.29623637622E-03 -7.91943136302E-03 -2.81052476476E-01 -3.71953289813E-01
4.30500000000E+09 -2.56864260458E-01 -1.45725302041E-01 -2.26399199702E-03 -7.34328702745E-03 -2.31867908753E-03 -7.47376617431E-03 -2.97375547955E-01 -3.51113562909E-01
4.31000000000E+09 -2.65606457522E-01 -1.25556339604E-01 -2.33933913909E-03 -7.99662388849E-03 -2.39397559122E-03 -8.16503347236E-03 -3.12592803971E-01 -3.30021017860E-01
4.31500000000E+09 -2.72884235036E-01 -1.05771417409E-01 -3.58326881439E-03 -8.31463912838E-03 -3.68505325263E-03 -8.49481107737E-03 -3.26407222922E-01 -3.07719480254E-01
4.32000000000E+09 -2.79844698017E-01 -8.69607630436E-02 -4.71474411838E-03 -8.32568181003E-03 -4.91014237716E-03 -8.54024454924E-03 -3.39140097568E-01 -2.86388492554E-01
4.32500000000E+09 -2.85750027724E-01 -7.09120845759E-02 -6.64325017434E-03 -7.76734416374E-03 -6.76316408542E-03 -7.89971848982E-03 -3.52127157000E-01 -2.64440152395E-01
4.33000000000E+09 -2.92776811851E-01 -5.58446103494E-02 -6.98192355527E-03 -6.82990365441E-03 -7.19665062671E-03 -6.88018668182E-03 -3.64174639748E-01 -2.40422453508E-01
4.33500000000E+09 -2.98540103336E-01 -4.00570777330E-02 -8.20319828699E-03 -6.21633192676E-03 -8.32351869544E-03 -6.21400634565E-03 -3.74216924319E-01 -2.15471712484E-01
4.34000000000E+09 -3.01999538849E-01 -2.33929720218E-02 -9.16405110456E-03 -4.86450982006E-03 -9.23535615416E-03 -4.73961400329E-03 -3.82518916028E-01 -1.90742491257E-01
4.34500000000E+09 -3.02688841784E-01 -6.74318670159E-03 -8.87149493225E-03 -3.41293406579E-03 -8.94998184215E-03 -3.40469518768E-03 -3.91529595995E-01 -1.67768645666E-01
4.35000000000E+09 -3.02291055936E-01 +1.06792922429E-02 -9.05087698532E-03 -3.20971362678E-03 -9.13406755871E-03 -3.19677616972E-03 -4.01297179743E-01 -1.42624400343E-01
4.35500000000E+09 -3.00716978082E-01 +2.88478840543E-02 -9.88882952158E-03 -2.38051000407E-03 -9.98269622366E-03 -2.35827154814E-03 -4.08264936312E-01 -1.16434145869E-01
4.36000000000E+09 -2.99932771952E-01 +4.75078602108E-02 -9.67645321726E-03 -1.45633833478E-03 -9.87568256261E-03 -1.32498998359E-03 -4.13717891097E-01 -9.18512452568E-02
4.36500000000E+09 -2.99445138124E-01 +6.71589183202E-02 -1.07769376798E-02 -1.10330335229E-03 -1.09642385220E-02 -1.03020297668E-03 -4.17923672620E-01 -6.70148336958E-02
4.37000000000E+09 -3.00625744552E-01 +8.70159149600E-02 -1.16559508753E-02 +8.75530498277E-04 -1.17516145768E-02 +1.03704132960E-03 -4.20134756852E-01 -4.25174022250E-02
4.37500000000E+09 -3.01406761491E-01 +1.07235892700E-01 -1.13361136496E-02 +3.05857349798E-03 -1.14871081978E-02 +3.29300117917E-03 -4.22029706658E-01 -1.86598543861E-02
4.38000000000E+09 -3.02886659105E-01 +1.25300426208E-01 -1.05992286574E-02 +4.27565429922E-03 -1.06551160877E-02 +4.49000447270E-03 -4.24136561758E-01 +7.45232711080E-03
4.38500000000E+09 -3.03657727344E-01 +1.42394161533E-01 -9.64907348989E-03 +5.58542490152E-03 -9.68393074964E-03 +5.86886978356E-03 -4.23652066684E-01 +3.36193599524E-02
4.39000000000E+09 -3.03445169956E-01 +1.57907882421E-01 -8.49661274074E-03 +6.32786111003E-03 -8.45066965304E-03 +6.62456191605E-03 -4.22638689445E-01 +5.82521919258E-02
4.39500000000E+09 -3.01726147737E-01 +1.71614276127E-01 -8.36864370702E-03 +6.57862522132E-03 -8.27215434672E-03 +6.83976536699E-03 -4.21547748317E-01 +8.20010776332E-02
4.40000000000E+09 -2.98306378893E-01 +1.85301611366E-01 -7.59527739570E-03 +8.05766955250E-03 -7.51209523880E-03 +8.26071511624E-03 -4.20175536930E-01 +1.05825060403E-01
4.40500000000E+09 -2.93576954272E-01 +1.98469099910E-01 -6.73842586070E-03 +9.02145331768E-03 -6.62705473627E-03 +9.15850136823E-03 -4.16575511806E-01 +1.30086275040E-01
4.41000000000E+09 -2.87982947597E-01 +2.12879874347E-01 -5.31336216641E-03 +9.28182374146E-03 -5.15729061545E-03 +9.32227102260E-03 -4.11453842832E-01 +1.54408917408E-01
4.41500000000E+09 -2.80931085929E-01 +2.29102644994E-01 -4.79101864399E-03 +1.02350895142E-02 -4.67336018426E-03 +1.03936834200E-02 -4.05395442889E-01 +1.77612083779E-01
4.42000000000E+09 -2.74332728894E-01 +2.46130106269E-01 -3.61414922727E-03 +1.05265592886E-02 -3.32670884816E-03 +1.06589118464E-02 -3.98170893158E-01 +2.00432765201E-01
4.42500000000E+09 -2.67587038695E-01 +2.64288435288E-01 -2.66519692034E-03 +1.15274363650E-02 -2.36733218567E-03 +1.15781662676E-02 -3.92812174629E-01 +2.21791254427E-01
4.43000000000E+09 -2.61356669471E-01 +2.82047736624E-01 -3.12546645699E-04 +1.20537588092E-02 -8.55559720289E-05 +1.19157056091E-02 -3.85872996138E-01 +2.45146921358E-01
4.43500000000E+09 -2.55667741613E-01 +2.98650494912E-01 +1.32688234696E-03 +1.11943049562E-02 +1.45457865951E-03 +1.10521691549E-02 -3.76651052715E-01 +2.67307990444E-01
4.44000000000E+09 -2.51157394139E-01 +3.12788889727E-01 +2.47787449627E-03 +1.00653966571E-02 +2.57221562505E-03 +9.97249126215E-03 -3.67306156840E-01 +2.86754267329E-01
4.44500000000E+09 -2.47651677199E-01 +3.25611238624E-01 +2.57641809849E-03 +9.82056424813E-03 +2.65394112567E-03 +9.74291513057E-03 -3.58837613422E-01 +3.06332221393E-01
4.45000000000E+09 -2.43808308850E-01 +3.37165857130E-01 +3.26910241244E-03 +9.64905171275E-03 +3.40021337051E-03 +9.58670632179E-03 -3.48974019071E-01 +3.26182293140E-01
4.45500000000E+09 -2.37788004848E-01 +3.47654855646E-01 +4.20983022782E-03 +1.01464347584E-02 +4.39502624628E-03 +1.00331032285E-02 -3.38390246269E-01 +3.45398282516E-01
4.46000000000E+09 -2.30428599416E-01 +3.57127897179E-01 +5.96233652584E-03 +9.57075784728E-03 +6.16043213646E-03 +9.38140800905E-03 -3.25107459118E-01 +3.64041312477E-01
4.46500000000E+09 -2.20534463524E-01 +3.67271867601E-01 +7.07085453124E-03 +8.47566995571E-03 +7.17091873942E-03 +8.25544879809E-03 -3.13054164528E-01 +3.79636414495E-01
4.47000000000E+09 -2.09051037271E-01 +3.77692339378E-01 +7.81421470136E-03 +7.56413529062E-03 +7.95420379182E-03 +7.34014958413E-03 -3.01817715800E-01 +3.95858568491E-01
4.47500000000E+09 -1.96150726568E-01 +3.88520374424E-01 +8.35216950991E-03 +6.74960223758E-03 +8.41039177485E-03 +6.46446765497E-03 -2.90669128523E-01 +4.13450628588E-01
4.48000000000E+09 -1.83961718814E-01 +3.99853214662E-01 +9.18152111216E-03 +5.63492009805E-03 +9.19429950353E-03 +5.31028548562E-03 -2.77552124391E-01 +4.30304019518E-01
4.48500000000E+09 -1.73135058947E-01 +4.12735686808E-01 +9.83552990636E-03 +4.91527515090E-03 +9.73789560341E-03 +4.64759205210E-03 -2.63551342938E-01 +4.45382725206E-01
4.49000000000E+09 -1.63005729797E-01 +4.25951019362E-01 +1.05303247642E-02 +3.02993654797E-03 +1.03743266123E-02 +2.81588357864E-03 -2.50547980827E-01 +4.59322339968E-01
4.49500000000E+09 -1.54430865222E-01 +4.38779046864E-01 +9.92690787227E-03 +1.89892380591E-03 +9.73281511152E-03 +1.76429243712E-03 -2.37706344019E-01 +4.73693969639E-01
4.50000000000E+09 -1.46774748024E-01 +4.49974735304E-01 +9.78695876123E-03 +1.42732368276E-03 +9.62606672349E-03 +1.35849491780E-03 -2.23526425062E-01 +4.87311228148E-01
4.50500000000E+09 -1.40081879713E-01 +4.59762697447E-01 +1.00649674217E-02 +7.00001334472E-04 +9.93086688255E-03 +6.16129310529E-04 -2.10065358340E-01 +5.00696248353E-01
4.51000000000E+09 -1.32507909566E-01 +4.67080751303E-01 +1.06861575194E-02 -2.28408840627E-04 +1.05172408578E-02 -3.48748815961E-04 -1.94243447269E-01 +5.13293261974E-01
4.51500000000E+09 -1.25078514040E-01 +4.72640378779E-01 +1.07243238373E-02 -1.64873313892E-03 +1.05680541394E-02 -1.81428092016E-03 -1.80146352731E-01 +5.23727245646E-01
4.52000000000E+09 -1.15927963505E-01 +4.77505311269E-01 +1.07368596360E-02 -3.48628191680E-03 +1.04486580902E-02 -3.60956388968E-03 -1.66903894214E-01 +5.34649052235E-01
4.52500000000E+09 -1.05433254215E-01 +4.81645298914E-01 +9.33125755181E-03 -4.68544254700E-03 +9.04754841068E-03 -4.77613140118E-03 -1.52957157785E-01 +5.45543695369E-01
4.53000000000E+09 -9.32821220242E-02 +4.86690263152E-01 +8.60250916482E-03 -5.29651657870E-03 +8.30109043025E-03 -5.36815867466E-03 -1.38052438341E-01 +5.55209475382E-01
4.53500000000E+09 -7.94756367304E-02 +4.92976287503E-01 +7.90556611704E-03 -5.98845292766E-03 +7.67012757893E-03 -6.01152098852E-03 -1.23159341958E-01 +5.64615304344E-01
4.54000000000E+09 -6.45226128514E-02 +4.99554281329E-01 +7.34003792878E-03 -6.58558826233E-03 +7.08336455706E-03 -6.61131339572E-03 -1.07244090565E-01 +5.73044454893E-01
4.54500000000E+09 -5.05377065464E-02 +5.06479416849E-01 +6.43627929368E-03 -7.26492303709E-03 +6.15252360992E-03 -7.20781569306E-03 -9.30139093553E-02 +5.81882289671E-01
4.55000000000E+09 -3.74839383428E-02 +5.13531148677E-01 +5.77814734249E-03 -7.85450200072E-03 +5.50018231921E-03 -7.77442875667E-03 -7.73717687136E-02 +5.90911774964E-01
4.55500000000E+09 -2.69086054193E-02 +5.20339728216E-01 +4.65757226687E-03 -8.03620152436E-03 +4.43942643843E-03 -7.91027465533E-03 -6.16261260892E-02 +5.99142818593E-01
4.56000000000E+09 -1.82467154849E-02 +5.27965025276E-01 +4.10020989412E-03 -8.46355139638E-03 +3.88738389435E-03 -8.28346701270E-03 -4.65007114175E-02 +6.05199445343E-01
4.56500000000E+09 -9.07269492757E-03 +5.34740027466E-01 +3.46195350669E-03 -8.87591834393E-03 +3.25393381528E-03 -8.68012311393E-03 -3.23380535114E-02 +6.11527175719E-01
4.57000000000E+09 -7.61293750454E-05 +5.39637501834E-01 +2.40684777035E-03 -9.51170950936E-03 +2.16592895724E-03 -9.32860968120E-03 -1.76272016295E-02 +6.17605906224E-01
