# Hz S RI R 50
! CMT, C1220, 16058040, 17.2.0/1
! Date: 15/08/2018 12:42:51
! Data: Format (Calibration Info)
! Freq                      S11: Re/Im (F2)                       S21: Re/Im (F2)                       S12: Re/Im (F2)                       S22: Re/Im (F2)            
4.00000000000E+09 +6.59664951698E-01 -3.56895749117E-01 +2.11759020209E-03 -9.04913070620E-04 +2.25454066187E-03 -9.14470806814E-04 +7.87731072988E-01 -3.10647172768E-01
4.00500000000E+09 +6.51207809292E-01 -3.62666584767E-01 +1.91242334745E-03 -1.29118721533E-03 +1.96841467700E-03 -1.24068227879E-03 +7.79336808414E-01 -3.22292997731E-01
4.01000000000E+09 +6.42273206752E-01 -3.68351140938E-01 +1.64008900841E-03 -1.60543278197E-03 +1.73904542342E-03 -1.56006619411E-03 +7.70839755253E-01 -3.34092715100E-01
4.01500000000E+09 +6.32653776256E-01 -3.74896743762E-01 +1.32518117823E-03 -1.52657238080E-03 +1.42412163067E-03 -1.48431019930E-03 +7.62396186895E-01 -3.45423282419E-01
4.02000000000E+09 +6.22509065273E-01 -3.82566229435E-01 +1.37964704226E-03 -1.66782219097E-03 +1.45980638293E-03 -1.60697529691E-03 +7.53344357522E-01 -3.56353602055E-01
4.02500000000E+09 +6.11942664295E-01 -3.91796755277E-01 +1.20405577151E-03 -1.78919668496E-03 +1.35031266340E-03 -1.73010639116E-03 +7.43929254163E-01 -3.66893462122E-01
4.03000000000E+09 +6.00771275152E-01 -4.02280542621E-01 +1.03806885267E-03 -1.92748317439E-03 +1.11772004078E-03 -1.86468759353E-03 +7.33827797016E-01 -3.77388515302E-01
4.03500000000E+09 +5.89023956139E-01 -4.12638935788E-01 +9.15802384616E-04 -2.01997094775E-03 +1.02738936740E-03 -2.05165358361E-03 +7.22885473034E-01 -3.88327799143E-01
4.04000000000E+09 +5.77931136438E-01 -4.22628487366E-01 +6.58744976833E-04 -2.05617103056E-03 +7.81944606797E-04 -2.14469206722E-03 +7.12068591367E-01 -3.99689630627E-01
4.04500000000E+09 +5.66988962772E-01 -4.32472065318E-01 +5.09079136629E-04 -2.12828223222E-03 +6.56146580354E-04 -2.13421658133E-03 +7.01099420064E-01 -4.10933671670E-01
4.05000000000E+09 +5.55371993352E-01 -4.40464787186E-01 +4.15079467325E-04 -2.25969903125E-03 +4.81055966412E-04 -2.27107851317E-03 +6.90347613184E-01 -4.21582488717E-01
4.05500000000E+09 +5.43865208897E-01 -4.46725204612E-01 +3.04625451301E-04 -2.44177648942E-03 +3.71782544872E-04 -2.50848040219E-03 +6.79052457116E-01 -4.31491592185E-01
4.06000000000E+09 +5.31827510418E-01 -4.52167737209E-01 -1.53894256994E-04 -2.59378029783E-03 -1.03205401668E-04 -2.69020113274E-03 +6.67690484543E-01 -4.40642242683E-01
4.06500000000E+09 +5.18574175219E-01 -4.56190780201E-01 -4.65860089310E-04 -2.37779041919E-03 -4.22358531646E-04 -2.52170276645E-03 +6.55358777487E-01 -4.50279297652E-01
4.07000000000E+09 +5.05177438457E-01 -4.60315322522E-01 -5.41402721341E-04 -2.20982477913E-03 -4.96672294630E-04 -2.32192139765E-03 +6.42159771681E-01 -4.60173263922E-01
4.07500000000E+09 +4.90632413032E-01 -4.65206297741E-01 -7.00097922472E-04 -2.39664814037E-03 -6.73757362399E-04 -2.49358529441E-03 +6.28699203156E-01 -4.70860412080E-01
4.08000000000E+09 +4.75047964571E-01 -4.70377021598E-01 -1.06633484500E-03 -2.28050115004E-03 -1.02967702038E-03 -2.35204445920E-03 +6.15183188844E-01 -4.80814548769E-01
4.08500000000E+09 +4.58978289481E-01 -4.76818544290E-01 -1.08215615350E-03 -2.26838389938E-03 -1.07066489448E-03 -2.38157626140E-03 +6.01801705958E-01 -4.90759177710E-01
4.09000000000E+09 +4.42250709725E-01 -4.83606552488E-01 -1.55901005516E-03 -2.39496057286E-03 -1.55033870762E-03 -2.54663193472E-03 +5.87955845296E-01 -4.99460007073E-01
4.09500000000E+09 +4.25891677789E-01 -4.90286945565E-01 -1.97084189122E-03 -1.98077941433E-03 -1.94720751895E-03 -2.05939504782E-03 +5.73498691252E-01 -5.07579522302E-01
4.10000000000E+09 +4.08950468277E-01 -4.96586480166E-01 -1.91674569383E-03 -1.63740382134E-03 -1.93368051509E-03 -1.72947705709E-03 +5.57984815988E-01 -5.15160111390E-01
4.10500000000E+09 +3.92240097490E-01 -5.01033082358E-01 -2.05983772541E-03 -1.83543341491E-03 -2.07203621101E-03 -1.88141699402E-03 +5.42662362289E-01 -5.22921625584E-01
4.11000000000E+09 +3.75835258278E-01 -5.03314249245E-01 -2.60941246793E-03 -1.50883087253E-03 -2.65113462573E-03 -1.56207068612E-03 +5.26586907128E-01 -5.31471478481E-01
4.11500000000E+09 +3.60692803933E-01 -5.04575309672E-01 -2.48988880954E-03 -9.59133021117E-04 -2.49615680428E-03 -1.07450747402E-03 +5.10527058614E-01 -5.39468704908E-01
4.12000000000E+09 +3.45089367929E-01 -5.05475147865E-01 -2.50643766834E-03 -8.85019682139E-04 -2.58997562787E-03 -9.99620711008E-04 +4.94543258685E-01 -5.47640066270E-01
4.12500000000E+09 +3.28512473826E-01 -5.06495347396E-01 -2.55981562546E-03 -6.10714967159E-04 -2.62173077287E-03 -6.96485143987E-04 +4.77242368437E-01 -5.54216893339E-01
4.13000000000E+09 +3.10869321507E-01 -5.07631640462E-01 -2.50903173456E-03 -4.37314929147E-04 -2.53693175495E-03 -5.08729852383E-04 +4.60260392257E-01 -5.60393908309E-01
4.13500000000E+09 +2.92049585078E-01 -5.10261508073E-01 -2.40214472605E-03 -3.47304475676E-04 -2.43372144876E-03 -4.58704596568E-04 +4.41991345893E-01 -5.66044449634E-01
4.14000000000E+09 +2.71761325173E-01 -5.12832089816E-01 -2.62953253016E-03 -5.86681774585E-04 -2.74014830565E-03 -7.04747253473E-04 +4.23831629749E-01 -5.71845399245E-01
4.14500000000E+09 +2.51978248948E-01 -5.15580308780E-01 -3.35059653220E-03 -1.98646441553E-04 -3.44755894460E-03 -3.48727483540E-04 +4.04762296585E-01 -5.77902658300E-01
4.15000000000E+09 +2.32370361654E-01 -5.19113507422E-01 -3.35780908944E-03 +6.06794582248E-04 -3.52005554273E-03 +5.23808064773E-04 +3.86698647381E-01 -5.83041193720E-01
4.15500000000E+09 +2.12798272402E-01 -5.21965804038E-01 -3.15327414683E-03 +1.03951266369E-03 -3.18836476018E-03 +1.03445045052E-03 +3.68603509187E-01 -5.88102588348E-01
4.16000000000E+09 +1.94338682498E-01 -5.22803457965E-01 -2.77854969906E-03 +1.33994784494E-03 -2.92211413506E-03 +1.30689636722E-03 +3.49898638225E-01 -5.91922932626E-01
4.16500000000E+09 +1.77352614160E-01 -5.23090698080E-01 -2.49497270333E-03 +1.38751659473E-03 -2.58855750302E-03 +1.43500097381E-03 +3.30560642956E-01 -5.94678793195E-01
4.17000000000E+09 +1.60152508835E-01 -5.21131702013E-01 -2.47153492164E-03 +1.51362727203E-03 -2.58575184283E-03 +1.51885717588E-03 +3.10215916432E-01 -5.97240334742E-01
4.17500000000E+09 +1.43931851459E-01 -5.17347595644E-01 -2.45911926747E-03 +1.33863868858E-03 -2.52929223753E-03 +1.30637911940E-03 +2.89012050208E-01 -5.98967038369E-01
4.18000000000E+09 +1.26678633221E-01 -5.12898649233E-01 -2.79225431199E-03 +2.03706900433E-03 -2.90287769564E-03 +2.03566430815E-03 +2.68249137480E-01 -6.00422382013E-01
4.18500000000E+09 +1.09410376760E-01 -5.07119503281E-01 -2.18653553610E-03 +2.34102825856E-03 -2.28149804676E-03 +2.35663597329E-03 +2.47704911074E-01 -6.02249589652E-01
4.19000000000E+09 +9.09756016484E-02 -5.01932463100E-01 -2.43621120254E-03 +2.41080059326E-03 -2.54144747686E-03 +2.43248852286E-03 +2.26439627469E-01 -6.02696129591E-01
4.19500000000E+09 +7.20061964688E-02 -4.96237190055E-01 -2.39858938744E-03 +3.11023564978E-03 -2.48319187402E-03 +3.20663050980E-03 +2.05597681598E-01 -6.01357939312E-01
4.20000000000E+09 +5.33090014864E-02 -4.91878660355E-01 -1.47004042866E-03 +3.77790186091E-03 -1.57147991703E-03 +3.89701318019E-03 +1.84255511314E-01 -5.99815427144E-01
4.20500000000E+09 +3.38392362276E-02 -4.88104430211E-01 -7.17782154917E-04 +3.46488658918E-03 -8.51600182931E-04 +3.57288351823E-03 +1.63095869451E-01 -5.97053624058E-01
4.21000000000E+09 +1.50367889975E-02 -4.83891377694E-01 -8.03263774018E-04 +2.95972456250E-03 -8.87417848944E-04 +3.02453060676E-03 +1.41263876937E-01 -5.96231047793E-01
4.21500000000E+09 -3.29211071150E-03 -4.78466885633E-01 -6.41890344747E-04 +3.35207234044E-03 -7.15753492057E-04 +3.44711615764E-03 +1.17858982099E-01 -5.94328020559E-01
4.22000000000E+09 -1.98796361894E-02 -4.70859961068E-01 -4.27161881243E-04 +3.27796268708E-03 -4.10234827262E-04 +3.33913797464E-03 +9.53111657534E-02 -5.90668511197E-01
4.22500000000E+09 -3.50399963550E-02 -4.61941126934E-01 -4.93010847612E-04 +3.42104960079E-03 -5.30232713351E-04 +3.49344369914E-03 +7.37514028946E-02 -5.86461605873E-01
4.23000000000E+09 -4.94182279961E-02 -4.50668932414E-01 -1.20302487047E-04 +4.13149263202E-03 -1.62488128544E-04 +4.24602864301E-03 +5.20164786516E-02 -5.80124200809E-01
4.23500000000E+09 -6.32292084619E-02 -4.39471605122E-01 +6.40174493337E-04 +4.06717338222E-03 +6.27084508958E-04 +4.16029119728E-03 +3.07256576590E-02 -5.73677722567E-01
4.24000000000E+09 -7.92297739812E-02 -4.27343659081E-01 +1.16182132591E-03 +4.06510510640E-03 +1.20495158191E-03 +4.13383259544E-03 +8.62379472319E-03 -5.65732942847E-01
4.24500000000E+09 -9.71293900971E-02 -4.14453593330E-01 +1.71996790330E-03 +3.73983018056E-03 +1.71916695389E-03 +3.81103448326E-03 -1.31625804040E-02 -5.57944822832E-01
4.25000000000E+09 -1.16597475077E-01 -4.00947173644E-01 +1.68578739991E-03 +3.63381916761E-03 +1.78566714755E-03 +3.67880448462E-03 -3.49336211555E-02 -5.49804606326E-01
4.25500000000E+09 -1.36467788710E-01 -3.87850122913E-01 +2.36898233005E-03 +3.58494725943E-03 +2.37458600260E-03 +3.64896999129E-03 -5.65456330152E-02 -5.41246215106E-01
4.26000000000E+09 -1.57189558769E-01 -3.75634259128E-01 +2.56397410294E-03 +3.10647021900E-03 +2.61013276756E-03 +3.17033727518E-03 -7.78497424911E-02 -5.31264621447E-01
4.26500000000E+09 -1.76726566843E-01 -3.62832582072E-01 +2.42278963233E-03 +3.31813650630E-03 +2.55493727666E-03 +3.41143569107E-03 -9.89000055017E-02 -5.20307535473E-01
4.27000000000E+09 -1.93652249895E-01 -3.51169012139E-01 +3.44941445439E-03 +3.27650832589E-03 +3.53023145935E-03 +3.31699423430E-03 -1.21035103908E-01 -5.07248243630E-01
4.27500000000E+09 -2.09650196394E-01 -3.39604872861E-01 +3.75526003731E-03 +2.70284120858E-03 +3.92632110814E-03 +2.70656009299E-03 -1.41905183174E-01 -4.93167269880E-01
4.28000000000E+09 -2.23131504349E-01 -3.26514811124E-01 +4.14389339418E-03 +2.49511402886E-03 +4.19390493333E-03 +2.53916592296E-03 -1.62868634582E-01 -4.79734422182E-01
4.28500000000E+09 -2.35098244553E-01 -3.12211158960E-01 +4.68914919403E-03 +2.10656947984E-03 +4.81370901658E-03 +2.10892254218E-03 -1.84080215610E-01 -4.65106867582E-01
4.29000000000E+09 -2.46341701768E-01 -2.96263016325E-01 +5.11786824597E-03 +9.46975246543E-04 +5.18451242344E-03 +9.39479725112E-04 -2.03245958578E-01 -4.50342061166E-01
4.29500000000E+09 -2.57879674275E-01 -2.77959974765E-01 +4.39147633266E-03 +4.40953442867E-04 +4.44155234809E-03 +4.11806563945E-04 -2.22351383835E-01 -4.34729924498E-01
4.30000000000E+09 -2.68882299482E-01 -2.57393879053E-01 +4.60657627058E-03 +2.86674206121E-04 +4.66724527088E-03 +2.72062951422E-04 -2.39797606800E-01 -4.17962002266E-01
4.30500000000E+09 -2.80334182513E-01 -2.36902283663E-01 +4.64901662299E-03 -2.26391708467E-04 +4.81308861993E-03 -2.03604877704E-04 -2.58470368342E-01 -4.00662992486E-01
4.31000000000E+09 -2.92777060859E-01 -2.16664913910E-01 +4.40236497601E-03 -1.00233348663E-04 +4.50488628509E-03 -1.60205606166E-04 -2.75834992855E-01 -3.81062315949E-01
4.31500000000E+09 -3.05977509546E-01 -1.97572327913E-01 +5.31618163603E-03 -3.96651124534E-04 +5.47052746250E-03 -4.03889624793E-04 -2.92690832832E-01 -3.61707448705E-01
4.32000000000E+09 -3.19228629193E-01 -1.79393495999E-01 +5.60040367206E-03 -1.83191351030E-03 +5.66695616914E-03 -1.89737729536E-03 -3.09156550345E-01 -3.41756756953E-01
4.32500000000E+09 -3.30961453639E-01 -1.62505520059E-01 +4.66902904897E-03 -2.64152336724E-03 +4.73660284020E-03 -2.69583398326E-03 -3.24091814797E-01 -3.20175370093E-01
4.33000000000E+09 -3.41403881541E-01 -1.46610350264E-01 +4.59481236152E-03 -2.70271046922E-03 +4.61748346539E-03 -2.75009842933E-03 -3.37122473307E-01 -2.98629354931E-01
4.33500000000E+09 -3.48743135970E-01 -1.29337457291E-01 +4.37949855677E-03 -3.39604442883E-03 +4.39116385058E-03 -3.43917611297E-03 -3.49826442037E-01 -2.76065730922E-01
4.34000000000E+09 -3.51691255852E-01 -1.13165379433E-01 +3.80706044453E-03 -4.13769473156E-03 +3.79033460534E-03 -4.16110199963E-03 -3.62464003205E-01 -2.53739153006E-01
4.34500000000E+09 -3.53793523527E-01 -9.65461545091E-02 +3.10993071876E-03 -3.89382263649E-03 +3.12728891896E-03 -3.97410624114E-03 -3.75169005195E-01 -2.29281682821E-01
4.35000000000E+09 -3.54401071065E-01 -7.78915657223E-02 +3.30487973201E-03 -4.22405267170E-03 +3.30425783959E-03 -4.16890790664E-03 -3.86110707594E-01 -2.05891801849E-01
4.35500000000E+09 -3.55528529371E-01 -5.79509456006E-02 +2.84316248900E-03 -4.86495111048E-03 +2.90632156847E-03 -4.92018802812E-03 -3.96369137928E-01 -1.83012363994E-01
4.36000000000E+09 -3.56893794727E-01 -3.56158712066E-02 +2.24373406313E-03 -5.15459219622E-03 +2.21645991971E-03 -5.23784685773E-03 -4.06078567867E-01 -1.59630028475E-01
4.36500000000E+09 -3.59783858946E-01 -1.26526588294E-02 +1.96212943981E-03 -5.25355046409E-03 +1.99024291356E-03 -5.34430876603E-03 -4.13758235690E-01 -1.34710172139E-01
4.37000000000E+09 -3.63909838772E-01 +1.14339300650E-02 +1.65055314714E-03 -5.86603788996E-03 +1.56030441508E-03 -5.97002933409E-03 -4.19905845071E-01 -1.10077678758E-01
4.37500000000E+09 -3.67530820026E-01 +3.45487844540E-02 +7.15217095283E-04 -6.58411024417E-03 +6.92382243655E-04 -6.70234204787E-03 -4.25408084801E-01 -8.38692843233E-02
4.38000000000E+09 -3.71819065096E-01 +5.43781842601E-02 -4.09584416520E-04 -6.36197863906E-03 -4.77637356900E-04 -6.49320303262E-03 -4.28976700234E-01 -5.86138282399E-02
4.38500000000E+09 -3.75862832286E-01 +7.29872826215E-02 -1.10226803544E-03 -6.20261738465E-03 -1.18568572033E-03 -6.27503974198E-03 -4.32805304810E-01 -3.43401221840E-02
4.39000000000E+09 -3.78430938175E-01 +8.90247010873E-02 -1.87815884008E-03 -6.07455247103E-03 -2.01995571625E-03 -6.11838358638E-03 -4.36341826480E-01 -8.31392323239E-03
4.39500000000E+09 -3.79099942220E-01 +1.03533483782E-01 -2.58478712642E-03 -5.44136288997E-03 -2.68851166026E-03 -5.43680803466E-03 -4.36902131610E-01 +1.57044674701E-02
4.40000000000E+09 -3.77832324893E-01 +1.18441762808E-01 -2.76022217905E-03 -5.43503711999E-03 -2.90561867342E-03 -5.38751520968E-03 -4.38120889788E-01 +4.07647647472E-02
4.40500000000E+09 -3.74123937337E-01 +1.34319502266E-01 -3.75166112552E-03 -5.10466007428E-03 -3.79763434236E-03 -5.03718361183E-03 -4.36834973757E-01 +6.59827132374E-02
4.41000000000E+09 -3.68369611657E-01 +1.51235716426E-01 -3.92114041785E-03 -4.37054265265E-03 -4.02674205590E-03 -4.31709428943E-03 -4.34754838624E-01 +9.07201112898E-02
4.41500000000E+09 -3.62595938855E-01 +1.69518891807E-01 -4.40610386729E-03 -4.22016129971E-03 -4.53068521380E-03 -4.15986017069E-03 -4.32406946538E-01 +1.14856156394E-01
4.42000000000E+09 -3.56559764382E-01 +1.90035646102E-01 -4.76513184599E-03 -3.70640278927E-03 -4.86705926130E-03 -3.66763355371E-03 -4.30180833097E-01 +1.39309953545E-01
4.42500000000E+09 -3.51829044329E-01 +2.11526945171E-01 -5.38673471127E-03 -3.66518645305E-03 -5.43712177248E-03 -3.54580557807E-03 -4.25209701624E-01 +1.64282153177E-01
4.43000000000E+09 -3.47760798787E-01 +2.32458545350E-01 -6.19394513180E-03 -2.97736217250E-03 -6.16929675123E-03 -2.81406218201E-03 -4.19591387170E-01 +1.86687097287E-01
4.43500000000E+09 -3.45810563079E-01 +2.52870517911E-01 -6.43752388058E-03 -1.54480967198E-03 -6.41947157917E-03 -1.44666437131E-03 -4.13347498818E-01 +2.09917019293E-01
4.44000000000E+09 -3.43596136726E-01 +2.72271648603E-01 -6.31032076693E-03 -1.16654539686E-03 -6.26471715660E-03 -1.08293328025E-03 -4.06199292532E-01 +2.32299183111E-01
4.44500000000E+09 -3.40705756703E-01 +2.88334954741E-01 -6.22009396529E-03 +1.64161676239E-05 -6.19407061540E-03 +6.97097235937E-05 -3.98746652149E-01 +2.53602892724E-01
4.45000000000E+09 -3.37629385756E-01 +3.01922868611E-01 -5.75534836935E-03 +2.14051711575E-04 -5.75701761556E-03 +2.94470751088E-04 -3.91281614964E-01 +2.74747653513E-01
4.45500000000E+09 -3.33014237626E-01 +3.14183547583E-01 -5.82861259431E-03 +4.76498268788E-04 -5.80845887525E-03 +6.12186618205E-04 -3.83330221949E-01 +2.95307439949E-01
4.46000000000E+09 -3.27052532771E-01 +3.26006418161E-01 -5.97069987117E-03 +1.20377870276E-03 -5.93869746270E-03 +1.34560138425E-03 -3.73452429110E-01 +3.15233859600E-01
4.46500000000E+09 -3.18138797765E-01 +3.38915307687E-01 -5.70414531646E-03 +1.70120085163E-03 -5.68888130082E-03 +1.82135739488E-03 -3.63812251183E-01 +3.34226670063E-01
4.47000000000E+09 -3.07530945274E-01 +3.52300606664E-01 -5.78213556461E-03 +2.18963012377E-03 -5.70380279552E-03 +2.33136550444E-03 -3.51499566581E-01 +3.53935812867E-01
4.47500000000E+09 -2.95650188005E-01 +3.68283253176E-01 -5.77938475427E-03 +3.04717747178E-03 -5.68658990946E-03 +3.13710946582E-03 -3.39957408477E-01 +3.71309805501E-01
4.48000000000E+09 -2.83285257975E-01 +3.83380915476E-01 -5.32261708351E-03 +4.01254405514E-03 -5.09821086652E-03 +4.11105479436E-03 -3.28394525602E-01 +3.89903212625E-01
4.48500000000E+09 -2.73658878715E-01 +4.00394408176E-01 -4.42132444764E-03 +4.42504555797E-03 -4.22491622668E-03 +4.49352360912E-03 -3.16391367169E-01 +4.06355274775E-01
4.49000000000E+09 -2.64152074749E-01 +4.17513910961E-01 -4.01285720906E-03 +4.92927054861E-03 -3.83434517169E-03 +4.83470535719E-03 -3.05334544849E-01 +4.22180691615E-01
4.49500000000E+09 -2.56185091035E-01 +4.33058132886E-01 -3.28647636236E-03 +5.12466808013E-03 -3.13973446797E-03 +5.04335429513E-03 -2.93859751888E-01 +4.38115461987E-01
4.50000000000E+09 -2.49500232892E-01 +4.47102326264E-01 -2.89294734671E-03 +5.42571871686E-03 -2.80733790163E-03 +5.36825099942E-03 -2.80881663163E-01 +4.53126788529E-01
4.50500000000E+09 -2.43321929380E-01 +4.58450004864E-01 -2.29913054894E-03 +5.46328876217E-03 -2.19662749226E-03 +5.43403455574E-03 -2.67392953499E-01 +4.68093370500E-01
4.51000000000E+09 -2.36690507074E-01 +4.68231586034E-01 -2.07915089913E-03 +5.91016091526E-03 -1.97305333181E-03 +5.88494837019E-03 -2.53440321156E-01 +4.82184617069E-01
4.51500000000E+09 -2.28207579996E-01 +4.76047463655E-01 -1.13098923606E-03 +6.35577352286E-03 -1.03379254404E-03 +6.27794411553E-03 -2.40434453039E-01 +4.96080644485E-01
4.52000000000E+09 -2.18216107044E-01 +4.82853274461E-01 -2.70455102884E-04 +6.06984086249E-03 -1.60662228283E-04 +5.95297153897E-03 -2.26642635523E-01 +5.09441818414E-01
4.52500000000E+09 -2.05978809630E-01 +4.90212363657E-01 -1.29919654644E-04 +6.33454097783E-03 +2.75930337816E-05 +6.20665762463E-03 -2.12640118456E-01 +5.20996679770E-01
4.53000000000E+09 -1.92047767261E-01 +4.98227513646E-01 +1.07657025663E-03 +6.48441923295E-03 +1.14337020818E-03 +6.32565469125E-03 -1.98872623628E-01 +5.31779325899E-01
4.53500000000E+09 -1.76506750694E-01 +5.08008648806E-01 +1.92950252483E-03 +5.82006759197E-03 +2.01729054579E-03 +5.64678820267E-03 -1.84413058945E-01 +5.42429409609E-01
4.54000000000E+09 -1.60518055563E-01 +5.18534850296E-01 +2.33073473288E-03 +5.53775526284E-03 +2.44408708058E-03 +5.38854269818E-03 -1.69681964057E-01 +5.52983887733E-01
4.54500000000E+09 -1.45838071771E-01 +5.29499827409E-01 +3.09340521177E-03 +5.01159594497E-03 +3.14459090080E-03 +4.82622970893E-03 -1.55114314989E-01 +5.63670426805E-01
4.55000000000E+09 -1.32841950659E-01 +5.39988226862E-01 +3.03312054477E-03 +4.56631306103E-03 +3.05924660698E-03 +4.40058810616E-03 -1.40275328543E-01 +5.74143608320E-01
4.55500000000E+09 -1.22703039906E-01 +5.50262739752E-01 +3.60403334655E-03 +4.34160036218E-03 +3.59196853455E-03 +4.21563698485E-03 -1.26075111505E-01 +5.83734973487E-01
4.56000000000E+09 -1.13920187625E-01 +5.60218267036E-01 +4.07209124902E-03 +4.02986885382E-03 +3.98168484988E-03 +3.88026713165E-03 -1.12072075856E-01 +5.92559765256E-01
4.56500000000E+09 -1.05546573016E-01 +5.68474394084E-01 +4.44272322825E-03 +3.43483165973E-03 +4.33619400882E-03 +3.31282295188E-03 -9.72243778888E-02 +6.01326608913E-01
4.57000000000E+09 -9.61700939679E-02 +5.74855671003E-01 +4.54206983602E-03 +3.13667957861E-03 +4.48177013335E-03 +3.02382948505E-03 -8.20555509352E-02 +6.08562257062E-01
