# Hz S RI R 50
! CMT, C1220, 16058040, 17.2.0/1
! Date: 15/08/2018 12:22:42
! Data: Format (Calibration Info)
! Freq                      S11: Re/Im (F2)                       S21: Re/Im (F2)                       S12: Re/Im (F2)                       S22: Re/Im (F2)            
4.00000000000E+09 +6.48959016381E-01 -3.52543186680E-01 +9.81350262319E-04 -3.68960118283E-04 +1.05074948710E-03 -3.38948161806E-04 +7.42033023933E-01 -3.24812242298E-01
4.00500000000E+09 +6.41147987168E-01 -3.58386728036E-01 +8.80509650450E-04 -3.41107711610E-04 +9.67162400613E-04 -3.03454630858E-04 +7.31678482297E-01 -3.35534441348E-01
4.01000000000E+09 +6.32527676301E-01 -3.64641032070E-01 +1.14806199518E-03 -6.49308719547E-04 +1.30153653882E-03 -6.06250393144E-04 +7.20637224204E-01 -3.46329856143E-01
4.01500000000E+09 +6.21945152294E-01 -3.71616348925E-01 +1.00515160689E-03 -1.04568758304E-03 +1.14860751728E-03 -1.02142432293E-03 +7.09467631661E-01 -3.56519002757E-01
4.02000000000E+09 +6.10974117127E-01 -3.79037747616E-01 +4.43717959111E-04 -1.24666914602E-03 +6.22165380367E-04 -1.27741716692E-03 +6.97953568993E-01 -3.66555413313E-01
4.02500000000E+09 +5.99605188539E-01 -3.87770388722E-01 +1.53241205243E-04 -8.21389762326E-04 +1.86438902258E-04 -8.82720580583E-04 +6.85841157573E-01 -3.76325766306E-01
4.03000000000E+09 +5.88298746115E-01 -3.97516321121E-01 +4.15355000444E-04 -5.80989369702E-04 +4.62014328916E-04 -7.26196810392E-04 +6.72960689764E-01 -3.85829662056E-01
4.03500000000E+09 +5.77286767780E-01 -4.07964863191E-01 +7.28364735629E-04 -8.06941191716E-04 +7.57919788533E-04 -9.13164501632E-04 +6.60096288986E-01 -3.95635243698E-01
4.04000000000E+09 +5.66691695096E-01 -4.18544576633E-01 +5.70362157389E-04 -1.27359229681E-03 +6.29744210987E-04 -1.41729921034E-03 +6.46558319091E-01 -4.05855249937E-01
4.04500000000E+09 +5.55501308919E-01 -4.28423805467E-01 +8.97155311298E-05 -1.36810158197E-03 +1.08352757990E-04 -1.52911241636E-03 +6.32370045268E-01 -4.15331577422E-01
4.05000000000E+09 +5.44142195130E-01 -4.36036092361E-01 -2.30819606032E-04 -1.16724003175E-03 -2.58241325467E-04 -1.28046766054E-03 +6.18162492363E-01 -4.23811791651E-01
4.05500000000E+09 +5.33317406487E-01 -4.41076182990E-01 -1.63808861167E-04 -9.76038076355E-04 -2.33624381537E-04 -1.05061177120E-03 +6.03778069077E-01 -4.31878301889E-01
4.06000000000E+09 +5.22683277525E-01 -4.45863917690E-01 -7.32448035612E-05 -8.54798338440E-04 -1.72323235609E-04 -8.78277452976E-04 +5.88955259726E-01 -4.39649961003E-01
4.06500000000E+09 +5.10539228219E-01 -4.50024632157E-01 +1.59439061207E-04 -1.11347662350E-03 +1.06000640059E-05 -1.09740261478E-03 +5.73271547049E-01 -4.46967617555E-01
4.07000000000E+09 +4.96707291098E-01 -4.54128093692E-01 -1.95931763830E-04 -1.41401528229E-03 -2.99106650472E-04 -1.43919914033E-03 +5.57443839401E-01 -4.53977418922E-01
4.07500000000E+09 +4.81422790268E-01 -4.58212700245E-01 -4.57790531004E-04 -1.26473161072E-03 -5.20063023128E-04 -1.20736563516E-03 +5.40991850437E-01 -4.61354013438E-01
4.08000000000E+09 +4.65196648946E-01 -4.62984424604E-01 -5.25704338140E-04 -1.28661333172E-03 -5.55024999124E-04 -1.18299123734E-03 +5.24665786735E-01 -4.67513221953E-01
4.08500000000E+09 +4.48473961652E-01 -4.67898343297E-01 -8.51906195662E-04 -1.19538668698E-03 -8.36493305101E-04 -1.20067743245E-03 +5.08483927101E-01 -4.74631102382E-01
4.09000000000E+09 +4.32372000739E-01 -4.74371792209E-01 -8.87215699585E-04 -1.19044352741E-03 -9.05612812441E-04 -1.11483674851E-03 +4.90771778745E-01 -4.79950764041E-01
4.09500000000E+09 +4.15897624202E-01 -4.81339896848E-01 -1.07457522645E-03 -1.05957135761E-03 -1.08227598367E-03 -1.04292817837E-03 +4.74288051452E-01 -4.84354123800E-01
4.10000000000E+09 +3.99113014427E-01 -4.87659531843E-01 -1.33588725277E-03 -9.14782549916E-04 -1.24461026312E-03 -8.60547178742E-04 +4.56363207872E-01 -4.89651697808E-01
4.10500000000E+09 +3.82938684350E-01 -4.92123190250E-01 -1.10269623748E-03 -6.09713016592E-04 -9.91615792368E-04 -5.90272233098E-04 +4.37388743979E-01 -4.93230859725E-01
4.11000000000E+09 +3.67165020509E-01 -4.94882107752E-01 -1.27458183637E-03 -9.21532525334E-04 -1.13022088109E-03 -9.36592363365E-04 +4.19023627538E-01 -4.96934444200E-01
4.11500000000E+09 +3.52327865726E-01 -4.96421563377E-01 -1.33219429251E-03 -9.10103288475E-04 -1.21642593310E-03 -9.92061754526E-04 +4.00089493729E-01 -5.00881656140E-01
4.12000000000E+09 +3.36608049277E-01 -4.97661908955E-01 -1.90866146469E-03 -1.02596524120E-03 -1.81728867415E-03 -1.14956921877E-03 +3.80574747722E-01 -5.04098634401E-01
4.12500000000E+09 +3.19449541020E-01 -4.97993044643E-01 -2.61612247814E-03 -4.66323188402E-04 -2.61836149986E-03 -6.62683298295E-04 +3.60377193946E-01 -5.06439762446E-01
4.13000000000E+09 +3.01562643882E-01 -4.98705768415E-01 -2.55964484279E-03 +5.03303720175E-04 -2.57737793859E-03 +3.99614229920E-04 +3.40055994819E-01 -5.07642790115E-01
4.13500000000E+09 +2.82768011426E-01 -4.99903494046E-01 -1.94101933582E-03 +1.01126525267E-03 -2.03336004663E-03 +8.99643590684E-04 +3.19451443373E-01 -5.07798260352E-01
4.14000000000E+09 +2.63390258982E-01 -5.02240421991E-01 -1.44687427570E-03 +8.83590997548E-04 -1.58545196604E-03 +7.95016900197E-04 +2.98662783137E-01 -5.07783771439E-01
4.14500000000E+09 +2.44055704487E-01 -5.06663923036E-01 -1.47117156221E-03 +8.10616320421E-04 -1.60965611091E-03 +7.17878822610E-04 +2.77705280511E-01 -5.06768765836E-01
4.15000000000E+09 +2.23379364949E-01 -5.11263801794E-01 -1.48178233893E-03 +9.05137029215E-04 -1.63179997741E-03 +8.88095622216E-04 +2.57491577588E-01 -5.05374810351E-01
4.15500000000E+09 +2.03909245071E-01 -5.14946995045E-01 -1.61602751558E-03 +8.62611807170E-04 -1.71536925229E-03 +8.59850435814E-04 +2.36757913678E-01 -5.03041024825E-01
4.16000000000E+09 +1.85978857318E-01 -5.17465161554E-01 -1.80506951803E-03 +1.24368327409E-03 -2.05812617026E-03 +1.25454850758E-03 +2.16149179578E-01 -4.99289746043E-01
4.16500000000E+09 +1.69625738116E-01 -5.18238050930E-01 -1.72293808441E-03 +1.90785883924E-03 -1.90525758245E-03 +2.01703184909E-03 +1.95603472393E-01 -4.94799576252E-01
4.17000000000E+09 +1.54724341357E-01 -5.17748429049E-01 -1.20430270113E-03 +2.04745744552E-03 -1.38754535187E-03 +2.20555548876E-03 +1.74961581316E-01 -4.89383906568E-01
4.17500000000E+09 +1.39785966694E-01 -5.15756137619E-01 -1.09758464362E-03 +2.40344522928E-03 -1.22167535128E-03 +2.57655615521E-03 +1.54188965548E-01 -4.83206796437E-01
4.18000000000E+09 +1.24466119138E-01 -5.12280159600E-01 -4.30328528194E-04 +2.82198765779E-03 -4.84005189395E-04 +3.00966109091E-03 +1.33995395836E-01 -4.76017049894E-01
4.18500000000E+09 +1.07807952108E-01 -5.07813013136E-01 +3.83539858937E-04 +2.57713954730E-03 +3.73238377870E-04 +2.72597109198E-03 +1.14926176601E-01 -4.69157686484E-01
4.19000000000E+09 +9.01488091743E-02 -5.02067422586E-01 +3.63681040114E-04 +1.92537458708E-03 +3.81144819341E-04 +2.14195464992E-03 +9.40357626186E-02 -4.62600441634E-01
4.19500000000E+09 +7.24289309009E-02 -4.96344597895E-01 +2.51073149943E-04 +1.87657122727E-03 +3.41062282793E-04 +2.02555631377E-03 +7.34015924421E-02 -4.53370002643E-01
4.20000000000E+09 +5.38873445539E-02 -4.92041379270E-01 +2.35749676112E-04 +2.15427960247E-03 +3.22556173270E-04 +2.30659575307E-03 +5.36378692387E-02 -4.43091663532E-01
4.20500000000E+09 +3.47202606749E-02 -4.87999563040E-01 +2.81189193047E-04 +2.30273304685E-03 +4.27276687315E-04 +2.43141915378E-03 +3.37322226175E-02 -4.32625536546E-01
4.21000000000E+09 +1.59592559459E-02 -4.83587722053E-01 +6.91337709522E-04 +2.83855458283E-03 +9.44516673077E-04 +2.93391860242E-03 +1.41339242245E-02 -4.20945251606E-01
4.21500000000E+09 -1.93064360688E-03 -4.78612519350E-01 +1.82846977554E-03 +2.77389984545E-03 +2.03394848202E-03 +2.77538960636E-03 -4.50554078779E-03 -4.09509368853E-01
4.22000000000E+09 -1.88235281619E-02 -4.71996087582E-01 +2.10552354456E-03 +2.03154934801E-03 +2.30864037093E-03 +1.94885086343E-03 -2.32204275524E-02 -3.97413083139E-01
4.22500000000E+09 -3.35544557392E-02 -4.64120791067E-01 +2.49407755143E-03 +1.64742418934E-03 +2.57614173166E-03 +1.51499959794E-03 -4.15516059789E-02 -3.83960345240E-01
4.23000000000E+09 -4.83983623442E-02 -4.55293857461E-01 +2.41670689021E-03 +1.02657632938E-03 +2.44329808632E-03 +9.10701328025E-04 -5.89824508160E-02 -3.69270197510E-01
4.23500000000E+09 -6.40057762124E-02 -4.44242938312E-01 +2.14715590728E-03 +1.08544719873E-03 +2.17120716944E-03 +9.95941571121E-04 -7.62778745244E-02 -3.53587455714E-01
4.24000000000E+09 -8.01162897891E-02 -4.31499864611E-01 +2.32054328278E-03 +1.18391291508E-03 +2.30774643607E-03 +1.06422062841E-03 -9.21310969443E-02 -3.36467407454E-01
4.24500000000E+09 -9.68468118816E-02 -4.18057929500E-01 +2.92160298545E-03 +1.14164115480E-03 +2.89022994729E-03 +1.09385828951E-03 -1.07740186451E-01 -3.19089643432E-01
4.25000000000E+09 -1.15099422091E-01 -4.05182630220E-01 +3.54623369426E-03 +5.35286022756E-04 +3.50074811991E-03 +4.13781936350E-04 -1.21857115300E-01 -3.00816436030E-01
4.25500000000E+09 -1.34514614343E-01 -3.93076229213E-01 +3.58679675414E-03 -4.11287571945E-04 +3.49526759071E-03 -5.08375799735E-04 -1.34711899497E-01 -2.83279771981E-01
4.26000000000E+09 -1.55140144222E-01 -3.81463599840E-01 +3.15727289855E-03 -1.08073215883E-03 +3.06403325045E-03 -1.11973246708E-03 -1.47881887247E-01 -2.65676157042E-01
4.26500000000E+09 -1.75365140825E-01 -3.69546260992E-01 +2.85178343178E-03 -1.24757085701E-03 +2.73219402138E-03 -1.28535980448E-03 -1.59952934234E-01 -2.46427100227E-01
4.27000000000E+09 -1.92856887722E-01 -3.58134553625E-01 +2.88968327570E-03 -1.47805287439E-03 +2.75672634283E-03 -1.47626249410E-03 -1.71934708438E-01 -2.26966903482E-01
4.27500000000E+09 -2.09118825381E-01 -3.47408850458E-01 +2.76805967599E-03 -2.08660198055E-03 +2.62955895777E-03 -2.10366492531E-03 -1.82862541759E-01 -2.06225996217E-01
4.28000000000E+09 -2.23314601804E-01 -3.35240805499E-01 +2.19117465443E-03 -2.36818035111E-03 +2.07405637747E-03 -2.29689396191E-03 -1.92485767451E-01 -1.85812376733E-01
4.28500000000E+09 -2.35336965138E-01 -3.21950373254E-01 +2.15509533348E-03 -2.32085454668E-03 +2.10349482192E-03 -2.23304266258E-03 -2.01375650358E-01 -1.65362997444E-01
4.29000000000E+09 -2.46537075186E-01 -3.07088179701E-01 +2.09878445607E-03 -2.99191663915E-03 +2.09327397760E-03 -2.85814949274E-03 -2.09388327678E-01 -1.45695236568E-01
4.29500000000E+09 -2.57510649551E-01 -2.90237250676E-01 +1.48958760107E-03 -3.67125451906E-03 +1.53487817644E-03 -3.59034599259E-03 -2.17276915934E-01 -1.26165950672E-01
4.30000000000E+09 -2.68713062314E-01 -2.71684755292E-01 +5.56292364524E-04 -3.71921340173E-03 +6.13352535175E-04 -3.71014391023E-03 -2.23734744800E-01 -1.05399987972E-01
4.30500000000E+09 -2.80700935660E-01 -2.52261655442E-01 +1.45871547161E-05 -3.67236808728E-03 +1.21617075345E-04 -3.57513354570E-03 -2.29146201330E-01 -8.43624883827E-02
4.31000000000E+09 -2.93500126430E-01 -2.32591922848E-01 -5.73236554120E-04 -3.62102970562E-03 -4.56619875194E-04 -3.55380073639E-03 -2.33206964094E-01 -6.30201127701E-02
4.31500000000E+09 -3.07252027719E-01 -2.13699235906E-01 -1.13990487410E-03 -3.33781246137E-03 -1.07222066987E-03 -3.35949437119E-03 -2.36318021764E-01 -4.12713203267E-02
4.32000000000E+09 -3.20436488158E-01 -1.95631523598E-01 -1.48317023174E-03 -2.93164041665E-03 -1.36895501715E-03 -2.88316142614E-03 -2.38437775143E-01 -1.98515090175E-02
4.32500000000E+09 -3.33260197178E-01 -1.78782211223E-01 -1.53712977935E-03 -2.77797534755E-03 -1.45668580315E-03 -2.87596925237E-03 -2.40446083808E-01 +1.19708084762E-03
4.33000000000E+09 -3.43597755938E-01 -1.62428844765E-01 -2.13961603671E-03 -2.75120039817E-03 -2.13048536585E-03 -2.80170039042E-03 -2.41318256031E-01 +2.26883843679E-02
4.33500000000E+09 -3.51709400124E-01 -1.47062040042E-01 -2.19638422649E-03 -2.30788027178E-03 -2.26000639026E-03 -2.44426158433E-03 -2.40883297751E-01 +4.38300768607E-02
4.34000000000E+09 -3.57896424263E-01 -1.31126419592E-01 -2.97788793677E-03 -2.31466712479E-03 -2.99327697279E-03 -2.37002093902E-03 -2.40384354494E-01 +6.46017928010E-02
4.34500000000E+09 -3.61821770573E-01 -1.13808963869E-01 -3.36862798941E-03 -1.31240199864E-03 -3.37979615886E-03 -1.38899604323E-03 -2.38202650246E-01 +8.54035911737E-02
4.35000000000E+09 -3.64342349065E-01 -9.52695402495E-02 -3.08015641610E-03 -6.94922023063E-04 -3.15768283242E-03 -6.83396810716E-04 -2.36004006508E-01 +1.04921743612E-01
4.35500000000E+09 -3.66907174168E-01 -7.42139404525E-02 -3.01866717828E-03 -5.70594573646E-04 -3.09711319052E-03 -6.44338536825E-04 -2.32768702873E-01 +1.24519217072E-01
4.36000000000E+09 -3.69303081353E-01 -5.16808185601E-02 -3.13492501455E-03 -5.14219985959E-05 -3.28933624371E-03 -3.41889512150E-05 -2.29151771069E-01 +1.42432540822E-01
4.36500000000E+09 -3.72809077358E-01 -2.85205614333E-02 -3.09221282254E-03 +1.15322013267E-05 -3.20299563510E-03 +4.33511240799E-05 -2.25319978017E-01 +1.60532384431E-01
4.37000000000E+09 -3.77589327702E-01 -4.84903731090E-03 -3.36516015562E-03 +8.10989208715E-04 -3.50282643969E-03 +8.45454374282E-04 -2.20341452653E-01 +1.78462531253E-01
4.37500000000E+09 -3.82253774178E-01 +1.74481605612E-02 -2.86170496518E-03 +1.15261939972E-03 -2.90094811766E-03 +1.31327528686E-03 -2.15529646231E-01 +1.95883841030E-01
4.38000000000E+09 -3.87784212763E-01 +3.78646207827E-02 -2.68797345501E-03 +1.50963294558E-03 -2.73431637005E-03 +1.70584879746E-03 -2.08843063009E-01 +2.13755959073E-01
4.38500000000E+09 -3.92313987383E-01 +5.61580340887E-02 -2.43457819146E-03 +2.00784702747E-03 -2.43989188925E-03 +2.20203913517E-03 -2.02575530701E-01 +2.30814461691E-01
4.39000000000E+09 -3.95364659042E-01 +7.28721071536E-02 -1.92900032269E-03 +2.33608242951E-03 -1.84257512576E-03 +2.53956239652E-03 -1.95768266585E-01 +2.48042623882E-01
4.39500000000E+09 -3.96400019986E-01 +8.80750036143E-02 -1.37572084917E-03 +2.36045423967E-03 -1.25755161690E-03 +2.51076543949E-03 -1.88555375534E-01 +2.63880764983E-01
4.40000000000E+09 -3.94886881983E-01 +1.03600241599E-01 -1.11868595626E-03 +2.20636029864E-03 -1.01896800853E-03 +2.30210517641E-03 -1.81069538292E-01 +2.79892377194E-01
4.40500000000E+09 -3.90660054452E-01 +1.19667644880E-01 -1.14312100834E-03 +2.38209034232E-03 -8.79726392056E-04 +2.42666695964E-03 -1.72354515203E-01 +2.95027304254E-01
4.41000000000E+09 -3.84808288609E-01 +1.36812689921E-01 -5.05719946247E-04 +2.55951641985E-03 -2.43563336068E-04 +2.56613141750E-03 -1.63693398891E-01 +3.09136873011E-01
4.41500000000E+09 -3.78930710056E-01 +1.55699040440E-01 -4.87982332814E-04 +2.39176682160E-03 -2.83645912735E-04 +2.38042890589E-03 -1.54727291275E-01 +3.23707866803E-01
4.42000000000E+09 -3.72899455798E-01 +1.76834259195E-01 -2.86137377523E-04 +2.70962238977E-03 -6.65945155522E-05 +2.62760419814E-03 -1.44973214017E-01 +3.38595230064E-01
4.42500000000E+09 -3.68098796599E-01 +1.98665296829E-01 +5.10245494293E-04 +2.86067386549E-03 +6.68892781814E-04 +2.67828078532E-03 -1.34255597817E-01 +3.51716100570E-01
4.43000000000E+09 -3.64794204144E-01 +2.21035420807E-01 +8.62778366597E-04 +2.35439255089E-03 +1.01152045001E-03 +2.14950337714E-03 -1.25090542863E-01 +3.64593107397E-01
4.43500000000E+09 -3.61721103961E-01 +2.42636342020E-01 +1.10053650177E-03 +2.21406583880E-03 +1.11176486657E-03 +1.98125307901E-03 -1.14643305024E-01 +3.77211465173E-01
4.44000000000E+09 -3.59149175435E-01 +2.61767632881E-01 +1.40699042922E-03 +1.92273681354E-03 +1.39147003019E-03 +1.71647265978E-03 -1.04572073200E-01 +3.88517776346E-01
4.44500000000E+09 -3.56788348604E-01 +2.78553972900E-01 +1.51180504363E-03 +1.56605409081E-03 +1.45393256182E-03 +1.39233464093E-03 -9.45387292549E-02 +3.99963190683E-01
4.45000000000E+09 -3.53645720300E-01 +2.92795619029E-01 +1.28132558090E-03 +1.49591409209E-03 +1.17076485760E-03 +1.33158335333E-03 -8.33402271081E-02 +4.10812757057E-01
4.45500000000E+09 -3.49083857516E-01 +3.06279480863E-01 +1.74650805863E-03 +1.70302285522E-03 +1.63000473378E-03 +1.55053066543E-03 -7.21479915373E-02 +4.20586012650E-01
4.46000000000E+09 -3.41628261321E-01 +3.19184145036E-01 +2.23115984268E-03 +9.44510598454E-04 +2.05631466103E-03 +8.39304686903E-04 -6.10772551648E-02 +4.30074463742E-01
4.46500000000E+09 -3.32204087794E-01 +3.32471747358E-01 +2.01719304811E-03 +7.05648058780E-04 +1.83867963577E-03 +6.84210682998E-04 -4.97810391815E-02 +4.38889807888E-01
4.47000000000E+09 -3.20894480286E-01 +3.47166350492E-01 +1.94724241353E-03 +3.59738232085E-04 +1.82084450415E-03 +4.05718442831E-04 -3.92539308567E-02 +4.47846448708E-01
4.47500000000E+09 -3.08451427165E-01 +3.64045094654E-01 +1.91384429855E-03 +4.21447179644E-04 +1.80018999971E-03 +4.56828185483E-04 -2.77935973157E-02 +4.57031407527E-01
4.48000000000E+09 -2.95419577771E-01 +3.81711595106E-01 +2.18891774282E-03 +2.48355199316E-04 +2.08839214562E-03 +3.06063846619E-04 -1.62562108044E-02 +4.64836606241E-01
4.48500000000E+09 -2.83465139183E-01 +3.99385609781E-01 +2.21682418495E-03 -3.94784855752E-04 +2.14011700032E-03 -2.93624966117E-04 -5.15589770399E-03 +4.72997505661E-01
4.49000000000E+09 -2.73955159255E-01 +4.17024002427E-01 +2.23862891133E-03 -6.86682234905E-04 +2.20817710876E-03 -5.76368426780E-04 +6.67226725598E-03 +4.80539005610E-01
4.49500000000E+09 -2.65862948086E-01 +4.33872969300E-01 +1.69128637259E-03 -1.13582797556E-03 +1.66478761530E-03 -1.00440263259E-03 +1.77395934364E-02 +4.87183609570E-01
4.50000000000E+09 -2.59180897328E-01 +4.48006063307E-01 +1.44247606076E-03 -1.02863849004E-03 +1.46175566615E-03 -9.41310977608E-04 +2.92571402909E-02 +4.93656885463E-01
4.50500000000E+09 -2.54171996325E-01 +4.60288951010E-01 +1.47072969399E-03 -1.15198980731E-03 +1.50279498192E-03 -1.09594391344E-03 +4.05523512873E-02 +4.99742848685E-01
4.51000000000E+09 -2.48340142010E-01 +4.70736803763E-01 +1.27326001880E-03 -1.57103021386E-03 +1.28267117743E-03 -1.43561409771E-03 +5.18325987748E-02 +5.05499110544E-01
4.51500000000E+09 -2.40254295120E-01 +4.79474079315E-01 +8.75898781475E-04 -1.53505205723E-03 +9.29232300671E-04 -1.50336279287E-03 +6.30179070724E-02 +5.11152877079E-01
4.52000000000E+09 -2.30358681055E-01 +4.86341636911E-01 +5.68988918138E-04 -1.59021960558E-03 +6.27772317601E-04 -1.59616201477E-03 +7.47925105691E-02 +5.16205400236E-01
4.52500000000E+09 -2.18371281638E-01 +4.93365297969E-01 +4.87357630854E-04 -1.41834918340E-03 +4.97098825748E-04 -1.44681553531E-03 +8.60841735547E-02 +5.20396015785E-01
4.53000000000E+09 -2.04752594403E-01 +5.01042744006E-01 +4.63429865705E-04 -1.48485986099E-03 +3.96316293134E-04 -1.51978297708E-03 +9.76138356494E-02 +5.24405673975E-01
4.53500000000E+09 -1.89721625673E-01 +5.10679069236E-01 +2.01168551129E-04 -1.62386379527E-03 +1.85617495551E-04 -1.63824544683E-03 +1.08723916268E-01 +5.27917441765E-01
4.54000000000E+09 -1.73761408844E-01 +5.21012786559E-01 +7.57905091171E-05 -1.81988160756E-03 +1.03206314823E-04 -1.81441092270E-03 +1.20133658162E-01 +5.31388768178E-01
4.54500000000E+09 -1.58769689290E-01 +5.31938614843E-01 -7.28378573910E-04 -1.63912267032E-03 -6.99376105856E-04 -1.69849940292E-03 +1.30638252447E-01 +5.34730474190E-01
4.55000000000E+09 -1.45329707955E-01 +5.42664488280E-01 -8.28220904936E-04 -1.11603803708E-03 -8.32447072751E-04 -1.10222181831E-03 +1.42262645679E-01 +5.38508464040E-01
4.55500000000E+09 -1.34003883856E-01 +5.52794110359E-01 -5.76861045026E-04 -8.89058486696E-04 -6.16292528980E-04 -8.66079969979E-04 +1.53158932919E-01 +5.41092755657E-01
4.56000000000E+09 -1.24223293194E-01 +5.62130622782E-01 -4.78089398288E-04 -9.98897567986E-04 -4.86059062579E-04 -1.03005661316E-03 +1.63506051685E-01 +5.44294382452E-01
4.56500000000E+09 -1.15162974587E-01 +5.69622400826E-01 -6.71618212674E-04 -1.15818414178E-03 -6.82519232756E-04 -1.14267229112E-03 +1.74217467111E-01 +5.46906648754E-01
4.57000000000E+09 -1.05718565505E-01 +5.75487062414E-01 -1.09588855683E-03 -1.00624730891E-03 -1.10818272975E-03 -9.96852579024E-04 +1.84898351963E-01 +5.49205723486E-01
