# Hz S RI R 50
! CMT, C1220, 16058040, 17.2.0/1
! Date: 15/08/2018 12:36:41
! Data: Format (Calibration Info)
! Freq                      S11: Re/Im (F2)                       S21: Re/Im (F2)                       S12: Re/Im (F2)                       S22: Re/Im (F2)            
4.00000000000E+09 +6.52982682340E-01 -3.59258817343E-01 +2.21185621576E-03 -9.43443307832E-04 +2.27602553449E-03 -9.01942931183E-04 +7.85121696940E-01 -3.16488022666E-01
4.00500000000E+09 +6.44727177882E-01 -3.65138163195E-01 +1.98156750484E-03 -1.34171931836E-03 +2.05464635944E-03 -1.32671832374E-03 +7.76703812935E-01 -3.28001787741E-01
4.01000000000E+09 +6.36324724299E-01 -3.70988227510E-01 +1.69292003888E-03 -1.67382389003E-03 +1.80261999974E-03 -1.66603339842E-03 +7.68177426315E-01 -3.39932898660E-01
4.01500000000E+09 +6.27263249701E-01 -3.77477923353E-01 +1.34377189490E-03 -1.54439189639E-03 +1.43805675974E-03 -1.59978701472E-03 +7.59684374751E-01 -3.51245686022E-01
4.02000000000E+09 +6.17955913951E-01 -3.84902539720E-01 +1.43628405847E-03 -1.71365187633E-03 +1.43365500978E-03 -1.69442864072E-03 +7.50658939005E-01 -3.62106143058E-01
4.02500000000E+09 +6.07952568916E-01 -3.93697904661E-01 +1.25794452522E-03 -1.80664007541E-03 +1.33586161918E-03 -1.78391887468E-03 +7.41207223056E-01 -3.72784941015E-01
4.03000000000E+09 +5.97038722239E-01 -4.03625050212E-01 +1.06323957538E-03 -1.90938777147E-03 +1.17478893048E-03 -1.92826429225E-03 +7.30838307443E-01 -3.83351906290E-01
4.03500000000E+09 +5.85446938874E-01 -4.13315925068E-01 +9.44722902807E-04 -2.01404636922E-03 +1.03325276627E-03 -2.02422814974E-03 +7.19725981432E-01 -3.94357839731E-01
4.04000000000E+09 +5.74165922618E-01 -4.22637643879E-01 +7.83393119666E-04 -2.06280928914E-03 +8.90194955427E-04 -2.06739831276E-03 +7.08635578059E-01 -4.05808041545E-01
4.04500000000E+09 +5.62680409744E-01 -4.31816007532E-01 +7.24065784769E-04 -2.22844503335E-03 +7.59510380166E-04 -2.24047275393E-03 +6.97577242928E-01 -4.17118627122E-01
4.05000000000E+09 +5.50672833091E-01 -4.39370000899E-01 +5.24267055268E-04 -2.35487054637E-03 +6.29352124144E-04 -2.42396265033E-03 +6.86585773740E-01 -4.27929343099E-01
4.05500000000E+09 +5.38552506959E-01 -4.45462147109E-01 +3.67223103644E-04 -2.54183870790E-03 +4.56388998145E-04 -2.64990290652E-03 +6.75108828742E-01 -4.37902989524E-01
4.06000000000E+09 +5.26113801680E-01 -4.50758978477E-01 -1.04048269401E-04 -2.73333974216E-03 -6.26835382829E-05 -2.82548783649E-03 +6.63391114148E-01 -4.47299799039E-01
4.06500000000E+09 +5.12785550393E-01 -4.54738622581E-01 -4.13184990703E-04 -2.54074048053E-03 -3.56204717923E-04 -2.61117583041E-03 +6.50756116563E-01 -4.56961393325E-01
4.07000000000E+09 +4.99504110794E-01 -4.58964722945E-01 -4.71358912005E-04 -2.48887446309E-03 -4.55837998419E-04 -2.53093207025E-03 +6.37099831392E-01 -4.66743812187E-01
4.07500000000E+09 +4.85250520302E-01 -4.63833416605E-01 -7.19077685754E-04 -2.61864000525E-03 -6.23039043713E-04 -2.72333627572E-03 +6.23202476097E-01 -4.77179316167E-01
4.08000000000E+09 +4.70071657370E-01 -4.69002756260E-01 -1.07603997243E-03 -2.51544119430E-03 -9.81253112519E-04 -2.60733558954E-03 +6.09458008687E-01 -4.86844505667E-01
4.08500000000E+09 +4.54348784930E-01 -4.75278837056E-01 -1.19141118635E-03 -2.47828374062E-03 -1.11466112727E-03 -2.63123034607E-03 +5.95694300398E-01 -4.96730504002E-01
4.09000000000E+09 +4.37884719742E-01 -4.81658033250E-01 -1.67235251302E-03 -2.62252085847E-03 -1.62207743338E-03 -2.79399891410E-03 +5.81662386653E-01 -5.05208776212E-01
4.09500000000E+09 +4.21544281791E-01 -4.87980967644E-01 -2.11100269543E-03 -2.23042887418E-03 -2.13057287216E-03 -2.34288388603E-03 +5.66961230627E-01 -5.13501821416E-01
4.10000000000E+09 +4.04443200248E-01 -4.93519903097E-01 -2.11413536474E-03 -1.81763472559E-03 -2.18504590849E-03 -1.89355650672E-03 +5.51135352127E-01 -5.20721931588E-01
4.10500000000E+09 +3.87584748608E-01 -4.97370364915E-01 -2.22923404108E-03 -1.95032385634E-03 -2.24307884464E-03 -2.00559114657E-03 +5.35627934166E-01 -5.28328932602E-01
4.11000000000E+09 +3.71129388928E-01 -4.99239394842E-01 -2.78827393588E-03 -1.58769244350E-03 -2.80779848579E-03 -1.66185500354E-03 +5.19200368562E-01 -5.36662374589E-01
4.11500000000E+09 +3.55793743764E-01 -5.00228972395E-01 -2.62456345302E-03 -1.06160464968E-03 -2.68090964610E-03 -1.12359145903E-03 +5.02898759360E-01 -5.44347617184E-01
4.12000000000E+09 +3.40182059647E-01 -5.01220231730E-01 -2.73040395196E-03 -9.98024895153E-04 -2.79367732945E-03 -1.10715403425E-03 +4.86792486762E-01 -5.52411601582E-01
4.12500000000E+09 +3.23762479656E-01 -5.02711503297E-01 -2.82700943991E-03 -7.19255556072E-04 -2.90475133734E-03 -7.96182067490E-04 +4.69265064104E-01 -5.58948657513E-01
4.13000000000E+09 +3.06157443488E-01 -5.04262715293E-01 -2.74445731693E-03 -3.90686494551E-04 -2.82724638343E-03 -4.41461509007E-04 +4.51962946887E-01 -5.64970625786E-01
4.13500000000E+09 +2.87443508857E-01 -5.07088259539E-01 -2.52284159940E-03 -2.61973035838E-04 -2.59182600703E-03 -3.58979149752E-04 +4.33352796955E-01 -5.70512179883E-01
4.14000000000E+09 +2.67605136868E-01 -5.09807947853E-01 -2.78593631232E-03 -5.64920603047E-04 -2.86946675328E-03 -6.47157422752E-04 +4.14838147741E-01 -5.76166544946E-01
4.14500000000E+09 +2.48143103406E-01 -5.12679957457E-01 -3.44910584622E-03 -1.89984489465E-04 -3.58515878049E-03 -2.73669955033E-04 +3.95389044745E-01 -5.82115693760E-01
4.15000000000E+09 +2.28833142452E-01 -5.16061769128E-01 -3.47130252374E-03 +6.14297967381E-04 -3.57738602273E-03 +5.28149569191E-04 +3.76804196214E-01 -5.86800529539E-01
4.15500000000E+09 +2.09579957145E-01 -5.18469948725E-01 -3.19109446588E-03 +1.00468481190E-03 -3.36201458816E-03 +9.86674955803E-04 +3.58415728096E-01 -5.91359219919E-01
4.16000000000E+09 +1.91318132376E-01 -5.18812027012E-01 -2.99690260995E-03 +1.32955909403E-03 -3.13032369396E-03 +1.32872871527E-03 +3.39350383487E-01 -5.94693353799E-01
4.16500000000E+09 +1.74453260730E-01 -5.18762140902E-01 -2.75072504972E-03 +1.40490078705E-03 -2.81369900614E-03 +1.43505305887E-03 +3.19778540150E-01 -5.97010529621E-01
4.17000000000E+09 +1.57419138584E-01 -5.16325125865E-01 -2.65139451752E-03 +1.65649288338E-03 -2.68525225208E-03 +1.66390758833E-03 +2.99197076172E-01 -5.98874800926E-01
4.17500000000E+09 +1.41281339236E-01 -5.12100688722E-01 -2.52387289771E-03 +1.46198522819E-03 -2.60741121740E-03 +1.43500394647E-03 +2.77942649312E-01 -6.00301045437E-01
4.18000000000E+09 +1.24279603386E-01 -5.07512115260E-01 -2.91527789148E-03 +2.07804173160E-03 -3.03267234441E-03 +2.09376947453E-03 +2.56834005852E-01 -6.01337278741E-01
4.18500000000E+09 +1.07231927156E-01 -5.01554087511E-01 -2.39327186514E-03 +2.37310787321E-03 -2.45312465766E-03 +2.38343024353E-03 +2.36242090333E-01 -6.02617545664E-01
4.19000000000E+09 +8.91045084524E-02 -4.96132265743E-01 -2.55916582828E-03 +2.48101297326E-03 -2.69881209038E-03 +2.51913408672E-03 +2.14993636147E-01 -6.02472745661E-01
4.19500000000E+09 +7.04379684950E-02 -4.90377230129E-01 -2.54802919369E-03 +3.17111410318E-03 -2.65185476512E-03 +3.19536276246E-03 +1.94263446641E-01 -6.00540799646E-01
4.20000000000E+09 +5.20925700611E-02 -4.85798398349E-01 -1.74908364188E-03 +3.90250500682E-03 -1.86513894423E-03 +3.96938992510E-03 +1.72953780099E-01 -5.98545783605E-01
4.20500000000E+09 +3.28508252242E-02 -4.81818895777E-01 -9.71710638470E-04 +3.79012055060E-03 -1.06190106840E-03 +3.84537198165E-03 +1.51724087487E-01 -5.95501054463E-01
4.21000000000E+09 +1.42657211343E-02 -4.77047157741E-01 -8.97248295470E-04 +3.31512990351E-03 -9.87421441546E-04 +3.41115381752E-03 +1.29693569957E-01 -5.94332949426E-01
4.21500000000E+09 -3.67673113870E-03 -4.71064943598E-01 -6.35429618193E-04 +3.67988004256E-03 -7.45501125462E-04 +3.79889215259E-03 +1.06248647802E-01 -5.92206599439E-01
4.22000000000E+09 -1.98962819923E-02 -4.63141093961E-01 -4.03205271886E-04 +3.53341397712E-03 -4.23053176622E-04 +3.61051418059E-03 +8.37566733568E-02 -5.88288396019E-01
4.22500000000E+09 -3.47581350585E-02 -4.53908536686E-01 -5.15056853321E-04 +3.68722956298E-03 -6.20301950225E-04 +3.77174829752E-03 +6.20355101714E-02 -5.83574142382E-01
4.23000000000E+09 -4.89636801393E-02 -4.42876182404E-01 -4.65226948679E-05 +4.46312331548E-03 -1.58530423953E-04 +4.52851581154E-03 +4.02685927480E-02 -5.76889761982E-01
4.23500000000E+09 -6.28837522965E-02 -4.31817457013E-01 +7.04222252421E-04 +4.43747526401E-03 +6.71269440166E-04 +4.54285336110E-03 +1.87738932309E-02 -5.69531256351E-01
4.24000000000E+09 -7.89484797884E-02 -4.19849142995E-01 +1.37890756497E-03 +4.37109344758E-03 +1.36888899645E-03 +4.51919018441E-03 -3.32851643453E-03 -5.61051743998E-01
4.24500000000E+09 -9.68192417063E-02 -4.07027621317E-01 +2.07861452390E-03 +4.00657214415E-03 +2.08382368802E-03 +4.20052619918E-03 -2.52357820387E-02 -5.52501243425E-01
4.25000000000E+09 -1.16231500108E-01 -3.93752584862E-01 +2.20166063464E-03 +3.76545001889E-03 +2.24956986551E-03 +3.83820529665E-03 -4.70038823390E-02 -5.43649767059E-01
4.25500000000E+09 -1.35798233460E-01 -3.80534799864E-01 +2.70878493532E-03 +3.40947612205E-03 +2.79413161855E-03 +3.50868267314E-03 -6.82135445670E-02 -5.34554461170E-01
4.26000000000E+09 -1.56197565431E-01 -3.68436323276E-01 +2.78424848820E-03 +3.02514717016E-03 +2.87060275857E-03 +3.12811058959E-03 -8.92749172659E-02 -5.23899294254E-01
4.26500000000E+09 -1.75432555599E-01 -3.55431891289E-01 +2.71112740182E-03 +3.18957954366E-03 +2.82422776873E-03 +3.30531092265E-03 -1.09787695426E-01 -5.12352207291E-01
4.27000000000E+09 -1.91879831354E-01 -3.43631504297E-01 +3.49681003199E-03 +3.03519445450E-03 +3.61394053416E-03 +3.13248114591E-03 -1.31492588065E-01 -4.98806284953E-01
4.27500000000E+09 -2.07468765293E-01 -3.32206721609E-01 +3.77459473907E-03 +2.56792531325E-03 +3.86465417418E-03 +2.64444627389E-03 -1.51976633054E-01 -4.84088941537E-01
4.28000000000E+09 -2.21011325061E-01 -3.19211847766E-01 +4.19974599963E-03 +2.41808611976E-03 +4.35470933714E-03 +2.41149652059E-03 -1.72625990905E-01 -4.70305598847E-01
4.28500000000E+09 -2.32993880218E-01 -3.04910821799E-01 +4.58737311307E-03 +1.87330322892E-03 +4.70047245607E-03 +1.90567190275E-03 -1.93478949338E-01 -4.55053826618E-01
4.29000000000E+09 -2.44054726750E-01 -2.89067505817E-01 +4.91511116125E-03 +8.57663834508E-04 +5.09023678950E-03 +8.46232653273E-04 -2.11968108303E-01 -4.40396198640E-01
4.29500000000E+09 -2.55443016574E-01 -2.71022742243E-01 +4.23968752903E-03 +4.82582758374E-04 +4.34960560564E-03 +4.19306339321E-04 -2.30961234164E-01 -4.24777236610E-01
4.30000000000E+09 -2.66057069641E-01 -2.50956817790E-01 +4.43585702784E-03 +3.59768297127E-04 +4.49497831594E-03 +2.70675094767E-04 -2.47949464708E-01 -4.07778478712E-01
4.30500000000E+09 -2.77110889510E-01 -2.31124219897E-01 +4.53634903467E-03 +2.06900955743E-05 +4.53397550440E-03 -6.80825010673E-05 -2.66177620436E-01 -3.90205364603E-01
4.31000000000E+09 -2.89039274208E-01 -2.11493827362E-01 +4.23476577108E-03 +2.43545592902E-04 +4.31883746540E-03 +2.41467588612E-04 -2.83418047748E-01 -3.70385472796E-01
4.31500000000E+09 -3.01917331051E-01 -1.93034128418E-01 +5.42173460141E-03 +7.83044823318E-05 +5.47371567262E-03 +2.89714546971E-05 -3.00220559548E-01 -3.50616920785E-01
4.32000000000E+09 -3.14556529822E-01 -1.75021690616E-01 +5.75350957626E-03 -1.46984289599E-03 +5.80838728350E-03 -1.53879815623E-03 -3.16571909872E-01 -3.30094161674E-01
4.32500000000E+09 -3.25456148992E-01 -1.58069393266E-01 +4.99296243777E-03 -2.25189017171E-03 +5.03970570861E-03 -2.29793015421E-03 -3.31125825202E-01 -3.08039373294E-01
4.33000000000E+09 -3.35033889964E-01 -1.42199037651E-01 +5.02911502973E-03 -2.43003335000E-03 +4.98944160786E-03 -2.56620714118E-03 -3.43799943453E-01 -2.86055774908E-01
4.33500000000E+09 -3.41493776180E-01 -1.25138244198E-01 +4.78323321786E-03 -3.29985069218E-03 +4.69713897571E-03 -3.37236650478E-03 -3.56041288299E-01 -2.63200600175E-01
4.34000000000E+09 -3.44008827325E-01 -1.08961072445E-01 +4.11526146801E-03 -4.08307213376E-03 +4.04844131769E-03 -4.08563767384E-03 -3.68115648537E-01 -2.40305492819E-01
4.34500000000E+09 -3.45930154108E-01 -9.23940348966E-02 +3.46609109231E-03 -3.85284504904E-03 +3.42930225627E-03 -3.82778836132E-03 -3.80175804211E-01 -2.15740949222E-01
4.35000000000E+09 -3.46423560142E-01 -7.36541062553E-02 +3.73281767200E-03 -4.23490035837E-03 +3.76932961149E-03 -4.21225183895E-03 -3.90524881815E-01 -1.92166168286E-01
4.35500000000E+09 -3.47560134697E-01 -5.35088636681E-02 +3.20819113968E-03 -4.84139175967E-03 +3.24279281015E-03 -4.93083540004E-03 -4.00524178369E-01 -1.68937824329E-01
4.36000000000E+09 -3.48698950807E-01 -3.10256913634E-02 +2.67744284828E-03 -5.25434319197E-03 +2.69223753696E-03 -5.30264296104E-03 -4.09461166710E-01 -1.45153603025E-01
4.36500000000E+09 -3.51419509086E-01 -8.21220737216E-03 +2.36611384990E-03 -5.49188913633E-03 +2.37480004777E-03 -5.58293784282E-03 -4.16429426079E-01 -1.20111089638E-01
4.37000000000E+09 -3.55111841094E-01 +1.53724086838E-02 +1.88836232151E-03 -6.07876460396E-03 +1.88601741773E-03 -6.20557718518E-03 -4.21811905106E-01 -9.57976967460E-02
4.37500000000E+09 -3.58628373231E-01 +3.78235865929E-02 +1.01025631350E-03 -6.89203302926E-03 +9.84115259098E-04 -7.05608508791E-03 -4.27345174953E-01 -6.97310022339E-02
4.38000000000E+09 -3.62933275628E-01 +5.71739670690E-02 -2.38582822421E-04 -6.69698168912E-03 -2.89909142590E-04 -6.78798605323E-03 -4.30291403719E-01 -4.40600579261E-02
4.38500000000E+09 -3.66736247272E-01 +7.53596462863E-02 -9.36164958892E-04 -6.48318673664E-03 -1.03899035036E-03 -6.57503789686E-03 -4.33389993152E-01 -2.01267796186E-02
4.39000000000E+09 -3.69209243249E-01 +9.09789603080E-02 -1.81167379594E-03 -6.29992733184E-03 -1.95804904970E-03 -6.39436163277E-03 -4.36933347233E-01 +5.52020564350E-03
4.39500000000E+09 -3.69800254538E-01 +1.05203836092E-01 -2.37198746701E-03 -5.54974583875E-03 -2.56046257239E-03 -5.65835581889E-03 -4.37380158732E-01 +2.98409265506E-02
4.40000000000E+09 -3.68507824603E-01 +1.19800347577E-01 -2.57571421085E-03 -5.72007454166E-03 -2.68725161439E-03 -5.71261430872E-03 -4.38031994792E-01 +5.53332775700E-02
4.40500000000E+09 -3.64831281333E-01 +1.35652358911E-01 -3.56278099069E-03 -5.36517039774E-03 -3.73712156680E-03 -5.34248242397E-03 -4.36366424934E-01 +8.07057107284E-02
4.41000000000E+09 -3.58870550170E-01 +1.52238806622E-01 -3.65407657498E-03 -4.73527305350E-03 -3.81981612305E-03 -4.67776230449E-03 -4.33911867274E-01 +1.05778686955E-01
4.41500000000E+09 -3.52828371199E-01 +1.70257647769E-01 -4.35537763795E-03 -4.63805329846E-03 -4.46980023842E-03 -4.60625013766E-03 -4.30878889787E-01 +1.30136736833E-01
4.42000000000E+09 -3.46889759960E-01 +1.90222605521E-01 -4.74613549136E-03 -4.12806315155E-03 -4.90538739098E-03 -4.04084057156E-03 -4.27972601435E-01 +1.54503211494E-01
4.42500000000E+09 -3.42221890322E-01 +2.11309024069E-01 -5.21061422273E-03 -3.93461754984E-03 -5.31054175045E-03 -3.81774728932E-03 -4.22466492734E-01 +1.79514343032E-01
4.43000000000E+09 -3.38041791527E-01 +2.32049893894E-01 -5.92454830952E-03 -3.45399475581E-03 -5.97411974090E-03 -3.29094741125E-03 -4.16157270704E-01 +2.02035647740E-01
4.43500000000E+09 -3.35894300243E-01 +2.51968108294E-01 -6.35813413368E-03 -2.15991109624E-03 -6.30973472781E-03 -1.98696717268E-03 -4.09140503822E-01 +2.24928675032E-01
4.44000000000E+09 -3.33565932752E-01 +2.70712785867E-01 -6.33392593443E-03 -1.84289252893E-03 -6.29813708720E-03 -1.70698910977E-03 -4.01293781262E-01 +2.47424792425E-01
4.44500000000E+09 -3.30683332759E-01 +2.86092590015E-01 -6.34526113221E-03 -7.19476433858E-04 -6.38148350932E-03 -5.87779370913E-04 -3.93021198862E-01 +2.68322425628E-01
4.45000000000E+09 -3.27700508547E-01 +2.99034925365E-01 -6.10462284837E-03 -4.67511532667E-04 -6.09510453512E-03 -3.13184305245E-04 -3.85264004231E-01 +2.89357621734E-01
4.45500000000E+09 -3.23541716456E-01 +3.10781146393E-01 -6.16091811976E-03 -1.98461461786E-04 -6.17602202723E-03 -2.29374509960E-05 -3.76748335561E-01 +3.09641937686E-01
4.46000000000E+09 -3.17599712620E-01 +3.22471044362E-01 -6.50766627857E-03 +5.77308330465E-04 -6.44712787356E-03 +7.98670626203E-04 -3.66589078212E-01 +3.28965723178E-01
4.46500000000E+09 -3.08734255987E-01 +3.34957767382E-01 -6.35174625740E-03 +1.22107849959E-03 -6.24442321798E-03 +1.39467570267E-03 -3.56611079366E-01 +3.47461393117E-01
4.47000000000E+09 -2.98169306443E-01 +3.47972929890E-01 -6.51817317371E-03 +1.83541540666E-03 -6.33617169427E-03 +1.93030804428E-03 -3.44031947269E-01 +3.66915178714E-01
4.47500000000E+09 -2.86273633879E-01 +3.63296148858E-01 -6.55233743276E-03 +2.67325920278E-03 -6.39460346468E-03 +2.84000323028E-03 -3.31922884853E-01 +3.84229728471E-01
4.48000000000E+09 -2.74296640955E-01 +3.78020681972E-01 -6.11619865269E-03 +3.82946227132E-03 -5.90447278030E-03 +3.86861105688E-03 -3.20235920213E-01 +4.02585399475E-01
4.48500000000E+09 -2.64490462002E-01 +3.94724008863E-01 -5.36558833946E-03 +4.36652689462E-03 -5.15712164866E-03 +4.34428434328E-03 -3.07927004545E-01 +4.19270885365E-01
4.49000000000E+09 -2.55090525189E-01 +4.11441416482E-01 -4.97345106312E-03 +5.03495733893E-03 -4.80492749791E-03 +5.00718968235E-03 -2.96229970016E-01 +4.34924427357E-01
4.49500000000E+09 -2.47055690389E-01 +4.26939894279E-01 -4.20519073224E-03 +5.51529954172E-03 -4.11009254667E-03 +5.40842426435E-03 -2.84352763140E-01 +4.50515821526E-01
4.50000000000E+09 -2.40485219090E-01 +4.40590657625E-01 -3.53863789711E-03 +5.97170197139E-03 -3.45950411059E-03 +5.90546697822E-03 -2.71041798029E-01 +4.65040335942E-01
4.50500000000E+09 -2.34774328237E-01 +4.51801180011E-01 -2.80213226107E-03 +5.99792627074E-03 -2.74817485656E-03 +5.87155492444E-03 -2.57252791958E-01 +4.79725029041E-01
4.51000000000E+09 -2.28283294507E-01 +4.61465193755E-01 -2.51230979285E-03 +6.42892231998E-03 -2.43105722888E-03 +6.33917072275E-03 -2.42810959926E-01 +4.93562612529E-01
4.51500000000E+09 -2.20235742334E-01 +4.68937610463E-01 -1.63249785270E-03 +6.81680481230E-03 -1.49902988820E-03 +6.77914393666E-03 -2.29095842858E-01 +5.07252070738E-01
4.52000000000E+09 -2.10704119804E-01 +4.75456160660E-01 -6.89594476925E-04 +6.62917832701E-03 -6.03539027383E-04 +6.51912329330E-03 -2.14855709596E-01 +5.20280774958E-01
4.52500000000E+09 -1.98949575494E-01 +4.82310376743E-01 -4.64212795782E-04 +7.03722136318E-03 -4.05718869329E-04 +6.92099356822E-03 -2.00397183279E-01 +5.31441528745E-01
4.53000000000E+09 -1.85381959810E-01 +4.89753107698E-01 +8.48632956171E-04 +7.21549424517E-03 +9.41110792008E-04 +7.09364870170E-03 -1.86175913376E-01 +5.41725222985E-01
4.53500000000E+09 -1.70442167272E-01 +4.98772948243E-01 +1.84144546597E-03 +6.50053110289E-03 +1.98825439315E-03 +6.38846437525E-03 -1.71601110250E-01 +5.51460754380E-01
4.54000000000E+09 -1.54694702225E-01 +5.08640708813E-01 +2.41228520567E-03 +6.17243358959E-03 +2.49526693892E-03 +6.01231623156E-03 -1.56985619414E-01 +5.61499915309E-01
4.54500000000E+09 -1.40108529281E-01 +5.19010130092E-01 +3.03169770505E-03 +5.54994502780E-03 +3.16856180575E-03 +5.37105830309E-03 -1.42238534788E-01 +5.71703823312E-01
4.55000000000E+09 -1.27075385963E-01 +5.28890105987E-01 +3.00938690726E-03 +5.18533173046E-03 +3.09963883507E-03 +5.01775066963E-03 -1.26936649598E-01 +5.81745020040E-01
4.55500000000E+09 -1.16665401482E-01 +5.38606580449E-01 +3.57422154626E-03 +4.94224118983E-03 +3.58684811389E-03 +4.79007023593E-03 -1.12582796541E-01 +5.90795226530E-01
4.56000000000E+09 -1.07544579877E-01 +5.48245582965E-01 +4.00866162539E-03 +4.65904084476E-03 +4.04660886144E-03 +4.55949990914E-03 -9.85616182078E-02 +5.99284556787E-01
4.56500000000E+09 -9.89813535045E-02 +5.56226227061E-01 +4.55096887634E-03 +4.08451113091E-03 +4.54172289433E-03 +3.95329153510E-03 -8.36529040038E-02 +6.07660733623E-01
4.57000000000E+09 -8.95167286898E-02 +5.62667873742E-01 +4.80534822421E-03 +3.90744625337E-03 +4.80834949597E-03 +3.69516210747E-03 -6.85056926864E-02 +6.14639211957E-01
