# Hz S RI R 50
! CMT, C1220, 16058040, 17.2.0/1
! Date: 15/08/2018 11:35:03
! Data: Format (Calibration Info)
! Freq                      S11: Re/Im (F2)                       S21: Re/Im (F2)                       S12: Re/Im (F2)                       S22: Re/Im (F2)            
4.00000000000E+09 +6.67413315751E-01 -3.55775120353E-01 +7.48120943415E-04 -2.40494769839E-03 +8.33496667292E-04 -2.42337235115E-03 +7.75554185302E-01 -3.53868666528E-01
4.00500000000E+09 +6.59401591165E-01 -3.64062526595E-01 +3.14099240690E-04 -2.70568615897E-03 +4.59146173175E-04 -2.70518983572E-03 +7.67227220131E-01 -3.65328340628E-01
4.01000000000E+09 +6.50667010959E-01 -3.71432070582E-01 -1.49131079131E-04 -2.66618782587E-03 -5.18242142186E-05 -2.72105049425E-03 +7.58250954272E-01 -3.76832810763E-01
4.01500000000E+09 +6.41497328009E-01 -3.78873908311E-01 -5.62399345694E-04 -2.47647895471E-03 -5.01628712280E-04 -2.50010645581E-03 +7.48590025967E-01 -3.87410906171E-01
4.02000000000E+09 +6.31385084073E-01 -3.87642173336E-01 -5.79357026424E-04 -2.30232774621E-03 -4.74569182491E-04 -2.35601241866E-03 +7.38801247619E-01 -3.97998066884E-01
4.02500000000E+09 +6.20202123791E-01 -3.96808896388E-01 -6.87820787368E-04 -2.38170023207E-03 -5.22506811257E-04 -2.47241587503E-03 +7.28512930574E-01 -4.08159827549E-01
4.03000000000E+09 +6.08444506142E-01 -4.06145572115E-01 -1.00811238820E-03 -2.51514360429E-03 -9.19154660929E-04 -2.67753984026E-03 +7.18181684037E-01 -4.18813244321E-01
4.03500000000E+09 +5.96669841258E-01 -4.15558189631E-01 -1.46517821233E-03 -2.23871484318E-03 -1.46330887514E-03 -2.32664340941E-03 +7.06930121808E-01 -4.30091577553E-01
4.04000000000E+09 +5.85098712751E-01 -4.25423385879E-01 -1.44833110057E-03 -1.93501408883E-03 -1.45738287356E-03 -2.07649295681E-03 +6.95410737590E-01 -4.41155761918E-01
4.04500000000E+09 +5.73512279763E-01 -4.34676855958E-01 -1.65694852560E-03 -1.89635738474E-03 -1.62769003851E-03 -2.07684694186E-03 +6.83663846917E-01 -4.51785929989E-01
4.05000000000E+09 +5.62111553146E-01 -4.43460852198E-01 -1.73285464084E-03 -1.85519188244E-03 -1.70962293321E-03 -2.02716165658E-03 +6.71935129599E-01 -4.61626010068E-01
4.05500000000E+09 +5.50154239796E-01 -4.51688628886E-01 -1.68617732244E-03 -1.95512168501E-03 -1.77828962324E-03 -2.09234990117E-03 +6.59668903344E-01 -4.71328866846E-01
4.06000000000E+09 +5.36957573894E-01 -4.59182286198E-01 -2.38388225214E-03 -2.00443962332E-03 -2.42651220861E-03 -2.17892834227E-03 +6.47009756314E-01 -4.80958625204E-01
4.06500000000E+09 +5.23393632163E-01 -4.65199219873E-01 -2.86717928276E-03 -1.29047408738E-03 -2.96356989011E-03 -1.42023059940E-03 +6.33672513768E-01 -4.90080657533E-01
4.07000000000E+09 +5.09784888187E-01 -4.71683170580E-01 -2.58085237796E-03 -9.52500153154E-04 -2.65371718044E-03 -9.85064808868E-04 +6.19835503799E-01 -4.99433586164E-01
4.07500000000E+09 +4.94449302832E-01 -4.78764772774E-01 -2.65130383915E-03 -9.09036244187E-04 -2.71208379817E-03 -9.56992139816E-04 +6.06035830266E-01 -5.08456546646E-01
4.08000000000E+09 +4.78489736702E-01 -4.85197250237E-01 -2.79865068990E-03 -6.81534424404E-04 -2.86533178369E-03 -7.19066953872E-04 +5.92714202148E-01 -5.17956390796E-01
4.08500000000E+09 +4.62385884739E-01 -4.92281956289E-01 -2.85811365901E-03 -4.24799372489E-04 -2.95211042359E-03 -5.18663345364E-04 +5.78726712130E-01 -5.27542138617E-01
4.09000000000E+09 +4.46036929635E-01 -4.99878732667E-01 -3.06515972310E-03 -9.36683242991E-05 -3.16196133293E-03 -1.81970534660E-04 +5.64204563686E-01 -5.36358694678E-01
4.09500000000E+09 +4.29626717182E-01 -5.06744172558E-01 -3.06487278485E-03 +3.28452172727E-04 -3.17641927451E-03 +3.68120476837E-04 +5.48721807168E-01 -5.44174081686E-01
4.10000000000E+09 +4.14128592199E-01 -5.13563468754E-01 -2.55448161172E-03 +4.76468263826E-04 -2.62695857790E-03 +4.67344890630E-04 +5.32660220864E-01 -5.51225982122E-01
4.10500000000E+09 +3.97559035672E-01 -5.19814679016E-01 -2.86483109743E-03 +3.35455448661E-04 -2.91528177471E-03 +3.49017144727E-04 +5.16375878808E-01 -5.57975701494E-01
4.11000000000E+09 +3.81027933270E-01 -5.23640428553E-01 -3.17020318218E-03 +8.91325662810E-04 -3.20120700080E-03 +8.30154157931E-04 +4.99575016302E-01 -5.65781586442E-01
4.11500000000E+09 +3.65564775781E-01 -5.26260603982E-01 -2.97594023950E-03 +1.38167527433E-03 -3.05243943682E-03 +1.35280608841E-03 +4.82034032632E-01 -5.73224694012E-01
4.12000000000E+09 +3.49265482084E-01 -5.28726793284E-01 -2.78434966629E-03 +1.74514192468E-03 -2.84532252712E-03 +1.76245064433E-03 +4.64592755248E-01 -5.79895081401E-01
4.12500000000E+09 +3.32585236638E-01 -5.30499295967E-01 -2.55969678065E-03 +2.11056041228E-03 -2.64409939901E-03 +2.09426934567E-03 +4.47372544219E-01 -5.85636705655E-01
4.13000000000E+09 +3.15199229545E-01 -5.33306657304E-01 -1.83441470122E-03 +2.08947699680E-03 -1.94452564136E-03 +2.06828778231E-03 +4.30295789721E-01 -5.91317188767E-01
4.13500000000E+09 +2.95843199150E-01 -5.36772230904E-01 -1.79972624054E-03 +1.82891317368E-03 -1.88946376684E-03 +1.78519660887E-03 +4.12185068436E-01 -5.96974113664E-01
4.14000000000E+09 +2.75669440461E-01 -5.39495335369E-01 -2.07908796383E-03 +1.70046137519E-03 -2.16976809843E-03 +1.68195166434E-03 +3.92097108206E-01 -6.02319660597E-01
4.14500000000E+09 +2.56252068114E-01 -5.42230152885E-01 -2.45975784151E-03 +2.32074588183E-03 -2.61375883316E-03 +2.31219280227E-03 +3.72177275019E-01 -6.06426200884E-01
4.15000000000E+09 +2.37384143952E-01 -5.46650673124E-01 -1.80959456398E-03 +2.83169809716E-03 -1.96234736648E-03 +2.89594729431E-03 +3.53128103465E-01 -6.10233489002E-01
4.15500000000E+09 +2.17868225083E-01 -5.49483989684E-01 -1.76577259313E-03 +2.88695839111E-03 -1.83950632074E-03 +2.92778467428E-03 +3.33839717352E-01 -6.14337268610E-01
4.16000000000E+09 +2.00534557954E-01 -5.51525803652E-01 -1.41024943639E-03 +3.27913768742E-03 -1.49183851511E-03 +3.34755350766E-03 +3.14323844507E-01 -6.17402930556E-01
4.16500000000E+09 +1.83397174682E-01 -5.52701484595E-01 -9.96358658383E-04 +3.23449649981E-03 -1.04478062350E-03 +3.31960617237E-03 +2.93982176454E-01 -6.19160260240E-01
4.17000000000E+09 +1.66220364554E-01 -5.52363176923E-01 -1.03078877964E-03 +3.34581047548E-03 -1.15214835418E-03 +3.44034350585E-03 +2.73694043439E-01 -6.19538178123E-01
4.17500000000E+09 +1.49242120980E-01 -5.49873407754E-01 -5.41630092863E-04 +3.88479787814E-03 -6.87198429574E-04 +4.02963099947E-03 +2.53807100413E-01 -6.20104661056E-01
4.18000000000E+09 +1.32091390019E-01 -5.46300152181E-01 +2.93661692562E-04 +3.76320755179E-03 +2.13756141634E-04 +3.90102193896E-03 +2.32517098163E-01 -6.21320096647E-01
4.18500000000E+09 +1.13049501586E-01 -5.42320044061E-01 +2.46841969611E-04 +3.21056096255E-03 +2.31241453715E-04 +3.32445172649E-03 +2.09942780263E-01 -6.21530374767E-01
4.19000000000E+09 +9.32391774255E-02 -5.36724744983E-01 -2.22491742921E-05 +3.31479814290E-03 -8.31329667958E-05 +3.44485526190E-03 +1.87413406449E-01 -6.20489573550E-01
4.19500000000E+09 +7.35261744452E-02 -5.31364400690E-01 +1.16846955394E-04 +3.93903994159E-03 +3.58303989218E-05 +4.10248741485E-03 +1.65043018650E-01 -6.18150103769E-01
4.20000000000E+09 +5.29249667410E-02 -5.26980915771E-01 +6.74310244764E-04 +4.47655244660E-03 +6.46497248046E-04 +4.59757483955E-03 +1.43784215865E-01 -6.15421029679E-01
4.20500000000E+09 +3.19608091017E-02 -5.23217072499E-01 +1.80427833283E-03 +4.70502430289E-03 +1.84851170436E-03 +4.89130228390E-03 +1.21457535241E-01 -6.12137384819E-01
4.21000000000E+09 +1.11953435906E-02 -5.18889136231E-01 +2.85022471802E-03 +4.19143877027E-03 +2.93995822634E-03 +4.35046138315E-03 +9.85562240632E-02 -6.08057585420E-01
4.21500000000E+09 -8.31177227335E-03 -5.14754589881E-01 +2.94195604090E-03 +3.11256193463E-03 +3.04100574105E-03 +3.25036974748E-03 +7.56684429416E-02 -6.02944373634E-01
4.22000000000E+09 -2.71773766287E-02 -5.08811015303E-01 +2.82052499222E-03 +2.93537635049E-03 +2.87960768626E-03 +3.02240413305E-03 +5.35595563209E-02 -5.96960788869E-01
4.22500000000E+09 -4.37405322719E-02 -5.01738317145E-01 +3.04067800298E-03 +3.07660063839E-03 +3.14268735754E-03 +3.11243779245E-03 +3.20800025729E-02 -5.90638584992E-01
4.23000000000E+09 -6.01301145748E-02 -4.94119225517E-01 +3.45504379259E-03 +2.69841411444E-03 +3.53893747549E-03 +2.78808236301E-03 +1.15977644841E-02 -5.83770275018E-01
4.23500000000E+09 -7.71264550793E-02 -4.84013863569E-01 +3.67999376780E-03 +2.57317922083E-03 +3.73701025925E-03 +2.63283202300E-03 -1.04765230812E-02 -5.76741711946E-01
4.24000000000E+09 -9.40927197629E-02 -4.72459316540E-01 +4.01598849967E-03 +2.51628598034E-03 +4.07670226419E-03 +2.57426963969E-03 -3.28780035270E-02 -5.67623548716E-01
4.24500000000E+09 -1.11737443248E-01 -4.60111647193E-01 +4.47629454636E-03 +1.98046811871E-03 +4.54958908211E-03 +2.07244986538E-03 -5.52253849563E-02 -5.56793920981E-01
4.25000000000E+09 -1.31339679646E-01 -4.47085326645E-01 +4.73876613611E-03 +1.99923576957E-03 +4.87125967487E-03 +2.06977815935E-03 -7.58099298085E-02 -5.45797475363E-01
4.25500000000E+09 -1.51172271118E-01 -4.34011541565E-01 +5.50026512111E-03 +1.39613701255E-03 +5.63377507407E-03 +1.48269686275E-03 -9.59597259195E-02 -5.34559447706E-01
4.26000000000E+09 -1.71473602001E-01 -4.21661203227E-01 +6.08746046805E-03 +2.23978016784E-04 +6.22361573399E-03 +3.03590644235E-04 -1.16631745887E-01 -5.22934773637E-01
4.26500000000E+09 -1.92278616957E-01 -4.10079554831E-01 +5.47506925055E-03 -5.33324712169E-04 +5.65384627649E-03 -5.86860792960E-04 -1.36804983394E-01 -5.09477797209E-01
4.27000000000E+09 -2.11831081057E-01 -3.97567811799E-01 +5.39506056092E-03 -1.10391373186E-03 +5.47409824015E-03 -1.14832562719E-03 -1.57906725764E-01 -4.95502212150E-01
4.27500000000E+09 -2.29528744941E-01 -3.85874651565E-01 +4.96701721857E-03 -1.85042064864E-03 +5.09211837551E-03 -1.87129255248E-03 -1.78128044647E-01 -4.79475117010E-01
4.28000000000E+09 -2.45775993586E-01 -3.73739889311E-01 +4.42812869772E-03 -1.47564923821E-03 +4.52606218142E-03 -1.52319999568E-03 -1.97074013489E-01 -4.65178574144E-01
4.28500000000E+09 -2.60117345501E-01 -3.60671801632E-01 +5.26532982981E-03 -1.41400951499E-03 +5.31742648775E-03 -1.51119074442E-03 -2.18765362402E-01 -4.49701070577E-01
4.29000000000E+09 -2.73141475467E-01 -3.46381237826E-01 +5.82828955039E-03 -2.84783513951E-03 +5.92066521083E-03 -2.92103277446E-03 -2.38135568974E-01 -4.31491999926E-01
4.29500000000E+09 -2.85481329570E-01 -3.31070392145E-01 +4.80111955148E-03 -3.91144422489E-03 +4.91008474142E-03 -4.00191500242E-03 -2.54637583089E-01 -4.12148414521E-01
4.30000000000E+09 -2.98335302718E-01 -3.13966553056E-01 +4.75760968334E-03 -4.13414394683E-03 +4.83928306931E-03 -4.25623199815E-03 -2.70317523939E-01 -3.94625052892E-01
4.30500000000E+09 -3.11540572417E-01 -2.95588130902E-01 +3.90544619376E-03 -5.21872613102E-03 +3.93470323874E-03 -5.27650474106E-03 -2.85993430774E-01 -3.75550912935E-01
4.31000000000E+09 -3.24492637551E-01 -2.75767643815E-01 +3.05817951962E-03 -5.10406423494E-03 +3.08972349728E-03 -5.29379369704E-03 -3.01892304664E-01 -3.55880465049E-01
4.31500000000E+09 -3.37711223249E-01 -2.56347086647E-01 +2.83577790028E-03 -5.35050014888E-03 +2.88485175172E-03 -5.58051944499E-03 -3.17683317634E-01 -3.34491127652E-01
4.32000000000E+09 -3.50095538222E-01 -2.36922147903E-01 +2.24502680496E-03 -6.02753784097E-03 +2.26110343651E-03 -6.22050129595E-03 -3.31087861320E-01 -3.12139207900E-01
4.32500000000E+09 -3.61203855416E-01 -2.19149655771E-01 +6.81206741020E-04 -6.03334969039E-03 +6.63599570196E-04 -6.22820659756E-03 -3.43095520631E-01 -2.90341828549E-01
4.33000000000E+09 -3.72597675066E-01 -2.02449387997E-01 +1.08152759020E-03 -4.87224535813E-03 +1.02189877296E-03 -4.93979768863E-03 -3.54870828410E-01 -2.70095373725E-01
4.33500000000E+09 -3.82978683743E-01 -1.84611567554E-01 +1.40163180219E-03 -5.51840141913E-03 +1.30087514762E-03 -5.66166646419E-03 -3.67080950671E-01 -2.46690050589E-01
4.34000000000E+09 -3.90642294264E-01 -1.65584241060E-01 +1.01038212613E-03 -6.43903167734E-03 +8.53095113766E-04 -6.40255258684E-03 -3.78424733741E-01 -2.22502013813E-01
4.34500000000E+09 -3.96108664625E-01 -1.46158371040E-01 +2.79678683660E-04 -7.43517130407E-03 +1.29704580185E-04 -7.45824972247E-03 -3.87420956680E-01 -1.96923296587E-01
4.35000000000E+09 -4.00178721855E-01 -1.25546694172E-01 -1.50277785472E-03 -7.72673110722E-03 -1.65004186400E-03 -7.70366861995E-03 -3.95880428118E-01 -1.72938747365E-01
4.35500000000E+09 -4.03450001507E-01 -1.04025179257E-01 -2.97507395636E-03 -6.95623997934E-03 -3.07140215664E-03 -6.95711312322E-03 -4.04841811855E-01 -1.49789863106E-01
4.36000000000E+09 -4.06931392036E-01 -8.22432815177E-02 -3.05606420940E-03 -5.70500730754E-03 -3.15092780730E-03 -5.71067442737E-03 -4.13170441351E-01 -1.26303328791E-01
4.36500000000E+09 -4.12314113623E-01 -5.90645446583E-02 -3.42569845579E-03 -6.08822557336E-03 -3.62082863277E-03 -6.06575628546E-03 -4.19203664301E-01 -1.00988361287E-01
4.37000000000E+09 -4.17832589328E-01 -3.46199404845E-02 -3.89893731029E-03 -5.50150406623E-03 -4.03983111983E-03 -5.45939421117E-03 -4.23078350324E-01 -7.60055579349E-02
4.37500000000E+09 -4.22735646246E-01 -1.09443248673E-02 -4.16799064282E-03 -5.90347917176E-03 -4.32854242810E-03 -5.97704579686E-03 -4.24552018257E-01 -5.10271253922E-02
4.38000000000E+09 -4.27127203289E-01 +1.11671718166E-02 -5.58698201838E-03 -5.48678422986E-03 -5.75674583010E-03 -5.38841340073E-03 -4.28028043478E-01 -2.77860127844E-02
4.38500000000E+09 -4.30765709732E-01 +3.20257373758E-02 -6.51875938918E-03 -4.72226671799E-03 -6.69644766292E-03 -4.62740655097E-03 -4.31428430760E-01 -1.54367898286E-03
4.39000000000E+09 -4.33175210819E-01 +5.06849199915E-02 -6.67388594969E-03 -4.01853136320E-03 -6.76775655195E-03 -3.84714228506E-03 -4.32982154184E-01 +2.57398408586E-02
4.39500000000E+09 -4.34150372898E-01 +6.77825117154E-02 -7.71466659243E-03 -3.67736975228E-03 -7.83533421396E-03 -3.53084024005E-03 -4.31378242470E-01 +5.14269094232E-02
4.40000000000E+09 -4.34197570170E-01 +8.54838782476E-02 -8.64987820782E-03 -2.09023081548E-03 -8.67893985291E-03 -1.93528498277E-03 -4.28844117084E-01 +7.51927323102E-02
4.40500000000E+09 -4.32033406737E-01 +1.03781640479E-01 -8.77851029792E-03 -8.66993752632E-04 -8.74518347190E-03 -7.35382260385E-04 -4.26289281511E-01 +9.80522140927E-02
4.41000000000E+09 -4.28563236198E-01 +1.23346077099E-01 -8.37004610272E-03 +1.09598376464E-03 -8.32417478819E-03 +1.21507773371E-03 -4.24485735822E-01 +1.20412081904E-01
4.41500000000E+09 -4.24763370763E-01 +1.44748566089E-01 -7.59368936436E-03 +1.45578985805E-03 -7.56168587961E-03 +1.60934050244E-03 -4.21073845243E-01 +1.46528118452E-01
4.42000000000E+09 -4.19331029938E-01 +1.66992016795E-01 -7.30709921707E-03 +1.81980018795E-03 -7.24808203772E-03 +1.94670941988E-03 -4.14395016965E-01 +1.71385188609E-01
4.42500000000E+09 -4.15415030439E-01 +1.89020525256E-01 -7.29839666822E-03 +2.21924735258E-03 -7.13771102292E-03 +2.36332059363E-03 -4.07257359619E-01 +1.93005487570E-01
4.43000000000E+09 -4.12122889319E-01 +2.11475632727E-01 -7.71644721320E-03 +2.92226635098E-03 -7.59619760120E-03 +3.03204507354E-03 -4.03148979279E-01 +2.15374118689E-01
4.43500000000E+09 -4.09061723971E-01 +2.32547633256E-01 -7.61883175876E-03 +4.64580888912E-03 -7.47119008627E-03 +4.65189156689E-03 -3.97036521639E-01 +2.38947497956E-01
4.44000000000E+09 -4.06672510014E-01 +2.51267361073E-01 -6.48857538039E-03 +6.45989673956E-03 -6.36583403069E-03 +6.40270730002E-03 -3.88562157318E-01 +2.62078400797E-01
4.44500000000E+09 -4.04851309056E-01 +2.68448963547E-01 -4.53256507532E-03 +6.30741779397E-03 -4.48905674664E-03 +6.32460811110E-03 -3.77879668963E-01 +2.83168155635E-01
4.45000000000E+09 -4.01890246142E-01 +2.84631690710E-01 -3.94792542119E-03 +5.92718059618E-03 -3.86148268061E-03 +5.96929816082E-03 -3.67623888377E-01 +3.01843994811E-01
4.45500000000E+09 -3.96674178295E-01 +2.99756145017E-01 -4.20215637633E-03 +6.02296718017E-03 -4.09489485683E-03 +6.11288727154E-03 -3.58131317346E-01 +3.20047887976E-01
4.46000000000E+09 -3.89291164250E-01 +3.14088393492E-01 -3.50569036776E-03 +7.26606394049E-03 -3.34305299868E-03 +7.36878139068E-03 -3.49014973769E-01 +3.40484614974E-01
4.46500000000E+09 -3.79334939860E-01 +3.29298532711E-01 -2.43249740561E-03 +7.57417942447E-03 -2.19299817746E-03 +7.62787537589E-03 -3.36082840982E-01 +3.59493174513E-01
4.47000000000E+09 -3.67027424462E-01 +3.44116388745E-01 -1.14115735198E-03 +7.56418741561E-03 -8.86334610298E-04 +7.54395407156E-03 -3.23582005716E-01 +3.77129500084E-01
4.47500000000E+09 -3.55248790126E-01 +3.59453639925E-01 -5.51344312529E-04 +6.71229103037E-03 -3.53605718660E-04 +6.68220666144E-03 -3.11297240706E-01 +3.93641278337E-01
4.48000000000E+09 -3.43843389309E-01 +3.77408410936E-01 -9.07095514057E-04 +7.13901195050E-03 -6.58717890063E-04 +7.11572382447E-03 -3.00172344885E-01 +4.11187566591E-01
4.48500000000E+09 -3.32055216931E-01 +3.96428291344E-01 +1.34662797972E-04 +7.88353300704E-03 +4.01841043921E-04 +7.73162649077E-03 -2.87210221826E-01 +4.28393925007E-01
4.49000000000E+09 -3.21576101424E-01 +4.14359812294E-01 +1.64907046633E-03 +8.29703864640E-03 +1.82328841757E-03 +8.09865927234E-03 -2.73617402292E-01 +4.44596297077E-01
4.49500000000E+09 -3.12790108600E-01 +4.32022378066E-01 +3.06446248865E-03 +7.35193037713E-03 +3.11563755939E-03 +7.17807427037E-03 -2.58537422108E-01 +4.58391928753E-01
4.50000000000E+09 -3.04326083523E-01 +4.47398408733E-01 +3.64780996188E-03 +6.52152458386E-03 +3.71753516111E-03 +6.31366464037E-03 -2.44901111471E-01 +4.71236760380E-01
4.50500000000E+09 -2.97362918138E-01 +4.60689697104E-01 +4.25639823184E-03 +5.70295991507E-03 +4.28307103258E-03 +5.58418418900E-03 -2.31589676701E-01 +4.83556727743E-01
4.51000000000E+09 -2.89948145235E-01 +4.72134743893E-01 +3.99582318879E-03 +5.18310636304E-03 +4.03434319557E-03 +4.96198004615E-03 -2.19261246440E-01 +4.98057333294E-01
4.51500000000E+09 -2.81072449568E-01 +4.81305912572E-01 +4.38577374370E-03 +5.51134507640E-03 +4.42583248670E-03 +5.27634447502E-03 -2.04686037947E-01 +5.11477804423E-01
4.52000000000E+09 -2.71126608376E-01 +4.89358818346E-01 +5.57446856587E-03 +5.09461558804E-03 +5.57914211407E-03 +4.84433139127E-03 -1.90157027349E-01 +5.23933054206E-01
4.52500000000E+09 -2.59189363483E-01 +4.97736391011E-01 +5.90799523239E-03 +3.70044997386E-03 +5.88517898263E-03 +3.46294861770E-03 -1.75518810047E-01 +5.33912277935E-01
4.53000000000E+09 -2.45265205801E-01 +5.07114055297E-01 +6.07402271889E-03 +3.53847768906E-03 +5.95276002180E-03 +3.27092222969E-03 -1.61887472220E-01 +5.44591461154E-01
4.53500000000E+09 -2.28745489509E-01 +5.17211246192E-01 +6.41921528398E-03 +2.96079997010E-03 +6.29353255948E-03 +2.72050746958E-03 -1.46861870679E-01 +5.54833111127E-01
4.54000000000E+09 -2.11656736830E-01 +5.27383575734E-01 +6.86682687342E-03 +2.33901561093E-03 +6.68778714648E-03 +2.09806736496E-03 -1.30895478235E-01 +5.65915050064E-01
4.54500000000E+09 -1.95388627886E-01 +5.37991500785E-01 +7.40584285976E-03 +1.32651093253E-03 +7.22541162800E-03 +1.13403361301E-03 -1.13921671600E-01 +5.74042209517E-01
4.55000000000E+09 -1.80610361132E-01 +5.48702961229E-01 +7.40118976065E-03 +2.36028682261E-05 +7.20132192207E-03 -6.68533655835E-05 -9.83307382154E-02 +5.82465863616E-01
4.55500000000E+09 -1.68523539950E-01 +5.59468833685E-01 +6.88366956846E-03 -1.70343939490E-03 +6.61024726738E-03 -1.77412705034E-03 -8.39335537313E-02 +5.89940817797E-01
4.56000000000E+09 -1.57621408306E-01 +5.70595674777E-01 +5.22444715985E-03 -1.80025113049E-03 +5.05839309723E-03 -1.83534045215E-03 -7.04258578857E-02 +5.99013903101E-01
4.56500000000E+09 -1.47033793348E-01 +5.80759716036E-01 +4.99825823361E-03 -1.46591714889E-03 +4.78419988814E-03 -1.45778761214E-03 -5.46988012925E-02 +6.07071782084E-01
4.57000000000E+09 -1.36541884189E-01 +5.89145914494E-01 +5.27110441153E-03 -1.06649564068E-03 +5.05376866156E-03 -1.10922272288E-03 -3.89761416890E-02 +6.13321917038E-01
