# Hz S RI R 50
! CMT, C1220, 16058040, 17.2.0/1
! Date: 15/08/2018 11:35:24
! Data: Format (Calibration Info)
! Freq                      S11: Re/Im (F2)                       S21: Re/Im (F2)                       S12: Re/Im (F2)                       S22: Re/Im (F2)            
4.00000000000E+09 +6.67677663582E-01 -3.55015147602E-01 +4.36303464651E-04 -3.34082650319E-03 +5.24684634019E-04 -3.47365800585E-03 +7.75312162529E-01 -3.53857545562E-01
4.00500000000E+09 +6.59824961805E-01 -3.63294069237E-01 +3.12707102085E-05 -3.58352397620E-03 +1.66544243979E-04 -3.62895992338E-03 +7.66933935314E-01 -3.65188305677E-01
4.01000000000E+09 +6.51182835666E-01 -3.70639626430E-01 -5.05193502917E-04 -3.67274756948E-03 -3.26332479508E-04 -3.71555570318E-03 +7.58067143422E-01 -3.76550690706E-01
4.01500000000E+09 +6.41967027651E-01 -3.78183989537E-01 -1.11563382977E-03 -3.46905449782E-03 -9.75315462649E-04 -3.54606991988E-03 +7.48438460656E-01 -3.87278113110E-01
4.02000000000E+09 +6.31862894355E-01 -3.86764673859E-01 -1.31396140685E-03 -3.21558437307E-03 -1.12832076163E-03 -3.34675202784E-03 +7.38397813875E-01 -3.97765145576E-01
4.02500000000E+09 +6.20954214987E-01 -3.95908774734E-01 -1.43629950814E-03 -3.15648129062E-03 -1.36353540639E-03 -3.26449274894E-03 +7.28046428332E-01 -4.07870983260E-01
4.03000000000E+09 +6.09329348641E-01 -4.05516861879E-01 -1.81010853048E-03 -3.20902292088E-03 -1.78109741185E-03 -3.37658008596E-03 +7.17795585568E-01 -4.18520316557E-01
4.03500000000E+09 +5.97604502617E-01 -4.15120394183E-01 -2.32314209811E-03 -2.90710787708E-03 -2.31876991936E-03 -3.06043298761E-03 +7.06674369217E-01 -4.29636125928E-01
4.04000000000E+09 +5.86129092212E-01 -4.24874963726E-01 -2.32418967635E-03 -2.53192642616E-03 -2.29743487461E-03 -2.71852864761E-03 +6.95326617797E-01 -4.40763469207E-01
4.04500000000E+09 +5.74442615401E-01 -4.34474838166E-01 -2.67099390964E-03 -2.52089730515E-03 -2.61025524186E-03 -2.73077596195E-03 +6.83495553650E-01 -4.51593157778E-01
4.05000000000E+09 +5.62885135004E-01 -4.43118751018E-01 -2.92538759614E-03 -2.24172487117E-03 -2.95800224878E-03 -2.45695049101E-03 +6.71705328054E-01 -4.61407156239E-01
4.05500000000E+09 +5.51255514777E-01 -4.51260187687E-01 -2.95182458630E-03 -2.08419352028E-03 -2.98794793483E-03 -2.30374257932E-03 +6.59332199948E-01 -4.70985071970E-01
4.06000000000E+09 +5.38207358967E-01 -4.59013967977E-01 -3.53484894389E-03 -2.18443054090E-03 -3.66511303100E-03 -2.29668809495E-03 +6.46678425149E-01 -4.80378695489E-01
4.06500000000E+09 +5.24621124254E-01 -4.65119230219E-01 -4.10065065249E-03 -1.38138997540E-03 -4.22330180717E-03 -1.48046282493E-03 +6.33544607898E-01 -4.89231246512E-01
4.07000000000E+09 +5.10895489121E-01 -4.71808684362E-01 -3.86366993336E-03 -8.66956328638E-04 -3.98094947108E-03 -9.86951226574E-04 +6.19903950138E-01 -4.98815526894E-01
4.07500000000E+09 +4.95607296300E-01 -4.78924751318E-01 -4.02800923192E-03 -5.72137444264E-04 -4.08087932446E-03 -6.61459833651E-04 +6.06087461625E-01 -5.07933349772E-01
4.08000000000E+09 +4.79521400868E-01 -4.85477178929E-01 -4.04936315637E-03 -1.68284024358E-04 -4.12320331563E-03 -3.11140757682E-04 +5.92599651482E-01 -5.17335488668E-01
4.08500000000E+09 +4.63481965406E-01 -4.92584821700E-01 -3.96208555286E-03 +2.48415875143E-04 -4.15518070981E-03 +1.05252690025E-04 +5.78750331823E-01 -5.26895894013E-01
4.09000000000E+09 +4.46992450314E-01 -5.00254208025E-01 -4.07829165435E-03 +5.30577206506E-04 -4.29777109111E-03 +4.63589232741E-04 +5.64283524682E-01 -5.35697291767E-01
4.09500000000E+09 +4.30445157641E-01 -5.07084763846E-01 -4.14752626421E-03 +1.04565961392E-03 -4.34465680643E-03 +1.08048896846E-03 +5.48778472423E-01 -5.43489103136E-01
4.10000000000E+09 +4.15151012092E-01 -5.13832584711E-01 -3.61070698273E-03 +1.48600691923E-03 -3.76715478743E-03 +1.51814829608E-03 +5.32813586110E-01 -5.50394743213E-01
4.10500000000E+09 +3.98697814736E-01 -5.20337800944E-01 -3.72622187734E-03 +1.53481630631E-03 -3.84166821984E-03 +1.56069334899E-03 +5.16811133113E-01 -5.57332695003E-01
4.11000000000E+09 +3.82190187942E-01 -5.24455521704E-01 -3.79456781526E-03 +2.12463087637E-03 -3.96480172595E-03 +2.11311019131E-03 +4.99872107347E-01 -5.65061921372E-01
4.11500000000E+09 +3.66222030602E-01 -5.27299606927E-01 -3.45217539772E-03 +2.64644769319E-03 -3.65076387852E-03 +2.67084054851E-03 +4.82471752682E-01 -5.72612469125E-01
4.12000000000E+09 +3.49682230394E-01 -5.29508315953E-01 -3.11364982619E-03 +3.01869175658E-03 -3.30542461505E-03 +3.07954958148E-03 +4.64989567191E-01 -5.79273347539E-01
4.12500000000E+09 +3.33028823709E-01 -5.31278661128E-01 -2.74282801203E-03 +3.40475929037E-03 -2.83407601386E-03 +3.51301228557E-03 +4.47869551110E-01 -5.85130640424E-01
4.13000000000E+09 +3.15585324534E-01 -5.33837579543E-01 -2.01583566304E-03 +3.42148993941E-03 -2.11481897483E-03 +3.54556977912E-03 +4.30785477418E-01 -5.90884016588E-01
4.13500000000E+09 +2.96664035109E-01 -5.37272759615E-01 -1.69664078078E-03 +3.09901101742E-03 -1.77647227158E-03 +3.20171123519E-03 +4.12730440658E-01 -5.96445145410E-01
4.14000000000E+09 +2.76646677228E-01 -5.40506497599E-01 -1.90118554967E-03 +2.94099660964E-03 -1.97803608320E-03 +3.00063581730E-03 +3.92841202465E-01 -6.01700524434E-01
4.14500000000E+09 +2.56709696769E-01 -5.43542594788E-01 -2.23686419927E-03 +3.48647687506E-03 -2.36565246604E-03 +3.60207327594E-03 +3.72923147444E-01 -6.06111408064E-01
4.15000000000E+09 +2.37831269467E-01 -5.47673353918E-01 -1.57611497187E-03 +4.06775972183E-03 -1.58796173129E-03 +4.15918427086E-03 +3.53875321295E-01 -6.09862531957E-01
4.15500000000E+09 +2.18097400882E-01 -5.50568982903E-01 -1.29044839330E-03 +4.23054935129E-03 -1.34271892794E-03 +4.31470759033E-03 +3.34612650695E-01 -6.13833193311E-01
4.16000000000E+09 +2.00713159670E-01 -5.52526826369E-01 -7.19443924852E-04 +4.47788466801E-03 -6.92092678773E-04 +4.57823051127E-03 +3.15449117073E-01 -6.17147205809E-01
4.16500000000E+09 +1.83758668395E-01 -5.53939490742E-01 -1.95506618576E-04 +4.28973189614E-03 -2.41342889152E-04 +4.36173261520E-03 +2.94984715725E-01 -6.19306292381E-01
4.17000000000E+09 +1.66380933936E-01 -5.53763729777E-01 -3.23797234891E-04 +4.27957457411E-03 -3.70425694942E-04 +4.31278293147E-03 +2.74737336581E-01 -6.19858270238E-01
4.17500000000E+09 +1.48906619864E-01 -5.51108539722E-01 +1.70985369583E-04 +4.85719570581E-03 +5.52822423803E-05 +4.88910645710E-03 +2.54478485892E-01 -6.20594832888E-01
4.18000000000E+09 +1.31930836233E-01 -5.47108915129E-01 +1.13889045311E-03 +4.99602405744E-03 +1.00682717643E-03 +5.09797441243E-03 +2.33195130482E-01 -6.21533143029E-01
4.18500000000E+09 +1.13193253342E-01 -5.43525258097E-01 +1.49684179920E-03 +4.33376197821E-03 +1.40953571886E-03 +4.46202438819E-03 +2.10551095311E-01 -6.22062262559E-01
4.19000000000E+09 +9.32072664015E-02 -5.38070397205E-01 +1.52327802820E-03 +4.30638837074E-03 +1.47589414160E-03 +4.45435602245E-03 +1.87839742383E-01 -6.20895875857E-01
4.19500000000E+09 +7.30796510390E-02 -5.32944116567E-01 +1.76290053635E-03 +4.35729583761E-03 +1.76879885267E-03 +4.51139830905E-03 +1.65602747448E-01 -6.18659466205E-01
4.20000000000E+09 +5.20868676829E-02 -5.28493451965E-01 +2.24407823969E-03 +4.61465727061E-03 +2.10852470836E-03 +4.81209983849E-03 +1.44473358306E-01 -6.15993369181E-01
4.20500000000E+09 +3.08402354309E-02 -5.24249966195E-01 +3.16482616722E-03 +4.82400239721E-03 +3.21216688777E-03 +5.02004502700E-03 +1.21920916408E-01 -6.12817098977E-01
4.21000000000E+09 +1.01818706143E-02 -5.19400419661E-01 +4.19137492090E-03 +4.36586496166E-03 +4.24034136146E-03 +4.60286489288E-03 +9.88731800963E-02 -6.08810313400E-01
4.21500000000E+09 -8.73215100815E-03 -5.15355862266E-01 +4.53523140212E-03 +3.16750133170E-03 +4.64680840588E-03 +3.34957198466E-03 +7.57761466769E-02 -6.03711041872E-01
4.22000000000E+09 -2.76579011497E-02 -5.09922931464E-01 +4.42213937869E-03 +2.71758578668E-03 +4.56543234645E-03 +2.86068949104E-03 +5.36511963578E-02 -5.97667152383E-01
4.22500000000E+09 -4.47507949739E-02 -5.02945073897E-01 +4.63057415395E-03 +2.68459428373E-03 +4.66830402512E-03 +2.80770190590E-03 +3.20476558973E-02 -5.91476947365E-01
4.23000000000E+09 -6.14917562704E-02 -4.95017045379E-01 +5.21873745097E-03 +2.34204781432E-03 +5.30615329450E-03 +2.54901641284E-03 +1.12590653966E-02 -5.84437203482E-01
4.23500000000E+09 -7.87569209253E-02 -4.84649936756E-01 +5.35096637572E-03 +1.67087685838E-03 +5.52263172354E-03 +1.81094709698E-03 -1.07530813290E-02 -5.77100012680E-01
4.24000000000E+09 -9.54932121575E-02 -4.72530212890E-01 +5.48360530832E-03 +1.38648812256E-03 +5.67857877637E-03 +1.48776654475E-03 -3.30548831899E-02 -5.68128980375E-01
4.24500000000E+09 -1.12706701959E-01 -4.60336284311E-01 +5.60374733170E-03 +5.11535476837E-04 +5.75909073860E-03 +5.47662163021E-04 -5.52175294476E-02 -5.57282429950E-01
4.25000000000E+09 -1.32399534460E-01 -4.47459720271E-01 +5.51176756925E-03 +7.45553515021E-04 +5.72327841669E-03 +6.99574934030E-04 -7.61310986210E-02 -5.46674175036E-01
4.25500000000E+09 -1.52274946472E-01 -4.34391831328E-01 +6.16468100833E-03 +3.61478742171E-04 +6.36064373735E-03 +3.67481620671E-04 -9.66388011190E-02 -5.35115792177E-01
4.26000000000E+09 -1.72850277426E-01 -4.21710215643E-01 +7.10428283881E-03 -7.61365078449E-04 +7.27489759704E-03 -8.38568507697E-04 -1.17257915580E-01 -5.23218101568E-01
4.26500000000E+09 -1.93387045629E-01 -4.10112884326E-01 +6.44655736429E-03 -1.96157307113E-03 +6.62733304755E-03 -2.12143472623E-03 -1.37396516651E-01 -5.09808616799E-01
4.27000000000E+09 -2.12988855602E-01 -3.97612607041E-01 +6.19924084837E-03 -2.81193930767E-03 +6.26723914400E-03 -3.04679205112E-03 -1.58524020397E-01 -4.95774865334E-01
4.27500000000E+09 -2.30802631963E-01 -3.85899696482E-01 +5.41217220388E-03 -3.77269682840E-03 +5.45571967123E-03 -3.96170723452E-03 -1.78701593209E-01 -4.79537831102E-01
4.28000000000E+09 -2.47250214904E-01 -3.73572527705E-01 +4.47939013885E-03 -3.42077266437E-03 +4.53633187576E-03 -3.56257462809E-03 -1.97909642553E-01 -4.65293206084E-01
4.28500000000E+09 -2.61575468546E-01 -3.60127269251E-01 +5.00270041921E-03 -3.07238278220E-03 +4.97330189312E-03 -3.23664888511E-03 -2.19364741487E-01 -4.49675888614E-01
4.29000000000E+09 -2.74473571491E-01 -3.45436800009E-01 +5.55622916246E-03 -4.32215812823E-03 +5.58704093352E-03 -4.54807851215E-03 -2.38935686467E-01 -4.31691063160E-01
4.29500000000E+09 -2.86046352072E-01 -3.30051758551E-01 +4.39873477687E-03 -5.57628587909E-03 +4.37483986581E-03 -5.70897208050E-03 -2.55891549141E-01 -4.12272821856E-01
4.30000000000E+09 -2.98959113651E-01 -3.13459128576E-01 +4.10921254482E-03 -5.64236071618E-03 +4.06654523587E-03 -5.80821041394E-03 -2.71786334323E-01 -3.94171219599E-01
4.30500000000E+09 -3.12367919877E-01 -2.95049391115E-01 +3.20671984473E-03 -6.56519777716E-03 +3.14357264439E-03 -6.67468194591E-03 -2.87181586416E-01 -3.74771444699E-01
4.31000000000E+09 -3.25666748409E-01 -2.75211243305E-01 +2.41887897894E-03 -6.58814893766E-03 +2.40110251389E-03 -6.62697094676E-03 -3.02640230595E-01 -3.54625186338E-01
4.31500000000E+09 -3.38891234411E-01 -2.55357550737E-01 +2.04758880988E-03 -6.77179695728E-03 +1.98629396603E-03 -6.88445149177E-03 -3.17951996436E-01 -3.33516589207E-01
4.32000000000E+09 -3.50992675457E-01 -2.35540889526E-01 +1.04709820124E-03 -7.56492844471E-03 +9.54305665431E-04 -7.72310104266E-03 -3.31592917626E-01 -3.11192229385E-01
4.32500000000E+09 -3.61590333739E-01 -2.17706212107E-01 -9.62517835674E-04 -7.37100083291E-03 -1.09719352599E-03 -7.43542799155E-03 -3.43484100931E-01 -2.89205538204E-01
4.33000000000E+09 -3.72874132325E-01 -2.01503241130E-01 -7.82809660642E-04 -5.47470903565E-03 -8.96900552983E-04 -5.49599731600E-03 -3.54991741802E-01 -2.68848922362E-01
4.33500000000E+09 -3.83289962407E-01 -1.83691336702E-01 -2.90099130040E-05 -5.86963091545E-03 -9.26327569002E-05 -5.89020567985E-03 -3.67058708995E-01 -2.45605264438E-01
4.34000000000E+09 -3.91289408443E-01 -1.64805570530E-01 -2.76264847565E-04 -6.84946917694E-03 -3.23124038472E-04 -6.81164987954E-03 -3.78113715483E-01 -2.21336315221E-01
4.34500000000E+09 -3.96903802893E-01 -1.44789094127E-01 -1.04712009320E-03 -7.85172610735E-03 -1.09029433019E-03 -7.80839720072E-03 -3.87142239765E-01 -1.95949657592E-01
4.35000000000E+09 -4.00417367812E-01 -1.23730866365E-01 -3.01243968278E-03 -8.39683899710E-03 -3.03394057050E-03 -8.34229527334E-03 -3.95753566554E-01 -1.71937462329E-01
4.35500000000E+09 -4.03230710433E-01 -1.02500487302E-01 -4.81001359243E-03 -7.20988804002E-03 -4.86622344817E-03 -7.15997016070E-03 -4.04302989296E-01 -1.48662842261E-01
4.36000000000E+09 -4.06884662155E-01 -8.11494088190E-02 -4.73873720098E-03 -5.57761536695E-03 -4.81280759743E-03 -5.60580460365E-03 -4.12381268547E-01 -1.25413084577E-01
4.36500000000E+09 -4.12116876547E-01 -5.75501427251E-02 -5.02786385494E-03 -5.94947823137E-03 -5.12942754650E-03 -5.90871367678E-03 -4.18434502214E-01 -1.00456384519E-01
4.37000000000E+09 -4.17413592655E-01 -3.32909379716E-02 -5.65311275138E-03 -5.26876045741E-03 -5.72353607606E-03 -5.22922393390E-03 -4.22421186535E-01 -7.55556717566E-02
4.37500000000E+09 -4.22007400477E-01 -9.67213551398E-03 -5.97275124225E-03 -5.35762182872E-03 -6.11542991134E-03 -5.33971464548E-03 -4.24352430191E-01 -5.06173767178E-02
4.38000000000E+09 -4.26523538856E-01 +1.19274697529E-02 -7.06900698842E-03 -4.78431867973E-03 -7.19131347074E-03 -4.76831796800E-03 -4.27669373467E-01 -2.67338150067E-02
4.38500000000E+09 -4.30283179269E-01 +3.29013118738E-02 -8.03551681390E-03 -3.85410791037E-03 -8.20641048988E-03 -3.78965364752E-03 -4.30411719162E-01 -5.96906750950E-04
4.39000000000E+09 -4.32867991694E-01 +5.15467891364E-02 -8.02962134023E-03 -2.98007579488E-03 -8.20318910594E-03 -2.93804268578E-03 -4.31715146920E-01 +2.63156086156E-02
4.39500000000E+09 -4.33709489034E-01 +6.89646757309E-02 -9.07310749081E-03 -2.58738152279E-03 -9.20628269512E-03 -2.40169726316E-03 -4.30246289400E-01 +5.19929493223E-02
4.40000000000E+09 -4.33172120136E-01 +8.68620483999E-02 -1.00595311649E-02 -8.14181083493E-04 -1.00955603888E-02 -6.07679739878E-04 -4.27737696367E-01 +7.54929393508E-02
4.40500000000E+09 -4.30322060211E-01 +1.04594062819E-01 -9.89755319558E-03 +7.96789538219E-04 -9.97238098505E-03 +9.64010364454E-04 -4.25058402817E-01 +9.84292233116E-02
4.41000000000E+09 -4.27392393321E-01 +1.23289793985E-01 -9.03798913082E-03 +2.90670233603E-03 -9.09778321692E-03 +3.10152993056E-03 -4.22849125449E-01 +1.20525078006E-01
4.41500000000E+09 -4.23828667231E-01 +1.44754047839E-01 -8.08219524685E-03 +3.15980634717E-03 -8.04768859971E-03 +3.28707322651E-03 -4.19698012574E-01 +1.46032095976E-01
4.42000000000E+09 -4.18936128393E-01 +1.67008916387E-01 -7.72234455556E-03 +3.52173525791E-03 -7.68213710247E-03 +3.68374808901E-03 -4.13324947612E-01 +1.70734018752E-01
4.42500000000E+09 -4.14863889135E-01 +1.89800419180E-01 -7.55912216478E-03 +3.94605855820E-03 -7.46453102512E-03 +4.13566593808E-03 -4.06451603483E-01 +1.92771008240E-01
4.43000000000E+09 -4.11039647659E-01 +2.12070653165E-01 -7.72019245659E-03 +4.81858593803E-03 -7.57150895628E-03 +4.88986267080E-03 -4.01898289538E-01 +2.15039628167E-01
4.43500000000E+09 -4.07840202546E-01 +2.32776469589E-01 -7.38167719662E-03 +6.43915862061E-03 -7.16773449636E-03 +6.53592123947E-03 -3.95683238845E-01 +2.38126841253E-01
4.44000000000E+09 -4.05523306956E-01 +2.51138789005E-01 -5.93550569677E-03 +8.21179062075E-03 -5.73554983080E-03 +8.21364147596E-03 -3.87399196034E-01 +2.60902050824E-01
4.44500000000E+09 -4.03937033117E-01 +2.68214281480E-01 -3.87694145562E-03 +7.73925058886E-03 -3.71684748982E-03 +7.71894061745E-03 -3.77031684976E-01 +2.81737099259E-01
4.45000000000E+09 -4.01160816776E-01 +2.84527329653E-01 -3.33578454622E-03 +7.17276907204E-03 -3.21308374356E-03 +7.26538758251E-03 -3.67252684772E-01 +3.00371125237E-01
4.45500000000E+09 -3.95782023980E-01 +2.99977624207E-01 -3.60076723487E-03 +7.44092509708E-03 -3.46784123153E-03 +7.53309504592E-03 -3.57912623200E-01 +3.18854294179E-01
4.46000000000E+09 -3.88169343279E-01 +3.13753202569E-01 -2.69662924109E-03 +8.68217651640E-03 -2.50028361170E-03 +8.75791209234E-03 -3.49007284278E-01 +3.39131658151E-01
4.46500000000E+09 -3.78410049404E-01 +3.28819968801E-01 -1.28677262515E-03 +8.92420190585E-03 -1.03140841494E-03 +8.92180229308E-03 -3.36182863995E-01 +3.58144784277E-01
4.47000000000E+09 -3.66403310129E-01 +3.43643164585E-01 +2.29038251386E-04 +8.59173081943E-03 +5.26068209627E-04 +8.55727956924E-03 -3.24207418624E-01 +3.75940929852E-01
4.47500000000E+09 -3.54689970274E-01 +3.59168485297E-01 +5.71508996119E-04 +7.56732557544E-03 +8.49603594269E-04 +7.46950927602E-03 -3.11956486233E-01 +3.92826392090E-01
4.48000000000E+09 -3.43193349820E-01 +3.77268513328E-01 +3.75640205328E-04 +7.92828191997E-03 +7.06012109918E-04 +7.79439814316E-03 -3.00622543079E-01 +4.10387898187E-01
4.48500000000E+09 -3.31080933996E-01 +3.95925906191E-01 +1.38481668239E-03 +8.58977482619E-03 +1.59754150005E-03 +8.34888774657E-03 -2.87781992322E-01 +4.27545865188E-01
4.49000000000E+09 -3.20960073538E-01 +4.13533792897E-01 +3.05873003809E-03 +9.00876230976E-03 +3.18556855655E-03 +8.60574378160E-03 -2.74334116038E-01 +4.43798803554E-01
4.49500000000E+09 -3.12387755685E-01 +4.31004989387E-01 +4.47524928219E-03 +7.83816270938E-03 +4.47683481526E-03 +7.48430993239E-03 -2.59467858232E-01 +4.57674680102E-01
4.50000000000E+09 -3.04360070218E-01 +4.46532534824E-01 +5.02683570616E-03 +6.96570140609E-03 +5.01738366913E-03 +6.74606658064E-03 -2.45990291775E-01 +4.71084810799E-01
4.50500000000E+09 -2.97494520021E-01 +4.60399714395E-01 +5.70163226608E-03 +6.18015844704E-03 +5.64650982268E-03 +5.94268656180E-03 -2.32124968444E-01 +4.83840332829E-01
4.51000000000E+09 -2.89652841968E-01 +4.72064359483E-01 +5.83743360378E-03 +5.61971328690E-03 +5.79400613449E-03 +5.39403246077E-03 -2.19359411766E-01 +4.97602215226E-01
4.51500000000E+09 -2.80400965584E-01 +4.80931930608E-01 +6.50579055059E-03 +5.43206388485E-03 +6.42853780652E-03 +5.20564097823E-03 -2.05188868094E-01 +5.10827669291E-01
4.52000000000E+09 -2.70548165500E-01 +4.88702761440E-01 +7.58205652919E-03 +4.42175730500E-03 +7.48883926714E-03 +4.20933899212E-03 -1.91036405533E-01 +5.23428448943E-01
4.52500000000E+09 -2.59206903566E-01 +4.96962039073E-01 +7.53159820552E-03 +2.78378075711E-03 +7.43412675938E-03 +2.59814338250E-03 -1.76259749627E-01 +5.33664499129E-01
4.53000000000E+09 -2.45307039040E-01 +5.06684652654E-01 +7.35406077816E-03 +2.65366200459E-03 +7.25229247068E-03 +2.44652910311E-03 -1.62700227479E-01 +5.44308462909E-01
4.53500000000E+09 -2.28806751312E-01 +5.16832533248E-01 +7.75098897599E-03 +2.06750393663E-03 +7.62817154918E-03 +1.89178766815E-03 -1.47687011016E-01 +5.54508670926E-01
4.54000000000E+09 -2.11785649611E-01 +5.27081789693E-01 +8.21531082971E-03 +1.29559424169E-03 +7.95767515986E-03 +1.10895133174E-03 -1.31991504830E-01 +5.65593434128E-01
4.54500000000E+09 -1.95131944467E-01 +5.37716588530E-01 +8.63618014687E-03 +1.16015226979E-04 +8.37644498102E-03 -6.54869075164E-05 -1.15204378986E-01 +5.74311376594E-01
4.55000000000E+09 -1.80550157213E-01 +5.48292931482E-01 +8.50280118319E-03 -1.35303742008E-03 +8.24960159299E-03 -1.44455105587E-03 -9.94422338704E-02 +5.82974722926E-01
4.55500000000E+09 -1.68462966025E-01 +5.58953768109E-01 +7.61560324725E-03 -3.21907302652E-03 +7.43558438147E-03 -3.23098340994E-03 -8.47119808615E-02 +5.90490240524E-01
4.56000000000E+09 -1.57487953462E-01 +5.70064658527E-01 +5.80330391987E-03 -3.31511743375E-03 +5.59823499578E-03 -3.34121002680E-03 -7.11379552737E-02 +5.99504640026E-01
4.56500000000E+09 -1.46989735356E-01 +5.80150871061E-01 +5.51733148220E-03 -2.87794623206E-03 +5.35428277718E-03 -2.90589297096E-03 -5.55804150196E-02 +6.07738366889E-01
4.57000000000E+09 -1.36701863073E-01 +5.88651225781E-01 +5.59465511046E-03 -2.84385476563E-03 +5.33792573557E-03 -2.92085972480E-03 -3.97261749175E-02 +6.14345284786E-01
