# Hz S RI R 50
! CMT, C1220, 16058040, 17.2.0/1
! Date: 15/08/2018 11:33:29
! Data: Format (Calibration Info)
! Freq                      S11: Re/Im (F2)                       S21: Re/Im (F2)                       S12: Re/Im (F2)                       S22: Re/Im (F2)            
4.00000000000E+09 +6.66718352889E-01 -3.55273248086E-01 +5.89069841462E-04 -3.14513674680E-03 +7.72471227793E-04 -3.22952628845E-03 +7.75043922024E-01 -3.54675164910E-01
4.00500000000E+09 +6.58723556492E-01 -3.63247162689E-01 +2.60405899111E-04 -3.41328213998E-03 +3.43472640929E-04 -3.45156233885E-03 +7.66583809385E-01 -3.65984530439E-01
4.01000000000E+09 +6.50259726850E-01 -3.70502703609E-01 -3.59449576149E-04 -3.57683214133E-03 -2.43867746939E-04 -3.61958242125E-03 +7.57771409176E-01 -3.77324716903E-01
4.01500000000E+09 +6.41251812467E-01 -3.77891228876E-01 -9.54804637110E-04 -3.27748671383E-03 -8.71119286206E-04 -3.37225439420E-03 +7.48089681405E-01 -3.88006230297E-01
4.02000000000E+09 +6.31465198946E-01 -3.86563747698E-01 -1.09232240558E-03 -3.02737105268E-03 -1.00832085049E-03 -3.06388410545E-03 +7.38081750453E-01 -3.98517820688E-01
4.02500000000E+09 +6.20570707481E-01 -3.96007939083E-01 -1.04505775948E-03 -3.03079322624E-03 -9.38164199801E-04 -3.08949822511E-03 +7.27756635600E-01 -4.08554022391E-01
4.03000000000E+09 +6.08786150720E-01 -4.05980828516E-01 -1.49248247807E-03 -3.22348435735E-03 -1.34706839292E-03 -3.28250208077E-03 +7.17552283410E-01 -4.19261415724E-01
4.03500000000E+09 +5.96733820777E-01 -4.15458612518E-01 -2.00361351238E-03 -2.99815806179E-03 -1.96837020560E-03 -3.16229022674E-03 +7.06399604202E-01 -4.30458461098E-01
4.04000000000E+09 +5.85324630877E-01 -4.25127862634E-01 -2.22899101394E-03 -2.65795229761E-03 -2.18878465126E-03 -2.83564900843E-03 +6.94793346261E-01 -4.41435783520E-01
4.04500000000E+09 +5.73789266024E-01 -4.34547600468E-01 -2.53976286107E-03 -2.49938460331E-03 -2.50808732705E-03 -2.70052301618E-03 +6.82892156860E-01 -4.52143531018E-01
4.05000000000E+09 +5.62505193398E-01 -4.43401715485E-01 -2.70583276645E-03 -2.20751808992E-03 -2.71656766092E-03 -2.46046721703E-03 +6.71203784097E-01 -4.61956916389E-01
4.05500000000E+09 +5.50608826432E-01 -4.51824430894E-01 -2.67329672660E-03 -2.12901780423E-03 -2.70139234073E-03 -2.37907843854E-03 +6.58725513881E-01 -4.71565576524E-01
4.06000000000E+09 +5.37471025445E-01 -4.59660994857E-01 -3.35496728060E-03 -2.21428971122E-03 -3.41129945889E-03 -2.45915046787E-03 +6.46239935945E-01 -4.80955027829E-01
4.06500000000E+09 +5.23749466431E-01 -4.65670274900E-01 -3.92683573240E-03 -1.36861350757E-03 -4.01318658534E-03 -1.54381259509E-03 +6.32766383699E-01 -4.89941811771E-01
4.07000000000E+09 +5.10173324568E-01 -4.72204917441E-01 -3.64791316870E-03 -9.72551289289E-04 -3.70306925207E-03 -1.04979013442E-03 +6.19195991294E-01 -4.99181533424E-01
4.07500000000E+09 +4.94959398134E-01 -4.79378942532E-01 -3.73108126552E-03 -7.25805132516E-04 -3.79947349587E-03 -8.68981544058E-04 +6.05456692649E-01 -5.08190899851E-01
4.08000000000E+09 +4.78906874816E-01 -4.86075186372E-01 -3.83764570109E-03 -4.08377566672E-04 -3.88576859047E-03 -5.62744946501E-04 +5.92034445096E-01 -5.17621886219E-01
4.08500000000E+09 +4.62701710823E-01 -4.93351850154E-01 -3.87141020573E-03 -4.43189791131E-05 -3.99546398503E-03 -2.59291438343E-04 +5.78146723808E-01 -5.27082006537E-01
4.09000000000E+09 +4.46136363141E-01 -5.00728489954E-01 -4.13687517214E-03 +3.11101928781E-04 -4.30069352180E-03 +1.82691600188E-04 +5.63607396714E-01 -5.36003550946E-01
4.09500000000E+09 +4.29756093903E-01 -5.07543340655E-01 -4.14560340371E-03 +9.89461510863E-04 -4.33039744067E-03 +9.73079192736E-04 +5.48162067975E-01 -5.43582896193E-01
4.10000000000E+09 +4.14596276326E-01 -5.14315625501E-01 -3.48248757996E-03 +1.33426711133E-03 -3.58896061615E-03 +1.36636628738E-03 +5.32456823973E-01 -5.50507524768E-01
4.10500000000E+09 +3.98299167699E-01 -5.21082645587E-01 -3.50348672747E-03 +1.25974999240E-03 -3.65189944326E-03 +1.23553608210E-03 +5.16361606289E-01 -5.57500573101E-01
4.11000000000E+09 +3.81374086718E-01 -5.25242727667E-01 -3.73623032811E-03 +1.72013125462E-03 -3.86109002750E-03 +1.67667064206E-03 +4.99537262106E-01 -5.65280073836E-01
4.11500000000E+09 +3.65689606825E-01 -5.27986463985E-01 -3.64787357867E-03 +2.19266436740E-03 -3.78371139555E-03 +2.17541182497E-03 +4.81816239839E-01 -5.72857496119E-01
4.12000000000E+09 +3.49233431476E-01 -5.30331415402E-01 -3.40022785298E-03 +2.74679961193E-03 -3.48904203974E-03 +2.76284906735E-03 +4.64362211237E-01 -5.79429290581E-01
4.12500000000E+09 +3.32521972361E-01 -5.31992490314E-01 -2.99695349546E-03 +3.25399966423E-03 -3.09209976221E-03 +3.27512857585E-03 +4.47402253541E-01 -5.85285495999E-01
4.13000000000E+09 +3.15250804837E-01 -5.34892784224E-01 -2.12348946436E-03 +3.28699747292E-03 -2.20984987111E-03 +3.34008946670E-03 +4.30240280513E-01 -5.90825156372E-01
4.13500000000E+09 +2.95978029689E-01 -5.38601557407E-01 -1.82272722853E-03 +2.92097371718E-03 -1.91867762467E-03 +2.90195304391E-03 +4.12237819581E-01 -5.96330561256E-01
4.14000000000E+09 +2.75391782416E-01 -5.41785766302E-01 -2.17941962708E-03 +2.86056267929E-03 -2.29560684770E-03 +2.85168214398E-03 +3.92453685658E-01 -6.01504241450E-01
4.14500000000E+09 +2.55518902022E-01 -5.44540755107E-01 -2.38840169196E-03 +3.58893031250E-03 -2.59634025073E-03 +3.60725579038E-03 +3.72738824606E-01 -6.05817327193E-01
4.15000000000E+09 +2.36749642823E-01 -5.48710426771E-01 -1.56351797314E-03 +4.01642727733E-03 -1.70490121807E-03 +4.15799181555E-03 +3.53822042450E-01 -6.09834875542E-01
4.15500000000E+09 +2.17081067632E-01 -5.51915768076E-01 -1.28932299595E-03 +4.06416483672E-03 -1.39053166104E-03 +4.14827516058E-03 +3.34628680455E-01 -6.14025002722E-01
4.16000000000E+09 +1.99279338591E-01 -5.54053598844E-01 -8.47376829105E-04 +4.22753412185E-03 -8.66613276542E-04 +4.32523574829E-03 +3.15210309963E-01 -6.17272019084E-01
4.16500000000E+09 +1.81711123130E-01 -5.55212136463E-01 -4.23768987734E-04 +4.20848489660E-03 -5.04188396591E-04 +4.22205288056E-03 +2.94944235316E-01 -6.19257148942E-01
4.17000000000E+09 +1.64082072733E-01 -5.54661353819E-01 -4.85590065245E-04 +4.33556198593E-03 -6.38444347103E-04 +4.35022147985E-03 +2.74714021378E-01 -6.20029518861E-01
4.17500000000E+09 +1.46703759305E-01 -5.51642446134E-01 +1.75600190592E-04 +4.92574512905E-03 +6.53954351221E-05 +5.09149610903E-03 +2.54405697569E-01 -6.20543513047E-01
4.18000000000E+09 +1.29929705069E-01 -5.47604025993E-01 +1.36382325817E-03 +4.74802440862E-03 +1.26974205798E-03 +4.96157312903E-03 +2.33196909277E-01 -6.21798661519E-01
4.18500000000E+09 +1.10992806812E-01 -5.43798481584E-01 +1.40273611962E-03 +3.87907949799E-03 +1.36054894282E-03 +4.02658323428E-03 +2.10409356870E-01 -6.22246282435E-01
4.19000000000E+09 +9.09356423558E-02 -5.38230930318E-01 +1.10570512141E-03 +4.00268091289E-03 +1.11784638332E-03 +4.04660594338E-03 +1.87681508966E-01 -6.21090251134E-01
4.19500000000E+09 +7.07978846807E-02 -5.32972714836E-01 +1.27246634358E-03 +4.41832544700E-03 +1.28503613515E-03 +4.50206002749E-03 +1.65689436413E-01 -6.18644732019E-01
4.20000000000E+09 +4.97354954605E-02 -5.28467976024E-01 +1.83988191604E-03 +4.70215059686E-03 +1.81831728219E-03 +4.89548024481E-03 +1.44323037192E-01 -6.16230849610E-01
4.20500000000E+09 +2.85362722871E-02 -5.23940914968E-01 +3.06895853093E-03 +4.94948457762E-03 +3.08545670959E-03 +5.18429854248E-03 +1.21946479461E-01 -6.13052685176E-01
4.21000000000E+09 +8.21135341047E-03 -5.19115891599E-01 +4.14559015130E-03 +4.25744050550E-03 +4.24576536864E-03 +4.49868030880E-03 +9.86432713543E-02 -6.09279084491E-01
4.21500000000E+09 -1.12130384569E-02 -5.15135973267E-01 +4.13642161522E-03 +3.07320839306E-03 +4.25531993031E-03 +3.18359061736E-03 +7.54776734451E-02 -6.03885142303E-01
4.22000000000E+09 -3.00150016474E-02 -5.09085802020E-01 +4.09958043512E-03 +2.93156516622E-03 +4.15392748462E-03 +3.06077110746E-03 +5.35095275445E-02 -5.97515944361E-01
4.22500000000E+09 -4.69566650441E-02 -5.01970445444E-01 +4.43871510293E-03 +2.85991497176E-03 +4.54178766912E-03 +3.03228479547E-03 +3.22284399586E-02 -5.91388674787E-01
4.23000000000E+09 -6.32344432684E-02 -4.93981899478E-01 +5.17942993440E-03 +2.31857541834E-03 +5.31590511337E-03 +2.47175577382E-03 +1.15445542123E-02 -5.84680235376E-01
4.23500000000E+09 -8.03374797061E-02 -4.83890120209E-01 +5.13735053203E-03 +1.57590948985E-03 +5.39584098020E-03 +1.67410987512E-03 -1.05788132151E-02 -5.77621522575E-01
4.24000000000E+09 -9.75877900831E-02 -4.72062773295E-01 +5.11127157023E-03 +1.21092015859E-03 +5.27231160765E-03 +1.25965386238E-03 -3.30969445498E-02 -5.68451545108E-01
4.24500000000E+09 -1.15391479813E-01 -4.59533779590E-01 +5.00264879120E-03 +8.12053365860E-04 +5.22808715934E-03 +8.14778871308E-04 -5.50527551276E-02 -5.57527317041E-01
4.25000000000E+09 -1.35096027619E-01 -4.46057918879E-01 +5.29461221652E-03 +1.08885360263E-03 +5.45124684070E-03 +1.07742312897E-03 -7.59583004247E-02 -5.46841903658E-01
4.25500000000E+09 -1.54793675454E-01 -4.32522636910E-01 +6.09553916539E-03 +5.68767454847E-04 +6.28264570121E-03 +5.36703135754E-04 -9.62260837344E-02 -5.35636374898E-01
4.26000000000E+09 -1.74972610720E-01 -4.19795989855E-01 +6.97713126380E-03 -6.76149325265E-04 +7.17385488523E-03 -7.41242565981E-04 -1.17049725098E-01 -5.24059079083E-01
4.26500000000E+09 -1.95614633060E-01 -4.08317935652E-01 +6.18443382882E-03 -1.96707945094E-03 +6.32787302408E-03 -2.09630770553E-03 -1.37406807366E-01 -5.10541340335E-01
4.27000000000E+09 -2.15569326205E-01 -3.95677635377E-01 +5.65281827067E-03 -2.56750017921E-03 +5.74520667582E-03 -2.78468238874E-03 -1.58634797206E-01 -4.96360910845E-01
4.27500000000E+09 -2.33348599357E-01 -3.83666556053E-01 +5.09716059097E-03 -3.22948725747E-03 +5.08874553356E-03 -3.39920713769E-03 -1.78781964977E-01 -4.80273555972E-01
4.28000000000E+09 -2.49832039641E-01 -3.70641227529E-01 +4.54788698450E-03 -2.91328981562E-03 +4.47046858652E-03 -3.06137964797E-03 -1.98052516221E-01 -4.66008366569E-01
4.28500000000E+09 -2.63674684735E-01 -3.56891634437E-01 +5.06328283835E-03 -2.85956063261E-03 +5.04151908229E-03 -2.98688624265E-03 -2.19643497708E-01 -4.50519107792E-01
4.29000000000E+09 -2.76078623861E-01 -3.42248418421E-01 +5.39292615157E-03 -4.12834892643E-03 +5.37448212925E-03 -4.28821214638E-03 -2.39396253244E-01 -4.32453010820E-01
4.29500000000E+09 -2.87549944431E-01 -3.27052648768E-01 +4.14955730422E-03 -5.00347720350E-03 +4.10144369433E-03 -5.16554703941E-03 -2.56503285090E-01 -4.12945281141E-01
4.30000000000E+09 -3.00293562567E-01 -3.10191975778E-01 +4.21229406960E-03 -4.97040005838E-03 +4.08891855434E-03 -5.10583424674E-03 -2.72325220339E-01 -3.94590231985E-01
4.30500000000E+09 -3.13415607285E-01 -2.91687906626E-01 +3.52465061164E-03 -5.90385429989E-03 +3.47022822093E-03 -6.02277597846E-03 -2.87801687472E-01 -3.75105092705E-01
4.31000000000E+09 -3.26550283559E-01 -2.71756781637E-01 +2.82795464422E-03 -6.33669823830E-03 +2.79544384527E-03 -6.41930652978E-03 -3.03197843661E-01 -3.54887955683E-01
4.31500000000E+09 -3.39483691539E-01 -2.51854002908E-01 +2.14469003553E-03 -6.71260950625E-03 +2.05273097339E-03 -6.76031067285E-03 -3.18503949579E-01 -3.33588069730E-01
4.32000000000E+09 -3.51343052925E-01 -2.31963041218E-01 +9.36830134677E-04 -7.23317120091E-03 +8.74896557133E-04 -7.33105432280E-03 -3.31722879505E-01 -3.11472522386E-01
4.32500000000E+09 -3.61705141127E-01 -2.14250990518E-01 -8.56924384019E-04 -6.63450750452E-03 -8.90869158648E-04 -6.69112357244E-03 -3.43692384418E-01 -2.89831762116E-01
4.33000000000E+09 -3.72824114950E-01 -1.97650728292E-01 -2.05897587660E-04 -5.07295367433E-03 -2.44658761291E-04 -5.08034618716E-03 -3.55574312295E-01 -2.69484534694E-01
4.33500000000E+09 -3.82556887076E-01 -1.79859500988E-01 +5.18492774400E-04 -5.71713950487E-03 +4.75073727261E-04 -5.71375175508E-03 -3.67882424714E-01 -2.46128921792E-01
4.34000000000E+09 -3.90139659983E-01 -1.61129731656E-01 +1.99177770547E-04 -6.78297133980E-03 +2.39113969510E-04 -6.80058225671E-03 -3.78986392015E-01 -2.21376084969E-01
4.34500000000E+09 -3.95537149672E-01 -1.41591888080E-01 -7.96660543507E-04 -7.76612812040E-03 -8.22814574619E-04 -7.81319662983E-03 -3.87560155042E-01 -1.95812400492E-01
4.35000000000E+09 -3.99057655082E-01 -1.20641889008E-01 -2.81266851796E-03 -8.03356299084E-03 -2.86865694096E-03 -8.12805334900E-03 -3.95998125293E-01 -1.72131456244E-01
4.35500000000E+09 -4.01819661280E-01 -9.93332349567E-02 -4.25366327305E-03 -6.83714642514E-03 -4.29603701599E-03 -6.87791763600E-03 -4.04950083107E-01 -1.48983495373E-01
4.36000000000E+09 -4.05036102972E-01 -7.75651308446E-02 -4.17204464134E-03 -5.61496369449E-03 -4.17098039700E-03 -5.66612574327E-03 -4.13111353110E-01 -1.25539211059E-01
4.36500000000E+09 -4.09656180935E-01 -5.42004932210E-02 -4.52975071595E-03 -5.90106474560E-03 -4.59023046817E-03 -5.97529582187E-03 -4.19167264972E-01 -1.00440583139E-01
4.37000000000E+09 -4.14413879114E-01 -3.03026876871E-02 -5.26250019858E-03 -5.33395820328E-03 -5.41380526248E-03 -5.37047718131E-03 -4.23078080143E-01 -7.53235448245E-02
4.37500000000E+09 -4.18860239816E-01 -7.41781418334E-03 -5.59889394788E-03 -5.09208690860E-03 -5.75312749995E-03 -5.17423310928E-03 -4.24756706889E-01 -5.02999712346E-02
4.38000000000E+09 -4.23549990806E-01 +1.41621567051E-02 -6.30002620729E-03 -4.59356291744E-03 -6.48228689825E-03 -4.62527039528E-03 -4.28164613373E-01 -2.65294851003E-02
4.38500000000E+09 -4.27307945842E-01 +3.47423324818E-02 -7.17616174911E-03 -4.09883618864E-03 -7.37219007904E-03 -4.06311902713E-03 -4.30834327572E-01 -2.82901147313E-04
4.39000000000E+09 -4.29636489328E-01 +5.36346292369E-02 -7.40429562813E-03 -3.55706938413E-03 -7.62157034947E-03 -3.42766407087E-03 -4.32075673532E-01 +2.66638191606E-02
4.39500000000E+09 -4.30001882738E-01 +7.09589930845E-02 -8.74250535962E-03 -3.02194863743E-03 -8.94325200856E-03 -2.88498031152E-03 -4.30346893444E-01 +5.23252165686E-02
4.40000000000E+09 -4.29112649870E-01 +8.79397119422E-02 -9.62691121977E-03 -1.04250870876E-03 -9.75789584022E-03 -8.31413002379E-04 -4.27702007002E-01 +7.55796242796E-02
4.40500000000E+09 -4.26656901860E-01 +1.05175409389E-01 -9.35431297054E-03 +3.67547719923E-04 -9.40516939500E-03 +6.36910635531E-04 -4.25437088684E-01 +9.85207365376E-02
4.41000000000E+09 -4.23871378911E-01 +1.23769448812E-01 -8.56750792798E-03 +2.18695119285E-03 -8.60286119723E-03 +2.34867113271E-03 -4.23197745463E-01 +1.21062393350E-01
4.41500000000E+09 -4.20402291841E-01 +1.45058529055E-01 -7.78097014912E-03 +2.35138019315E-03 -7.80109026953E-03 +2.54704567423E-03 -4.19698731345E-01 +1.46408644514E-01
4.42000000000E+09 -4.15468635489E-01 +1.67400238828E-01 -7.69960148423E-03 +2.69559020418E-03 -7.65900897824E-03 +2.91803973577E-03 -4.13308890116E-01 +1.71146910120E-01
4.42500000000E+09 -4.11296899626E-01 +1.89620153736E-01 -7.58054955900E-03 +3.45822597977E-03 -7.47580451637E-03 +3.67014575057E-03 -4.06114021346E-01 +1.92982269458E-01
4.43000000000E+09 -4.07844577760E-01 +2.11575549016E-01 -7.59289022875E-03 +4.20131346025E-03 -7.40981689875E-03 +4.30752074777E-03 -4.01734648579E-01 +2.15095422189E-01
4.43500000000E+09 -4.04922293949E-01 +2.32376331481E-01 -7.25331466248E-03 +5.65895489813E-03 -7.03801519996E-03 +5.71151404772E-03 -3.95508967569E-01 +2.38150567464E-01
4.44000000000E+09 -4.02624328601E-01 +2.50870928167E-01 -6.12892745007E-03 +7.20914207878E-03 -5.97625093549E-03 +7.23847236697E-03 -3.87232436427E-01 +2.60907889430E-01
4.44500000000E+09 -4.00764777948E-01 +2.67752095632E-01 -4.35494875387E-03 +7.03946825110E-03 -4.20549627049E-03 +7.08798301731E-03 -3.77027918957E-01 +2.81698472293E-01
4.45000000000E+09 -3.98023574047E-01 +2.83680305387E-01 -3.78842816762E-03 +6.80508629094E-03 -3.59748307389E-03 +6.90637944576E-03 -3.67151406241E-01 +3.00436090423E-01
4.45500000000E+09 -3.92751404191E-01 +2.98399794432E-01 -3.98913236287E-03 +7.00432365776E-03 -3.79957127534E-03 +7.10816482051E-03 -3.57543241012E-01 +3.18680312354E-01
4.46000000000E+09 -3.85739435873E-01 +3.12393910838E-01 -3.12882492609E-03 +8.15876320461E-03 -2.86131655187E-03 +8.19054930062E-03 -3.49009022738E-01 +3.38824700999E-01
4.46500000000E+09 -3.76073604160E-01 +3.27547200334E-01 -1.91120995483E-03 +8.51247266422E-03 -1.60371701775E-03 +8.54787784844E-03 -3.36176999154E-01 +3.58117188011E-01
4.47000000000E+09 -3.63788379661E-01 +3.42480219307E-01 -5.03260511690E-04 +8.38892819560E-03 -2.13873000290E-04 +8.24106212342E-03 -3.23974007382E-01 +3.75919870122E-01
4.47500000000E+09 -3.51693092726E-01 +3.57891869069E-01 +2.84808033349E-05 +7.68235415439E-03 +2.84501533568E-04 +7.51012587152E-03 -3.11759381970E-01 +3.92602924911E-01
4.48000000000E+09 -3.40245729931E-01 +3.74888527304E-01 +8.37016809576E-06 +8.08707114674E-03 +2.87528858994E-04 +7.87756338059E-03 -3.00569908931E-01 +4.10206577204E-01
4.48500000000E+09 -3.28992783405E-01 +3.93401062877E-01 +1.26927717188E-03 +8.51612519640E-03 +1.43246936409E-03 +8.25074471703E-03 -2.87728652701E-01 +4.27305639198E-01
4.49000000000E+09 -3.19406209597E-01 +4.11259039471E-01 +2.59328911167E-03 +8.62459691033E-03 +2.71355824600E-03 +8.32106633348E-03 -2.74422780093E-01 +4.43750312173E-01
4.49500000000E+09 -3.11014314533E-01 +4.29185469101E-01 +3.83797569143E-03 +7.73481785484E-03 +3.89777735819E-03 +7.46049748816E-03 -2.59381123942E-01 +4.57751537778E-01
4.50000000000E+09 -3.03015250021E-01 +4.44925720158E-01 +4.42133704067E-03 +7.06713707954E-03 +4.33066323459E-03 +6.85087981879E-03 -2.45724258530E-01 +4.70953405357E-01
4.50500000000E+09 -2.95844527964E-01 +4.58590985133E-01 +5.34053273331E-03 +6.52826400340E-03 +5.24199992205E-03 +6.29713402945E-03 -2.32187293403E-01 +4.83331928986E-01
4.51000000000E+09 -2.88208700143E-01 +4.69723024267E-01 +5.63592763005E-03 +5.64965316156E-03 +5.54422770785E-03 +5.45563973773E-03 -2.19620428141E-01 +4.97668417794E-01
4.51500000000E+09 -2.79593043781E-01 +4.78477026360E-01 +6.09806082530E-03 +5.35980860510E-03 +6.07050862027E-03 +5.13858565480E-03 -2.05227400988E-01 +5.10989755030E-01
4.52000000000E+09 -2.70237770049E-01 +4.86497378110E-01 +7.05125810265E-03 +4.47425217996E-03 +6.97038875199E-03 +4.26098235111E-03 -1.90759097792E-01 +5.23356652141E-01
4.52500000000E+09 -2.58687853032E-01 +4.95205737888E-01 +7.08789858526E-03 +3.03754462170E-03 +6.97488475190E-03 +2.87457892857E-03 -1.76172325122E-01 +5.33460441195E-01
4.53000000000E+09 -2.44761912618E-01 +5.04859102922E-01 +6.95044105799E-03 +2.90580760944E-03 +6.85198404670E-03 +2.75137552858E-03 -1.62603415342E-01 +5.44089779333E-01
4.53500000000E+09 -2.28398450273E-01 +5.15125122133E-01 +7.34750914937E-03 +2.30447007867E-03 +7.19968628783E-03 +2.05016569953E-03 -1.47712589677E-01 +5.54271910904E-01
4.54000000000E+09 -2.11310795575E-01 +5.25451474320E-01 +7.63037593469E-03 +1.57656140850E-03 +7.45885667086E-03 +1.41718105738E-03 -1.32087198732E-01 +5.65617254143E-01
4.54500000000E+09 -1.94851632063E-01 +5.36147937877E-01 +8.20778529125E-03 +5.87528338715E-04 +7.99255627413E-03 +4.99401098348E-04 -1.15024478863E-01 +5.74276852189E-01
4.55000000000E+09 -1.80194151167E-01 +5.46795113469E-01 +8.18291218583E-03 -8.56142913860E-04 +7.97782063901E-03 -8.48531910673E-04 -9.92931148557E-02 +5.82722942682E-01
4.55500000000E+09 -1.67942705480E-01 +5.57567134564E-01 +7.53908772681E-03 -2.53964353215E-03 +7.37908098972E-03 -2.57798029977E-03 -8.48403370480E-02 +5.90319274121E-01
4.56000000000E+09 -1.57299028736E-01 +5.68298190456E-01 +5.94615933550E-03 -2.93864197872E-03 +5.85173347627E-03 -2.90635247739E-03 -7.10939817296E-02 +5.99307105950E-01
4.56500000000E+09 -1.47190113057E-01 +5.78606385409E-01 +5.41807936987E-03 -2.73335322477E-03 +5.33395448797E-03 -2.76352963223E-03 -5.55972702272E-02 +6.07529193383E-01
4.57000000000E+09 -1.37017442739E-01 +5.87440738691E-01 +5.23713509466E-03 -2.58737208982E-03 +5.05288494909E-03 -2.59876895134E-03 -3.97918202268E-02 +6.14134415384E-01
