# Hz S RI R 50
! CMT, C1220, 16058040, 17.2.0/1
! Date: 15/08/2018 12:05:34
! Data: Format (Calibration Info)
! Freq                      S11: Re/Im (F2)                       S21: Re/Im (F2)                       S12: Re/Im (F2)                       S22: Re/Im (F2)            
4.00000000000E+09 +6.66713987312E-01 -3.42830493783E-01 +9.31047659273E-04 -6.99031654733E-04 +1.03523219599E-03 -6.85867932148E-04 +7.78286743517E-01 -3.38862734332E-01
4.00500000000E+09 +6.58504661349E-01 -3.49097927195E-01 +7.71415185751E-04 -7.07354438968E-04 +8.12406155888E-04 -6.45173132588E-04 +7.69867865781E-01 -3.50562650795E-01
4.01000000000E+09 +6.48960593193E-01 -3.55236267307E-01 +7.27167443932E-04 -6.49955326449E-04 +7.76049740301E-04 -6.75492126503E-04 +7.60282298944E-01 -3.61997265160E-01
4.01500000000E+09 +6.38641231282E-01 -3.62095200666E-01 +7.66196446454E-04 -6.73536694673E-04 +8.13425459920E-04 -6.77898722804E-04 +7.50758856509E-01 -3.72528262389E-01
4.02000000000E+09 +6.27683427669E-01 -3.69436802835E-01 +7.54457409817E-04 -8.02882267730E-04 +8.57389792856E-04 -8.01198320599E-04 +7.40979649001E-01 -3.83101590281E-01
4.02500000000E+09 +6.16470416431E-01 -3.78549371538E-01 +7.82164821797E-04 -9.09664038910E-04 +8.21604886275E-04 -9.46223228176E-04 +7.30789426050E-01 -3.93512078971E-01
4.03000000000E+09 +6.04671183754E-01 -3.89044137233E-01 +5.84621845008E-04 -1.28705823153E-03 +6.13771015587E-04 -1.31003598524E-03 +7.20280545653E-01 -4.03714468367E-01
4.03500000000E+09 +5.92909119768E-01 -3.99949433582E-01 +1.88105019477E-04 -1.14128803598E-03 +2.56453550136E-04 -1.13926106535E-03 +7.09291640390E-01 -4.14368303787E-01
4.04000000000E+09 +5.81552726481E-01 -4.10606526239E-01 +2.19339730068E-04 -9.66905401227E-04 +2.88672188206E-04 -9.35967033896E-04 +6.98566027225E-01 -4.25200235905E-01
4.04500000000E+09 +5.70360557845E-01 -4.20933829117E-01 +9.96658897791E-05 -9.09800825245E-04 +1.75672451473E-04 -9.36983308481E-04 +6.87271785812E-01 -4.36045561648E-01
4.05000000000E+09 +5.59414531544E-01 -4.29397215173E-01 +2.42686215056E-04 -9.26996041269E-04 +3.14033502253E-04 -8.83117127483E-04 +6.75769112889E-01 -4.46155509568E-01
4.05500000000E+09 +5.47819511820E-01 -4.36610551035E-01 +2.73300529908E-04 -1.03774625003E-03 +3.32984333198E-04 -1.06897158042E-03 +6.64028854707E-01 -4.56008046038E-01
4.06000000000E+09 +5.35575578655E-01 -4.42093407295E-01 +2.37600108318E-04 -1.19791355419E-03 +2.32864530518E-04 -1.27808482326E-03 +6.51540247934E-01 -4.66034559066E-01
4.06500000000E+09 +5.22792438801E-01 -4.46302719288E-01 -1.29935529543E-04 -1.23224899972E-03 -1.31689793053E-04 -1.29208217203E-03 +6.38251350082E-01 -4.75267625715E-01
4.07000000000E+09 +5.09010740077E-01 -4.50261404579E-01 -9.97186530173E-05 -1.18080113219E-03 -7.31883527231E-05 -1.18160687982E-03 +6.24302878931E-01 -4.85215981967E-01
4.07500000000E+09 +4.94361891538E-01 -4.54974261972E-01 -2.51209481696E-04 -1.29071397457E-03 -1.84214932336E-04 -1.31798561098E-03 +6.10396199022E-01 -4.94176220399E-01
4.08000000000E+09 +4.78526551885E-01 -4.60295767133E-01 -4.30817946880E-04 -1.23180535035E-03 -3.28463261940E-04 -1.29379880458E-03 +5.97043259235E-01 -5.03310102092E-01
4.08500000000E+09 +4.61948887278E-01 -4.66814492637E-01 -6.38052491176E-04 -1.12681258214E-03 -6.58432066209E-04 -1.24436986851E-03 +5.82932596508E-01 -5.12911314813E-01
4.09000000000E+09 +4.45141578334E-01 -4.73862652664E-01 -6.52926709034E-04 -9.55902291751E-04 -6.55799697118E-04 -1.05501849641E-03 +5.68398847966E-01 -5.20849054740E-01
4.09500000000E+09 +4.28571944602E-01 -4.80882563358E-01 -5.93897365952E-04 -8.62830457394E-04 -6.00438452758E-04 -9.56470746313E-04 +5.54048190282E-01 -5.28859058887E-01
4.10000000000E+09 +4.12104631175E-01 -4.87549556795E-01 -4.53364739125E-04 -1.07103249574E-03 -4.42094793573E-04 -1.11812137070E-03 +5.38392748408E-01 -5.37026442067E-01
4.10500000000E+09 +3.96197539627E-01 -4.92731359969E-01 -6.16213985019E-04 -1.23185414494E-03 -6.71750013368E-04 -1.30660771411E-03 +5.22026604896E-01 -5.44857220550E-01
4.11000000000E+09 +3.80494989728E-01 -4.96073867112E-01 -9.66486679862E-04 -1.34441509089E-03 -9.69769402798E-04 -1.39889376110E-03 +5.04766270424E-01 -5.52587885452E-01
4.11500000000E+09 +3.65331410902E-01 -4.97811480714E-01 -1.30439978788E-03 -1.14054226080E-03 -1.41424834342E-03 -1.21313652965E-03 +4.87344743566E-01 -5.59526112356E-01
4.12000000000E+09 +3.49892039185E-01 -4.98000486082E-01 -1.39862967756E-03 -8.98195950062E-04 -1.43686148484E-03 -8.45443302981E-04 +4.70129520561E-01 -5.65877480846E-01
4.12500000000E+09 +3.34468742706E-01 -4.98369502372E-01 -1.50968063494E-03 -6.56415130439E-04 -1.59322322101E-03 -6.40612599317E-04 +4.53043824527E-01 -5.71894688760E-01
4.13000000000E+09 +3.16681996466E-01 -4.99603576826E-01 -1.29641735472E-03 -4.83863389619E-04 -1.36127061952E-03 -4.90317529654E-04 +4.35970427531E-01 -5.77374587250E-01
4.13500000000E+09 +2.97447420792E-01 -5.00474841649E-01 -1.38601296687E-03 -5.28064022863E-04 -1.40247193947E-03 -5.50810579782E-04 +4.17495703756E-01 -5.83209110173E-01
4.14000000000E+09 +2.78055685219E-01 -5.02359314571E-01 -1.44735915819E-03 -4.61401523524E-04 -1.46745060545E-03 -4.53218941527E-04 +3.98496627440E-01 -5.87864907793E-01
4.14500000000E+09 +2.58144997498E-01 -5.05530362647E-01 -1.57057686582E-03 -5.14451807046E-04 -1.54250651139E-03 -5.02531412362E-04 +3.79712350608E-01 -5.93003371455E-01
4.15000000000E+09 +2.37872865878E-01 -5.09453992178E-01 -1.81851623238E-03 -3.77253168801E-04 -1.86291533416E-03 -3.98863983725E-04 +3.59469845773E-01 -5.98021728825E-01
4.15500000000E+09 +2.18192512193E-01 -5.12777983467E-01 -1.88599094338E-03 -2.17314757136E-04 -1.93156214400E-03 -1.95830200545E-04 +3.40165391951E-01 -6.00864709437E-01
4.16000000000E+09 +1.99412183334E-01 -5.15309671178E-01 -2.20805233910E-03 +1.10139364068E-04 -2.27518527972E-03 +4.76739935460E-05 +3.20897833855E-01 -6.03509754288E-01
4.16500000000E+09 +1.81872316243E-01 -5.15775386114E-01 -2.23075396854E-03 +6.80601602227E-04 -2.21338454549E-03 +6.09861141592E-04 +3.00572385628E-01 -6.05200527392E-01
4.17000000000E+09 +1.65569682487E-01 -5.14556486991E-01 -1.85199671433E-03 +8.45877329452E-04 -1.96965389291E-03 +8.03694257039E-04 +2.81010231241E-01 -6.05704703564E-01
4.17500000000E+09 +1.49386962915E-01 -5.11269627529E-01 -1.79208234727E-03 +1.26267761504E-03 -1.90847596774E-03 +1.21998029840E-03 +2.60334921553E-01 -6.06414180173E-01
4.18000000000E+09 +1.33414741072E-01 -5.06714962929E-01 -1.20568865547E-03 +1.17894273899E-03 -1.27309534018E-03 +1.16469246013E-03 +2.40197523936E-01 -6.07024269390E-01
4.18500000000E+09 +1.16849500263E-01 -5.01386303327E-01 -1.34868510775E-03 +6.95206082232E-04 -1.38277041058E-03 +6.42483800935E-04 +2.18521003525E-01 -6.08117347007E-01
4.19000000000E+09 +9.86742285913E-02 -4.95736682866E-01 -1.81805063353E-03 +7.97121263117E-04 -1.89109438691E-03 +7.87493637494E-04 +1.96372948880E-01 -6.07077128506E-01
4.19500000000E+09 +7.97669306434E-02 -4.89562861059E-01 -2.08675802526E-03 +1.49072615746E-03 -2.17304345054E-03 +1.51574702240E-03 +1.75211664301E-01 -6.04960275425E-01
4.20000000000E+09 +6.07094484887E-02 -4.84791931178E-01 -1.68925117026E-03 +1.96306279583E-03 -1.86981904201E-03 +2.04587059209E-03 +1.53805040906E-01 -6.02643169299E-01
4.20500000000E+09 +4.07641604404E-02 -4.81049377252E-01 -1.39558529516E-03 +2.45347096401E-03 -1.51754036405E-03 +2.51445410500E-03 +1.31790646240E-01 -5.99413626981E-01
4.21000000000E+09 +2.11488889119E-02 -4.76699087294E-01 -7.35997235946E-04 +2.25737996855E-03 -8.09480946642E-04 +2.36373416995E-03 +1.09784419515E-01 -5.95693017567E-01
4.21500000000E+09 +2.52301829448E-03 -4.72143653873E-01 -6.03321410261E-04 +2.04355903481E-03 -6.63132606092E-04 +2.13832781304E-03 +8.74149182375E-02 -5.91293085677E-01
4.22000000000E+09 -1.47028838525E-02 -4.66369194994E-01 -9.91955786630E-04 +2.23321262655E-03 -9.75727983518E-04 +2.24467328651E-03 +6.62119746427E-02 -5.86148057003E-01
4.22500000000E+09 -3.08934815524E-02 -4.58564893962E-01 -4.56481842225E-04 +2.93715805184E-03 -4.62876959449E-04 +3.03934023174E-03 +4.52022214203E-02 -5.81525828418E-01
4.23000000000E+09 -4.49629805518E-02 -4.49472250353E-01 +1.29699634503E-04 +2.59851848760E-03 +1.54623123063E-04 +2.68488254765E-03 +2.30006710407E-02 -5.75774255997E-01
4.23500000000E+09 -5.95388399873E-02 -4.39516798467E-01 +3.69971402888E-04 +2.43937905636E-03 +3.56076326168E-04 +2.57155432462E-03 +1.27456944522E-03 -5.68127936625E-01
4.24000000000E+09 -7.56247385228E-02 -4.28454501573E-01 +1.56691063443E-04 +2.46295026418E-03 +1.76973964726E-04 +2.56297669080E-03 -2.09526972638E-02 -5.59778946326E-01
4.24500000000E+09 -9.28834756334E-02 -4.15707820555E-01 +6.52085831721E-04 +2.76551244161E-03 +6.76440651034E-04 +2.82494703818E-03 -4.25187890451E-02 -5.49873997071E-01
4.25000000000E+09 -1.11578966657E-01 -4.03218958222E-01 +9.30608768849E-04 +2.56853883122E-03 +1.03783489717E-03 +2.57044258738E-03 -6.38626829813E-02 -5.40612485960E-01
4.25500000000E+09 -1.31356502722E-01 -3.90339744843E-01 +1.20553112145E-03 +2.38814730746E-03 +1.22478557071E-03 +2.39889350567E-03 -8.66197204076E-02 -5.29593186132E-01
4.26000000000E+09 -1.50817181000E-01 -3.78695576054E-01 +1.10091741872E-03 +2.42609418862E-03 +1.16381686956E-03 +2.41347565540E-03 -1.07258998852E-01 -5.16846209688E-01
4.26500000000E+09 -1.71068047104E-01 -3.68045971466E-01 +1.48471792470E-03 +2.77195566263E-03 +1.56110984275E-03 +2.79836383179E-03 -1.27898451184E-01 -5.04071952964E-01
4.27000000000E+09 -1.89730886484E-01 -3.56543863782E-01 +2.08695799411E-03 +2.55379075630E-03 +2.17172887507E-03 +2.57038651996E-03 -1.48434063645E-01 -4.89287094684E-01
4.27500000000E+09 -2.05799939169E-01 -3.45416511970E-01 +2.52308228669E-03 +2.24050304048E-03 +2.59061892207E-03 +2.20994894459E-03 -1.68227187570E-01 -4.74672736396E-01
4.28000000000E+09 -2.19758713032E-01 -3.33748315017E-01 +2.84572215939E-03 +2.05772766763E-03 +2.92078177125E-03 +1.98310068359E-03 -1.87952834966E-01 -4.59052826712E-01
4.28500000000E+09 -2.32369961376E-01 -3.20528043537E-01 +3.18178153242E-03 +1.34858796029E-03 +3.18608200006E-03 +1.31969750989E-03 -2.07625943055E-01 -4.43745767961E-01
4.29000000000E+09 -2.42319716395E-01 -3.04750883446E-01 +2.98620831874E-03 +8.75268174624E-04 +2.94657792843E-03 +7.87584149731E-04 -2.26225669765E-01 -4.27501582956E-01
4.29500000000E+09 -2.52342717467E-01 -2.88461601443E-01 +2.56692859376E-03 +1.18557889296E-03 +2.60654090386E-03 +1.14856218183E-03 -2.45355461858E-01 -4.10870509334E-01
4.30000000000E+09 -2.63034841056E-01 -2.70493231957E-01 +3.36615067144E-03 +1.07551287188E-03 +3.35303367831E-03 +1.11643699534E-03 -2.62609050426E-01 -3.91933765750E-01
4.30500000000E+09 -2.75066172957E-01 -2.50952272898E-01 +3.69352292588E-03 +6.83256208888E-04 +3.73574644782E-03 +6.71246984313E-04 -2.78676839221E-01 -3.72612290635E-01
4.31000000000E+09 -2.87926446089E-01 -2.30799917243E-01 +4.13511417333E-03 +2.95577320812E-04 +4.19011055866E-03 +3.42733686681E-04 -2.94327928278E-01 -3.52504080644E-01
4.31500000000E+09 -3.01550725613E-01 -2.10877362512E-01 +4.45869921407E-03 -8.32466249216E-04 +4.48748320194E-03 -8.48092183902E-04 -3.09264156841E-01 -3.32188615780E-01
4.32000000000E+09 -3.14256937453E-01 -1.91786974811E-01 +3.64600723566E-03 -1.82943983071E-03 +3.70135412774E-03 -1.83616800663E-03 -3.23413818209E-01 -3.10763578350E-01
4.32500000000E+09 -3.26809210643E-01 -1.75015144305E-01 +2.91641375124E-03 -1.79600297748E-03 +2.92782347144E-03 -1.80794724942E-03 -3.36958011129E-01 -2.89667170859E-01
4.33000000000E+09 -3.37668341136E-01 -1.58802717869E-01 +3.15295975287E-03 -1.43040617965E-03 +3.25301039894E-03 -1.43716231584E-03 -3.50340513744E-01 -2.67411593683E-01
4.33500000000E+09 -3.45866735218E-01 -1.42981492628E-01 +3.14635838462E-03 -1.91415560700E-03 +3.19041274194E-03 -1.96065337961E-03 -3.62337833111E-01 -2.43570292163E-01
4.34000000000E+09 -3.52105899692E-01 -1.27460645230E-01 +3.37676822807E-03 -2.17860716526E-03 +3.43318197052E-03 -2.16847822853E-03 -3.73476673186E-01 -2.19632618591E-01
4.34500000000E+09 -3.56272750554E-01 -1.10815442824E-01 +3.31854423891E-03 -3.14452006735E-03 +3.35511536583E-03 -3.16710622627E-03 -3.84047159199E-01 -1.93721327079E-01
4.35000000000E+09 -3.58546797446E-01 -9.23916608880E-02 +2.66323817512E-03 -3.69853553725E-03 +2.70310676956E-03 -3.70439945453E-03 -3.91690517561E-01 -1.68738441200E-01
4.35500000000E+09 -3.60449733363E-01 -7.26930284377E-02 +2.36919749382E-03 -4.10418105594E-03 +2.42966066441E-03 -4.18746625878E-03 -3.99912109672E-01 -1.45291579461E-01
4.36000000000E+09 -3.63551919799E-01 -5.13144845042E-02 +1.62696670625E-03 -4.58833742255E-03 +1.68018879758E-03 -4.71826096875E-03 -4.06830210988E-01 -1.21053474697E-01
4.36500000000E+09 -3.66994157090E-01 -2.80256385936E-02 +6.89347072573E-04 -4.65876530161E-03 +6.05396972487E-04 -4.75844353369E-03 -4.12695220527E-01 -9.71171670190E-02
4.37000000000E+09 -3.71829223445E-01 -5.47453239026E-03 -4.17579171781E-05 -4.38579548685E-03 -9.50480800232E-05 -4.49214333904E-03 -4.17189120861E-01 -7.22992035290E-02
4.37500000000E+09 -3.77518398224E-01 +1.73105443711E-02 -5.38287472152E-04 -3.72236140014E-03 -6.41004592134E-04 -3.78015762601E-03 -4.20402043514E-01 -4.69242440262E-02
4.38000000000E+09 -3.82942381489E-01 +3.82605473309E-02 -1.32383043567E-04 -3.67002875078E-03 -1.74286638399E-04 -3.79360730738E-03 -4.22498295991E-01 -2.17988412729E-02
4.38500000000E+09 -3.88010167145E-01 +5.61605632883E-02 -1.13439300034E-04 -4.06321378864E-03 -2.57084395530E-04 -4.18750797286E-03 -4.24488530861E-01 +3.65687292552E-03
4.39000000000E+09 -3.91672565988E-01 +7.26961485447E-02 -7.76198059275E-04 -4.94847845487E-03 -9.83089916972E-04 -5.05567827153E-03 -4.25267149908E-01 +2.91382132090E-02
4.39500000000E+09 -3.93540776817E-01 +8.78763555207E-02 -2.49372891933E-03 -4.76519325751E-03 -2.68891617991E-03 -4.81713007922E-03 -4.25511905652E-01 +5.36727793572E-02
4.40000000000E+09 -3.92936532731E-01 +1.02201853569E-01 -3.09814109704E-03 -3.84483432883E-03 -3.22488959313E-03 -3.80895737584E-03 -4.24260730851E-01 +7.90621859301E-02
4.40500000000E+09 -3.90516647614E-01 +1.17971869382E-01 -3.63452699697E-03 -2.99544669527E-03 -3.72522911367E-03 -3.00615159034E-03 -4.20599440793E-01 +1.03328208450E-01
4.41000000000E+09 -3.85589273469E-01 +1.34714763263E-01 -3.22063239139E-03 -2.19989463420E-03 -3.28780860137E-03 -2.07094383391E-03 -4.16675929274E-01 +1.26576354164E-01
4.41500000000E+09 -3.80388577702E-01 +1.53031064177E-01 -3.22495594282E-03 -2.02352757261E-03 -3.33734063733E-03 -1.91140281521E-03 -4.11750475808E-01 +1.50675191642E-01
4.42000000000E+09 -3.75961783929E-01 +1.74086198566E-01 -3.11377735879E-03 -1.97190274903E-03 -3.18285808609E-03 -1.85453177998E-03 -4.06549232904E-01 +1.73089874562E-01
4.42500000000E+09 -3.70864113301E-01 +1.96350960034E-01 -3.61564944690E-03 -2.04665968725E-03 -3.62314254095E-03 -1.87727807772E-03 -4.00867070614E-01 +1.96732353944E-01
4.43000000000E+09 -3.67051776261E-01 +2.17749422796E-01 -3.73125910463E-03 -1.50000626897E-03 -3.66529658400E-03 -1.37172688035E-03 -3.94464666173E-01 +2.18852237905E-01
4.43500000000E+09 -3.64684040034E-01 +2.38277417053E-01 -4.39867377940E-03 -1.42261772882E-03 -4.37152837369E-03 -1.27876459550E-03 -3.87789501086E-01 +2.40721367710E-01
4.44000000000E+09 -3.63074730122E-01 +2.56576442269E-01 -4.57341837539E-03 -4.45237311719E-04 -4.53346377233E-03 -3.38355481481E-04 -3.79477078992E-01 +2.63560986063E-01
4.44500000000E+09 -3.62171333977E-01 +2.73034421130E-01 -4.28979783385E-03 +1.88033377963E-04 -4.21275107999E-03 +3.28023310727E-04 -3.69805119901E-01 +2.83533498159E-01
4.45000000000E+09 -3.59965926057E-01 +2.88097298104E-01 -4.26631112038E-03 +6.99800814027E-04 -4.19300094094E-03 +8.14349272469E-04 -3.59958053818E-01 +3.03681024189E-01
4.45500000000E+09 -3.55195219307E-01 +3.01231802636E-01 -3.93735942321E-03 +1.30260361944E-03 -3.86431298056E-03 +1.43262156054E-03 -3.48492651388E-01 +3.22392150200E-01
4.46000000000E+09 -3.49008215201E-01 +3.13268142617E-01 -3.42182597109E-03 +1.52115571608E-03 -3.30917747136E-03 +1.55586845712E-03 -3.38808271309E-01 +3.39789179202E-01
4.46500000000E+09 -3.40022368362E-01 +3.26631442581E-01 -3.21603634214E-03 +1.53855333989E-03 -3.05611475978E-03 +1.59653127636E-03 -3.27032919610E-01 +3.58369928297E-01
4.47000000000E+09 -3.29183208121E-01 +3.40546918853E-01 -3.19696034740E-03 +1.28561117727E-03 -3.05843213763E-03 +1.31435570371E-03 -3.15264003979E-01 +3.75191255724E-01
4.47500000000E+09 -3.17359873936E-01 +3.56835943479E-01 -4.17533391333E-03 +1.92230911999E-03 -4.02444221031E-03 +1.90463099347E-03 -3.03701067337E-01 +3.91453391530E-01
4.48000000000E+09 -3.05052464668E-01 +3.74359344247E-01 -3.43650037585E-03 +3.17368349123E-03 -3.31228424206E-03 +3.11980205868E-03 -2.91949329092E-01 +4.07986066460E-01
4.48500000000E+09 -2.93283547233E-01 +3.92583898718E-01 -2.67526914827E-03 +3.59999257087E-03 -2.55923343923E-03 +3.52434139413E-03 -2.79941157188E-01 +4.23996989640E-01
4.49000000000E+09 -2.83755274868E-01 +4.09820797247E-01 -1.99350022275E-03 +3.79280466774E-03 -1.90531534807E-03 +3.66837839016E-03 -2.66357373229E-01 +4.40122645841E-01
4.49500000000E+09 -2.75978625946E-01 +4.27634119787E-01 -1.16491531369E-03 +3.65648350338E-03 -1.16537432947E-03 +3.51223788220E-03 -2.52698603576E-01 +4.53691440780E-01
4.50000000000E+09 -2.69192533199E-01 +4.42518068100E-01 -9.29786771147E-04 +3.34513171337E-03 -8.81391852030E-04 +3.25704378601E-03 -2.39805883966E-01 +4.67154559429E-01
4.50500000000E+09 -2.63590899877E-01 +4.55558500291E-01 -7.32378618425E-04 +3.13050639614E-03 -8.20262236739E-04 +3.09378011484E-03 -2.26039119719E-01 +4.80181811420E-01
4.51000000000E+09 -2.57104739619E-01 +4.66328325962E-01 -8.53805187237E-04 +3.38459800211E-03 -8.57427221596E-04 +3.33993508832E-03 -2.12840345519E-01 +4.92570460379E-01
4.51500000000E+09 -2.48763940799E-01 +4.74911257047E-01 -4.17462780960E-04 +3.61953821784E-03 -4.28630203308E-04 +3.61589985420E-03 -1.99012474695E-01 +5.04478220675E-01
4.52000000000E+09 -2.39216604667E-01 +4.82173374444E-01 -5.68653330164E-05 +3.61663152860E-03 -6.77920284043E-05 +3.65637911753E-03 -1.85588392075E-01 +5.15812464078E-01
4.52500000000E+09 -2.27909080726E-01 +4.90080700811E-01 +3.60035735662E-04 +3.41811752340E-03 +3.27872980346E-04 +3.44526757496E-03 -1.72434298754E-01 +5.26376290131E-01
4.53000000000E+09 -2.13985727965E-01 +4.98906785232E-01 +5.46303083455E-04 +3.60288360914E-03 +6.15466551567E-04 +3.57234076661E-03 -1.58404971666E-01 +5.37046885716E-01
4.53500000000E+09 -1.98413043130E-01 +5.09049756881E-01 +1.08335479690E-03 +3.37127742036E-03 +1.09242301048E-03 +3.30413627969E-03 -1.44003819245E-01 +5.46732244131E-01
4.54000000000E+09 -1.82164283406E-01 +5.19924816095E-01 +1.40206846835E-03 +3.32588415135E-03 +1.45896911740E-03 +3.30370951066E-03 -1.29279540962E-01 +5.56507483391E-01
4.54500000000E+09 -1.66972318816E-01 +5.31005724252E-01 +1.49134845877E-03 +3.12636302106E-03 +1.52694442085E-03 +3.16211980231E-03 -1.14329628420E-01 +5.65290593941E-01
4.55000000000E+09 -1.54400119184E-01 +5.41698194424E-01 +2.27831317586E-03 +3.13411177581E-03 +2.34488602406E-03 +3.04402228824E-03 -9.98451086259E-02 +5.74039095649E-01
4.55500000000E+09 -1.44408678231E-01 +5.53127368267E-01 +2.39084769160E-03 +2.29876250584E-03 +2.45032977574E-03 +2.25796802068E-03 -8.62199669895E-02 +5.82184954982E-01
4.56000000000E+09 -1.35251094409E-01 +5.63615626826E-01 +2.21272150358E-03 +2.33305762363E-03 +2.22267710172E-03 +2.27517561533E-03 -7.18720039099E-02 +5.90843702669E-01
4.56500000000E+09 -1.26753870021E-01 +5.71939403805E-01 +2.73033720209E-03 +2.21788295772E-03 +2.78169963318E-03 +2.13247721709E-03 -5.77847647059E-02 +5.98524697521E-01
4.57000000000E+09 -1.18077326299E-01 +5.78763357583E-01 +2.78107555645E-03 +1.72783181834E-03 +2.85627417302E-03 +1.60978594717E-03 -4.28631280846E-02 +6.05848009850E-01
