# Hz S RI R 50
! CMT, C1220, 16058040, 17.2.0/1
! Date: 15/08/2018 12:10:16
! Data: Format (Calibration Info)
! Freq                      S11: Re/Im (F2)                       S21: Re/Im (F2)                       S12: Re/Im (F2)                       S22: Re/Im (F2)            
4.00000000000E+09 +6.53864029212E-01 -3.54812397511E-01 +3.84723487810E-05 -3.52774512133E-04 -2.30102227040E-05 -3.66505068262E-04 +7.66192078323E-01 -3.21432450599E-01
4.00500000000E+09 +6.45786579687E-01 -3.60980228264E-01 +6.24118569993E-06 -1.78515726044E-04 -9.81294663555E-06 -1.85258816201E-04 +7.56879879100E-01 -3.31941156253E-01
4.01000000000E+09 +6.37033836820E-01 -3.66616821948E-01 +2.43297075783E-04 -3.39777442749E-04 +2.70099015687E-04 -3.14942709876E-04 +7.47103234243E-01 -3.42314207840E-01
4.01500000000E+09 +6.27506738140E-01 -3.73355309627E-01 +1.10027265304E-04 -6.18983657932E-04 +8.90233511920E-05 -5.92850882166E-04 +7.37452233613E-01 -3.52060699479E-01
4.02000000000E+09 +6.16400691323E-01 -3.81879174390E-01 -1.43113449952E-04 -5.82196255239E-04 -1.78797471720E-04 -6.01076172561E-04 +7.27085856642E-01 -3.62209619693E-01
4.02500000000E+09 +6.04673638444E-01 -3.90757736740E-01 -3.27265750375E-04 -4.81694016209E-04 -3.18170121288E-04 -4.44367871576E-04 +7.16174182757E-01 -3.71401721812E-01
4.03000000000E+09 +5.93061163946E-01 -4.00729053116E-01 -3.05538792346E-04 -1.96449923289E-04 -3.49574213856E-04 -1.36133261717E-04 +7.05614214721E-01 -3.80595631399E-01
4.03500000000E+09 +5.82007554620E-01 -4.11736836739E-01 -1.29674081890E-04 -2.52318328899E-04 -1.17120882004E-04 -1.98079016540E-04 +6.94571733873E-01 -3.90312711538E-01
4.04000000000E+09 +5.71027107048E-01 -4.22924431311E-01 -1.92637929688E-04 -2.38822808611E-04 -2.27383918933E-04 -2.03280369778E-04 +6.83402416882E-01 -4.00328782219E-01
4.04500000000E+09 +5.60247790188E-01 -4.33435500185E-01 -1.13194832285E-04 -2.81211253469E-04 -6.57986342815E-05 -2.21904812018E-04 +6.71409956383E-01 -4.10241261055E-01
4.05000000000E+09 +5.49259258751E-01 -4.42280274755E-01 -1.30867786055E-04 -4.39832865980E-04 -1.07482396589E-04 -4.89418225676E-04 +6.59235308716E-01 -4.18946896539E-01
4.05500000000E+09 +5.38085377927E-01 -4.48876394044E-01 -4.26841036160E-04 -5.58798217903E-04 -3.93771944797E-04 -5.78960296302E-04 +6.47084628172E-01 -4.27616040481E-01
4.06000000000E+09 +5.26714566467E-01 -4.53917138326E-01 -5.33824921370E-04 -4.53821125682E-04 -4.99293384741E-04 -4.34099750740E-04 +6.34310806407E-01 -4.35663128404E-01
4.06500000000E+09 +5.14150926783E-01 -4.57584112987E-01 -7.26286547687E-04 -2.44820836081E-04 -6.86492506363E-04 -2.80639043252E-04 +6.20853352808E-01 -4.43637853969E-01
4.07000000000E+09 +5.01110939566E-01 -4.61137948436E-01 -6.12148811767E-04 +3.03913925962E-06 -6.03560429381E-04 +6.48140176945E-06 +6.07207357453E-01 -4.51475159741E-01
4.07500000000E+09 +4.86402150147E-01 -4.65664294616E-01 -5.22866500618E-04 +5.18296866772E-05 -5.26571922614E-04 +1.13678616671E-05 +5.93319165817E-01 -4.59356744039E-01
4.08000000000E+09 +4.69808136436E-01 -4.70709603132E-01 -6.29349487479E-04 +9.83253612122E-05 -6.24798626353E-04 +4.71325145432E-05 +5.79895619457E-01 -4.67108502355E-01
4.08500000000E+09 +4.52616481707E-01 -4.75998749895E-01 -4.52599208456E-04 +2.38525562668E-04 -4.61500069357E-04 +1.74368252970E-04 +5.65770249361E-01 -4.75085966612E-01
4.09000000000E+09 +4.35687644724E-01 -4.82422231862E-01 -2.53362080167E-04 +4.20253946875E-06 -2.51823135844E-04 -1.57174558755E-05 +5.51203934651E-01 -4.81412336251E-01
4.09500000000E+09 +4.18767491437E-01 -4.89687308085E-01 -6.19802920590E-04 -1.04773032777E-04 -6.50943049540E-04 -1.23637324934E-04 +5.37246938865E-01 -4.87872517362E-01
4.10000000000E+09 +4.00937169811E-01 -4.96450900097E-01 -7.80208696644E-04 +1.84521001910E-04 -8.55729415784E-04 +1.39545226611E-04 +5.21043693307E-01 -4.94252687677E-01
4.10500000000E+09 +3.83880944747E-01 -5.00972042950E-01 -7.67579922743E-04 +5.76258221052E-04 -8.83833123182E-04 +5.43979122922E-04 +5.05076034198E-01 -4.99539168548E-01
4.11000000000E+09 +3.67552008692E-01 -5.03597196184E-01 -5.15171566896E-04 +8.48131562659E-04 -6.24287012707E-04 +8.15266080920E-04 +4.88694153485E-01 -5.05318064543E-01
4.11500000000E+09 +3.52323545652E-01 -5.04572539352E-01 +1.57780891705E-04 +7.97188093930E-04 +9.56811259159E-05 +8.14053044813E-04 +4.72393440201E-01 -5.10170503209E-01
4.12000000000E+09 +3.36905747441E-01 -5.04976349338E-01 +7.70480120186E-05 +1.28693724419E-04 +4.09310260727E-05 +1.89152112787E-04 +4.56600923075E-01 -5.15687486862E-01
4.12500000000E+09 +3.21024806502E-01 -5.05350837244E-01 -3.25091145121E-04 +1.30600145081E-04 -3.77470123810E-04 +1.69674445309E-04 +4.39295245308E-01 -5.20419535042E-01
4.13000000000E+09 +3.03102251953E-01 -5.06798534865E-01 -5.13709055481E-04 +3.77939407184E-04 -6.02055641269E-04 +4.53317860442E-04 +4.22591146172E-01 -5.23780202733E-01
4.13500000000E+09 +2.82641139092E-01 -5.08192190337E-01 -4.62016675800E-04 +6.26005435738E-04 -5.19454834345E-04 +7.49500764234E-04 +4.05368225708E-01 -5.27557111164E-01
4.14000000000E+09 +2.61919132609E-01 -5.09341335046E-01 -9.47826347174E-05 +9.99533521612E-04 -1.51332099361E-04 +1.13339414857E-03 +3.86906701134E-01 -5.30795268608E-01
4.14500000000E+09 +2.41451933850E-01 -5.11822419024E-01 +4.29305065283E-04 +7.37180691988E-04 +4.66896253737E-04 +8.75468602747E-04 +3.68685330372E-01 -5.33546794110E-01
4.15000000000E+09 +2.21019012529E-01 -5.15357653847E-01 +3.32771258669E-04 +3.30885813526E-04 +3.89457570520E-04 +4.08804687853E-04 +3.50479383835E-01 -5.35935712095E-01
4.15500000000E+09 +2.00731291797E-01 -5.19154963682E-01 -8.28499032633E-07 +2.43099943662E-04 +6.31120735923E-05 +4.03048657817E-04 +3.32377184195E-01 -5.37589810090E-01
4.16000000000E+09 +1.81325315208E-01 -5.21246686079E-01 +5.16047586089E-08 +4.55419163064E-04 +9.92016714885E-06 +5.23259747224E-04 +3.14678598368E-01 -5.38652394217E-01
4.16500000000E+09 +1.63452642521E-01 -5.22018843037E-01 +1.08637081797E-04 +4.93016772685E-04 +1.85691567917E-04 +5.47672025431E-04 +2.95997734344E-01 -5.38920075220E-01
4.17000000000E+09 +1.46549340670E-01 -5.20425147287E-01 +1.69520650545E-04 +6.67588777010E-04 +3.05405822887E-04 +7.35060964048E-04 +2.77230590798E-01 -5.38144892714E-01
4.17500000000E+09 +1.31049830984E-01 -5.16818768186E-01 +3.84428462274E-04 +3.14281833709E-04 +5.34551146178E-04 +2.79054105240E-04 +2.58247084207E-01 -5.36991925715E-01
4.18000000000E+09 +1.15743068163E-01 -5.12206311529E-01 +1.82689979524E-04 +3.80771953848E-04 +3.54102779058E-04 +3.18023821056E-04 +2.38716991266E-01 -5.35541433792E-01
4.18500000000E+09 +9.94979745189E-02 -5.07022117129E-01 +7.40877048926E-05 +4.53531803967E-04 +1.53936938710E-04 +3.35727296152E-04 +2.19498741442E-01 -5.33385933101E-01
4.19000000000E+09 +8.21055282185E-02 -5.01138653176E-01 +3.58174227610E-04 +5.32270858839E-04 +3.49189282630E-04 +4.11250014906E-04 +2.00034501753E-01 -5.30932351953E-01
4.19500000000E+09 +6.35262218101E-02 -4.95235003496E-01 +3.16189667737E-04 +6.13231765593E-04 +2.78102466933E-04 +5.11418933479E-04 +1.81104828635E-01 -5.27416184707E-01
4.20000000000E+09 +4.41618725043E-02 -4.89641759581E-01 +5.66773696172E-04 +6.80974605305E-04 +5.30039917803E-04 +5.95281544582E-04 +1.61893270749E-01 -5.24080761641E-01
4.20500000000E+09 +2.47388679650E-02 -4.84503347320E-01 +8.58222994539E-04 +3.96402665151E-04 +7.49949210208E-04 +3.21462427719E-04 +1.41880485533E-01 -5.18776574861E-01
4.21000000000E+09 +5.86469876450E-03 -4.79206967571E-01 +4.85628870560E-04 +1.63222575814E-04 +4.05984550831E-04 +6.87963840320E-05 +1.22704956536E-01 -5.13377937310E-01
4.21500000000E+09 -1.28063658762E-02 -4.73688227350E-01 +4.95893666892E-04 +5.25692778692E-04 +4.37251853565E-04 +5.52391712335E-04 +1.03243967802E-01 -5.07788976507E-01
4.22000000000E+09 -2.97476941897E-02 -4.66272805844E-01 +9.52200130376E-04 +4.99216487505E-04 +8.40277740762E-04 +4.89774328304E-04 +8.41507378886E-02 -5.00936061040E-01
4.22500000000E+09 -4.51415178234E-02 -4.57616062332E-01 +1.00625790756E-03 +4.80121507262E-05 +9.99996286680E-04 +1.39317567992E-04 +6.61021883882E-02 -4.94328713715E-01
4.23000000000E+09 -5.97677930480E-02 -4.47541160581E-01 +9.53618307420E-04 -1.47438689084E-04 +8.63609486612E-04 -1.02697706229E-04 +4.72286819268E-02 -4.87149386122E-01
4.23500000000E+09 -7.40575984824E-02 -4.35816587368E-01 +4.97162427540E-04 -6.74232752973E-05 +4.56453331512E-04 +2.61808927560E-05 +2.86955684569E-02 -4.78472809487E-01
4.24000000000E+09 -8.88496905929E-02 -4.23632586014E-01 +9.68179056096E-04 +2.83499293304E-04 +9.70547166130E-04 +3.41161330728E-04 +1.03499744218E-02 -4.69546192804E-01
4.24500000000E+09 -1.06179617073E-01 -4.10992935319E-01 +1.55632557609E-03 -1.26029618574E-04 +1.59895478775E-03 -3.44890814142E-05 -8.49014661751E-03 -4.59312441002E-01
4.25000000000E+09 -1.25343719865E-01 -3.96825205944E-01 +1.40996545123E-03 -9.52038638419E-04 +1.44522419837E-03 -8.45506405641E-04 -2.61230471524E-02 -4.47959052654E-01
4.25500000000E+09 -1.44616275039E-01 -3.82256206189E-01 +8.46905143034E-04 -1.20956657223E-03 +9.11744381323E-04 -1.13848438433E-03 -4.37686504454E-02 -4.37017620415E-01
4.26000000000E+09 -1.63629850699E-01 -3.69300703543E-01 +4.38265528171E-04 -9.97933293725E-04 +5.51500968285E-04 -9.65313892984E-04 -6.13678311795E-02 -4.24178700036E-01
4.26500000000E+09 -1.82662669041E-01 -3.56633782743E-01 +4.58126509102E-04 -8.52999044735E-04 +4.97822518511E-04 -8.59209305491E-04 -7.68871953678E-02 -4.11018713267E-01
4.27000000000E+09 -1.99999153028E-01 -3.44574277948E-01 +4.02103585540E-04 -9.57054203103E-04 +5.46429024115E-04 -9.03196487072E-04 -9.35479684441E-02 -3.98328261934E-01
4.27500000000E+09 -2.15314876091E-01 -3.32708027190E-01 +3.16164911712E-04 -8.85902362953E-04 +3.80802593279E-04 -9.41582453285E-04 -1.10355980034E-01 -3.83664532842E-01
4.28000000000E+09 -2.29127184331E-01 -3.20327662816E-01 +4.17588240395E-04 -8.43449342578E-04 +4.58544397245E-04 -9.74145653265E-04 -1.25740150769E-01 -3.69018105025E-01
4.28500000000E+09 -2.41375286924E-01 -3.05939977256E-01 +3.09010216434E-04 -1.05140105937E-03 +3.49840343130E-04 -1.10829857795E-03 -1.41486299051E-01 -3.54283089872E-01
4.29000000000E+09 -2.51235939013E-01 -2.89433611358E-01 +1.69552409759E-04 -1.34325364400E-03 +2.21734513076E-04 -1.43771046283E-03 -1.56623197112E-01 -3.38768427258E-01
4.29500000000E+09 -2.60878259745E-01 -2.71922013539E-01 -2.53186755171E-04 -1.41040012644E-03 -2.67386770743E-04 -1.48848754687E-03 -1.70651559882E-01 -3.22356659627E-01
4.30000000000E+09 -2.70852869905E-01 -2.52673351281E-01 -4.38077314785E-04 -1.11154010644E-03 -4.90003780961E-04 -1.21914657603E-03 -1.83203597973E-01 -3.05710583889E-01
4.30500000000E+09 -2.81558210440E-01 -2.32500157900E-01 -5.72375678654E-04 -1.13836890749E-03 -6.58169697922E-04 -1.24054330636E-03 -1.95441200339E-01 -2.88806341960E-01
4.31000000000E+09 -2.93397108123E-01 -2.12364011561E-01 -6.17585477234E-04 -1.10368867967E-03 -6.83551327639E-04 -1.14693538278E-03 -2.06872929808E-01 -2.71233196308E-01
4.31500000000E+09 -3.06369096017E-01 -1.93051070253E-01 -9.87728326914E-04 -8.66890276637E-04 -1.12961875444E-03 -9.44691119249E-04 -2.17814255237E-01 -2.53623036160E-01
4.32000000000E+09 -3.19920337826E-01 -1.73742686278E-01 -8.56968163693E-04 -6.38321939705E-04 -9.96438022469E-04 -6.65857326024E-04 -2.28936968185E-01 -2.35259562388E-01
4.32500000000E+09 -3.31327678607E-01 -1.55407707464E-01 -7.28262626973E-04 -5.38492353480E-04 -8.40034004249E-04 -5.22585963544E-04 -2.38249503771E-01 -2.16058542903E-01
4.33000000000E+09 -3.40610480511E-01 -1.38500756541E-01 -8.41122619245E-04 -6.56769721476E-04 -9.48703902367E-04 -6.42304755699E-04 -2.47495522613E-01 -1.97624901291E-01
4.33500000000E+09 -3.47713396770E-01 -1.22151107230E-01 -9.62935515415E-04 -5.87668440751E-04 -1.09450841293E-03 -4.96054153091E-04 -2.56373259842E-01 -1.77622666860E-01
4.34000000000E+09 -3.51780434339E-01 -1.06210424275E-01 -1.18234664078E-03 -5.01912120801E-04 -1.27295440157E-03 -4.29103520841E-04 -2.63796596133E-01 -1.57523200133E-01
4.34500000000E+09 -3.53788414081E-01 -9.01060567030E-02 -1.28696235841E-03 -9.90123099824E-05 -1.32886938461E-03 -3.96791259378E-05 -2.71307974330E-01 -1.37179368542E-01
4.35000000000E+09 -3.55475810128E-01 -7.29252606613E-02 -1.17556609034E-03 +1.23931057980E-04 -1.19188098355E-03 +1.57799687512E-04 -2.77471822703E-01 -1.16947889796E-01
4.35500000000E+09 -3.57880885736E-01 -5.27218531083E-02 -8.58619172445E-04 +2.21290560695E-04 -8.28353645938E-04 +3.02242053743E-04 -2.83731416767E-01 -9.69524972827E-02
4.36000000000E+09 -3.59461928417E-01 -2.97820317271E-02 -9.64754428682E-04 -2.49415861863E-04 -8.93494482624E-04 -1.84841451383E-04 -2.88732528698E-01 -7.68379029391E-02
4.36500000000E+09 -3.60972081477E-01 -6.27190792171E-03 -1.32924241990E-03 +2.75405735429E-04 -1.28691498010E-03 +3.12105249942E-04 -2.92293377685E-01 -5.63689530038E-02
4.37000000000E+09 -3.63374900652E-01 +1.66995337857E-02 -1.14646777194E-03 +3.59116626793E-04 -1.10214781956E-03 +4.10434377704E-04 -2.94696068926E-01 -3.72290134319E-02
4.37500000000E+09 -3.66821946787E-01 +3.75937047589E-02 -1.09656793806E-03 +7.35354163144E-04 -9.91161459442E-04 +7.64136415235E-04 -2.97616667180E-01 -1.70359650260E-02
4.38000000000E+09 -3.71698094220E-01 +5.69030292664E-02 -9.25687331309E-04 +7.95394201733E-04 -8.78214207961E-04 +7.57318770139E-04 -2.98794650944E-01 +3.91412339585E-03
4.38500000000E+09 -3.76375786254E-01 +7.45434430158E-02 -7.89012368567E-04 +8.93007681708E-04 -6.85148375515E-04 +8.58081055651E-04 -2.99454432982E-01 +2.41847238275E-02
4.39000000000E+09 -3.80191562166E-01 +9.10288768428E-02 -6.12664288593E-04 +8.29449329318E-04 -5.54197792063E-04 +8.10473431108E-04 -2.99864416253E-01 +4.46988345502E-02
4.39500000000E+09 -3.80496609966E-01 +1.06445547830E-01 -4.60172121217E-04 +9.80974188323E-04 -4.38195606618E-04 +8.86565508600E-04 -3.00013685142E-01 +6.41246090674E-02
4.40000000000E+09 -3.77947080838E-01 +1.20905467827E-01 -4.83607627798E-04 +7.15209023048E-04 -4.65995081895E-04 +6.44167502255E-04 -2.99165169054E-01 +8.43052439647E-02
4.40500000000E+09 -3.73725164745E-01 +1.34827552758E-01 -7.51549508740E-04 +9.11933378019E-04 -7.72517760538E-04 +8.87543686932E-04 -2.96617632501E-01 +1.03552193543E-01
4.41000000000E+09 -3.68953139733E-01 +1.50967533629E-01 -6.05298947572E-04 +1.45097170311E-03 -6.24147506260E-04 +1.39760385697E-03 -2.94192157388E-01 +1.22149759112E-01
4.41500000000E+09 -3.62705076212E-01 +1.69570035700E-01 -8.94830205145E-05 +1.48142103605E-03 -1.13697981053E-04 +1.42820357330E-03 -2.90371843204E-01 +1.41301733906E-01
4.42000000000E+09 -3.56129128963E-01 +1.90143731473E-01 +2.31722932829E-04 +1.46141762658E-03 +2.65100197535E-04 +1.45637796676E-03 -2.86263542546E-01 +1.60221038409E-01
4.42500000000E+09 -3.49285494514E-01 +2.11233861513E-01 +6.92246969598E-04 +1.06346137627E-03 +6.40845841178E-04 +1.02255993041E-03 -2.81882705186E-01 +1.78625952413E-01
4.43000000000E+09 -3.44618483135E-01 +2.31639136995E-01 +3.48522468825E-04 +7.84222524240E-04 +2.51349245328E-04 +7.46544819181E-04 -2.77583195587E-01 +1.96773631017E-01
4.43500000000E+09 -3.41665750091E-01 +2.51417242393E-01 +2.33864233197E-04 +8.56452028561E-04 +2.27131799858E-04 +8.64833327293E-04 -2.73702918860E-01 +2.14692799384E-01
4.44000000000E+09 -3.39230580455E-01 +2.70806963680E-01 +3.18599456798E-04 +1.03238774434E-03 +2.98352113149E-04 +1.05313611642E-03 -2.68320952082E-01 +2.33758382036E-01
4.44500000000E+09 -3.35415837279E-01 +2.87294984295E-01 +7.96955319732E-04 +1.27728334618E-03 +8.38501762184E-04 +1.35168112406E-03 -2.60776773598E-01 +2.50848896323E-01
4.45000000000E+09 -3.31098443027E-01 +3.00763591616E-01 +1.24301946666E-03 +7.77672105878E-04 +1.23702320441E-03 +8.43184310979E-04 -2.53782771593E-01 +2.66864400757E-01
4.45500000000E+09 -3.25550078059E-01 +3.12543766042E-01 +1.11063759036E-03 +4.97506676793E-04 +1.14475071790E-03 +5.08992721269E-04 -2.45722464073E-01 +2.82984288426E-01
4.46000000000E+09 -3.18564983513E-01 +3.23478105450E-01 +1.15242649122E-03 +6.65987337526E-05 +1.14531016790E-03 +7.50743288023E-05 -2.37638413563E-01 +2.98329852935E-01
4.46500000000E+09 -3.10189984130E-01 +3.35244780447E-01 +7.92117472174E-04 +1.27633583975E-04 +7.62493490915E-04 +8.19238314380E-05 -2.29530124402E-01 +3.13504898851E-01
4.47000000000E+09 -2.99684820899E-01 +3.49692167932E-01 +8.49320701074E-04 -1.63892056918E-04 +8.94472996038E-04 -1.61499423955E-04 -2.20866462442E-01 +3.28812832318E-01
4.47500000000E+09 -2.86811377456E-01 +3.65601786255E-01 +5.56736957433E-04 +1.39290030922E-05 +5.76194748845E-04 -2.33945030893E-05 -2.12183452219E-01 +3.43296828133E-01
4.48000000000E+09 -2.73723620995E-01 +3.81533752718E-01 +4.92246364756E-04 -4.22501900615E-05 +5.47541993699E-04 +2.65723898969E-05 -2.02951435498E-01 +3.57930435912E-01
4.48500000000E+09 -2.62469903371E-01 +3.97887241517E-01 +4.88107309546E-04 +3.32045277086E-04 +5.65303021165E-04 +3.24834294422E-04 -1.93033344461E-01 +3.71571637364E-01
4.49000000000E+09 -2.53147199925E-01 +4.14058119524E-01 +1.00632731610E-03 +3.34316147692E-04 +1.06034262515E-03 +2.78681568381E-04 -1.83328213724E-01 +3.84447108504E-01
4.49500000000E+09 -2.46433716207E-01 +4.29377262492E-01 +1.16743836982E-03 -3.55088674354E-04 +1.16296323820E-03 -3.91285816727E-04 -1.73517877589E-01 +3.97340550978E-01
4.50000000000E+09 -2.41027518463E-01 +4.44141421476E-01 +6.40923644542E-04 -3.53339536280E-04 +6.17198052009E-04 -3.80113373976E-04 -1.63108076283E-01 +4.09905117355E-01
4.50500000000E+09 -2.35490606634E-01 +4.56528990885E-01 +7.88386186066E-04 -5.41427912221E-04 +7.53814006644E-04 -5.82541109566E-04 -1.52820324583E-01 +4.22235588354E-01
4.51000000000E+09 -2.29497627361E-01 +4.66035862964E-01 +2.42610568404E-04 -4.78104451989E-04 +2.28412628369E-04 -5.12071923919E-04 -1.41786988290E-01 +4.33841353705E-01
4.51500000000E+09 -2.22264344415E-01 +4.73830993907E-01 +2.15556346192E-04 -8.53715119888E-05 +2.00193730364E-04 -1.65757609873E-04 -1.31665935326E-01 +4.44887358888E-01
4.52000000000E+09 -2.13509864473E-01 +4.81057516525E-01 +5.18932852976E-04 +3.48182476858E-05 +4.82672714912E-04 +3.52280371939E-06 -1.20997979359E-01 +4.56085188174E-01
4.52500000000E+09 -2.01748893558E-01 +4.88218712817E-01 +7.04668189724E-04 +2.70784343426E-05 +6.79691697519E-04 -2.93757159687E-05 -1.09548456742E-01 +4.66692203636E-01
4.53000000000E+09 -1.88166496308E-01 +4.95722414502E-01 +1.08874443590E-03 -4.90057640304E-04 +1.03688395482E-03 -4.56822852071E-04 -9.80453692202E-02 +4.75958074329E-01
4.53500000000E+09 -1.73633842240E-01 +5.04664087291E-01 +7.10740093561E-04 -6.87717238619E-04 +6.19958817722E-04 -6.53575401336E-04 -8.61335946916E-02 +4.85758910721E-01
4.54000000000E+09 -1.58893127026E-01 +5.14591992121E-01 +7.29315169140E-04 -7.69458649666E-04 +6.62434803813E-04 -7.52984366328E-04 -7.37856793423E-02 +4.95014493266E-01
4.54500000000E+09 -1.44651813696E-01 +5.25604258340E-01 +3.62187684347E-04 -1.02834588739E-03 +2.76430488635E-04 -1.02241254788E-03 -6.17781920449E-02 +5.03678149303E-01
4.55000000000E+09 -1.32046019618E-01 +5.36508751591E-01 +1.17371819217E-05 -9.41035357498E-04 -3.61102557526E-05 -9.42221353625E-04 -4.92655880380E-02 +5.12431565485E-01
4.55500000000E+09 -1.21234325800E-01 +5.47091310498E-01 -1.54353625767E-04 -5.30562063463E-04 -1.24992330847E-04 -5.04038224079E-04 -3.77193769584E-02 +5.20714161794E-01
4.56000000000E+09 -1.11683539960E-01 +5.55668370694E-01 +7.54628597568E-05 -3.06790851909E-04 +2.89169050221E-05 -2.51786417454E-04 -2.53632877679E-02 +5.28641036919E-01
4.56500000000E+09 -1.03408844715E-01 +5.62243833357E-01 +6.30481435620E-04 -4.94531701190E-04 +5.70923471413E-04 -4.58594436877E-04 -1.34512246109E-02 +5.35698164638E-01
4.57000000000E+09 -9.57880438729E-02 +5.67357379747E-01 +3.67327119334E-04 -1.09445810878E-03 +3.33291910153E-04 -1.06521431824E-03 -1.23813583521E-03 +5.42875092216E-01
