# Hz S RI R 50
! CMT, C1220, 16058040, 17.2.0/1
! Date: 15/08/2018 12:03:38
! Data: Format (Calibration Info)
! Freq                      S11: Re/Im (F2)                       S21: Re/Im (F2)                       S12: Re/Im (F2)                       S22: Re/Im (F2)            
4.00000000000E+09 +6.64762590665E-01 -3.40910810894E-01 +1.89656750206E-03 -4.87099389226E-04 +1.98030060808E-03 -4.50229478552E-04 +7.76520999560E-01 -3.40528378979E-01
4.00500000000E+09 +6.56808028453E-01 -3.47039558150E-01 +1.76413330185E-03 -4.76081141413E-04 +1.80111827898E-03 -4.26162675395E-04 +7.68026634882E-01 -3.52279983013E-01
4.01000000000E+09 +6.47951280217E-01 -3.53166204915E-01 +1.67873296606E-03 -6.18624663841E-04 +1.72581323884E-03 -5.20393220544E-04 +7.58402785380E-01 -3.63558904928E-01
4.01500000000E+09 +6.37715076381E-01 -3.59807382440E-01 +1.74464373898E-03 -5.54556663081E-04 +1.79109006431E-03 -5.12953726841E-04 +7.48702504033E-01 -3.73937394744E-01
4.02000000000E+09 +6.26930439725E-01 -3.67049046442E-01 +1.96327104157E-03 -8.01971295708E-04 +2.04173183865E-03 -7.43517705372E-04 +7.38928268321E-01 -3.84187616063E-01
4.02500000000E+09 +6.15958804768E-01 -3.75854785095E-01 +1.96968003489E-03 -1.20184120509E-03 +2.05987929365E-03 -1.10231026074E-03 +7.28800645353E-01 -3.94483890747E-01
4.03000000000E+09 +6.04052213910E-01 -3.86247043872E-01 +1.62035108717E-03 -1.65397318939E-03 +1.74194304376E-03 -1.63242450778E-03 +7.18282301249E-01 -4.04448485838E-01
4.03500000000E+09 +5.92649955677E-01 -3.96483027894E-01 +1.16163853201E-03 -1.50422799959E-03 +1.24311307016E-03 -1.51107087787E-03 +7.07424071803E-01 -4.15000987728E-01
4.04000000000E+09 +5.81527495338E-01 -4.07238580576E-01 +1.16369887374E-03 -1.38898849422E-03 +1.28000647595E-03 -1.42199657874E-03 +6.96623265676E-01 -4.25536791242E-01
4.04500000000E+09 +5.70470312524E-01 -4.17672317077E-01 +1.14836069177E-03 -1.28805953947E-03 +1.22905875367E-03 -1.30615814019E-03 +6.85353033035E-01 -4.36200384408E-01
4.05000000000E+09 +5.59361106886E-01 -4.26564382511E-01 +1.43733119593E-03 -1.53398055047E-03 +1.54147506257E-03 -1.51609860508E-03 +6.73892648490E-01 -4.46135402560E-01
4.05500000000E+09 +5.47822288916E-01 -4.33889086729E-01 +1.33484973512E-03 -1.92726880968E-03 +1.49454287461E-03 -2.01746159977E-03 +6.62428837625E-01 -4.55706211613E-01
4.06000000000E+09 +5.35566368519E-01 -4.39390344812E-01 +1.12411313554E-03 -2.09868751714E-03 +1.18539690103E-03 -2.20225409053E-03 +6.50253200331E-01 -4.65741519290E-01
4.06500000000E+09 +5.23140718810E-01 -4.43537682754E-01 +8.30588550844E-04 -2.17332854201E-03 +8.41180346672E-04 -2.27445658069E-03 +6.37144913132E-01 -4.74905979805E-01
4.07000000000E+09 +5.09953205683E-01 -4.47697657984E-01 +8.12595069754E-04 -2.40457840264E-03 +8.99693994565E-04 -2.45305757669E-03 +6.23448113184E-01 -4.84640385381E-01
4.07500000000E+09 +4.95593403561E-01 -4.52457417079E-01 +5.00490308089E-04 -2.67091033073E-03 +5.81894258927E-04 -2.74118730311E-03 +6.09846060994E-01 -4.93799448528E-01
4.08000000000E+09 +4.80188931680E-01 -4.57850579027E-01 +2.28246091574E-04 -2.63376492354E-03 +2.82478878425E-04 -2.79353572633E-03 +5.96480131935E-01 -5.02893267367E-01
4.08500000000E+09 +4.63795244345E-01 -4.64173787907E-01 -1.70407150225E-04 -2.71890335783E-03 -8.33243604288E-05 -2.84303288695E-03 +5.82703707204E-01 -5.12419070114E-01
4.09000000000E+09 +4.47498656193E-01 -4.70825392814E-01 -3.63039854588E-04 -2.64513585744E-03 -3.11568821131E-04 -2.72142898598E-03 +5.68427108177E-01 -5.20471548332E-01
4.09500000000E+09 +4.31461352292E-01 -4.77667789664E-01 -4.39749115147E-04 -2.52023033029E-03 -4.19221962122E-04 -2.68605672117E-03 +5.54247311839E-01 -5.28889039655E-01
4.10000000000E+09 +4.15243257511E-01 -4.84533919184E-01 -4.72699624615E-04 -2.81366025441E-03 -4.99427194769E-04 -2.85632371903E-03 +5.38590664581E-01 -5.37347805484E-01
4.10500000000E+09 +3.99362499670E-01 -4.89760727131E-01 -8.74935936591E-04 -3.01516424788E-03 -9.12812352547E-04 -3.07649584146E-03 +5.21845355140E-01 -5.44901018698E-01
4.11000000000E+09 +3.83702556981E-01 -4.93205286827E-01 -1.43912419347E-03 -3.20377152660E-03 -1.37964924306E-03 -3.28062320121E-03 +5.04934614787E-01 -5.52517132723E-01
4.11500000000E+09 +3.68529568652E-01 -4.94944451018E-01 -2.16947668571E-03 -2.81304078595E-03 -2.16345361644E-03 -2.98806202095E-03 +4.87673428584E-01 -5.59671174525E-01
4.12000000000E+09 +3.53327185727E-01 -4.95457202480E-01 -2.35502210786E-03 -2.33844668702E-03 -2.35933653101E-03 -2.43860937382E-03 +4.70437682160E-01 -5.66009555511E-01
4.12500000000E+09 +3.38094999907E-01 -4.96367208393E-01 -2.51200465905E-03 -2.06823988871E-03 -2.47283774507E-03 -2.19017903957E-03 +4.53476990186E-01 -5.71937403609E-01
4.13000000000E+09 +3.20018308227E-01 -4.97966712047E-01 -2.65074930226E-03 -2.08987439882E-03 -2.64451590953E-03 -2.21713362014E-03 +4.36690895515E-01 -5.77500613391E-01
4.13500000000E+09 +3.01155465547E-01 -4.98959566592E-01 -2.93782218516E-03 -1.80084540184E-03 -2.91193352350E-03 -1.91960734118E-03 +4.18421831557E-01 -5.83468458076E-01
4.14000000000E+09 +2.82026397622E-01 -5.01019432681E-01 -3.26277200956E-03 -1.47424772670E-03 -3.29192951678E-03 -1.65569495278E-03 +3.99586662070E-01 -5.88499718507E-01
4.14500000000E+09 +2.62916893873E-01 -5.04151413232E-01 -3.34507459664E-03 -9.13162088091E-04 -3.43752424876E-03 -1.17212140299E-03 +3.80713766858E-01 -5.93953075237E-01
4.15000000000E+09 +2.43695667801E-01 -5.08577424243E-01 -3.13086591626E-03 -7.74696942306E-04 -3.21893223777E-03 -8.97624639591E-04 +3.60648183416E-01 -5.98969933820E-01
4.15500000000E+09 +2.24387407768E-01 -5.12723135572E-01 -3.27998800625E-03 -1.06595188706E-03 -3.40364525201E-03 -1.11152375614E-03 +3.41537193471E-01 -6.02259414098E-01
4.16000000000E+09 +2.05542361928E-01 -5.15521866827E-01 -4.08082908992E-03 -6.14236163757E-04 -4.24488282154E-03 -7.33319500967E-04 +3.22117161111E-01 -6.05340575201E-01
4.16500000000E+09 +1.88265553530E-01 -5.15966711209E-01 -4.20947609455E-03 +2.64327267303E-04 -4.37053267765E-03 +1.99187185866E-04 +3.01574588700E-01 -6.07220845409E-01
4.17000000000E+09 +1.72036039344E-01 -5.15202433564E-01 -4.02042136381E-03 +7.14115999775E-04 -4.19477817952E-03 +6.53596278661E-04 +2.81885520040E-01 -6.07978699746E-01
4.17500000000E+09 +1.55791047724E-01 -5.11676144470E-01 -3.88450786808E-03 +1.60913314104E-03 -4.00860623413E-03 +1.61005773482E-03 +2.61162168079E-01 -6.09069331216E-01
4.18000000000E+09 +1.40524798268E-01 -5.07441120563E-01 -2.84215171182E-03 +1.63143426120E-03 -2.97189941913E-03 +1.59009736901E-03 +2.40430471294E-01 -6.09945931181E-01
4.18500000000E+09 +1.23613993110E-01 -5.02668713997E-01 -3.08228541908E-03 +9.34345209552E-04 -3.29398784359E-03 +9.17756315297E-04 +2.18421997682E-01 -6.11158149310E-01
4.19000000000E+09 +1.05337382006E-01 -4.97587850209E-01 -3.58484882380E-03 +1.32033201244E-03 -3.74087238526E-03 +1.37630168074E-03 +1.95886432375E-01 -6.09974640622E-01
4.19500000000E+09 +8.62845556331E-02 -4.91857311175E-01 -3.79390906817E-03 +2.05807868315E-03 -3.99675795619E-03 +2.05613970045E-03 +1.74483833735E-01 -6.07926323839E-01
4.20000000000E+09 +6.70552022480E-02 -4.87784107259E-01 -3.83061557103E-03 +2.64466145922E-03 -3.91016679360E-03 +2.70347344330E-03 +1.52861191834E-01 -6.05579751059E-01
4.20500000000E+09 +4.71056921034E-02 -4.84413855640E-01 -3.44634814607E-03 +3.50102661576E-03 -3.58395723867E-03 +3.60771687249E-03 +1.30545996672E-01 -6.02296955257E-01
4.21000000000E+09 +2.79052810860E-02 -4.80983665608E-01 -2.71515018828E-03 +3.53022204280E-03 -2.79674940118E-03 +3.65930632844E-03 +1.08349551347E-01 -5.98640259304E-01
4.21500000000E+09 +9.06837869863E-03 -4.77357637412E-01 -2.67285041739E-03 +3.75814093718E-03 -2.77306940750E-03 +3.91589186290E-03 +8.53234472592E-02 -5.94200222211E-01
4.22000000000E+09 -8.49267842619E-03 -4.72213661732E-01 -2.51611307606E-03 +4.31807378609E-03 -2.53988664263E-03 +4.47080239552E-03 +6.38383221827E-02 -5.88789371885E-01
4.22500000000E+09 -2.44964406608E-02 -4.64720329789E-01 -1.83750619953E-03 +4.95973644394E-03 -1.87510466607E-03 +5.05055978347E-03 +4.23378236043E-02 -5.83618775273E-01
4.23000000000E+09 -3.83837812851E-02 -4.56888114145E-01 -1.12222094818E-03 +4.79828866507E-03 -1.12335227546E-03 +4.82721487159E-03 +2.05785098427E-02 -5.77526476362E-01
4.23500000000E+09 -5.38649718980E-02 -4.47336580914E-01 -8.12721145966E-04 +4.80532994993E-03 -8.39738067481E-04 +4.91981216450E-03 -9.30592917842E-04 -5.69941360118E-01
4.24000000000E+09 -7.05131038916E-02 -4.36090981949E-01 -8.61998619234E-04 +5.23040132440E-03 -8.91417343183E-04 +5.29086790512E-03 -2.35268807553E-02 -5.61771275581E-01
4.24500000000E+09 -8.79780297262E-02 -4.23184759334E-01 +1.52597763068E-05 +5.78649597844E-03 +5.08576706280E-05 +5.90556554475E-03 -4.57414578541E-02 -5.51768603396E-01
4.25000000000E+09 -1.06823546932E-01 -4.10623304208E-01 +9.15553883409E-04 +5.89233634503E-03 +9.06342470930E-04 +5.90972004111E-03 -6.73385829652E-02 -5.41998902556E-01
4.25500000000E+09 -1.26378008264E-01 -3.97639629364E-01 +1.65971626786E-03 +5.70291863357E-03 +1.70062664832E-03 +5.70255849663E-03 -9.00719296130E-02 -5.30598525868E-01
4.26000000000E+09 -1.45934674532E-01 -3.87219010462E-01 +2.12506874432E-03 +5.59800638279E-03 +2.13826516570E-03 +5.71857109292E-03 -1.10846879987E-01 -5.17539734779E-01
4.26500000000E+09 -1.67105171348E-01 -3.77148929889E-01 +2.98059154836E-03 +5.56445849995E-03 +2.98714925949E-03 +5.69427145890E-03 -1.31329403040E-01 -5.04787458382E-01
4.27000000000E+09 -1.86757662146E-01 -3.66081274885E-01 +3.75489925115E-03 +5.14387456343E-03 +3.80931747303E-03 +5.29411911425E-03 -1.52146023061E-01 -4.89704916757E-01
4.27500000000E+09 -2.03328180808E-01 -3.54927568465E-01 +4.48231243088E-03 +4.71246375440E-03 +4.63373914634E-03 +4.77457486133E-03 -1.71859780876E-01 -4.74609228018E-01
4.28000000000E+09 -2.17590635279E-01 -3.43422263239E-01 +5.24681010499E-03 +3.92588934065E-03 +5.39655363559E-03 +3.93361377928E-03 -1.91947990511E-01 -4.58924766740E-01
4.28500000000E+09 -2.30478835260E-01 -3.30514834520E-01 +5.28618582984E-03 +2.78441721783E-03 +5.33805370953E-03 +2.86094765626E-03 -2.11915785244E-01 -4.43075982855E-01
4.29000000000E+09 -2.40730009080E-01 -3.15562157278E-01 +5.09051942159E-03 +2.36056665685E-03 +5.18480277848E-03 +2.41847882757E-03 -2.30625739250E-01 -4.26216249792E-01
4.29500000000E+09 -2.51906658020E-01 -2.99689906033E-01 +4.96147502823E-03 +2.64596869888E-03 +5.01074788573E-03 +2.66780998111E-03 -2.49740510898E-01 -4.08493200035E-01
4.30000000000E+09 -2.63767622709E-01 -2.81365703803E-01 +6.05948145013E-03 +2.34512009193E-03 +6.14143407961E-03 +2.40820274181E-03 -2.66135085391E-01 -3.88734009746E-01
4.30500000000E+09 -2.76257026318E-01 -2.61199311819E-01 +6.56872909135E-03 +1.45902027519E-03 +6.77739969570E-03 +1.52879506761E-03 -2.81306462831E-01 -3.69186188644E-01
4.31000000000E+09 -2.89546306461E-01 -2.41233075074E-01 +7.22102157842E-03 +4.21116312969E-04 +7.43723001563E-03 +4.27090179574E-04 -2.96472225447E-01 -3.49558180792E-01
4.31500000000E+09 -3.04147197749E-01 -2.20957337536E-01 +6.94063798470E-03 -8.90644425780E-04 +7.18848181517E-03 -9.51722896248E-04 -3.11548132081E-01 -3.28844671807E-01
4.32000000000E+09 -3.17877847531E-01 -2.02214430607E-01 +6.24323185402E-03 -1.89816427841E-03 +6.38888420938E-03 -2.02544082240E-03 -3.25226121898E-01 -3.07010756743E-01
4.32500000000E+09 -3.32089021006E-01 -1.84805646871E-01 +5.41988043282E-03 -1.93141778391E-03 +5.53860676009E-03 -1.99388667604E-03 -3.38214221378E-01 -2.85758214991E-01
4.33000000000E+09 -3.43455232619E-01 -1.67388617919E-01 +5.80384609685E-03 -1.74253762327E-03 +5.90331689852E-03 -1.90243598729E-03 -3.50511405053E-01 -2.63574630981E-01
4.33500000000E+09 -3.51668353131E-01 -1.51024701405E-01 +6.03479094497E-03 -2.28981815028E-03 +6.09238053150E-03 -2.44451253148E-03 -3.62377929406E-01 -2.40062244576E-01
4.34000000000E+09 -3.57870666202E-01 -1.35594489645E-01 +6.44862747412E-03 -3.24482464077E-03 +6.44445375946E-03 -3.44858852079E-03 -3.73290477859E-01 -2.16548118391E-01
4.34500000000E+09 -3.62480980904E-01 -1.19077377111E-01 +6.02787225460E-03 -4.70750156868E-03 +5.98716753921E-03 -4.82271717258E-03 -3.83719867492E-01 -1.90712574293E-01
4.35000000000E+09 -3.65368512238E-01 -1.00740184127E-01 +5.03266322128E-03 -5.54629750905E-03 +4.99320536819E-03 -5.68204524085E-03 -3.91270133571E-01 -1.65740495789E-01
4.35500000000E+09 -3.68223010992E-01 -8.03630359077E-02 +4.47254496888E-03 -6.10352883152E-03 +4.37407343132E-03 -6.17493773627E-03 -3.98955530874E-01 -1.42408570106E-01
4.36000000000E+09 -3.71591315697E-01 -5.71935704619E-02 +3.50158341878E-03 -6.56175314430E-03 +3.36508180519E-03 -6.64612998080E-03 -4.05904173447E-01 -1.18506185696E-01
4.36500000000E+09 -3.74330968339E-01 -3.31355002551E-02 +2.64800190757E-03 -6.81040131214E-03 +2.56830848763E-03 -6.91472926805E-03 -4.11864704702E-01 -9.42817111068E-02
4.37000000000E+09 -3.78999300573E-01 -9.96791144693E-03 +1.78974331209E-03 -6.87502635116E-03 +1.60784776766E-03 -6.97687147236E-03 -4.15631414946E-01 -6.92983782321E-02
4.37500000000E+09 -3.84450491264E-01 +1.28050145286E-02 +9.88693848292E-04 -6.48538215103E-03 +9.05310142000E-04 -6.50647892072E-03 -4.18273225300E-01 -4.41541264181E-02
4.38000000000E+09 -3.90712940858E-01 +3.36399589809E-02 +9.38437613704E-04 -6.87838083243E-03 +8.04589902069E-04 -6.98242135757E-03 -4.20127251500E-01 -1.98400802128E-02
4.38500000000E+09 -3.96800105765E-01 +5.24867163390E-02 +4.97650713383E-04 -7.03310125718E-03 +3.73818836216E-04 -7.09888131472E-03 -4.22228878095E-01 +5.27731927514E-03
4.39000000000E+09 -4.00822549559E-01 +6.98097568237E-02 -5.14397962548E-04 -7.93025894741E-03 -6.98845463529E-04 -7.99420122755E-03 -4.23205296319E-01 +3.07409556664E-02
4.39500000000E+09 -4.02678156902E-01 +8.54985002705E-02 -2.08898837642E-03 -7.71508398148E-03 -2.25142481938E-03 -7.71013824012E-03 -4.22992717044E-01 +5.52001275726E-02
4.40000000000E+09 -4.01762760212E-01 +1.00125662251E-01 -3.03141353497E-03 -7.38742972662E-03 -3.12577306286E-03 -7.40889633352E-03 -4.21346574333E-01 +8.01824291243E-02
4.40500000000E+09 -3.99465408253E-01 +1.16043263298E-01 -4.49353569345E-03 -6.42014232506E-03 -4.53682846941E-03 -6.39045144169E-03 -4.17815990371E-01 +1.03972027921E-01
4.41000000000E+09 -3.94255509960E-01 +1.32858214300E-01 -4.30892449143E-03 -5.53870263920E-03 -4.34889921113E-03 -5.46938833665E-03 -4.14029031682E-01 +1.26781297894E-01
4.41500000000E+09 -3.89089059548E-01 +1.51813397503E-01 -4.82893339437E-03 -5.14754737841E-03 -4.91106629280E-03 -5.08202274017E-03 -4.09556030782E-01 +1.50860529648E-01
4.42000000000E+09 -3.83837321302E-01 +1.73532996767E-01 -5.30557523364E-03 -4.74868328901E-03 -5.32619626660E-03 -4.66264630531E-03 -4.03795935506E-01 +1.73379495768E-01
4.42500000000E+09 -3.78810605804E-01 +1.96267469537E-01 -5.67922161347E-03 -4.40359668112E-03 -5.69891655240E-03 -4.28836125813E-03 -3.97834885073E-01 +1.95988444921E-01
4.43000000000E+09 -3.74469510412E-01 +2.19093646922E-01 -6.11777455376E-03 -3.63228208712E-03 -6.12190582271E-03 -3.49021311331E-03 -3.92276755254E-01 +2.17466587470E-01
4.43500000000E+09 -3.71750523114E-01 +2.40614085241E-01 -6.91103591311E-03 -3.21153564738E-03 -6.86429188373E-03 -3.13511706624E-03 -3.86226877715E-01 +2.39609975722E-01
4.44000000000E+09 -3.69344829788E-01 +2.60361695037E-01 -7.14329832983E-03 -2.06672670531E-03 -7.13891933377E-03 -1.95656530704E-03 -3.77872424345E-01 +2.62760689919E-01
4.44500000000E+09 -3.67622235862E-01 +2.77050508587E-01 -7.06111603643E-03 -1.18618238390E-03 -7.04185419931E-03 -1.08271410854E-03 -3.68128718850E-01 +2.82485298362E-01
4.45000000000E+09 -3.65090482786E-01 +2.91879943200E-01 -7.36614982192E-03 -3.93407802686E-04 -7.32700758203E-03 -2.83950779469E-04 -3.58478322052E-01 +3.02099376460E-01
4.45500000000E+09 -3.61129204185E-01 +3.04806915261E-01 -7.03658652955E-03 +6.51704739466E-04 -7.04865975163E-03 +9.03544980582E-04 -3.47350906531E-01 +3.20611956769E-01
4.46000000000E+09 -3.55445415295E-01 +3.17532029293E-01 -6.52121087102E-03 +1.42575536853E-03 -6.42671043964E-03 +1.61620294352E-03 -3.38635655838E-01 +3.38017683050E-01
4.46500000000E+09 -3.46429597224E-01 +3.31486846431E-01 -6.00995747343E-03 +1.74930893326E-03 -5.94117412089E-03 +1.92852405697E-03 -3.27000668819E-01 +3.57176867086E-01
4.47000000000E+09 -3.34494035068E-01 +3.46070126684E-01 -5.72373577409E-03 +1.59218444477E-03 -5.61090754463E-03 +1.83887935987E-03 -3.15191790860E-01 +3.74416440580E-01
4.47500000000E+09 -3.21506754608E-01 +3.61715250745E-01 -6.79526721627E-03 +2.32366839016E-03 -6.62055471208E-03 +2.48301360586E-03 -3.03458636804E-01 +3.90768470383E-01
4.48000000000E+09 -3.08616976756E-01 +3.78864065687E-01 -6.04796752318E-03 +3.76486201534E-03 -5.86173966414E-03 +3.82502296410E-03 -2.91699953782E-01 +4.07296304414E-01
4.48500000000E+09 -2.96197158403E-01 +3.96971859649E-01 -5.30207452387E-03 +4.52664558936E-03 -5.03853905717E-03 +4.56520700171E-03 -2.79625746824E-01 +4.23223991214E-01
4.49000000000E+09 -2.86064695158E-01 +4.14218814987E-01 -4.58870383410E-03 +4.99117048261E-03 -4.41159445387E-03 +4.96395904798E-03 -2.66452108859E-01 +4.39195143709E-01
4.49500000000E+09 -2.77701036858E-01 +4.32604696326E-01 -3.62194076443E-03 +5.10430744108E-03 -3.43529538528E-03 +5.00546505365E-03 -2.52840303191E-01 +4.53024642090E-01
4.50000000000E+09 -2.70247495615E-01 +4.47981915952E-01 -3.31866353928E-03 +5.16419557054E-03 -3.15436847505E-03 +5.05997180236E-03 -2.39767581587E-01 +4.66690613700E-01
4.50500000000E+09 -2.63919548348E-01 +4.61640719933E-01 -2.76231287369E-03 +5.30061446084E-03 -2.66384743149E-03 +5.19506744916E-03 -2.26017918407E-01 +4.79420133120E-01
4.51000000000E+09 -2.56849674400E-01 +4.72644942067E-01 -2.39844274748E-03 +5.44809531861E-03 -2.29916551610E-03 +5.35313814224E-03 -2.13222201132E-01 +4.91773068097E-01
4.51500000000E+09 -2.48610905494E-01 +4.81312160290E-01 -1.81800707594E-03 +5.81223396915E-03 -1.64399252993E-03 +5.81911624489E-03 -1.99747376432E-01 +5.04243796452E-01
4.52000000000E+09 -2.39255401894E-01 +4.88559238280E-01 -1.35505502389E-03 +5.73810486366E-03 -1.22130441856E-03 +5.69564948514E-03 -1.85835142928E-01 +5.15890843184E-01
4.52500000000E+09 -2.27742459196E-01 +4.96680031535E-01 -8.52210112783E-04 +5.70031357960E-03 -6.72773735826E-04 +5.64701401413E-03 -1.72667866257E-01 +5.25988821450E-01
4.53000000000E+09 -2.13485219806E-01 +5.04988780960E-01 -5.80491168353E-04 +6.29312219513E-03 -4.66682726650E-04 +6.18357280322E-03 -1.59294305445E-01 +5.36978658917E-01
4.53500000000E+09 -1.98030643999E-01 +5.14543222254E-01 +5.83776062163E-04 +6.13042746083E-03 +7.17739388340E-04 +6.02995887497E-03 -1.44508664069E-01 +5.47207375755E-01
4.54000000000E+09 -1.81985410644E-01 +5.25154282490E-01 +1.27026834367E-03 +5.93872469636E-03 +1.36908638943E-03 +5.80622545427E-03 -1.29933365684E-01 +5.57111737482E-01
4.54500000000E+09 -1.66352876924E-01 +5.35888306189E-01 +1.40376378906E-03 +5.68335557030E-03 +1.54298519058E-03 +5.53505037092E-03 -1.14598465204E-01 +5.66231626319E-01
4.55000000000E+09 -1.53278880808E-01 +5.46338318684E-01 +2.45978374702E-03 +5.61778947285E-03 +2.50515574069E-03 +5.46423494610E-03 -9.98619645055E-02 +5.75004208931E-01
4.55500000000E+09 -1.42277389771E-01 +5.57300818785E-01 +2.83572683711E-03 +5.05192731859E-03 +2.90355389290E-03 +4.85171791806E-03 -8.61851933559E-02 +5.83103847800E-01
4.56000000000E+09 -1.32567074771E-01 +5.67201653876E-01 +3.05700159388E-03 +4.79895108417E-03 +3.05573977027E-03 +4.57629937000E-03 -7.17753708222E-02 +5.92100020499E-01
4.56500000000E+09 -1.23868732026E-01 +5.75129289492E-01 +3.79897331062E-03 +4.51753160055E-03 +3.75788446452E-03 +4.27660143363E-03 -5.73339888153E-02 +5.99471453515E-01
4.57000000000E+09 -1.15099987840E-01 +5.81889766831E-01 +3.74891142551E-03 +3.96560587990E-03 +3.70639225932E-03 +3.78652039258E-03 -4.25390231502E-02 +6.06782072111E-01
