# Hz S RI R 50
! CMT, C1220, 16058040, 17.2.0/1
! Date: 15/08/2018 12:04:56
! Data: Format (Calibration Info)
! Freq                      S11: Re/Im (F2)                       S21: Re/Im (F2)                       S12: Re/Im (F2)                       S22: Re/Im (F2)            
4.00000000000E+09 +6.65721830155E-01 -3.43901705689E-01 +8.26516887139E-04 -5.47045363283E-04 +8.93644335164E-04 -4.96675597003E-04 +7.76953051308E-01 -3.39751586703E-01
4.00500000000E+09 +6.57264395930E-01 -3.49953671563E-01 +7.24914778075E-04 -4.88842657384E-04 +7.07433134183E-04 -4.70732303217E-04 +7.68412105593E-01 -3.51483907699E-01
4.01000000000E+09 +6.47812412693E-01 -3.55962555222E-01 +6.84573599158E-04 -4.50202471019E-04 +7.04837196057E-04 -4.33763164994E-04 +7.58792358383E-01 -3.62768892738E-01
4.01500000000E+09 +6.37516018745E-01 -3.62593569657E-01 +8.42850837327E-04 -4.38294101006E-04 +8.43288787567E-04 -4.19951275240E-04 +7.49128881343E-01 -3.73062682888E-01
4.02000000000E+09 +6.26630709506E-01 -3.70075822747E-01 +9.03778248944E-04 -6.45358874495E-04 +9.42936468413E-04 -6.16067785911E-04 +7.39562761452E-01 -3.83270889065E-01
4.02500000000E+09 +6.15387396254E-01 -3.79190756308E-01 +8.71985314561E-04 -8.92316658372E-04 +9.52899843745E-04 -8.40295833608E-04 +7.29502707573E-01 -3.93708751221E-01
4.03000000000E+09 +6.03626575561E-01 -3.90005083014E-01 +6.35650640079E-04 -1.18430806603E-03 +7.52104360970E-04 -1.18020533211E-03 +7.18908549523E-01 -4.04160525149E-01
4.03500000000E+09 +5.91727192313E-01 -4.00836453659E-01 +2.23544737753E-04 -9.97220416112E-04 +3.27015969809E-04 -1.01797441713E-03 +7.07799379301E-01 -4.14457604614E-01
4.04000000000E+09 +5.80188032210E-01 -4.11579956942E-01 +2.66277482298E-04 -9.20627422470E-04 +2.97548519591E-04 -8.96426295266E-04 +6.97031261967E-01 -4.24913615415E-01
4.04500000000E+09 +5.69086138647E-01 -4.21982871419E-01 +2.15875935186E-04 -7.66267056676E-04 +2.16045875897E-04 -8.05378971775E-04 +6.85902889381E-01 -4.35503319953E-01
4.05000000000E+09 +5.57821678940E-01 -4.30516916579E-01 +4.66940169020E-04 -8.04908038681E-04 +4.90728287118E-04 -8.12320065884E-04 +6.74563848892E-01 -4.45624158648E-01
4.05500000000E+09 +5.46303552572E-01 -4.37434321559E-01 +5.17381249078E-04 -1.05799516110E-03 +5.89680684321E-04 -1.08104068629E-03 +6.62882147200E-01 -4.55420877326E-01
4.06000000000E+09 +5.34218086064E-01 -4.42746673654E-01 +3.07848212260E-04 -1.34447798330E-03 +2.98825326117E-04 -1.39264242742E-03 +6.50374597118E-01 -4.65219401598E-01
4.06500000000E+09 +5.21431709356E-01 -4.46934226809E-01 -7.16331170786E-05 -1.20905717940E-03 -2.63803192159E-05 -1.30263731842E-03 +6.37440020024E-01 -4.74234622495E-01
4.07000000000E+09 +5.07609555445E-01 -4.50792962137E-01 -7.33055832209E-05 -1.19277682220E-03 -6.90197082145E-05 -1.23102085064E-03 +6.23716146860E-01 -4.84050660242E-01
4.07500000000E+09 +4.92969438382E-01 -4.55687610794E-01 -1.93470916137E-04 -1.24486288695E-03 -1.48576277421E-04 -1.29485307424E-03 +6.09980188998E-01 -4.93091311396E-01
4.08000000000E+09 +4.76775494539E-01 -4.61066793063E-01 -2.11153465674E-04 -1.12713654141E-03 -2.28244211491E-04 -1.17430780241E-03 +5.96648534131E-01 -5.02087832352E-01
4.08500000000E+09 +4.60019363764E-01 -4.67333174914E-01 -3.60878469352E-04 -1.17921930918E-03 -3.57069635501E-04 -1.22066227691E-03 +5.83003253023E-01 -5.11385851451E-01
4.09000000000E+09 +4.43106276983E-01 -4.74178232765E-01 -4.36240551602E-04 -1.17774540003E-03 -3.94072822024E-04 -1.23461205945E-03 +5.69090621543E-01 -5.19563613168E-01
4.09500000000E+09 +4.26639267610E-01 -4.81176424385E-01 -4.73486281007E-04 -1.13132069662E-03 -5.20963959098E-04 -1.23790910264E-03 +5.54874917241E-01 -5.28171411044E-01
4.10000000000E+09 +4.10281504606E-01 -4.87731839345E-01 -5.45668045260E-04 -1.31569124386E-03 -5.75031077592E-04 -1.34879645212E-03 +5.39144207608E-01 -5.36430756268E-01
4.10500000000E+09 +3.94374594285E-01 -4.93115551835E-01 -7.88108191755E-04 -1.32768508191E-03 -7.71971080427E-04 -1.38942935926E-03 +5.22594118490E-01 -5.44175721949E-01
4.11000000000E+09 +3.78557751373E-01 -4.96460111108E-01 -1.05677088601E-03 -1.30497700380E-03 -1.05856779459E-03 -1.36773888410E-03 +5.05514473818E-01 -5.51938979716E-01
4.11500000000E+09 +3.63325391891E-01 -4.97949490369E-01 -1.33495782321E-03 -1.09096766630E-03 -1.29758759106E-03 -1.10166917180E-03 +4.88297813413E-01 -5.58939079520E-01
4.12000000000E+09 +3.48051074924E-01 -4.98171114019E-01 -1.30451596830E-03 -9.15938028268E-04 -1.32311155495E-03 -1.00472139909E-03 +4.71378209215E-01 -5.65349760515E-01
4.12500000000E+09 +3.32469374124E-01 -4.98338580507E-01 -1.48838816524E-03 -8.85457471966E-04 -1.48092169601E-03 -8.81976885559E-04 +4.54555077567E-01 -5.71507555706E-01
4.13000000000E+09 +3.14800707409E-01 -4.99444386545E-01 -1.50487687296E-03 -7.91433083484E-04 -1.50268730635E-03 -8.93124543681E-04 +4.37467335212E-01 -5.77498489149E-01
4.13500000000E+09 +2.95600236761E-01 -5.00191333714E-01 -1.63515876641E-03 -5.63835268291E-04 -1.69575278503E-03 -6.72144658384E-04 +4.18849566584E-01 -5.83289539868E-01
4.14000000000E+09 +2.76184568097E-01 -5.02093121028E-01 -1.72176000684E-03 -3.14908904264E-04 -1.77216089082E-03 -4.04745325678E-04 +3.99800128893E-01 -5.88212477537E-01
4.14500000000E+09 +2.56124399964E-01 -5.05337919694E-01 -1.66260927588E-03 -2.60944447532E-04 -1.71939476863E-03 -3.06623792920E-04 +3.81156347499E-01 -5.93228523521E-01
4.15000000000E+09 +2.35738686852E-01 -5.09199482519E-01 -1.74577881008E-03 -2.05028201394E-04 -1.86133530737E-03 -2.45170272331E-04 +3.61381960717E-01 -5.98510986831E-01
4.15500000000E+09 +2.15994343498E-01 -5.12404960443E-01 -1.80282790832E-03 -2.87607926335E-04 -1.87525213072E-03 -2.32972604102E-04 +3.41962132109E-01 -6.01980916437E-01
4.16000000000E+09 +1.96980614855E-01 -5.14920045992E-01 -2.30394092706E-03 -9.49679273639E-05 -2.36673971316E-03 -1.32542987075E-04 +3.22517528427E-01 -6.04813650515E-01
4.16500000000E+09 +1.79397824027E-01 -5.14921447591E-01 -2.50388045950E-03 +6.66428050562E-04 -2.61192481163E-03 +5.78125529831E-04 +3.02200000177E-01 -6.06562889963E-01
4.17000000000E+09 +1.63604754042E-01 -5.13435015440E-01 -2.12607025270E-03 +1.08751451267E-03 -2.16555838128E-03 +1.06260611000E-03 +2.82766616692E-01 -6.07410893161E-01
4.17500000000E+09 +1.47796360709E-01 -5.10084362235E-01 -1.89813436699E-03 +1.49408659881E-03 -2.02110243855E-03 +1.49029105994E-03 +2.61910391141E-01 -6.08724188681E-01
4.18000000000E+09 +1.32462478752E-01 -5.05660932701E-01 -1.12980754823E-03 +1.46628709361E-03 -1.18728175195E-03 +1.47924743479E-03 +2.41057153240E-01 -6.09547414957E-01
4.18500000000E+09 +1.15960248967E-01 -5.00853616513E-01 -1.16330590052E-03 +7.86442845509E-04 -1.25519878029E-03 +7.71908701952E-04 +2.19059129745E-01 -6.10399623674E-01
4.19000000000E+09 +9.75932412753E-02 -4.95125832428E-01 -1.74263204873E-03 +8.59686855623E-04 -1.82894515124E-03 +8.42986263737E-04 +1.96987213653E-01 -6.09379634449E-01
4.19500000000E+09 +7.86206929316E-02 -4.88993072205E-01 -2.01223727169E-03 +1.55880022430E-03 -2.12111528740E-03 +1.53775951753E-03 +1.75663380058E-01 -6.07544031572E-01
4.20000000000E+09 +5.94190729613E-02 -4.83791224701E-01 -1.76089375788E-03 +2.08226059151E-03 -1.83986562419E-03 +2.06285405646E-03 +1.53969682110E-01 -6.05542581179E-01
4.20500000000E+09 +3.97059358521E-02 -4.79671960896E-01 -1.33032369224E-03 +2.60206512323E-03 -1.48675057425E-03 +2.68134350254E-03 +1.31512264493E-01 -6.02347063242E-01
4.21000000000E+09 +2.03788952230E-02 -4.75499136502E-01 -6.08984326212E-04 +2.36350198726E-03 -6.75735505404E-04 +2.46561713434E-03 +1.09205559889E-01 -5.98553560083E-01
4.21500000000E+09 +1.65447801296E-03 -4.71136772388E-01 -5.81010749245E-04 +2.16283837264E-03 -6.71342293181E-04 +2.19457775089E-03 +8.66226830835E-02 -5.94155956306E-01
4.22000000000E+09 -1.58848791306E-02 -4.65488283411E-01 -8.06713351012E-04 +2.46401302924E-03 -9.01064674341E-04 +2.60358907608E-03 +6.51555635355E-02 -5.89197025228E-01
4.22500000000E+09 -3.22826776543E-02 -4.57559690521E-01 -2.52379202744E-04 +2.81793894564E-03 -2.72255110893E-04 +2.95114828764E-03 +4.34041986874E-02 -5.84430467249E-01
4.23000000000E+09 -4.63492856330E-02 -4.48275126025E-01 +5.91180278480E-05 +2.57686460049E-03 +1.01046186631E-04 +2.70748500025E-03 +2.12136146127E-02 -5.78343581198E-01
4.23500000000E+09 -6.09939364732E-02 -4.38173848093E-01 +3.64084715668E-04 +2.70750610297E-03 +3.86649189479E-04 +2.76307115152E-03 -6.95927922141E-04 -5.70727283989E-01
4.24000000000E+09 -7.67746655559E-02 -4.26815366469E-01 +3.52983068363E-04 +2.71505479735E-03 +3.92080798620E-04 +2.75614408420E-03 -2.33715376129E-02 -5.62272492916E-01
4.24500000000E+09 -9.37802267786E-02 -4.14244407419E-01 +8.09127452415E-04 +2.96064565608E-03 +9.22317693110E-04 +2.99234615080E-03 -4.56210819717E-02 -5.52371903257E-01
4.25000000000E+09 -1.12522098048E-01 -4.01714156142E-01 +1.30420489225E-03 +2.73191341072E-03 +1.35014351303E-03 +2.79987203743E-03 -6.76228871725E-02 -5.42326138407E-01
4.25500000000E+09 -1.32245819160E-01 -3.88701316811E-01 +1.67212984318E-03 +2.54004898493E-03 +1.72317563709E-03 +2.55817785651E-03 -9.01583315281E-02 -5.30648087196E-01
4.26000000000E+09 -1.51770341179E-01 -3.76983440895E-01 +1.65913182901E-03 +2.36098835818E-03 +1.70122905864E-03 +2.31544505106E-03 -1.10663559410E-01 -5.17499942690E-01
4.26500000000E+09 -1.72125013706E-01 -3.66194136619E-01 +1.96771407317E-03 +2.40488245992E-03 +2.07034105718E-03 +2.45286812273E-03 -1.31138541445E-01 -5.04781066397E-01
4.27000000000E+09 -1.90688138874E-01 -3.54598311437E-01 +2.44235916787E-03 +2.31028439890E-03 +2.48307392203E-03 +2.28682702446E-03 -1.52034964007E-01 -4.89739644114E-01
4.27500000000E+09 -2.06872455430E-01 -3.43405641544E-01 +2.88692275403E-03 +1.81636219659E-03 +2.91520149595E-03 +1.81985997353E-03 -1.71845382851E-01 -4.74643453772E-01
4.28000000000E+09 -2.20536005287E-01 -3.31692694604E-01 +3.16543796589E-03 +1.32703419663E-03 +3.16861385968E-03 +1.37520513317E-03 -1.92331280108E-01 -4.58573441982E-01
4.28500000000E+09 -2.33460661865E-01 -3.18486491646E-01 +3.02382890796E-03 +7.75362886676E-04 +3.04994563756E-03 +7.90272524835E-04 -2.11705742794E-01 -4.42219655961E-01
4.29000000000E+09 -2.43281668830E-01 -3.02933569721E-01 +2.84479491369E-03 +5.32459021125E-04 +2.84166981919E-03 +5.61033512553E-04 -2.29668054025E-01 -4.25326237060E-01
4.29500000000E+09 -2.53508101968E-01 -2.86894073025E-01 +2.48002899682E-03 +9.58364729271E-04 +2.53522353159E-03 +9.60048530251E-04 -2.48415857505E-01 -4.08486847375E-01
4.30000000000E+09 -2.64188117008E-01 -2.68853860559E-01 +3.52455195702E-03 +8.70294665015E-04 +3.57107541889E-03 +8.20715900095E-04 -2.65029065980E-01 -3.89187324001E-01
4.30500000000E+09 -2.76024957483E-01 -2.49180674970E-01 +3.81930604407E-03 +6.58604065408E-05 +3.83707053356E-03 +9.57652533187E-06 -2.80773689532E-01 -3.70051125641E-01
4.31000000000E+09 -2.88844398973E-01 -2.29147294863E-01 +4.01036968850E-03 -3.21878622391E-04 +4.08750096205E-03 -3.55161069847E-04 -2.96426893933E-01 -3.49973687697E-01
4.31500000000E+09 -3.02292108326E-01 -2.09115329492E-01 +3.97177663984E-03 -1.36036070013E-03 +4.04984501365E-03 -1.42478724629E-03 -3.11123722505E-01 -3.28899244235E-01
4.32000000000E+09 -3.15021622622E-01 -1.90255646184E-01 +3.19521979762E-03 -1.94468579928E-03 +3.21323716241E-03 -1.97126857671E-03 -3.24561641361E-01 -3.07466953458E-01
4.32500000000E+09 -3.27500724677E-01 -1.73267465363E-01 +2.68749003441E-03 -1.75924413268E-03 +2.68309577990E-03 -1.79332783215E-03 -3.37927359743E-01 -2.86408340625E-01
4.33000000000E+09 -3.38155608090E-01 -1.56626089218E-01 +3.01141932851E-03 -1.63610324919E-03 +3.04648905140E-03 -1.71907629722E-03 -3.50708138736E-01 -2.63936329894E-01
4.33500000000E+09 -3.46240723402E-01 -1.40891541548E-01 +3.02745518276E-03 -2.32476689595E-03 +2.98428454777E-03 -2.36023927613E-03 -3.62253803410E-01 -2.40091626721E-01
4.34000000000E+09 -3.52450473208E-01 -1.25331737863E-01 +3.04495610943E-03 -2.55698226893E-03 +3.00478343141E-03 -2.57191515038E-03 -3.72952857032E-01 -2.16880203831E-01
4.34500000000E+09 -3.56683008961E-01 -1.08643415847E-01 +2.80667420681E-03 -3.43215333798E-03 +2.78806438682E-03 -3.36833360118E-03 -3.83726052434E-01 -1.91210717522E-01
4.35000000000E+09 -3.58609262976E-01 -8.99511996364E-02 +2.09125847842E-03 -3.80019542793E-03 +2.09912235462E-03 -3.79814612113E-03 -3.91598519793E-01 -1.65918457494E-01
4.35500000000E+09 -3.60732830035E-01 -7.05658362768E-02 +1.70756058710E-03 -4.12475756469E-03 +1.80132916424E-03 -4.15978313826E-03 -3.99193240271E-01 -1.41972224990E-01
4.36000000000E+09 -3.63851379010E-01 -4.90667390176E-02 +1.02187132261E-03 -4.43526457583E-03 +1.08173064936E-03 -4.51371872401E-03 -4.05450278009E-01 -1.17680015942E-01
4.36500000000E+09 -3.67372606143E-01 -2.54229657717E-02 +2.48435702947E-04 -4.44821280700E-03 +2.13485039710E-04 -4.59353021727E-03 -4.10718835455E-01 -9.39291411008E-02
4.37000000000E+09 -3.71739162656E-01 -2.64838223801E-03 -4.15099376941E-04 -4.18014834817E-03 -4.39393952416E-04 -4.27258072870E-03 -4.14726777161E-01 -6.95450487173E-02
4.37500000000E+09 -3.76912265872E-01 +1.98193734270E-02 -8.89260188617E-04 -3.63690274604E-03 -1.00767355852E-03 -3.74611716742E-03 -4.17671633332E-01 -4.46945240129E-02
4.38000000000E+09 -3.82167642167E-01 +4.06445969364E-02 -7.49473227664E-04 -3.67192178830E-03 -8.49878840262E-04 -3.73348137637E-03 -4.19719440871E-01 -1.98046169338E-02
4.38500000000E+09 -3.87272871085E-01 +5.86370937763E-02 -9.81329672455E-04 -3.66253841222E-03 -1.09308383694E-03 -3.71924733829E-03 -4.21423165385E-01 +5.24954246053E-03
4.39000000000E+09 -3.90966397685E-01 +7.51830041759E-02 -1.38612079561E-03 -4.18879754101E-03 -1.55237040788E-03 -4.27687842688E-03 -4.22130615035E-01 +3.06547767047E-02
4.39500000000E+09 -3.92487278915E-01 +9.03896275206E-02 -2.57314206516E-03 -3.96623220253E-03 -2.67104841560E-03 -3.97874058286E-03 -4.21500441434E-01 +5.47023694159E-02
4.40000000000E+09 -3.91772883404E-01 +1.04884408243E-01 -3.07046056192E-03 -3.30924961463E-03 -3.21600032599E-03 -3.29177759700E-03 -4.19943723726E-01 +7.90380229118E-02
4.40500000000E+09 -3.89153434778E-01 +1.20514537384E-01 -3.63433776931E-03 -2.46482451130E-03 -3.71047460749E-03 -2.47037138284E-03 -4.16951497445E-01 +1.02465409525E-01
4.41000000000E+09 -3.84387287074E-01 +1.37044577121E-01 -3.12911402865E-03 -2.00507832726E-03 -3.22465977988E-03 -1.89931764624E-03 -4.13319726634E-01 +1.25257179146E-01
4.41500000000E+09 -3.79328727183E-01 +1.55578690382E-01 -3.53990345904E-03 -1.75997703190E-03 -3.62042838601E-03 -1.64760505111E-03 -4.09020360569E-01 +1.49177473247E-01
4.42000000000E+09 -3.74613183273E-01 +1.76826719925E-01 -3.40229385120E-03 -1.33371616650E-03 -3.41121625506E-03 -1.19087276304E-03 -4.03836314861E-01 +1.71508835047E-01
4.42500000000E+09 -3.69158609770E-01 +1.98849972175E-01 -3.53939002215E-03 -1.09768319229E-03 -3.52563428123E-03 -9.18503401157E-04 -3.98713598004E-01 +1.94598092423E-01
4.43000000000E+09 -3.65247185245E-01 +2.19819071055E-01 -3.28225032365E-03 -7.84034945159E-04 -3.24594574686E-03 -6.92227082693E-04 -3.92740132111E-01 +2.16586786407E-01
4.43500000000E+09 -3.63078666499E-01 +2.40191207929E-01 -3.84906911142E-03 -1.03816981031E-03 -3.79556381841E-03 -7.94260186589E-04 -3.86319363648E-01 +2.38502860875E-01
4.44000000000E+09 -3.61454110205E-01 +2.58565042621E-01 -4.15747169501E-03 -2.43513256579E-04 -4.14283499627E-03 -1.06725671544E-04 -3.78069051649E-01 +2.61356364324E-01
4.44500000000E+09 -3.60144317689E-01 +2.75193139744E-01 -3.91724940166E-03 +5.38183754103E-04 -3.92607279073E-03 +6.89894662149E-04 -3.69003364234E-01 +2.80912566837E-01
4.45000000000E+09 -3.57326858834E-01 +2.89923861413E-01 -3.87266245570E-03 +9.89836648117E-04 -3.79073787489E-03 +1.08368235293E-03 -3.59658670388E-01 +3.01329264935E-01
4.45500000000E+09 -3.52453964693E-01 +3.02523890727E-01 -3.66152220270E-03 +1.66900958181E-03 -3.56389781308E-03 +1.75171524716E-03 -3.48233034579E-01 +3.20399821713E-01
4.46000000000E+09 -3.46279224437E-01 +3.14409630502E-01 -2.93109528283E-03 +1.88714034814E-03 -2.83992276506E-03 +1.94299216528E-03 -3.38557952858E-01 +3.37735187806E-01
4.46500000000E+09 -3.37422385252E-01 +3.27592705211E-01 -2.65526694382E-03 +1.84846912063E-03 -2.53226155445E-03 +1.87610727455E-03 -3.27036213320E-01 +3.56214267978E-01
4.47000000000E+09 -3.26770525786E-01 +3.41728314065E-01 -2.51106731980E-03 +1.59197733618E-03 -2.42051795746E-03 +1.65426182325E-03 -3.15482844757E-01 +3.73394780923E-01
4.47500000000E+09 -3.14919524959E-01 +3.58394912525E-01 -3.21958859987E-03 +2.01384818292E-03 -3.15632958937E-03 +2.06153156791E-03 -3.04088491284E-01 +3.89636525637E-01
4.48000000000E+09 -3.01870434114E-01 +3.76154695124E-01 -2.56692819201E-03 +2.85722709409E-03 -2.45067112668E-03 +2.81546298318E-03 -2.92241173841E-01 +4.06193293106E-01
4.48500000000E+09 -2.89760012571E-01 +3.93446211453E-01 -2.14189203258E-03 +3.20421077643E-03 -1.98937048065E-03 +3.16103458178E-03 -2.80191741833E-01 +4.22198845430E-01
4.49000000000E+09 -2.80670287029E-01 +4.10180593111E-01 -1.57199983900E-03 +3.45077622659E-03 -1.46348376337E-03 +3.36550379475E-03 -2.67124978431E-01 +4.37843331889E-01
4.49500000000E+09 -2.73587628076E-01 +4.27984014047E-01 -7.37018359362E-04 +3.26645700851E-03 -7.06160468668E-04 +3.23734613734E-03 -2.54011278549E-01 +4.51725527951E-01
4.50000000000E+09 -2.66791841179E-01 +4.42928946955E-01 -5.71956942140E-04 +2.94206015133E-03 -5.76060454993E-04 +2.87212911276E-03 -2.41245527623E-01 +4.65553237451E-01
4.50500000000E+09 -2.61127541618E-01 +4.56132059361E-01 -5.01005845492E-04 +2.73258824619E-03 -5.38095262559E-04 +2.71142561629E-03 -2.27479527596E-01 +4.78596575576E-01
4.51000000000E+09 -2.54336362058E-01 +4.66550898285E-01 -4.93961866209E-04 +2.85856761899E-03 -4.49805118531E-04 +2.85618380285E-03 -2.14601825638E-01 +4.91056406088E-01
4.51500000000E+09 -2.46207272159E-01 +4.74680612660E-01 -1.64595690817E-04 +2.98416495446E-03 -1.36462977570E-04 +2.92597941274E-03 -2.01275214991E-01 +5.03401972553E-01
4.52000000000E+09 -2.36807155058E-01 +4.81860208124E-01 -1.22501344863E-04 +2.92184794085E-03 -9.91361632758E-05 +2.87174925669E-03 -1.87952011940E-01 +5.15148717421E-01
4.52500000000E+09 -2.25278747725E-01 +4.89635130291E-01 +7.42884539526E-05 +2.96860457126E-03 +1.42729363378E-04 +2.96325261032E-03 -1.74727342465E-01 +5.26222829371E-01
4.53000000000E+09 -2.11397579859E-01 +4.98454104878E-01 +3.34323101881E-04 +3.37903920135E-03 +4.04875828693E-04 +3.34088616386E-03 -1.60896069736E-01 +5.37130894577E-01
4.53500000000E+09 -1.95711914371E-01 +5.08407474307E-01 +1.08746886629E-03 +3.19694867297E-03 +1.06290046118E-03 +3.18849200831E-03 -1.46342204796E-01 +5.47322212964E-01
4.54000000000E+09 -1.79795057049E-01 +5.19128341319E-01 +1.42001555771E-03 +2.99637793370E-03 +1.46923240405E-03 +2.90439082792E-03 -1.31508157229E-01 +5.57733163526E-01
4.54500000000E+09 -1.64800572262E-01 +5.30347577864E-01 +1.42041077134E-03 +2.77020769187E-03 +1.47348878187E-03 +2.72391365812E-03 -1.16080530553E-01 +5.66798337687E-01
4.55000000000E+09 -1.52334723626E-01 +5.41272789509E-01 +2.01421134808E-03 +2.78130804853E-03 +2.03351449570E-03 +2.70695683387E-03 -1.01360671959E-01 +5.75550206843E-01
4.55500000000E+09 -1.42036366791E-01 +5.52723560365E-01 +2.14835183382E-03 +2.23392008645E-03 +2.13636341316E-03 +2.21110760690E-03 -8.73051611095E-02 +5.84034707139E-01
4.56000000000E+09 -1.32884208215E-01 +5.62992978945E-01 +2.22134850201E-03 +2.12201957128E-03 +2.24949976494E-03 +2.04984037589E-03 -7.26665999865E-02 +5.92819842444E-01
4.56500000000E+09 -1.24647352045E-01 +5.70955894639E-01 +2.50559957593E-03 +1.95412079317E-03 +2.54638527585E-03 +1.81026051247E-03 -5.82259887355E-02 +6.00273067492E-01
4.57000000000E+09 -1.16446734559E-01 +5.77556123456E-01 +2.55880830134E-03 +1.59170202075E-03 +2.54827499584E-03 +1.50310674741E-03 -4.32080582608E-02 +6.07503821242E-01
