# Hz S RI R 50
! CMT, C1220, 16058040, 17.2.0/1
! Date: 15/08/2018 12:20:38
! Data: Format (Calibration Info)
! Freq                      S11: Re/Im (F2)                       S21: Re/Im (F2)                       S12: Re/Im (F2)                       S22: Re/Im (F2)            
4.00000000000E+09 +6.49740961036E-01 -3.50571810505E-01 +9.01416107365E-04 +1.88491397363E-04 +8.90695372393E-04 +2.38023588967E-04 +7.42961439071E-01 -3.24505201639E-01
4.00500000000E+09 +6.41814838234E-01 -3.56803975000E-01 +1.09598043240E-03 +7.90458118803E-05 +1.12582809046E-03 +3.90309865197E-05 +7.32498334295E-01 -3.35120760239E-01
4.01000000000E+09 +6.33204197670E-01 -3.63334965537E-01 +1.15528402712E-03 -4.05531320046E-04 +1.22760056362E-03 -3.90200303567E-04 +7.21809709838E-01 -3.46004271564E-01
4.01500000000E+09 +6.22729765804E-01 -3.70577258575E-01 +9.41796208083E-04 -7.22522047199E-04 +1.01729071911E-03 -6.61851185769E-04 +7.10734150526E-01 -3.56229519354E-01
4.02000000000E+09 +6.11960741856E-01 -3.78127741358E-01 +4.87772273349E-04 -8.58348364469E-04 +5.18582158894E-04 -8.20258388621E-04 +6.99338313927E-01 -3.66385609115E-01
4.02500000000E+09 +6.00815293281E-01 -3.87141579454E-01 +2.71108138622E-04 -2.71548460295E-04 +2.82964273182E-04 -2.52736902313E-04 +6.87288968634E-01 -3.76492287714E-01
4.03000000000E+09 +5.89911919269E-01 -3.96739324166E-01 +8.36103903788E-04 -2.02635982623E-04 +8.83908293931E-04 -1.56200523806E-04 +6.74393900918E-01 -3.86127758716E-01
4.03500000000E+09 +5.79142658538E-01 -4.07325687954E-01 +1.04289172687E-03 -6.24001492167E-04 +1.13950006556E-03 -5.84661408719E-04 +6.61293786719E-01 -3.96152177964E-01
4.04000000000E+09 +5.68290603712E-01 -4.17830575370E-01 +9.73006532703E-04 -1.09030388992E-03 +1.06117631055E-03 -1.05740029227E-03 +6.47774109662E-01 -4.06429872520E-01
4.04500000000E+09 +5.56925547801E-01 -4.27299016911E-01 +5.15794744472E-04 -1.44615029125E-03 +6.06595223819E-04 -1.46476067129E-03 +6.33354426638E-01 -4.15815281015E-01
4.05000000000E+09 +5.45711104307E-01 -4.34805629126E-01 +2.68313022056E-05 -1.31314676040E-03 +6.20162044546E-05 -1.35763021399E-03 +6.19484009492E-01 -4.24329387261E-01
4.05500000000E+09 +5.34549060911E-01 -4.40036752044E-01 -4.33486770213E-05 -9.78176291158E-04 -9.05478597104E-06 -1.02832112575E-03 +6.05179797575E-01 -4.32667026062E-01
4.06000000000E+09 +5.23664765828E-01 -4.44573845728E-01 -1.11662900269E-05 -8.90882080019E-04 -5.51057646954E-05 -9.63597704145E-04 +5.90601705743E-01 -4.40518748635E-01
4.06500000000E+09 +5.11570058500E-01 -4.48790915790E-01 +1.07854763127E-04 -9.31495526075E-04 +1.10548807876E-04 -9.76180584007E-04 +5.74861216895E-01 -4.48354709751E-01
4.07000000000E+09 +4.97683924423E-01 -4.53486338841E-01 -1.93897105159E-05 -1.10008103226E-03 -1.46430126662E-05 -1.10930912766E-03 +5.58691220537E-01 -4.55468862589E-01
4.07500000000E+09 +4.82435830171E-01 -4.57610977136E-01 -6.93332065545E-05 -1.13825984041E-03 -7.59058558768E-05 -1.18553629162E-03 +5.42129615812E-01 -4.62741392677E-01
4.08000000000E+09 +4.66432023591E-01 -4.62693830336E-01 -2.99208285578E-04 -1.31908488558E-03 -2.62143338756E-04 -1.35258714204E-03 +5.26153440784E-01 -4.69029140808E-01
4.08500000000E+09 +4.49753171601E-01 -4.67791828967E-01 -5.66064529209E-04 -1.31344771627E-03 -5.33065565914E-04 -1.33190563340E-03 +5.10121868142E-01 -4.76659406772E-01
4.09000000000E+09 +4.33638955623E-01 -4.74158854686E-01 -8.68796362369E-04 -1.21651942554E-03 -8.66554311111E-04 -1.25736526442E-03 +4.92226992266E-01 -4.82502310490E-01
4.09500000000E+09 +4.17126919062E-01 -4.80928446039E-01 -9.85547996027E-04 -8.54027538684E-04 -9.78726604006E-04 -9.30302714414E-04 +4.75329177575E-01 -4.87483089582E-01
4.10000000000E+09 +4.00331665352E-01 -4.86923952584E-01 -9.98797305226E-04 -7.86993797454E-04 -1.03006270868E-03 -7.90771145345E-04 +4.56719229337E-01 -4.92861482823E-01
4.10500000000E+09 +3.84560706770E-01 -4.91076284992E-01 -8.21290452372E-04 -4.33000982301E-04 -8.03892230696E-04 -4.45838073089E-04 +4.37321087829E-01 -4.96756609677E-01
4.11000000000E+09 +3.69010967641E-01 -4.93819629401E-01 -6.92237325070E-04 -7.13862841701E-04 -6.85304198219E-04 -7.37772456824E-04 +4.17765826497E-01 -5.00325000009E-01
4.11500000000E+09 +3.54318350135E-01 -4.95705696223E-01 -7.44853936187E-04 -8.94150139253E-04 -7.31382639354E-04 -9.52967094952E-04 +3.98480384772E-01 -5.03603248907E-01
4.12000000000E+09 +3.38423477297E-01 -4.97612141381E-01 -1.24609129169E-03 -1.21574789272E-03 -1.22831667539E-03 -1.28745105033E-03 +3.78866577344E-01 -5.06511919818E-01
4.12500000000E+09 +3.20668447803E-01 -4.98474863629E-01 -1.94006815470E-03 -8.64755813530E-04 -1.97911255463E-03 -9.24945741874E-04 +3.58560218235E-01 -5.08693270722E-01
4.13000000000E+09 +3.02553180065E-01 -4.98961618674E-01 -2.17971457923E-03 -7.79427655140E-06 -2.21093509684E-03 -1.12529655872E-04 +3.37871272075E-01 -5.09832023950E-01
4.13500000000E+09 +2.83903293653E-01 -5.00502063034E-01 -1.64887987605E-03 +4.42456092825E-04 -1.74399390902E-03 +4.13011212299E-04 +3.16830022208E-01 -5.09431761638E-01
4.14000000000E+09 +2.64458061870E-01 -5.02949970593E-01 -1.38595828918E-03 +3.90125540919E-04 -1.40910530559E-03 +3.43386750250E-04 +2.96278959449E-01 -5.09001821249E-01
4.14500000000E+09 +2.45485326906E-01 -5.07058073666E-01 -1.34101743985E-03 +4.10559502932E-04 -1.42516112911E-03 +3.98762327563E-04 +2.75173488281E-01 -5.07583633545E-01
4.15000000000E+09 +2.25378599137E-01 -5.11946477866E-01 -1.33722068147E-03 +4.23459100486E-04 -1.36863894295E-03 +4.40588805274E-04 +2.55132258933E-01 -5.05815765725E-01
4.15500000000E+09 +2.05851194103E-01 -5.15596948191E-01 -1.49803482015E-03 +2.90932585182E-04 -1.52078854688E-03 +2.72016763578E-04 +2.34629108778E-01 -5.03390164206E-01
4.16000000000E+09 +1.87813794264E-01 -5.18286259971E-01 -1.68503246873E-03 +6.49895772858E-04 -1.77251678715E-03 +6.81348767804E-04 +2.14162237203E-01 -4.99474952954E-01
4.16500000000E+09 +1.70847289586E-01 -5.19263230910E-01 -1.64485359202E-03 +9.67667647468E-04 -1.79942527412E-03 +1.04687894904E-03 +1.93908408543E-01 -4.94975139175E-01
4.17000000000E+09 +1.55446100574E-01 -5.18196239573E-01 -1.72078222403E-03 +1.28364392648E-03 -1.79519020706E-03 +1.34104827972E-03 +1.73136540812E-01 -4.90077133766E-01
4.17500000000E+09 +1.40489440678E-01 -5.15899984729E-01 -1.52132275999E-03 +1.88889545965E-03 -1.58334387870E-03 +1.94098966948E-03 +1.51917434846E-01 -4.83822603540E-01
4.18000000000E+09 +1.25174986676E-01 -5.12332839188E-01 -9.55951576967E-04 +2.26947591156E-03 -1.01874446852E-03 +2.30388235804E-03 +1.31364304471E-01 -4.76457276115E-01
4.18500000000E+09 +1.08867576938E-01 -5.08221906703E-01 -1.45681870473E-04 +2.28897347065E-03 -1.93578667305E-04 +2.39173999669E-03 +1.11902803613E-01 -4.69467503026E-01
4.19000000000E+09 +9.10418321544E-02 -5.03260660276E-01 -2.28395728519E-05 +1.58414090938E-03 -2.39949656174E-05 +1.59752552425E-03 +9.06764948128E-02 -4.62065984082E-01
4.19500000000E+09 +7.30452365122E-02 -4.97582003198E-01 -3.54127037752E-04 +1.48574398119E-03 -3.84324712846E-04 +1.53992326056E-03 +6.99828742530E-02 -4.52285981175E-01
4.20000000000E+09 +5.45623170437E-02 -4.93340168561E-01 -3.34764934744E-04 +1.90743965285E-03 -3.54343702303E-04 +1.98029635957E-03 +5.04825712612E-02 -4.41393970777E-01
4.20500000000E+09 +3.52528360366E-02 -4.88954528867E-01 -3.60232542098E-04 +1.99843531630E-03 -3.14875051133E-04 +2.07086380622E-03 +3.06036017917E-02 -4.30661111101E-01
4.21000000000E+09 +1.66946202119E-02 -4.83903859505E-01 -7.72281155804E-05 +2.70592468114E-03 -3.58802362684E-05 +2.74437728288E-03 +1.10931980969E-02 -4.18485575165E-01
4.21500000000E+09 -5.00314023376E-04 -4.78414000882E-01 +9.44374548919E-04 +2.83414957602E-03 +9.80428159979E-04 +2.87969687484E-03 -7.55090302394E-03 -4.06234217925E-01
4.22000000000E+09 -1.67883064382E-02 -4.72283528519E-01 +1.50925200476E-03 +2.52671953487E-03 +1.48943842523E-03 +2.53968136806E-03 -2.58177482910E-02 -3.93295060487E-01
4.22500000000E+09 -3.22394631891E-02 -4.64734593183E-01 +2.03326134979E-03 +2.02975312113E-03 +2.04412858245E-03 +2.06289895652E-03 -4.29510464558E-02 -3.78867274717E-01
4.23000000000E+09 -4.75608282513E-02 -4.55896664991E-01 +2.16384102385E-03 +1.31814890114E-03 +2.16598558367E-03 +1.32036758169E-03 -5.89686238355E-02 -3.64420339548E-01
4.23500000000E+09 -6.36992856631E-02 -4.44662526084E-01 +1.79081525800E-03 +1.15610790313E-03 +1.82773314332E-03 +1.17842294710E-03 -7.55423640767E-02 -3.49111765882E-01
4.24000000000E+09 -7.99940118325E-02 -4.32003598091E-01 +1.85754107418E-03 +1.44030260200E-03 +1.88062812791E-03 +1.41875010578E-03 -9.07368549910E-02 -3.32350157252E-01
4.24500000000E+09 -9.69546451773E-02 -4.18704825870E-01 +2.47969257535E-03 +1.34975552072E-03 +2.56508025020E-03 +1.32290005179E-03 -1.05860460714E-01 -3.15706037702E-01
4.25000000000E+09 -1.15195149467E-01 -4.05844693173E-01 +2.90862696957E-03 +7.91493762533E-04 +2.97173805785E-03 +7.74471508697E-04 -1.20030102434E-01 -2.97812452144E-01
4.25500000000E+09 -1.33947214225E-01 -3.93768266764E-01 +3.05047146899E-03 +1.42700013879E-04 +2.97367498054E-03 +1.12492329125E-04 -1.32679947580E-01 -2.80582729251E-01
4.26000000000E+09 -1.54223246165E-01 -3.82725070909E-01 +2.83316595501E-03 -2.82566248118E-04 +2.77566411940E-03 -2.98128159285E-04 -1.45529717146E-01 -2.63460183866E-01
4.26500000000E+09 -1.74131231931E-01 -3.71305505692E-01 +2.96132820778E-03 -6.60339896830E-04 +2.99961842141E-03 -6.08897826257E-04 -1.57633214156E-01 -2.44386209395E-01
4.27000000000E+09 -1.91872687628E-01 -3.59855392439E-01 +2.76236295987E-03 -1.25489236790E-03 +2.77381615680E-03 -1.27784143127E-03 -1.69430569197E-01 -2.25556021326E-01
4.27500000000E+09 -2.08415104017E-01 -3.48422817649E-01 +2.27490530878E-03 -1.76163425571E-03 +2.26905513192E-03 -1.80456887262E-03 -1.81049078133E-01 -2.05246778113E-01
4.28000000000E+09 -2.22392542745E-01 -3.35310390395E-01 +1.75570973928E-03 -1.62382618937E-03 +1.75240131862E-03 -1.59735771076E-03 -1.91245210363E-01 -1.84419695354E-01
4.28500000000E+09 -2.34351746911E-01 -3.21338028155E-01 +1.95834983343E-03 -1.47903607289E-03 +1.88403298199E-03 -1.47128499139E-03 -1.99916466698E-01 -1.63438251197E-01
4.29000000000E+09 -2.45328769397E-01 -3.06301344121E-01 +2.20396427910E-03 -2.02984069108E-03 +2.14932500196E-03 -1.99562039222E-03 -2.07741682321E-01 -1.43481581439E-01
4.29500000000E+09 -2.56447147242E-01 -2.89471554758E-01 +1.76471552929E-03 -2.84467043689E-03 +1.80796252489E-03 -2.85075882157E-03 -2.14783428430E-01 -1.23662860283E-01
4.30000000000E+09 -2.68197719166E-01 -2.71410281988E-01 +8.65703282037E-04 -2.84067766430E-03 +8.52891171110E-04 -2.82193428590E-03 -2.20929423908E-01 -1.03457091103E-01
4.30500000000E+09 -2.80831843504E-01 -2.52072409177E-01 +7.47314999073E-04 -2.78226667881E-03 +7.62050442998E-04 -2.84490366941E-03 -2.25884698882E-01 -8.22707268959E-02
4.31000000000E+09 -2.94338383957E-01 -2.32491072673E-01 +2.39845018751E-04 -3.17260156157E-03 +2.85983683892E-04 -3.21212083497E-03 -2.29282627495E-01 -6.16122342531E-02
4.31500000000E+09 -3.08022603224E-01 -2.13052427296E-01 -4.00257838083E-04 -3.01475531830E-03 -4.31754544453E-04 -2.97965334985E-03 -2.32279381250E-01 -4.03273333042E-02
4.32000000000E+09 -3.20690908002E-01 -1.95146642364E-01 -8.50983769212E-04 -2.62301557168E-03 -8.61329449452E-04 -2.69312029957E-03 -2.34164611030E-01 -1.94430288493E-02
4.32500000000E+09 -3.32685085398E-01 -1.78630508400E-01 -8.82712302291E-04 -2.42096409974E-03 -9.31497416489E-04 -2.39560017865E-03 -2.35930055945E-01 +1.03660633613E-03
4.33000000000E+09 -3.42636225953E-01 -1.62663088677E-01 -1.29212027191E-03 -2.49883140175E-03 -1.36271578206E-03 -2.52983940504E-03 -2.36771570066E-01 +2.17351888287E-02
4.33500000000E+09 -3.50270023164E-01 -1.47661631392E-01 -1.41337507445E-03 -2.35119015189E-03 -1.51770422680E-03 -2.34530017046E-03 -2.36793300265E-01 +4.23240514797E-02
4.34000000000E+09 -3.56602209715E-01 -1.31957090704E-01 -2.10191665282E-03 -2.37328623620E-03 -2.16816868093E-03 -2.28585689354E-03 -2.36161065651E-01 +6.25114987214E-02
4.34500000000E+09 -3.60608476837E-01 -1.14178077580E-01 -2.46787996808E-03 -1.49701079259E-03 -2.51394171817E-03 -1.47215918451E-03 -2.34571165523E-01 +8.26599962716E-02
4.35000000000E+09 -3.62790060561E-01 -9.53421219622E-02 -2.26494816682E-03 -1.13144330487E-03 -2.26712605317E-03 -1.14737513033E-03 -2.32980571413E-01 +1.01539058679E-01
4.35500000000E+09 -3.65487312561E-01 -7.41290158831E-02 -2.42212640893E-03 -1.22593798381E-03 -2.49831276777E-03 -1.16018709589E-03 -2.30761199820E-01 +1.20918218221E-01
4.36000000000E+09 -3.67461355855E-01 -5.13019498265E-02 -2.60644933281E-03 -5.63854100602E-04 -2.58864765910E-03 -4.85688691020E-04 -2.28061953125E-01 +1.39103641767E-01
4.36500000000E+09 -3.70134038377E-01 -2.88511481761E-02 -2.61943583705E-03 -6.22782384268E-04 -2.63258297490E-03 -5.53212853989E-04 -2.24574038634E-01 +1.57888792692E-01
4.37000000000E+09 -3.75163505734E-01 -6.48192153504E-03 -2.94833675662E-03 +1.64979434105E-04 -2.97177068602E-03 +2.89037198814E-04 -2.19779175683E-01 +1.76011495767E-01
4.37500000000E+09 -3.80809465407E-01 +1.52931410421E-02 -2.44930110884E-03 +5.63790428155E-04 -2.44388896557E-03 +7.01944490284E-04 -2.14616429207E-01 +1.93810044488E-01
4.38000000000E+09 -3.86524972427E-01 +3.58784103901E-02 -2.31818916734E-03 +6.78203351901E-04 -2.24223288503E-03 +7.56534847046E-04 -2.08479993267E-01 +2.11451276538E-01
4.38500000000E+09 -3.90875540208E-01 +5.44499096103E-02 -2.35866514463E-03 +1.03501849549E-03 -2.24222179615E-03 +1.15678045507E-03 -2.02130284312E-01 +2.28938943219E-01
4.39000000000E+09 -3.93928573276E-01 +7.11972609461E-02 -2.11049757539E-03 +1.25081297635E-03 -2.00448311534E-03 +1.30163093793E-03 -1.95146191213E-01 +2.46114948725E-01
4.39500000000E+09 -3.94382538459E-01 +8.66592374716E-02 -1.91583594416E-03 +1.58921240276E-03 -1.75872144050E-03 +1.64377437067E-03 -1.88378735879E-01 +2.61860176982E-01
4.40000000000E+09 -3.92525448279E-01 +1.01724942010E-01 -1.67423690788E-03 +1.61568958652E-03 -1.57424615337E-03 +1.58508017619E-03 -1.80719976695E-01 +2.78496577195E-01
4.40500000000E+09 -3.88671011735E-01 +1.17407321471E-01 -1.63780722971E-03 +1.95814878783E-03 -1.51395996786E-03 +1.93884749657E-03 -1.71709562357E-01 +2.93474664966E-01
4.41000000000E+09 -3.83902333736E-01 +1.34728220496E-01 -1.07952404287E-03 +2.29400065227E-03 -9.88688105885E-04 +2.23234327678E-03 -1.62853202322E-01 +3.07686917902E-01
4.41500000000E+09 -3.77784257789E-01 +1.54371308881E-01 -8.29071585595E-04 +2.08779218682E-03 -7.41482594178E-04 +2.01624733549E-03 -1.53767222176E-01 +3.21419657637E-01
4.42000000000E+09 -3.71779785773E-01 +1.75332205210E-01 -8.71718802888E-04 +2.31036262391E-03 -7.97512675562E-04 +2.20542130071E-03 -1.44581943720E-01 +3.35754345967E-01
4.42500000000E+09 -3.66917702789E-01 +1.97034700780E-01 -2.93287096045E-04 +2.71657817088E-03 -2.79928980117E-04 +2.56723708797E-03 -1.34369001956E-01 +3.48856731252E-01
4.43000000000E+09 -3.63234337269E-01 +2.19071816783E-01 +1.62891415074E-04 +2.50193064431E-03 +1.44915325113E-04 +2.37451029199E-03 -1.25831073973E-01 +3.61667081863E-01
4.43500000000E+09 -3.60453846207E-01 +2.40060958701E-01 +4.55944943062E-04 +2.60552153003E-03 +4.35850080984E-04 +2.44131732202E-03 -1.15950548105E-01 +3.74732866403E-01
4.44000000000E+09 -3.57821691180E-01 +2.58992658552E-01 +1.14945240737E-03 +2.31146976931E-03 +1.11739600142E-03 +2.22631302213E-03 -1.06164155921E-01 +3.86496580947E-01
4.44500000000E+09 -3.55544986844E-01 +2.75390086066E-01 +1.28960385332E-03 +1.73046509206E-03 +1.20365041729E-03 +1.65928101980E-03 -9.61422517845E-02 +3.98192549568E-01
4.45000000000E+09 -3.52811033782E-01 +2.89920289292E-01 +1.17623287926E-03 +1.79252737806E-03 +1.08174350815E-03 +1.77618745121E-03 -8.52995891360E-02 +4.09193341980E-01
4.45500000000E+09 -3.48032436335E-01 +3.03643895547E-01 +1.70665259910E-03 +1.79963144084E-03 +1.60804306891E-03 +1.72073403784E-03 -7.43720202638E-02 +4.19504311173E-01
4.46000000000E+09 -3.40976090237E-01 +3.16886826810E-01 +1.92258229629E-03 +1.07479846424E-03 +1.81918754072E-03 +1.08311942688E-03 -6.33348262732E-02 +4.29598950419E-01
4.46500000000E+09 -3.31524526830E-01 +3.30433808899E-01 +1.78600985565E-03 +9.00718239253E-04 +1.75113346824E-03 +8.96905817699E-04 -5.18819509034E-02 +4.38798000812E-01
4.47000000000E+09 -3.20661254845E-01 +3.44804899048E-01 +1.66771817557E-03 +6.46653544653E-04 +1.66020035753E-03 +7.04877017551E-04 -4.13437645810E-02 +4.48335444809E-01
4.47500000000E+09 -3.08885329512E-01 +3.61410824118E-01 +1.91225720092E-03 +7.87038267249E-04 +1.91805982284E-03 +7.95361757019E-04 -2.94239756628E-02 +4.58133431817E-01
4.48000000000E+09 -2.96722432378E-01 +3.78986892008E-01 +2.14283638698E-03 +4.85130794127E-04 +2.10811301714E-03 +4.94098224350E-04 -1.73604785543E-02 +4.66342634582E-01
4.48500000000E+09 -2.85548747759E-01 +3.96967156923E-01 +2.29781067326E-03 -1.62623065262E-04 +2.24765049688E-03 -1.60773912523E-04 -5.62752676112E-03 +4.74413032618E-01
4.49000000000E+09 -2.75955212244E-01 +4.14699136329E-01 +2.18094826618E-03 -6.12561749896E-04 +2.13746743272E-03 -5.15390286027E-04 +6.49707102713E-03 +4.81730313576E-01
4.49500000000E+09 -2.67573946525E-01 +4.31346803702E-01 +1.60641137330E-03 -1.03985423288E-03 +1.60238659530E-03 -1.02037849849E-03 +1.77529385942E-02 +4.88036990928E-01
4.50000000000E+09 -2.60689598007E-01 +4.45152388278E-01 +1.25412714448E-03 -7.94355309754E-04 +1.24617585816E-03 -8.10732595173E-04 +2.92018091553E-02 +4.94550049815E-01
4.50500000000E+09 -2.55534134928E-01 +4.57211154191E-01 +1.33515182718E-03 -6.89346461516E-04 +1.36126718431E-03 -7.02580258485E-04 +4.06993607114E-02 +5.00430116995E-01
4.51000000000E+09 -2.49401480299E-01 +4.67963855564E-01 +1.43271115769E-03 -1.11541243601E-03 +1.40305401644E-03 -1.11303949078E-03 +5.19812706318E-02 +5.06259488875E-01
4.51500000000E+09 -2.41171509849E-01 +4.76769851823E-01 +1.17203489445E-03 -1.24819712123E-03 +1.13197446362E-03 -1.25284482501E-03 +6.33522088488E-02 +5.12009969122E-01
4.52000000000E+09 -2.31214108615E-01 +4.84193781379E-01 +7.91225455423E-04 -1.43227969851E-03 +7.52176097689E-04 -1.46063062307E-03 +7.52655188955E-02 +5.16801876634E-01
4.52500000000E+09 -2.19113186195E-01 +4.91603019715E-01 +6.70906126912E-04 -1.24330148860E-03 +5.74208519912E-04 -1.28174506860E-03 +8.65100612166E-02 +5.21013557623E-01
4.53000000000E+09 -2.05588030760E-01 +4.99584649468E-01 +7.60691802671E-04 -1.38881999691E-03 +6.37973604096E-04 -1.48067369336E-03 +9.81040253023E-02 +5.25065697567E-01
4.53500000000E+09 -1.90722714278E-01 +5.09079065196E-01 +2.86198918376E-04 -1.55489760297E-03 +1.54771683108E-04 -1.49841839640E-03 +1.09161463736E-01 +5.28559565317E-01
4.54000000000E+09 -1.75661663954E-01 +5.19380884684E-01 +1.89246566269E-04 -1.48619633114E-03 +7.87321889496E-05 -1.43289871358E-03 +1.20481807966E-01 +5.32107540095E-01
4.54500000000E+09 -1.60964126080E-01 +5.30801988253E-01 -1.57892055177E-04 -1.38546372571E-03 -2.23753114025E-04 -1.28702119738E-03 +1.31161235961E-01 +5.35838141855E-01
4.55000000000E+09 -1.47445057994E-01 +5.41256419506E-01 -2.47063048902E-04 -1.25908362755E-03 -3.74551875706E-04 -1.11434732347E-03 +1.43027442182E-01 +5.39611347703E-01
4.55500000000E+09 -1.36332368168E-01 +5.50921326120E-01 -2.08057637564E-04 -1.06371380481E-03 -2.50986020247E-04 -8.89516725187E-04 +1.54159834208E-01 +5.42453581284E-01
4.56000000000E+09 -1.26737101196E-01 +5.60113709675E-01 -1.39822354842E-04 -1.33483549001E-03 -1.19678344996E-04 -1.17344855308E-03 +1.65206574313E-01 +5.45202855048E-01
4.56500000000E+09 -1.17514003859E-01 +5.67947849039E-01 -4.64075401993E-04 -1.48702742920E-03 -4.28709785132E-04 -1.33344389902E-03 +1.75714102545E-01 +5.47532775508E-01
4.57000000000E+09 -1.07699692437E-01 +5.73970727006E-01 -8.31520698187E-04 -1.32736526031E-03 -8.11055827919E-04 -1.20908053942E-03 +1.86450578437E-01 +5.49841016012E-01
