# Hz S RI R 50
! CMT, C1220, 16058040, 17.2.0/1
! Date: 15/08/2018 11:33:10
! Data: Format (Calibration Info)
! Freq                      S11: Re/Im (F2)                       S21: Re/Im (F2)                       S12: Re/Im (F2)                       S22: Re/Im (F2)            
4.00000000000E+09 +6.66288882903E-01 -3.56441286465E-01 +1.06048773369E-03 -3.62487510901E-03 +1.24687509344E-03 -3.64474273003E-03 +7.74729406083E-01 -3.55258564340E-01
4.00500000000E+09 +6.58334711686E-01 -3.64517655548E-01 +5.18250541272E-04 -3.89423652057E-03 +6.34295367041E-04 -3.93341564352E-03 +7.66309437637E-01 -3.66531447442E-01
4.01000000000E+09 +6.49704452412E-01 -3.71729606836E-01 -1.23041016165E-04 -3.89792921372E-03 -8.44371665250E-06 -3.96133226288E-03 +7.57392720018E-01 -3.77822237173E-01
4.01500000000E+09 +6.40534212012E-01 -3.79332641440E-01 -6.83111603620E-04 -3.73401131235E-03 -5.16742429387E-04 -3.78429730620E-03 +7.47696077686E-01 -3.88448545658E-01
4.02000000000E+09 +6.30425700609E-01 -3.87890066298E-01 -8.48717871862E-04 -3.50492603223E-03 -6.83435618266E-04 -3.61019773680E-03 +7.37792287048E-01 -3.99081113447E-01
4.02500000000E+09 +6.19373406234E-01 -3.96932324134E-01 -1.03291370789E-03 -3.59394810126E-03 -8.74080125004E-04 -3.70182489009E-03 +7.27403638423E-01 -4.09204865736E-01
4.03000000000E+09 +6.07681135723E-01 -4.06561297416E-01 -1.45745718178E-03 -3.72257773336E-03 -1.28733682884E-03 -3.89322323030E-03 +7.17173697194E-01 -4.19805843657E-01
4.03500000000E+09 +5.95874697400E-01 -4.16120550705E-01 -2.06657146528E-03 -3.45236300787E-03 -2.01161250717E-03 -3.62407204718E-03 +7.05948946007E-01 -4.30953642465E-01
4.04000000000E+09 +5.84180660900E-01 -4.25946351390E-01 -2.22551349416E-03 -3.09565972866E-03 -2.18172257034E-03 -3.30328314328E-03 +6.94449446045E-01 -4.42014509623E-01
4.04500000000E+09 +5.72527240857E-01 -4.35410095079E-01 -2.53597788734E-03 -3.00342280700E-03 -2.49689089466E-03 -3.25185216614E-03 +6.82444329485E-01 -4.52745240277E-01
4.05000000000E+09 +5.60996458265E-01 -4.44114699372E-01 -2.87417638753E-03 -2.86070970562E-03 -2.82632825262E-03 -3.11754324656E-03 +6.70737176539E-01 -4.62422793549E-01
4.05500000000E+09 +5.49105263789E-01 -4.52196529382E-01 -2.95866015780E-03 -2.74974437844E-03 -3.07970761479E-03 -2.96086411290E-03 +6.58331065373E-01 -4.72035018103E-01
4.06000000000E+09 +5.36028424897E-01 -4.59801650032E-01 -3.68630986442E-03 -2.66405372380E-03 -3.78263299428E-03 -2.84180482601E-03 +6.45823697545E-01 -4.81437984087E-01
4.06500000000E+09 +5.22470569771E-01 -4.65811598165E-01 -4.18412165834E-03 -1.74829677553E-03 -4.28024560510E-03 -1.90959759473E-03 +6.32478012614E-01 -4.90367702005E-01
4.07000000000E+09 +5.08758677114E-01 -4.72608496301E-01 -3.86303652049E-03 -1.36772549932E-03 -3.98935384302E-03 -1.48735416910E-03 +6.18669576868E-01 -4.99718330432E-01
4.07500000000E+09 +4.93267467637E-01 -4.79557999877E-01 -4.08962677063E-03 -1.26697406219E-03 -4.15274443471E-03 -1.42499528084E-03 +6.05065940071E-01 -5.08642291316E-01
4.08000000000E+09 +4.77224625513E-01 -4.85989317769E-01 -4.38231964336E-03 -8.78061912214E-04 -4.47007750466E-03 -1.04488996825E-03 +5.91588048900E-01 -5.18108983170E-01
4.08500000000E+09 +4.61121886483E-01 -4.92986793356E-01 -4.50341474823E-03 -3.23361050980E-04 -4.67400896579E-03 -4.85044293186E-04 +5.77660815660E-01 -5.27551920231E-01
4.09000000000E+09 +4.44784680853E-01 -5.00578994856E-01 -4.53851960748E-03 +1.49798186217E-04 -4.81276816835E-03 +5.38740416018E-07 +5.63142064341E-01 -5.36407488570E-01
4.09500000000E+09 +4.28239096397E-01 -5.07340816235E-01 -4.57265650810E-03 +8.23189822924E-04 -4.77190364366E-03 +7.85806541215E-04 +5.47711005201E-01 -5.43934340391E-01
4.10000000000E+09 +4.12759698113E-01 -5.14083772652E-01 -3.97535096305E-03 +1.07156681298E-03 -4.18096497904E-03 +1.09185005984E-03 +5.31854043677E-01 -5.50868633799E-01
4.10500000000E+09 +3.96294489611E-01 -5.20504153162E-01 -4.22899488999E-03 +1.03791210294E-03 -4.38147978666E-03 +1.06288616916E-03 +5.15869968061E-01 -5.57726512327E-01
4.11000000000E+09 +3.79547035379E-01 -5.24284679806E-01 -4.46511079036E-03 +1.70909978285E-03 -4.55970566096E-03 +1.70918330298E-03 +4.99096140340E-01 -5.65588207190E-01
4.11500000000E+09 +3.63913553958E-01 -5.26664788695E-01 -4.26089046351E-03 +2.30982907155E-03 -4.39833835609E-03 +2.30015223275E-03 +4.81558556313E-01 -5.73291825108E-01
4.12000000000E+09 +3.47572464429E-01 -5.28935936001E-01 -3.91609973195E-03 +2.78418307114E-03 -4.03010979939E-03 +2.74080285399E-03 +4.63989879979E-01 -5.79915682511E-01
4.12500000000E+09 +3.30892051723E-01 -5.30685450032E-01 -3.62270785044E-03 +3.29340150294E-03 -3.76771664431E-03 +3.20445842574E-03 +4.46736618612E-01 -5.85513379435E-01
4.13000000000E+09 +3.13580410147E-01 -5.33341642816E-01 -2.95749554321E-03 +3.44532186263E-03 -3.08826566752E-03 +3.41366840235E-03 +4.29593618939E-01 -5.91194686291E-01
4.13500000000E+09 +2.94352120074E-01 -5.36643890037E-01 -2.67375867318E-03 +3.35296582553E-03 -2.88037904047E-03 +3.36350324147E-03 +4.11667682738E-01 -5.96683251007E-01
4.14000000000E+09 +2.74262313142E-01 -5.39570141272E-01 -2.73317811463E-03 +3.38717551343E-03 -2.92332505651E-03 +3.37243318733E-03 +3.92025704758E-01 -6.01832669427E-01
4.14500000000E+09 +2.54898403857E-01 -5.42227152977E-01 -2.86562690068E-03 +4.03817402571E-03 -3.06999223758E-03 +4.10563143980E-03 +3.72147860926E-01 -6.06254235229E-01
4.15000000000E+09 +2.36175546791E-01 -5.46656915355E-01 -1.93851068312E-03 +4.47814122530E-03 -2.11922372723E-03 +4.55362454598E-03 +3.53088026218E-01 -6.10151452554E-01
4.15500000000E+09 +2.16539925880E-01 -5.49752807445E-01 -1.88419121010E-03 +4.41069228206E-03 -1.97941152647E-03 +4.52794662227E-03 +3.33934925804E-01 -6.14143423752E-01
4.16000000000E+09 +1.98890881857E-01 -5.51663097092E-01 -1.49866648108E-03 +4.85456757272E-03 -1.60342571109E-03 +4.96097095040E-03 +3.14677939939E-01 -6.17294314335E-01
4.16500000000E+09 +1.81643003291E-01 -5.52843900513E-01 -9.87935627881E-04 +4.94889983252E-03 -1.02103209508E-03 +5.06662839614E-03 +2.94420526996E-01 -6.19291637836E-01
4.17000000000E+09 +1.64302452752E-01 -5.52163173376E-01 -8.00370720773E-04 +5.09118948668E-03 -8.65450657718E-04 +5.19022691318E-03 +2.74294257580E-01 -6.20101718409E-01
4.17500000000E+09 +1.47339682183E-01 -5.49498993758E-01 -1.95373476965E-04 +5.68123060165E-03 -3.14958723917E-04 +5.85546785288E-03 +2.53877737961E-01 -6.20748341697E-01
4.18000000000E+09 +1.30240801946E-01 -5.45749101866E-01 +9.15695123399E-04 +5.64527550057E-03 +8.29469428007E-04 +5.87905632741E-03 +2.32664731590E-01 -6.21733956524E-01
4.18500000000E+09 +1.11293793090E-01 -5.41615457142E-01 +1.20560084387E-03 +5.01408903621E-03 +1.21304192459E-03 +5.16925950825E-03 +2.10274673505E-01 -6.22188207168E-01
4.19000000000E+09 +9.15337028458E-02 -5.35911682394E-01 +1.26695835257E-03 +5.03377627523E-03 +1.21634054974E-03 +5.20280655822E-03 +1.87531482630E-01 -6.21183704935E-01
4.19500000000E+09 +7.17524807742E-02 -5.30548299504E-01 +1.65236466295E-03 +5.32878842047E-03 +1.59768889981E-03 +5.48774571001E-03 +1.65385662998E-01 -6.19007748477E-01
4.20000000000E+09 +5.10836534792E-02 -5.26241987658E-01 +2.28078152289E-03 +5.49859962638E-03 +2.25941770841E-03 +5.64980178528E-03 +1.44061440135E-01 -6.16558368236E-01
4.20500000000E+09 +3.00174149943E-02 -5.22136799998E-01 +3.22361940367E-03 +5.65741320403E-03 +3.25209464118E-03 +5.89927406843E-03 +1.21462381011E-01 -6.13484258341E-01
4.21000000000E+09 +9.32286259634E-03 -5.17433544122E-01 +4.27787041527E-03 +5.30585071889E-03 +4.35731935785E-03 +5.56554265045E-03 +9.83573086147E-02 -6.09364064581E-01
4.21500000000E+09 -9.72832990648E-03 -5.12928659541E-01 +4.80343551642E-03 +4.25206814380E-03 +4.94235423524E-03 +4.44635816510E-03 +7.51879096878E-02 -6.04245277538E-01
4.22000000000E+09 -2.82365055452E-02 -5.07148961887E-01 +5.12113823393E-03 +3.86180580296E-03 +5.29178697972E-03 +3.99242530330E-03 +5.30079128904E-02 -5.97937162690E-01
4.22500000000E+09 -4.47070807049E-02 -5.00153035518E-01 +5.44095604370E-03 +3.34233525435E-03 +5.53425991265E-03 +3.44648830409E-03 +3.14863455528E-02 -5.91801985828E-01
4.23000000000E+09 -6.08344943089E-02 -4.92535683552E-01 +5.93480237589E-03 +2.70798926061E-03 +6.05709886940E-03 +2.83771137783E-03 +1.09000622611E-02 -5.84905880693E-01
4.23500000000E+09 -7.80646694462E-02 -4.82668771292E-01 +5.88847464726E-03 +2.09796316536E-03 +6.01694643357E-03 +2.25886988919E-03 -1.12572661696E-02 -5.77756539233E-01
4.24000000000E+09 -9.51816006927E-02 -4.70732005460E-01 +6.10953331881E-03 +1.91187152628E-03 +6.28818248028E-03 +1.98656027005E-03 -3.37191114351E-02 -5.68794984288E-01
4.24500000000E+09 -1.12640591135E-01 -4.58037951201E-01 +6.46924554009E-03 +1.16584395117E-03 +6.72948729275E-03 +1.24085413941E-03 -5.59616199565E-02 -5.57919898833E-01
4.25000000000E+09 -1.31581980517E-01 -4.44986727234E-01 +6.54656965553E-03 +1.05530268580E-03 +6.69313654026E-03 +1.03567776989E-03 -7.69608060697E-02 -5.47141181646E-01
4.25500000000E+09 -1.51206356529E-01 -4.32211992598E-01 +7.19913161153E-03 +3.57061864628E-04 +7.43389680068E-03 +3.43700876626E-04 -9.74591748895E-02 -5.35596584039E-01
4.26000000000E+09 -1.71501978218E-01 -4.20181234706E-01 +7.81097942849E-03 -9.12714820737E-04 +8.03372024418E-03 -1.00147347618E-03 -1.18263509220E-01 -5.23524213189E-01
4.26500000000E+09 -1.92415981196E-01 -4.08932794322E-01 +7.11716428193E-03 -2.00499217805E-03 +7.29126296491E-03 -2.17361024578E-03 -1.38279538559E-01 -5.09832151808E-01
4.27000000000E+09 -2.12445276304E-01 -3.96554978891E-01 +6.89912980681E-03 -2.73739772540E-03 +7.00858843222E-03 -2.99736914474E-03 -1.59317858603E-01 -4.95829315136E-01
4.27500000000E+09 -2.30446307811E-01 -3.84521175232E-01 +6.36476266570E-03 -3.78961798119E-03 +6.39717801638E-03 -3.94073446989E-03 -1.79454368801E-01 -4.79681196176E-01
4.28000000000E+09 -2.46494442118E-01 -3.71978788163E-01 +5.39048695159E-03 -3.75236198322E-03 +5.41857139796E-03 -3.89246380351E-03 -1.98438138265E-01 -4.65285180705E-01
4.28500000000E+09 -2.60688731522E-01 -3.59195062725E-01 +5.67041545478E-03 -3.55207380278E-03 +5.67807477238E-03 -3.72723036422E-03 -2.19908176718E-01 -4.49934092635E-01
4.29000000000E+09 -2.73749112452E-01 -3.44725849950E-01 +6.04512754005E-03 -4.61338308030E-03 +6.12201126580E-03 -4.76552355651E-03 -2.39682240152E-01 -4.31889904543E-01
4.29500000000E+09 -2.85606793502E-01 -3.29304603772E-01 +5.15955965635E-03 -5.72529347853E-03 +5.13431323277E-03 -5.87253432938E-03 -2.56628733351E-01 -4.12457355233E-01
4.30000000000E+09 -2.98483824987E-01 -3.12657797865E-01 +5.09555428417E-03 -6.00439781671E-03 +5.08735230830E-03 -6.17126033301E-03 -2.72441270275E-01 -3.94202074511E-01
4.30500000000E+09 -3.11871258649E-01 -2.94343935071E-01 +4.16851642230E-03 -7.21144995830E-03 +4.12080471170E-03 -7.38915506617E-03 -2.87651866506E-01 -3.74630228978E-01
4.31000000000E+09 -3.25047983888E-01 -2.74576680318E-01 +3.06115526607E-03 -7.39884958040E-03 +3.01425723614E-03 -7.52574635505E-03 -3.02921465816E-01 -3.55044595099E-01
4.31500000000E+09 -3.38398712952E-01 -2.54707991967E-01 +2.46613401178E-03 -7.59660740513E-03 +2.46017312671E-03 -7.68343625985E-03 -3.18792968474E-01 -3.33952424999E-01
4.32000000000E+09 -3.50563558050E-01 -2.34946487214E-01 +1.55122906707E-03 -8.37961063086E-03 +1.53879054933E-03 -8.47877185519E-03 -3.32477935329E-01 -3.11403855692E-01
4.32500000000E+09 -3.61173719529E-01 -2.16884543442E-01 -3.33846806415E-04 -8.36416586910E-03 -4.17527729818E-04 -8.49834015505E-03 -3.44532832387E-01 -2.89514150089E-01
4.33000000000E+09 -3.72114438253E-01 -2.00584819508E-01 -4.54866506946E-04 -6.85359042023E-03 -5.41487934608E-04 -6.90803812989E-03 -3.56248445639E-01 -2.68882997018E-01
4.33500000000E+09 -3.82257661459E-01 -1.82947471825E-01 -1.24730409054E-04 -7.29269346603E-03 -1.94073702294E-04 -7.28525349730E-03 -3.68323545758E-01 -2.45197381918E-01
4.34000000000E+09 -3.90106387455E-01 -1.64511988881E-01 -6.32231787489E-04 -8.02828374031E-03 -6.58775490668E-04 -8.02274430178E-03 -3.79021379017E-01 -2.20690470274E-01
4.34500000000E+09 -3.96059445880E-01 -1.44770911016E-01 -1.57765636252E-03 -8.73363608413E-03 -1.51714305007E-03 -8.80187077228E-03 -3.87747204497E-01 -1.95215211506E-01
4.35000000000E+09 -4.00041522208E-01 -1.23646925081E-01 -3.34349609829E-03 -9.16938423025E-03 -3.38395227791E-03 -9.28035714885E-03 -3.96208311104E-01 -1.71338282793E-01
4.35500000000E+09 -4.02838470237E-01 -1.01886590926E-01 -5.35926038296E-03 -8.26540026623E-03 -5.42099589487E-03 -8.32445532744E-03 -4.04783276720E-01 -1.48152156543E-01
4.36000000000E+09 -4.05836225392E-01 -8.02861130215E-02 -5.70703452063E-03 -6.33873130551E-03 -5.81534165371E-03 -6.44355131440E-03 -4.12779701484E-01 -1.24914230814E-01
4.36500000000E+09 -4.10815614105E-01 -5.72703067445E-02 -5.87544766858E-03 -6.38124949337E-03 -6.03536143472E-03 -6.42864575073E-03 -4.18684894833E-01 -9.98483128038E-02
4.37000000000E+09 -4.16258726515E-01 -3.31756314425E-02 -6.39669773811E-03 -5.60267669981E-03 -6.52766394340E-03 -5.69733962413E-03 -4.22610566295E-01 -7.50907048843E-02
4.37500000000E+09 -4.21152001043E-01 -1.00886952082E-02 -6.70604803971E-03 -5.59311715780E-03 -6.95107727691E-03 -5.63492824563E-03 -4.24278189576E-01 -4.98853176029E-02
4.38000000000E+09 -4.26023626473E-01 +1.18774927746E-02 -7.71164957690E-03 -4.91562458553E-03 -8.03950550926E-03 -4.88713999064E-03 -4.27573064129E-01 -2.65256876433E-02
4.38500000000E+09 -4.29924569620E-01 +3.30199397846E-02 -8.71421522913E-03 -4.00295041587E-03 -9.04972651335E-03 -3.86860568869E-03 -4.30538179562E-01 -4.10354001451E-04
4.39000000000E+09 -4.32333317823E-01 +5.18612679748E-02 -8.62980264434E-03 -2.94944370273E-03 -8.82503535688E-03 -2.73125455262E-03 -4.31948311195E-01 +2.64529187900E-02
4.39500000000E+09 -4.33070990126E-01 +6.93976848293E-02 -9.48785395621E-03 -2.58799115707E-03 -9.70095792411E-03 -2.31339678708E-03 -4.30381019158E-01 +5.21281198615E-02
4.40000000000E+09 -4.32562462127E-01 +8.70752521034E-02 -1.02874336624E-02 -9.32853703964E-04 -1.03751441818E-02 -7.11318616392E-04 -4.27992711940E-01 +7.55104362348E-02
4.40500000000E+09 -4.29901789361E-01 +1.04986104369E-01 -1.04648421762E-02 +3.24717549213E-04 -1.04998807966E-02 +6.01096275489E-04 -4.25545801544E-01 +9.86657399928E-02
4.41000000000E+09 -4.26493193948E-01 +1.23802803140E-01 -9.94212234174E-03 +2.64160132100E-03 -9.93497655879E-03 +2.90903005495E-03 -4.23336987715E-01 +1.21039132408E-01
4.41500000000E+09 -4.23086174729E-01 +1.45059644567E-01 -8.93183631728E-03 +3.20941373878E-03 -8.81835949741E-03 +3.49426746498E-03 -4.20126846829E-01 +1.46517170029E-01
4.42000000000E+09 -4.18305374835E-01 +1.67410566803E-01 -8.43105693480E-03 +3.63135103982E-03 -8.26133156321E-03 +3.83277692867E-03 -4.13597312932E-01 +1.71620783523E-01
4.42500000000E+09 -4.14399332545E-01 +1.90208319931E-01 -8.12174819124E-03 +4.08846079196E-03 -7.91902151919E-03 +4.29890020991E-03 -4.06233007492E-01 +1.93624540977E-01
4.43000000000E+09 -4.10635114868E-01 +2.12760719081E-01 -8.42440247197E-03 +4.84000707675E-03 -8.14373040834E-03 +4.98692077825E-03 -4.01738036511E-01 +2.15629113862E-01
4.43500000000E+09 -4.07261654192E-01 +2.33778221493E-01 -8.15963120529E-03 +6.56596611344E-03 -7.86822984883E-03 +6.55075694682E-03 -3.95558042917E-01 +2.38700282689E-01
4.44000000000E+09 -4.04413798430E-01 +2.52326423261E-01 -6.94983947294E-03 +8.44957743875E-03 -6.70525664683E-03 +8.43181622103E-03 -3.87214572981E-01 +2.61478302186E-01
4.44500000000E+09 -4.02425635644E-01 +2.68841820485E-01 -4.75942346786E-03 +8.35409186522E-03 -4.57870628907E-03 +8.33316379458E-03 -3.76837603426E-01 +2.82451325700E-01
4.45000000000E+09 -3.99971632623E-01 +2.84684087447E-01 -3.87814642831E-03 +7.85599085758E-03 -3.71664379354E-03 +7.85663890589E-03 -3.66678567120E-01 +3.01061620979E-01
4.45500000000E+09 -3.94896660256E-01 +2.99806520317E-01 -4.29792586889E-03 +8.01350209551E-03 -4.01754193749E-03 +8.08358275660E-03 -3.57181303854E-01 +3.19224350501E-01
4.46000000000E+09 -3.87607566255E-01 +3.14174140306E-01 -3.42402736404E-03 +9.46484502544E-03 -3.20725061557E-03 +9.48096592033E-03 -3.48492951347E-01 +3.39365760051E-01
4.46500000000E+09 -3.77514684796E-01 +3.29675354916E-01 -1.81374630187E-03 +1.00288650572E-02 -1.60655226177E-03 +1.00148005201E-02 -3.35651946334E-01 +3.58462559239E-01
4.47000000000E+09 -3.64805137590E-01 +3.44339250547E-01 -2.28144163383E-05 +9.91351983086E-03 +1.52761792491E-04 +9.81480033754E-03 -3.23541277801E-01 +3.76231362443E-01
4.47500000000E+09 -3.52872638722E-01 +3.59368068462E-01 +8.86295156802E-04 +8.68623829368E-03 +1.12931937869E-03 +8.60879079673E-03 -3.11100897170E-01 +3.92806885990E-01
4.48000000000E+09 -3.41572327210E-01 +3.77065013235E-01 +6.85570823404E-04 +8.82241004610E-03 +8.82383542260E-04 +8.62353230355E-03 -3.00179145535E-01 +4.10223881347E-01
4.48500000000E+09 -3.30111212613E-01 +3.95823307742E-01 +1.69692566367E-03 +9.34996978267E-03 +1.84075554570E-03 +9.08466262636E-03 -2.87440800342E-01 +4.27463816504E-01
4.49000000000E+09 -3.20025470235E-01 +4.13920906228E-01 +3.20260022769E-03 +9.69422870202E-03 +3.25278477728E-03 +9.37026703614E-03 -2.74130427717E-01 +4.43742788102E-01
4.49500000000E+09 -3.11148102646E-01 +4.31634015628E-01 +4.84323414691E-03 +8.70131382087E-03 +4.73982520268E-03 +8.45322595424E-03 -2.59273977459E-01 +4.57899074998E-01
4.50000000000E+09 -3.02800686735E-01 +4.47100457966E-01 +5.57644040738E-03 +7.70477073086E-03 +5.50542703973E-03 +7.54800441779E-03 -2.45610172221E-01 +4.71286540503E-01
4.50500000000E+09 -2.95993228486E-01 +4.60651989133E-01 +6.46773365965E-03 +6.71920055767E-03 +6.37055384669E-03 +6.58219572862E-03 -2.31832249887E-01 +4.83897844872E-01
4.51000000000E+09 -2.88273071403E-01 +4.72319385257E-01 +6.45747884870E-03 +5.93171641949E-03 +6.40770312572E-03 +5.74400453246E-03 -2.19092034884E-01 +4.98060946799E-01
4.51500000000E+09 -2.78928959909E-01 +4.81311777671E-01 +6.92905237158E-03 +5.76513183734E-03 +7.00145610311E-03 +5.59587054461E-03 -2.04710415468E-01 +5.11277175762E-01
4.52000000000E+09 -2.68830556099E-01 +4.88904133909E-01 +8.16858194783E-03 +4.93052095031E-03 +8.18269686444E-03 +4.71819643842E-03 -1.90357473592E-01 +5.23720228186E-01
4.52500000000E+09 -2.57182413103E-01 +4.96845063286E-01 +8.39604545130E-03 +2.96644611218E-03 +8.28611014344E-03 +2.76325141878E-03 -1.75600885146E-01 +5.33926055124E-01
4.53000000000E+09 -2.43599859838E-01 +5.06338433601E-01 +7.99314639596E-03 +2.58956262304E-03 +7.91316584729E-03 +2.37418202723E-03 -1.61940354886E-01 +5.44454835206E-01
4.53500000000E+09 -2.27363810188E-01 +5.16629111615E-01 +8.10463956493E-03 +1.95058852753E-03 +8.00297067048E-03 +1.77862956197E-03 -1.46856250418E-01 +5.54435132558E-01
4.54000000000E+09 -2.10055952092E-01 +5.27340530446E-01 +8.46577681387E-03 +1.47768127572E-03 +8.32755211328E-03 +1.20883125980E-03 -1.31366861868E-01 +5.65541918189E-01
4.54500000000E+09 -1.93140522153E-01 +5.38091943610E-01 +9.02967090228E-03 +4.20297619487E-04 +8.82532852335E-03 +1.97589642048E-04 -1.14451023867E-01 +5.74228167767E-01
4.55000000000E+09 -1.77959376998E-01 +5.48187895884E-01 +9.15547700652E-03 -1.08433845224E-03 +8.90565800798E-03 -1.26812759763E-03 -9.86812990402E-02 +5.82795174591E-01
4.55500000000E+09 -1.65834087883E-01 +5.58322631780E-01 +8.50560506482E-03 -3.20633898963E-03 +8.24334487499E-03 -3.26588621669E-03 -8.40217577951E-02 +5.90209326116E-01
4.56000000000E+09 -1.55577998536E-01 +5.68935916139E-01 +6.53026840777E-03 -3.62401547660E-03 +6.30579633012E-03 -3.72583864025E-03 -7.06060101110E-02 +5.99082788907E-01
4.56500000000E+09 -1.45671709388E-01 +5.79370842256E-01 +5.92692242259E-03 -3.24953846626E-03 +5.66863566204E-03 -3.26811897899E-03 -5.51854401149E-02 +6.07339305281E-01
4.57000000000E+09 -1.35194275202E-01 +5.88301199173E-01 +6.00793573143E-03 -3.05413654876E-03 +5.75118127999E-03 -3.08335337741E-03 -3.95255089946E-02 +6.13957878235E-01
