# Hz S RI R 50
! CMT, C1220, 16058040, 17.2.0/1
! Date: 15/08/2018 11:59:33
! Data: Format (Calibration Info)
! Freq                      S11: Re/Im (F2)                       S21: Re/Im (F2)                       S12: Re/Im (F2)                       S22: Re/Im (F2)            
4.00000000000E+09 +6.64722659331E-01 -3.42672926664E-01 +1.53148839081E-03 -3.24418240252E-04 +1.60678524569E-03 -3.35304565839E-04 +7.75608639983E-01 -3.43900135234E-01
4.00500000000E+09 +6.56443966296E-01 -3.48814036397E-01 +1.46282322573E-03 -3.87853537799E-04 +1.52763606017E-03 -3.34520182726E-04 +7.67021728371E-01 -3.55524525360E-01
4.01000000000E+09 +6.47601043367E-01 -3.54935091404E-01 +1.38921721080E-03 -5.83125116517E-04 +1.46213870813E-03 -5.02690229364E-04 +7.57482142767E-01 -3.66820714208E-01
4.01500000000E+09 +6.37393140369E-01 -3.61775682050E-01 +1.34980754982E-03 -4.43919827984E-04 +1.42478921324E-03 -3.83414198342E-04 +7.47759472702E-01 -3.77295716906E-01
4.02000000000E+09 +6.26713062761E-01 -3.68982015942E-01 +1.63371980047E-03 -6.78690428546E-04 +1.72104184649E-03 -5.51097039482E-04 +7.37930045420E-01 -3.87506892472E-01
4.02500000000E+09 +6.15677532372E-01 -3.77892273582E-01 +1.67021597006E-03 -9.76959070171E-04 +1.75542390380E-03 -9.58155054171E-04 +7.27868147121E-01 -3.97821603430E-01
4.03000000000E+09 +6.04085526554E-01 -3.88333531220E-01 +1.39066004388E-03 -1.40989684621E-03 +1.52365583701E-03 -1.42199266798E-03 +7.17144628513E-01 -4.07985632955E-01
4.03500000000E+09 +5.92335924540E-01 -3.98679465210E-01 +1.01526889818E-03 -1.41030147167E-03 +1.12634030892E-03 -1.36970360190E-03 +7.06025398752E-01 -4.18403267710E-01
4.04000000000E+09 +5.81166643496E-01 -4.09170305962E-01 +8.74389589586E-04 -1.32514072496E-03 +9.33552572312E-04 -1.34419318368E-03 +6.94984406249E-01 -4.28917112910E-01
4.04500000000E+09 +5.70057010999E-01 -4.19423002622E-01 +7.35262522246E-04 -1.13839759464E-03 +8.20421841341E-04 -1.19417463754E-03 +6.83682013175E-01 -4.39500635288E-01
4.05000000000E+09 +5.58819121988E-01 -4.27962363755E-01 +1.08025508562E-03 -1.26059159219E-03 +1.18943077221E-03 -1.22142904559E-03 +6.72333846124E-01 -4.49535275753E-01
4.05500000000E+09 +5.47202265619E-01 -4.34870740340E-01 +1.06568405264E-03 -1.62684762007E-03 +1.23385903023E-03 -1.67986118031E-03 +6.60665047004E-01 -4.59370322691E-01
4.06000000000E+09 +5.35104834360E-01 -4.40398608286E-01 +8.35582601824E-04 -1.90696101930E-03 +9.41909241627E-04 -1.98622830909E-03 +6.48048784498E-01 -4.69054839319E-01
4.06500000000E+09 +5.22375349552E-01 -4.44706677065E-01 +4.42796688388E-04 -1.92591838114E-03 +4.61524608934E-04 -1.98959606413E-03 +6.34950361025E-01 -4.78149218014E-01
4.07000000000E+09 +5.08758159245E-01 -4.48812012278E-01 +4.19394400428E-04 -1.95958195800E-03 +5.17298739989E-04 -2.07151790733E-03 +6.21040378642E-01 -4.87699105008E-01
4.07500000000E+09 +4.94157850785E-01 -4.53817873526E-01 +1.74214683575E-04 -2.19465793565E-03 +2.13513074472E-04 -2.26309606370E-03 +6.07305605264E-01 -4.96477483274E-01
4.08000000000E+09 +4.78537079368E-01 -4.58941988593E-01 -1.72583360535E-04 -2.05879748697E-03 -3.73583623009E-05 -2.14758293301E-03 +5.94014022490E-01 -5.05510989859E-01
4.08500000000E+09 +4.62270196959E-01 -4.65329309074E-01 -4.08095412592E-04 -2.02003029795E-03 -3.42679832398E-04 -2.16028329962E-03 +5.79947487953E-01 -5.14753021420E-01
4.09000000000E+09 +4.45917169529E-01 -4.72015664223E-01 -4.62898811293E-04 -2.01018209997E-03 -4.84151704805E-04 -2.06224495181E-03 +5.66036520460E-01 -5.22601203101E-01
4.09500000000E+09 +4.30123795094E-01 -4.78765296839E-01 -5.82076276341E-04 -1.83663287950E-03 -5.30145519406E-04 -1.87370415106E-03 +5.51888202159E-01 -5.31343550631E-01
4.10000000000E+09 +4.14045623643E-01 -4.85665755682E-01 -4.99223922079E-04 -2.02842590779E-03 -5.13408495881E-04 -2.10942909779E-03 +5.35885261895E-01 -5.39451906724E-01
4.10500000000E+09 +3.98137090175E-01 -4.91003596964E-01 -7.36662603258E-04 -2.20616356397E-03 -7.86938550021E-04 -2.24060760779E-03 +5.19408475848E-01 -5.46849132368E-01
4.11000000000E+09 +3.82331373649E-01 -4.94240868659E-01 -1.13587069142E-03 -2.38503538782E-03 -1.18182468930E-03 -2.47201747921E-03 +5.02334756996E-01 -5.54383728746E-01
4.11500000000E+09 +3.66951332726E-01 -4.95748303194E-01 -1.73134725310E-03 -2.15143162379E-03 -1.79195922945E-03 -2.21225114507E-03 +4.85224272461E-01 -5.61280184961E-01
4.12000000000E+09 +3.51565328376E-01 -4.95929445700E-01 -1.88563773817E-03 -1.70815933806E-03 -1.89761906145E-03 -1.83259795496E-03 +4.68040663376E-01 -5.67676934549E-01
4.12500000000E+09 +3.36133163797E-01 -4.96514479786E-01 -1.94747898212E-03 -1.52218972460E-03 -1.95138863514E-03 -1.57776352429E-03 +4.51129341222E-01 -5.73551368702E-01
4.13000000000E+09 +3.18234096870E-01 -4.98154494502E-01 -1.97531921866E-03 -1.59618598637E-03 -1.97382517675E-03 -1.66686669216E-03 +4.34269998414E-01 -5.79411665424E-01
4.13500000000E+09 +2.99201196359E-01 -4.99158640875E-01 -2.26334641943E-03 -1.43439308314E-03 -2.29119718489E-03 -1.48515309454E-03 +4.15619284030E-01 -5.85312808421E-01
4.14000000000E+09 +2.80094025528E-01 -5.01399955261E-01 -2.55314472276E-03 -1.25904732254E-03 -2.49138709359E-03 -1.37076455755E-03 +3.96691809852E-01 -5.90163228518E-01
4.14500000000E+09 +2.60590134326E-01 -5.04676141760E-01 -2.85295295430E-03 -9.67978557194E-04 -2.90127537389E-03 -1.04258977709E-03 +3.77570304342E-01 -5.95498323635E-01
4.15000000000E+09 +2.41223573416E-01 -5.08823919156E-01 -2.82270124616E-03 -5.61190696216E-04 -2.87096082447E-03 -6.35573424035E-04 +3.57454217880E-01 -6.00000025605E-01
4.15500000000E+09 +2.22142365644E-01 -5.12622537871E-01 -2.79100762985E-03 -6.32196696211E-04 -2.86712689708E-03 -7.05364358221E-04 +3.38465478065E-01 -6.02920775170E-01
4.16000000000E+09 +2.03699444684E-01 -5.15492257829E-01 -3.34118430220E-03 -4.12204512173E-04 -3.43064135533E-03 -5.49910708104E-04 +3.19173744498E-01 -6.05800689001E-01
4.16500000000E+09 +1.86543758237E-01 -5.15789994565E-01 -3.59822198228E-03 +4.38203649253E-04 -3.65971562035E-03 +3.22218677098E-04 +2.98959929730E-01 -6.07341755462E-01
4.17000000000E+09 +1.70610096756E-01 -5.14671822502E-01 -3.33435545039E-03 +7.61345787566E-04 -3.40537732614E-03 +6.54696509369E-04 +2.79434138179E-01 -6.08224612997E-01
4.17500000000E+09 +1.54589872397E-01 -5.11154894445E-01 -3.33264865273E-03 +1.63210992676E-03 -3.44238545084E-03 +1.55261458316E-03 +2.58565866782E-01 -6.09171209790E-01
4.18000000000E+09 +1.39295943845E-01 -5.06678247352E-01 -2.28251405968E-03 +1.65490775381E-03 -2.43697800287E-03 +1.61990125910E-03 +2.38171233682E-01 -6.09705170630E-01
4.18500000000E+09 +1.22386233040E-01 -5.01749561146E-01 -2.48715728307E-03 +1.09978526523E-03 -2.68687118241E-03 +9.95014012008E-04 +2.16434921203E-01 -6.10931327242E-01
4.19000000000E+09 +1.04113937368E-01 -4.96283414282E-01 -2.94665144968E-03 +1.47451057300E-03 -3.19018215308E-03 +1.42167111187E-03 +1.94305787187E-01 -6.09687680086E-01
4.19500000000E+09 +8.50617976316E-02 -4.90316673205E-01 -3.01885169836E-03 +2.21244624451E-03 -3.24323118690E-03 +2.20369109162E-03 +1.73259753156E-01 -6.07905704265E-01
4.20000000000E+09 +6.61000045949E-02 -4.86005131267E-01 -2.81853065839E-03 +2.73171167937E-03 -3.01151950958E-03 +2.80139468220E-03 +1.51433035220E-01 -6.05853132634E-01
4.20500000000E+09 +4.63789693306E-02 -4.82690072813E-01 -2.34262861275E-03 +3.36238339196E-03 -2.52090257595E-03 +3.53816290017E-03 +1.29072180564E-01 -6.02485474689E-01
4.21000000000E+09 +2.72218718411E-02 -4.79222398723E-01 -1.59044381037E-03 +3.24085009167E-03 -1.68639147967E-03 +3.36190526948E-03 +1.06737905706E-01 -5.98843679973E-01
4.21500000000E+09 +8.63833038659E-03 -4.75646408905E-01 -1.51450291849E-03 +3.31090363151E-03 -1.62054374659E-03 +3.44722517172E-03 +8.40171541754E-02 -5.94389128969E-01
4.22000000000E+09 -8.87356437867E-03 -4.70525519535E-01 -1.55210016462E-03 +3.58270469483E-03 -1.55664388860E-03 +3.82378513269E-03 +6.25960212726E-02 -5.89280391143E-01
4.22500000000E+09 -2.47555691231E-02 -4.62755390525E-01 -8.50626593681E-04 +4.24945549334E-03 -8.62443055111E-04 +4.37111995787E-03 +4.09684031398E-02 -5.84334869826E-01
4.23000000000E+09 -3.85082580448E-02 -4.54399108585E-01 -1.47569969931E-04 +3.89036194119E-03 -1.04450158476E-04 +4.02457459235E-03 +1.89191707830E-02 -5.78086461297E-01
4.23500000000E+09 -5.34793874525E-02 -4.44860062348E-01 +1.79607856619E-04 +3.81494822228E-03 +2.21158263937E-04 +3.96020301797E-03 -2.51387821596E-03 -5.70259044200E-01
4.24000000000E+09 -6.99839374521E-02 -4.33721921539E-01 -6.50273567202E-06 +3.86233864898E-03 +4.79409928756E-05 +4.01097692166E-03 -2.50582427120E-02 -5.61997870777E-01
4.24500000000E+09 -8.75129374157E-02 -4.21011883572E-01 +8.07654259951E-04 +4.28678267053E-03 +9.02818177499E-04 +4.39623641019E-03 -4.70885270490E-02 -5.51967712060E-01
4.25000000000E+09 -1.06470577813E-01 -4.08445044783E-01 +1.20240831814E-03 +3.96427138453E-03 +1.34187255351E-03 +3.98790905203E-03 -6.89965996202E-02 -5.42209917724E-01
4.25500000000E+09 -1.26182764327E-01 -3.95774933141E-01 +1.71276077219E-03 +3.96196387831E-03 +1.79146245948E-03 +3.99643465451E-03 -9.15183010674E-02 -5.30529816017E-01
4.26000000000E+09 -1.45907865685E-01 -3.85082469147E-01 +1.91627995540E-03 +3.71978691473E-03 +2.01118801751E-03 +3.72025091404E-03 -1.11847240838E-01 -5.17579492197E-01
4.26500000000E+09 -1.66905923856E-01 -3.74878584207E-01 +2.28385882932E-03 +3.80821462208E-03 +2.37652685042E-03 +3.80357714001E-03 -1.32294002253E-01 -5.05119084126E-01
4.27000000000E+09 -1.85994232860E-01 -3.63882768143E-01 +2.89955457240E-03 +3.68469918692E-03 +2.94274972603E-03 +3.67196534851E-03 -1.53326818438E-01 -4.90229143920E-01
4.27500000000E+09 -2.02337634573E-01 -3.52858300101E-01 +3.53772726385E-03 +3.39518007938E-03 +3.61436236264E-03 +3.34656944234E-03 -1.73485036350E-01 -4.75160430702E-01
4.28000000000E+09 -2.16175204519E-01 -3.41301726709E-01 +4.22000168253E-03 +2.83998984806E-03 +4.23279070277E-03 +2.80251034531E-03 -1.93648916868E-01 -4.59059920067E-01
4.28500000000E+09 -2.28730072490E-01 -3.28523171528E-01 +4.26812982308E-03 +1.90741654444E-03 +4.28029710178E-03 +1.85665376791E-03 -2.13191185712E-01 -4.43032866302E-01
4.29000000000E+09 -2.38989074211E-01 -3.13131999553E-01 +3.95265720031E-03 +1.41334098333E-03 +3.98106415156E-03 +1.40558228276E-03 -2.31835536686E-01 -4.26315270060E-01
4.29500000000E+09 -2.49593945914E-01 -2.96782713889E-01 +3.64295970225E-03 +1.89815994248E-03 +3.65837179100E-03 +1.85004193406E-03 -2.50743215236E-01 -4.08774639815E-01
4.30000000000E+09 -2.60800686381E-01 -2.78462977886E-01 +4.76351887730E-03 +1.77198484503E-03 +4.78606875897E-03 +1.82959891992E-03 -2.67519617653E-01 -3.89358193010E-01
4.30500000000E+09 -2.73054701370E-01 -2.58326622875E-01 +5.25744435700E-03 +1.11713643369E-03 +5.30701566836E-03 +1.13296727049E-03 -2.82975468759E-01 -3.70041845801E-01
4.31000000000E+09 -2.86278154263E-01 -2.38230712573E-01 +6.05050685072E-03 +3.11028169048E-04 +6.11343858369E-03 +3.11689551396E-04 -2.98476077960E-01 -3.50146258032E-01
4.31500000000E+09 -3.00609251796E-01 -2.18328881340E-01 +5.89504230258E-03 -1.29275153613E-03 +5.96245932381E-03 -1.26344565937E-03 -3.13913848188E-01 -3.29382785189E-01
4.32000000000E+09 -3.14326956233E-01 -1.99833961754E-01 +4.91751038709E-03 -2.10885006566E-03 +4.96878471699E-03 -2.14703170435E-03 -3.27682564909E-01 -3.06885484194E-01
4.32500000000E+09 -3.28246920143E-01 -1.83082178285E-01 +4.27951698721E-03 -2.10509480101E-03 +4.38039209164E-03 -2.14853220654E-03 -3.40361422716E-01 -2.85406258477E-01
4.33000000000E+09 -3.39946483099E-01 -1.66233818481E-01 +4.53423261705E-03 -2.00189904238E-03 +4.62055684489E-03 -2.02056240490E-03 -3.53108596026E-01 -2.63191390912E-01
4.33500000000E+09 -3.48258550411E-01 -1.50195877114E-01 +4.51306248396E-03 -2.62147115930E-03 +4.57106296255E-03 -2.69062576708E-03 -3.64746267811E-01 -2.39292611322E-01
4.34000000000E+09 -3.54290602238E-01 -1.35003978772E-01 +4.64587705796E-03 -3.19014688276E-03 +4.69021172045E-03 -3.29500014919E-03 -3.75750843956E-01 -2.15819349211E-01
4.34500000000E+09 -3.58765249304E-01 -1.18653923553E-01 +4.15587403340E-03 -4.22046825847E-03 +4.20424783740E-03 -4.27790635012E-03 -3.86389886619E-01 -1.89408850074E-01
4.35000000000E+09 -3.61145375571E-01 -1.00259958929E-01 +3.46430671729E-03 -4.75308320260E-03 +3.56445463231E-03 -4.83069792665E-03 -3.93572035406E-01 -1.64138734813E-01
4.35500000000E+09 -3.63573555821E-01 -8.03179316860E-02 +3.01141542503E-03 -5.28328175657E-03 +3.02032403563E-03 -5.44018705325E-03 -4.01300630691E-01 -1.40011813293E-01
4.36000000000E+09 -3.67005282654E-01 -5.75219589008E-02 +2.05595003373E-03 -5.77503592184E-03 +2.04999660474E-03 -5.86832260801E-03 -4.07260306575E-01 -1.15717018510E-01
4.36500000000E+09 -3.69899080574E-01 -3.32490759725E-02 +1.00682834670E-03 -5.69717690610E-03 +9.20568594677E-04 -5.83897196209E-03 -4.12823044075E-01 -9.21089399093E-02
4.37000000000E+09 -3.74558495207E-01 -1.01379871891E-02 +3.35812101927E-04 -5.41069176485E-03 +2.17558470395E-04 -5.50551170626E-03 -4.16620173297E-01 -6.70869892862E-02
4.37500000000E+09 -3.80257894990E-01 +1.31408912196E-02 -1.49611077583E-04 -4.85514391727E-03 -2.16809880976E-04 -4.96607686578E-03 -4.19173010592E-01 -4.23010232614E-02
4.38000000000E+09 -3.86115832043E-01 +3.42577266000E-02 -1.23331461571E-04 -5.14914443850E-03 -2.23909503821E-04 -5.31233686224E-03 -4.21211997977E-01 -1.77769496499E-02
4.38500000000E+09 -3.91943677517E-01 +5.27037309369E-02 -3.97378930403E-04 -5.03013080965E-03 -5.69172504967E-04 -5.06267958310E-03 -4.23168373339E-01 +7.62838466112E-03
4.39000000000E+09 -3.96124727081E-01 +6.95324483234E-02 -9.35926776554E-04 -5.85125551269E-03 -1.14133662273E-03 -5.85115163552E-03 -4.23671371915E-01 +3.31345178212E-02
4.39500000000E+09 -3.98411052706E-01 +8.48399283513E-02 -2.34655133943E-03 -5.61367658806E-03 -2.55091111574E-03 -5.60620180910E-03 -4.23552994012E-01 +5.75998474431E-02
4.40000000000E+09 -3.97897607561E-01 +9.94827464648E-02 -2.89470029295E-03 -5.03524624907E-03 -3.09699805726E-03 -4.98387986858E-03 -4.21499630370E-01 +8.27694865413E-02
4.40500000000E+09 -3.95523803489E-01 +1.14953206492E-01 -3.85480488879E-03 -4.37817540021E-03 -4.01962252416E-03 -4.28205498409E-03 -4.17765523635E-01 +1.06353603477E-01
4.41000000000E+09 -3.90458892263E-01 +1.31910007528E-01 -3.68512607962E-03 -3.53194385488E-03 -3.77581466543E-03 -3.45711422811E-03 -4.14094502066E-01 +1.29335247898E-01
4.41500000000E+09 -3.85182831306E-01 +1.50687990847E-01 -3.91813549829E-03 -3.17182803029E-03 -4.02390574724E-03 -3.07918945616E-03 -4.09379511263E-01 +1.53541637073E-01
4.42000000000E+09 -3.79780734515E-01 +1.72034671005E-01 -3.99242229986E-03 -3.02621896440E-03 -4.07182907795E-03 -2.88072170150E-03 -4.03738872730E-01 +1.76217900779E-01
4.42500000000E+09 -3.74483894449E-01 +1.94264730079E-01 -4.42607052876E-03 -2.70888051982E-03 -4.50686348149E-03 -2.58120371402E-03 -3.97329445804E-01 +1.99261653410E-01
4.43000000000E+09 -3.70566952687E-01 +2.16492224449E-01 -4.39244724434E-03 -2.31343327178E-03 -4.36050751106E-03 -2.17043440680E-03 -3.91080119178E-01 +2.20565812844E-01
4.43500000000E+09 -3.68077409993E-01 +2.37872580390E-01 -5.24809194910E-03 -2.16648352047E-03 -5.15108294346E-03 -2.03009869724E-03 -3.84550916682E-01 +2.42405558627E-01
4.44000000000E+09 -3.66333899054E-01 +2.57535581114E-01 -5.54624858293E-03 -1.21108324770E-03 -5.46058430721E-03 -1.10966065287E-03 -3.75851187262E-01 +2.65182499559E-01
4.44500000000E+09 -3.64720865928E-01 +2.74809306053E-01 -5.30278747677E-03 -5.14369347882E-04 -5.24162611934E-03 -4.18175394732E-04 -3.66336489579E-01 +2.84404673467E-01
4.45000000000E+09 -3.61922339356E-01 +2.89749077975E-01 -5.61953384623E-03 +9.81733202747E-05 -5.61937044631E-03 +1.73162670595E-04 -3.56823269532E-01 +3.04430376795E-01
4.45500000000E+09 -3.57670659301E-01 +3.02592711433E-01 -5.39650879024E-03 +1.19852286140E-03 -5.36389338079E-03 +1.31922743130E-03 -3.45620906774E-01 +3.22918713342E-01
4.46000000000E+09 -3.51900427330E-01 +3.14921694476E-01 -4.57043584223E-03 +1.58494935858E-03 -4.47164618168E-03 +1.68608060036E-03 -3.36328824584E-01 +3.40406684427E-01
4.46500000000E+09 -3.43190199026E-01 +3.28288233669E-01 -4.31882914737E-03 +1.64918687889E-03 -4.20488511537E-03 +1.69458021494E-03 -3.24280011506E-01 +3.59056267271E-01
4.47000000000E+09 -3.32122890033E-01 +3.43038136496E-01 -4.11677798537E-03 +1.51352055298E-03 -4.01956746279E-03 +1.61330941889E-03 -3.12379224796E-01 +3.75725340745E-01
4.47500000000E+09 -3.19342662312E-01 +3.59182874011E-01 -5.05448917015E-03 +2.04155682697E-03 -4.94015582306E-03 +2.08955682656E-03 -3.00709413546E-01 +3.91755169387E-01
4.48000000000E+09 -3.06363873665E-01 +3.76462584533E-01 -4.44550096171E-03 +3.23025835376E-03 -4.30091918176E-03 +3.21063506478E-03 -2.89044485903E-01 +4.08135835232E-01
4.48500000000E+09 -2.93940525193E-01 +3.94294774978E-01 -3.83801210520E-03 +3.94603219440E-03 -3.69924294568E-03 +3.84616608714E-03 -2.77171708888E-01 +4.24195369360E-01
4.49000000000E+09 -2.83998901791E-01 +4.11319448620E-01 -3.05724550709E-03 +4.37905063715E-03 -2.99239194835E-03 +4.25943583945E-03 -2.63860738193E-01 +4.39962910925E-01
4.49500000000E+09 -2.75794468337E-01 +4.29394076232E-01 -2.10684690896E-03 +4.35086702807E-03 -2.09260068057E-03 +4.23934938374E-03 -2.50654183329E-01 +4.53807108508E-01
4.50000000000E+09 -2.68527318361E-01 +4.44448308680E-01 -1.66870220965E-03 +4.08620052226E-03 -1.69093158204E-03 +4.04295238240E-03 -2.37459110436E-01 +4.67752583644E-01
4.50500000000E+09 -2.62793101259E-01 +4.57904186513E-01 -1.41108311163E-03 +3.94296326670E-03 -1.43237840682E-03 +3.90763010546E-03 -2.23422767414E-01 +4.80326415560E-01
4.51000000000E+09 -2.55980061247E-01 +4.69178419328E-01 -1.30634486406E-03 +3.96662846093E-03 -1.28749769255E-03 +3.97215960131E-03 -2.10541639774E-01 +4.92418379781E-01
4.51500000000E+09 -2.47584416274E-01 +4.77909186818E-01 -9.94224822268E-04 +4.27455992844E-03 -9.14826277803E-04 +4.28913301199E-03 -1.97035860349E-01 +5.04570613917E-01
4.52000000000E+09 -2.38046363805E-01 +4.85367976562E-01 -6.35617228283E-04 +4.22130801863E-03 -5.26850583477E-04 +4.21104269189E-03 -1.83379879008E-01 +5.16164811379E-01
4.52500000000E+09 -2.26507615815E-01 +4.93224539201E-01 -2.29062296265E-04 +4.19729992975E-03 -1.63286756072E-04 +4.18597375953E-03 -1.70077749400E-01 +5.26764543907E-01
4.53000000000E+09 -2.12407772308E-01 +5.01664827486E-01 +1.58253300761E-05 +4.50496712940E-03 +1.20163545196E-04 +4.47096614224E-03 -1.56164530337E-01 +5.37263999751E-01
4.53500000000E+09 -1.97170101541E-01 +5.11346183522E-01 +7.51098190628E-04 +4.32137772428E-03 +8.94080311134E-04 +4.30105529765E-03 -1.41845329038E-01 +5.47331061721E-01
4.54000000000E+09 -1.81393677467E-01 +5.22097500753E-01 +1.20972846566E-03 +4.20343562483E-03 +1.38138448341E-03 +4.07054351808E-03 -1.26907224931E-01 +5.57463146798E-01
4.54500000000E+09 -1.65934588201E-01 +5.33059833743E-01 +1.23831855941E-03 +3.96700521141E-03 +1.32262072702E-03 +3.91460846311E-03 -1.11498843101E-01 +5.65822926155E-01
4.55000000000E+09 -1.52982189436E-01 +5.43795352511E-01 +2.01047168204E-03 +3.94375859297E-03 +2.02553660949E-03 +3.76607572686E-03 -9.69834904000E-02 +5.74240194789E-01
4.55500000000E+09 -1.42070501700E-01 +5.54965746469E-01 +2.11867355783E-03 +3.53588010925E-03 +2.16300726755E-03 +3.40145954317E-03 -8.36514019067E-02 +5.82155720514E-01
4.56000000000E+09 -1.32365767935E-01 +5.64865336341E-01 +2.42258522950E-03 +3.40949274930E-03 +2.34878968062E-03 +3.27071755924E-03 -6.95704023958E-02 +5.91207818980E-01
4.56500000000E+09 -1.23657858002E-01 +5.72749287868E-01 +2.87774133209E-03 +3.26478509241E-03 +2.87074086590E-03 +3.12643534016E-03 -5.50581466938E-02 +5.99098486002E-01
4.57000000000E+09 -1.15070792480E-01 +5.79571985456E-01 +3.07960630763E-03 +2.81656687313E-03 +3.01906541476E-03 +2.63310400391E-03 -4.00271873779E-02 +6.06335116962E-01
